!$
! Info: Touchstone file created by Circ.  Input file=Intel_C2M_200G_6p0in_202208016_staggered.circ
!$
# Hz S RI R 50
0	0.02209647	3.583174e-24	0.9777041	-6.203137e-24	0.000107804	2.793933e-22	-0.0002383518	2.918967e-20
	0.9777041	-6.200699e-24	0.02264976	6.653745e-24	-0.0002384072	2.919647e-20	0.0003309833	7.475243e-22
	0.0001078612	2.795187e-22	-0.0002385434	2.921314e-20	0.02209443	3.394516e-24	0.9777044	-6.301311e-24
	-0.0002384879	2.920635e-20	0.0003310505	7.480543e-22	0.9777044	-6.303753e-24	0.02265118	6.791279e-24
1e+07	0.02686762	0.007573252	0.9685556	-0.09875271	0.001721013	0.005928311	-0.001183639	-0.0008329506
	0.9685556	-0.09875271	0.02729035	0.007325853	-0.001183971	-0.0008326786	0.001605275	0.005965269
	0.001721013	0.005928311	-0.001183971	-0.0008326786	0.02666268	0.007451889	0.9687688	-0.09860769
	-0.001183639	-0.0008329506	0.001605275	0.005965269	0.9687688	-0.09860769	0.02707597	0.007210627
2e+07	0.0319712	0.01103732	0.9500236	-0.1923488	0.003725692	0.01100483	-0.001596852	-0.001076553
	0.9500236	-0.1923488	0.03372267	0.01033096	-0.001597466	-0.001075337	0.003228059	0.0112244
	0.003725701	0.01100482	-0.001597468	-0.001075447	0.03165895	0.01093345	0.9503644	-0.1922106
	-0.001596852	-0.001076657	0.003228149	0.01122429	0.9503644	-0.1922106	0.03337837	0.01026233
3e+07	0.03627356	0.01235189	0.9238401	-0.2818729	0.006686129	0.01565864	-0.002032787	-0.001229585
	0.9238401	-0.2818729	0.03958998	0.01044224	-0.002033246	-0.001226914	0.005716942	0.01606905
	0.006686105	0.01565868	-0.002033289	-0.001226911	0.03588349	0.01231026	0.9242719	-0.2817894
	-0.0020328	-0.00122959	0.005716918	0.01606902	0.9242719	-0.2817894	0.03917096	0.01046859
4e+07	0.03986665	0.01260736	0.8899414	-0.3676999	0.01055183	0.01956559	-0.00247444	-0.001268623
	0.8899414	-0.3676999	0.04529405	0.009051158	-0.002473972	-0.001264403	0.008908725	0.02041075
	0.01055183	0.01956561	-0.002473977	-0.001264399	0.0394292	0.01264227	0.8904379	-0.3676951
	-0.002474441	-0.00126861	0.008908724	0.02041075	0.8904379	-0.3676951	0.04483476	0.009196033
5e+07	0.04290696	0.01226532	0.8485615	-0.4494031	0.0151455	0.02260641	-0.002900831	-0.001198923
	0.8485615	-0.4494031	0.05075589	0.006305311	-0.002898704	-0.001193508	0.01272787	0.02411957
	0.0151455	0.02260642	-0.002898701	-0.001193509	0.04244323	0.01238461	0.8490993	-0.4494928
	-0.002900828	-0.001198924	0.01272787	0.02411958	0.8490993	-0.4494928	0.05029141	0.006579754
6e+07	0.0454767	0.01154444	0.8000614	-0.5264459	0.02029518	0.02466046	-0.003291005	-0.001036063
	0.8000614	-0.5264459	0.05581957	0.002374385	-0.003286654	-0.001030022	0.01704796	0.02710729
	0.02029519	0.02466044	-0.003286652	-0.001030022	0.04500536	0.01175226	0.8006173	-0.5266405
	-0.003291002	-0.001036063	0.01704796	0.02710729	0.8006173	-0.5266405	0.05538379	0.002780159
7e+07	0.04763835	0.01061411	0.7448763	-0.5982813	0.02580495	0.02563935	-0.003630841	-0.000798547
	0.7448763	-0.5982813	0.06036036	-0.002597331	-0.003623851	-0.0007927609	0.02173256	0.02931223
	0.02580495	0.02563934	-0.003623808	-0.000792817	0.04717679	0.01091146	0.7454263	-0.5985867
	-0.003630838	-0.0007985491	0.02173256	0.02931223	0.7454263	-0.5985867	0.05998476	-0.002066319
8e+07	0.04947614	0.009606516	0.6834983	-0.6643818	0.03146672	0.02549138	-0.003911594	-0.0005052338
	0.6834983	-0.6643818	0.06426014	-0.008483811	-0.003901905	-0.0005007305	0.02663756	0.03069789
	0.03146672	0.02549139	-0.003901906	-0.000500728	0.04904111	0.009992685	0.6840192	-0.6648016
	-0.003911595	-0.0005052314	0.02663756	0.03069789	0.6840192	-0.6648016	0.06397399	-0.007839937
9e+07	0.05109588	0.008612949	0.6164648	-0.7242575	0.03706727	0.02420222	-0.004129617	-0.0001742362
	0.6164648	-0.7242575	0.06740886	-0.0151526	-0.004117552	-0.0001721341	0.03161702	0.03125445
	0.03706728	0.02420223	-0.00411755	-0.0001721249	0.05070402	0.009086921	0.6169287	-0.7247914
	-0.004129617	-0.0001742264	0.03161702	0.03125445	0.6169287	-0.7247914	0.06724013	-0.01441284
1e+08	0.05265407	0.007714591	0.5442996	-0.7774945	0.0423967	0.02179229	-0.00428811	0.0001795606
	0.5442996	-0.7774945	0.06975867	-0.022435	-0.004274621	0.0001779677	0.03653099	0.03099643
	0.0423967	0.02179229	-0.004274621	0.0001779667	0.0523298	0.008284153	0.5446681	-0.7781477
	-0.00428811	0.0001795596	0.03653099	0.03099643	0.5446681	-0.7781477	0.06974525	-0.02161911
1.1e+08	0.05425227	0.006600661	0.4676225	-0.8233322	0.04724194	0.01830661	-0.004373312	0.0005509702
	0.4676225	-0.8233322	0.07123649	-0.03046156	-0.004359589	0.000546868	0.04122338	0.02995491
	0.04724194	0.0183066	-0.004359589	0.0005468666	0.05408552	0.007173692	0.4678574	-0.8240375
	-0.004373311	0.0005509687	0.04122338	0.02995491	0.4678574	-0.8240375	0.07139185	-0.02963782
1.2e+08	0.05570998	0.005478718	0.387422	-0.8616275	0.05138058	0.0138885	-0.004397019	0.0008971395
	0.387422	-0.8616275	0.07150854	-0.03887216	-0.00438384	0.0008898627	0.04556857	0.02821626
	0.05138058	0.0138885	-0.00438384	0.0008898611	0.05562295	0.006035785	0.387537	-0.8623586
	-0.004397019	0.0008971379	0.04556857	0.02821626	0.387537	-0.8623586	0.07180465	-0.03808119
1.3e+08	0.05716967	0.004364512	0.3043387	-0.8921795	0.05466206	0.008668889	-0.00437917	0.001211615
	0.3043387	-0.8921795	0.07061584	-0.04742407	-0.00436788	0.001201141	0.04946284	0.0258685
	0.05466206	0.008668887	-0.00436788	0.00120114	0.05714059	0.00491446	0.3043388	-0.8929193
	-0.004379171	0.001211614	0.04946284	0.0258685	0.3043388	-0.8929193	0.07102937	-0.04669126
1.4e+08	0.05870158	0.003214969	0.2190819	-0.9148059	0.05695185	0.002809013	-0.004336632	0.001490044
	0.2190819	-0.9148059	0.06858146	-0.05591738	-0.004328202	0.001477547	0.05281827	0.02301695
	0.05695185	0.002809012	-0.004328202	0.001477546	0.05872871	0.003757807	0.2189722	-0.9155358
	-0.004336633	0.001490043	0.05281827	0.02301695	0.2189722	-0.9155358	0.06908818	-0.05525785
1.5e+08	0.06034835	0.001968849	0.1323784	-0.9293809	0.05814247	-0.003507262	-0.004285505	0.001732748
	0.1323784	-0.9293809	0.06544974	-0.06416777	-0.004280217	0.00171922	0.05556881	0.01977953
	0.05814247	-0.003507263	-0.004280217	0.001719219	0.06043132	0.00249606	0.1321662	-0.9300863
	-0.004285505	0.001732747	0.05556881	0.01977953	0.1321662	-0.9300863	0.06602678	-0.06358941
1.6e+08	0.0621284	0.000553632	0.04496468	-0.9358383	0.05815894	-0.01007892	-0.004240425	0.001944145
	0.04496468	-0.9358383	0.06128834	-0.0720052	-0.004238125	0.001930596	0.05767191	0.01628311
	0.05815894	-0.01007892	-0.004238125	0.001930595	0.06226321	0.001052927	0.0446563	-0.9365075
	-0.004240425	0.001944145	0.05767191	0.01628311	0.0446563	-0.9365075	0.06191452	-0.07151051
1.7e+08	0.06403595	-0.001109211	-0.0424226	-0.9341794	0.0569617	-0.01669396	-0.004213815	0.002132308
	-0.0424226	-0.9341794	0.05618751	-0.07927625	-0.004214066	0.002119587	0.05910951	0.01265805
	0.0569617	-0.01669396	-0.004214066	0.002119586	0.06421421	-0.0006500174	-0.04281953	-0.9348012
	-0.004213815	0.002132307	0.05910951	0.01265805	-0.04281953	-0.9348012	0.05684431	-0.07886358
1.8e+08	0.06604087	-0.003098907	-0.1290518	-0.9244683	0.05454851	-0.02313572	-0.004215352	0.002308403
	-0.1290518	-0.9244683	0.05025864	-0.08584611	-0.004217522	0.002296993	0.05988875	0.009034171
	0.05454851	-0.02313572	-0.004217523	0.002296993	0.06625009	-0.002689446	-0.1295286	-0.9250325
	-0.004215352	0.002308402	0.05988875	0.009034171	-0.1295286	-0.9250325	0.05092939	-0.08551044
1.9e+08	0.06808849	-0.005489614	-0.2141991	-0.9068311	0.05095509	-0.02918942	-0.004251119	0.002486222
	-0.2141991	-0.9068311	0.04363034	-0.09160092	-0.00425455	0.002476327	0.06004092	0.005536583
	0.05095509	-0.02918942	-0.004254551	0.002476327	0.06831371	-0.005135775	-0.2147465	-0.9073318
	-0.004251119	0.002486221	0.06004092	0.005536584	-0.2147465	-0.9073318	0.04430184	-0.09133483
2e+08	0.07010066	-0.008343996	-0.297158	-0.8814579	0.04625395	-0.03464878	-0.004323412	0.00268088
	-0.297158	-0.8814579	0.03644669	-0.09645019	-0.004327557	0.002672323	0.05961964	0.002280258
	0.04625395	-0.03464878	-0.004327557	0.002672323	0.0703264	-0.008048117	-0.2977674	-0.8818859
	-0.004323412	0.00268088	0.05961964	0.002280258	-0.2977674	-0.8818859	0.03710729	-0.09624396
2.1e+08	0.07197941	-0.01170728	-0.3772436	-0.8485991	0.0405525	-0.03932196	-0.004430729	0.002907977
	-0.3772436	-0.8485991	0.02886162	-0.1003288	-0.004435016	0.002900706	0.05869978	-0.0006329727
	0.0405525	-0.03932196	-0.004435016	0.002900706	0.07218982	-0.01146795	-0.3779048	-0.848949
	-0.004430729	0.002907977	0.05869978	-0.0006329726	-0.3779048	-0.848949	0.02950385	-0.1001716
2.2e+08	0.07360999	-0.01560306	-0.4537964	-0.8085625	0.03399005	-0.04303748	-0.004567089	0.003183216
	-0.4537964	-0.8085625	0.0210369	-0.1031978	-0.004571258	0.003176749	0.05737312	-0.003118513
	0.03399005	-0.04303748	-0.004571259	0.003176749	0.07379053	-0.01541535	-0.4544995	-0.8088296
	-0.004567089	0.003183215	0.05737312	-0.003118513	-0.4544995	-0.8088296	0.02165544	-0.1030778
2.3e+08	0.07486698	-0.02002873	-0.5261849	-0.7617125	0.02673391	-0.0456495	-0.004722993	0.003520627
	-0.5261849	-0.7617125	0.01313669	-0.1050452	-0.004726814	0.003514757	0.0557456	-0.005111977
	0.02673391	-0.0456495	-0.004726814	0.003514757	0.07500472	-0.01988536	-0.526921	-0.7618927
	-0.004722993	0.003520627	0.0557456	-0.005111977	-0.526921	-0.7618927	0.0137293	-0.1049503
2.4e+08	0.07561989	-0.02495285	-0.5938175	-0.7084672	0.01897486	-0.04704178	-0.004884851	0.003933147
	-0.5938175	-0.7084672	0.005323097	-0.1058865	-0.004888457	0.003927257	0.05393326	-0.006570956
	0.01897486	-0.04704178	-0.004888457	0.003927257	0.07570344	-0.02484396	-0.5945759	-0.7085592
	-0.004884851	0.003933147	0.05393326	-0.006570956	-0.5945759	-0.7085592	0.005890785	-0.1058051
2.5e+08	0.07573951	-0.03031348	-0.6561385	-0.6492968	0.01092152	-0.04713133	-0.005035946	0.004430596
	-0.6561385	-0.6492968	-0.002246973	-0.1057632	-0.005039494	0.00442423	0.05205753	-0.007476977
	0.01092152	-0.04713133	-0.005039494	0.00442423	0.07575994	-0.03022782	-0.656909	-0.6492967
	-0.005035946	0.004430596	0.05205753	-0.007476977	-0.656909	-0.6492967	-0.001700757	-0.1056843
2.6e+08	0.07510499	-0.03601866	-0.7126372	-0.584715	0.002794762	-0.04587142	-0.005156948	0.00501952
	-0.7126372	-0.584715	-0.009427768	-0.1047415	-0.005160624	0.005012508	0.05024076	-0.007836004
	0.002794762	-0.04587142	-0.005160624	0.005012508	0.07505521	-0.03594339	-0.7134082	-0.5846235
	-0.005156948	0.00501952	0.05024076	-0.007836004	-0.7134082	-0.5846235	-0.00889662	-0.1046559
2.7e+08	0.07361018	-0.04194756	-0.7628486	-0.5152807	-0.005178325	-0.04325221	-0.005225985	0.005702737
	-0.7628486	-0.5152807	-0.01608669	-0.1029106	-0.005230482	0.005694743	0.04860162	-0.007677657
	-0.005178325	-0.04325221	-0.005230482	0.005694743	0.07348554	-0.04186893	-0.7636114	-0.5150982
	-0.005225985	0.005702737	0.04860162	-0.007677657	-0.7636114	-0.5150982	-0.01556254	-0.1028109
2.8e+08	0.07117034	-0.04795282	-0.8063606	-0.4415933	-0.01277094	-0.03930206	-0.005219862	0.006478462
	-0.8063606	-0.4415933	-0.02210899	-0.1003801	-0.005225567	0.006469622	0.04725075	-0.007054975
	-0.01277094	-0.03930206	-0.005225567	0.006469622	0.07096877	-0.04785669	-0.8071053	-0.4413211
	-0.005219862	0.006478462	0.04725075	-0.007054975	-0.8071053	-0.4413211	-0.02158199	-0.100261
2.9e+08	0.06772785	-0.05386554	-0.8428151	-0.364288	-0.01976273	-0.03408699	-0.005114088	0.007340398
	-0.8428151	-0.364288	-0.02740088	-0.09727616	-0.005121875	0.007330928	0.04628617	-0.006041636
	-0.01976273	-0.03408699	-0.005121875	0.007330927	0.06744931	-0.0537372	-0.8435321	-0.3639285
	-0.005114088	0.007340398	0.04628617	-0.006041636	-0.8435321	-0.3639285	-0.02685988	-0.09713519
3e+08	0.06325713	-0.05950005	-0.8719112	-0.28403	-0.02594559	-0.0277087	-0.004885124	0.008276892
	-0.8719112	-0.28403	-0.03189107	-0.09373826	-0.0048956	0.008267322	0.04578957	-0.004730091
	-0.02594559	-0.0277087	-0.0048956	0.008267322	0.06290396	-0.05932502	-0.8725905	-0.2835853
	-0.004885124	0.008276892	0.04578957	-0.004730091	-0.8725905	-0.2835853	-0.03132446	-0.09357557
3.1e+08	0.05776842	-0.06466064	-0.893411	-0.20151	-0.03112999	-0.02030267	-0.004510251	0.009271196
	-0.893411	-0.20151	-0.03553365	-0.08991513	-0.004523625	0.009262137	0.04582356	-0.00322705
	-0.03112999	-0.02030267	-0.004523625	0.009262137	0.05734512	-0.06442426	-0.8940415	-0.2009857
	-0.004510251	0.009271196	0.04582356	-0.00322705	-0.8940415	-0.2009857	-0.03492982	-0.08973392
3.2e+08	0.05131015	-0.06914797	-0.9071373	-0.1174434	-0.03514996	-0.01203459	-0.003968892	0.01030129
	-0.9071373	-0.1174434	-0.03830844	-0.08596048	-0.003985386	0.01029372	0.04642839	-0.001650788
	-0.03514996	-0.01203459	-0.003985386	0.01029372	0.05082428	-0.06883674	-0.9077125	-0.116842
	-0.003968892	0.01030129	0.04642839	-0.001650788	-0.9077125	-0.116842	-0.03765702	-0.08576664
3.3e+08	0.04397041	-0.07276761	-0.9129808	-0.03255597	-0.0378674	-0.00309625	-0.003243443	0.01134018
	-0.9129808	-0.03255597	-0.04022216	-0.082028	-0.003263616	0.01133523	0.04762023	-0.0001259054
	-0.0378674	-0.00309625	-0.003263616	0.01133523	0.04343158	-0.07236858	-0.9134914	-0.03188504
	-0.003243443	0.01134018	0.04762023	-0.0001259054	-0.9134914	-0.03188504	-0.0395134	-0.08183014
3.4e+08	0.03587664	-0.07533727	-0.9109003	0.05241188	-0.03917699	0.006299464	-0.002321641	0.01235633
	-0.9109003	0.05241188	-0.04130739	-0.07826771	-0.002344601	0.01235508	0.049391	0.001221301
	-0.03917699	0.006299464	-0.002344601	0.01235508	0.03529673	-0.07483937	-0.9113398	0.05314847
	-0.002321641	0.01235633	0.049391	0.001221301	-0.9113398	0.05314847	-0.04053408	-0.07807635
3.5e+08	0.02719319	-0.07669515	-0.9009253	0.1367226	-0.0390083	0.01592369	-0.001195799	0.01331452
	-0.9009253	0.1367226	-0.04162246	-0.07482042	-0.001220859	0.01331803	0.05170741	0.002266965
	-0.0390083	0.01592369	-0.001220859	0.01331803	0.02658614	-0.0760885	-0.9012835	0.1375141
	-0.001195799	0.01331452	0.05170741	0.002266965	-0.9012835	0.1375141	-0.04077879	-0.07464866
3.6e+08	0.01811796	-0.07670684	-0.8831534	0.2196373	-0.03732889	0.02553763	0.0001350298	0.01417654
	-0.8831534	0.2196373	-0.04124835	-0.07181495	0.0001087017	0.01418599	0.05451231	0.002895369
	-0.03732889	0.02553763	0.0001087017	0.01418599	0.01749981	-0.07598425	-0.8834238	0.220476
	0.0001350298	0.01417654	0.05451231	0.002895369	-0.8834238	0.220476	-0.04033167	-0.07167637
3.7e+08	0.008877336	-0.07527298	-0.8577527	0.3004315	-0.03414522	0.03489912	0.001664247	0.01490281
	-0.8577527	0.3004315	-0.04028685	-0.06936261	0.001638336	0.01491879	0.05772663	0.003002888
	-0.03414522	0.03489912	0.001638336	0.01491879	0.008265585	-0.07442973	-0.85793	0.301309
	0.001664247	0.01490281	0.05772663	0.003002888	-0.85793	0.301309	-0.0392976	-0.06927205
3.8e+08	-0.0002803192	-0.07233397	-0.8249616	0.3783987	-0.02950257	0.04376836	0.003378441	0.01545305
	-0.8249616	0.3783987	-0.03885717	-0.06755486	0.003354024	0.01547625	0.06125174	0.002502043
	-0.02950257	0.04376836	0.003354024	0.01547625	-0.0008668922	-0.07136793	-0.825039	0.3793026
	0.003378441	0.01545305	0.06125174	0.002502043	-0.825039	0.3793026	-0.03779835	-0.06752768
3.9e+08	-0.00909117	-0.06787515	-0.7850862	0.4528543	-0.02348526	0.05191468	0.005254622	0.0157892
	-0.7850862	0.4528543	-0.03709233	-0.06646133	0.005234318	0.015819	0.06497313	0.0013252
	-0.02348526	0.05191468	0.005234318	0.015819	-0.009633497	-0.06678817	-0.7850622	0.4537749
	0.005254622	0.0157892	0.06497313	0.0013252	-0.7850622	0.4537749	-0.03597064	-0.06651143
4e+08	-0.01728589	-0.06192999	-0.7385	0.5231484	-0.01621361	0.05912271	0.007263171	0.01587535
	-0.7385	0.5231484	-0.03513472	-0.06612612	0.007248512	0.01591159	0.06876429	-0.0005727064
	-0.01621361	0.05912271	0.007248512	0.01591159	-0.01776486	-0.06072645	-0.738369	0.5240733
	0.007263171	0.01587535	0.06876429	-0.0005727064	-0.738369	0.5240733	-0.03395907	-0.06626697
4.1e+08	-0.02459851	-0.05458108	-0.6856323	0.5886728	-0.00784209	0.0651978	0.009366459	0.01568083
	-0.6856323	0.5886728	-0.03313109	-0.06656728	0.009359126	0.01572249	0.07249176	-0.003211756
	-0.00784209	0.0651978	0.009359126	0.01572249	-0.02499516	-0.05326898	-0.6853936	0.5895904
	0.009366459	0.01568083	0.07249176	-0.003211756	-0.6853936	0.5895904	-0.03191359	-0.06681044
4.2e+08	-0.03077367	-0.04596048	-0.6269773	0.6488614	0.001444719	0.06997212	0.01151983	0.01518194
	-0.6269773	0.6488614	-0.03122904	-0.06777716	0.01152157	0.01522715	0.07601912	-0.006587372
	0.001444719	0.06997212	0.01152157	0.01522715	-0.03107031	-0.04455125	-0.6266318	0.6497572
	0.01151983	0.01518194	0.07601912	-0.006587372	-0.6266318	0.6497572	-0.02998374	-0.06813204
4.3e+08	-0.03557836	-0.03624696	-0.5630763	0.7032026	0.01143714	0.07330861	0.01367392	0.01436198
	-0.5630763	0.7032026	-0.02957093	-0.06972191	0.01368598	0.0144091	0.07921294	-0.01066854
	0.01143714	0.07330861	0.01368598	0.0144091	-0.03575917	-0.03475495	-0.5626255	0.7040644
	0.01367392	0.01436198	0.07921294	-0.01066854	-0.5626255	0.7040644	-0.02831424	-0.0701952
4.4e+08	-0.03880944	-0.02566222	-0.4945179	0.7512418	0.02190493	0.07510499	0.0157751	0.01321427
	-0.4945179	0.7512418	-0.02829051	-0.07234341	0.01579823	0.01326056	0.08194685	-0.0154003
	0.02190493	0.07510499	0.01579823	0.01326056	-0.03886052	-0.02410491	-0.4939661	0.7520559
	0.0157751	0.01321427	0.08194685	-0.0154003	-0.4939661	0.7520559	-0.02703953	-0.07293881
4.5e+08	-0.04030113	-0.0144666	-0.4219331	0.7925835	0.03260379	0.07529714	0.01776804	0.01174192
	-0.4219331	0.7925835	-0.02750835	-0.07556153	0.01780251	0.01178477	0.08410671	-0.02070471
	0.03260379	0.07529714	0.01780251	0.01178477	-0.0402115	-0.0128639	-0.4212861	0.7933377
	0.01776804	0.01174192	0.08410671	-0.02070471	-0.4212861	0.7933377	-0.02628099	-0.07627942
4.6e+08	-0.03993254	-0.002951198	-0.3459844	0.8268988	0.04328148	0.07386042	0.0195977	0.009958105
	-0.3459844	0.8268988	-0.02732818	-0.07927695	0.01964304	0.009995151	0.08559431	-0.02648436
	0.04328148	0.07386042	0.01964304	0.009995151	-0.03969467	-0.001324516	-0.345248	0.8275813
	0.0195977	0.009958105	0.08559431	-0.02648436	-0.345248	0.8275813	-0.02614239	-0.08011429
4.7e+08	-0.03763459	0.008570706	-0.2673568	0.8539311	0.05368497	0.07081095	0.02121133	0.007887619
	-0.2673568	0.8539311	-0.02783397	-0.08337356	0.02126647	0.007915869	0.08633101	-0.03262501
	0.05368497	0.07081095	0.02126647	0.007915869	-0.03724372	0.01019773	-0.2665411	0.8545294
	0.02121133	0.007887619	0.08633101	-0.03262501	-0.2665411	0.8545294	-0.02670681	-0.08432438
4.8e+08	-0.03339081	0.01977157	-0.1867546	0.8734842	0.0635662	0.0662049	0.02256123	0.005563599
	-0.1867546	0.8734842	-0.02908719	-0.08772454	0.02262429	0.005581106	0.08626017	-0.03900064
	0.0635662	0.0662049	0.02262429	0.005581106	-0.03284709	0.02137465	-0.1858709	0.8739919
	0.02256123	0.005563599	0.08626017	-0.03900064	-0.1858709	0.8739919	-0.02803468	-0.0887793
4.9e+08	-0.02724295	0.03031885	-0.1048973	0.8854385	0.07268978	0.06013744	0.02360609	0.003029544
	-0.1048973	0.8854385	-0.03112645	-0.09219456	0.0236748	0.003033795	0.08534895	-0.0454772
	0.07268978	0.06013744	0.0236748	0.003033795	-0.02654983	0.03187387	-0.1039544	0.8858473
	0.02360609	0.003029544	0.08534895	-0.0454772	-0.1039544	0.8858473	-0.0301625	-0.09334127
5e+08	-0.01929068	0.03988782	-0.02249694	0.8897451	0.08083823	0.05273926	0.02431303	0.000334592
	-0.02249694	0.8897451	-0.03396576	-0.0966452	0.02438471	0.0003245668	0.08358935	-0.05191763
	0.08083823	0.05273926	0.02438471	0.0003245668	-0.01845556	0.04137036	-0.02151078	0.8900473
	0.02431303	0.000334592	0.08358935	-0.05191763	-0.02151078	0.8900473	-0.03310186	-0.0978695
5.1e+08	-0.00968902	0.04816798	0.05972989	0.8864169	0.08781756	0.04417417	0.02465954	-0.002465207
	0.05972989	0.8864169	-0.037595	-0.1009392	0.02473095	-0.00249039	0.08099769	-0.05818657
	0.08781756	0.04417417	0.02473095	-0.00249039	-0.00872369	0.04955564	0.06074752	0.886611
	0.02465954	-0.002465207	0.08099769	-0.05818657	0.06074752	0.886611	-0.03683972	-0.1022245
5.2e+08	0.001352106	0.05487568	0.1410803	0.8755396	0.09346359	0.03463341	0.02463334	-0.00531197
	0.1410803	0.8755396	-0.04198096	-0.1049439	0.02470109	-0.005352816	0.07761419	-0.06415465
