!$
! Info: Touchstone file created by Circ.  Input file=Intel_C2M_200G_6p0in_202208016_staggered.circ
!$
# Hz S RI R 50
0	0.02264976	6.653207e-24	-8.689808e-05	1.064195e-20	0.0003309851	7.475191e-22	-8.261201e-05	1.011705e-20
	-8.689818e-05	1.064196e-20	0.02209647	3.583174e-24	-9.400793e-05	1.151265e-20	0.000107804	2.793933e-22
	0.0003310523	7.480461e-22	-9.400801e-05	1.151266e-20	0.02265099	6.793095e-24	-8.692341e-05	1.064505e-20
	-8.261199e-05	1.011705e-20	0.0001078612	2.795187e-22	-8.692331e-05	1.064504e-20	0.02209443	3.394516e-24
1e+07	0.02789681	0.007116152	-0.0007585715	-6.03505e-05	0.00131395	0.005939072	-6.727771e-05	-0.000104705
	-0.0007585715	-6.03505e-05	0.02686762	0.007573252	-0.000500485	-1.806509e-05	0.001721013	0.005928311
	0.00131395	0.005939072	-0.000500485	-1.806509e-05	0.02741988	0.007319242	-0.0003350434	-0.0001027112
	-6.727771e-05	-0.000104705	0.001721013	0.005928311	-0.0003350434	-0.0001027112	0.02666268	0.007451889
2e+07	0.03393894	0.009821049	-0.0006956566	-0.0002990915	0.002965454	0.01129114	-9.74791e-05	-0.0001543924
	-0.0006956566	-0.0002990915	0.0319712	0.01103732	-0.0005197495	-0.0002327078	0.003725692	0.01100483
	0.002965544	0.01129104	-0.0005197495	-0.0002327077	0.03375501	0.0103146	-0.0003448091	-0.0002115224
	-9.747909e-05	-0.0001543924	0.003725701	0.01100482	-0.0003448091	-0.0002115223	0.03165895	0.01093345
3e+07	0.039509	0.009928071	-0.0006871354	-0.0004273188	0.005482378	0.01617936	-0.0001407678	-0.0002062568
	-0.0006871354	-0.0004273188	0.03627356	0.01235189	-0.0005677095	-0.0003361302	0.006686129	0.01565864
	0.005482354	0.01617933	-0.0005677095	-0.0003361302	0.03956956	0.01048726	-0.0003881822	-0.0003045973
	-0.0001407678	-0.0002062568	0.006686105	0.01565868	-0.0003881822	-0.0003045973	0.03588349	0.01231026
4e+07	0.04498397	0.008635987	-0.0007118889	-0.0005102605	0.008704069	0.02055215	-0.0001984347	-0.0002489352
	-0.0007118889	-0.0005102605	0.03986665	0.01260736	-0.0006374922	-0.0004041466	0.01055183	0.01956559
	0.008704069	0.02055215	-0.0006374922	-0.0004041466	0.04524679	0.009181267	-0.000452709	-0.0003693942
	-0.0001984347	-0.0002489352	0.01055183	0.01956561	-0.000452709	-0.0003693942	0.0394292	0.01264227
5e+07	0.05028229	0.006050154	-0.0007592939	-0.0005633516	0.01255487	0.02428387	-0.0002665304	-0.0002835499
	-0.0007592939	-0.0005633516	0.04290696	0.01226532	-0.0007220671	-0.0004455621	0.0151455	0.02260641
	0.01255488	0.02428388	-0.0007220671	-0.0004455621	0.05070967	0.006530833	-0.0005323652	-0.0004105047
	-0.0002665304	-0.0002835499	0.0151455	0.02260642	-0.0005323652	-0.0004105047	0.04244323	0.01238461
6e+07	0.05524829	0.002315983	-0.0008214988	-0.0005911551	0.01690778	0.0272875	-0.0003413683	-0.0003051258
	-0.0008214988	-0.0005911551	0.0454767	0.01154444	-0.0008159932	-0.0004635841	0.02029518	0.02466046
	0.01690778	0.0272875	-0.0008159932	-0.0004635841	0.05580183	0.002696772	-0.0006216581	-0.0004288768
	-0.0003413683	-0.0003051258	0.02029519	0.02466044	-0.000621658	-0.0004288768	0.04500536	0.01175226
7e+07	0.05975756	-0.002440626	-0.0009012683	-0.0005879147	0.02162554	0.02950181	-0.0004207802	-0.0003131819
	-0.0009012683	-0.0005879147	0.04763835	0.01061411	-0.0009145513	-0.0004600635	0.02580495	0.02563935
	0.02162554	0.02950181	-0.0009145513	-0.0004600635	0.06039663	-0.002184011	-0.0007154828	-0.000425074
	-0.0004207802	-0.0003131819	0.02580495	0.02563934	-0.0007154828	-0.000425074	0.04717679	0.01091146
8e+07	0.06369221	-0.008109252	-0.0009912773	-0.0005513079	0.02656322	0.03089064	-0.0005026505	-0.0003075637
	-0.0009912773	-0.0005513079	0.04947614	0.009606516	-0.001014044	-0.0004368744	0.03146672	0.02549138
	0.02656322	0.03089064	-0.001014044	-0.0004368744	0.0643741	-0.007991426	-0.0008090444	-0.0003999887
	-0.0005026505	-0.0003075637	0.03146672	0.02549139	-0.0008090444	-0.0003999887	0.04904111	0.009992685
9e+07	0.06694388	-0.01457132	-0.001071807	-0.0004915413	0.03157406	0.0314445	-0.0005849453	-0.0002884681
	-0.001071807	-0.0004915413	0.05109588	0.008612949	-0.001112311	-0.0003961021	0.03706727	0.02420222
	0.03157406	0.0314445	-0.001112311	-0.0003961021	0.06762286	-0.01459785	-0.0009001727	-0.0003520586
	-0.0005849453	-0.0002884681	0.03706728	0.02420223	-0.0009001728	-0.0003520586	0.05070402	0.009086921
1e+08	0.06948878	-0.02166909	-0.001127781	-0.0004047473	0.03651716	0.03117792	-0.0006655497	-0.000256675
	-0.001127781	-0.0004047473	0.05265407	0.007714591	-0.001208346	-0.0003399583	0.0423967	0.02179229
	0.03651716	0.03117792	-0.001208346	-0.0003399583	0.07010268	-0.02184141	-0.0009847583	-0.0002766609
	-0.0006655497	-0.000256675	0.0423967	0.02179229	-0.0009847583	-0.0002766609	0.0523298	0.008284153
1.1e+08	0.07120005	-0.02967171	-0.001185559	-0.0002875881	0.04123373	0.03012347	-0.0007408106	-0.0002144861
	-0.001185559	-0.0002875881	0.05425227	0.006600661	-0.001293285	-0.0002741174	0.04724194	0.01830661
	0.04123373	0.03012347	-0.001293285	-0.0002741174	0.07170464	-0.02988089	-0.00105724	-0.000187892
	-0.0007408106	-0.0002144861	0.04724194	0.0183066	-0.00105724	-0.000187892	0.05408552	0.007173692
1.2e+08	0.07165022	-0.03810254	-0.0012473	-0.0001725481	0.04559934	0.02836938	-0.0008124282	-0.0001604943
	-0.0012473	-0.0001725481	0.05570998	0.005478718	-0.001369954	-0.0001954289	0.05138058	0.0138885
	0.04559934	0.02836938	-0.001369954	-0.0001954289	0.07207866	-0.03833239	-0.001121609	-9.175675e-05
	-0.0008124282	-0.0001604943	0.05138058	0.0138885	-0.001121609	-9.175677e-05	0.05562295	0.006035785
1.3e+08	0.07090707	-0.04670274	-0.001301389	-5.232553e-05	0.0495101	0.0260041	-0.0008799013	-9.596827e-05
	-0.001301389	-5.232553e-05	0.05716967	0.004364512	-0.001439078	-0.0001061602	0.05466206	0.008668889
	0.0495101	0.0260041	-0.001439078	-0.0001061602	0.07126796	-0.04694412	-0.001174329	1.167625e-05
	-0.0008799013	-9.596827e-05	0.05466206	0.008668887	-0.001174329	1.167625e-05	0.05714059	0.00491446
1.4e+08	0.06899738	-0.05526507	-0.001345242	7.325206e-05	0.05287803	0.02313363	-0.0009408946	-2.113581e-05
	-0.001345242	7.325206e-05	0.05870158	0.003214969	-0.001500588	-7.693074e-06	0.05695185	0.002809013
	0.05287803	0.02313363	-0.001500588	-7.693048e-06	0.06929423	-0.05550767	-0.001214838	0.0001203337
	-0.0009408946	-2.113581e-05	0.05695185	0.002809012	-0.001214838	0.0001203337	0.05872871	0.003757807
1.5e+08	0.06596666	-0.06359957	-0.001377804	0.0002034089	0.05563703	0.01987664	-0.0009945264	6.31415e-05
	-0.001377804	0.0002034089	0.06034835	0.001968849	-0.001554435	9.908349e-05	0.05814247	-0.003507262
	0.05563703	0.01987664	-0.001554435	9.908349e-05	0.06620303	-0.06383243	-0.001243411	0.0002322318
	-0.0009945264	6.31415e-05	0.05814247	-0.003507263	-0.001243411	0.0002322318	0.06043132	0.00249606
1.6e+08	0.06188333	-0.07153132	-0.001398709	0.0003371085	0.05774469	0.01636067	-0.001040024	0.000155973
	-0.001398709	0.0003371085	0.0621284	0.000553632	-0.001600523	0.0002138375	0.05815894	-0.01007892
	0.05774469	0.01636067	-0.001600523	0.0002138375	0.0620636	-0.07174363	-0.001260903	0.0003456983
	-0.001040024	0.000155973	0.05815894	-0.01007892	-0.001260903	0.0003456983	0.06226321	0.001052927
1.7e+08	0.05683847	-0.07890262	-0.001407361	0.0004729411	0.0591832	0.01271675	-0.001076762	0.000256593
	-0.001407361	0.0004729411	0.06403595	-0.001109211	-0.001636552	0.0003664775	0.0569617	-0.01669396
	0.05918321	0.01271675	-0.001636552	0.0003664775	0.05696869	-0.079084	-0.001268028	0.0004579864
	-0.001076762	0.000256593	0.0569617	-0.01669396	-0.001268028	0.0004579864	0.06421421	-0.0006500174
1.8e+08	0.05094458	-0.08557474	-0.001404749	0.0006105661	0.05996001	0.00907529	-0.001104051	0.0003642912
	-0.001404749	0.0006105661	0.06604087	-0.003098907	-0.001658806	0.0005244313	0.05454851	-0.02313572
	0.05996001	0.00907529	-0.001658806	0.0005244313	0.05103171	-0.08571592	-0.001267156	0.0005700194
	-0.001104051	0.0003642912	0.05454851	-0.02313572	-0.001267156	0.0005700194	0.06625009	-0.002689446
1.9e+08	0.04433165	-0.09143033	-0.001391139	0.0007495949	0.06010681	0.005561887	-0.001121267	0.000478432
	-0.001391139	0.0007495949	0.06808849	-0.005489614	-0.001667206	0.0006871451	0.05095509	-0.02918942
	0.06010681	0.005561887	-0.001667206	0.0006871451	0.04438479	-0.09152347	-0.001259517	0.0006819554
	-0.001121267	0.000478432	0.05095509	-0.02918942	-0.001259517	0.0006819554	0.06831371	-0.005135775
2e+08	0.03714566	-0.09637593	-0.001366705	0.0008893609	0.05967769	0.00229199	-0.001127722	0.0005983579
	-0.001366705	0.0008893609	0.07010066	-0.008343996	-0.001659487	0.0008620317	0.04625395	-0.03464878
	0.05967769	0.002291991	-0.001659487	0.0008620317	0.03717348	-0.09641411	-0.001245998	0.0007944579
	-0.001127722	0.0005983579	0.04625395	-0.03464878	-0.001245998	0.0007944579	0.0703264	-0.008048117
2.1e+08	0.02954253	-0.1003438	-0.001331491	0.0010304	0.05874803	-0.0006322925	-0.001122674	0.0007234648
	-0.001331491	0.0010304	0.07197941	-0.01170728	-0.001635958	0.001039852	0.0405525	-0.03932196
	0.05874803	-0.0006322925	-0.001635958	0.001039852	0.02955604	-0.1003219	-0.001227231	0.0009086909
	-0.001122674	0.0007234648	0.0405525	-0.03932196	-0.001227231	0.0009086909	0.07218982	-0.01146795
2.2e+08	0.02168637	-0.1032929	-0.001285082	0.001172837	0.05741021	-0.003126134	-0.00110527	0.0008530917
	-0.001285082	0.001172837	0.07360999	-0.01560306	-0.001596107	0.001219943	0.03399005	-0.04303748
	0.05741021	-0.003126134	-0.001596107	0.001219943	0.02169642	-0.1032073	-0.001203109	0.001026054
	-0.00110527	0.0008530917	0.03399005	-0.04303748	-0.001203109	0.001026054	0.07379053	-0.01541535
2.3e+08	0.01374385	-0.1052098	-0.001226751	0.001316681	0.05577075	-0.005125032	-0.001074584	0.0009864715
	-0.001226751	0.001316681	0.07486698	-0.02002873	-0.001539338	0.00140144	0.02673391	-0.0456495
	0.05577075	-0.005125032	-0.001539338	0.00140144	0.01376194	-0.1050583	-0.001172885	0.001147988
	-0.001074584	0.0009864715	0.02673391	-0.0456495	-0.001172885	0.001147988	0.07500472	-0.01988536
2.4e+08	0.00587966	-0.1061086	-0.001155344	0.001461863	0.05394628	-0.006586574	-0.001029594	0.00112268
	-0.001155344	0.001461863	0.07561989	-0.02495285	-0.00146489	0.00158341	0.01897486	-0.04704178
	0.05394628	-0.006586574	-0.00146489	0.00158341	0.005917999	-0.1058911	-0.001135071	0.001275795
	-0.001029594	0.00112268	0.01897486	-0.04704178	-0.001135071	0.001275795	0.07570344	-0.02484396
2.5e+08	-0.001746708	-0.1060305	-0.0010695	0.001607899	0.05205876	-0.007492399	-0.0009691475	0.001260607
	-0.0010695	0.001607899	0.07573951	-0.03031348	-0.001371875	0.001764705	0.01092152	-0.04713133
	0.05205876	-0.007492399	-0.001371875	0.001764705	-0.001676061	-0.1057481	-0.001087568	0.001410426
	-0.0009691475	0.001260607	0.01092152	-0.04713133	-0.001087568	0.001410426	0.07575994	-0.03022782
2.6e+08	-0.008986969	-0.1050415	-0.0009675821	0.001753894	0.05023107	-0.007848674	-0.0008921684	0.00139885
	-0.0009675821	0.001753894	0.07510499	-0.03601866	-0.001259389	0.001943965	0.002794762	-0.04587142
	0.05023107	-0.007848674	-0.001259389	0.001943965	-0.008871494	-0.1046978	-0.001027663	0.001552256
	-0.0008921684	0.00139885	0.002794762	-0.04587142	-0.001027663	0.001552256	0.07505521	-0.03594339
2.7e+08	-0.01570609	-0.1032311	-0.0008478677	0.001898441	0.04858237	-0.007685331	-0.0007974835	0.001535731
	-0.0008478677	0.001898441	0.07361018	-0.04194756	-0.001126596	0.002119506	-0.005178325	-0.04325221
	0.04858237	-0.007685331	-0.001126596	0.002119506	-0.01553405	-0.1028315	-0.0009522208	0.001700921
	-0.0007974835	0.001535731	-0.005178325	-0.04325221	-0.0009522208	0.001700921	0.07348554	-0.04186893
2.8e+08	-0.02178718	-0.1007097	-0.000708689	0.002039552	0.04722367	-0.007055762	-0.0006841436	0.00166918
	-0.000708689	0.002039552	0.07117034	-0.04795282	-0.0009725888	0.002289408	-0.01277094	-0.03930206
	0.04722367	-0.007055762	-0.0009725888	0.002289408	-0.02154733	-0.1002612	-0.0008579195	0.001855165
	-0.0006841436	0.00166918	-0.01277094	-0.03930206	-0.0008579195	0.001855165	0.07096877	-0.04785669
2.9e+08	-0.02713448	-0.09760444	-0.0005486245	0.002174596	0.04625328	-0.006034111	-0.000551359	0.001796808
	-0.0005486245	0.002174596	0.06772785	-0.05386554	-0.0007966381	0.00245142	-0.01976273	-0.03408699
	0.04625328	-0.006034111	-0.0007966381	0.00245142	-0.02681629	-0.09711642	-0.0007413633	0.002012776
	-0.000551359	0.001796808	-0.01976273	-0.03408699	-0.0007413633	0.002012776	0.06744931	-0.0537372
3e+08	-0.0316751	-0.09405621	-0.0003666087	0.002300388	0.04575314	-0.004713291	-0.0003986366	0.001915896
	-0.0003666087	0.002300388	0.06325713	-0.05950005	-0.0005982545	0.002602952	-0.02594559	-0.0277087
	0.04575314	-0.004713291	-0.0005982545	0.002602952	-0.03126936	-0.09353954	-0.0005994661	0.002170511
	-0.0003986366	0.001915896	-0.02594559	-0.0277087	-0.0005994661	0.002170511	0.06290396	-0.05932502
3.1e+08	-0.0353618	-0.09021524	-0.0001621518	0.002413266	0.04578591	-0.003200553	-0.0002258272	0.002023391
	-0.0001621518	0.002413266	0.05776842	-0.06466064	-0.0003771266	0.002741081	-0.03112999	-0.02030267
	0.04578591	-0.003200553	-0.0003771266	0.002741081	-0.03486092	-0.08968279	-0.0004297443	0.00232419
	-0.0002258272	0.002023391	-0.03112999	-0.02030267	-0.0004297443	0.00232419	0.05734512	-0.06442426
3.2e+08	-0.03817352	-0.08623702	6.455826e-05	0.002509141	0.04639188	-0.001614677	-3.339735e-05	0.002116005
	6.455826e-05	0.002509141	0.05131015	-0.06914797	-0.000133489	0.002862616	-0.03514996	-0.01203459
	0.04639188	-0.001614677	-0.000133489	0.002862616	-0.03757235	-0.08570288	-0.0002304064	0.002468749
	-3.339735e-05	0.002116005	-0.03514996	-0.01203459	-0.0002304064	0.002468749	0.05082428	-0.06883674
3.3e+08	-0.04011643	-0.08227695	0.000312552	0.00258371	0.04758708	-8.075552e-05	0.0001777007	0.002190292
	0.000312552	0.00258371	0.04397041	-0.07276761	0.0001321957	0.002964094	-0.0378674	-0.00309625
	0.04758708	-8.075553e-05	0.0001321957	0.002964094	-0.03941132	-0.08175657	-6.970564e-07	0.002598464
	0.0001777007	0.002190292	-0.0378674	-0.00309625	-6.970564e-07	0.002598464	0.04343158	-0.07236858
3.4e+08	-0.04122287	-0.07848687	0.0005814768	0.002632531	0.04936323	0.00127442	0.0004058042	0.002242845
	0.0005814768	0.002632531	0.03587664	-0.07533727	0.0004186534	0.00304185	-0.03917699	0.006299464
	0.04936323	0.00127442	0.0004186534	0.00304185	-0.04041348	-0.07799606	0.000258935	0.002707156
	0.0004058042	0.002242845	-0.03917699	0.006299464	0.000258935	0.002707156	0.03529673	-0.07483937
3.5e+08	-0.04155137	-0.0750093	0.0008666975	0.002651214	0.05168677	0.002326603	0.000648641	0.002270233
	0.0008666975	0.002651214	0.02719319	-0.07669515	0.000724171	0.00309224	-0.0390083	0.01592369
	0.05168677	0.002326603	0.000724171	0.00309224	-0.04063905	-0.07456493	0.0005466242	0.00278847
	0.000648641	0.002270233	-0.0390083	0.01592369	0.0005466242	0.00278847	0.02658614	-0.0760885
3.6e+08	-0.04118337	-0.07197464	0.001164375	0.002636017	0.05450008	0.002959719	0.000903193	0.002269359
	0.001164375	0.002636017	0.01811796	-0.07670684	0.001046401	0.003111496	-0.03732889	0.02553763
	0.05450008	0.002959719	0.001046401	0.003111496	-0.04017275	-0.07159259	0.0008591464	0.002836221
	0.000903193	0.002269359	-0.03732889	0.02553763	0.0008591464	0.002836221	0.01749981	-0.07598425
3.7e+08	-0.04022146	-0.0694956	0.00146984	0.00258374	0.05772372	0.00306994	0.001165856	0.002237475
	0.00146984	0.00258374	0.008877336	-0.07527298	0.001382197	0.003096059	-0.03414522	0.03489912
	0.05772372	0.00306994	0.001382197	0.003096059	-0.03912005	-0.06919156	0.001191965	0.002844638
	0.001165856	0.002237475	-0.03414522	0.03489912	0.001191965	0.002844638	0.008265585	-0.07442973
3.8e+08	-0.03878581	-0.06766483	0.001777623	0.002492067	0.06125854	0.002569607	0.001432295	0.002172461
	0.001777623	0.002492067	-0.0002803192	-0.07233397	0.001727608	0.003042701	-0.02950257	0.04376836
	0.06125854	0.002569607	0.001727608	0.003042701	-0.03760332	-0.06745375	0.001539117	0.002808803
	0.001432295	0.002172461	-0.02950257	0.04376836	0.001539117	0.002808803	-0.0008668922	-0.07136793
3.9e+08	-0.03701068	-0.06655286	0.002081747	0.002359639	0.06498954	0.001391115	0.001697772	0.002072837
	0.002081747	0.002359639	-0.00909117	-0.06787515	0.002078057	0.002948634	-0.02348526	0.05191468
	0.06498954	0.001391115	0.002078057	0.002948634	-0.0357599	-0.06644706	0.001893595	0.002724888
	0.001697772	0.002072837	-0.02348526	0.05191468	0.001893595	0.002724888	-0.009633497	-0.06678817
4e+08	-0.03503974	-0.06620442	0.002375887	0.002186202	0.06878971	-0.0005105431	0.001957148	0.001937968
	0.002375887	0.002186202	-0.01728589	-0.06192999	0.002428346	0.002811596	-0.01621361	0.05912271
	0.06878971	-0.0005105431	0.002428346	0.002811596	-0.03373491	-0.06621483	0.002247529	0.002590357
	0.001957148	0.001937968	-0.01621361	0.05912271	0.002247529	0.002590357	-0.01776486	-0.06072645
4.1e+08	-0.0330211	-0.06663787	0.002653637	0.001972657	0.07252514	-0.003155269	0.002205119	0.00176812
	0.002653637	0.001972657	-0.02459851	-0.05458108	0.002772569	0.002630314	-0.00784209	0.0651978
	0.07252514	-0.003155269	0.002772569	0.002630314	-0.03167879	-0.06677269	0.002592391	0.002404364
	0.002205119	0.00176812	-0.00784209	0.0651978	0.002592391	0.002404364	-0.02499516	-0.05326898
4.2e+08	-0.03110372	-0.0678456	0.002908731	0.001721138	0.076059	-0.006538182	0.002436374	0.001564543
	0.002908731	0.001721138	-0.03077367	-0.04596048	0.00310459	0.002404152	0.001444719	0.06997212
	0.076059	-0.006538182	0.00310459	0.002404152	-0.02974146	-0.06811033	0.002919528	0.002167607
	0.002436374	0.001564543	0.001444719	0.06997212	0.002919528	0.002167607	-0.03107031	-0.04455125
4.3e+08	-0.02943132	-0.06979349	0.003135342	0.001434884	0.07925754	-0.01062792	0.00264583	0.001329261
	0.003135342	0.001434884	-0.03557836	-0.03624696	0.003417834	0.002133766	0.01143714	0.07330861
	0.07925754	-0.01062792	0.003417834	0.002133766	-0.02806794	-0.07019051	0.003220445	0.001882452
	0.00264583	0.001329261	0.01143714	0.07330861	0.003220445	0.001882452	-0.03575917	-0.03475495
4.4e+08	-0.02813879	-0.07242288	0.003328272	0.001118185	0.08199412	-0.01536904	0.002828736	0.001065358
	0.003328272	0.001118185	-0.03880944	-0.02566222	0.003705789	0.001820683	0.02190493	0.07510499
	0.08199412	-0.01536904	0.003705789	0.001820683	-0.02679281	-0.07295141	0.003487067	0.001553082
	0.002828736	0.001065358	0.02190493	0.07510499	0.003487067	0.001553082	-0.03886052	-0.02410491
4.5e+08	-0.02734775	-0.07565291	0.003483219	0.0007761814	0.08415451	-0.02068319	0.002980934	0.0007767009
	0.003483219	0.0007761814	-0.04030113	-0.0144666	0.003962082	0.001467553	0.03260379	0.07529714
	0.08415451	-0.02068319	0.003962082	0.001467553	-0.02603742	-0.0763089	0.003712304	0.001185068
	0.002980934	0.0007767009	0.03260379	0.07529714	0.003712304	0.001185068	-0.0402115	-0.0128639
4.6e+08	-0.02716279	-0.07938327	0.003596846	0.0004147626	0.08564043	-0.02647244	0.003098992	0.0004677247
	0.003596846	0.0004147626	-0.03993254	-0.002951198	0.004180621	0.001078343	0.04328148	0.07386042
	0.08564043	-0.02647244	0.004180621	0.001078343	-0.02590542	-0.08015949	0.003890203	0.0007850961
	0.003098992	0.0004677247	0.04328148	0.07386042	0.003890203	0.0007850961	-0.03969467	-0.001324516
4.7e+08	-0.0276684	-0.08349681	0.003666993	4.007791e-05	0.08637332	-0.03262208	0.0031803	0.0001434655
	0.003666993	4.007791e-05	-0.03763459	0.008570706	0.00435596	0.0006579134	0.05368497	0.07081095
	0.08637332	-0.03262208	0.00435596	0.0006579134	-0.02647963	-0.08438353	0.004016242	0.0003611188
	0.0031803	0.0001434655	0.05368497	0.07081095	0.004016242	0.0003611188	-0.03724372	0.01019773
4.8e+08	-0.02892643	-0.0878655	0.003692656	-0.0003414716	0.08629674	-0.03900558	0.003223162	-0.0001908327
	0.003692656	-0.0003414716	-0.03339081	0.01977157	0.004483491	0.0002118822	0.0635662	0.0662049
	0.08629674	-0.03900558	0.004483491	0.0002118822	-0.02782002	-0.08884996	0.004087468	-7.850304e-05
	0.003223162	-0.0001908327	0.0635662	0.0662049	0.004087468	-7.850304e-05	-0.03284709	0.02137465
4.9e+08	-0.03097556	-0.09235279	0.003673961	-0.000723495	0.08537808	-0.04548856	0.003226825	-0.0005297663
	0.003673961	-0.000723495	-0.02724295	0.03031885	0.004559487	-0.0002530608	0.07268978	0.06013744
