!$
! Info: Touchstone file created by Circ.  Input file=Intel_C2M_200G_6p0in_202208016_staggered.circ
!$
# Hz S RI R 50
0	0.0220835	3.254774e-24	6.50244e-05	8.932003e-23	0.0001082077	2.814755e-22	6.501722e-05	8.916321e-23
	6.50244e-05	8.932003e-23	0.02209647	3.583174e-24	6.502893e-05	8.940035e-23	0.000107804	2.793933e-22
	0.0001082649	2.816015e-22	6.502892e-05	8.94016e-23	0.02207838	3.396089e-24	6.501969e-05	8.92332e-23
	6.501721e-05	8.916446e-23	0.0001078612	2.795187e-22	6.501969e-05	8.92332e-23	0.02209443	3.394516e-24
1e+07	0.0266314	0.007417829	6.199996e-06	2.746126e-05	0.001715313	0.005871214	1.003356e-05	2.152026e-05
	6.199999e-06	2.746126e-05	0.02686762	0.007573252	5.899699e-06	4.502364e-05	0.001721013	0.005928311
	0.001715313	0.005871214	5.899699e-06	4.502364e-05	0.02684364	0.007620737	6.245448e-06	2.838865e-05
	1.003356e-05	2.152026e-05	0.001721013	0.005928311	6.245448e-06	2.838865e-05	0.02666268	0.007451889
2e+07	0.03161226	0.01087272	1.091011e-05	2.322619e-05	0.003713299	0.01089251	5.497377e-06	1.637599e-05
	1.091011e-05	2.322619e-05	0.0319712	0.01103732	3.951177e-05	5.379763e-05	0.003725692	0.01100483
	0.003713308	0.01089249	3.951177e-05	5.379763e-05	0.03195209	0.01113394	1.186091e-05	2.472012e-05
	5.497377e-06	1.637599e-05	0.003725701	0.01100482	1.186091e-05	2.472012e-05	0.03165895	0.01093345
3e+07	0.03582248	0.01222041	1.949289e-05	2.000014e-05	0.006663765	0.01549423	7.367304e-06	1.481256e-05
	1.949289e-05	2.000014e-05	0.03627356	0.01235189	6.568911e-05	5.038871e-05	0.006686129	0.01565864
	0.006663741	0.01549426	6.568911e-05	5.038871e-05	0.03625744	0.01250489	2.114263e-05	2.15717e-05
	7.367306e-06	1.481256e-05	0.006686105	0.01565868	2.114264e-05	2.15717e-05	0.03588349	0.01231026
4e+07	0.03934436	0.01253003	2.605504e-05	1.554482e-05	0.01051739	0.01935314	1.154262e-05	1.1959e-05
	2.605504e-05	1.554482e-05	0.03986665	0.01260736	8.611567e-05	4.037435e-05	0.01055183	0.01956559
	0.01051739	0.01935316	8.611567e-05	4.037435e-05	0.03986462	0.01281327	2.829292e-05	1.702081e-05
	1.154262e-05	1.1959e-05	0.01055183	0.01956561	2.829292e-05	1.702081e-05	0.0394292	0.01264227
5e+07	0.04233055	0.01225561	3.084307e-05	1.009535e-05	0.01509804	0.02235059	1.462867e-05	8.562791e-06
	3.084307e-05	1.009535e-05	0.04290696	0.01226532	0.000101621	2.612549e-05	0.0151455	0.02260641
	0.01509804	0.0223506	0.000101621	2.612549e-05	0.04292442	0.0125199	3.359014e-05	1.135882e-05
	1.462867e-05	8.56279e-06	0.0151455	0.02260642	3.359014e-05	1.135882e-05	0.04244323	0.01238461
6e+07	0.04486131	0.01161169	3.395954e-05	3.967194e-06	0.0202351	0.02436633	1.663256e-05	4.796574e-06
	3.395954e-05	3.967195e-06	0.0454767	0.01154444	0.0001125326	8.987166e-06	0.02029518	0.02466046
	0.02023511	0.02436632	0.0001125326	8.987166e-06	0.04551775	0.01184282	3.715157e-05	4.92317e-06
	1.663255e-05	4.796574e-06	0.02029519	0.02466044	3.715157e-05	4.923171e-06	0.04500536	0.01175226
7e+07	0.04699806	0.01076513	3.545807e-05	-2.554126e-06	0.02573411	0.02531204	1.758772e-05	8.419496e-07
	3.545807e-05	-2.554125e-06	0.04763835	0.01061411	0.0001189337	-1.014792e-05	0.02580495	0.02563935
	0.02573411	0.02531204	0.0001189337	-1.014792e-05	0.04770585	0.01095022	3.903799e-05	-1.991908e-06
	1.758772e-05	8.419498e-07	0.02580495	0.02563934	3.903799e-05	-1.991908e-06	0.04717679	0.01091146
8e+07	0.04882453	0.009846911	3.537985e-05	-9.226048e-06	0.03138848	0.02513573	1.752199e-05	-3.133062e-06
	3.537985e-05	-9.226049e-06	0.04947614	0.009606516	0.0001208064	-3.061596e-05	0.03146672	0.02549138
	0.03138848	0.02513573	0.0001208064	-3.061596e-05	0.04957139	0.009973716	3.927513e-05	-9.151522e-06
	1.752199e-05	-3.133062e-06	0.03146672	0.02549139	3.927513e-05	-9.151522e-06	0.04904111	0.009992685
9e+07	0.05044724	0.008948719	3.369335e-05	-1.589469e-05	0.03698642	0.02382235	1.642988e-05	-6.996959e-06
	3.369335e-05	-1.589469e-05	0.05109588	0.008612949	0.0001178969	-5.207008e-05	0.03706727	0.02420222
	0.03698642	0.02382236	0.0001178969	-5.207008e-05	0.05121784	0.00900445	3.781848e-05	-1.641392e-05
	1.642988e-05	-6.99696e-06	0.03706728	0.02420223	3.781848e-05	-1.641392e-05	0.05070402	0.009086921
1e+08	0.05203076	0.008160826	2.975129e-05	-2.288134e-05	0.04231936	0.02139132	1.394794e-05	-1.08336e-05
	2.975129e-05	-2.288134e-05	0.05265407	0.007714591	0.0001079637	-7.593424e-05	0.0423967	0.02179229
	0.04231936	0.02139131	0.0001079637	-7.593424e-05	0.05279925	0.008124334	3.395457e-05	-2.41913e-05
	1.394794e-05	-1.08336e-05	0.0423967	0.02179229	3.395457e-05	-2.41913e-05	0.0523298	0.008284153
1.1e+08	0.0537023	0.007117741	2.301825e-05	-2.586032e-05	0.04717547	0.01788587	1.014811e-05	-1.217649e-05
	2.301826e-05	-2.586032e-05	0.05425227	0.006600661	8.751513e-05	-8.81451e-05	0.04724194	0.01830661
	0.04717547	0.01788586	8.751513e-05	-8.81451e-05	0.05446142	0.006981447	2.68537e-05	-2.776613e-05
	1.014811e-05	-1.217649e-05	0.04724194	0.0183066	2.68537e-05	-2.776613e-05	0.05408552	0.007173692
1.2e+08	0.05521944	0.00604163	1.766781e-05	-2.709352e-05	0.05133275	0.0134478	7.226722e-06	-1.252453e-05
	1.766781e-05	-2.709352e-05	0.05570998	0.005478718	7.280646e-05	-9.279682e-05	0.05138058	0.0138885
	0.05133275	0.0134478	7.280646e-05	-9.279682e-05	0.05591766	0.005839169	2.117946e-05	-2.941417e-05
	7.226722e-06	-1.252453e-05	0.05138058	0.0138885	2.117946e-05	-2.941417e-05	0.05562295	0.006035785
1.3e+08	0.0567317	0.004962354	1.430291e-05	-2.668475e-05	0.05464097	0.008206245	4.696774e-06	-1.256933e-05
	1.430291e-05	-2.668475e-05	0.05716967	0.004364512	6.778512e-05	-8.90779e-05	0.05466206	0.008668889
	0.05464097	0.008206243	6.778512e-05	-8.90779e-05	0.05735846	0.004728889	1.789615e-05	-2.898956e-05
	4.696774e-06	-1.256933e-05	0.05466206	0.008668887	1.789615e-05	-2.898956e-05	0.05714059	0.00491446
1.4e+08	0.05831054	0.003841043	1.25347e-05	-2.491994e-05	0.05696551	0.002320563	2.447573e-06	-1.237871e-05
	1.25347e-05	-2.491994e-05	0.05870158	0.003214969	6.245109e-05	-8.613605e-05	0.05695185	0.002809013
	0.05696551	0.002320561	6.245109e-05	-8.613605e-05	0.05887321	0.00359618	1.607427e-05	-2.730959e-05
	2.447573e-06	-1.237871e-05	0.05695185	0.002809012	1.607427e-05	-2.730959e-05	0.05872871	0.003757807
1.5e+08	0.05999933	0.002619086	1.101616e-05	-2.344458e-05	0.05819842	-0.00402731	1.382769e-06	-1.12515e-05
	1.101616e-05	-2.344458e-05	0.06034835	0.001968849	5.701139e-05	-8.343652e-05	0.05814247	-0.003507262
	0.05819842	-0.004027311	5.701139e-05	-8.343652e-05	0.06050622	0.002370239	1.432564e-05	-2.576117e-05
	1.382769e-06	-1.12515e-05	0.05814247	-0.003507263	1.432564e-05	-2.576117e-05	0.06043132	0.00249606
1.6e+08	0.06181724	0.001225985	9.573199e-06	-2.199813e-05	0.05826379	-0.0106382	6.797309e-07	-1.006651e-05
	9.573199e-06	-2.199813e-05	0.0621284	0.000553632	5.15854e-05	-8.080018e-05	0.05815894	-0.01007892
	0.05826379	-0.0106382	5.15854e-05	-8.080018e-05	0.06227312	0.0009742238	1.276171e-05	-2.437909e-05
	6.79731e-07	-1.006651e-05	0.05815894	-0.01007892	1.276171e-05	-2.437909e-05	0.06226321	0.001052927
1.7e+08	0.06375966	-0.0004154091	8.236875e-06	-2.054623e-05	0.05712078	-0.01730183	1.778273e-07	-9.068114e-06
	8.236875e-06	-2.054623e-05	0.06403595	-0.001109211	4.625683e-05	-7.811909e-05	0.0569617	-0.01669396
	0.05712078	-0.01730183	4.625683e-05	-7.811909e-05	0.06416478	-0.0006706465	1.128719e-05	-2.30017e-05
	1.778274e-07	-9.068114e-06	0.0569617	-0.01669396	1.128719e-05	-2.30017e-05	0.06421421	-0.0006500174
1.8e+08	0.06579726	-0.002382943	7.031662e-06	-1.908471e-05	0.05476544	-0.02380302	-2.395809e-07	-8.081016e-06
	7.031662e-06	-1.908471e-05	0.06604087	-0.003098907	4.108979e-05	-7.533054e-05	0.05454851	-0.02313572
	0.05476544	-0.02380301	4.108979e-05	-7.533054e-05	0.06614877	-0.002641724	9.927093e-06	-2.161677e-05
	-2.395808e-07	-8.081016e-06	0.05454851	-0.02313572	9.927093e-06	-2.161677e-05	0.06625009	-0.002689446
1.9e+08	0.06787666	-0.004749896	5.972034e-06	-1.761568e-05	0.05123147	-0.02992816	-5.65567e-07	-7.107878e-06
	5.972034e-06	-1.761568e-05	0.06808849	-0.005489614	3.613564e-05	-7.239891e-05	0.05095509	-0.02918942
	0.05123147	-0.02992816	3.613564e-05	-7.239891e-05	0.06816959	-0.00501028	8.697077e-06	-2.022192e-05
	-5.65567e-07	-7.107878e-06	0.05095509	-0.02918942	8.697077e-06	-2.022192e-05	0.06831371	-0.005135775
2e+08	0.06992115	-0.007578506	5.068734e-06	-1.614683e-05	0.04658902	-0.03547179	-7.958412e-07	-6.154118e-06
	5.068734e-06	-1.614683e-05	0.07010066	-0.008343996	3.143745e-05	-6.930776e-05	0.04625395	-0.03464878
	0.04658902	-0.03547179	3.143745e-05	-6.930776e-05	0.07015037	-0.007836554	7.608684e-06	-1.882085e-05
	-7.958412e-07	-6.154118e-06	0.04625395	-0.03464878	7.608684e-06	-1.882085e-05	0.0703264	-0.008048117
2.1e+08	0.07183432	-0.01091388	4.326229e-06	-1.468998e-05	0.04094299	-0.04024243	-9.287427e-07	-5.226888e-06
	4.326229e-06	-1.468998e-05	0.07197941	-0.01170728	2.703127e-05	-6.605463e-05	0.0405525	-0.03932196
	0.04094299	-0.04024243	2.703127e-05	-6.605463e-05	0.07199445	-0.01116362	6.667942e-06	-1.742183e-05
	-9.287426e-07	-5.226888e-06	0.0405525	-0.03932196	6.667942e-06	-1.742183e-05	0.07218982	-0.01146795
2.2e+08	0.07350299	-0.01478002	3.74606e-06	-1.325878e-05	0.03443	-0.0440684	-9.646683e-07	-4.334425e-06
	3.74606e-06	-1.325878e-05	0.07360999	-0.01560306	2.294801e-05	-6.264746e-05	0.03399005	-0.04303748
	0.03443	-0.0440684	2.294801e-05	-6.264746e-05	0.07359005	-0.01501351	5.878249e-06	-1.603546e-05
	-9.646682e-07	-4.334425e-06	0.03399005	-0.04303748	5.878249e-06	-1.603546e-05	0.07379053	-0.01541535
2.3e+08	0.07480319	-0.01917516	3.32393e-06	-1.186734e-05	0.02721466	-0.04680325	-9.057298e-07	-3.485574e-06
	3.32393e-06	-1.186734e-05	0.07486698	-0.02002873	1.92063e-05	-5.910333e-05	0.02673391	-0.0456495
	0.02721466	-0.04680325	1.92063e-05	-5.910333e-05	0.07481467	-0.01938371	5.240401e-06	-1.467384e-05
	-9.057297e-07	-3.485574e-06	0.02673391	-0.0456495	5.240401e-06	-1.467384e-05	0.07500472	-0.01988536
2.4e+08	0.07560574	-0.02406917	3.057462e-06	-1.053084e-05	0.01948507	-0.0483295	-7.559738e-07	-2.689393e-06
	3.057462e-06	-1.053084e-05	0.07561989	-0.02495285	1.58346e-05	-5.544186e-05	0.01897486	-0.04704178
	0.01948507	-0.0483295	1.58346e-05	-5.544186e-05	0.07554034	-0.02424302	4.751532e-06	-1.335028e-05
	-7.559737e-07	-2.689393e-06	0.01897486	-0.04704178	4.751532e-06	-1.335028e-05	0.07570344	-0.02484396
2.5e+08	0.07578235	-0.02940181	2.939678e-06	-9.264381e-06	0.01144742	-0.04856241	-5.207617e-07	-1.95491e-06
	2.939678e-06	-9.264381e-06	0.07573951	-0.03031348	1.284525e-05	-5.16903e-05	0.01092152	-0.04713133
	0.01144742	-0.04856241	1.284525e-05	-5.16903e-05	0.07564078	-0.0295313	4.405073e-06	-1.207719e-05
	-5.207617e-07	-1.95491e-06	0.01092152	-0.04713133	4.405073e-06	-1.207719e-05	0.07575994	-0.03022782
2.6e+08	0.07521273	-0.03508318	2.960295e-06	-8.082196e-06	0.003320378	-0.04745297	-2.070395e-07	-1.290729e-06
	2.960295e-06	-8.082196e-06	0.07510499	-0.03601866	1.025497e-05	-4.787989e-05	0.002794762	-0.04587142
	0.003320378	-0.04745297	1.025497e-05	-4.787989e-05	0.07499684	-0.03515843	4.195555e-06	-1.086777e-05
	-2.070395e-07	-1.290729e-06	0.002794762	-0.04587142	4.195555e-06	-1.086777e-05	0.07505521	-0.03594339
2.7e+08	0.07379079	-0.04099477	3.107223e-06	-6.997342e-06	-0.004670747	-0.04498857	1.770026e-07	-7.049615e-07
	3.107223e-06	-6.997342e-06	0.07361018	-0.04194756	8.0718e-06	-4.404604e-05	-0.005178325	-0.04325221
	-0.004670747	-0.04498857	8.0718e-06	-4.404604e-05	0.07350392	-0.04100619	4.11435e-06	-9.734546e-06
	1.770026e-07	-7.049615e-07	-0.005178325	-0.04325221	4.11435e-06	-9.734546e-06	0.07348554	-0.04186893
2.8e+08	0.07143122	-0.04699163	3.366724e-06	-6.021493e-06	-0.01230047	-0.04119447	6.219466e-07	-2.050259e-07
	3.366724e-06	-6.021493e-06	0.07117034	-0.04795282	6.297596e-06	-4.022667e-05	-0.01277094	-0.03930206
	-0.01230047	-0.04119447	6.297596e-06	-4.022667e-05	0.07107829	-0.04693042	4.15082e-06	-8.689102e-06
	6.219466e-07	-2.050259e-07	-0.01277094	-0.03930206	4.15082e-06	-8.689102e-06	0.07096877	-0.04785669
2.9e+08	0.06807522	-0.05290732	3.723591e-06	-5.164661e-06	-0.01934917	-0.03613321	1.11721e-06	2.025739e-07
	3.723591e-06	-5.164661e-06	0.06772785	-0.05386554	4.928872e-06	-3.646104e-05	-0.01976273	-0.03408699
	-0.01934917	-0.03613321	4.928872e-06	-3.646104e-05	0.06766195	-0.05276494	4.292863e-06	-7.741866e-06
	1.11721e-06	2.025739e-07	-0.01976273	-0.03408699	4.292863e-06	-7.741866e-06	0.06744931	-0.0537372
3e+08	0.06369537	-0.05855845	4.161412e-06	-4.435182e-06	-0.02560884	-0.02990286	1.651129e-06	5.123818e-07
	4.161412e-06	-4.435182e-06	0.06325713	-0.05950005	3.956624e-06	-3.278896e-05	-0.02594559	-0.0277087
	-0.02560884	-0.02990287	3.956624e-06	-3.278896e-05	0.0632285	-0.05832731	4.52702e-06	-6.902082e-06
	1.651129e-06	5.123818e-07	-0.02594559	-0.0277087	4.52702e-06	-6.902082e-06	0.06290396	-0.05932502
3.1e+08	0.05829943	-0.06375122	4.662832e-06	-3.839492e-06	-0.03088932	-0.02263522	2.211063e-06	7.202423e-07
	4.662832e-06	-3.839492e-06	0.05776842	-0.06466064	3.366488e-06	-2.925002e-05	-0.03112999	-0.02030267
	-0.03088932	-0.02263522	3.366488e-06	-2.925002e-05	0.05778643	-0.06342399	4.838753e-06	-6.177551e-06
	2.211063e-06	7.202423e-07	-0.03112999	-0.02030267	4.838753e-06	-6.177551e-06	0.05734512	-0.06442426
3.2e+08	0.05193282	-0.06828781	5.209731e-06	-3.382134e-06	-0.03502336	-0.01449235	2.783524e-06	8.234653e-07
	5.209731e-06	-3.382134e-06	0.05131015	-0.06914797	3.138513e-06	-2.588285e-05	-0.03514996	-0.01203459
	-0.03502336	-0.01449235	3.138513e-06	-2.588285e-05	0.05138274	-0.06785849	5.212437e-06	-5.574626e-06
	2.783524e-06	8.234653e-07	-0.03514996	-0.01203459	5.212437e-06	-5.574626e-06	0.05082428	-0.06883674
3.3e+08	0.04468007	-0.07197458	5.783371e-06	-3.065628e-06	-0.03787089	-0.005662557	3.354307e-06	8.210007e-07
	5.783371e-06	-3.065628e-06	0.04397041	-0.07276761	3.247454e-06	-2.272424e-05	-0.0378674	-0.00309625
	-0.03787089	-0.005662557	3.247454e-06	-2.272424e-05	0.04410257	-0.07143763	5.631557e-06	-5.098034e-06
	3.354307e-06	8.210007e-07	-0.0378674	-0.00309625	5.631557e-06	-5.098034e-06	0.04343158	-0.07236858
3.4e+08	0.03666481	-0.0746293	6.364604e-06	-2.890362e-06	-0.03932399	0.003644331	3.908756e-06	7.136907e-07
	6.364604e-06	-2.890362e-06	0.03587664	-0.07533727	3.662902e-06	-1.980816e-05	-0.03917699	0.006299464
	-0.03932399	0.003644331	3.662902e-06	-1.980816e-05	0.03607035	-0.0739808	6.07884e-06	-4.750674e-06
	3.908756e-06	7.136907e-07	-0.03917699	0.006299464	6.07884e-06	-4.750674e-06	0.03529673	-0.07483937
3.5e+08	0.0280474	-0.0760894	6.934065e-06	-2.854522e-06	-0.03930902	0.01320218	4.431946e-06	5.043852e-07
	6.934065e-06	-2.854522e-06	0.02719319	-0.07669515	4.349605e-06	-1.716523e-05	-0.0390083	0.01592369
	-0.03930902	0.01320218	4.349605e-06	-1.716523e-05	0.02744718	-0.07532595	6.536371e-06	-4.533494e-06
	4.431946e-06	5.043852e-07	-0.0390083	0.01592369	6.536371e-06	-4.533494e-06	0.02658614	-0.0760885
3.6e+08	0.01902182	-0.07621878	7.472364e-06	-2.953901e-06	-0.03778987	0.02277422	4.909044e-06	1.981456e-07
	7.472364e-06	-2.953901e-06	0.01811796	-0.07670684	5.267881e-06	-1.482163e-05	-0.03732889	0.02553763
	-0.03778987	0.02277422	5.267881e-06	-1.482163e-05	0.01842796	-0.07533889	6.985803e-06	-4.445224e-06
	4.909044e-06	1.981456e-07	-0.03732889	0.02553763	6.985803e-06	-4.445224e-06	0.01749981	-0.07598425
3.7e+08	0.009810771	-0.07491547	7.960375e-06	-3.181824e-06	-0.03476894	0.03211984	5.325664e-06	-1.977119e-07
	7.960375e-06	-3.181824e-06	0.008877336	-0.07527298	6.374218e-06	-1.279843e-05	-0.03414522	0.03489912
	-0.03476894	0.03211984	6.374218e-06	-1.279843e-05	0.009235768	-0.07391914	7.408617e-06	-4.482257e-06
	5.325664e-06	-1.977119e-07	-0.03414522	0.03489912	7.408617e-06	-4.482257e-06	0.008265585	-0.07442973
3.8e+08	0.0006593984	-0.07211646	8.379506e-06	-3.528999e-06	-0.03028713	0.041	5.668225e-06	-6.735657e-07
	8.379506e-06	-3.528999e-06	-0.0002803192	-0.07233397	7.621929e-06	-1.111098e-05	-0.02950257	0.04376836
	-0.03028713	0.041	7.621929e-06	-1.111098e-05	0.0001162574	-0.07100508	7.786388e-06	-4.638456e-06
	5.668225e-06	-6.735657e-07	-0.02950257	0.04376836	7.786388e-06	-4.638456e-06	-0.0008668922	-0.07136793
3.9e+08	-0.008171023	-0.0678029	8.712152e-06	-3.983416e-06	-0.02442427	0.04918412	5.924444e-06	-1.217485e-06
	8.712152e-06	-3.983416e-06	-0.00909117	-0.06787515	8.961884e-06	-9.768091e-06	-0.02348526	0.05191468
	-0.02442427	0.04918412	8.961884e-06	-9.768091e-06	-0.008669621	-0.06658055	8.101199e-06	-4.904909e-06
	5.924444e-06	-1.217485e-06	-0.02348526	0.05191468	8.101199e-06	-4.904909e-06	-0.009633497	-0.06678817
4e+08	-0.01641287	-0.06200349	8.942103e-06	-4.530357e-06	-0.01729619	0.05645608	6.083746e-06	-1.815456e-06
	8.942103e-06	-4.530357e-06	-0.01728589	-0.06192999	1.034367e-05	-8.771667e-06	-0.01621361	0.05912271
	-0.01729619	0.05645608	1.034367e-05	-8.771667e-06	-0.01685461	-0.0606754	8.336141e-06	-5.270021e-06
	6.083746e-06	-1.815456e-06	-0.01621361	0.05912271	8.336141e-06	-5.270021e-06	-0.01776486	-0.06072645
4.1e+08	-0.02380099	-0.05479565	9.055118e-06	-5.152439e-06	-0.009052853	0.06261983	6.13775e-06	-2.45157e-06
	9.055118e-06	-5.152439e-06	-0.02459851	-0.05458108	1.171669e-05	-8.116265e-06	-0.00784209	0.0651978
	-0.009052853	0.06261983	1.171669e-05	-8.116265e-06	-0.02417376	-0.05336923	8.475783e-06	-5.719364e-06
	6.13775e-06	-2.45157e-06	-0.00784209	0.0651978	8.475783e-06	-5.719364e-06	-0.02499516	-0.05326898
4.2e+08	-0.03007976	-0.046306	9.039413e-06	-5.829862e-06	0.000125366	0.06750535	6.080649e-06	-3.108392e-06
	9.039413e-06	-5.829862e-06	-0.03077367	-0.04596048	1.303102e-05	-7.788941e-06	0.001444719	0.06997212
	0.000125366	0.06750535	1.303102e-05	-7.788941e-06	-0.0303726	-0.04479067	8.506725e-06	-6.235921e-06
	6.080649e-06	-3.108392e-06	0.001444719	0.06997212	8.506725e-06	-6.235921e-06	-0.03107031	-0.04455125
4.3e+08	-0.03501489	-0.03670795	8.886192e-06	-6.540701e-06	0.01003269	0.07097266	5.90955e-06	-3.767454e-06
	8.886192e-06	-6.540701e-06	-0.03557836	-0.03624696	1.423917e-05	-7.769351e-06	0.01143714	0.07330861
	0.01003269	0.07097266	1.423917e-05	-7.769351e-06	-0.03521828	-0.03511461	8.418202e-06	-6.800325e-06
	5.90955e-06	-3.767454e-06	0.01143714	0.07330861	8.418202e-06	-6.800325e-06	-0.03575917	-0.03475495
4.4e+08	-0.03840089	-0.02621803	8.590209e-06	-7.261354e-06	0.02044239	0.07291598	5.624743e-06	-4.409737e-06
	8.590209e-06	-7.261354e-06	-0.03880944	-0.02566222	1.529702e-05	-8.029974e-06	0.02190493	0.07510499
	0.02044239	0.07291598	1.529702e-05	-8.029974e-06	-0.03850662	-0.02455942	8.202574e-06	-7.391216e-06
	5.624743e-06	-4.409737e-06	0.02190493	0.07510499	8.202574e-06	-7.391216e-06	-0.03886052	-0.02410491
4.5e+08	-0.04006864	-0.01509183	8.150085e-06	-7.967187e-06	0.03111308	0.07326703	5.2298e-06	-5.01633e-06
	8.150085e-06	-7.967187e-06	-0.04030113	-0.0144666	1.616507e-05	-8.53662e-06	0.03260379	0.07529714
	0.03111308	0.07326703	1.616507e-05	-8.53662e-06	-0.04007049	-0.01338186	7.855761e-06	-7.98587e-06
	5.2298e-06	-5.01633e-06	0.03260379	0.07529714	7.855761e-06	-7.98587e-06	-0.0402115	-0.0128639
4.6e+08	-0.03989306	-0.003616255	7.568641e-06	-8.633234e-06	0.04179487	0.07199653	4.731586e-06	-5.569065e-06
	7.568641e-06	-8.633234e-06	-0.03993254	-0.002951198	1.680976e-05	-9.249348e-06	0.04328148	0.07386042
	0.04179487	0.07199653	1.680976e-05	-9.249348e-06	-0.03978719	-0.001869314	7.377616e-06	-8.560812e-06
	4.731586e-06	-5.569065e-06	0.04328148	0.07386042	7.377616e-06	-8.560812e-06	-0.03969467	-0.001324516
4.7e+08	-0.03780013	0.007898762	6.85307e-06	-9.235035e-06	0.05223631	0.06911548	4.140099e-06	-6.05118e-06
	6.85307e-06	-9.235035e-06	-0.03763459	0.008570706	1.720446e-05	-1.012337e-05	0.05368497	0.07081095
	0.05223631	0.06911548	1.720446e-05	-1.012337e-05	-0.03758411	0.009666991	6.772061e-06	-9.092595e-06
	4.140099e-06	-6.05118e-06	0.05368497	0.07081095	6.772061e-06	-9.092595e-06	-0.03724372	0.01019773
4.8e+08	-0.03376781	0.01912825	6.014757e-06	-9.749453e-06	0.06219009	0.06467469	3.468149e-06	-6.447886e-06
	6.014757e-06	-9.749453e-06	-0.03339081	0.01977157	1.733006e-05	-1.111037e-05	0.0635662	0.0662049
	0.06219009	0.06467469	1.733006e-05	-1.111037e-05	-0.03344268	0.02090204	6.047163e-06	-9.55857e-06
