!$
! Info: Touchstone file created by Circ.  Input file=Intel_C2M_200G_6p0in_202208016_staggered.circ
!$
# Hz S RI R 50
0	0.02208344	3.404777e-24	6.530175e-05	8.95017e-23	0.0001081856	2.813562e-22	6.523628e-05	8.933929e-23
	6.530175e-05	8.95017e-23	0.02209647	3.583174e-24	6.528477e-05	8.944855e-23	0.000107804	2.793933e-22
	0.0001082428	2.814822e-22	6.528476e-05	8.94498e-23	0.02207832	3.255939e-24	6.524934e-05	8.928915e-23
	6.523627e-05	8.934054e-23	0.0001078612	2.795187e-22	6.524934e-05	8.928915e-23	0.02209443	3.394516e-24
1e+07	0.02697839	0.007520555	5.750789e-05	8.847842e-06	0.001423675	0.005838106	7.025294e-06	4.477378e-05
	5.750789e-05	8.847842e-06	0.02686762	0.007573252	5.610787e-05	3.799475e-05	0.001721013	0.005928311
	0.001423675	0.005838106	5.610787e-05	3.799475e-05	0.02747019	0.007414285	3.150917e-05	2.690126e-05
	7.025294e-06	4.477378e-05	0.001721013	0.005928311	3.150917e-05	2.690126e-05	0.02666268	0.007451889
2e+07	0.0319918	0.01090656	4.384256e-05	2.028764e-05	0.003445349	0.01094799	3.363521e-05	4.77792e-05
	4.384256e-05	2.028764e-05	0.0319712	0.01103732	6.810622e-05	3.091228e-05	0.003725692	0.01100483
	0.003445359	0.01094798	6.810622e-05	3.091229e-05	0.03223791	0.01057882	3.366295e-05	1.354653e-05
	3.363521e-05	4.77792e-05	0.003725701	0.01100482	3.366295e-05	1.354653e-05	0.03165895	0.01093345
3e+07	0.03622061	0.012207	3.992679e-05	2.879328e-05	0.00641813	0.01559103	5.440821e-05	4.513794e-05
	3.992679e-05	2.879327e-05	0.03627356	0.01235189	7.843394e-05	2.696464e-05	0.006686129	0.01565864
	0.006418107	0.01559106	7.843394e-05	2.696464e-05	0.03627644	0.01186448	3.564799e-05	8.774906e-06
	5.440821e-05	4.513794e-05	0.006686105	0.01565868	3.564799e-05	8.774904e-06	0.03588349	0.01231026
4e+07	0.03974752	0.01246824	3.676334e-05	3.169416e-05	0.01029548	0.01948096	7.138016e-05	3.85752e-05
	3.676334e-05	3.169416e-05	0.03986665	0.01260736	8.701103e-05	2.081904e-05	0.01055183	0.01956559
	0.01029548	0.01948098	8.701103e-05	2.081904e-05	0.03965807	0.01216895	3.70869e-05	4.804655e-06
	7.138016e-05	3.85752e-05	0.01055183	0.01956561	3.70869e-05	4.804655e-06	0.0394292	0.01264227
5e+07	0.04272534	0.01214527	3.356489e-05	3.193918e-05	0.01490179	0.02250328	8.533059e-05	2.91098e-05
	3.356489e-05	3.193918e-05	0.04290696	0.01226532	9.692722e-05	9.548084e-06	0.0151455	0.02260641
	0.0149018	0.02250329	9.692722e-05	9.548083e-06	0.04252418	0.01192192	3.89345e-05	-2.264686e-07
	8.533059e-05	2.91098e-05	0.0151455	0.02260642	3.893449e-05	-2.264686e-07	0.04244323	0.01238461
6e+07	0.04523477	0.01145521	2.988649e-05	3.075084e-05	0.0200664	0.02453866	9.62761e-05	1.715837e-05
	2.988649e-05	3.075084e-05	0.0454767	0.01154444	0.0001036853	-3.571218e-06	0.02029518	0.02466046
	0.02006641	0.02453865	0.0001036853	-3.571218e-06	0.04495246	0.01132862	3.966108e-05	-5.446177e-06
	9.62761e-05	1.715837e-05	0.02029519	0.02466044	3.966108e-05	-5.446176e-06	0.04500536	0.01175226
7e+07	0.04733794	0.01056766	3.453381e-05	2.417795e-05	0.02559446	0.02549888	0.0001040247	3.082924e-06
	3.453381e-05	2.417795e-05	0.04763835	0.01061411	0.0001069099	-1.818157e-05	0.02580495	0.02563935
	0.02559446	0.02549888	0.0001069099	-1.818157e-05	0.04700358	0.01055062	3.918469e-05	-1.063817e-05
	0.0001040247	3.082924e-06	0.02580495	0.02563934	3.918469e-05	-1.063817e-05	0.04717679	0.01091146
8e+07	0.04911967	0.009616265	3.917556e-05	1.533968e-05	0.03127894	0.02533188	0.0001086228	-1.261564e-05
	3.917556e-05	1.533968e-05	0.04947614	0.009606516	0.0001067411	-3.351754e-05	0.03146672	0.02549138
	0.03127894	0.02533188	0.0001067411	-3.351754e-05	0.04876173	0.009716293	3.758338e-05	-1.559305e-05
	0.0001086228	-1.261564e-05	0.03146672	0.02549139	3.758338e-05	-1.559305e-05	0.04904111	0.009992685
9e+07	0.05068739	0.008695161	4.102362e-05	5.875417e-06	0.03690742	0.02402229	0.0001098322	-2.979691e-05
	4.102362e-05	5.875418e-06	0.05109588	0.008612949	0.0001030567	-4.91441e-05	0.03706727	0.02420222
	0.03690743	0.0240223	0.0001030567	-4.91441e-05	0.05033473	0.008917096	3.487813e-05	-2.012631e-05
	0.0001098322	-2.979691e-05	0.03706728	0.02420223	3.487813e-05	-2.012631e-05	0.05070402	0.009086921
1e+08	0.05220279	0.007897365	3.893599e-05	-4.426086e-06	0.04227063	0.02158844	0.0001058611	-5.00813e-05
	3.893599e-05	-4.426086e-06	0.05265407	0.007714591	9.439341e-05	-6.574165e-05	0.0423967	0.02179229
	0.04227062	0.02158843	9.439341e-05	-6.574165e-05	0.05189678	0.008254942	3.306908e-05	-2.116167e-05
	0.0001058611	-5.00813e-05	0.0423967	0.02179229	3.306908e-05	-2.116167e-05	0.0523298	0.008284153
1.1e+08	0.05380881	0.006880245	3.284298e-05	-8.963967e-06	0.04715118	0.01807464	9.272373e-05	-6.225632e-05
	3.284298e-05	-8.963967e-06	0.05425227	0.006600661	8.844726e-05	-6.439276e-05	0.04724194	0.01830661
	0.04715118	0.01807464	8.844726e-05	-6.439276e-05	0.05365614	0.007257952	3.166613e-05	-1.951243e-05
	9.272373e-05	-6.225632e-05	0.04724194	0.0183066	3.166613e-05	-1.951243e-05	0.05408552	0.007173692
1.2e+08	0.05527741	0.005840718	2.905204e-05	-1.146021e-05	0.05132984	0.0136264	8.448305e-05	-6.7711e-05
	2.905204e-05	-1.146021e-05	0.05570998	0.005478718	8.409178e-05	-6.268942e-05	0.05138058	0.0138885
	0.05132984	0.0136264	8.409178e-05	-6.268942e-05	0.05519111	0.006212303	3.042776e-05	-1.881158e-05
	8.448305e-05	-6.7711e-05	0.05138058	0.0138885	3.042776e-05	-1.881158e-05	0.05562295	0.006035785
1.3e+08	0.05675347	0.004805157	2.662233e-05	-1.385341e-05	0.05465641	0.008372646	8.285475e-05	-6.672234e-05
	2.662233e-05	-1.385341e-05	0.05716967	0.004364512	7.977543e-05	-6.169386e-05	0.05466206	0.008668889
	0.05465641	0.008372644	7.977543e-05	-6.169386e-05	0.05670763	0.005178093	2.930324e-05	-1.878084e-05
	8.285475e-05	-6.672234e-05	0.05466206	0.008668887	2.930324e-05	-1.878084e-05	0.05714059	0.00491446
1.4e+08	0.05830793	0.003732113	2.512251e-05	-1.627092e-05	0.05699623	0.00247309	8.087201e-05	-6.677496e-05
	2.512251e-05	-1.627092e-05	0.05870158	0.003214969	7.558374e-05	-6.109464e-05	0.05695185	0.002809013
	0.05699623	0.002473089	7.558374e-05	-6.109464e-05	0.05829781	0.004106807	2.826821e-05	-1.889379e-05
	8.087201e-05	-6.677496e-05	0.05695185	0.002809012	2.826821e-05	-1.889379e-05	0.05872871	0.003757807
1.5e+08	0.05998392	0.002560607	2.372833e-05	-1.853226e-05	0.05824124	-0.003889785	7.859485e-05	-6.758186e-05
	2.372833e-05	-1.853226e-05	0.06034835	0.001968849	7.153067e-05	-6.077255e-05	0.05814247	-0.003507262
	0.05824124	-0.003889785	7.153067e-05	-6.077255e-05	0.06000681	0.002930121	2.731238e-05	-1.915487e-05
	7.859485e-05	-6.758186e-05	0.05814247	-0.003507263	2.731238e-05	-1.915487e-05	0.06043132	0.00249606
1.6e+08	0.06180007	0.001218018	2.237802e-05	-2.075557e-05	0.05831555	-0.01051632	7.601694e-05	-6.897985e-05
	2.237802e-05	-2.075557e-05	0.0621284	0.000553632	6.758955e-05	-6.067893e-05	0.05815894	-0.01007892
	0.05831555	-0.01051632	6.758955e-05	-6.067893e-05	0.06185035	0.001572392	2.640824e-05	-1.957515e-05
	7.601694e-05	-6.897985e-05	0.05815894	-0.01007892	2.640824e-05	-1.957515e-05	0.06226321	0.001052927
1.7e+08	0.06375106	-0.0003747208	2.099994e-05	-2.302245e-05	0.05717843	-0.01719569	7.31019e-05	-7.085545e-05
	2.099994e-05	-2.302245e-05	0.06403595	-0.001109211	6.382081e-05	-6.11552e-05	0.0569617	-0.01669396
	0.05717843	-0.01719569	6.382081e-05	-6.11552e-05	0.06381899	-4.454767e-05	2.553684e-05	-2.02671e-05
	7.31019e-05	-7.085545e-05	0.0569617	-0.01669396	2.553684e-05	-2.02671e-05	0.06421421	-0.0006500174
1.8e+08	0.06580689	-0.002297428	1.951685e-05	-2.538644e-05	0.05482605	-0.02371227	6.979525e-05	-7.311415e-05
	1.951685e-05	-2.538644e-05	0.06604087	-0.003098907	5.997862e-05	-6.207058e-05	0.05454851	-0.02313572
	0.05482605	-0.02371227	5.997862e-05	-6.207058e-05	0.0658797	-0.001997559	2.462358e-05	-2.129838e-05
	6.979525e-05	-7.311415e-05	0.05454851	-0.02313572	2.462358e-05	-2.129838e-05	0.06625009	-0.002689446
1.9e+08	0.06791309	-0.004625039	1.785057e-05	-2.787297e-05	0.05129232	-0.029852	6.603988e-05	-7.566601e-05
	1.785057e-05	-2.787297e-05	0.06808849	-0.005489614	5.589813e-05	-6.310104e-05	0.05095509	-0.02918942
	0.05129232	-0.029852	5.589813e-05	-6.310104e-05	0.06797623	-0.004357549	2.355182e-05	-2.248969e-05
	6.603988e-05	-7.566601e-05	0.05095509	-0.02918942	2.355182e-05	-2.248969e-05	0.06831371	-0.005135775
2e+08	0.06999158	-0.007421181	1.591414e-05	-3.048572e-05	0.04664768	-0.03540906	6.177444e-05	-7.84188e-05
	1.591414e-05	-3.048572e-05	0.07010066	-0.008343996	5.154827e-05	-6.419754e-05	0.04625395	-0.03464878
	0.04664768	-0.03540906	5.154827e-05	-6.419754e-05	0.07003087	-0.007184437	2.228096e-05	-2.382454e-05
	6.177444e-05	-7.84188e-05	0.04625395	-0.03464878	2.228096e-05	-2.382454e-05	0.0703264	-0.008048117
2.1e+08	0.07194438	-0.01073211	1.361838e-05	-3.320349e-05	0.04099735	-0.04019161	5.69403e-05	-8.12721e-05
	1.361838e-05	-3.320349e-05	0.07197941	-0.01170728	4.688855e-05	-6.530668e-05	0.0405525	-0.03932196
	0.04099735	-0.04019161	4.688855e-05	-6.530668e-05	0.07194608	-0.01052085	2.076739e-05	-2.527898e-05
	5.69403e-05	-8.12721e-05	0.0405525	-0.03932196	2.076739e-05	-2.527898e-05	0.07218982	-0.01146795
2.2e+08	0.07365665	-0.01458266	1.087779e-05	-3.598059e-05	0.03447829	-0.04402773	5.148715e-05	-8.411526e-05
	1.087779e-05	-3.598059e-05	0.07360999	-0.01560306	4.188409e-05	-6.636651e-05	0.03399005	-0.04303748
	0.03447829	-0.04402773	4.188409e-05	-6.636651e-05	0.07360916	-0.01438831	1.896659e-05	-2.681976e-05
	5.148715e-05	-8.411526e-05	0.03399005	-0.04303748	1.896659e-05	-2.681976e-05	0.07379053	-0.01541535
2.3e+08	0.07500261	-0.01897159	8.390241e-06	-3.871113e-05	0.02725553	-0.04677077	4.530071e-05	-8.683156e-05
	8.390241e-06	-3.871113e-05	0.07486698	-0.02002873	3.642765e-05	-6.731222e-05	0.02673391	-0.0456495
	0.02725553	-0.04677077	3.642765e-05	-6.731222e-05	0.07489673	-0.01878365	1.684121e-05	-2.84024e-05
	4.530071e-05	-8.683156e-05	0.02673391	-0.0456495	1.684121e-05	-2.84024e-05	0.07500472	-0.01988536
2.4e+08	0.07585124	-0.02386892	5.242829e-06	-4.144571e-05	0.01951753	-0.04830312	3.843269e-05	-8.926331e-05
	5.242829e-06	-4.144571e-05	0.07561989	-0.02495285	3.056999e-05	-6.803873e-05	0.01897486	-0.04704178
	0.01951753	-0.04830312	3.056999e-05	-6.803873e-05	0.07567999	-0.02367491	1.434741e-05	-2.997517e-05
	3.843269e-05	-8.926331e-05	0.01897486	-0.04704178	1.434741e-05	-2.997517e-05	0.07570344	-0.02484396
2.5e+08	0.07607247	-0.0292143	1.327001e-06	-4.405278e-05	0.01147089	-0.04853996	3.088948e-05	-9.127043e-05
	1.327001e-06	-4.405278e-05	0.07573951	-0.03031348	2.430744e-05	-6.845912e-05	0.01092152	-0.04713133
	0.01147089	-0.04853996	2.430744e-05	-6.845912e-05	0.07583191	-0.02900112	1.145354e-05	-3.147245e-05
	3.088948e-05	-9.127043e-05	0.01092152	-0.04713133	1.145354e-05	-3.147245e-05	0.07575994	-0.03022782
2.6e+08	0.07554422	-0.03491732	-3.37923e-06	-4.637821e-05	0.00333468	-0.04743232	2.269425e-05	-9.270853e-05
	-3.37923e-06	-4.637821e-05	0.07510499	-0.03601866	1.764443e-05	-6.848126e-05	0.002794762	-0.04587142
	0.00333468	-0.04743232	1.764443e-05	-6.848126e-05	0.07523273	-0.03467112	8.137042e-06	-3.281909e-05
	2.269425e-05	-9.270853e-05	0.002794762	-0.04587142	8.137042e-06	-3.281909e-05	0.07505521	-0.03594339
2.7e+08	0.07415878	-0.0408587	-8.87147e-06	-4.825756e-05	-0.004665424	-0.04496763	1.389384e-05	-9.343146e-05
	-8.87147e-06	-4.825756e-05	0.07361018	-0.04194756	1.059966e-05	-6.800799e-05	-0.005178325	-0.04325221
	-0.004665424	-0.04496763	1.059966e-05	-6.800799e-05	0.0737774	-0.0405657	4.386515e-06	-3.39312e-05
	1.389384e-05	-9.343146e-05	-0.005178325	-0.04325221	4.386515e-06	-3.39312e-05	0.07348554	-0.04186893
2.8e+08	0.07182945	-0.04689247	-1.511247e-05	-4.952015e-05	-0.01230358	-0.04117127	4.562582e-06	-9.329495e-05
	-1.511247e-05	-4.952015e-05	0.07117034	-0.04795282	3.208023e-06	-6.693986e-05	-0.01277094	-0.03930206
	-0.01230358	-0.04117127	3.208023e-06	-6.693986e-05	0.07138184	-0.04653956	2.06729e-07	-3.471773e-05
	4.562582e-06	-9.329495e-05	-0.01277094	-0.03930206	2.06729e-07	-3.471773e-05	0.07096877	-0.04785669
2.9e+08	0.06849612	-0.05285088	-2.203286e-05	-4.999565e-05	-0.01935984	-0.03610597	-5.197609e-06	-9.216228e-05
	-2.203286e-05	-4.999565e-05	0.06772785	-0.05386554	-4.475498e-06	-6.517755e-05	-0.01976273	-0.03408699
	-0.01935984	-0.03610597	-4.475498e-06	-6.517755e-05	0.06798792	-0.05242538	-4.38208e-06	-3.508317e-05
	-5.197609e-06	-9.216228e-05	-0.01976273	-0.03408699	-4.38208e-06	-3.508317e-05	0.06744931	-0.0537372
3e+08	0.06413044	-0.05854904	-2.953151e-05	-4.951991e-05	-0.0256259	-0.02987	-1.525863e-05	-8.990801e-05
	-2.953151e-05	-4.951991e-05	0.06325713	-0.05950005	-1.237613e-05	-6.262576e-05	-0.02594559	-0.0277087
	-0.0256259	-0.02987	-1.237613e-05	-6.262576e-05	0.06356925	-0.05803957	-9.341357e-06	-3.493027e-05
	-1.525863e-05	-8.990801e-05	-0.02594559	-0.0277087	-9.341357e-06	-3.493027e-05	0.06290396	-0.05932502
3.1e+08	0.05873945	-0.06379152	-3.746914e-05	-4.794348e-05	-0.03091138	-0.02259542	-2.546604e-05	-8.642474e-05
	-3.746914e-05	-4.794348e-05	0.05776842	-0.06466064	-2.040207e-05	-5.919466e-05	-0.03112999	-0.02030267
	-0.03091138	-0.02259542	-2.040207e-05	-5.919466e-05	0.05813455	-0.0631875	-1.461219e-05	-3.416394e-05
	-2.546604e-05	-8.642474e-05	-0.03112999	-0.02030267	-1.461219e-05	-3.416394e-05	0.05734512	-0.06442426
3.2e+08	0.05236822	-0.06837875	-4.567908e-05	-4.513518e-05	-0.03504881	-0.01444458	-3.564087e-05	-8.162757e-05
	-4.567908e-05	-4.513518e-05	0.05131015	-0.06914797	-2.843799e-05	-5.480703e-05	-0.03514996	-0.01203459
	-0.03504881	-0.01444458	-2.843799e-05	-5.480703e-05	0.05173114	-0.06767164	-2.011756e-05	-3.269339e-05
	-3.564087e-05	-8.162757e-05	-0.03514996	-0.01203459	-2.011756e-05	-3.269339e-05	0.05082428	-0.06883674
3.3e+08	0.04510121	-0.0721153	-5.396361e-05	-4.099149e-05	-0.03789801	-0.005606123	-4.558519e-05	-7.545817e-05
	-5.396361e-05	-4.099149e-05	0.04397041	-0.07276761	-3.635307e-05	-4.939796e-05	-0.0378674	-0.00309625
	-0.03789801	-0.005606123	-3.635307e-05	-4.939796e-05	0.0444447	-0.07129782	-2.575855e-05	-3.043858e-05
	-4.558519e-05	-7.545817e-05	-0.0378674	-0.00309625	-2.575855e-05	-3.043858e-05	0.04343158	-0.07236858
3.4e+08	0.03706235	-0.07481722	-6.210214e-05	-3.544034e-05	-0.0393509	0.003709822	-5.508247e-05	-6.789219e-05
	-6.210214e-05	-3.544034e-05	0.03587664	-0.07533727	-4.399534e-05	-4.292008e-05	-0.03917699	0.006299464
	-0.0393509	0.003709822	-4.399534e-05	-4.292008e-05	0.03640031	-0.07388458	-3.141916e-05	-2.73315e-05
	-5.508247e-05	-6.789219e-05	-0.03917699	0.006299464	-3.141916e-05	-2.73315e-05	0.03529673	-0.07483937
3.5e+08	0.02841256	-0.07632023	-6.985351e-05	-2.844951e-05	-0.03933386	0.01327675	-6.390945e-05	-5.893611e-05
	-6.985351e-05	-2.844951e-05	0.02719319	-0.07669515	-5.120097e-05	-3.535364e-05	-0.0390083	0.01592369
	-0.03933386	0.01327675	-5.120097e-05	-3.535364e-05	0.02775981	-0.07526914	-3.696477e-05	-2.332233e-05
	-6.390945e-05	-5.893611e-05	-0.0390083	0.01592369	-3.696477e-05	-2.332233e-05	0.02658614	-0.0760885
3.6e+08	0.01934672	-0.07648669	-7.696673e-05	-2.002233e-05	-0.03781078	0.02285757	-7.183439e-05	-4.863747e-05
	-7.696673e-05	-2.002233e-05	0.01811796	-0.07670684	-5.779451e-05	-2.669794e-05	-0.03732889	0.02553763
	-0.03781078	0.02285757	-5.779451e-05	-2.669794e-05	0.01871895	-0.07531674	-4.224584e-05	-1.838379e-05
	-7.183439e-05	-4.863747e-05	-0.03732889	0.02553763	-4.224584e-05	-1.838379e-05	0.01749981	-0.07598425
3.7e+08	0.01008869	-0.07521328	-8.318498e-05	-1.021361e-05	-0.03478411	0.03221131	-7.862799e-05	-3.708254e-05
	-8.318498e-05	-1.021361e-05	0.008877336	-0.07527298	-6.358878e-05	-1.698717e-05	-0.03414522	0.03489912
	-0.03478411	0.03221131	-6.358878e-05	-1.698717e-05	0.00950176	-0.07392644	-4.710375e-05	-1.250981e-05
	-7.862799e-05	-3.708254e-05	-0.03414522	0.03489912	-4.710375e-05	-1.250981e-05	0.008265585	-0.07442973
3.8e+08	0.0008849734	-0.0724359	-8.82546e-05	8.846816e-07	-0.03029492	0.04109864	-8.40697e-05	-2.439696e-05
	-8.82546e-05	8.846816e-07	-0.0002803192	-0.07233397	-6.83955e-05	-6.282774e-06	-0.02950257	0.04376836
	-0.03029492	0.04109864	-6.83955e-05	-6.282774e-06	0.0003547931	-0.07103637	-5.137121e-05	-5.727068e-06
	-8.40697e-05	-2.439696e-05	-0.02950257	0.04376836	-5.137121e-05	-5.727068e-06	-0.0008668922	-0.07136793
3.9e+08	-0.008001575	-0.06813483	-9.193305e-05	1.31317e-05	-0.02442319	0.04928861	-8.795405e-05	-1.074041e-05
	-9.193305e-05	1.31317e-05	-0.00909117	-0.06787515	-7.20277e-05	5.318873e-06	-0.02348526	0.05191468
	-0.02442319	0.04928861	-7.20277e-05	5.318873e-06	-0.008460008	-0.06663025	-5.488015e-05	1.91403e-06
	-8.795405e-05	-1.074041e-05	-0.02348526	0.05191468	-5.488015e-05	1.91403e-06	-0.009633497	-0.06678817
4e+08	-0.01630168	-0.06233821	-9.399582e-05	2.634232e-05	-0.01728501	0.05656489	-9.00969e-05	3.68356e-06
	-9.399582e-05	2.634232e-05	-0.01728589	-0.06192999	-7.430573e-05	1.768445e-05	-0.01621361	0.05912271
	-0.01728501	0.05656489	-7.430573e-05	1.768445e-05	-0.01667446	-0.06073798	-5.746556e-05	1.032576e-05
	-9.00969e-05	3.68356e-06	-0.01621361	0.05912271	-5.746556e-05	1.032576e-05	-0.01776486	-0.06072645
4.1e+08	-0.02374844	-0.05512322	-9.424499e-05	4.029615e-05	-0.009030602	0.06273116	-9.03401e-05	1.864623e-05
	-9.424499e-05	4.029615e-05	-0.02459851	-0.05458108	-7.506505e-05	3.064703e-05	-0.00784209	0.0651978
	-0.009030602	0.06273116	-7.506505e-05	3.064703e-05	-0.02402271	-0.05343937	-5.897186e-05	1.939623e-05
	-9.03401e-05	1.864623e-05	-0.00784209	0.0651978	-5.897186e-05	1.939623e-05	-0.02499516	-0.05326898
4.2e+08	-0.03008451	-0.04661659	-9.251365e-05	5.473357e-05	0.0001593253	0.06761724	-8.856188e-05	3.388358e-05
	-9.251365e-05	5.473357e-05	-0.03077367	-0.04596048	-7.41658e-05	4.400831e-05	0.001444719	0.06997212
	0.0001593253	0.06761724	-7.41658e-05	4.400831e-05	-0.03024949	-0.04486336	-5.925789e-05	2.897979e-05
	-8.856188e-05	3.388358e-05	0.001444719	0.06997212	-5.925789e-05	2.897979e-05	-0.03107031	-0.04455125
4.3e+08	-0.03507386	-0.03699212	-8.867401e-05	6.936488e-05	0.01007861	0.071083	-8.467651e-05	4.911071e-05
	-8.867401e-05	6.936488e-05	-0.03557836	-0.03624696	-7.149097e-05	5.753699e-05	0.01143714	0.07330861
	0.01007861	0.071083	-7.149097e-05	5.753699e-05	-0.03512118	-0.03518533	-5.820432e-05	3.890476e-05
	-8.467651e-05	4.911071e-05	0.01143714	0.07330861	-5.820432e-05	3.890476e-05	-0.03575917	-0.03475495
4.4e+08	-0.03850946	-0.02646697	-8.264435e-05	8.38752e-05	0.02050017	0.07302263	-7.863883e-05	6.402879e-05
	-8.264435e-05	8.38752e-05	-0.03880944	-0.02566222	-6.696203e-05	7.097844e-05	0.02190493	0.07510499
	0.02050017	0.07302263	-6.696203e-05	7.097844e-05	-0.03843294	-0.02462419	-5.571691e-05	4.897397e-05
	-7.863883e-05	6.402879e-05	0.02190493	0.07510499	-5.571691e-05	4.897397e-05	-0.03886052	-0.02410491
4.5e+08	-0.04022073	-0.01529773	-7.438569e-05	9.793292e-05	0.03118222	0.07336778	-7.04514e-05	7.832114e-05
	-7.438569e-05	9.793292e-05	-0.04030113	-0.0144666	-6.054117e-05	8.405761e-05	0.03260379	0.07529714
	0.03118222	0.07336778	-6.054117e-05	8.405761e-05	-0.04001717	-0.01343737	-5.172928e-05	5.897459e-05
	-7.04514e-05	7.832114e-05	0.03260379	0.07529714	-5.172928e-05	5.897459e-05	-0.0402115	-0.0128639
4.6e+08	-0.04008137	-0.003772431	-6.39109e-05	0.0001111941	0.04187445	0.07208933	-6.016224e-05	9.166822e-05
	-6.39109e-05	0.0001111941	-0.03993254	-0.002951198	-5.222856e-05	9.649018e-05	0.04328148	0.07386042
	0.04187445	0.07208933	-5.222856e-05	9.649018e-05	-0.03975078	-0.001912941	-4.621217e-05	6.867541e-05
	-6.016224e-05	9.166822e-05	0.04328148	0.07386042	-4.621217e-05	6.867541e-05	-0.03969467	-0.001324516
4.7e+08	-0.03801638	0.007797624	-5.128355e-05	0.0001233129	0.05232502	0.06919843	-4.786446e-05	0.0001037578
	-5.128355e-05	0.0001233129	-0.03763459	0.008570706	-4.207484e-05	0.0001079804	0.05368497	0.07081095
	0.05232502	0.06919843	-4.207484e-05	0.0001079804	-0.0375609	0.009637097	-3.917145e-05	7.783492e-05
	-4.786446e-05	0.0001037578	0.05368497	0.07081095	-3.917145e-05	7.783492e-05	-0.03724372	0.01019773
4.8e+08	-0.03400296	0.01908596	-3.662326e-05	0.0001339448	0.06228629	0.06474606	-3.370441e-05	0.0001142798
	-3.662326e-05	0.0001339448	-0.03339081	0.01977157	-3.017533e-05	0.0001182405	0.0635662	0.0662049
