! Created Thu Mar  2 13:36:08 2023
# ghz S ma R 45
! 4 Port Network Data from SP1.SP block
! freq  magS11  angS11  magS12  angS12  magS13  angS13  magS14  angS14  
!       magS21  angS21  magS22  angS22  magS23  angS23  magS24  angS24  
!       magS31  angS31  magS32  angS32  magS33  angS33  magS34  angS34  
!       magS41  angS41  magS42  angS42  magS43  angS43  magS44  angS44  
!     
0      0.076868159    -2.5267689e-13     2.5483481e-06     1.5653889e-13      0.0042623492     -3.963763e-12     3.4241784e-07               180
                  2.5737981e-06     1.0313633e-13       0.077071453    -2.5072462e-13     1.4956637e-06      1.079055e-13      0.0042384789    -3.9885857e-12
                   0.0051062026      1.218195e-11     1.5317223e-06    -2.2649335e-14       0.077426229    -2.1525368e-14     3.4078784e-07     1.4447585e-13
                  3.4146086e-07              -180      0.0050000969     1.2445584e-11     3.4845282e-07     -2.291144e-13        0.07657088     -2.244464e-14

0.025       0.16147262        -5.3455669     3.8572004e-06         33.907721       0.095511732         12.772683     3.1517188e-06         67.407674
                  3.8496765e-06         33.935833         0.1611062        -5.1109336     1.2753587e-06        -19.380124       0.095457485         13.061848
                    0.095930306         12.351477     1.2841213e-06        -19.531807        0.16193426        -5.1413948     3.7911068e-07         41.847466
                  3.1483134e-06          67.34121       0.095921812         12.651663     3.6970048e-07         41.675338        0.16197658        -4.7694407

0.05      0.076197003        -57.881775     2.7102351e-05         108.15893       0.033166832         -48.50116     9.9627873e-06         105.72559
                  2.7112996e-05         108.18851       0.077303872        -57.750762     1.2101118e-05         107.29195       0.034050873        -48.364512
                    0.033694967        -49.736798     1.2111849e-05         107.33865        0.07682452        -58.030586     3.3727179e-06         101.63271
                   9.974925e-06         105.79037       0.034598352        -49.597748     3.3867459e-06         101.92142       0.078066966        -58.063333

0.075       0.15068592         25.872705     2.9231177e-05         46.457398        0.12844553         33.458585     1.2980718e-05         71.026731
                  2.9238688e-05         46.485638        0.14943392         26.803383     1.1171887e-05         23.509897        0.12773026         34.319197
                     0.12773339         33.485498     1.1192735e-05         23.455684        0.15076755         26.083298     2.7949612e-06         46.086647
                  1.2987228e-05         70.916098        0.12701956         34.350551     2.8028827e-06         46.350686        0.14960294          27.07534

0.1       0.21995366        -35.173513     3.0489422e-05         121.83502        0.16956872        -33.571006     1.6667876e-05         85.939066
                  3.0515589e-05         121.81034        0.22132676        -34.111121     1.1504328e-05         141.42026        0.17065676        -32.407932
                     0.16892577        -33.721878     1.1515177e-05         141.57086        0.22045969        -35.041358     3.8026256e-06         76.341375
                  1.6646946e-05         86.034946        0.17001597        -32.557675     3.8265931e-06          76.53912        0.22178853        -33.972132

0.125      0.061883046        -70.356922     7.1466245e-05         68.953855       0.038846166        -82.985925     2.8138521e-05         65.787113
                  7.1517872e-05         68.929337       0.063959888        -71.116254      2.868592e-05         67.267473       0.040967756         -82.80538
                    0.037831339         -84.05703     2.8723055e-05         67.239579       0.062576013        -69.031867     8.0524775e-06         59.603047
                  2.8182628e-05         65.761173       0.039971327        -83.854602     8.1225406e-06          59.41725       0.064454258        -69.694494

0.15       0.18632965        -15.842205     1.6948334e-05         91.559218         0.1337051        -13.870302     1.9107601e-05         77.912507
                  1.6913399e-05         91.417991        0.18684541         -14.14886     3.2691402e-06         168.08055        0.13434762        -12.170916
                     0.13404835         -13.46925     3.2888923e-06         168.69119        0.18762421        -16.165647     3.8665419e-06         63.226681
                  1.9071678e-05         77.963824        0.13468775        -11.771216     3.8444827e-06         62.532275        0.18815124        -14.458383

0.175       0.21082051        -75.946013     9.1937699e-05         92.542576        0.14412907        -80.309947     3.6193943e-05         67.523192
                  9.1900619e-05         92.539392         0.2149156        -74.084547     3.4842405e-05         104.35371         0.1472975        -78.101294
                     0.14412041        -80.056013     3.4880787e-05         104.33573        0.21123216        -76.057272     6.2181179e-06         67.681163
                  3.6230255e-05         67.545896        0.14728962        -77.853047     6.1951399e-06         67.469487        0.21510643        -74.183426

0.2      0.056399954        -114.37117     5.9863826e-05         33.108949       0.032433615        -139.38434     2.6227003e-05         24.351446
                  5.9830674e-05         33.067626       0.058355761        -113.26074     2.2292645e-05         36.585453       0.033999949        -136.75968
                    0.031951145         -138.4987     2.2295007e-05         36.455411       0.056466327        -112.16266     8.1612353e-06         22.948277
                  2.6242143e-05         24.233512       0.033516131         -135.9203     8.1395614e-06         22.520351        0.05816065        -111.01611

0.225       0.12330655          -57.6563     9.0536896e-05         116.14256       0.065287515        -60.134028     3.3829725e-05         93.617765
                  9.0529489e-05         116.19717        0.12772378        -55.312231     3.6989203e-05         122.53577       0.069017187        -57.347883
                    0.066338226        -60.072246     3.7021963e-05         122.57518        0.12550332        -58.959269     5.8781345e-06         88.080441
                  3.3843293e-05         93.686542        0.07007241         -57.28687     5.8408212e-06         88.901242        0.12982181          -56.5578

0.25       0.10972673        -111.90542     0.00012016676         54.185813       0.035886376         -123.9448     4.7223654e-05         39.125127
                  0.00012015965         54.234514        0.11455794        -109.67864     4.5015805e-05         58.294667       0.039603485        -120.62445
                      0.0370347        -123.81871     4.5044352e-05         58.261002        0.10910889        -112.89671     1.1016618e-05         43.482184
                  4.7255202e-05         39.112549        0.04075545        -120.51853     1.0986786e-05         43.918311        0.11361198        -110.62491

0.275      0.056661553         -75.39166      4.595559e-05         126.60868       0.047610837        -52.767271     1.3756427e-05         94.684152
                  4.6007867e-05         126.57591       0.059375583        -71.007086     2.3021165e-05         136.20129       0.050411289        -48.781256
                    0.047317787        -53.387395     2.3027538e-05         136.36636       0.058050467        -74.489397     3.4080095e-06         50.368517
                  1.3718217e-05         94.906955       0.050114384        -49.357856     3.4402864e-06         51.344021       0.060801949        -70.065864

0.3      0.086260843        -92.389472     0.00016277513         77.642806       0.053263221        -100.03315     5.8802034e-05         64.306871
                  0.00016285401          77.62868       0.093164071        -90.048353     6.1597065e-05         77.887276       0.059000187        -96.458505
                    0.052896715        -100.79289       6.16834e-05         77.875847       0.087761158         -94.03784     1.1119145e-05         51.892858
                  5.8889956e-05         64.319896       0.058641787        -97.148871     1.1224192e-05         51.863744       0.094341692        -91.565285

0.325      0.063977617        -64.471775     4.8768225e-05          35.96982       0.058694344        -26.811594     2.5805751e-05         28.013409
                  4.8801621e-05         35.924201       0.064643188        -61.408316     7.5775668e-06         49.562387       0.059434707        -23.455778
                    0.058576689        -26.391581     7.5064752e-06         49.094392        0.06478978        -63.576879     5.7545327e-06         21.111484
                   2.577364e-05         27.839458       0.059310266        -23.035518     5.7805197e-06          20.78857       0.065481492        -60.172302

0.35       0.15162942        -79.564048     0.00016001582          98.58354        0.12817214        -80.118028     5.8929176e-05         70.719453
                  0.00015995678         98.552069         0.1590549        -75.582377     6.1762115e-05           105.589        0.13459238        -75.670796
                     0.12750266        -79.890846     6.1874695e-05         105.59595        0.15589988        -79.271881     9.5150042e-06         34.410882
                  5.9006741e-05         70.782274        0.13393086        -75.455061     9.5840941e-06         33.903984        0.16311812        -75.277714

0.375       0.13607482        -136.74585     0.00013511977         41.807507       0.094740538        -149.39118     5.0666734e-05         15.983015
                   0.0001350641         41.750525        0.14118476        -132.12696      4.521257e-05         57.912924       0.098240454        -143.74347
                    0.093709897        -149.28911     4.5198331e-05          57.73863        0.13692114        -136.91564     5.8349982e-06         26.147815
                  5.0749475e-05         15.862507       0.097210892        -143.64185     5.8336532e-06         24.569257        0.14157325        -132.24895

0.4      0.049236973        -87.379082     0.00011540882         119.97233       0.026797418        -75.129303     3.6875647e-05         102.24867
                  0.00011534568         120.05591       0.055335219        -80.165048     5.4435271e-05         121.95537       0.032684539        -67.199532
                    0.027843748        -73.534942     5.4518985e-05         122.03043       0.053331436        -84.035737     6.9798232e-06         73.186569
                  3.6923023e-05          102.3877       0.033774247        -65.966552     6.8164056e-06          73.94171       0.059595332        -77.256867

0.425       0.19399567        -121.35895     0.00019639881         62.664333        0.11566304        -133.08529     7.0252556e-05         29.039465
                  0.00019635562          62.71089         0.2019969        -116.05503     6.8431231e-05         77.029676        0.12170765        -126.53597
                     0.11660972        -132.81345     6.8415917e-05         76.975458        0.19960058         -121.6728     3.2743846e-06        -8.5548591
                  7.0274018e-05         28.998887        0.12266528        -126.28889     3.1323402e-06        -8.7755187        0.20719307          -116.317

0.45       0.19403063         173.89863     4.9817082e-05         80.278122        0.10605393         158.63922     1.5625601e-05        -80.575472
                  4.9893266e-05         80.360198        0.19349379        -179.38645     5.1269107e-05         93.589505        0.10368535         165.99092
                     0.10642713         158.91649     5.1257053e-05         93.692655         0.1938697         173.78486     9.2801945e-06         78.018588
                  1.5624703e-05        -80.881088        0.10406633         166.26805     9.3534886e-06         78.603655        0.19309156        -179.41287

0.475      0.042520173         143.38189     0.00023163856         88.010045       0.022883407         142.92033     6.8113298e-05         85.008894
                  0.00023180632         88.034758       0.039794823          163.3014     9.3353198e-05         79.460022       0.019899439         172.54687
                    0.023361926         145.57579     9.3467929e-05         79.438364       0.041695751         152.97971     1.0588849e-05         35.392374
                  6.8219866e-05         84.976239        0.02077152         174.80587     1.0615353e-05          36.46602       0.040934805         173.07504

0.5        0.1296309        -163.09687     0.00011958817         35.724744       0.060931808         175.96862     3.8321016e-05        -9.2082266
                  0.00011978247         35.776276        0.13286317        -156.10644     3.8588773e-05         67.498157       0.061853774        -174.98014
                    0.062094914         175.54203     3.8544523e-05         67.488416        0.13342116        -164.60756     4.0320861e-06         157.86765
                  3.8316206e-05        -9.2605663       0.062993243        -175.45362      4.040309e-06         155.12942        0.13612785        -157.47116

0.525        0.1225994          129.7071     0.00019194417         108.27322       0.040634064         104.95663     5.6518992e-05         126.00497
                  0.00019185896         108.20241        0.11482721         138.99915     9.2905034e-05         93.298839       0.031064287         112.60752
                    0.041927379         104.43934     9.2957006e-05           93.2926        0.11965607         128.97592      1.441382e-05         63.411579
                  5.6545663e-05         125.96231       0.032350468         111.90071       1.45745e-05          62.56848        0.11163281          138.4778

0.55      0.011852923         157.72167     0.00022774644         50.516667       0.030677827         -150.1103      6.661023e-05          42.72564
                  0.00022767036         50.467282       0.016874232        -171.37467     6.9818025e-05         44.983509       0.037072547         -139.7479
                    0.029605196        -150.12131     6.9830719e-05         44.881316       0.014749724         175.53171     7.0575591e-06        -61.151236
                  6.6619844e-05         42.625903       0.035998998        -139.67021     7.2962353e-06        -61.093302       0.021011497         -165.0511

0.575      0.066428349         159.04071     0.00010751114         116.17343       0.045337184         138.29703     3.4205405e-05         132.68669
                  0.00010738076          116.2188        0.06151026         171.17237     7.0461264e-05         116.12909       0.038846969         149.01603
                     0.04467251         137.70289     7.0513281e-05         116.22387       0.063664715         157.41303     1.6497527e-05         113.66199
                  3.4284828e-05         132.82766       0.038144742         148.37818     1.6381062e-05         113.95824       0.058772955         169.49774

0.6      0.043535781        -145.97902     0.00028931244         71.703123       0.039243399        -137.44499      8.900546e-05         56.591816
                  0.00028914055         71.715339       0.054213437        -132.91896     0.00010470032         67.290764       0.048727934        -124.73707
                    0.039169623         -136.2347     0.00010475706         67.234751       0.050147135        -138.44299     1.1375609e-05        -11.251103
                  8.9053831e-05         56.532461       0.048729556        -123.76906     1.1335705e-05        -12.123408       0.060881572        -127.89296

0.625        0.1626935         170.60729     8.9744933e-05         52.029677        0.12363549         157.65967     1.3021595e-05         -74.28456
                  8.9596475e-05         52.120759        0.16250878         179.99687     6.3052457e-05         97.337233        0.12170509         167.54077
                     0.12314586         158.00439     6.2992385e-05         97.494638        0.16730243         170.30234     2.1174532e-05         140.02933
                  1.3034954e-05        -75.038925        0.12122656         167.89716     2.1312196e-05         140.49178        0.16648861          179.6719

0.65       0.12920554         107.93516     0.00027490683         95.381494       0.095491441         94.298213     8.5623011e-05         106.45511
                  0.00027506325         95.424783        0.11855184         118.88511      0.0001244018          77.56677       0.084580453         103.62053
                    0.094512194         94.712009     0.00012457985         77.548171        0.12218212          107.3727     1.8264923e-05         48.530439
                  8.5752863e-05         106.37359        0.08360582         104.11137     1.8208554e-05         49.353579        0.11170378         118.58159

0.675       0.10363361        -179.14609     0.00020609099         41.813525       0.070533069         152.12686     4.6058828e-05         3.5264412
                  0.00020628345         41.883335        0.10797775        -168.72534     5.7362689e-05         60.101589       0.071125528         164.79624
                    0.071685641         152.66477     5.7283889e-05         60.159393        0.11531753        -176.59342     1.7982993e-05        -166.60257
                   4.596891e-05         3.4881897       0.072317225         165.25978     1.7967205e-05        -167.53017        0.11927868        -166.50523

0.7       0.26126166         125.15814       0.000189019         103.42211        0.15840489         107.79784      6.535113e-05         155.94253
                  0.00018903671         103.34886        0.25342272         135.27659     0.00012979132         78.368445        0.14966743         117.65426
                     0.15937392         107.80029     0.00012987805           78.3243        0.26542716         124.37809     2.7812887e-05         69.026194
                  6.5262547e-05         155.85348         0.1506412         117.65408     2.8007943e-05         68.683135        0.25760188         134.53004

0.725       0.19845006         62.348879     0.00031137624         65.264546        0.10521576         49.317174     0.00010272876         92.918733
                  0.00031142398         65.242676        0.18873805         72.045004     0.00010421955         37.554963       0.096306077         57.571022
                     0.10564158         49.496299     0.00010417649         37.480299         0.1918625           61.6396      6.455798e-06        -60.952859
                  0.00010259861         92.902764       0.096736572         57.774284     6.5381495e-06        -59.993144        0.18267503         71.415323

0.75      0.057414456         122.67137     9.5495372e-05         88.210823       0.056167253         126.36208     4.3321521e-05         132.53487
                  9.5420209e-05         88.067489       0.050371613         132.83058     7.1943748e-05         118.60215       0.049446263          137.2002
                    0.056680448         125.58006     7.2030699e-05          118.6111       0.065457139         125.71767     3.5935725e-05         138.20902
                  4.3390115e-05         132.52791       0.049937095         136.30025     3.5732628e-05         138.03521       0.058151532         136.18453

0.775        0.1825935         80.681772      0.0003451685         83.427478        0.11491712         68.112591     0.00012056295          101.5035
