! Created Thu Mar  2 13:29:37 2023
# ghz S ma R 45
! 4 Port Network Data from SP1.SP block
! freq  magS11  angS11  magS12  angS12  magS13  angS13  magS14  angS14  
!       magS21  angS21  magS22  angS22  magS23  angS23  magS24  angS24  
!       magS31  angS31  magS32  angS32  magS33  angS33  magS34  angS34  
!       magS41  angS41  magS42  angS42  magS43  angS43  magS44  angS44  
!     
0      0.076868159    -2.5267689e-13     6.5997597e-08               180      0.0042623492     -3.963763e-12     2.1494417e-07              -180
                  6.7758716e-08              -180       0.077973998     7.0225195e-13     1.4194582e-05     1.6516073e-14      0.0041859275    -1.8048536e-12
                   0.0051062026      1.218195e-11     1.4194163e-05     1.6739675e-14       0.077426229    -2.1525368e-14     3.0369736e-07              -180
                  2.1537164e-07               180      0.0052988762     8.5712124e-12      3.092761e-07              -180       0.077684151    -4.6446038e-13

0.025       0.16147262        -5.3455669       5.82543e-06         158.82379       0.095511732         12.772683     4.0496055e-06         156.19834
                  5.8030028e-06         158.93867         0.1617153        -5.4993586     2.7671611e-05         28.845242       0.095636849         12.746084
                    0.095930306         12.351477     2.7678076e-05          28.86336        0.16193426        -5.1413948     6.3588153e-06         159.66275
                  4.0494406e-06         155.91211        0.09612247         12.218809     6.3371147e-06          159.7314        0.16203655        -5.2147157

0.05      0.076197003        -57.881775     1.3169463e-05        -53.479667       0.033166832         -48.50116      1.410756e-05        -61.546558
                  1.3104728e-05        -53.653868        0.07497584        -57.594586     0.00015384403          107.3732       0.032118939        -47.997348
                    0.033694967        -49.736798     0.00015382789         107.35876        0.07682452        -58.030586     1.5426843e-05        -55.455857
                  1.4142265e-05        -61.413832        0.03276546        -49.507365     1.5364026e-05        -55.595723       0.075659697        -57.867327

0.075       0.15068592         25.872705     3.7605404e-05        -155.95926        0.12844553         33.458585     2.8510884e-05        -167.45319
                   3.747075e-05        -155.89053        0.15265558          25.63647     0.00020564586         43.539517        0.13007444         33.248707
                     0.12773339         33.485498     0.00020560339         43.535274        0.15076755         26.083298     4.1808208e-05        -155.76941
                   2.851841e-05        -167.33785        0.12917461         33.262899     4.1668767e-05        -155.69282         0.1524793          25.87525

0.1       0.21995366        -35.173513     2.4612196e-05         69.192447        0.16956872        -33.571006     1.4330642e-05          51.69947
                   2.444928e-05         69.367649         0.2196905        -35.420977     0.00013516166         113.60348        0.16940343        -33.793263
                     0.16892577        -33.721878     0.00013515925         113.59533        0.22045969        -35.041358     2.5186877e-05         68.077557
                  1.4302038e-05         51.601766        0.16859092        -33.978867     2.5009572e-05          68.25367        0.22037032        -35.266765

0.125      0.061883046        -70.356922     4.5312281e-05        -103.68308       0.038846166        -82.985925     4.2626774e-05        -111.17801
                  4.5141289e-05        -103.60525       0.059252564        -68.153686     0.00044512972         65.885042       0.036232116        -80.890877
                    0.037831339         -84.05703     0.00044501494         65.886516       0.062576013        -69.031867     5.2034985e-05         -105.0302
                  4.2762483e-05        -111.22771       0.034991539        -82.193749     5.1862187e-05        -104.95414       0.060798917          -67.3581

0.15       0.18632965        -15.842205     7.0751733e-05         146.98716         0.1337051        -13.870302     4.3175694e-05         137.93439
                  7.0722895e-05         147.16644        0.18898121        -16.214545      0.0001586175         26.452689        0.13567555        -14.253181
                     0.13404835         -13.46925     0.00015860283         26.493977        0.18762421        -16.165647     7.6389932e-05         147.36863
                  4.3423226e-05         137.90657        0.13601594        -13.783538     7.6394756e-05         147.55258        0.18944257        -16.579393

0.175       0.21082051        -75.946013     3.6804167e-05        -22.234601        0.14412907        -80.309947     2.8432077e-05         -49.74823
                  3.6623799e-05        -21.939748        0.20868198        -76.315673     0.00049954674         86.713047        0.14221347        -80.729202
                     0.14412041        -80.056013     0.00049955829         86.708408        0.21123216        -76.057272     3.9435524e-05        -27.076274
                  2.8464751e-05        -49.461836        0.14212045        -80.406434     3.9249496e-05        -26.780745        0.20962828        -76.447022

0.2      0.056399954        -114.37117     9.3505332e-05        -153.43407       0.032433615        -139.38434     7.7980116e-05        -158.12029
                   9.334681e-05        -153.28708        0.05211198        -110.37362     0.00055158247         24.421646       0.027846383        -137.12622
                    0.031951145         -138.4987     0.00055154282         24.430964       0.056466327        -112.16266     0.00010475331        -154.15587
                  7.8025272e-05        -158.14486       0.027294036        -135.68355     0.00010461538        -154.03209       0.053646559         -109.5703

0.225       0.12330655          -57.6563     8.1347581e-05         106.14002       0.065287515        -60.134028     4.0975723e-05         104.99845
                  8.1446851e-05         106.29546        0.12526902        -58.097461     0.00029793896         100.76755       0.066298059        -60.455506
                    0.066338226        -60.072246     0.00029800532         100.73626        0.12550332        -58.959269     8.5148886e-05          106.1837
                  4.1042803e-05          104.6408       0.067505422        -60.420408     8.5263055e-05         106.29619        0.12616083        -59.470434

0.25       0.10972673        -111.90542     6.3811578e-05        -108.44862       0.035886376         -123.9448      6.216275e-05         -130.5326
                  6.3562109e-05        -108.28471        0.10464203        -111.47054     0.00084929926          47.20564       0.031039495        -123.10051
                      0.0370347        -123.81871     0.00084926893         47.193458        0.10910889        -112.89671     7.3246224e-05        -111.76105
                    6.22731e-05        -130.31595       0.032324851        -122.92024     7.3040893e-05        -111.61762        0.10485999        -112.72803

0.275      0.056661553         -75.39166     0.00015468825         149.54615       0.047610837        -52.767271     0.00010304479         142.49706
                  0.00015454508         149.69702       0.061354217        -71.314151     0.00027451706        0.11411431       0.052387006        -51.109808
                    0.047317787        -53.387395     0.00027444531        0.11732271       0.058050467        -74.489397     0.00016838818         149.13387
                  0.00010314804         142.55348       0.052090826        -51.734922     0.00016828152         149.25839        0.06119793        -72.037013

0.3      0.086260843        -92.389472     6.9455342e-05         44.036136       0.053263221        -100.03315     1.1461144e-05         39.547354
                  6.9630357e-05         44.369405       0.085520038        -92.560544     0.00084481407         69.425663       0.051811991        -100.14128
                    0.052896715        -100.79289     0.00084473405         69.419113       0.087761158         -94.03784     6.8267741e-05         43.360579
                  1.1446967e-05         39.044095       0.051385443        -101.10468     6.8434553e-05         43.658588        0.08622982        -94.221792

0.325      0.063977617        -64.471775     0.00014516369        -178.46921       0.058694344        -26.811594     0.00011546162         162.90111
                  0.00014486284        -178.31743       0.068793717        -59.234859     0.00083673614         7.8156121       0.065484265        -25.602327
                    0.058576689        -26.391581     0.00083651779         7.8160965        0.06478978        -63.576879     0.00016196858        -179.91389
                  0.00011577127         162.97588       0.065365546        -25.161547       0.000161724        -179.77885       0.068539839        -59.944732

0.35       0.15162942        -79.564048     0.00019313195          81.87795        0.12817214        -80.118028       9.74942e-05          73.80827
                  0.00019330808         82.069239        0.15722085        -80.323032     0.00046436036         73.343308         0.1319203        -80.980178
                     0.12750266        -79.890846     0.00046459423         73.346194        0.15589988        -79.271881     0.00020504411         81.681784
                  9.7976324e-05         73.859828        0.13115299        -80.730164     0.00020528348          81.85531        0.15923615        -80.101372

0.375       0.13607482        -136.74585     6.7769758e-05        -93.121059       0.094740538        -149.39118     5.5163597e-05        -146.96475
                  6.7619888e-05        -92.562945        0.13169928        -137.03373      0.0011795591         27.661272       0.090328477         -149.9934
                    0.093709897        -149.28911      0.0011794677         27.660501        0.13692114        -136.91564     7.1681694e-05        -98.964614
                    5.51617e-05        -146.79383       0.089155786        -149.85802      7.150975e-05        -98.455388        0.13316927        -137.26413

0.4      0.049236973        -87.379082     0.00025343661         130.33537       0.026797418        -75.129303     0.00016832521         119.47769
                  0.00025369262         130.44718       0.058331017        -81.741676     0.00038744447        -13.331058       0.034680027        -70.651821
                    0.027843748        -73.534942     0.00038755608        -13.274642       0.053331436        -84.035737     0.00027495117         129.24635
                  0.00016868373         119.31705       0.035918235        -69.515289      0.0002752448         129.33617       0.059871213        -81.284535

0.425       0.19399567        -121.35895     0.00015528992          16.17582        0.11566304        -133.08529     4.8604172e-05         15.412078
                  0.00015583952         16.219713        0.19722915        -122.38227       0.001064837         45.060255        0.11669794        -133.82013
                     0.11660972        -132.81345      0.0010647808         45.039417        0.19960058         -121.6728     0.00016069142         16.188409
                  4.8770442e-05          14.49341        0.11770548         -133.5278     0.00016124714         16.193001        0.20069202        -122.71868

0.45       0.19403063         173.89863     0.00019039215        -179.06262        0.10605393         158.63922     0.00012860684          163.7426
                  0.00019048112        -178.88496        0.18575403         173.08244      0.0010509974        -11.553268       0.098774118         157.44818
                     0.10642713         158.91649      0.0010508618        -11.559985         0.1938697         173.78486     0.00020393977         179.58548
                  0.00012897689           163.828       0.099151378         157.80806     0.00020409901         179.73364        0.18764534         172.92837

0.475      0.042520173         143.38189     0.00030593509         84.419122       0.022883407         142.92033     0.00018316787         82.511871
                  0.00030642837         84.472697        0.03617234         156.73602     0.00050880001         59.822913       0.019189162         162.38404
                    0.023361926         145.57579     0.00050867409         59.768568       0.041695751         152.97971     0.00032720783         83.878377
                  0.00018292723         82.385926       0.020164799          164.9315     0.00032763101         83.908961       0.038689875         161.15373

0.5        0.1296309        -163.09687     0.00011540665        -49.606688       0.060931808         175.96862     1.5961411e-05        -69.218268
                  0.00011587842        -49.631901        0.12906301        -163.97746      0.0014464283         8.3125147       0.058435147           175.249
                    0.062094914         175.54203      0.0014460045         8.2947388        0.13342116        -164.60756     0.00011442229        -50.604589
                   1.621692e-05        -71.805208        0.05962199         174.67509     0.00011477681        -50.679242        0.13124245        -165.51211

0.525        0.1225994          129.7071     0.00029530771         121.31245       0.040634064         104.95663     0.00019626201         109.38113
                  0.00029555321            121.39        0.10964249         129.73596     0.00051488675        -35.489902        0.02929188         101.41358
                    0.041927379         104.43934     0.00051443382        -35.509661        0.11965607         128.97592     0.00032016855         120.43455
                   0.0001966674         109.45587       0.030637104         100.69564     0.00032045188         120.48242         0.1098076          128.7465

0.55      0.011852923         157.72167     0.00032273273         26.016881       0.030677827         -150.1103     0.00017422224         28.242261
                  0.00032326136         26.059173       0.018048559        -171.49392      0.0012832353         30.684821       0.037408518        -149.63682
                    0.029605196        -150.12131      0.0012832675         30.692171       0.014749724         175.53171     0.00034189503         26.301144
                   0.0001743704         28.264788       0.036259634        -149.60155     0.00034236724         26.324071       0.019268264        -173.53183

0.575      0.066428349         159.04071     0.00012354226         173.78743       0.045337184         138.29703     9.5460054e-05           126.211
                  0.00012371592         174.03082       0.060093018         161.09058      0.0012894611        -29.222191       0.038551509         138.46045
                     0.04467251         137.70289      0.0012890794        -29.213053       0.063664715         157.41303     0.00013187644         168.95596
                  9.5986337e-05         126.21643       0.037756247         137.75591      0.0001320503         169.14575       0.057972779         158.73449

0.6      0.043535781        -145.97902     0.00042655496         54.640256       0.039243399        -137.44499     0.00026168791         44.735447
                  0.00042721206         54.689175       0.058842376        -139.49847     0.00063124887         30.426023       0.051662173        -135.28286
                    0.039169623         -136.2347      0.0006318339         30.422977       0.050147135        -138.44299     0.00045896857         53.775414
                  0.00026246557         44.637634       0.051728316        -134.30874     0.00045962221         53.803586       0.061402354        -136.84217

0.625        0.1626935         170.60729     0.00020570122        -56.190683        0.12363549         157.65967     6.8581963e-05        -45.029844
                  0.00020654937          -56.2028        0.16799513         169.29997      0.0015750509        -11.983002        0.12581992         156.61106
                     0.12314586         158.00439      0.0015751061        -11.989585        0.16730243         170.30234     0.00021417595        -55.069417
                  6.8781267e-05        -45.462574        0.12535783         156.98249     0.00021496498        -55.116442        0.16924638         168.80978

0.65       0.12920554         107.93516     0.00028923387         103.53699       0.095491441         94.298213      0.0001853591         87.060745
                  0.00028985267         103.63027        0.11619143         107.81058     0.00064901708        -55.001155       0.084327244          93.27327
                    0.094512194         94.712009     0.00064918825        -54.953577        0.12218212          107.3727     0.00031084055         101.97341
                  0.00018576646          86.91057       0.083357053         93.850156     0.00031142024         102.04153         0.1121855         107.10932

0.675       0.10363361        -179.14609     0.00041574823        -3.2682831       0.070533069         152.12686      0.0002272745         -5.948257
                  0.00041631586        -3.3496621        0.11963857        -178.86107       0.001328048         5.4379389       0.079475623         155.63479
                    0.071685641         152.66477      0.0013278039         5.4019978        0.11531753        -176.59342     0.00044572868        -4.2729262
                  0.00022682042        -6.2401368       0.080760265          155.9682     0.00044610529        -4.3536074        0.12564358        -177.87024

0.7       0.26126166         125.15814     0.00011961494         179.94656        0.15840489         107.79784     3.5506485e-05         111.83327
                  0.00012015879         179.84767        0.26000663         123.62642      0.0013018299        -47.547538        0.15487036         106.60481
                     0.15937392         107.80029        0.00130149        -47.552271        0.26542716         124.37809     0.00011900286         179.99372
                  3.6105913e-05         111.57782         0.1558501         106.57639     0.00011944598         179.82669        0.26273858         122.75142

0.725       0.19845006         62.348879     0.00037424426         53.215223        0.10521576         49.317174     0.00023152178         51.827437
                  0.00037473225         53.196213         0.1801463         60.896956     0.00045200848         4.4738494        0.09053333         47.338021
                     0.10564158         49.496299     0.00045201118         4.4554352         0.1918625           61.6396      0.0004062361         52.851179
                  0.00023138907         51.751371       0.091030288         47.553154     0.00040661353         52.817738         0.1785265         60.144751

0.75      0.057414456         122.67137     0.00033822707        -48.836295       0.056167253         126.36208     0.00018996673        -40.284879
                  0.00033829841        -48.922986       0.069040782         127.82289      0.0016861311        -27.688009       0.064560839         128.45421
                    0.056680448         125.58006      0.0016854849        -27.690794       0.065457139         125.71767     0.00036224383        -49.009461
                  0.00018918391        -40.321378       0.064878769         127.64521     0.00036213027        -49.069737       0.072314819         126.82787

0.775        0.1825935         80.681772      0.0002132412         94.195932        0.11491712         68.112591     0.00012298749         70.607797
