! Created Thu Mar  2 13:20:37 2023
# ghz S ma R 45
! 4 Port Network Data from SP1.SP block
! freq  magS11  angS11  magS12  angS12  magS13  angS13  magS14  angS14  
!       magS21  angS21  magS22  angS22  magS23  angS23  magS24  angS24  
!       magS31  angS31  magS32  angS32  magS33  angS33  magS34  angS34  
!       magS41  angS41  magS42  angS42  magS43  angS43  magS44  angS44  
!     
0      0.076868159    -2.5267689e-13     2.5549966e-06              -180      0.0042623492     -3.963763e-12     3.3839509e-07     1.1436884e-14
                  2.5608318e-06              -180       0.078245907    -2.4533863e-13     1.5006663e-06              -180      0.0046048737    -3.6669035e-12
                   0.0051062026      1.218195e-11     1.5201042e-06               180       0.077426229    -2.1525368e-14     3.3957422e-07              -180
                  3.5505199e-07     6.0918716e-13      0.0053668963     1.1591352e-11      3.401306e-07               180       0.075697384    -2.3251436e-14

0.025       0.16147262        -5.3455669     3.5386383e-06         55.502116       0.095511732         12.772683     1.1984035e-05         11.786772
                  3.5313237e-06         55.592104        0.16110375        -5.1107346     5.3414342e-06         173.42394       0.095456506         13.059009
                    0.095930306         12.351477     5.3346544e-06         173.50936        0.16193426        -5.1413948     1.2085307e-06          166.4619
                   1.198914e-05         11.762658       0.095920864         12.648611     1.2138068e-06          166.7897        0.16198039        -4.7757715

0.05      0.076197003        -57.881775     1.1635493e-06        -17.447237       0.033166832         -48.50116     2.1271815e-05        -66.405161
                  1.1498113e-06        -16.981893       0.077304157        -57.751005     1.2777549e-05         111.24334       0.034050839        -48.364471
                    0.033694967        -49.736798     1.2781561e-05             111.3        0.07682452        -58.030586     3.3545181e-06         114.71965
                  2.1265711e-05        -66.447414       0.034597405        -49.597227     3.3753854e-06         114.77394       0.078067358        -58.063148

0.075       0.15068592         25.872705     1.0148201e-05        -95.434198        0.12844553         33.458585     3.4598898e-05        -135.26711
                  1.0127458e-05        -95.336136        0.14943281         26.803607     1.4718489e-05         17.666834        0.12773037         34.319247
                     0.12773339         33.485498     1.4727289e-05         17.679891        0.15076755         26.083298     3.3104393e-06         5.2024169
                  3.4583901e-05        -135.26915        0.12701967         34.350596     3.3282577e-06         5.4172059        0.14960317         27.075311

0.1       0.21995366        -35.173513     1.3851333e-05           122.193        0.16956872        -33.571006     4.7411171e-05         140.42837
                  1.3819255e-05         122.14302         0.2213269        -34.111492     1.6258048e-05         -23.43504         0.1706567        -32.408003
                     0.16892577        -33.721878     1.6275361e-05        -23.428441        0.22045969        -35.041358     3.4914689e-06        -3.3718798
                  4.7391943e-05         140.41884        0.17001592        -32.557748     3.5296684e-06        -3.5477799        0.22178877        -33.972225

0.125      0.061883046        -70.356922     2.0026071e-06         14.768658       0.038846166        -82.985925     5.0911485e-05         67.287559
                   1.971624e-06         13.987906       0.063973985        -71.114657     3.0450741e-05        -110.20896       0.040799501        -82.927982
                    0.037831339         -84.05703     3.0488928e-05        -110.27546       0.062576013        -69.031867     8.2621048e-06        -104.74796
                  5.0865178e-05          67.32667       0.039804263        -83.985493     8.3215362e-06         -104.9081       0.064463654        -69.678908

0.15       0.18632965        -15.842205     1.9028253e-05        -8.8306516         0.1337051        -13.870302     6.9940873e-05        -7.8094438
                  1.8986577e-05        -8.7921487        0.18686931        -14.145949     2.3686845e-05         171.71891         0.1341093        -12.146127
                     0.13404835         -13.46925     2.3653318e-05         171.62168        0.18762421        -16.165647     4.6103815e-06         -175.1417
                  6.9970801e-05        -7.7763898        0.13444991        -11.745778     4.6370644e-06        -175.58365        0.18816869        -14.453984

0.175       0.21082051        -75.946013      2.189942e-05        -150.93642        0.14412907        -80.309947     7.3550136e-05        -90.728768
                  2.1872825e-05        -151.03705        0.21492096        -74.090288     3.8779118e-05         116.59322        0.14716228        -78.048402
                     0.14412041        -80.056013     3.8747762e-05         116.61479        0.21123216        -76.057272     1.1023122e-05         130.56575
                  7.3575982e-05        -90.726513          0.147155        -77.799932     1.1055166e-05         130.43947        0.21511356        -74.185878

0.2      0.056399954        -114.37117     4.3662922e-06         64.824675       0.032433615        -139.38434     7.6854676e-05        -158.14299
                  4.3958572e-06         64.238691       0.058337389        -113.25821      5.043887e-05          23.45588       0.033987088         -136.6683
                    0.031951145         -138.4987     5.0404185e-05         23.459371       0.056466327        -112.16266     1.4086269e-05          27.55998
                  7.6885141e-05        -158.13733       0.033504061        -135.82729     1.4151905e-05         27.465946        0.05816482        -111.02923

0.225       0.12330655          -57.6563     1.5935353e-05         85.378804       0.065287515        -60.134028     9.4586584e-05          123.5215
                  1.5886034e-05          85.26958        0.12772936        -55.310178     4.7108074e-05        -47.252073       0.069018963        -57.347892
                    0.066338226        -60.072246     4.7068537e-05        -47.176234        0.12550332        -58.959269     1.2038325e-05        -37.039668
                  9.4637331e-05         123.48946       0.070074186        -57.286876     1.2074366e-05         -37.22546        0.12981402        -56.558532

0.25       0.10972673        -111.90542     1.3187292e-05        -57.810762       0.035886376         -123.9448     9.5137334e-05         48.264473
                  1.3201679e-05          -58.1131        0.11454393        -109.67247     6.1905848e-05        -124.75811        0.03960395        -120.61892
                      0.0370347        -123.81871     6.1948832e-05        -124.68159        0.10910889        -112.89671     1.6978082e-05        -118.55139
                  9.5100714e-05         48.211924       0.040755924        -120.51315     1.7026025e-05         -118.5562        0.11362918        -110.63364

0.275      0.056661553         -75.39166     8.5153479e-06         -65.64358       0.047610837        -52.767271     0.00011128845        -25.788524
                  8.4463069e-06        -65.927247       0.059399234        -70.992515     5.9995382e-05          156.9964        0.05041227        -48.780336
                    0.047317787        -53.387395      6.004682e-05         157.01281       0.058050467        -74.489397     1.5151387e-05         166.77959
                  0.00011123422        -25.796551       0.050115326         -49.35695     1.5249078e-05         166.76496       0.060773948        -70.083962

0.3      0.086260843        -92.389472     1.3954599e-05        -178.90165       0.053263221        -100.03315     0.00011656212        -103.48545
                  1.3916603e-05          -179.259       0.093178299        -90.041682     6.9205588e-05         84.657554       0.059001087        -96.460277
                    0.052896715        -100.79289     6.9275948e-05         84.628246       0.087761158         -94.03784     1.9144267e-05         94.727084
                  0.00011648817        -103.47368        0.05864272        -97.150643     1.9246193e-05         94.549304       0.094342577        -91.579226

0.325      0.063977617        -64.471775     1.3100983e-05         155.69159       0.058694344        -26.811594     0.00013205825        -176.61639
                   1.299288e-05         155.58249       0.064672459        -61.380021     6.6514866e-05         4.3011337       0.059434413        -23.453666
                    0.058576689        -26.391581     6.6510054e-05          4.261056        0.06478978        -63.576879     1.6144842e-05            15.918
                    0.000132053        -176.59949       0.059309975        -23.033389     1.6229212e-05         15.765216       0.065428704        -60.217195

0.35       0.15162942        -79.564048     3.3854764e-05         43.808981        0.12817214        -80.118028     0.00014014012         101.46618
                  3.3763752e-05         43.676778        0.15913762        -75.571207     7.2793979e-05        -58.213334        0.13459233        -75.671427
                     0.12750266        -79.890846     7.2757719e-05         -58.24954        0.15589988        -79.271881     2.2011988e-05        -42.162088
                  0.00014014041         101.48978        0.13393082        -75.455688     2.2120132e-05        -42.367817          0.163041        -75.292424

0.375       0.13607482        -136.74585     2.8692139e-05         -95.49243       0.094740538        -149.39118     0.00012903993         29.302115
                  2.8714429e-05        -95.748691        0.14126555        -132.11386     9.6839494e-05        -141.22631       0.098240763        -143.74617
                    0.093709897        -149.28911     9.6778326e-05        -141.25423        0.13692114        -136.91564     2.8671764e-05         -134.3401
                  0.00012908276         29.331855       0.097211204         -143.6446     2.8808755e-05        -134.57217        0.14152938        -132.28043

0.4      0.049236973        -87.379082     1.1251276e-05        -94.159537       0.026797418        -75.129303     0.00015355924        -43.375771
                  1.1114647e-05        -94.344012       0.055379124        -80.152412     8.6419454e-05          138.3447       0.032687548        -67.194028
                    0.027843748        -73.534942     8.6302026e-05         138.38544       0.053331436        -84.035737     2.3220359e-05         149.50426
                  0.00015367106        -43.395571       0.033777342        -65.961281     2.3285889e-05         149.18198        0.05952006        -77.272652

0.425       0.19399567        -121.35895     4.6121863e-05         131.95411        0.11566304        -133.08529     0.00014524762        -125.69116
                  4.6065413e-05         131.80278        0.20216743        -116.03733     0.00010639666         71.497191        0.12171172        -126.53847
                     0.11660972        -132.81345     0.00010644859         71.561271        0.19960058         -121.6728     3.2864702e-05         78.043909
                  0.00014521756        -125.73657        0.12266936        -126.29139     3.2935214e-05         77.885206        0.20705966         -116.3482

0.45       0.19403063         173.89863       4.66694e-05         -11.47496        0.10605393         158.63922     0.00013875489         169.85991
                  4.6760487e-05        -11.592087        0.19366856        -179.35612     0.00012143912        -15.911831        0.10368435          165.9874
                     0.10642713         158.91649     0.00012151699        -15.894544         0.1938697         173.78486     3.3768875e-05        -12.957487
                  0.00013867459         169.85656        0.10406528         166.26453     3.3891718e-05        -13.117828        0.19296886        -179.46547

0.475      0.042520173         143.38189     9.1287836e-06        -133.95265       0.022883407         142.92033     0.00017041727          94.44972
                  9.2792954e-06        -134.01088       0.039844546         163.43103      0.0001078716        -91.875698        0.01989921         172.57305
                    0.023361926         145.57579     0.00010798776        -91.827002       0.041695751         152.97971     2.8955093e-05        -84.058911
                  0.00017030235         94.428126       0.020771646         174.83103     2.9035225e-05        -84.348608       0.040890876         172.95446

0.5        0.1296309        -163.09687     3.1347862e-05        -137.21351       0.060931808         175.96862     0.00016562176          15.97559
                  3.1352918e-05        -137.46302        0.13308431        -156.06531     0.00012452117        -164.76005         0.0618604        -174.98909
                    0.062094914         175.54203     0.00012469751        -164.78613        0.13342116        -164.60756     3.4291888e-05        -159.77212
                  0.00016545322         15.996317       0.062999957         -175.4624     3.4331965e-05        -159.93822        0.13596685        -157.55879

0.525        0.1225994          129.7071     3.0866626e-05         72.476838       0.040634064         104.95663     0.00018151576        -53.812834
                  3.0977929e-05         72.442685        0.11494242         139.05796     0.00012032222         112.11718       0.031060277         112.59136
                    0.041927379         104.43934     0.00012038856         112.02777        0.11965607         128.97592     2.9312137e-05         121.16577
                  0.00018149544        -53.750363       0.032346517         111.88505     2.9399587e-05         121.03891        0.11155951         138.38453

0.55      0.011852923         157.72167     5.2169735e-07         177.94759       0.030677827         -150.1103     0.00019494149        -133.61324
                     3.9486e-07         177.93437       0.017037098        -170.85956     0.00012029039         43.862432       0.037079694        -139.76187
                    0.029605196        -150.12131     0.00012019748         43.809965       0.014749724         175.53171      3.394725e-05         52.476485
                  0.00019504216        -133.58013       0.036006173        -139.68467     3.4056666e-05          52.26162       0.020915199        -165.60458

0.575      0.066428349         159.04071     1.5431017e-05        -49.994024       0.045337184         138.29703     0.00019709605          152.9271
                  1.5561729e-05        -50.279064       0.061706826         171.17956     0.00013138165        -35.552412       0.038836251         148.99664
                     0.04467251         137.70289     0.00013128583        -35.573564       0.063664715         157.41303      3.494234e-05        -28.844944
                  0.00019720079         152.93451       0.038134121         148.35818     3.5023565e-05        -29.053831       0.058615924          169.3334

0.6      0.043535781        -145.97902     1.3844841e-05        -32.684298       0.039243399        -137.44499     0.00020722308         73.315841
                  1.3738063e-05        -33.245583       0.054339565        -132.90922     0.00013181893        -105.91909       0.048740762        -124.74116
                    0.039169623         -136.2347     0.00013172153        -105.89888       0.050147135        -138.44299     3.9521415e-05        -94.585952
                  0.00020729705         73.304276       0.048742405        -123.77342     3.9621198e-05        -94.775179       0.060741893        -127.92867

0.625        0.1626935         170.60729     5.1445738e-05        -179.36278        0.12363549         157.65967     0.00018575038         2.3294034
                  5.1528455e-05        -179.55848         0.1627271         179.97771     0.00015958922         172.70886        0.12169735          167.5334
                     0.12314586         158.00439     0.00015955558         172.73594        0.16730243         170.30234     4.5895984e-05         171.97947
                  0.00018577534          2.313279        0.12121872         167.88974     4.6055372e-05         171.75483         0.1663437         179.62471

0.65       0.12920554         107.93516     4.3297403e-05         35.863986       0.095491441         94.298213      0.0002207691        -67.686165
                  4.3521664e-05         35.826984        0.11865434         118.86357     0.00014071228         90.165044       0.084565343         103.62199
                    0.094512194         94.712009     0.00014072751         90.221692        0.12218212          107.3727     3.3148962e-05         94.607678
                  0.00022072073        -67.716328       0.083590646         104.11297     3.3238762e-05           94.1862        0.11166203         118.53904

0.675       0.10363361        -179.14609     3.2122041e-05         41.641847       0.070533069         152.12686     0.00021184303        -150.03249
                  3.2047697e-05         41.263856        0.10805075        -168.76725     0.00015853688         22.341409       0.071133417         164.78213
                    0.071685641         152.66477     0.00015874108         22.343208        0.11531753        -176.59342     4.5451689e-05         24.873235
                  0.00021164828        -150.02664       0.072325037         165.24577     4.5439765e-05         24.612262        0.11925842        -166.53458

0.7       0.26126166         125.15814     8.7375444e-05        -92.275595        0.15840489         107.79784     0.00020994859         146.18543
                  8.7446626e-05        -92.372619        0.25352222         135.24687       0.000163091        -66.935352         0.1496475         117.65002
                     0.15937392         107.80029     0.00016316369        -66.988476        0.26542716         124.37809     3.6687288e-05        -73.092523
                  0.00020997848         146.23133        0.15062119         117.64986     3.6728268e-05         -73.34027        0.25760011         134.50728

0.725       0.19845006         62.348879     7.5840212e-05         130.68881        0.10521576         49.317174     0.00026242564         69.344738
                  7.5998847e-05         130.69444        0.18878871         72.043118     0.00012361809         -138.8139       0.096298845         57.577769
                     0.10564158         49.496299     0.00012362935        -138.85103         0.1918625           61.6396     2.4420639e-05        -121.75205
                  0.00026246922         69.361847       0.096729345         57.781053     2.4389669e-05        -122.15139        0.18268765         71.411517

0.75      0.057414456         122.67137     1.8383669e-05          104.5082       0.056167253         126.36208     0.00024731894        -11.751923
                  1.8456732e-05         104.04512        0.05050094         132.69029     0.00016005761         155.43986       0.049432441         137.17545
                    0.056680448         125.58006     0.00016004728         155.36706       0.065457139         125.71767      4.275264e-05         161.11535
                  0.00024739104        -11.712729        0.04992354         136.27541     4.2662889e-05         160.92385       0.058209906         136.11054

0.775        0.1825935         80.681772     7.2255357e-05        -4.6779921        0.11491712         68.112591     0.00026933571        -81.312992
