! Created Thu Mar  2 13:15:01 2023
# ghz S ma R 45
! 4 Port Network Data from SP1.SP block
! freq  magS11  angS11  magS12  angS12  magS13  angS13  magS14  angS14  
!       magS21  angS21  magS22  angS22  magS23  angS23  magS24  angS24  
!       magS31  angS31  magS32  angS32  magS33  angS33  magS34  angS34  
!       magS41  angS41  magS42  angS42  magS43  angS43  magS44  angS44  
!     
0      0.076868159    -2.5267689e-13        0.92072531     1.2010949e-13      0.0042623492     -3.963763e-12      0.0058292003               180
                      0.9207255     1.2012162e-13       0.078044345    -2.4723908e-13      0.0058531268               180      0.0046285534    -3.6458527e-12
                   0.0051062026      1.218195e-11      0.0052436598              -180       0.077426229    -2.1525368e-14        0.92089018     4.0633145e-14
                    0.005219979              -180      0.0054726705     1.1362571e-11        0.92088997     4.0623019e-14       0.076550053    -2.2314673e-14

0.025       0.16147262        -5.3455669        0.90726783        -76.378287       0.095511732         12.772683       0.017286423          133.5779
                     0.90726782        -76.378289        0.16147022         -5.345372       0.017287284         133.58305       0.095510754         12.769848
                    0.095930306         12.351477       0.016689179         134.40178        0.16193426        -5.1413948        0.90750364        -76.448257
                    0.016688609         134.39776        0.09592936         12.348427        0.90750365        -76.448255        0.16193792        -5.1477893

0.05      0.076197003        -57.881775         0.9148639        -152.46122       0.033166832         -48.50116       0.015913831          105.9968
                     0.91486393        -152.46122       0.076197004        -57.881757       0.015913796         105.99678       0.033166858        -48.501087
                    0.033694967        -49.736798       0.015650571         108.61208        0.07682452        -58.030586        0.91529579        -152.58716
                    0.015650607          108.6121       0.033694082        -49.736216        0.91529576        -152.58716       0.076825584        -58.029213

0.075       0.15068592         25.872705        0.88966756         130.38905        0.12844553         33.458585       0.047140948          11.73201
                     0.88966756         130.38905        0.15068582         25.872627       0.047141184         11.731831        0.12844545         33.458653
                     0.12773339         33.485498       0.046678207         12.564734        0.15076755         26.083298        0.89024139         130.17883
                    0.046677977         12.564919        0.12773331         33.485561        0.89024139         130.17883        0.15076821         26.081933

0.1       0.21995366        -35.173513        0.87124032         56.492965        0.16956872        -33.571006       0.040993992        -100.85507
                     0.87124032         56.492965        0.21995351        -35.173641        0.04099428        -100.85574        0.16956871        -33.571047
                     0.16892577        -33.721878       0.040175215         -100.4213        0.22045969        -35.041358        0.87149681         56.213003
                    0.040174934        -100.42061        0.16892576         -33.72192        0.87149681         56.213003        0.22046087         -35.04092

0.125      0.061883046        -70.356922        0.89725786        -19.453796       0.038846166        -82.985925       0.025411087        -131.10985
                     0.89725755          -19.4538        0.06193606        -70.374727       0.025423451        -131.05183       0.038675678        -83.110517
                    0.037831339         -84.05703       0.025221958         -129.1388       0.062576013        -69.031867          0.897416         -19.78627
                    0.025208749        -129.19632       0.037662034         -84.19065        0.89741632        -19.786267       0.062618212        -69.018395

0.15       0.18632965        -15.842205        0.87213187           -96.548         0.1337051        -13.870302       0.055471767         144.44104
                     0.87213183        -96.547989        0.18633531        -15.844876       0.055493252         144.49422        0.13346867        -13.844275
                     0.13404835         -13.46925       0.055299628          145.3208        0.18762421        -16.165647        0.87226222        -96.942595
                    0.055277392         145.26775         0.1338124        -13.442566        0.87226229        -96.942609        0.18763925        -16.162452

0.175       0.21082051        -75.946013        0.86213708        -170.32979        0.14412907        -80.309947       0.040747916         44.984624
                     0.86213713        -170.32979        0.21086282        -75.956629       0.040744582         45.094971        0.14399487        -80.256208
                     0.14412041        -80.056013       0.040255783         45.882715        0.21123216        -76.057272        0.86224848        -170.78789
                    0.040258027         45.770966        0.14398684         -80.00203        0.86224846        -170.78789        0.21126734        -76.049173

0.2      0.056399954        -114.37117        0.88433266         113.92675       0.032433615        -139.38434       0.030788953         10.752667
                      0.8843327         113.92675       0.056414995        -114.40453       0.030861631         10.906903       0.032420124        -139.29203
                    0.031951145         -138.4987       0.030874532          12.33706       0.056466327        -112.16266        0.88421686         113.39726
                    0.030799793         12.186338       0.031938486        -138.40465        0.88421686         113.39725       0.056512552        -112.15017

0.225       0.12330655          -57.6563        0.87484586         37.359282       0.065287515        -60.134028       0.048859875        -65.457408
                     0.87484589         37.359279        0.12331376         -57.66226       0.048952672        -65.341395        0.06529078         -60.13353
                    0.066338226        -60.072246       0.048971249        -64.508624        0.12550332        -58.959269        0.87451916         36.790458
                    0.048877034        -64.622968       0.066341481        -60.071725        0.87451916         36.790455        0.12551506        -58.948472

0.25       0.10972673        -111.90542        0.87178956        -38.071708       0.035886376         -123.9448       0.050386316        -137.19072
                     0.87178959        -38.071712        0.10974783        -111.91589       0.050509546        -137.05991       0.035887579        -123.94364
                      0.0370347        -123.81871       0.050492049         -136.2551        0.10910889        -112.89671        0.87181118        -38.697809
                    0.050367251        -136.38397       0.037035938        -123.81755        0.87181121        -38.697813        0.10917275        -112.86688

0.275      0.056661553         -75.39166        0.87095744         -114.2075       0.047610837        -52.767271       0.063315992         151.40974
                     0.87095748        -114.20751       0.056664055        -75.410275        0.06347326         151.51988        0.04761121         -52.76199
                    0.047317787        -53.387395       0.063501849         152.25027       0.058050467        -74.489397        0.87078924        -114.91614
                    0.063343048         152.14198       0.047318044        -53.382115        0.87078929        -114.91615       0.058060526        -74.512678

0.3      0.086260843        -92.389472        0.86348258         170.00358       0.053263221        -100.03315       0.070291561         73.755856
                     0.86348264         170.00357       0.086277812         -92.40558       0.070470928         73.879247       0.053266554        -100.03684
                    0.052896715        -100.79289       0.070539385         74.600712       0.087761158         -94.03784        0.86321582         169.24982
                    0.070358108         74.479259       0.052900112        -100.79651        0.86321587         169.24981       0.087820776        -93.996216

0.325      0.063977617        -64.471775        0.85825165         93.864221       0.058694344        -26.811594       0.082963186       -0.70707083
                      0.8582517         93.864211       0.063984771        -64.495786       0.083181685       -0.58828008       0.058689836        -26.804573
                    0.058576689        -26.391581       0.083347639        0.04928119        0.06478978        -63.576879        0.85811868         93.026014
                     0.08312721      -0.067595105       0.058572179        -26.384541        0.85811873         93.026004        0.06482228        -63.642741

0.35       0.15162942        -79.564048        0.83877519          18.15406        0.12817214        -80.118028       0.091511957        -85.655018
                     0.83877525         18.154048        0.15165514        -79.583911       0.091723681        -85.504727        0.12817505        -80.117316
                     0.12750266        -79.890846       0.091843044        -84.894214        0.15589988        -79.271881        0.83791506         17.247987
                    0.091628716        -85.042899        0.12750556         -79.89011        0.83791511         17.247974        0.15590705        -79.250292

0.375       0.13607482        -136.74585        0.83858268        -56.522728       0.094740538        -149.39118       0.081267844        -158.91031
                     0.83858272        -56.522745        0.13611778         -136.7689       0.081527617        -158.70154       0.094744654        -149.39672
                    0.093709897        -149.28911       0.081833028        -158.00655        0.13692114        -136.91564        0.83787402        -57.446068
                    0.081569617         -158.2123       0.093714055        -149.29471        0.83787405        -57.446084        0.13700516        -136.86565

0.4      0.049236973        -87.379082        0.84352982        -133.00673       0.026797418        -75.129303       0.097833921         133.21449
                      0.8435298        -133.00675       0.049237424        -87.420232       0.098208755         133.40148       0.026796743        -75.111502
                    0.027843748        -73.534942       0.098812305         133.86961       0.053331436        -84.035737        0.84296157        -134.02852
                     0.09843487         133.68559        0.02784324        -73.517678        0.84296156        -134.02854        0.05334095        -84.070958

0.425       0.19399567        -121.35895        0.81568241         151.18898        0.11566304        -133.08529         0.1073611          46.42568
                     0.81568237         151.18896        0.19405467        -121.38709        0.10772692         46.684455        0.11567259        -133.08821
                     0.11660972        -132.81345        0.10816461         47.061773        0.19960058         -121.6728        0.81427087         150.13364
                     0.10779563         46.805347        0.11661928        -132.81632        0.81427084         150.13362        0.19963834        -121.62871

0.45       0.19403063         173.89863        0.80944461         77.402838        0.10605393         158.63922       0.089619447        -30.471446
                     0.80944458          77.40281        0.19413311         173.86915       0.090064988        -30.028176        0.10605715         158.63221
                     0.10642713         158.91649       0.090424044        -29.583748         0.1938697         173.78486        0.80863413         76.335267
                    0.089973132        -30.023049        0.10643035         158.90949        0.80863411         76.335239        0.19388668         173.83943

0.475      0.042520173         143.38189        0.82744688         1.6597379       0.022883407         142.92033       0.096078988        -93.003022
                     0.82744678         1.6596959       0.042586754         143.35482       0.096953672        -92.474795        0.02288048         142.93678
                    0.023361926         145.57579       0.097544964        -92.136064       0.041695751         152.97971        0.82656955        0.48885147
                    0.096665023        -92.658014        0.02335924         145.59214        0.82656947        0.48880825       0.041628597         153.06179

0.5        0.1296309        -163.09687        0.81529731         -74.84228       0.060931808         175.96862        0.11152562         -171.0748
                     0.81529713        -74.842343        0.12979901        -163.16588        0.11292284        -170.23597       0.060943387         175.95114
                    0.062094914         175.54203        0.11346347        -170.01273        0.13342116        -164.60756        0.81399994        -76.021035
                     0.11205976        -170.84477       0.062106702         175.52498        0.81399977          -76.0211        0.13337268        -164.49882

0.525        0.1225994          129.7071        0.80924063        -149.74654       0.040634064         104.95663        0.11076446         114.95832
                      0.8092409         -149.7467        0.12298911         129.66553        0.11388673         117.47267       0.040622307         104.92628
                    0.041927379         104.43934        0.11433021         117.69475        0.11965607         128.97592        0.80898893        -150.98623
                     0.11118826         115.19652       0.041915869         104.40973        0.80898921        -150.98638        0.11932247         129.05265

0.55      0.011852923         157.72167        0.81383316         134.35911       0.030677827         -150.1103        0.12412744         42.109793
                     0.81383742         134.35938       0.011237624         159.72167        0.11146488          42.28253       0.030695569         -150.0508
                    0.029605196        -150.12131        0.11196089         42.561136       0.014749724         175.53171         0.8131596         133.01614
                     0.12462136         42.361018       0.029622956        -150.05956        0.81316373         133.01641       0.015260696         173.83009

0.575      0.066428349         159.04071        0.80566961         58.516479       0.045337184         138.29703        0.13263605        -34.951945
                     0.80567123         58.516619       0.066221105         159.36243        0.12770067        -35.528469       0.045362618         138.27511
                     0.04467251         137.70289        0.12828817        -35.280171       0.063664715         157.41303        0.80519621         57.142101
                     0.13322898        -34.715289       0.044698183         137.68096        0.80519776         57.142245        0.06399234         157.17622

0.6      0.043535781        -145.97902        0.79943173        -17.666075       0.039243399        -137.44499        0.14799527        -111.50383
                     0.79943401        -17.666032       0.043642354        -145.60307        0.14371479        -111.05289       0.039237098        -137.40109
                    0.039169623         -136.2347        0.14440029        -110.85012       0.050147135        -138.44299         0.7987886        -19.163156
                     0.14867686        -111.30474       0.039163931        -136.19043        0.79879084        -19.163106       0.050051015        -138.74489

0.625        0.1626935         170.60729        0.77569574        -93.019839        0.12363549         157.65967        0.14809086         165.47804
                     0.77569651         -93.01991        0.16306744         170.64234        0.14722432         166.22645        0.12365705         157.65429
                     0.12314586         158.00439        0.14795452         166.43112        0.16730243         170.30234        0.77436336        -94.500014
                      0.1488142         165.68517         0.1231674         157.99894        0.77436415        -94.500082        0.16701146         170.31465

0.65       0.12920554         107.93516        0.77969143        -167.31318       0.095491441         94.298213        0.13530725         94.010021
                     0.77969145        -167.31321        0.12930988         107.93175        0.13531137         94.326456       0.095492819         94.287604
                    0.094512194         94.712009        0.13622585         94.467178        0.12218212          107.3727        0.77992007        -168.87413
                     0.13621992         94.152895        0.09451347         94.701242        0.77992012        -168.87416        0.12210902         107.42263

0.675       0.10363361        -179.14609        0.77413897         115.29775       0.070533069         152.12686        0.16374151         19.053339
                     0.77413889         115.29774         0.1036707        -179.15699         0.1637871         19.158079       0.070544153         152.13473
                    0.071685641         152.66477        0.16467416         19.155067        0.11531753        -176.59342        0.77260236         113.57444
                     0.16462869         19.050906       0.071696833         152.67251        0.77260231         113.57442        0.11532071        -176.52776

0.7       0.26126166         125.15814         0.7315499         41.194146        0.15840489         107.79784        0.15555124        -68.105644
                     0.73154987         41.194143        0.26129862         125.15423        0.15553394        -68.057513        0.15842559          107.7925
                     0.15937392         107.80029        0.15614569         -68.04421        0.26542716         124.37809        0.72975054           39.6123
                     0.15616304        -68.092167         0.1593947         107.79499        0.72975051         39.612297        0.26542183         124.42063

0.725       0.19845006         62.348879        0.75235833        -31.470801        0.10521576         49.317174        0.12626468        -135.39583
                     0.75235831        -31.470802        0.19845832         62.348353        0.12626692        -135.36631        0.10521707         49.310686
                     0.10564158         49.496299        0.12685493        -135.35964         0.1918625           61.6396        0.75274654        -33.172033
                     0.12685274        -135.38904        0.10564285         49.489807        0.75274653        -33.172035         0.1918156          61.64766

0.75      0.057414456         122.67137         0.7689207        -108.84558       0.056167253         126.36208        0.15421414         156.78299
                      0.7689207        -108.84558       0.057426104         122.66737        0.15421186         156.78865       0.056187179         126.36227
                    0.056680448         125.58006         0.1547752         156.71694       0.065457139         125.71767        0.76778307        -110.68547
                     0.15477752         156.71126       0.056700439         125.58055        0.76778306        -110.68547       0.065384218         125.89658

0.775        0.1825935         80.681772        0.74685024         176.13719        0.11491712         68.112591        0.15183813          75.66404
