! Created Thu Mar  2 13:18:16 2023
# ghz S ma R 45
! 4 Port Network Data from SP1.SP block
! freq  magS11  angS11  magS12  angS12  magS13  angS13  magS14  angS14  
!       magS21  angS21  magS22  angS22  magS23  angS23  magS24  angS24  
!       magS31  angS31  magS32  angS32  magS33  angS33  magS34  angS34  
!       magS41  angS41  magS42  angS42  magS43  angS43  magS44  angS44  
!     
0      0.076868159    -2.5267689e-13     6.7347135e-08    -1.9635027e-12      0.0042623492     -3.963763e-12     2.1406999e-07     1.3332168e-13
                  6.8782774e-08     1.3069926e-11       0.079147175     6.9248408e-13     1.4156061e-05              -180      0.0045521222    -1.6603529e-12
                   0.0051062026      1.218195e-11     1.4154901e-05              -180       0.077426229    -2.1525368e-14     3.0831879e-07     1.9723974e-13
                  2.1487482e-07     2.1787133e-14      0.0056650908     8.0204539e-12     3.1074734e-07     1.2408183e-12       0.076811687    -4.6995732e-13

0.025       0.16147262        -5.3455669     1.2514462e-05         11.321722       0.095511732         12.772683     7.6738484e-06         3.3233321
                  1.2547227e-05         11.209965        0.16171285        -5.4991604     2.4366178e-05         42.628949       0.095635865         12.743255
                    0.095930306         12.351477      2.436709e-05         42.643641        0.16193426        -5.1413948     1.3845358e-05         10.341421
                  7.6755615e-06         3.4028402       0.096121526         12.215766     1.3880452e-05         10.206075        0.16204037        -5.2210346

0.05      0.076197003        -57.881775       2.21302e-05         -68.43517       0.033166832         -48.50116     1.9370759e-05         -63.27974
                   2.213088e-05        -68.670222        0.07497612         -57.59484      2.265005e-05        -42.371455       0.032118906        -47.997304
                    0.033694967        -49.736798     2.2671511e-05         -42.31374        0.07682452        -58.030586     2.5075703e-05        -67.949212
                  1.9390865e-05        -63.212336       0.032764519        -49.506789     2.5068601e-05        -68.191489       0.075660094        -57.867141

0.075       0.15068592         25.872705     4.0836491e-05        -137.76578        0.12844553         33.458585     2.8153381e-05         -165.9232
                   4.075808e-05        -137.82391        0.15265448         25.636687     6.8409197e-05        -104.18425        0.13007455         33.248755
                     0.12773339         33.485498     6.8458525e-05        -104.19255        0.15076755         26.083298     4.5160112e-05        -139.07359
                  2.8187362e-05        -165.77444        0.12917472         33.262943     4.5064587e-05        -139.14527        0.15247954         25.875221

0.1       0.21995366        -35.173513     5.4092224e-05         129.98809        0.16956872        -33.571006     1.9170549e-05         137.07842
                  5.3993102e-05         129.92852        0.21969065        -35.421357     9.4799301e-05         142.23157        0.16940337        -33.793335
                     0.16892577        -33.721878     9.4858871e-05          142.2471        0.22045969        -35.041358     5.8555306e-05         130.76583
                  1.9296084e-05         137.17551        0.16859086        -33.978942     5.8423634e-05         130.69319        0.22037056        -35.266861

0.125      0.061883046        -70.356922     5.1807114e-05         58.819087       0.038846166        -82.985925     4.4757956e-05         69.294139
                  5.1549436e-05         58.950237       0.059266555        -68.152927     6.2358691e-05         79.841267        0.03605838        -81.010354
                    0.037831339         -84.05703     6.2480173e-05         79.813026       0.062576013        -69.031867     5.8748566e-05         60.422734
                   4.492331e-05         69.279863       0.034818983        -82.324964     5.8430207e-05         60.564298       0.060809559        -67.342276

0.15       0.18632965        -15.842205     8.2175687e-05        -20.353473         0.1337051        -13.870302      4.418755e-05        -37.748574
                  8.2229855e-05        -20.153666        0.18900505        -16.211845     0.00015040322         3.7804324        0.13543791        -14.228081
                     0.13404835         -13.46925     0.00015045636         3.7413204        0.18762421        -16.165647     9.0014466e-05        -20.273839
                  4.4414528e-05        -37.809833        0.13577889        -13.757678     9.0050721e-05        -20.060958        0.18945976        -16.575112

0.175       0.21082051        -75.946013     7.6241158e-05        -112.80149        0.14412907        -80.309947     3.3601855e-05        -73.959151
                  7.6355723e-05        -112.66741        0.20868617        -76.321545     0.00014466545        -106.86674        0.14207879        -80.674147
                     0.14412041        -80.056013     0.00014472995        -106.88439        0.21123216        -76.057272      8.243923e-05        -109.76907
                  3.3620106e-05        -74.260613        0.14198654        -80.351046     8.2565067e-05        -109.61965        0.20963538        -76.449454

0.2      0.056399954        -114.37117     7.1104497e-05        -169.79878       0.032433615        -139.38434     6.9489984e-05        -155.16879
                   7.133472e-05         -169.6508       0.052093894        -110.36794     8.8482139e-05        -153.83907       0.027836559        -137.01352
                    0.031951145         -138.4987     8.8513644e-05        -153.90986       0.056466327        -112.16266     8.2804605e-05        -167.36474
                  6.9521872e-05        -155.27871       0.027285591        -135.56809     8.3085892e-05        -167.24019        0.05365007        -109.58562

0.225       0.12330655          -57.6563       9.96798e-05          104.6551       0.065287515        -60.134028     6.3805946e-05         112.08592
                  0.00010019109         104.65582         0.1252739        -58.095588      0.0001784657         122.83526       0.066299744        -60.455579
                    0.066338226        -60.072246     0.00017839938          122.8053        0.12550332        -58.959269     0.00011071857         106.09913
                  6.3799969e-05         111.91226       0.067507108        -60.420475     0.00011125955         106.07932        0.12615365        -59.470973

0.25       0.10972673        -111.90542     8.3685371e-05         31.188948       0.035886376         -123.9448     7.2897599e-05         51.348437
                  8.3964183e-05          30.85664        0.10462659        -111.46299     0.00013713353         30.974489        0.03104023        -123.09345
                      0.0370347        -123.81871     0.00013703944         30.986116        0.10910889        -112.89671     9.5467434e-05         35.000643
                  7.2738896e-05         51.350417       0.032325599        -122.91346     9.5732318e-05         34.668394        0.10487856        -112.73826

0.275      0.056661553         -75.39166     0.00012204252        -42.873736       0.047610837        -52.767271     8.6973938e-05        -38.747627
                  0.00012196814        -42.984238       0.061379942        -71.301609     0.00017244418        -24.947005       0.052387793        -51.109271
                    0.047317787        -53.387395     0.00017249655        -24.930726       0.058050467        -74.489397     0.00013860688        -41.234663
                  8.7005711e-05        -38.698284       0.052091574         -51.73441      0.0001385151        -41.352524       0.061168397        -72.053837

0.3      0.086260843        -92.389472     0.00012227473        -129.59011       0.053263221        -100.03315     8.0275039e-05         -112.5293
                  0.00012202296         -129.6986       0.085531744        -92.553329     0.00019358438        -110.84013       0.051812775         -100.1434
                    0.052896715        -100.79289     0.00019368746         -110.8058       0.087761158         -94.03784     0.00013534352        -126.96216
                  8.0410919e-05         -112.4301       0.051386269        -101.10681     0.00013497538        -127.08356       0.086233118        -94.237475

0.325      0.063977617        -64.471775      0.0001508472         165.59356       0.058694344        -26.811594     0.00011110642         163.57312
                  0.00015073159         165.64864       0.068830085        -59.208961     0.00023162589        -176.42576       0.065483776        -25.600844
                    0.058576689        -26.391581     0.00023181579        -176.43541        0.06478978        -63.576879     0.00016968855         167.50037
                  0.00011141826         163.60022       0.065365061        -25.160047     0.00016951772         167.56019       0.068479773        -59.985711

0.35       0.15162942        -79.564048     0.00019308202         69.351685        0.12817214        -80.118028     8.7349023e-05         64.673925
                  0.00019276386         69.417683        0.15730337        -80.312406     0.00031491572         92.729065         0.1319197        -80.981023
                     0.12750266        -79.890846     0.00031518156         92.727921        0.15589988        -79.271881     0.00021017392         70.963934
                  8.7818169e-05         64.771374        0.13115239        -80.731008     0.00020979124         71.032965         0.1591603         -80.11608

0.375       0.13607482        -136.74585      0.0001367621        -19.635223       0.094740538        -149.39118     6.5394504e-05         29.837365
                  0.00013641688        -19.436788        0.13177337        -137.01905     0.00022215361         -1.233752       0.090329088        -149.99621
                    0.093709897        -149.28911     0.00022251445        -1.2320089        0.13692114        -136.91564     0.00014618956        -14.292669
                  6.5760652e-05         29.537803       0.089156393        -149.86088     0.00014583125        -14.078452        0.13313142        -137.29861

0.4      0.049236973        -87.379082     0.00018288311         -75.91651       0.026797418        -75.129303     0.00012070141        -61.610881
                  0.00018349957        -75.698336       0.058382033        -81.731337     0.00027079731        -46.719076       0.034682416        -70.649822
                    0.027843748        -73.534942      0.0002709584        -46.818716       0.053331436        -84.035737     0.00020596025         -73.12804
                  0.00012118147        -61.921061       0.035920674        -69.513393     0.00020662616        -72.933844       0.059791446        -81.299504

0.425       0.19399567        -121.35895     0.00023109174         179.71514        0.11566304        -133.08529     6.0392988e-05        -167.49658
                  0.00023190537         179.77189        0.19739277        -122.36393     0.00037260047        -154.83362        0.11670127        -133.82325
                     0.11660972        -132.81345     0.00037264686        -154.89307        0.19960058         -121.6728     0.00024340233        -178.04366
                   6.058024e-05        -168.23005        0.11770881        -133.53091     0.00024423022        -177.99682        0.20056669        -122.75164

0.45       0.19403063         173.89863     0.00016177141         109.86915        0.10605393         158.63922     7.1756205e-05        -169.20987
                  0.00016218543         109.79128        0.18591282         173.11622     0.00019063077         97.207985       0.098774433         157.44538
                     0.10642713         158.91649     0.00019078235          97.15625         0.1938697         173.78486     0.00017280911         115.87454
                  7.1326617e-05        -169.23279       0.099151652         157.80525     0.00017324141          115.7807        0.18753826          172.8726

0.475      0.042520173         143.38189     0.00028205217         69.200479       0.022883407         142.92033     0.00013271653           80.3627
                   0.0002826465         69.061996       0.036219906         156.87775     0.00021535057         82.673045       0.019193181         162.40383
                    0.023361926         145.57579     0.00021516623         82.564447       0.041695751         152.97971     0.00031356572           69.8668
                  0.00013233755         80.146546       0.020169114         164.94987     0.00031407249         69.718968       0.038659241         161.02641

0.5        0.1296309        -163.09687     0.00024732291          -9.13988       0.060931808         175.96862     0.00010816169        -8.4143826
                  0.00024716331        -9.3739892        0.12925907        -163.92796     0.00032159939        -23.777526       0.058441302         175.23817
                    0.062094914         175.54203     0.00032140223        -23.802429        0.13342116        -164.60756     0.00026842826        -7.6589197
                  0.00010763282        -8.4583674       0.059628253         174.66448     0.00026809027        -7.8690245        0.13110749        -165.61029

0.525        0.1225994          129.7071     0.00022512716         -58.29135       0.040634064         104.95663      0.0001523416        -61.569237
                  0.00022411429        -58.249783        0.10973356         129.80329     0.00015876516        -87.025317       0.029292209         101.40751
                    0.041927379         104.43934     0.00015876845         -86.91264        0.11965607         128.97592     0.00025988224        -58.567856
                  0.00015246745        -61.352035       0.030637425         100.68981     0.00025883336        -58.517664        0.10975908         128.64942

0.55      0.011852923         157.72167     0.00028756531        -147.96144       0.030677827         -150.1103     0.00017553364         -155.4305
                  0.00028712724        -147.83822       0.018211392        -171.02394     0.00031945463        -144.79983       0.037409633        -149.65935
                    0.029605196        -150.12131     0.00031988444        -144.78025       0.014749724         175.53171     0.00031993522        -148.55155
                  0.00017611382        -155.32125       0.036260765        -149.62486     0.00031940569        -148.43315       0.019197872         -174.2065

0.575      0.066428349         159.04071      0.0002305997         133.73644       0.045337184         138.29703     0.00015927485         135.12925
                  0.00023057968         133.87356       0.060280508         161.12953     0.00030331595         127.70598       0.038542151          138.4415
                     0.04467251         137.70289     0.00030378763         127.70446       0.063664715         157.41303     0.00026231413         135.30398
                  0.00015991822         135.09634       0.037746991         137.73634     0.00026228095         135.44737       0.057830003         158.53873

0.6      0.043535781        -145.97902     0.00030821273         52.725182       0.039243399        -137.44499     0.00020317725          43.73712
                  0.00030850789         52.819321        0.05897732        -139.48699     0.00042722785         55.801372       0.051670765        -135.29135
                    0.039169623         -136.2347     0.00042771237         55.764985       0.050147135        -138.44299      0.0003511097         52.575766
                  0.00020396169         43.644538       0.051736847        -134.31743     0.00035142743         52.663503       0.061260888        -136.89115

0.625        0.1626935         170.60729     0.00022465986        -50.644772        0.12363549         157.65967     0.00010259829         -43.41684
                  0.00022496455        -50.518806         0.1682133         169.28672     0.00041953517         -51.80051        0.12581009         156.60348
                     0.12314586         158.00439     0.00042007069        -51.819834        0.16730243         170.30234     0.00024926966        -48.162549
                  0.00010316024        -43.725127        0.12534787         156.97489     0.00024960289        -48.054685        0.16910576         168.75789

0.65       0.12920554         107.93516     0.00016791833        -85.072015       0.095491441         94.298213      0.0001612446         -74.34335
                  0.00016888215        -85.131083           0.11629         107.79331     0.00020423812        -105.23983       0.084313548         93.275807
                    0.094512194         94.712009     0.00020470656        -105.42264        0.12218212          107.3727     0.00020850454        -84.555596
                  0.00016111114        -74.683189        0.08334333         93.852863     0.00020939543        -84.629043        0.11214844         107.06835

0.675       0.10363361        -179.14609     0.00028462292         169.08955       0.070533069         152.12686     0.00018258542         170.18674
                  0.00028554632         168.92998        0.11971491        -178.89918     0.00049107709         173.14413       0.079481309         155.62033
                    0.071685641         152.66477     0.00049097884         173.04422        0.11531753        -176.59342     0.00032507276         169.04305
                  0.00018211381         169.78261       0.080765864         155.95386     0.00032583307         168.90135        0.12562636        -177.90206

0.7       0.26126166         125.15814     0.00010465227         65.512425        0.15840489         107.79784     6.6614821e-05         133.45429
                  0.00010477978         65.069351        0.26010618         123.59906     0.00035795705         49.499965        0.15484985          106.6012
                     0.15937392         107.80029      0.0003578924         49.434571        0.26542716         124.37809     0.00011979287         75.457783
                  6.6033393e-05         133.88889         0.1558295         106.57278     0.00011968405         75.094346        0.26273883         122.72928

0.725       0.19845006         62.348879       0.000204755          76.40317        0.10521576         49.317174     0.00021477787          69.94076
                  0.00020439501         76.393225        0.18019443         60.898401     0.00010372762          79.64424        0.09052791         47.345845
                     0.10564158         49.496299     0.00010347997          79.63228         0.1918625           61.6396     0.00024721653         71.852227
                  0.00021463217         69.985588       0.091024909          47.56099     0.00024677546          71.85055         0.1785391         60.143213

0.75      0.057414456         122.67137      0.0003049229        -44.323161       0.056167253         126.36208     0.00022350615        -42.574831
                   0.0003043503        -44.428082       0.069157055         127.70704     0.00041251654          -44.5447       0.064543635         128.43617
                    0.056680448         125.58006     0.00041207916        -44.559483       0.065457139         125.71767     0.00034279449        -45.188982
                   0.0002228774        -42.528694       0.064861763         127.62701      0.0003420664        -45.247183       0.072371682         126.76528

0.775        0.1825935         80.681772     0.00015931009        -105.38033        0.11491712         68.112591     0.00017363316         -93.18918
