! Created Thu Mar  2 13:16:39 2023
# ghz S ma R 45
! 4 Port Network Data from SP1.SP block
! freq  magS11  angS11  magS12  angS12  magS13  angS13  magS14  angS14  
!       magS21  angS21  magS22  angS22  magS23  angS23  magS24  angS24  
!       magS31  angS31  magS32  angS32  magS33  angS33  magS34  angS34  
!       magS41  angS41  magS42  angS42  magS43  angS43  magS44  angS44  
!     
0      0.076868159    -2.5267689e-13     2.5157926e-05    -1.9105615e-12      0.0042623492     -3.963763e-12     1.9896828e-05               180
                  1.7368122e-05    -9.8492434e-12       0.080503581    -5.2668172e-13     1.6180531e-05      5.012368e-13      0.0039487383     4.2246021e-12
                   0.0051062026      1.218195e-11     2.0687286e-05              -180       0.077426229    -2.1525368e-14     4.1044744e-06    -3.4281795e-11
                   7.770916e-05              -180      0.0043791089     7.6750361e-12     1.3947045e-05      1.492453e-11       0.077258057    -5.5663078e-13

0.025       0.16147262        -5.3455669     4.4543453e-05        -136.38271       0.095511732         12.772683     4.9288741e-05        -179.78873
                  4.7265438e-05        -166.62808        0.16109552        -6.1331359     4.1702633e-05        -162.42101       0.096046772         12.774014
                    0.095930306         12.351477     3.9463965e-05         154.51162        0.16193426        -5.1413948     4.4580233e-05        -151.42659
                  0.00010999621         135.32068       0.096036401         12.534911      5.556801e-05         -163.2085        0.16069658        -5.6038382

0.05      0.076197003        -57.881775     0.00011738218         133.91688       0.033166832         -48.50116     0.00015500224         115.47979
                  0.00010338093         119.14064       0.073220436        -57.890687     9.8358395e-05         120.77143       0.032907909        -48.659697
                    0.033694967        -49.736798     9.2986837e-05         105.95717        0.07682452        -58.030586     0.00014025963         123.00244
                  0.00015697143         81.386061       0.032697353         -49.19789      0.0001304054         118.26705       0.072640479        -57.486564

0.075       0.15068592         25.872705     0.00013607859         27.882744        0.12844553         33.458585     0.00020090593         12.404663
                  0.00013132188          21.60854        0.15357205          24.92183     0.00012590859         18.325748         0.1285237         32.656099
                     0.12773339         33.485498     0.00012924272         2.2867031        0.15076755         26.083298     0.00017161898         14.467514
                  0.00020886223        -1.4738842        0.12860757         32.654878     0.00016527487         20.523724        0.15510138         25.132025

0.1       0.21995366        -35.173513     0.00012952304         -18.30511        0.16956872        -33.571006     0.00015491356        -41.335488
                  0.00013028928        -28.783152         0.2190665        -36.422538     0.00010959056        -34.046652        0.16807576        -34.501514
                     0.16892577        -33.721878     8.4883194e-05        -51.465413        0.22045969        -35.041358     0.00012350448        -38.402469
                  0.00018657242        -60.043383        0.16781656        -34.642145     0.00015655655        -35.455826        0.22072253        -36.250595

0.125      0.061883046        -70.356922     0.00027665693        -103.05845       0.038846166        -82.985925      0.0003268056        -109.80639
                  0.00025752242        -111.94637        0.05837114        -70.015003     0.00023030242        -113.71161        0.03677424         -82.13029
                    0.037831339         -84.05703     0.00020395051        -116.92607       0.062576013        -69.031867     0.00027285605        -107.03511
                  0.00032644368        -129.47082       0.035858877        -82.256574     0.00029472808        -113.37627       0.060421669        -68.238112

0.15       0.18632965        -15.842205     0.00023241566         160.13654         0.1337051        -13.870302     0.00032358246         154.63842
                   0.0001968756         151.64003        0.18685698        -17.200816     0.00018895498          146.4372        0.13236164        -15.702094
                     0.13404835         -13.46925     0.00018182151         139.33388        0.18762421        -16.165647     0.00026578635         155.41728
                  0.00029388086          137.9578        0.13323837        -15.558067     0.00026098369         152.79472        0.18832307        -17.942115

0.175       0.21082051        -75.946013     0.00026868822         114.38336        0.14412907        -80.309947     0.00032897182         100.53736
                  0.00024148938          115.8604        0.20745163        -77.690842     0.00019832502         109.72664        0.13981567        -82.425696
                     0.14412041        -80.056013     0.00016727335         103.86358        0.21123216        -76.057272     0.00026361745         102.72409
                  0.00029309719         94.479899        0.14034338        -82.432762     0.00027929966         105.43692        0.20865759        -78.331994

0.2      0.056399954        -114.37117     0.00043536142         25.379069       0.032433615        -139.38434     0.00050800951         20.071482
                  0.00041702543         24.134384       0.054583878        -115.81093     0.00036264809         21.189169       0.029957494        -140.95022
                    0.031951145         -138.4987     0.00032196987          18.21538       0.056466327        -112.16266     0.00042179343         22.483483
                  0.00049975789         13.464107       0.029832281        -141.01189     0.00045935149         21.555421       0.054589259        -116.19987

0.225       0.12330655          -57.6563     0.00038732548        -58.981065       0.065287515        -60.134028     0.00048887173        -62.133749
                  0.00036056823        -61.062013        0.11819736        -59.615948     0.00031949609        -66.684622       0.062026365        -63.227005
                    0.066338226        -60.072246     0.00028296791        -69.804571        0.12550332        -58.959269     0.00040422783        -60.511271
                  0.00046327216        -71.246352       0.062722404        -63.190174     0.00042843943        -63.110152        0.11904765        -60.556168

0.25       0.10972673        -111.90542     0.00047261357        -126.65906       0.035886376         -123.9448     0.00058724622        -131.67498
                  0.00044635121        -126.68559        0.10453616        -113.40088     0.00038436424        -131.78798       0.031746137        -128.21825
                      0.0370347        -123.81871     0.00034392451         -133.0457        0.10910889        -112.89671     0.00049269078        -129.74052
                  0.00054132525        -136.47735       0.032775522         -128.5672     0.00051003675        -130.94078        0.10369577        -114.76551

0.275      0.056661553         -75.39166     0.00051589909         147.87498       0.047610837        -52.767271     0.00064151143         144.59059
                  0.00049779948         146.82541        0.05406448        -80.109704     0.00043616679         141.07392       0.045176256        -56.416811
                    0.047317787        -53.387395     0.00039176972         139.59645       0.058050467        -74.489397     0.00054025141         145.20631
                  0.00061759053         140.12287        0.04439135        -57.054019     0.00057144683         144.24051       0.054577197        -78.683802

0.3      0.086260843        -92.389472     0.00052632987         74.293647       0.053263221        -100.03315     0.00066129057         71.214385
                  0.00050066061         72.546643       0.077856567        -94.519751     0.00043435743         66.121178       0.048612557        -103.57347
                    0.052896715        -100.79289      0.0003907178         65.889214       0.087761158         -94.03784     0.00055141209          71.71235
                  0.00062866182         65.735471       0.047630758        -103.53874     0.00057945094         69.498749       0.079631041        -94.743173

0.325      0.063977617        -64.471775     0.00061357689        -8.9228028       0.058694344        -26.811594     0.00077211064        -10.855237
                   0.0005817266        -10.107474       0.063851096        -66.620978     0.00051896389        -17.359016       0.057645972        -30.084501
                    0.058576689        -26.391581     0.00047851321        -18.065457        0.06478978        -63.576879     0.00065520501        -11.474527
                  0.00072757229        -14.846513       0.057876841         -29.87997     0.00067631859        -12.555823       0.064320954        -66.986527

0.35       0.15162942        -79.564048     0.00053000696         -89.59579        0.12817214        -80.118028     0.00068358774        -92.021674
                  0.00050425457        -90.814372        0.14584414        -83.718908     0.00044426554        -102.23366        0.12153568        -84.201756
                     0.12750266        -79.890846     0.00040380227        -103.91041        0.15589988        -79.271881     0.00056653249        -94.825457
                  0.00065656401        -95.339134        0.12112765        -84.211687       0.000599645        -94.930867        0.14883072        -83.879367

0.375       0.13607482        -136.74585     0.00058564099         -149.0962       0.094740538        -149.39118     0.00072269645        -152.48476
                  0.00055161728        -150.31181        0.13084078        -141.72293      0.0004443975        -158.53926       0.091793528        -154.74625
                    0.093709897        -149.28911     0.00040010968        -157.63786        0.13692114        -136.91564     0.00057784714        -152.32556
                  0.00069222278        -156.87875        0.09049011        -154.61069     0.00061750622        -155.06176        0.13217804        -142.06909

0.4      0.049236973        -87.379082     0.00074805483         124.81413       0.026797418        -75.129303     0.00093040084          124.1455
                  0.00069729196         123.67991       0.044201082        -92.915644     0.00060769186         115.91622       0.020682052        -85.394683
                    0.027843748        -73.534942      0.0005644571         116.34461       0.053331436        -84.035737     0.00077747489         123.70952
                  0.00086865969         119.93983       0.022533496        -84.110533     0.00080172073         120.95872       0.046618601        -92.045095

0.425       0.19399567        -121.35895      0.0005891273          45.47533        0.11566304        -133.08529     0.00076809427         43.175375
                  0.00053903679         46.102645        0.18864321        -126.62629     0.00044538225         31.217791        0.10941464        -139.54444
                     0.11660972        -132.81345     0.00040471741         30.887918        0.19960058         -121.6728     0.00061099076         40.624699
                  0.00069892689         41.018062        0.11090812        -139.80706     0.00062633523         39.047272        0.19161025        -127.51712

0.45       0.19403063         173.89863     0.00068188905        -11.375486        0.10605393         158.63922     0.00082937325        -15.181063
                  0.00065051053        -9.4134362        0.19619587         167.07143     0.00048375372        -15.404228        0.10793229         151.72069
                     0.10642713         158.91649     0.00044658594        -13.365697         0.1938697         173.78486     0.00065724839        -12.501922
                  0.00078958618        -15.187042        0.10844245         151.48385     0.00068295191        -13.901867        0.19525379         166.22278

0.475      0.042520173         143.38189     0.00088885708        -96.859643       0.022883407         142.92033      0.0010757909        -97.432407
                   0.0008544824        -95.990128       0.046521033         125.65286     0.00070733189        -102.24938        0.02791049          124.3455
                    0.023361926         145.57579      0.0006619574        -101.38247       0.041695751         152.97971     0.00089860595        -96.618977
                   0.0010389275        -99.166546       0.027831034         126.45311     0.00093446682         -98.49549       0.043862974          131.4773

0.5        0.1296309        -163.09687     0.00079372524        -178.66054       0.060931808         175.96862     0.00099687321        -178.66099
                  0.00075684207        -177.60022        0.12814084        -169.91148     0.00060946014         172.56567       0.061215941         166.77878
                    0.062094914         175.54203     0.00056158539          173.4731        0.13342116        -164.60756     0.00080788235        -178.77089
                  0.00093651886         179.44075       0.062588116          166.2476     0.00083229108         178.91624        0.13104913         -171.3255

0.525        0.1225994          129.7071     0.00090982007         114.68426       0.040634064         104.95663      0.0011280392         113.38286
                  0.00088479172         116.04043        0.13061426         121.15903     0.00071263172         110.35125       0.048193395         97.396694
                    0.041927379         104.43934     0.00067086773         112.41187        0.11965607         128.97592     0.00095100051          115.2296
                   0.0010713206         113.42525       0.049708594          96.31186     0.00096907082         113.60106        0.12789304         119.80814

0.55      0.011852923         157.72167       0.001043079         29.816311       0.030677827         -150.1103      0.0012783777         29.576698
                    0.001019149         30.297694       0.011024003         121.06416     0.00085512271         23.315735       0.027484015        -161.78462
                    0.029605196        -150.12131     0.00081285966         24.673773       0.014749724         175.53171      0.0010910832         29.527605
                   0.0012396855         29.130797       0.026025221        -160.40007      0.0011210868         28.166668       0.011095891         145.10217

0.575      0.066428349         159.04071       0.001003593        -45.677148       0.045337184         138.29703      0.0012438143        -45.701708
                  0.00097225417        -45.416954       0.071554277         148.27951     0.00079740398        -53.136579       0.053905721         127.75845
                     0.04467251         137.70289     0.00075691663        -51.711947       0.063664715         157.41303      0.0010408617        -45.763565
                   0.0011954006        -46.571827       0.052882324          128.1924      0.0010669862        -47.534374       0.071651626         146.61646

0.6      0.043535781        -145.97902      0.0011698819        -126.94362       0.039243399        -137.44499      0.0014332049        -126.87893
                    0.001133072        -126.66266       0.037867618         -158.9339     0.00097015228        -135.48291       0.031189702        -150.25721
                    0.039169623         -136.2347      0.0009293924        -134.33117       0.050147135        -138.44299       0.001229722        -128.49985
                   0.0013791422        -127.16414       0.031472134        -150.27167      0.0012542797        -129.73452       0.040503919        -154.05373

0.625        0.1626935         170.60729      0.0009581127         149.40558        0.12363549         157.65967      0.0011775771         150.66954
                  0.00092018255          149.4252        0.16815965         160.98171     0.00074456319         136.08723        0.12830922          148.4533
                     0.12314586         158.00439     0.00071006521         136.90465        0.16730243         170.30234     0.00094818391         147.37695
                   0.0011423658         150.18727        0.12743834         148.55756     0.00098107616         146.15927        0.17022458         160.27427

0.65       0.12920554         107.93516      0.0010127706         90.710262       0.095491441         94.298213       0.001260505         91.499497
                  0.00096585085         91.620122        0.13929665         97.637847     0.00075651713         84.965295        0.10629562         85.455521
                    0.094512194         94.712009     0.00072599368         86.047014        0.12218212          107.3727      0.0010396684         92.763916
                   0.0012099796         90.643785        0.10459673         86.098147      0.0010627222         90.516442        0.13430303         96.554683

0.675       0.10363361        -179.14609      0.0012357455        -2.2124261       0.070533069         152.12686      0.0015180073       -0.52595271
                   0.0011814591       -0.99115823        0.10601841           171.279      0.0010006297         -12.29179       0.072409663         141.09032
                    0.071685641         152.66477     0.00095659959        -12.075413        0.11531753        -176.59342      0.0012687771        -3.2592234
                   0.0014426028       -0.71111732       0.074458112         141.47234      0.0012884456        -4.7470858        0.11309845         172.68595

0.7       0.26126166         125.15814     0.00078455757         -79.07016        0.15840489         107.79784      0.0009995787        -76.245088
                  0.00075210085        -76.786033        0.27333143         115.25945     0.00053366665        -92.991552        0.16733027         98.553153
                     0.15937392         107.80029     0.00049340619        -91.720486        0.26542716         124.37809     0.00074713133        -76.221973
                  0.00095305985        -74.749061        0.16824163         98.141287     0.00076508967        -77.740485        0.27458316         114.20626

0.725       0.19845006         62.348879       0.001072339        -125.72563        0.10521576         49.317174      0.0013433542        -125.89546
                   0.0010584523        -123.84179        0.20625592         53.061684     0.00082218381        -126.57247        0.11121458         41.806039
                     0.10564158         49.496299     0.00080306899        -124.80359         0.1918625           61.6396      0.0011612729        -122.79746
                   0.0013240052        -125.14675        0.11101046         41.650057      0.0011764756        -124.35829         0.1994001         51.983947

0.75      0.057414456         122.67137      0.0013871207         135.93808       0.056167253         126.36208      0.0016901117         138.27079
                   0.0013629861         137.24577        0.06915474         115.62872       0.001129349         128.66124       0.066873435         116.44509
                    0.056680448         125.58006      0.0010903255         128.91627       0.065457139         125.71767      0.0014349238         136.75258
                   0.0016464643         138.20462       0.067905478         115.92079      0.0014575829         135.52778       0.076315932         117.43486

0.775        0.1825935         80.681772      0.0010075262         67.198476        0.11491712         68.112591      0.0013083432         69.164934
