! Created Thu Mar  2 13:17:23 2023
# ghz S ma R 45
! 4 Port Network Data from SP1.SP block
! freq  magS11  angS11  magS12  angS12  magS13  angS13  magS14  angS14  
!       magS21  angS21  magS22  angS22  magS23  angS23  magS24  angS24  
!       magS31  angS31  magS32  angS32  magS33  angS33  magS34  angS34  
!       magS41  angS41  magS42  angS42  magS43  angS43  magS44  angS44  
!     
0      0.076868159    -2.5267689e-13     1.2080187e-05              -180      0.0042623492     -3.963763e-12     5.5170314e-06               180
                  1.7948059e-05               180       0.079441211     1.9352415e-13     2.4854917e-05              -180      0.0041647741    -4.1261563e-12
                   0.0051062026      1.218195e-11     5.5101506e-07               180       0.077426229    -2.1525368e-14     1.4814321e-05     4.3300929e-12
                  5.7641541e-07               180      0.0051178803    -3.9674612e-12     1.7221601e-05               180       0.078048621    -2.1582059e-13

0.025       0.16147262        -5.3455669     1.5773122e-05         150.81653       0.095511732         12.772683     1.1561257e-05         119.84342
                  2.2747545e-05         143.68453        0.16183238        -5.5659033     3.5674331e-05         140.62742       0.096293766         12.912528
                    0.095930306         12.351477     1.8153999e-05        -160.12008        0.16193426        -5.1413948     1.7366711e-05        -142.21228
                  3.0157892e-06        -118.59608       0.095761484         12.507279     2.5930655e-05         137.29546        0.16184201        -5.6467299

0.05      0.076197003        -57.881775     4.9301532e-05         108.86712       0.033166832         -48.50116     3.4645481e-05         109.72877
                  5.6219606e-05         99.329272       0.075275771        -57.707581     6.0349112e-05         87.061583       0.033232014        -48.523678
                    0.033694967        -49.736798     5.7621773e-05          121.1357        0.07682452        -58.030586     4.4414579e-05          133.5781
                  4.6998946e-05         124.28355        0.03224787        -48.528076     4.8383604e-05         93.910055       0.074555545        -58.032706

0.075       0.15068592         25.872705     6.5762259e-05        -12.179388        0.12844553         33.458585      6.438625e-05        -37.698734
                  7.6295067e-05        -15.519832        0.15219557         25.605163     7.9205829e-05        -2.8393069        0.12888195         33.366208
                     0.12773339         33.485498     7.1189902e-05         15.313547        0.15076755         26.083298     4.6386073e-05         13.979572
                  6.9413943e-05        -34.136331        0.12973776         33.232611     6.8223414e-05        -16.064274        0.15343204          25.67223

0.1       0.21995366        -35.173513     1.5811306e-05        -42.891332        0.16956872        -33.571006     2.7860467e-05         131.59513
                  2.4065766e-05        -69.854576         0.2194851         -35.46287     6.6249713e-05        -64.426043        0.16876922        -33.587015
                     0.16892577        -33.721878     5.5868107e-05        -36.017469        0.22045969        -35.041358     3.6796874e-05         1.1113725
                  3.5032489e-05         128.92736        0.16904214        -33.869246     2.3897719e-05        -68.597536        0.22052689        -35.611837

0.125      0.061883046        -70.356922     9.9176806e-05        -109.69401       0.038846166        -82.985925     7.3442719e-05        -120.71937
                   0.0001004945        -117.93696       0.059354122        -68.524193     0.00011159297        -129.17048        0.03631244        -80.268745
                    0.037831339         -84.05703     0.00012120498        -106.73239       0.062576013        -69.031867     0.00010647322        -102.94451
                  7.4558067e-05        -109.39848       0.035434209        -81.410148     9.1112916e-05        -121.02321       0.059189684        -68.401379

0.15       0.18632965        -15.842205      6.930851e-05         133.90085         0.1337051        -13.870302     8.3792277e-05         52.108804
                  7.5605169e-05         125.90534        0.18862287        -16.178703     0.00010228815         138.88978        0.13493389        -14.303282
                     0.13404835         -13.46925      0.0001177149         156.99545        0.18762421        -16.165647     5.4102243e-05         148.34647
                  7.2869831e-05         59.189422        0.13583531        -14.062039     5.9605199e-05         120.59162        0.19033195        -16.264642

0.175       0.21082051        -75.946013     7.8851542e-05         127.91252        0.14412907        -80.309947     8.9517794e-05        -161.20489
                  7.3480977e-05         122.27657        0.20895597        -76.292453     9.8777012e-05         93.555631        0.14134155        -80.542499
                     0.14412041        -80.056013      0.0001170431         101.87573        0.21123216        -76.057272     0.00010389838         141.91674
                  8.4863389e-05        -163.21348        0.14230256        -80.575089      7.526244e-05         132.83977          0.210643        -76.464641

0.2      0.056399954        -114.37117     0.00015821266         24.910939       0.032433615        -139.38434     0.00012513894         24.013553
                  0.00015693473         22.118384       0.052809042        -110.85556     0.00016810236         15.528741       0.027372766         -135.1228
                    0.031951145         -138.4987     0.00018420047         22.946598       0.056466327        -112.16266     0.00017981915         31.963013
                  0.00012105418          27.02397       0.027768814        -136.69339     0.00015469329         23.649393       0.053296612        -110.72077

0.225       0.12330655          -57.6563     0.00012163713        -56.653584       0.065287515        -60.134028     2.2197791e-05        -117.44513
                  0.00012361799        -59.351625        0.12499931        -58.214119     0.00015723439        -67.066704       0.067098253        -61.141274
                    0.066338226        -60.072246     0.00017823076        -60.002676        0.12550332        -58.959269     0.00013057348        -49.118751
                  1.9689074e-05        -78.448266       0.067008747        -60.444866     0.00011038473        -56.940055        0.12638535        -58.759019

0.25       0.10972673        -111.90542     0.00018014312        -124.49878       0.035886376         -123.9448     0.00011220247        -99.966108
                  0.00018295981        -126.66317        0.10554983        -111.67597     0.00019222663        -132.28102       0.031396445        -124.59241
                      0.0370347        -123.81871     0.00021336591        -129.73961        0.10910889        -112.89671     0.00019300036        -116.36023
                  0.00012328408        -102.22457       0.032113161         -123.3668     0.00017482315        -121.13277        0.10622203        -112.26144

0.275      0.056661553         -75.39166     0.00016772206         146.86837       0.047610837        -52.767271     9.4855577e-05         129.22287
                  0.00017314161         145.00156       0.060407074        -72.428731     0.00021832504         143.70562       0.052169988        -51.163024
                    0.047317787        -53.387395     0.00023269443         146.50608       0.058050467        -74.489397     0.00018597673         155.25793
                  9.8976272e-05         131.00665       0.051762067        -51.567718     0.00016814379          148.7062       0.060819694        -72.646014

0.3      0.086260843        -92.389472     0.00018245138         82.194401       0.053263221        -100.03315     6.5611838e-05         77.918287
                  0.00018872114         79.854847       0.085000436        -92.787482     0.00022578889           70.3313         0.0526342        -100.65064
                    0.052896715        -100.79289     0.00024182959         73.322282       0.087761158         -94.03784     0.00020037066         87.666889
                  7.5325187e-05         81.592537       0.051395674        -100.45279     0.00017903593         83.772308       0.085396028        -93.858521

0.325      0.063977617        -64.471775     0.00020436755        -13.764066       0.058694344        -26.811594     0.00010888667         -45.57394
                  0.00021335531        -16.032465       0.068128527        -60.027895     0.00026397092        -11.493046       0.064940253        -25.296446
                    0.058576689        -26.391581     0.00027965409        -9.3867623        0.06478978        -63.576879     0.00021652692        -5.7194323
                  0.00012008893        -42.939931       0.065254209         -25.39233     0.00020231747        -10.886676        0.06849213        -59.967814

0.35       0.15162942        -79.564048     0.00011782461        -79.016466        0.12817214        -80.118028     6.8760111e-05         132.41938
                  0.00012325329        -83.492347        0.15596021        -80.337847      0.0002386608        -92.138324        0.13131611        -80.393545
                     0.12750266        -79.890846     0.00024912476        -89.779282        0.15589988        -79.271881     0.00014393357        -69.123825
                  7.0810013e-05          136.5127        0.13130413        -80.814576     0.00012207684        -76.408482        0.15883506        -80.478258

0.375       0.13607482        -136.74585     0.00022639328        -127.03392       0.094740538        -149.39118     0.00013339993        -94.903967
                  0.00022837306        -129.49365        0.13177171        -137.05741     0.00024791798        -153.00383       0.090477394        -149.38509
                    0.093709897        -149.28911     0.00026488633        -150.11207        0.13692114        -136.91564     0.00025691983         -125.8882
                  0.00013969372        -93.786703       0.089477396        -149.84625     0.00022770727        -125.80198        0.13183531        -137.49197

0.4      0.049236973        -87.379082     0.00024880312         135.09365       0.026797418        -75.129303     0.00011626207         95.493582
                  0.00025595456         132.69505       0.057300434        -82.575754     0.00032034414         124.65059       0.034339661        -71.315686
                    0.027843748        -73.534942     0.00034695773         126.22589       0.053331436        -84.035737     0.00026975844         137.92584
                   0.0001262771         101.89105       0.035707545        -70.133516     0.00024745151         137.81267       0.060902095        -80.322679

0.425       0.19399567        -121.35895     0.00018726029         84.812539        0.11566304        -133.08529     0.00013493006         178.10048
                  0.00018541712         81.148976        0.19676288        -122.42552     0.00026915354         44.265399         0.1163273        -133.59531
                     0.11660972        -132.81345     0.00029206975         43.921115        0.19960058         -121.6728     0.00021668714         89.458521
                  0.00011953737         175.37057        0.11764194        -133.72482     0.00020088146         90.141022        0.20156539        -122.83144

0.45       0.19403063         173.89863     0.00028008547         19.468524        0.10605393         158.63922     0.00032008124         29.470414
                  0.00027748566         17.956124         0.1871839         173.03615     0.00028818131        -11.534122       0.098614029         158.05313
                     0.10642713         158.91649     0.00029998346        -12.847063         0.1938697         173.78486     0.00033071778         21.178015
                  0.00031274118         28.781461       0.099272055         157.62418     0.00030784058         21.881431        0.18748122          172.6569

0.475      0.042520173         143.38189     0.00021206366         -74.08508       0.022883407         142.92033     0.00021975595        -93.550204
                  0.00021626424        -76.087242       0.037578861         154.04839      0.0003788159        -91.811132       0.020537949          163.8623
                    0.023361926         145.57579     0.00039488415        -92.046028       0.041695751         152.97971     0.00024505445        -73.593875
                  0.00022137031        -91.556467       0.020053617         164.55986     0.00021902101        -71.895323       0.038050939         162.47418

0.5        0.1296309        -163.09687     0.00018479432        -163.73274       0.060931808         175.96862     0.00015821403        -116.67727
                  0.00019202997        -166.40755        0.12875614        -164.21518     0.00033963098        -172.10965       0.058882483         174.17631
                    0.062094914         175.54203     0.00036026543        -173.38016        0.13342116        -164.60756      0.0002025725        -160.13751
                  0.00017153344        -120.98445       0.059687438         174.83369     0.00018537087        -157.69937        0.13240853        -165.40086

0.525        0.1225994          129.7071     0.00026945021         111.99014       0.040634064         104.95663     0.00031619405         130.87987
                  0.00027593087          110.4151        0.11180105         129.34436     0.00038857778         119.98655       0.029621865         100.10068
                    0.041927379         104.43934     0.00040043877         117.57214        0.11965607         128.97592     0.00030401095         117.74201
                  0.00032573458         128.28437       0.030921594         100.78712     0.00028971365         117.91941        0.11070493         128.46931

0.55      0.011852923         157.72167     0.00027960199         28.598763       0.030677827         -150.1103     0.00020373614         21.810756
                  0.00028843809         27.823806       0.016116483        -176.51555     0.00044846966         35.800334       0.037627657        -149.56555
                    0.029605196        -150.12131     0.00045565319          34.16962       0.014749724         175.53171     0.00031775315         32.955693
                  0.00020983735         20.156083       0.036137121        -149.24249     0.00030000032          32.61835       0.018384424        -173.11001

0.575      0.066428349         159.04071     0.00031844826        -43.586228       0.045337184         138.29703     0.00019779882        -31.588504
                  0.00033102135         -44.77383       0.060001472         160.75607     0.00044234448        -40.572699        0.03911605         136.88875
                     0.04467251         137.70289     0.00045058703        -42.082493       0.063664715         157.41303     0.00035272167        -39.571108
                  0.00020789156        -33.654698       0.038105096         138.03999     0.00033665986         -39.05581       0.057914707         159.19854

0.6      0.043535781        -145.97902     0.00032774013        -129.94887       0.039243399        -137.44499     0.00016486397        -140.92243
                  0.00033944326         -131.4502        0.05696174        -140.30025     0.00050827427        -122.07613       0.050927299         -133.3919
                    0.039169623         -136.2347     0.00051456594        -123.71725       0.050147135        -138.44299     0.00036958601        -125.41202
                  0.00017779812        -144.92648       0.051214139         -134.5103     0.00035541314        -125.72647       0.061143072        -137.26472

0.625        0.1626935         170.60729     0.00027064327         164.89815        0.12363549         157.65967     0.00014174748         -134.9505
                  0.00027839737         163.53827        0.16674602         169.19203     0.00042477407         154.73388        0.12602672         157.31173
                     0.12314586         158.00439     0.00042767457         153.47541        0.16730243         170.30234     0.00031223643         167.19098
                  0.00013327826        -134.53553        0.12507478          156.9298     0.00029269485         167.47196        0.16831995            168.68

0.65       0.12920554         107.93516     0.00037119636         96.993472       0.095491441         94.298213     0.00031071251         109.53416
                   0.0003838057         95.826918        0.11735541         107.71432     0.00044566585          95.84425       0.085071545         93.704989
                    0.094512194         94.712009     0.00045443686         94.829283        0.12218212          107.3727     0.00041496489         97.732225
                  0.00031935583         109.97563       0.083323609         93.791878     0.00039675366         99.579411        0.11100863         107.20079

0.675       0.10363361        -179.14609     0.00037700308          6.268583       0.070533069         152.12686     0.00010201113         13.986269
                   0.0003907455         4.4530302        0.11761643        -179.46629     0.00054622651         4.0134818        0.07905297          155.4935
                    0.071685641         152.66477     0.00056051443         2.1603089        0.11531753        -176.59342     0.00040704576         7.5812199
                  0.00012170256         7.4268984       0.080464523         155.89981     0.00039774073         9.0470652        0.12645738        -177.98652

0.7       0.26126166         125.15814     0.00029922055        -61.265913        0.15840489         107.79784     0.00033303733        -6.1423459
                  0.00030369811        -63.227258        0.25978261         123.41249     0.00035408977        -74.786583        0.15486105         106.78642
                     0.15937392         107.80029      0.0003584886        -78.499171        0.26542716         124.37809     0.00033550888         -56.57666
                  0.00031400988        -8.1323637          0.155651         106.50979       0.000326319        -56.019618        0.26271129         122.54562

0.725       0.19845006         62.348879     0.00039925468        -125.22163        0.10521576         49.317174      0.0004714226        -122.88365
                  0.00040556918         -126.0401        0.18264682         60.730587     0.00046803951        -119.71963        0.09111923          47.95116
                     0.10564158         49.496299     0.00045848567        -121.35408         0.1918625           61.6396     0.00046487413        -124.75007
                  0.00045992452        -122.88347       0.090984613         47.551197     0.00044830853        -123.48227        0.17785868         59.977203

0.75      0.057414456         122.67137     0.00044800105         145.88975       0.056167253         126.36208     0.00027088176         142.30242
                  0.00046150691         145.01374       0.066617125         126.04452     0.00060710414         144.82852       0.064197297          127.0302
                    0.056680448         125.58006     0.00060865541         143.46297       0.065457139         125.71767     0.00048582024         144.76292
                  0.00028208806         143.59232       0.064879958         127.50077      0.0004729908         146.74857       0.072981616         126.86898

0.775        0.1825935         80.681772     0.00041491308         74.257785        0.11491712         68.112591     0.00038137727         91.665801
