! Created Thu Mar  2 13:15:49 2023
# ghz S ma R 45
! 4 Port Network Data from SP1.SP block
! freq  magS11  angS11  magS12  angS12  magS13  angS13  magS14  angS14  
!       magS21  angS21  magS22  angS22  magS23  angS23  magS24  angS24  
!       magS31  angS31  magS32  angS32  magS33  angS33  magS34  angS34  
!       magS41  angS41  magS42  angS42  magS43  angS43  magS44  angS44  
!     
0      0.076868159    -2.5267689e-13     3.9353644e-05              -180      0.0042623492     -3.963763e-12     1.7306819e-05               180
                  3.2623136e-05               180       0.079109199     6.9297954e-13     1.2435358e-05              -180      0.0046249585     -1.637001e-12
                   0.0051062026      1.218195e-11     1.4453375e-06    -2.1769976e-10       0.077426229    -2.1525368e-14     3.2911295e-06    -2.0414156e-11
                  1.0980631e-05    -3.2126248e-11      0.0056901549     7.9814063e-12     3.5084271e-06              -180       0.077275856    -4.6647349e-13

0.025       0.16147262        -5.3455669     3.5711244e-05         84.601052       0.095511732         12.772683     1.9539602e-05         80.811736
                  2.9289717e-05         81.405673        0.16198767        -5.7616578     1.8675909e-05         54.648611       0.095771201         12.447726
                    0.095930306         12.351477     1.6625155e-05        -15.661717        0.16193426        -5.1413948     1.1852105e-05        -2.9409057
                  1.7770384e-05          -52.9852       0.096291505         11.928241     1.1241443e-05         32.960422        0.16209227        -5.5548617

0.05      0.076197003        -57.881775     4.5938825e-05        -3.6854147       0.033166832         -48.50116     3.2603367e-05        -21.290818
                  3.9456759e-05        -6.5393835       0.073530889        -57.692029      4.194718e-05        -39.439105       0.031130222        -48.012476
                    0.033694967        -49.736798     2.7513518e-05        -70.620774        0.07682452        -58.030586     3.1031484e-05        -66.418941
                   1.670188e-05         -109.5898       0.031775947        -49.604654      3.035395e-05        -52.152731       0.074157628        -57.875134

0.075       0.15068592         25.872705      4.823263e-05        -99.957763        0.12844553         33.458585     3.1565091e-05        -127.16943
                  4.3660751e-05        -103.32147        0.15412664          24.74549     5.1017276e-05        -140.04271        0.13092392         32.392726
                     0.12773339         33.485498     4.2220507e-05        -154.09988        0.15076755         26.083298     4.0643813e-05        -163.74713
                  2.4770589e-05        -177.03681        0.13002809         32.408873     3.7154607e-05         -153.1726        0.15388405          24.94983

0.1       0.21995366        -35.173513     5.6607779e-05        -170.38194        0.16956872        -33.571006     3.4231598e-05        -177.51177
                  5.2719398e-05        -173.70083        0.21809589        -36.464586     5.4623447e-05         162.87702        0.16823779        -34.938516
                     0.16892577        -33.721878     4.7809785e-05         144.99836        0.22045969        -35.041358     3.6605978e-05         145.59166
                  2.4773371e-05         127.23021        0.16742261        -35.125535     3.6656833e-05         157.64918        0.21879069        -36.308118

0.125      0.061883046        -70.356922     8.3736929e-05         96.809962       0.038846166        -82.985925     7.0430914e-05         89.542756
                  7.9399921e-05         93.611271       0.057115472        -66.730022     0.00010420304         79.682639       0.033816319        -80.498214
                    0.037831339         -84.05703     8.3629434e-05         64.839984       0.062576013        -69.031867     7.9222571e-05         69.393347
                  4.8370975e-05         53.484793       0.032547775        -81.812244     7.8521807e-05         74.981359        0.05876112        -66.024746

0.15       0.18632965        -15.842205      6.738354e-05         8.1613247         0.1337051        -13.870302     6.1742698e-05        -13.552192
                  6.3969311e-05         5.0468353        0.18836858        -17.877568     9.9986276e-05        -16.159016        0.13479183         -15.89246
                     0.13404835         -13.46925     7.3016108e-05        -27.358329        0.18762421        -16.165647     7.6548319e-05        -30.609531
                  4.1211194e-05        -47.963639        0.13513241        -15.422501     7.3074778e-05        -25.021879        0.18879995        -18.243784

0.175       0.21082051        -75.946013     8.7467279e-05         -48.42804        0.14412907        -80.309947     5.9081856e-05        -66.204489
                  8.4124559e-05        -50.464719        0.20405484        -78.132714      0.0001028322        -74.127771        0.13868402        -82.844729
                     0.14412041        -80.056013     8.0777634e-05        -72.907246        0.21123216        -76.057272     6.9047886e-05        -82.492026
                  3.7274834e-05        -77.993816        0.13858801        -82.512832     6.9222256e-05        -76.783825        0.20510374        -78.244286

0.2      0.056399954        -114.37117     0.00012721482        -140.95379       0.032433615        -139.38434      9.823554e-05        -150.10279
                  0.00012398789        -143.18541       0.050174062        -111.01912     0.00015650502        -155.90539       0.026173569        -139.35248
                    0.031951145         -138.4987      0.0001353542        -158.55283       0.056466327        -112.16266     0.00011651599        -160.13209
                  7.7555149e-05        -163.93551       0.025628404        -137.80243     0.00011529308        -157.25342       0.051935127        -110.31677

0.225       0.12330655          -57.6563     0.00010934968         134.04035       0.065287515        -60.134028     9.2703336e-05         119.77525
                  0.00010597634         131.66493        0.12026845        -60.368687     0.00015128301         117.94003       0.062410293        -63.149299
                    0.066338226        -60.072246     0.00012212506         114.17827        0.12550332        -58.959269     0.00011477795         111.79578
                   6.643142e-05         102.31886       0.063614148        -63.114965     0.00011108314         114.70572        0.12113651        -61.773861

0.25       0.10972673        -111.90542     0.00012995596         65.946772       0.035886376         -123.9448     0.00010177161         49.504952
                  0.00012606039           64.3358       0.099501681        -113.43894     0.00016819346         47.685008       0.027220036        -126.07946
                      0.0370347        -123.81871     0.00013866353         49.902609        0.10910889        -112.89671     0.00012597088         42.546854
                   7.182761e-05         44.798733       0.028504149        -125.87801     0.00012293801         45.596569       0.099990521        -114.71868

0.275      0.056661553         -75.39166     0.00014330932        -20.455888       0.047610837        -52.767271      0.0001120668        -35.014846
                  0.00013941862         -22.08096       0.058124582        -75.736942     0.00018666671        -35.092494       0.049447699        -54.931891
                    0.047317787        -53.387395      0.0001618504        -33.967888       0.058050467        -74.489397     0.00014112881        -40.071071
                  8.8131892e-05        -41.025563       0.049153516        -55.601262     0.00013705377         -37.57351       0.057865254        -76.657025

0.3      0.086260843        -92.389472     0.00014206547        -95.616253       0.053263221        -100.03315     0.00011346048        -110.28988
                   0.0001379173        -96.803312       0.078128147        -94.496891     0.00019041508        -110.40102       0.046058787        -103.42598
                    0.052896715        -100.79289     0.00016253293        -109.58151       0.087761158         -94.03784     0.00014428351        -114.84203
                  8.5503921e-05        -116.14242       0.045620536        -104.50051     0.00013983554        -112.20938       0.079009462         -96.23464

0.325      0.063977617        -64.471775     0.00016450171        -177.49856       0.058694344        -26.811594     0.00013342383         165.53283
                  0.00016113523         -178.4451       0.067913658        -62.473835     0.00021830579         168.38962       0.064579848        -29.010485
                    0.058576689        -26.391581     0.00018836754         170.45675        0.06478978        -63.576879     0.00016779833         163.09636
                  0.00010500814         163.40451       0.064466911        -28.569017     0.00016315523         165.43173       0.067531193         -63.54041

0.35       0.15162942        -79.564048     0.00014702205         100.90748        0.12817214        -80.118028     0.00011236967         81.477944
                  0.00014409861         99.742914         0.1490755        -84.296381     0.00019738293         87.090968        0.12551944        -85.370603
                     0.12750266        -79.890846     0.00017381685         89.152246        0.15589988        -79.271881     0.00014674733         81.147491
                  9.2836949e-05         78.345817        0.12474434        -85.106515     0.00014249393         83.368614        0.15102488        -84.023541

0.375       0.13607482        -136.74585      0.0001581549         39.050943       0.094740538        -149.39118     0.00011791236         26.021616
                  0.00015421812         38.341826        0.12672278        -141.72252     0.00020677504         25.082332       0.087249351        -155.68647
                    0.093709897        -149.28911     0.00018131725         26.601619        0.13692114        -136.91564     0.00015509906         22.826051
                  9.2466665e-05         22.687025       0.086076444        -155.55237     0.00015174368         25.032948         0.1285743        -141.92197

0.4      0.049236973        -87.379082     0.00019752975        -47.233255       0.026797418        -75.129303       0.000165836        -62.835313
                  0.00019367922        -47.726031       0.051235716         -88.80371     0.00026568133        -59.284489       0.028528692        -77.801615
                    0.027843748        -73.534942     0.00022717683        -57.568168       0.053331436        -84.035737     0.00020895638        -63.860705
                  0.00012802725        -64.643553       0.029732347        -76.346898     0.00020369181        -62.179113       0.052488574         -88.38213

0.425       0.19399567        -121.35895     0.00015122279        -124.87535        0.11566304        -133.08529     0.00011700885        -151.60096
                  0.00014823597        -125.25217        0.18913463        -127.77718     0.00020994162        -142.13566        0.11127342        -140.38269
                     0.11660972        -132.81345     0.00017423443        -136.43474        0.19960058         -121.6728     0.00015335804        -149.53132
                  8.3699599e-05        -147.96799        0.11227019        -140.06267     0.00014898856        -147.44172        0.19271455        -128.07792

0.45       0.19403063         173.89863     0.00018748695         179.68294        0.10605393         158.63922     0.00011882368         165.31682
                  0.00018482538         179.52707        0.18745648         166.20094      0.0002219016         163.60427        0.10185332         150.14063
                     0.10642713         158.91649     0.00020632222         170.70077         0.1938697         173.78486     0.00015874684         163.71707
                  0.00010552833         173.48513        0.10222059         150.49476     0.00015715361         165.39303        0.18958606         166.05394

0.475      0.042520173         143.38189     0.00024444641         90.144897       0.022883407         142.92033      0.0001830538         77.919692
                  0.00024107254         89.837815       0.039421987         134.98048     0.00030338971         79.631674       0.022285133         133.79466
                    0.023361926         145.57579     0.00027819781         82.989093       0.041695751         152.97971     0.00023438011         78.500478
                  0.00015813506         79.133836         0.0228481         136.76791     0.00022966118         79.407883        0.04088688         139.72096

0.5        0.1296309        -163.09687     0.00020470911         8.8183808       0.060931808         175.96862     0.00015697173        -10.006301
                  0.00020123321         8.6966603        0.12715306        -171.29266     0.00027091176        -4.2678091       0.058898563         166.35836
                    0.062094914         175.54203     0.00023592743        0.91896811        0.13342116        -164.60756     0.00020729508        -7.3714272
                  0.00012012982        -5.8632879       0.060112425         165.84298     0.00020108762        -6.1498692        0.12952641        -172.80524

0.525        0.1225994          129.7071     0.00024983413        -56.148815       0.040634064         104.95663      0.0001756039        -72.383232
                  0.00024704774        -56.040205        0.11906256         120.32254     0.00030147421        -69.763784        0.03892182         94.587967
                    0.041927379         104.43934     0.00028100763        -62.198485        0.11965607         128.97592     0.00023009346        -71.565362
                  0.00015391149        -61.873642       0.040267356         94.044298     0.00022557761        -70.199447        0.11914335         119.31769

0.55      0.011852923         157.72167     0.00028458297        -143.82006       0.030677827         -150.1103     0.00020728801        -159.48826
                  0.00028132859        -143.87689       0.012575009         166.59853     0.00034568682        -153.26869        0.03278437        -159.74412
                    0.029605196        -150.12131     0.00032867775        -147.85547       0.014749724         175.53171     0.00026744154        -156.01378
                  0.00018791561         -153.1906       0.031640667        -159.80447     0.00026142597        -155.14758       0.014607781         163.62353

0.575      0.066428349         159.04071     0.00026659047         141.28396       0.045337184         138.29703      0.0001947637         125.48193
                   0.0002635038         141.45745       0.066672414         148.65895     0.00033151349         130.64836       0.046259879         128.10655
                     0.04467251         137.70289     0.00031144204         136.12512       0.063664715         157.41303     0.00025765371         128.60298
                  0.00017198535         132.61323       0.045501698         127.46832     0.00025155138         129.74244       0.065343207         145.87312

0.6      0.043535781        -145.97902     0.00031025878         58.825471       0.039243399        -137.44499     0.00023283228         41.507818
                  0.00030803097         59.023809       0.048772173        -151.56517     0.00038021583         49.148758         0.0438335        -147.25456
                    0.039169623         -136.2347     0.00036168976         54.682968       0.050147135        -138.44299     0.00029876415         45.617168
                  0.00021255129         49.080233       0.043832946        -146.09111      0.0002932244         46.554578       0.050837833         -148.4092

0.625        0.1626935         170.60729     0.00024299593        -22.948403        0.12363549         157.65967     0.00016912092        -42.970721
                  0.00024095268        -22.876815        0.17090958         159.81347     0.00030630497        -32.603204        0.12989987         147.00077
                     0.12314586         158.00439      0.0002931046        -27.506194        0.16730243         170.30234      0.0002298188        -35.827115
                  0.00015620392         -36.12969        0.12942924         147.35363     0.00022467393        -35.072638        0.17200212         159.28459

0.65       0.12920554         107.93516     0.00027605999        -81.112425       0.095491441         94.298213     0.00019832353        -93.921772
                  0.00027347563        -80.778849        0.12803858         97.120773     0.00034058879        -91.542401       0.094795652         84.246579
                    0.094512194         94.712009     0.00032271451        -87.184394        0.12218212          107.3727     0.00027023469        -92.427273
                  0.00017984747        -88.270803       0.093816464         84.739508     0.00026532187        -91.525184        0.12414174         96.320739

0.675       0.10363361        -179.14609     0.00031037211        -175.71533       0.070533069         152.12686     0.00024298029          163.8262
                  0.00030840918        -175.25094         0.1181189         170.74966     0.00039467917         174.14971       0.081281878         144.70246
                    0.071685641         152.66477     0.00036336983         179.67724        0.11531753        -176.59342     0.00031282488         168.96816
                  0.00020881793         171.18573        0.08255393         145.06579     0.00030712102          169.5768        0.12414398         171.88732

0.7       0.26126166         125.15814     0.00020350358          118.3545        0.15840489         107.79784      0.0001198015         90.244294
                  0.00020305528         118.84449        0.26989798         113.72187     0.00024768615         102.43936        0.16424222         97.160319
                     0.15937392         107.80029     0.00023796428         112.82673        0.26542716         124.37809     0.00017409282          98.89221
                  0.00011053784         109.40827         0.1652133         97.134085     0.00017069987         99.643293        0.27279581         112.87893

0.725       0.19845006         62.348879     0.00032904895         60.886815        0.10521576         49.317174     0.00021699412          52.13809
                  0.00032825953         61.120393        0.18883516         51.683506     0.00036967757         52.125312       0.097075846         39.474422
                     0.10564158         49.496299     0.00037688092         57.116458         0.1918625           61.6396     0.00029140748         53.064026
                  0.00022489316         58.058757       0.097567152         39.668056     0.00028707868         53.400077         0.1871835         50.937232

0.75      0.057414456         122.67137     0.00036661697        -39.355966       0.056167253         126.36208     0.00027379783         -54.57897
                  0.00036435703        -38.978111       0.079677971         117.90081     0.00044511036        -46.383148       0.074148898          118.5198
                    0.056680448         125.58006       0.000428474        -42.127361       0.065457139         125.71767     0.00035459472        -49.180988
                   0.0002526258        -49.538653       0.074476137         117.81432     0.00034667268        -49.133997       0.083120888         117.04161

0.775        0.1825935         80.681772     0.00028868306        -101.51723        0.11491712         68.112591     0.00018855515        -118.81536
