! Created Thu Mar  2 13:19:22 2023
# ghz S ma R 45
! 4 Port Network Data from SP1.SP block
! freq  magS11  angS11  magS12  angS12  magS13  angS13  magS14  angS14  
!       magS21  angS21  magS22  angS22  magS23  angS23  magS24  angS24  
!       magS31  angS31  magS32  angS32  magS33  angS33  magS34  angS34  
!       magS41  angS41  magS42  angS42  magS43  angS43  magS44  angS44  
!     
0      0.076868159    -2.5267689e-13     1.4671706e-06              -180      0.0042623492     -3.963763e-12     1.1105723e-06              -180
                  1.4673675e-06               180       0.078752258      1.958901e-13     2.4663691e-06               180      0.0041283413    -4.1647302e-12
                   0.0051062026      1.218195e-11     2.4615765e-06               180       0.077426229    -2.1525368e-14     1.9881869e-06               180
                  1.1098308e-06              -180      0.0050523138    -4.0232469e-12     1.9864906e-06              -180       0.077842157     -2.164357e-13

0.025       0.16147262        -5.3455669     1.4349174e-05         179.07421       0.095511732         12.772683     8.8550826e-06         176.45186
                  1.4343527e-05         179.09527        0.16171246        -5.2232616     2.3124091e-05         179.64798       0.096203963         13.205503
                    0.095930306         12.351477     2.3126187e-05         179.68729        0.16193426        -5.1413948     1.7210344e-05         179.07837
                  8.8561526e-06         176.56497       0.095690993          12.80369     1.7218696e-05         179.11342        0.16150735        -5.3742388

0.05      0.076197003        -57.881775     3.6252902e-05         114.51956       0.033166832         -48.50116     2.3617732e-05         114.66835
                  3.6266212e-05           114.591       0.076460908        -57.739729     5.5697913e-05         113.83823       0.034128975        -48.405313
                    0.033694967        -49.736798     5.5739457e-05         113.84055        0.07682452        -58.030586     4.2598363e-05          114.1671
                  2.3663033e-05         114.68337       0.033150246        -48.438528     4.2624246e-05         114.10698       0.075687141        -57.970589

0.075       0.15068592         25.872705     4.7974696e-05          14.11106        0.12844553         33.458585     3.0985912e-05          7.900066
                  4.8030602e-05         14.178317        0.15100973         26.591767     7.4677072e-05         17.918316        0.12812854         34.232853
                     0.12773339         33.485498     7.4690815e-05         17.910383        0.15076755         26.083298     5.6712034e-05         15.830402
                  3.1004297e-05         7.8939501        0.12898724         34.100113     5.6665388e-05         15.767954        0.15219017         26.624075

0.1       0.21995366        -35.173513     3.8795735e-05        -38.582735        0.16956872        -33.571006     2.0680654e-05        -39.274349
                  3.8875095e-05        -38.562748        0.22084126        -34.390977     6.7182368e-05        -38.858151        0.16987056        -32.419745
                     0.16892577        -33.721878     6.7226819e-05        -38.812067        0.22045969        -35.041358     4.8377469e-05        -38.807444
                  2.0725135e-05        -39.114388        0.17014508        -32.700074     4.8337746e-05        -38.761927        0.22189805        -34.541388

0.125      0.061883046        -70.356922     8.3707835e-05        -111.00055       0.038846166        -82.985925     5.4075573e-05        -110.83421
                  8.3835411e-05        -111.00758        0.06123724        -69.382737     0.00012889712        -111.66163       0.038438285        -80.409554
                    0.037831339         -84.05703     0.00012908631        -111.68125       0.062576013        -69.031867     9.8643719e-05        -111.51927
                  5.4284515e-05        -110.87588       0.037580653        -81.527598     9.8690648e-05        -111.53041       0.061135704        -69.296277

0.15       0.18632965        -15.842205     7.5626426e-05         149.40821         0.1337051        -13.870302     4.6427957e-05         142.20589
                  7.5748258e-05         149.38011        0.18918147         -14.47398     0.00012137789         153.51108        0.13552893        -12.593034
                     0.13404835         -13.46925     0.00012143812         153.43226        0.18762421        -16.165647      9.073839e-05          151.1041
                  4.6526416e-05         142.01701        0.13643079        -12.352413     9.0693486e-05         151.03896        0.19084732        -14.558435

0.175       0.21082051        -75.946013     7.2404754e-05         107.42951        0.14412907        -80.309947     4.1390717e-05         111.12274
                  7.2452071e-05         107.36346        0.21290574        -74.428398     0.00012119889         104.79344        0.14455173        -78.327964
                     0.14412041        -80.056013     0.00012114398         104.78078        0.21123216        -76.057272      8.880947e-05         105.86413
                  4.1340514e-05         111.09271         0.1455107        -78.360188     8.8708061e-05         105.89926        0.21467597        -74.579251

0.2      0.056399954        -114.37117     0.00013122407         24.529264       0.032433615        -139.38434     8.5397352e-05         24.413909
                  0.00013124271         24.486107       0.054453768        -109.86204     0.00020120006         23.834178       0.028990338        -132.82725
                    0.031951145         -138.4987     0.00020128311           23.8216       0.056466327        -112.16266     0.00015430234         23.774092
                   8.548989e-05         24.386058       0.029388259        -134.30842     0.00015435791         23.802346       0.055115969        -109.75109

0.225       0.12330655          -57.6563     0.00011945211        -62.786324       0.065287515        -60.134028     7.4114413e-05        -65.788193
                  0.00011939558        -62.794113        0.12937214        -55.848923     0.00018888057        -61.221351       0.070803776        -58.320795
                    0.066338226        -60.072246      0.0001888783        -61.274914        0.12550332        -58.959269     0.00014214892        -62.359792
                  7.4124171e-05        -65.918472        0.07071546        -57.662903      0.0001422266        -62.413422        0.13077674        -56.373229

0.25       0.10972673        -111.90542     0.00014187718        -127.38536       0.035886376         -123.9448     9.1032921e-05        -128.35728
                  0.00014190568         -127.3371        0.11003343        -109.51064     0.00022186448        -127.35436       0.035164991        -121.31269
                      0.0370347        -123.81871     0.00022170617        -127.35397        0.10910889        -112.89671     0.00016895546        -127.72522
                  9.0886984e-05        -128.34393       0.035878307        -120.21782     0.00016879531        -127.76834        0.11098093        -110.03215

0.275      0.056661553         -75.39166     0.00016120739         146.25434       0.047610837        -52.767271     0.00010278882         141.98112
                  0.00016130808         146.28509       0.063244028        -68.093458     0.00025165236         148.05499       0.054915902        -47.334339
                    0.047317787        -53.387395       0.000251692         148.06818       0.058050467        -74.489397     0.00019129098         146.49032
                  0.00010283298          142.0307       0.054508563        -47.718652     0.00019121651         146.48419       0.063626629        -68.481071

0.3      0.086260843        -92.389472     0.00016021547         72.887877       0.053263221        -100.03315     9.9500143e-05         69.714395
                  0.00016033208         72.945538       0.091598706        -90.485555     0.00025352607         74.371829       0.058361248        -97.118263
                    0.052896715        -100.79289     0.00025378303         74.367457       0.087761158         -94.03784     0.00019120866         73.235224
                   9.977639e-05         69.733234       0.057118011        -96.950891     0.00019131658         73.191308       0.092227922        -91.441254

0.325      0.063977617        -64.471775     0.00019585644        -10.295643       0.058694344        -26.811594     0.00012855021        -16.157109
                  0.00019614311        -10.274293       0.068776452        -56.609836     0.00030233709        -7.2993024       0.065552859        -21.873687
                    0.058576689        -26.391581     0.00030242913        -7.3270434        0.06478978        -63.576879     0.00023194894        -9.6321415
                  0.00012870403          -16.2086       0.065874388        -21.966458     0.00023177451        -9.6758644       0.069139751        -56.864891

0.35       0.15162942        -79.564048     0.00016380994        -95.387447        0.12817214        -80.118028     0.00010049227        -105.85133
                  0.00016419012        -95.382593        0.16324225        -76.321001     0.00026429433        -90.283779        0.13757135        -75.969921
                     0.12750266        -79.890846     0.00026433185        -90.280319        0.15589988        -79.271881     0.00019679935        -93.933882
                  0.00010057081        -105.82619        0.13755745        -76.373308     0.00019647517         -93.92958        0.16608121        -76.461791

0.375       0.13607482        -136.74585     0.00016467316        -148.17329       0.094740538        -149.39118     9.6646076e-05        -150.09512
                  0.00016493399        -148.22421         0.1363815        -132.44878       0.000270611        -147.75772       0.093951248        -143.79268
                    0.093709897        -149.28911     0.00027098062        -147.79151        0.13692114        -136.91564     0.00020064634         -148.5349
                  9.7056166e-05        -150.18037       0.092935928        -144.22931     0.00020071273        -148.52502        0.13683523        -132.80931

0.4      0.049236973        -87.379082     0.00023259144         125.08785       0.026797418        -75.129303     0.00015020003         119.35026
                   0.0002329087         125.04512       0.063679882        -76.043697     0.00036106449         127.48528       0.040174005         -64.68492
                    0.027843748        -73.534942     0.00036120038         127.37833       0.053331436        -84.035737     0.00027596944         124.99469
                  0.00015046253         119.10048       0.041565037        -63.730647     0.00027586639         124.92027       0.067206534        -74.373403

0.425       0.19399567        -121.35895      0.0001646877         40.723351        0.11566304        -133.08529     9.4671394e-05          31.02711
                  0.00016486387         40.637538        0.20436521        -117.10485     0.00027373423         45.436513        0.12220058        -127.14822
                     0.11660972        -132.81345     0.00027339153          45.36233        0.19960058         -121.6728     0.00019917325         42.010665
                  9.4448604e-05         30.783448        0.12350052        -127.28145     0.00019878918         41.977419         0.2093247        -117.45739

0.45       0.19403063         173.89863     0.00018505925        -3.6573339        0.10605393         158.63922     0.00011093676        -3.1723221
                  0.00018503944        -3.7054587        0.18620193         179.77102     0.00030382358         -5.197896       0.096263666         165.35091
                     0.10642713         158.91649     0.00030372973        -5.1886674         0.1938697         173.78486     0.00022577781        -5.0978143
                  0.00011087331        -3.1546722         0.0969048         164.90529     0.00022568792        -5.0528323        0.18691943         179.48097

0.475      0.042520173         143.38189     0.00026781713        -91.697691       0.022883407         142.92033     0.00017014061        -95.988723
                  0.00026772226        -91.725185       0.037226649         175.66278     0.00041588364        -90.713565       0.021235931        -165.42927
                    0.023361926         145.57579     0.00041574279        -90.763558       0.041695751         152.97971      0.0003153881        -92.566648
                  0.00017002326        -96.107923        0.02090237        -164.28326     0.00031539331        -92.595023       0.039281008        -176.55823

0.5        0.1296309        -163.09687     0.00022997232        -174.55428       0.060931808         175.96862     0.00014023607        -179.56591
                   0.0002299472        -174.52514        0.13155994        -157.28752      0.0003686857        -171.99342       0.059971844        -177.06791
                    0.062094914         175.54203      0.0003682377        -172.03293        0.13342116        -164.60756     0.00027416015        -173.88862
                  0.00013984046        -179.65614       0.060794949        -176.44579      0.0002738527        -173.96466        0.13554523         -158.3164

0.525        0.1225994          129.7071     0.00027749748         121.48161       0.040634064         104.95663     0.00017952725         117.60681
                  0.00027777441         121.51623        0.10424511         138.94513     0.00043469908         122.14517       0.021194469         106.04631
                    0.041927379         104.43934     0.00043443338         122.18736        0.11965607         128.97592     0.00033161743         120.76251
                   0.0001793546         117.71483       0.022501469         107.06373     0.00033109814         120.77535        0.10331902         138.18126

0.55      0.011852923         157.72167     0.00031863188         34.623439       0.030677827         -150.1103     0.00020484501         27.168781
                  0.00031896244         34.634542       0.022121811        -156.90286       0.000490958         37.824278       0.043669793        -139.86457
                    0.029605196        -150.12131     0.00049125905         37.848396       0.014749724         175.53171     0.00037372564         34.606426
                  0.00020519581         27.241224       0.042179321        -139.48518     0.00037360492         34.631775       0.024990744        -157.45711

0.575      0.066428349         159.04071     0.00030653917        -39.896475       0.045337184         138.29703     0.00019547886        -45.520545
                  0.00030699361        -39.871285        0.05490677         173.82881     0.00048036966        -37.156095        0.03244933         148.00493
                     0.04467251         137.70289     0.00048061521        -37.205542       0.063664715         157.41303     0.00036593983        -39.510444
                  0.00019585681         -45.62278       0.031495141         149.54022     0.00036574816        -39.572243       0.053615329         172.19226

0.6      0.043535781        -145.97902     0.00035852745        -124.21715       0.039243399        -137.44499     0.00023842299        -133.11566
                  0.00035930589        -124.24076       0.067377849        -129.62696     0.00054894822        -120.23216       0.059971743        -122.75741
                    0.039169623         -136.2347     0.00054871271        -120.26467       0.050147135        -138.44299     0.00042236346        -124.21952
                    0.000238396        -133.19743       0.060192889        -123.72142     0.00042151354        -124.23688       0.071474932        -127.80579

0.625        0.1626935         170.60729     0.00026402284         153.14028        0.12363549         157.65967     0.00015779294         141.13666
                  0.00026448044         153.04664        0.16543472         178.60071     0.00042908176         159.00553        0.12323046         167.07662
                     0.12314586         158.00439     0.00042924778         159.01194        0.16730243         170.30234     0.00031481857         154.80002
                   0.0001580463            141.15        0.12225174         166.70159      0.0003145146         154.88295        0.16720369         178.16237

0.65       0.12920554         107.93516      0.0003043829         100.96341       0.095491441         94.298213     0.00018978976         97.106407
                  0.00030456711         100.88318        0.10668448         119.11731      0.0004875732         101.78372       0.074147164         103.32274
                    0.094512194         94.712009     0.00048787605         101.67639        0.12218212          107.3727     0.00036957405         100.02175
                  0.00019014712         96.819753       0.072404882         103.45999      0.0003696875         99.980742        0.10089388         118.99242

0.675       0.10363361        -179.14609     0.00036559709         2.8452163       0.070533069         152.12686     0.00023635632        -7.5314548
                  0.00036585909         2.7584833        0.12115148        -169.27969     0.00056564998         7.4204511       0.079407957         167.48062
                    0.071685641         152.66477     0.00056504554         7.3097228        0.11531753        -176.59342     0.00042859897         2.7593093
                  0.00023598953        -7.8245902       0.080836862         167.83597     0.00042805438         2.7037111        0.13024174        -167.86368

0.7       0.26126166         125.15814     0.00020327152        -68.933467        0.15840489         107.79784     0.00010782974        -79.023324
                  0.00020311594        -69.034982        0.25158353         133.52791      0.0003537306        -64.025398        0.14598918         116.65894
                     0.15937392         107.80029     0.00035298458        -64.015184        0.26542716         124.37809     0.00024975282        -66.831454
                  0.00010717874        -79.052389        0.14678948         116.36161     0.00024925117         -66.76983        0.25514709         132.76976

0.725       0.19845006         62.348879     0.00033971191        -112.67731        0.10521576         49.317174     0.00021972982        -115.15642
                  0.00033953125        -112.69528          0.173501         70.513311     0.00053014087        -113.64171       0.082673489         56.243617
                     0.10564158         49.496299     0.00052993849        -113.64162         0.1918625           61.6396     0.00040693036        -114.81455
                  0.00021954018        -115.16582       0.082553527         55.791388     0.00040689944        -114.79198        0.16896938          69.85787

0.75      0.057414456         122.67137     0.00042283781         145.82908       0.056167253         126.36208     0.00027626088         137.16119
                  0.00042266089         145.83293        0.05895905         136.47314     0.00064259434         149.58174       0.057010277         137.86251
                    0.056680448         125.58006     0.00064190759         149.54292       0.065457139         125.71767      0.0004887577         145.80202
                  0.00027564873         137.06714       0.057710168         138.39462     0.00048844808         145.75369       0.065640213         138.03628

0.775        0.1825935         80.681772     0.00031643737         79.881144        0.11491712         68.112591     0.00019460718         75.207867
