! Created Thu Mar  2 13:27:09 2023
# ghz S ma R 45
! 4 Port Network Data from SP1.SP block
! freq  magS11  angS11  magS12  angS12  magS13  angS13  magS14  angS14  
!       magS21  angS21  magS22  angS22  magS23  angS23  magS24  angS24  
!       magS31  angS31  magS32  angS32  magS33  angS33  magS34  angS34  
!       magS41  angS41  magS42  angS42  magS43  angS43  magS44  angS44  
!     
0      0.076868159    -2.5267689e-13     2.0433141e-06               180      0.0042623492     -3.963763e-12     1.9046224e-05               180
                  1.8162902e-06              -180       0.077934274     7.0277401e-13       2.60011e-05               180      0.0042589242    -1.7769452e-12
                   0.0051062026      1.218195e-11     3.0314453e-05    -2.4162362e-11       0.077426229    -2.1525368e-14     2.9247822e-05               180
                  3.0997272e-05    -8.5558784e-13      0.0053240809     8.5266669e-12     3.1484498e-05               180       0.078151255    -4.6103072e-13

0.025       0.16147262        -5.3455669     2.8933913e-05          174.0244       0.095511732         12.772683     2.1199384e-05         122.68527
                  2.8566223e-05         176.76542        0.16199006        -5.7618517     3.0219748e-05         133.82868       0.095772185         12.450549
                    0.095930306         12.351477     3.3088823e-05        -129.41946        0.16193426        -5.1413948     2.4773612e-05         102.53541
                  2.9590802e-05        -119.40053       0.096292449         11.931277     2.6897755e-05         104.25179        0.16208862        -5.5484804

0.05      0.076197003        -57.881775      1.519529e-05         55.433223       0.033166832         -48.50116     1.7651228e-05        -18.766879
                  1.4417371e-05         68.723093       0.073530887        -57.692047     1.9751384e-05        -20.177303       0.031130194        -48.012551
                    0.033694967        -49.736798     8.4152611e-06         166.37835        0.07682452        -58.030586     2.8402698e-05        -52.389393
                  1.4348214e-05         140.45233       0.031776825        -49.605297     2.7733419e-05        -47.790115       0.074156531        -57.876546

0.075       0.15068592         25.872705     1.8202607e-05        -149.62112        0.12844553         33.458585     2.7219954e-05        -175.71803
                  1.4336026e-05        -155.15883        0.15412674         24.745566     3.8304707e-05        -172.19273          0.130924         32.392659
                     0.12773339         33.485498     1.6794877e-05           -145.78        0.15076755         26.083298     4.5079536e-05        -178.22096
                  3.7126166e-06        -42.064507        0.13002816         32.408811     4.3783153e-05         -177.2186        0.15388339         24.951159

0.1       0.21995366        -35.173513     1.6547132e-05         23.224277        0.16956872        -33.571006     3.2041766e-05         47.194937
                   1.709253e-05         10.581303        0.21809604        -36.464457     3.7504275e-05         37.235727         0.1682378        -34.938473
                     0.16892577        -33.721878     1.7988212e-05         -74.94191        0.22045969        -35.041358     3.9960852e-05         37.552192
                   2.007724e-05        -88.029145        0.16742262         -35.12549      4.032707e-05         37.821319        0.21878949        -36.308573

0.125      0.061883046        -70.356922     6.9060151e-05        -101.69187       0.038846166        -82.985925     6.8075935e-05        -87.886828
                  6.8307996e-05        -104.47519       0.057064742        -66.705877     9.6914316e-05         -94.39065        0.03399292        -80.379975
                    0.037831339         -84.05703     7.9444976e-05        -133.79614       0.062576013        -69.031867     9.0448895e-05        -95.540569
                  5.2587542e-05          -146.192       0.032723314        -81.681298     9.0834378e-05        -94.164074        0.05871801        -66.035416

0.15       0.18632965        -15.842205     4.3849123e-05         161.47536         0.1337051        -13.870302     5.5293705e-05         162.72148
                  4.0777056e-05         157.94623        0.18836252        -17.874804     6.9457066e-05         165.44264        0.13502753        -15.918801
                     0.13404835         -13.46925     5.8461395e-05         121.77491        0.18762421        -16.165647     7.0274932e-05         161.62295
                  4.3524981e-05         107.07285        0.13536753        -15.449606     6.9807149e-05         164.49059        0.18878475        -18.247013

0.175       0.21082051        -75.946013      5.119408e-05        -76.756336        0.14412907        -80.309947     2.3173198e-05        -23.305984
                  5.5288973e-05         -77.30277        0.20401312        -78.121793     4.7618079e-05        -67.184523        0.13881765        -82.900809
                     0.14412041        -80.056013     7.1644195e-05        -64.946282        0.21123216        -76.057272     3.1607551e-05        -37.072452
                   4.547686e-05        -61.109182        0.13872083        -82.569271     2.9328256e-05        -41.262273        0.20506817        -78.252607

0.2      0.056399954        -114.37117     0.00013721839        -161.96523       0.032433615        -139.38434     9.0750214e-05        -149.47888
                  0.00013975577        -162.60777       0.050162406        -110.98099     0.00014778665            -155.8       0.026183988        -139.46784
                    0.031951145         -138.4987     0.00015593959        -164.06768       0.056466327        -112.16266     0.00011513989        -148.76736
                  0.00010298035        -168.84985       0.025637379         -137.9208     0.00011452398        -150.25016       0.051889137        -110.32498

0.225       0.12330655          -57.6563     6.8051429e-05         104.78145       0.065287515        -60.134028     5.9341591e-05         122.83284
                  6.8356925e-05         104.15372        0.12026131        -60.362549     7.5248799e-05         120.64385       0.062407079        -63.149781
                    0.066338226        -60.072246     7.7449693e-05         88.583997        0.12550332        -58.959269     6.5461787e-05         131.32814
                  6.7016414e-05         79.866011       0.063610937        -63.115473     6.5162997e-05         130.54431        0.12112343        -61.785461

0.25       0.10972673        -111.90542     8.9290058e-05        -127.49317       0.035886376         -123.9448     3.7943977e-05        -142.72793
                  9.0290865e-05        -127.67582        0.09948113        -113.42786     8.7397742e-05        -138.71344       0.027218729        -126.08047
                      0.0370347        -123.81871     0.00011919762        -114.66883        0.10910889        -112.89671     5.6881236e-05        -147.29564
                  7.4317166e-05        -102.59169       0.028502808          -125.879     5.6778735e-05        -148.65094       0.099924845        -114.74888

0.275      0.056661553         -75.39166     0.00014746402         143.04858       0.047610837        -52.767271     7.9082864e-05         136.16989
                  0.00014876007         143.06604       0.058122444        -75.717908     0.00014130241         139.56977       0.049447316        -54.937063
                    0.047317787        -53.387395     0.00017390208         153.56631       0.058050467        -74.489397     9.0813022e-05         139.14223
                  0.00011300026         154.56548       0.049153254        -55.606432     9.0932184e-05         137.16932       0.057856918         -76.63652

0.3      0.086260843        -92.389472     3.8946931e-05         36.095018       0.053263221        -100.03315     3.9242252e-06        -22.286584
                  4.0135225e-05         38.740769       0.078111974        -94.479803     1.2634802e-05         11.421763       0.046055556        -103.42143
                    0.052896715        -100.79289     3.7597466e-05         73.079765       0.087761158         -94.03784     1.9282392e-05        -131.47643
                  3.3294666e-05         65.955626       0.045617214        -104.49605     1.8131843e-05        -118.35379       0.078945782        -96.278406

0.325      0.063977617        -64.471775     0.00011927988         176.45312       0.058694344        -26.811594      0.0001054009         155.94827
                  0.00011677066         176.01631       0.067907285        -62.449144     0.00015244984         164.71706       0.064584239        -29.017301
                    0.058576689        -26.391581     0.00013444269          171.8278        0.06478978        -63.576879     0.00014031636         154.29132
                  8.0985223e-05          173.3294       0.064471296        -28.575861     0.00013888581         156.26522       0.067508578        -63.478237

0.35       0.15162942        -79.564048     0.00011105573         92.832197        0.12817214        -80.118028     8.5974049e-05         66.595461
                  0.00010906036         92.553271        0.14905023        -84.276145     0.00012345625         77.630444        0.12551672        -85.371326
                     0.12750266        -79.890846     0.00012593227         97.648408        0.15589988        -79.271881     9.9801904e-05         63.169136
                  8.1894276e-05         102.48566        0.12474162        -85.107261     9.8311632e-05         65.237318         0.1510144        -84.046759

0.375       0.13607482        -136.74585     5.0562809e-05        -145.04068       0.094740538        -149.39118     7.1981644e-05        -138.62949
                  5.0539296e-05        -146.02384        0.12667913        -141.69938     9.2989934e-05        -138.75976       0.087245013        -155.68017
                    0.093709897        -149.28911     5.6326849e-05        -174.49732        0.13692114        -136.91564      0.0001033857        -141.02155
                  4.3505081e-05         164.58936       0.086072072        -155.54599     0.00010217355        -141.32368        0.12848986        -141.97281

0.4      0.049236973        -87.379082     0.00018174821         124.56012       0.026797418        -75.129303     0.00018541805           118.774
                  0.00017945189         124.36439       0.051236093        -88.761258     0.00024343827         122.70036       0.028529559        -77.818987
                    0.027843748        -73.534942     0.00019982766         113.45022       0.053331436        -84.035737     0.00022986784         119.05997
                  0.00014295185         106.19831       0.029733042        -76.363722     0.00022889582         119.90025       0.052481044        -88.354307

0.425       0.19399567        -121.35895     6.8282487e-05         41.655693        0.11566304        -133.08529     8.9338589e-05         21.566548
                  6.5124474e-05         41.359826        0.18907367        -127.74953     0.00010708971          26.40827        0.11126427        -140.37965
                     0.11660972        -132.81345     7.5008499e-05          16.38022        0.19960058         -121.6728      0.0001090238         19.238692
                  5.2198439e-05         13.184448        0.11226103        -140.05966     0.00010745527         22.386013        0.19267579        -128.12299

0.45       0.19403063         173.89863     0.00013733677         161.08049        0.10605393         158.63922     0.00010708322         175.97349
                  0.00013998179         160.70949        0.18735049         166.22854     0.00016160458         172.67116        0.10184893         150.14839
                     0.10642713         158.91649     0.00016767392          164.9444         0.1938697         173.78486     0.00013623854         -179.8764
                  0.00011187143         156.85665        0.10221623         150.50252     0.00013162226         178.12933        0.18957672         166.00118

0.475      0.042520173         143.38189     0.00023484569         78.678566       0.022883407         142.92033     0.00019933606         83.099418
                  0.00023538799         78.552037       0.039358801         135.00101     0.00027981007         83.693619       0.022288293         133.78552
                    0.023361926         145.57579     0.00026452351          76.73741       0.041695751         152.97971     0.00024018058         86.014422
                  0.00018544953         68.667293       0.022851135         136.75864     0.00023691491         84.982807       0.040963094           139.652

0.5        0.1296309        -163.09687     4.6440603e-05         -36.97526       0.060931808         175.96862     5.1717871e-05        -18.365243
                  4.4764196e-05        -36.798396        0.12696871        -171.23212     6.6770333e-05        -19.213618       0.058887794         166.37617
                    0.062094914         175.54203     6.3350683e-05        -61.277771        0.13342116        -164.60756     6.7402349e-05        -11.399956
                  5.8303612e-05        -75.844772       0.060101423         165.86032     6.6482102e-05        -12.291341        0.12959139        -172.90788

0.525        0.1225994          129.7071     0.00023058561         114.69548       0.040634064         104.95663     0.00015610407          115.1366
                  0.00023185709         114.15726        0.11868234         120.34473      0.0002384412         116.13961       0.038920229         94.625276
                    0.041927379         104.43934     0.00028314901         119.82661        0.11965607         128.97592     0.00017578022         117.26155
                  0.00020082529         119.92525       0.040265487         94.080402     0.00017415307         116.64512        0.11947484         119.26387

0.55      0.011852923         157.72167      0.0002547347          29.29056       0.030677827         -150.1103     0.00016031208         33.272276
                  0.00025619314          28.96385       0.013201444         164.41203     0.00026195953         33.899494       0.032757838        -159.74365
                    0.029605196        -150.12131     0.00030314884         35.091575       0.014749724         175.53171     0.00018924366         37.775206
                  0.00019861926         32.552941       0.031614106         -159.8041     0.00018612447         36.584577       0.013945177         165.08411

0.575      0.066428349         159.04071     4.4846295e-05         171.26991       0.045337184         138.29703     6.8705316e-05         122.79528
                  4.3913462e-05         172.62811       0.066939167          148.3513     5.8300984e-05         129.02745       0.046235263         128.12443
                     0.04467251         137.70289     3.4322794e-05         152.97244       0.063664715         157.41303     7.4799424e-05         111.87941
                  4.7881205e-05         153.73374       0.045476875         127.48619     7.5261132e-05          116.3246       0.064961068         146.08693

0.6      0.043535781        -145.97902     0.00028681581         57.033109       0.039243399        -137.44499     0.00023075867         44.161569
                  0.00028598758         56.914722        0.04868215        -151.93017     0.00032396739         49.593218       0.043836074        -147.27473
                    0.039169623         -136.2347     0.00032518292         56.126591       0.050147135        -138.44299     0.00026985002         42.980618
                   0.0002323792         56.844897       0.043835216        -146.11143     0.00027067609         44.349339       0.050900156        -148.08274

0.625        0.1626935         170.60729     0.00016369232        -26.723157        0.12363549         157.65967     8.4181875e-05        -52.595104
                  0.00016395593        -27.199607         0.1705328         159.76828      0.0001649728         -36.89916        0.12988117         147.00713
                     0.12314586         158.00439     0.00019256779        -23.170619        0.16730243         170.30234     0.00011140939        -48.921062
                  0.00010752434        -19.063388        0.12941057         147.36006     0.00011102359        -46.594741        0.17229879         159.28355

0.65       0.12920554         107.93516     0.00015292249          96.34576       0.095491441         94.298213     0.00018647101         89.282237
                   0.0001519038         97.061474        0.12793887         97.122789     0.00021322446         92.426693       0.094793479         84.257055
                    0.094512194         94.712009     0.00015918162         86.925289        0.12218212          107.3727      0.0002148017         88.238859
                   0.0001332807         79.796053       0.093814437         84.750147      0.0002138264         88.101799        0.12421726         96.276341

0.675       0.10363361        -179.14609     0.00028963549         1.0523998       0.070533069         152.12686     0.00025923587        -11.013262
                  0.00028810574          1.502258        0.11807738         170.75758     0.00036650023        -5.0927061        0.08126954         144.69694
                    0.071685641         152.66477     0.00032045787         -5.742351        0.11531753        -176.59342     0.00032805155        -9.9234753
                  0.00021365712        -11.787173       0.082541495         145.06036     0.00032789615        -9.1339162        0.12414792         171.82448

0.7       0.26126166         125.15814     4.6560191e-05        -100.30536        0.15840489         107.79784     6.3376503e-05        -156.40907
                  4.5324789e-05        -100.28484        0.26986064         113.72526     8.9603276e-05        -125.91728        0.16422214         97.165798
                     0.15937392         107.80029     6.4823737e-05        -129.61857        0.26542716         124.37809     8.6906102e-05        -132.91405
                  3.6494313e-05        -175.07734        0.16519316         97.139538     8.2845102e-05         -128.9476        0.27280635         112.83885

0.725       0.19845006         62.348879     0.00027920349         50.656214        0.10521576         49.317174     0.00024457321         55.156698
                   0.0002800432         50.598918        0.18882873         51.683879     0.00033927282         55.074087       0.097075694          39.48099
                     0.10564158         49.496299      0.0003288696         51.447836         0.1918625           61.6396     0.00029100117         56.264402
                  0.00022717855          46.88165       0.097567062         39.674616     0.00028485365         55.248773        0.18723326         50.932817

0.75      0.057414456         122.67137     0.00031847621        -45.429944       0.056167253         126.36208     0.00023948383         -49.28294
                  0.00031789818        -45.135662       0.079666847         117.90458     0.00038226664        -43.201668       0.074127613         118.52165
                    0.056680448         125.58006     0.00036040828        -47.264308       0.065457139         125.71767     0.00032216197        -44.744692
                   0.0002194504        -59.777475       0.074454753         117.81597     0.00031800604        -45.511895       0.083185735          116.8968

0.775        0.1825935         80.681772     0.00010004898         99.885567        0.11491712         68.112591     9.9170413e-05         101.81067
