! Created Thu Mar  2 13:35:01 2023
# ghz S ma R 45
! 4 Port Network Data from SP1.SP block
! freq  magS11  angS11  magS12  angS12  magS13  angS13  magS14  angS14  
!       magS21  angS21  magS22  angS22  magS23  angS23  magS24  angS24  
!       magS31  angS31  magS32  angS32  magS33  angS33  magS34  angS34  
!       magS41  angS41  magS42  angS42  magS43  angS43  magS44  angS44  
!     
0      0.076868159    -2.5267689e-13     1.4680344e-06     8.0239488e-14      0.0042623492     -3.963763e-12      1.110402e-06     1.0910245e-13
                  1.4693354e-06    -5.8160667e-14       0.077576512     1.9942594e-13     2.4690162e-06     4.1276557e-15      0.0037616603    -4.5665171e-12
                   0.0051062026      1.218195e-11     2.4639088e-06    -2.1330423e-14       0.077426229    -2.1525368e-14      1.988341e-06     6.1060003e-15
                  1.1094787e-06     1.0289126e-14      0.0046864324    -4.3431229e-12     1.9862843e-06     7.5731075e-14       0.078717732    -2.1412034e-13

0.025       0.16147262        -5.3455669     7.3143135e-06        -16.299448       0.095511732         12.772683     4.7058661e-06         -25.02136
                  7.3170381e-06         -16.42295        0.16171486        -5.2234544     1.1074263e-05        -12.571338        0.09620496         13.208318
                    0.095930306         12.351477     1.1069007e-05        -12.619914        0.16193426        -5.1413948     8.4431087e-06        -15.984775
                  4.7041299e-06        -25.162514       0.095691958         12.806744     8.4341643e-06        -15.940415        0.16150353        -5.3678594

0.05      0.076197003        -57.881775     3.1688598e-05         113.74569       0.033166832         -48.50116     2.0061391e-05          114.5949
                  3.1717021e-05         113.84199       0.076460907        -57.739746     4.8705766e-05         112.73261        0.03412895        -48.405385
                    0.033694967        -49.736798     4.8744409e-05         112.73849        0.07682452        -58.030586     3.6464223e-05         113.38051
                  2.0105176e-05         114.62386       0.033151125        -48.439141     3.6472142e-05         113.29978       0.075686088        -57.971989

0.075       0.15068592         25.872705     5.2198945e-05         18.781586        0.12844553         33.458585     3.2087083e-05         11.381889
                  5.2253864e-05         18.827831        0.15100983         26.591845     8.0756857e-05         22.216437        0.12812861         34.232785
                     0.12773339         33.485498     8.0772045e-05          22.20323        0.15076755         26.083298     6.0589374e-05         19.657397
                  3.2107654e-05          11.36599        0.12898731          34.10005     6.0545615e-05         19.602349         0.1521895         26.625423

0.1       0.21995366        -35.173513     1.2425077e-05        -136.34173        0.16956872        -33.571006     1.0573557e-05        -138.24526
                   1.244962e-05        -136.36563        0.22084141         -34.39085     1.5735035e-05        -143.16844        0.16987057        -32.419702
                     0.16892577        -33.721878      1.577757e-05        -143.28843        0.22045969        -35.041358     1.3832533e-05        -136.49262
                  1.0615054e-05        -138.38126        0.17014509        -32.700031     1.3841971e-05        -136.62378        0.22189688        -34.541831

0.125      0.061883046        -70.356922     9.0569065e-05         67.981289       0.038846166        -82.985925     5.6286757e-05         68.258142
                  9.0687417e-05         67.976269       0.061183921        -69.365265     0.00013926246         67.458394       0.038611029         -80.29082
                    0.037831339         -84.05703     0.00013944018         67.434183       0.062576013        -69.031867     0.00010448356         67.524218
                  5.6483753e-05         68.207208       0.037752137        -81.400229     0.00010453312         67.504279       0.061093236        -69.311882

0.15       0.18632965        -15.842205      7.117036e-05         -29.00583         0.1337051        -13.870302     4.2466796e-05        -38.849463
                  7.1300704e-05        -29.039431        0.18917539        -14.471282     0.00010858934        -25.046058        0.13576509        -12.618612
                     0.13404835         -13.46925     0.00010866161        -25.122389        0.18762421        -16.165647     8.2940773e-05         -28.22833
                  4.2576801e-05        -39.017461        0.13666662        -12.378222     8.2907221e-05         -28.28011        0.19083235        -14.561503

0.175       0.21082051        -75.946013     4.8974716e-05         119.13556        0.14412907        -80.309947     3.2447955e-05         125.48425
                  4.8983465e-05         119.18923        0.21286335        -74.417818     7.7642078e-05         114.14877        0.14468514        -78.381739
                     0.14412041        -80.056013     7.7681837e-05         114.18844        0.21123216        -76.057272     5.6776594e-05         117.91843
                   3.248225e-05         125.56095        0.14564418        -78.413588     5.6794053e-05         117.93293        0.21464121        -74.587212

0.2      0.056399954        -114.37117     0.00014851088         24.190912       0.032433615        -139.38434     9.1486234e-05         24.056791
                  0.00014854253         24.148781       0.054440709        -109.82744     0.00022530937         23.941247       0.028999598        -132.93221
                    0.031951145         -138.4987     0.00022539259         23.929477       0.056466327        -112.16266     0.00017152971         23.527068
                  9.1570591e-05         24.025864        0.02939889        -134.41143     0.00017156971         23.556819       0.055069608        -109.76293

0.225       0.12330655          -57.6563     5.8605524e-05        -66.805918       0.065287515        -60.134028     3.2860419e-05        -77.888779
                  5.8647263e-05         -66.99478        0.12936395        -55.843095     8.5194215e-05        -63.400626       0.070800497        -58.321365
                    0.066338226        -60.072246     8.5223098e-05        -63.509306        0.12550332        -58.959269     6.7804197e-05        -66.756211
                  3.2936251e-05        -78.178403       0.070712154        -57.663427     6.7821618e-05        -66.706359        0.13076526        -56.383905

0.25       0.10972673        -111.90542     0.00012633436         51.086952       0.035886376         -123.9448     8.1649717e-05         50.886987
                  0.00012640228         51.184493        0.11001289        -109.50024     0.00019370703         51.146775       0.035163688        -121.31388
                      0.0370347        -123.81871     0.00019369449         51.183848        0.10910889        -112.89671     0.00014668447         50.793016
                   8.163491e-05         50.986406       0.035876984        -120.21892     0.00014658455         50.757783        0.11091606        -110.06121

0.275      0.056661553         -75.39166     0.00017371666        -31.639536       0.047610837        -52.767271     0.00010427472        -36.899334
                  0.00017380369        -31.632154       0.063241044          -68.0773     0.00026062109        -29.578215       0.054915437        -47.338978
                    0.047317787        -53.387395     0.00026060214        -29.573808       0.058050467        -74.489397     0.00020170885        -31.661246
                  0.00010425915        -36.887574       0.054508156        -47.723312     0.00020158694        -31.656084       0.063619939        -68.459613

0.3      0.086260843        -92.389472     1.1220136e-06         173.32529       0.053263221        -100.03315     9.7255088e-06         111.83021
                   1.288485e-06         167.73786       0.091580752          -90.4699     4.2278072e-06         41.259462       0.058358038        -97.115077
                    0.052896715        -100.79289     4.4079035e-06         41.267074       0.087761158         -94.03784     1.0136694e-06         145.48408
                  9.8300586e-06         110.95219       0.057114779          -96.9476     7.8859248e-07         136.48173       0.092168525        -91.482021

0.325      0.063977617        -64.471775     0.00019887185        -11.039244       0.058694344        -26.811594     0.00012689022        -16.952672
                  0.00019913192         -11.00564        0.06876941        -56.588513     0.00029800588        -8.2576828       0.065557247        -21.880191
                    0.058576689        -26.391581     0.00029812932        -8.2798716        0.06478978        -63.576879     0.00023154984        -10.769723
                  0.00012706863        -16.989504       0.065878791        -21.972972     0.00023141709        -10.819739       0.069114573         -56.80077

0.35       0.15162942        -79.564048     0.00016034071        -91.299735        0.12817214        -80.118028     9.4280673e-05        -103.89039
                  0.00016064433        -91.311492        0.16321333        -76.301888       0.000238134        -87.397138        0.13756892        -75.970551
                     0.12750266        -79.890846     0.00023805797        -87.406858        0.15589988        -79.271881      0.0001869182        -90.787022
                  9.4282152e-05        -103.92154        0.13755498        -76.373945     0.00018657106        -90.788681        0.16607665        -76.483164

0.375       0.13607482        -136.74585     8.0357474e-05         40.204185       0.094740538        -149.39118     5.8625352e-05         43.215388
                  8.0430362e-05         40.238301        0.13634063        -132.42554     0.00012232521         38.577006       0.093947925         -143.7871
                    0.093709897        -149.28911     0.00012256086         38.458751        0.13692114        -136.91564     9.4673303e-05         38.838578
                  5.8858614e-05         42.998683       0.092932515        -144.22364     9.4807717e-05         38.685884        0.13674864        -132.85924

0.4      0.049236973        -87.379082     0.00026488842        -53.852023       0.026797418        -75.129303     0.00016537654        -59.849214
                  0.00026519079         -53.88933        0.06367604        -76.011727     0.00039039455         -51.84245       0.040173819        -64.696957
                    0.027843748        -73.534942     0.00039049881        -51.941314       0.053331436        -84.035737     0.00030828431        -54.247818
                  0.00016561373        -60.075838       0.041564667        -63.742379     0.00030817249        -54.318762       0.067207909        -74.347188

0.425       0.19399567        -121.35895     0.00011193405        -143.09519        0.11566304        -133.08529     6.1751955e-05        -162.41212
                  0.00011217203        -143.25263        0.20430415        -117.07692      0.0001670329        -139.42997        0.12219194        -127.14533
                     0.11660972        -132.81345     0.00016685498        -139.55567        0.19960058         -121.6728     0.00012970787        -142.91835
                  6.1751842e-05        -162.77164         0.1234918        -127.27858      0.0001294198         -142.9495        0.20928808        -117.50095

0.45       0.19403063         173.89863     0.00016997836        -4.8761103        0.10605393         158.63922     0.00011076753        -4.7125622
                  0.00017005125        -4.8415527         0.1861103         179.80081     0.00025328631        -4.6766373       0.096261123         165.35881
                     0.10642713         158.91649     0.00025341296        -4.6775654         0.1938697         173.78486     0.00020108299         -5.941585
                   0.0001108647        -4.7048976       0.096902185         164.91316      0.0002011297        -5.9568191        0.18689091         179.42635

0.475      0.042520173         143.38189     0.00029166153        -90.041166       0.022883407         142.92033     0.00017370063        -95.104868
                  0.00029155327        -90.096484       0.037160951         175.70957      0.0004285516        -88.874144       0.021234078        -165.44658
                    0.023361926         145.57579      0.0004283977        -88.925133       0.041695751         152.97971     0.00033738336        -91.014488
                  0.00017356851         -95.23881       0.020900365         -164.3009     0.00033739805        -91.016958       0.039336341        -176.65965

0.5        0.1296309        -163.09687     3.6625709e-05         172.43791       0.060931808         175.96862     1.7538501e-05         110.36943
                  3.6523434e-05         171.75137        0.13140676        -157.21446     5.9481432e-05         178.47662       0.059960295        -177.05057
                    0.062094914         175.54203     5.9252575e-05         178.16222        0.13342116        -164.60756     3.8286383e-05         171.12877
                  1.7755416e-05         109.21457       0.060783571        -176.42849     3.8273627e-05         171.27519        0.13557465        -158.42767

0.525        0.1225994          129.7071     0.00029311492        -61.407164       0.040634064         104.95663     0.00019175095        -65.287064
                  0.00029351386        -61.354534        0.10395706         138.96123     0.00042437529        -60.126488       0.021195448         106.10895
                    0.041927379         104.43934     0.00042440739        -60.090177        0.11965607         128.97592     0.00034564791        -62.253618
                  0.00019178666         -65.19899       0.022502929         107.12276     0.00034530528        -62.252747        0.10354817         138.12972

0.55      0.011852923         157.72167     0.00029364471        -140.40921       0.030677827         -150.1103     0.00017149922        -148.44034
                   0.0002937892        -140.42456        0.02235937        -159.22291     0.00043361453        -137.74728       0.043650895        -139.88047
                    0.029605196        -150.12131      0.0004335885        -137.68794       0.014749724         175.53171     0.00033589568        -139.81377
                  0.00017141981        -148.30193       0.042160315        -139.50138     0.00033573968        -139.73233       0.024708794        -155.58416

0.575      0.066428349         159.04071     9.4427815e-05         -48.79891       0.045337184         138.29703     8.0937344e-05        -44.588428
                  9.4815698e-05        -48.656235       0.055037638         173.49104     0.00012290133        -50.988722        0.03242998         148.03483
                     0.04467251         137.70289     0.00012312802        -51.202068       0.063664715         157.41303     0.00011708379        -49.680305
                  8.1171547e-05        -44.897637       0.031476315         149.57209     0.00011688587        -49.974276       0.053352909         172.44666

0.6      0.043535781        -145.97902     0.00039556944        -124.03101       0.039243399        -137.44499     0.00025750502        -132.55729
                  0.00039637402        -124.05258       0.067216163        -129.94649      0.0005712374        -121.43923       0.059970335        -122.77711
                    0.039169623         -136.2347     0.00057106196        -121.47013       0.050147135        -138.44299     0.00046038309        -124.07799
                  0.00025750686        -132.63191        0.06019173        -123.74105     0.00045954118        -124.09242       0.071605867        -127.51533

0.625        0.1626935         170.60729      0.0001988248         153.60949        0.12363549         157.65967     0.00011085276         132.91617
                  0.00019913702         153.50865        0.16505027         178.57432     0.00031259157         159.12043        0.12321291         167.08316
                     0.12314586         158.00439     0.00031235504         159.16228        0.16730243         170.30234     0.00022649535         154.55878
                  0.00011064894         132.94735        0.12223408         166.70817     0.00022601204          154.6827         0.1674996         178.14243

0.65       0.12920554         107.93516     0.00023478187         -79.09117       0.095491441         94.298213      0.0001672334        -80.807669
                  0.00023494035        -79.114925        0.10659801           119.122      0.0003231307        -79.518227       0.074146625         103.33601
                    0.094512194         94.712009     0.00032319397        -79.695084        0.12218212          107.3727      0.0002795679        -81.082656
                  0.00016733636        -81.128876       0.072404476         103.47364     0.00027949386         -81.22336        0.10094206          118.9345

0.675       0.10363361        -179.14609     0.00040995379        -173.48289       0.070533069         152.12686     0.00025264809         174.94737
                  0.00041017423        -173.56906        0.12110973        -169.26799     0.00061097618        -170.58706        0.07939581         167.47533
                    0.071685641         152.66477     0.00061035373        -170.68756        0.11531753        -176.59342     0.00047336825        -173.93485
                  0.00025225263          174.6845       0.080824536         167.83084     0.00047281137        -173.98072        0.13023907        -167.92504

0.7       0.26126166         125.15814     7.9229151e-05         76.692277        0.15840489         107.79784     5.5955844e-05         30.501644
                  7.9365896e-05         76.342283        0.25154816         133.53214     0.00014131778         92.909315        0.14597009         116.66489
                     0.15937392         107.80029     0.00014087771         92.849248        0.26542716         124.37809     8.6932417e-05         76.564159
                  5.5851286e-05         30.117342        0.14677034         116.36753     8.6516309e-05         76.651769        0.25514626         132.72542

0.725       0.19845006         62.348879     0.00036161009        -117.05679        0.10521576         49.317174      0.0002376594        -119.38687
                  0.00036163696         -117.0612        0.17349457          70.51345     0.00051788759        -117.26754       0.082672873         56.251691
                     0.10564158         49.496299     0.00051778272        -117.28857         0.1918625           61.6396     0.00042550975        -118.76842
                  0.00023751108        -119.42171       0.082552917         55.799455     0.00042544499        -118.78402        0.16901647         69.850749

0.75      0.057414456         122.67137     0.00041104852         150.16631       0.056167253         126.36208     0.00024161473         138.76524
                   0.0004106497         150.13765       0.058947725          136.4784     0.00062643879         153.31092       0.056990363         137.86432
                    0.056680448         125.58006     0.00062578257         153.28185       0.065457139         125.71767     0.00046558437         149.89628
                  0.00024098828         138.67109         0.0576902         138.39668     0.00046551462         149.88069       0.065696139          137.8502

0.775        0.1825935         80.681772     0.00010775259        -83.643848        0.11491712         68.112591     0.00010920635        -84.073349
