! Created Thu Mar  2 12:34:49 2023
# ghz S ma R 45
! 4 Port Network Data from SP1.SP block
! freq  magS11  angS11  magS12  angS12  magS13  angS13  magS14  angS14  
!       magS21  angS21  magS22  angS22  magS23  angS23  magS24  angS24  
!       magS31  angS31  magS32  angS32  magS33  angS33  magS34  angS34  
!       magS41  angS41  magS42  angS42  magS43  angS43  magS44  angS44  
!     
0      0.069622059    -2.9352304e-13     2.5955995e-06              -180      0.0041009243    -4.1541364e-12     3.4277758e-07     1.1691055e-14
                  2.6015315e-06              -180       0.071040788    -2.8431056e-13     1.5250432e-06              -180      0.0042975731    -3.9644979e-12
                   0.0049466867     1.2741032e-11     1.5449984e-06               180       0.070189348    -2.7925002e-14     3.4537901e-07              -180
                  3.5956563e-07     6.1617808e-13      0.0050593848     1.2455921e-11     3.4600656e-07               180       0.068466275    -2.9963912e-14

0.025       0.15086746         1.7635963     3.7424429e-06         70.664212       0.088036342         20.827781     1.1946346e-05         21.780511
                  3.7361505e-06         70.757561        0.15040487         1.9948448     5.5789089e-06        -179.77273       0.087906931         21.115504
                     0.08846518         20.383313     5.5716716e-06        -179.70584        0.15134349         1.9745713     1.3252877e-06          172.3767
                  1.1952092e-05          21.76097       0.088377894         20.688097     1.3295487e-06         172.65975        0.15122416         2.3792669

0.05       0.11797414        -47.170443     2.3036915e-06        -46.815872       0.062983086        -39.363855     2.2291218e-05        -49.021155
                  2.2891858e-06         -46.92398        0.11885771        -46.766026     1.1832359e-05         132.64361       0.063724221        -38.850951
                    0.063649829          -39.9038     1.1830663e-05          132.7089        0.11878274        -47.290274     2.9225601e-06         138.35409
                  2.2292928e-05        -49.063343       0.064412682        -39.395242     2.9414645e-06         138.41926        0.11989555        -46.941344

0.075      0.067567633         40.238741     6.7154734e-06        -43.783248       0.070454138         55.262858      3.234709e-05        -108.33244
                  6.7011384e-06        -43.586963       0.065611432         40.940294     1.8217011e-05         50.544229       0.069192743         56.019805
                    0.069647576         55.173646     1.8221151e-05         50.582607       0.066980132         41.452988     4.7270414e-06         43.915229
                  3.2333258e-05        -108.35598        0.06838188          55.93498     4.7473775e-06         44.033215       0.065041256         42.333334

0.1       0.19918931         -6.371165     1.4375165e-05        -170.05699        0.15960204        -1.8540167      4.848512e-05        -178.57886
                  1.4341879e-05        -170.04066        0.19919337        -5.2210876     1.5159684e-05        -7.0159603        0.15975746       -0.71270834
                     0.15895157         -1.998697     1.5170972e-05        -6.9715094        0.19989183        -6.1896682     2.4967183e-06        -4.6275347
                  4.8469051e-05         -178.5911         0.1591074       -0.85692761     2.5258398e-06        -4.2820554        0.19992978        -5.0276237

0.125       0.16122063        -59.941842     1.1670552e-05         64.889964        0.11821917        -61.222953     5.5208498e-05           108.764
                  1.1639344e-05         64.728541        0.16410601        -58.757238      2.669443e-05        -53.605905        0.12016544         -59.85504
                     0.11764803        -61.618664     2.6732396e-05        -53.612688        0.16179408         -59.86632     6.8869579e-06        -39.004036
                  5.5167026e-05         108.75248        0.11959716        -60.244605     6.9473676e-06        -39.176157        0.16450484        -58.664479

0.15      0.050157821         1.7452374     6.8232808e-06         92.322026       0.038005166         26.112541     6.3349262e-05         49.757331
                  6.7936974e-06         92.695177        0.04769975         1.4930524     3.4254034e-05         -140.3155       0.036068226          26.71629
                    0.037977333          27.72342     3.4288159e-05        -140.39372       0.050874048         1.9591358     8.6283718e-06        -140.12957
                  6.3317726e-05         49.805095       0.036016038         28.413684     8.6972146e-06        -140.26083       0.048540548         1.9361795

0.175       0.20753481        -26.046018     2.4390644e-05        -32.880188        0.15761723         -25.07143     8.2438341e-05        -21.676484
                  2.4335961e-05        -32.876783         0.2089682        -24.092712     2.6454375e-05         167.13546        0.15885928        -23.022398
                     0.15754772        -24.781661     2.6423735e-05         167.06282          0.209011         -26.15055     5.7094114e-06        -170.80893
                  8.2456474e-05        -21.650843        0.15878905        -22.734315     5.7384791e-06        -171.15742        0.21042022        -24.177315

0.2       0.21691565        -79.502787     2.6438592e-05        -156.64284        0.15691497        -83.806997     8.3894479e-05        -94.217149
                  2.6405401e-05        -156.75676        0.22155213        -77.321516     4.4957005e-05         115.10354        0.16048031        -81.225944
                      0.1564606        -83.671123      4.493765e-05         115.09643         0.2176956        -79.496607     1.3019226e-05         129.06829
                  8.3898107e-05        -94.206653         0.1600304        -81.093519     1.3076637e-05         128.89517        0.22209324        -77.306973

0.225      0.071440636        -117.06465     7.5633358e-06         81.540621       0.046053238        -137.22464     8.6072234e-05        -152.89595
                  7.5836235e-06         81.057368        0.07419026        -115.47891     5.7395579e-05         31.308343       0.048199776        -134.26317
                    0.045112497        -137.00408     5.7354501e-05         31.270755       0.071435863        -115.27514      1.624263e-05         36.678258
                  8.6102364e-05        -152.86277       0.047257726        -134.05816     1.6325032e-05         36.496515       0.073875399        -113.70035

0.25       0.13229889        -47.806993     2.0734221e-05         111.07737       0.079944617        -48.006327     0.00010798107         138.92096
                  2.0663515e-05         111.04672         0.1361004        -45.040748     4.9231197e-05        -32.510653       0.083341155        -44.964998
                    0.081072431        -47.639421     4.9141789e-05        -32.464941        0.13533265        -48.679351      1.229309e-05        -19.962281
                  0.00010807309         138.90958       0.084473082        -44.609255     1.2323076e-05        -20.262638        0.13907235        -45.864236

0.275       0.19069264        -99.633748     3.0329247e-05        -16.010252        0.10519447        -108.32681     0.00010630229         67.517473
                  3.0305967e-05         -16.14503         0.1970467        -96.557236     6.7449112e-05        -91.197148        0.11011005        -104.50552
                     0.10616018        -108.03217     6.7447778e-05        -91.112051        0.19215527        -100.20252     1.9660743e-05        -81.408526
                  0.00010633093         67.469826        0.11108161          -104.228     1.9702379e-05        -81.496501        0.19814906        -97.111365

0.3       0.11581544        -152.84672     1.8890006e-05        -144.91479       0.051673629        -169.20215     0.00010739735         8.4388882
                  1.8950432e-05         -145.0946         0.1179426        -148.84318      7.962802e-05         -169.2382       0.052474766        -164.11198
                    0.052182593        -168.58878     7.9669459e-05        -169.19024        0.11462303         -152.4949     2.2387899e-05        -164.32893
                  0.00010735413         8.4089394       0.052993991        -163.52421      2.247925e-05        -164.37883        0.11643362        -148.49043

0.325      0.046548985        -103.54237     6.3813046e-06        -134.14793       0.026882332        -106.52501     0.00012681681        -58.131434
                  6.3298917e-06        -134.85269       0.052539589        -96.076107      7.571922e-05         123.92154       0.031618791        -95.681178
                    0.027293929        -106.79716     7.5750131e-05          123.9507       0.049006106        -102.93376     2.0303531e-05         131.74097
                   0.0001267918         -58.14555        0.03201735        -95.990118     2.0392561e-05          131.5663       0.054919272        -95.809434

0.35       0.10239281        -114.84998     1.7907841e-05         132.05036       0.038551614        -130.46186     0.00013170633        -126.56605
                  1.7891375e-05          131.7176        0.10929821        -111.43615     8.4701514e-05         59.913214          0.043952        -124.82229
                    0.039448964        -131.18479     8.4806824e-05         59.944464        0.10378615        -116.88877      2.332997e-05         67.179005
                  0.00013160942        -126.59159       0.044842662        -125.48819      2.339331e-05         67.047063        0.11023315        -113.36748

0.375      0.065675827        -160.55306     8.3872681e-06         8.4444708      0.0073032791         -22.65545     0.00014146958         170.41976
                  8.4656133e-06          7.898517       0.065705146        -154.04869     8.8392861e-05        -12.228535      0.0095638425        -24.398945
                   0.0060701322        -20.593552     8.8528141e-05         -12.26026       0.062896933        -161.09285     2.2482683e-05        -4.5835154
                  0.00014133162         170.44177      0.0083110314        -23.831861     2.2577534e-05        -4.6311395       0.062631376        -154.45176

0.4      0.037281235        -102.71858     1.0169177e-05         40.661985       0.054700729        -82.828647     0.00015524845         101.33823
                  1.0071836e-05         40.283767       0.046269781        -95.861239     8.8209287e-05        -74.353358       0.062646635        -78.141221
                    0.053544852        -82.852219     8.8257681e-05        -74.430563       0.041626338        -100.85897     2.4192575e-05        -60.671321
                  0.00015518647         101.38257       0.061497576        -78.171222     2.4325557e-05        -60.851978       0.050329699        -94.717292

0.425      0.069983551        -131.06236     1.4856037e-05        -81.384048       0.047222127        -147.79943     0.00015478864         35.250872
                  1.4853725e-05        -81.888124       0.075798869        -126.71928     0.00010217625        -141.79326        0.05153702        -141.14268
                    0.046393365        -148.31086     0.00010216132         -141.8531       0.071090398        -133.19884     2.8948102e-05        -133.62614
                  0.00015479942         35.290902       0.050698665        -141.60136     2.9064458e-05        -133.84551       0.076271624        -128.69924

0.45      0.032086021        -126.46839     5.8690644e-06        -90.754882       0.018723259         -54.58772     0.00017152757          -29.7438
                  5.7393926e-06        -91.427735       0.034780092        -112.48872     9.8767527e-05         148.89033       0.024322443        -48.432644
                    0.018817911         -52.07165     9.8700653e-05         148.84291       0.029815165        -118.48998     2.5906928e-05         160.87462
                    0.000171586        -29.720279       0.024426851        -46.479524     2.5996091e-05         160.67721       0.033102425        -104.44135

0.475       0.11301587        -108.98994     3.3297249e-05         172.99795       0.096464039        -111.70824     0.00017368893        -102.01387
                  3.3199531e-05         172.78487        0.12332283        -103.07381     0.00010942936         91.322225        0.10509818        -104.84846
                    0.096128899        -111.20846     0.00010933731         91.324023        0.11999123        -108.19766     3.4383496e-05         102.89742
                  0.00017375332        -102.00557        0.10478097        -104.39143     3.4508946e-05          102.7109        0.12954503         -102.4058

0.5       0.16064271        -161.92169     4.4110818e-05         46.156974        0.11825805        -174.54738     0.00015848779        -164.14359
                  4.4162253e-05          45.94475        0.16442066        -154.85907     0.00013370714         18.479151        0.11972308        -166.66021
                     0.11742879        -174.28442     0.00013363213         18.488269        0.16356947        -162.47802     3.9618691e-05         21.789049
                  0.00015855677        -164.14221        0.11890002        -166.39505     3.9781647e-05         21.565078        0.16619403        -155.40293

0.525      0.078143355         149.61345     1.9582419e-05        -79.868118       0.053828874         128.82741     0.00018400006         134.94968
                  1.9761075e-05        -80.069859       0.072382806         161.40902     0.00012432204        -55.222898       0.045522812         138.89811
                    0.052619191         129.30157     0.00012423593        -55.173683       0.072981075         150.23593     3.2201482e-05        -48.503145
                  0.00018406885         134.91521       0.044328052         139.56105     3.2307329e-05        -48.845002       0.066667145         162.67583

0.55       0.11301802        -131.06507     3.4169954e-05        -49.060313       0.069207174        -143.35569     0.00018865462          60.66942
                  3.4038332e-05        -49.302479        0.12323387        -123.68071     0.00013118001        -112.59564       0.077018882        -134.05696
                    0.070470939        -143.03077      0.0001312884        -112.53528        0.12364828        -129.92474     3.9918105e-05        -107.00025
                  0.00018855176         60.627315       0.078298035        -133.80807     3.9959682e-05        -107.23247        0.13258166        -123.31943

0.575       0.23293857         173.82871     6.8533631e-05        -177.87368        0.13913579         157.01712     0.00016581783         1.5428459
                  6.8572551e-05        -178.01242        0.23346477        -177.68954     0.00015602296         172.43656        0.13712297         166.15423
                      0.1399256         157.18728     0.00015615443         172.43605        0.23807201         173.48812     4.3566088e-05         170.16746
                  0.00016569323         1.5582734        0.13791856         166.31737     4.3670251e-05         169.97829        0.23784614        -178.27783

0.6       0.20780491         115.47563     6.5715687e-05         56.621055        0.12096754         100.76719     0.00019883859         -55.83036
                  6.5884011e-05         56.577266        0.19935177         124.69822     0.00014061363         97.330779        0.11167405         109.38049
                     0.12107341         101.01744     0.00014067663         97.328293        0.20404379          115.1261     3.3585238e-05         99.161837
                  0.00019880073        -55.817128        0.11178393         109.65618     3.3698136e-05         98.866376        0.19528063         124.21559

0.625      0.040853627         108.71345     1.2750829e-05        -35.903092       0.026129925         107.49097     0.00022145281        -129.79247
                  1.2956523e-05        -35.979251       0.038773682         128.82696     0.00013471786         40.836948       0.023099943         131.77791
                    0.026966324         110.05867     0.00013494848         40.827036       0.040644755         125.04247     3.6019712e-05         49.374065
                  0.00022125431        -129.77604       0.024245422         133.96999      3.599778e-05         49.031052       0.041070369         144.26873

0.65       0.17808058         151.28963     5.6519355e-05        -40.292586         0.1057498         133.02987     0.00020175715         166.15867
                  5.6527509e-05        -40.459442        0.17383999         160.94554     0.00016256526        -31.027559       0.099917147         142.81613
                     0.10702457         132.69381     0.00016268778         -31.10767        0.18488282         150.14377     4.2147608e-05        -32.047656
                  0.00020171393         166.22728        0.10117615         142.44368     4.2131434e-05        -32.239832        0.18008335         159.79375

0.675       0.21761886         93.120614     7.5016991e-05        -164.74897        0.11112275         76.434041     0.00023516407         105.64644
                  7.5110214e-05        -164.78717        0.20670993         102.74631     0.00013901836        -105.38699        0.10038101         84.775899
                     0.11227872         76.170718     0.00013896787        -105.47905        0.21562038         91.957943     2.8593501e-05        -98.992263
                  0.00023532168         105.68616        0.10154745         84.487818     2.8609477e-05        -99.171385        0.20488373         101.63135

0.7      0.099972738         37.327517      4.118146e-05         71.792439       0.028466973         28.521195     0.00025892055         33.032813
                  4.1250928e-05         71.901285       0.094633044         46.259147     0.00012924623        -158.03595       0.023772736         33.526306
                    0.029297244         27.924704     0.00012910567        -158.06576       0.092904723         37.244892     3.4161893e-05        -140.65493
                  0.00025907997         33.042509       0.024630172         32.948642     3.4166945e-05        -140.86403       0.088199774         46.184533

0.725      0.076154529         116.83897     2.6788479e-05         79.497068       0.072924183         117.50683      0.0002455819        -32.385374
                   2.688966e-05         79.376075       0.065718914         127.02641     0.00016003239         131.91025       0.063233853         127.64202
                    0.072581317         116.94454     0.00015990441         131.87957       0.078846186         115.66638      4.113276e-05          136.3191
                  0.00024573741         -32.37826       0.062871926         126.99837      4.113533e-05         136.15095       0.068140688         125.89499

0.75       0.10878496         73.444828     4.4387509e-05        -29.610137       0.071269935         63.102124     0.00026970588         -97.72224
                  4.4493923e-05        -29.569692       0.096077515         84.799835     0.00014441068          62.31378       0.059587324         72.226508
                    0.071264404         62.323605     0.00014421031         62.306659        0.10390349         71.225779     3.2078757e-05         75.840006
                  0.00026988331        -97.735483       0.059590727         71.297503     3.2102642e-05         75.683594       0.091604409         82.626352

0.775       0.02742677         99.906335     8.7107352e-06        -90.112649       0.040341362         144.09195     0.00026287738        -167.72604
