! Created Thu Mar  2 12:43:04 2023
# ghz S ma R 45
! 4 Port Network Data from SP1.SP block
! freq  magS11  angS11  magS12  angS12  magS13  angS13  magS14  angS14  
!       magS21  angS21  magS22  angS22  magS23  angS23  magS24  angS24  
!       magS31  angS31  magS32  angS32  magS33  angS33  magS34  angS34  
!       magS41  angS41  magS42  angS42  magS43  angS43  magS44  angS44  
!     
0      0.069622059    -2.9352304e-13     6.3428518e-08               180      0.0041009243    -4.1541364e-12     2.1842478e-07              -180
                  6.5234495e-08              -180       0.070748693     7.7537303e-13     1.4417805e-05     1.6523239e-14      0.0040243212    -1.8747086e-12
                   0.0049466867     1.2741032e-11     1.4417376e-05     1.6748604e-14       0.070189348    -2.7925002e-14     3.0488734e-07              -180
                   2.188633e-07               180      0.0051422741     8.8993511e-12     3.1057598e-07              -180       0.070449961    -5.1794726e-13

0.025       0.15086746         1.7635963      7.101284e-06         176.23038       0.088036342         20.827781     5.2513389e-06         174.30793
                   7.079461e-06         176.32418        0.15127946         1.5781518     4.0274856e-05         27.816284        0.08825585         20.804219
                     0.08846518         20.383313     4.0279302e-05         27.829501        0.15134349         1.9745713     7.8678919e-06         176.74811
                  5.2495197e-06         174.10708       0.088756804         20.241106     7.8467593e-06         176.79872        0.15154183         1.8932757

0.05       0.11797414        -47.170443     8.4614232e-06        -17.114895       0.062983086        -39.363855     9.2974054e-06         -30.26647
                   8.406141e-06        -17.368073        0.11709591        -47.193637     0.00011422273         122.01712       0.062220784         -39.38628
                    0.063649829          -39.9038     0.00011421676         121.99815        0.11878274        -47.290274     9.8617173e-06        -21.145352
                  9.3375961e-06        -30.087815        0.06302754        -40.035587     9.8127104e-06        -21.359989        0.11789442        -47.353507

0.075      0.067567633         40.238741     3.4057946e-05        -117.05851       0.070454138         55.262858     3.0536853e-05        -128.53488
                  3.3919319e-05        -117.06458       0.069952037         40.435106     0.00026590696         64.838759       0.072477303         55.227797
                    0.069647576         55.173646     0.00026587258         64.828994       0.066980132         41.452988     3.8864166e-05         -117.6251
                  3.0541084e-05        -128.42263       0.071483523         55.079314     3.8722498e-05        -117.62074       0.069036191         41.633393

0.1       0.19918931         -6.371165     4.2953168e-05         147.89114        0.15960204        -1.8540167     2.6860087e-05         139.33071
                  4.2789664e-05         148.01141        0.20060165        -6.6512404       0.000108414          30.57543        0.16076087        -2.1058578
                     0.15895157         -1.998697     0.00010839478          30.57914        0.19989183        -6.1896682     4.6250826e-05         148.68361
                  2.6829704e-05         139.40064        0.15994969        -2.2907188     4.6079344e-05         148.80751        0.20101688         -6.451933

0.125       0.16122063        -59.941842     2.1500117e-05        -5.0050058        0.11821917        -61.222953      1.960648e-05        -32.966274
                  2.1283737e-05        -4.9198328         0.1595441        -60.185699     0.00032499176         103.22268        0.11680168        -61.470877
                     0.11764803        -61.618664     0.00032493904         103.21579        0.16179408         -59.86632     2.3432268e-05         -11.10103
                  1.9661948e-05        -33.146193        0.11610817        -61.957527     2.3205057e-05        -11.080914        0.16047814        -60.081274

0.15      0.050157821         1.7452374     6.6656667e-05        -133.02913       0.038005166         26.112541     5.8454836e-05        -145.02771
                  6.6453366e-05        -132.91072       0.053941232         4.4409681     0.00049752649         47.174385       0.041761289         27.060938
                    0.037977333          27.72342     0.00049738582         47.176878       0.050874048         1.9591358     7.5695421e-05        -133.99215
                  5.8655376e-05        -144.99369       0.041724959         28.790548        7.5499e-05        -133.86873       0.053892046         3.7776638

0.175       0.20753481        -26.046018     8.5179442e-05         128.66811        0.15761723         -25.07143     4.8137145e-05         118.21156
                  8.5100913e-05         128.85759        0.21019646         -26.50699     0.00013606057         40.561165         0.1595667        -25.526167
                     0.15754772        -24.781661     0.00013607806         40.610569          0.209011         -26.15055     9.1180832e-05         129.04539
                  4.8388755e-05         118.28426        0.15941239        -25.186677      9.113848e-05          129.2437        0.21085412        -26.627668

0.2       0.21691565        -79.502787     4.2519381e-05        -13.510324        0.15691497        -83.806997     2.9153897e-05        -45.620993
                  4.2286133e-05        -13.146643        0.21491294        -79.943628     0.00056405276         83.464581        0.15508832        -84.278483
                      0.1564606        -83.671123     0.00056404788         83.460378         0.2176956        -79.496607     4.4514862e-05        -18.029698
                   2.915474e-05        -45.390129        0.15448244        -84.105264     4.4268169e-05         -17.66893        0.21618075        -79.938678

0.225      0.071440636        -117.06465     9.8035288e-05        -144.60944       0.046053238        -137.22464     8.2999856e-05        -152.06634
                   9.782594e-05        -144.44551       0.066089173        -114.33792     0.00069082672         28.630553       0.040874056        -135.99353
                    0.045112497        -137.00408     0.00069072248         28.639756       0.071435863        -115.27514      0.0001101391        -145.78043
                  8.3091522e-05        -152.11031       0.039769691        -135.57654     0.00010994548        -145.63659       0.067803822        -113.43982

0.25       0.13229889        -47.806993     0.00012845558          124.4059       0.079944617        -48.006327         7.589e-05         119.32333
                  0.00012859993         124.53017        0.13691912        -48.273026       0.000144245           63.1171       0.083106307        -48.434557
                    0.081072431        -47.639421     0.00014447313         63.112716        0.13533265        -48.679351     0.00013759485         124.15373
                  7.6111732e-05         119.06618       0.084376273        -48.044272     0.00013778131         124.25247        0.13802907        -49.265856

0.275       0.19069264        -99.633748     4.8674725e-05        -12.673744        0.10519447        -108.32681     2.4268798e-05        -71.159965
                  4.8768083e-05        -12.300176        0.18852993        -100.22051     0.00083046222         65.447775        0.10273014        -108.94201
                     0.10616018        -108.03217     0.00083047671         65.435985        0.19215527        -100.20252     4.9129408e-05        -17.896074
                  2.4584035e-05        -70.663713        0.10376839        -108.57595     4.9259278e-05        -17.545609        0.18994834        -100.82202

0.3       0.11581544        -152.84672     0.00013979003        -162.81902       0.051673629        -169.20215      0.0001093912        -171.93994
                    0.000139609        -162.66366        0.10801046        -152.38352     0.00080372746         10.215955       0.044938082        -169.64832
                    0.052182593        -168.58878     0.00080369193         10.212026        0.11462303         -152.4949     0.00015487879        -163.86546
                  0.00010952261        -171.86767       0.045469535        -168.73668      0.0001547505        -163.73366        0.10900428        -152.38692

0.325      0.046548985        -103.54237     0.00018333954          114.8783       0.026882332        -106.52501     0.00011048876         113.13052
                  0.00018348728         115.01091       0.051183233        -98.888204     0.00024276272         82.064499       0.030081038        -100.75054
                    0.027293929        -106.79716     0.00024286194         82.040747       0.049006106        -102.93376     0.00019623603         114.59504
                  0.00011057131         113.06479       0.030563411        -101.13828       0.000196395          114.6946       0.051676069          -100.629

0.35       0.10239281        -114.84998     5.9268838e-05       0.017710205       0.038551614        -130.46186     8.3197578e-06        -99.345893
                   5.955061e-05         0.3051447        0.10055246        -115.14451      0.0011003842         48.239942       0.035804353        -130.59493
                    0.039448964        -131.18479      0.0011002419         48.226767        0.10378615        -116.88877     5.6633647e-05        -3.3564955
                   8.672732e-06        -98.498828       0.036774262        -131.57066     5.6883182e-05        -3.1379984        0.10117536        -117.26053

0.375      0.065675827        -160.55306     0.00018679595         173.00115      0.0073032791         -22.65545     0.00014010352         157.80935
                  0.00018663435         173.15519       0.057860584        -156.02608     0.00084131354        -6.8118926       0.015597334        -21.588452
                   0.0060701322        -20.593552     0.00084102779        -6.8243692       0.062896933        -161.09285     0.00020576554         171.61929
                  0.00014044723         157.93643        0.01427426        -20.436041     0.00020567718         171.74659        0.05687875        -157.80218

0.4      0.037281235        -102.71858     0.00025797516         90.142022       0.054700729        -82.828647      0.0001460216         85.536342
                  0.00025819902         90.276514        0.04513034         -99.16077     0.00046892294         73.327886       0.060754967        -83.905605
                    0.053544852        -82.852219     0.00046907814         73.345414       0.041626338        -100.85897     0.00027506094         89.750556
                  0.00014637182         85.606337        0.05949111        -83.974241     0.00027530572         89.861406       0.046459697        -99.372116

0.425      0.069983551        -131.06236      8.649965e-05        -19.590126       0.047222127        -147.79943     6.8255879e-06        -110.41179
                  8.6913145e-05        -19.309242       0.068795006        -130.90881      0.0013162173         29.304794       0.044784434        -147.90618
                    0.046393365        -148.31086      0.0013161216         29.304449       0.071090398        -133.19884     8.3648335e-05        -21.132169
                  6.9113679e-06        -110.20523        0.04383707        -148.54185     8.4035146e-05        -20.888921       0.068905701        -133.01709

0.45      0.032086021        -126.46839     0.00023239204         149.32886       0.018723259         -54.58772     0.00016785931         130.20255
                  0.00023240565         149.48225       0.034795338        -108.46186     0.00081319105         -21.87941       0.028138499        -51.995142
                    0.018817911         -52.07165     0.00081284063        -21.860146       0.029815165        -118.48998     0.00025500579         147.28601
                  0.00016850422         130.17724       0.028335621        -50.114539     0.00025508815          147.4127       0.033054615        -104.68771

0.475       0.11301587        -108.98994     0.00031101693         56.377312       0.096464039        -111.70824     0.00016628348         46.584891
                  0.00031156072         56.488439        0.12325448         -109.8516     0.00071936215         52.469143        0.10355634        -112.74626
                    0.096128899        -111.20846     0.00071990258         52.464019        0.11999123        -108.19766     0.00033226621         55.749385
                  0.00016718149         46.529476         0.1032237        -112.23066     0.00033286579         55.836705         0.1264202        -109.32239

0.5       0.16064271        -161.92169     0.00013434913        -57.269927        0.11825805        -174.54738     3.4392204e-05        -89.837657
                  0.00013503378        -57.047071        0.16005153        -162.97424      0.0014451891         8.4653716        0.11618939        -175.54005
                     0.11742879        -174.28442      0.0014452377         8.4655554        0.16356947        -162.47802     0.00013406109        -58.067884
                  3.4703462e-05         -89.60299        0.11529465        -175.23205     0.00013476052        -57.877792        0.16186733        -163.37669

0.525      0.078143355         149.61345     0.00026558349         133.01657       0.053828874         128.82741     0.00018059978         116.79921
                  0.00026593652         133.15897       0.066830605         152.99936     0.00074195469         -37.69429       0.043195848         129.60461
                    0.052619191         129.30157     0.00074191505        -37.648478       0.072981075         150.23593     0.00028878297         131.08587
                  0.00018103721         116.65196        0.04192338         130.41946     0.00028914012         131.20012       0.064536747         153.28567

0.55       0.11301802        -131.06507     0.00038110878         37.054183       0.069207174        -143.35569     0.00020825475         30.712894
                  0.00038184133         37.039999        0.12585192        -131.94629     0.00096433359         37.405473       0.077848651         -143.7929
                    0.070470939        -143.03077     0.00096448592          37.36122        0.12364828        -129.92474     0.00040595163         36.352538
                  0.00020841143         30.387393       0.079207216        -143.56138     0.00040660652         36.322457        0.13141761        -131.96023

0.575       0.23293857         173.82871     0.00013619031        -87.522733        0.13913579         157.01712     1.9377246e-05        -115.65104
                  0.00013687126        -87.562371        0.23341364         172.58733      0.0014786166        -10.329715         0.1375902          155.9687
                      0.1399256         157.18728      0.0014784363        -10.342035        0.23807201         173.48812     0.00013664688        -87.560488
                  1.9865185e-05         -117.2499        0.13842136         156.13918     0.00013726289        -87.655136        0.23739224          171.9884

0.6       0.20780491         115.47563     0.00027567234         114.69662        0.12096754         100.76719     0.00016728774         104.57194
                  0.00027620354         114.79165        0.19555818         114.29353     0.00065754416        -49.182638        0.11091808          99.18053
                     0.12107341         101.01744     0.00065754162        -49.168297        0.20404379          115.1261     0.00029526169         114.18681
                  0.00016759041         104.48932        0.11105328         99.498305     0.00029580353         114.24772         0.1951361         113.74757

0.625      0.040853627         108.71345     0.00040742477         30.263319       0.026129925         107.49097     0.00024178011         30.153116
                  0.00040803043         30.220352       0.037327421         131.02239      0.0011162504         27.197837       0.024609512         132.54588
                    0.026966324         110.05867      0.0011158631         27.160213       0.040644755         125.04247     0.00043751347         29.453692
                  0.00024127293         29.964203       0.026001383         133.89576     0.00043792188         29.408363       0.041173727         137.88374

0.65       0.17808058         151.28963     0.00014835375        -94.036591         0.1057498         133.02987     2.8591427e-05         -76.27554
                  0.00014862964         -94.23482        0.18041659         149.82439      0.0015612035         -27.38992        0.10516906         131.94445
                     0.10702457         132.69381       0.001560617        -27.398921        0.18488282         150.14377      0.0001513418        -93.712397
                  2.7935123e-05        -77.347844        0.10638742         131.52011     0.00015139192        -93.910806        0.18430768         148.50865

0.675       0.21761886         93.120614     0.00030149589         93.850576        0.11112275         76.434041     0.00018076314         83.786945
                  0.00030183886         93.848944        0.20409577         91.502826     0.00053091188        -56.893321       0.099596928         74.183335
                     0.11227872         76.170718     0.00053056364        -56.897635        0.21562038         91.957943     0.00032373279         93.344541
                  0.00018089652         83.757274        0.10073488         73.843827     0.00032403905         93.315103         0.2050045         90.305168

0.7      0.099972738         37.327517     0.00044518076         15.799335       0.028466973         28.521195     0.00027894058         17.894315
                  0.00044550975         15.789518       0.080623477         37.678435      0.0012723392         12.309821       0.014004686         34.655595
                    0.029297244         27.924704      0.0012723297         12.318479       0.092904723         37.244892     0.00048270184         15.148889
                  0.00027887338         17.915587       0.014819687         32.824852     0.00048292368         15.130503       0.080110997          37.26503

0.725      0.076154529         116.83897      0.0001631451        -93.820172       0.072924183         117.50683     5.7158571e-05        -60.631653
                  0.00016339342        -93.921428       0.079379902         117.03101      0.0016158676        -43.217788       0.073977236         116.75546
                    0.072581317         116.94454      0.0016154513        -43.210755       0.078846186         115.66638     0.00016815153        -92.753734
                  5.6674159e-05        -60.511678       0.073482694         116.19773     0.00016825773        -92.839776       0.078771069         114.53444

0.75       0.10878496         73.444828     0.00033744525         70.053685       0.071269935         63.102124     0.00021699865         55.280369
                  0.00033789725         70.079913       0.092532082         73.384051     0.00041008606        -58.661487       0.057053687         62.547669
                    0.071264404         62.323605     0.00040992507        -58.580474        0.10390349         71.225779     0.00036503772         68.365058
                  0.00021753651         55.221172       0.056859067         61.581629     0.00036543016         68.365799       0.090342606         70.832036

0.775       0.02742677         99.906335     0.00049198513         -17.35687       0.040341362         144.09195     0.00030093137        -19.390167
