! Created Thu Mar  2 12:33:09 2023
# ghz S ma R 45
! 4 Port Network Data from SP1.SP block
! freq  magS11  angS11  magS12  angS12  magS13  angS13  magS14  angS14  
!       magS21  angS21  magS22  angS22  magS23  angS23  magS24  angS24  
!       magS31  angS31  magS32  angS32  magS33  angS33  magS34  angS34  
!       magS41  angS41  magS42  angS42  magS43  angS43  magS44  angS44  
!     
0      0.069622059    -2.9352304e-13     6.4795622e-08    -2.0756404e-12      0.0041009243    -4.1541364e-12     2.1755369e-07     1.3357946e-13
                  6.6276149e-08     1.3901407e-11       0.071956537     7.6309107e-13     1.4378926e-05              -180      0.0042452973    -1.7789991e-12
                   0.0049466867     1.2741032e-11     1.4377758e-05              -180       0.070189348    -2.7925002e-14     3.0839808e-07     1.8158896e-13
                  2.1837057e-07     2.3252096e-14      0.0053632815     8.5353126e-12      3.109365e-07     1.2591226e-12       0.069599931    -5.2449873e-13

0.025       0.15086746         1.7635963     1.2397597e-05         21.507031       0.088036342         20.827781     8.1012829e-06         10.486379
                  1.2434015e-05         21.415755        0.15127771         1.5783397     2.5021457e-05         55.910212       0.088254912         20.800999
                     0.08846518         20.383313      2.502118e-05         55.921949        0.15134349         1.9745713     1.3757816e-05         20.266515
                  8.1008836e-06         10.547177       0.088755914         20.237658     1.3797912e-05         20.151834        0.15154631         1.8862806

0.05       0.11797414        -47.170443      2.335601e-05         -52.23167       0.062983086        -39.363855     1.7624055e-05        -43.245943
                  2.3397604e-05        -52.439524        0.11709619        -47.193791     2.8243985e-05        -35.812873       0.062220767        -39.386252
                    0.063649829          -39.9038     2.8248637e-05        -35.762559        0.11878274        -47.290274     2.6150586e-05        -51.559236
                  1.7638378e-05        -43.181351       0.063026577        -40.035424     2.6189531e-05        -51.780815        0.11789473        -47.353366

0.075      0.067567633         40.238741      3.648866e-05        -108.22436       0.070454138         55.262858      3.182588e-05        -126.79549
                  3.6441485e-05        -108.38747       0.069950613          40.43547     5.0488949e-05        -69.175198        0.07247739         55.227986
                    0.069647576         55.173646     5.0536407e-05        -69.168225       0.066980132         41.452988     4.1209314e-05        -109.35614
                   3.183754e-05        -126.69731       0.071483613         55.079482      4.115514e-05        -109.53098       0.069035607         41.633217

0.1       0.19918931         -6.371165     5.7545851e-05         174.24221        0.15960204        -1.8540167     2.7688765e-05         151.01433
                  5.7473379e-05         174.15831        0.20060076        -6.6511434     0.00010185981        -163.66993        0.16076094        -2.1058588
                     0.15895157         -1.998697     0.00010191464        -163.66074        0.19989183        -6.1896682       6.27606e-05         173.75848
                    2.77413e-05         151.23129        0.15994976        -2.2907175     6.2666589e-05         173.65527        0.20101834         -6.451966

0.125       0.16122063        -59.941842     5.9477361e-05         95.792123        0.11821917        -61.222953     3.2611397e-05         117.53742
                  5.9305336e-05         95.688525        0.15956958        -60.178296     9.0865226e-05         104.22616        0.11651921        -61.574421
                     0.11764803        -61.618664     9.0945309e-05         104.26254        0.16179408         -59.86632     6.5121655e-05         97.584948
                  3.2759998e-05         117.56511        0.11582752        -62.062928     6.4894111e-05         97.467735        0.16049503        -60.069131

0.15      0.050157821         1.7452374     6.8533312e-05         43.514013       0.038005166         26.112541     5.9168371e-05          36.39646
                   6.832096e-05         43.680558       0.053940611         4.4568016     9.5817083e-05         72.702178       0.041715572         27.089534
                    0.037977333          27.72342     9.5940937e-05         72.655305       0.050874048         1.9591358     7.7788402e-05         43.799339
                  5.9377488e-05         36.435548       0.041679941         28.821178     7.7515409e-05         43.973081        0.05389524         3.7852875

0.175       0.20753481        -26.046018     9.9889811e-05        -37.279824        0.15761723         -25.07143     4.6934241e-05        -57.355115
                    9.98502e-05        -37.135474        0.21022678        -26.507967     0.00018527559        -14.429777        0.15944787        -25.487464
                     0.15754772        -24.781661     0.00018537387        -14.455461          0.209011         -26.15055      0.0001087728        -37.011002
                  4.7204367e-05        -57.319914        0.15929422        -25.147664     0.00010869968        -36.857719        0.21086118        -26.627917

0.2       0.21691565        -79.502787      9.044271e-05        -120.09564        0.15691497        -83.806997     3.2879773e-05        -80.009764
                    9.03805e-05        -119.98462        0.21491504        -79.947052      0.0001728217        -111.34865        0.15504615        -84.247417
                      0.1564606        -83.671123     0.00017294159        -111.35122         0.2176956        -79.496607     9.7071978e-05        -117.15804
                  3.3005538e-05         -80.36174        0.15444051        -84.074035     9.6986828e-05        -117.03228        0.21617946        -79.941763

0.225      0.071440636        -117.06465     7.7711648e-05        -169.40938       0.046053238        -137.22464     7.2822722e-05        -147.93582
                  7.7784632e-05        -169.09821       0.066074543        -114.32945     0.00010309781        -155.65723       0.040872384        -135.95842
                    0.045112497        -137.00408     0.00010323915        -155.73483       0.071435863        -115.27514     8.9898735e-05        -165.97957
                  7.2967458e-05        -148.09541         0.0397682         -135.5404     9.0007132e-05        -165.68263       0.067811325        -113.45686

0.25       0.13229889        -47.806993     0.00012239089          118.6721       0.079944617        -48.006327     7.4174656e-05         118.10133
                  0.00012294338         118.83255        0.13694232        -48.271069     0.00022082708         141.27889       0.083107232         -48.43303
                    0.081072431        -47.639421     0.00022081736         141.22294        0.13533265        -48.679351     0.00013584428          119.7563
                  7.4383113e-05         117.84838       0.084377218        -48.042773     0.00013643412         119.90745        0.13800638        -49.267788

0.275       0.19069264        -99.633748     0.00010554729         33.646263        0.10519447        -108.32681     4.9748489e-05         70.212818
                  0.00010616007         33.653843        0.18854557        -100.21679     0.00022411104         44.080181        0.10273072        -108.94041
                     0.10616018        -108.03217     0.00022407837         44.045281        0.19215527        -100.20252     0.00011390874         37.604339
                  4.9581875e-05         69.894922        0.10376899        -108.57437     0.00011456275         37.597497        0.18994496        -100.82884

0.3       0.11581544        -152.84672     8.3554557e-05        -12.441827       0.051673629        -169.20215     8.6913637e-05         17.443104
                  8.3802603e-05        -12.668577        0.10801608        -152.37306     0.00011546026        -20.198035       0.044938261        -169.64854
                    0.052182593        -168.58878     0.00011543062        -20.219105        0.11462303         -152.4949     9.9133566e-05         -7.142475
                  8.6747458e-05         17.421752       0.045469713        -168.73691      9.940131e-05        -7.3793173        0.10901558        -152.40655

0.325      0.046548985        -103.54237     0.00012871263        -81.701071       0.026882332        -106.52501      9.794694e-05        -66.388843
                  0.00012894113        -81.773841        0.05120897        -98.885157     0.00019128474        -60.690832       0.030082269        -100.75116
                    0.027293929        -106.79716     0.00019127722        -60.709679       0.049006106        -102.93376     0.00014738659        -79.545432
                  9.7932959e-05        -66.451933       0.030564649        -101.13886     0.00014759974        -79.635629        0.05165292          -100.637

0.35       0.10239281        -114.84998     0.00012829228        -158.85967       0.038551614        -130.46186     8.9539666e-05        -133.62311
                  0.00012858836        -159.12897        0.10057685         -115.1375     0.00022935806        -143.66558       0.035806822        -130.60174
                    0.039448964        -131.18479     0.00022922971        -143.66036        0.10378615        -116.88877     0.00014168003        -155.14683
                  8.9318026e-05         -133.6323        0.03677682        -131.57724     0.00014186441        -155.43041        0.10118089        -117.28505

0.375      0.065675827        -160.55306      0.0001371291          147.7525      0.0073032791         -22.65545     0.00011537129         162.65301
                   0.0001366196         147.49902       0.057859048        -156.00047     0.00018163529         155.80227       0.015597357         -21.57553
                   0.0060701322        -20.593552     0.00018162311         155.86959       0.062896933        -161.09285     0.00015852237         151.38022
                    0.000115292         162.80957       0.014274355        -20.421833     0.00015789395         151.16326       0.056898885        -157.87035

0.4      0.037281235        -102.71858     0.00019869084         70.458386       0.054700729        -82.828647     0.00011832846         81.428859
                  0.00019801583         70.420379       0.045194555        -99.119353     0.00024806234         96.392473       0.060757193        -83.907929
                    0.053544852        -82.852219      0.0002482822         96.428155       0.041626338        -100.85897     0.00022143871         72.239553
                  0.00011855254         81.594042       0.059493364        -83.976606     0.00022065958         72.198665       0.046404012        -99.430709

0.425      0.069983551        -131.06236       0.000201343        -9.0177157       0.047222127        -147.79943     0.00010129108         20.645413
                  0.00020082341        -8.9782619       0.068871434        -130.88884     0.00025326824         19.510105       0.044784972        -147.91579
                    0.046393365        -148.31086     0.00025356693         19.523075       0.071090398        -133.19884     0.00021646964        -6.0096417
                  0.00010171434         20.696621       0.043837703        -148.55169     0.00021581961        -5.9683486        0.06886631        -133.09843

0.45      0.032086021        -126.46839     0.00026373511        -64.203045       0.018723259         -54.58772     0.00013847163        -50.236698
                  0.00026344982        -64.111598       0.034835253        -108.38479     0.00027445473        -37.713169       0.028139509        -51.984215
                    0.018817911         -52.07165     0.00027482475         -37.74657       0.029815165        -118.48998     0.00029068254        -61.924175
                   0.0001390722        -50.261968        0.02833683        -50.103685     0.00029033797        -61.822555       0.032953437        -104.82165

0.475       0.11301587        -108.98994     0.00036918226        -132.54619       0.096464039        -111.70824     0.00013810698        -146.85063
                  0.00036911923        -132.45976        0.12348813        -109.79332      0.0003976259        -119.93379        0.10355997        -112.74857
                    0.096128899        -111.20846     0.00039813122        -119.96204        0.11999123        -108.19766      0.0004000712        -132.07695
                  0.00013896837        -146.84957        0.10322734        -112.23301     0.00039999352        -131.98859         0.1262001        -109.39639

0.5       0.16064271        -161.92169     0.00025041795         160.44121        0.11825805        -174.54738     7.4816272e-05         159.84044
                  0.00025053131         160.58238        0.16038955        -162.89754     0.00034371966         149.53321        0.11619077        -175.54517
                     0.11742879        -174.28442     0.00034431074         149.53642        0.16356947        -162.47802     0.00026937741         162.41074
                  7.5530358e-05         159.57561        0.11529597        -175.23724     0.00026950753         162.54909        0.16159053        -163.49434

0.525      0.078143355         149.61345     0.00022650617          121.8548       0.053828874         128.82741     0.00014621472         123.47991
                  0.00022750445         121.92524       0.067004505         153.12689     0.00023875191         110.26081        0.04318859         129.59785
                    0.052619191         129.30157     0.00023928937         110.12905       0.072981075         150.23593     0.00026128394         122.42082
                  0.00014662048         123.11295       0.041915983         130.41266     0.00026229781         122.47168       0.064384337         153.07563

0.55       0.11301802        -131.06507     0.00029856333         34.599238       0.069207174        -143.35569     0.00016500882         22.849751
                  0.00029969433         34.523343        0.12622781        -131.91633     0.00047148841         37.541235       0.077861341        -143.79817
                    0.070470939        -143.03077      0.0004715958         37.454238        0.12364828        -129.92474     0.00033206203         34.464657
                  0.00016527253         22.425586       0.079219935        -143.56663     0.00033313684         34.388476         0.1310634        -132.02079

0.575       0.23293857         173.82871     0.00016232782        -57.978949        0.13913579         157.01712     5.1662517e-05         -34.31941
                  0.00016292702        -58.160558        0.23392477         172.60393     0.00042203556        -66.534682        0.13759071         155.96204
                      0.1399256         157.18728     0.00042216124        -66.581973        0.23807201         173.48812     0.00017752937        -53.374866
                  5.1134564e-05         -34.93556        0.13842181         156.13253     0.00017803913        -53.558352        0.23695556         171.93164

0.6       0.20780491         115.47563     0.00011517739        -55.222264        0.12096754         100.76719     0.00013875742        -46.529055
                  0.00011509008        -55.403084        0.19582404         114.30531     0.00011384146        -145.66643        0.11091108         99.179225
                     0.12107341         101.01744     0.00011411452         -145.7328        0.20404379          115.1261     0.00015004671        -57.552075
                  0.00013844676        -46.523862        0.11104621         99.497028     0.00014990972        -57.708548        0.19493044         113.70637

0.625      0.040853627         108.71345     0.00026389976        -144.38144       0.026129925         107.49097     0.00019855775         -146.6326
                  0.00026403505        -144.65981       0.037410359         131.07687     0.00033357486        -146.95727        0.02462491         132.54594
                    0.026966324         110.05867     0.00033310446        -147.05167       0.040644755         125.04247     0.00030326395        -146.45016
                  0.00019769324        -146.78847       0.026016828         133.89491     0.00030321232        -146.68528       0.041193293         137.83482

0.65       0.17808058         151.28963     0.00018306273         115.36244         0.1057498         133.02987     0.00010894691         134.94031
                  0.00018270301         114.98013        0.18055431         149.79747     0.00038764774         102.44302        0.10515863         131.93632
                     0.10702457         132.69381     0.00038721786         102.39561        0.18488282         150.14377      0.0002055508         118.34936
                  0.00010798948         135.10162        0.10637701           131.512     0.00020494574          118.0544        0.18426158         148.47015

0.675       0.21761886         93.120614     0.00014241147         108.18132        0.11112275         76.434041     0.00016731242         108.51117
                  0.00014155514         108.42527         0.2041804         91.491075      8.763053e-05         22.226501       0.099584865         74.185337
                     0.11227872         76.170718     8.7292838e-05         22.263073        0.21562038         91.957943     0.00018084116          105.1603
                  0.00016761652         108.73962        0.10072272         73.845784     0.00018002922         105.36364         0.2049911         90.289065

0.7      0.099972738         37.327517     0.00031860842         27.323018       0.028466973         28.521195     0.00025846281         21.236199
                  0.00031829606         27.431333       0.080647461         37.745788     0.00032080307         36.681125        0.01401619         34.706046
                    0.029297244         27.924704     0.00032100866         36.696076       0.092904723         37.244892     0.00036515071          24.50151
                  0.00025887365         21.305368       0.014830814         32.874148      0.0003647772         24.602601       0.080126155         37.304261

0.725      0.076154529         116.83897     0.00026986857        -65.807945       0.072924183         117.50683     0.00019785603        -59.199883
                  0.00026938266        -65.743643       0.079491698          116.9305     0.00035931086        -67.370926       0.073954014         116.74708
                    0.072581317         116.94454     0.00035940641        -67.346383       0.078846186         115.66638     0.00030443553        -65.130111
                  0.00019811571         -59.10792       0.073459506         116.18911     0.00030392309         -65.04288       0.078822557         114.47133

0.75       0.10878496         73.444828     0.00024706866        -114.12235       0.071269935         63.102124     0.00022893336        -112.05091
                  0.00024691178        -113.95556       0.092584035         73.347261     0.00027744464        -120.26504        0.05703832         62.562428
                    0.071264404         62.323605     0.00027775356        -120.24701        0.10390349         71.225779     0.00029641131        -114.37985
                  0.00022954521        -112.01977       0.056843412         61.596262      0.0002963812        -114.23138       0.090368882         70.812503

0.775       0.02742677         99.906335     0.00036093486         163.72841       0.040341362         144.09195     0.00026996954         161.21994
