! Created Thu Mar  2 12:34:00 2023
# ghz S ma R 45
! 4 Port Network Data from SP1.SP block
! freq  magS11  angS11  magS12  angS12  magS13  angS13  magS14  angS14  
!       magS21  angS21  magS22  angS22  magS23  angS23  magS24  angS24  
!       magS31  angS31  magS32  angS32  magS33  angS33  magS34  angS34  
!       magS41  angS41  magS42  angS42  magS43  angS43  magS44  angS44  
!     
0      0.069622059    -2.9352304e-13     1.4912963e-06              -180      0.0041009243    -4.1541364e-12     1.1290814e-06              -180
                  1.4915097e-06               180       0.071552126     2.2165578e-13     2.5062779e-06               180      0.0038146176    -4.5385661e-12
                   0.0049466867     1.2741032e-11     2.5013943e-06               180       0.070189348    -2.7925002e-14     2.0206114e-06               180
                  1.1283176e-06              -180      0.0047447873    -4.3604862e-12     2.0188776e-06              -180       0.070641873    -2.4040118e-13

0.025       0.15086746         1.7635963     1.5131771e-05        -174.09563       0.088036342         20.827781     9.4803538e-06        -177.03541
                  1.5125816e-05        -174.08697        0.15112085         1.8774687     2.4149568e-05        -173.21306       0.088739297         21.289094
                     0.08846518         20.383313     2.4148764e-05        -173.17843        0.15134349         1.9745713     1.8065607e-05          -173.944
                  9.4784609e-06        -176.94023       0.088233243         20.846158     1.8071344e-05        -173.90459        0.15091371          1.712461

0.05       0.11797414        -47.170443     3.2877132e-05          135.1386       0.062983086        -39.363855     2.0927125e-05         135.93504
                  3.2875176e-05          135.2066        0.11838776         -46.90115      5.133745e-05         133.98522       0.064114621        -38.967272
                    0.063649829          -39.9038     5.1372707e-05         133.99513        0.11878274        -47.290274      3.892174e-05          134.5676
                  2.0964319e-05         135.96976        0.06317224        -39.129983     3.8958022e-05         134.52048        0.11775006        -47.139105

0.075      0.067567633         40.238741      5.648732e-05         51.005024       0.070454138         55.262858     3.7360447e-05         47.489365
                  5.6521815e-05         51.076274       0.067503742         41.164577     8.6102444e-05         53.051527       0.069896174         55.950062
                    0.069647576         55.173646     8.6124838e-05         53.042842       0.066980132         41.452988     6.6202947e-05         51.871447
                  3.7386362e-05         47.480739       0.070796543         55.913219     6.6185534e-05         51.801446       0.068344272         41.743747

0.1       0.19918931         -6.371165     4.8189581e-05        -22.949902        0.15960204        -1.8540167     2.8812711e-05        -30.784969
                  4.8252362e-05        -22.888329        0.20022513        -5.5381644     7.8998423e-05        -18.773302         0.1601231       -0.74070741
                     0.15895157         -1.998697     7.8996507e-05        -18.740093        0.19989183        -6.1896682     5.8407329e-05         -21.04263
                  2.8804126e-05        -30.689023        0.16046186        -1.0319949     5.8337342e-05        -21.047327         0.2013244        -5.6877869

0.125       0.16122063        -59.941842      6.351753e-05        -60.475976        0.11821917        -61.222953     3.7939886e-05        -58.463635
                  6.3617093e-05        -60.451416        0.16230865        -59.085851     0.00010309878        -62.255194         0.1188167        -59.855263
                     0.11764803        -61.618664     0.00010324438        -62.229418        0.16179408         -59.86632     7.6783843e-05        -61.481625
                  3.8095275e-05        -58.386166        0.11837156        -60.303009     7.6815955e-05        -61.467433        0.16259826        -59.363374

0.15      0.050157821         1.7452374     0.00010548705        -143.54091       0.038005166         26.112541     6.9368497e-05        -146.47218
                  0.00010565314        -143.51961        0.05092956         4.4116516     0.00016096991        -142.05056       0.039148937         27.355442
                    0.037977333          27.72342     0.00016115971        -142.09389       0.050874048         1.9591358     0.00012392481        -143.15421
                  6.9591776e-05        -146.55597       0.039912736         28.669294      0.0001239411        -143.21401       0.051617557         5.3490094

0.175       0.20753481        -26.046018     8.0190842e-05         134.64558        0.15761723         -25.07143      4.822438e-05         125.32658
                  8.0362926e-05         134.64196        0.21114875        -24.505616     0.00013105439         139.70734        0.15981765        -23.363045
                     0.15754772        -24.781661     0.00013108492         139.64835          0.209011         -26.15055     9.7061245e-05         136.69624
                  4.8296156e-05         125.18635        0.16086424        -23.351055     9.6936329e-05         136.63378        0.21325116        -24.625067

0.2       0.21691565        -79.502787     7.6076397e-05         102.54823        0.15691497        -83.806997     4.1601894e-05         105.78237
                  7.6184752e-05         102.47166        0.21946545        -77.746217     0.00013021835         100.21867        0.15791747        -81.415428
                      0.1564606        -83.671123     0.00013024904         100.21811         0.2176956        -79.496607     9.4332741e-05         101.03812
                  4.1640668e-05         105.77773        0.15855999        -81.635499     9.4246795e-05         101.09724        0.22119386        -77.960554

0.225      0.071440636        -117.06465     0.00014047079         31.884802       0.046053238        -137.22464     9.0331598e-05          31.93639
                  0.00014056106         31.829975       0.069121065        -113.17739     0.00021729899         30.994211       0.042888759        -131.82197
                    0.045112497        -137.00408      0.0002174865         30.955227       0.071435863        -115.27514     0.00016603194         30.920079
                  9.0538685e-05         31.843725       0.042574529        -133.03152     0.00016611416         30.929719       0.069231132        -112.92171

0.25       0.13229889        -47.806993     0.00013455743        -54.423025       0.079944617        -48.006327     8.3920504e-05        -59.768909
                  0.00013461549        -54.472905         0.1401652        -45.542732      0.0002123257        -51.663308       0.086667016        -45.796344
                    0.081072431        -47.639421     0.00021234913        -51.752948        0.13533265        -48.679351     0.00015993868         -53.74322
                  8.3997947e-05        -59.991599       0.087340263        -45.261582     0.00015995134        -53.801212        0.14264967        -45.885122

0.275       0.19069264        -99.633748     0.00011424676         -104.1951        0.10519447        -108.32681     6.6286945e-05        -104.64985
                  0.00011423767        -104.22005        0.19500263        -97.159367     0.00018966844        -104.28132        0.10751481        -105.22775
                     0.10616018        -108.03217     0.00018943675        -104.31193        0.19215527        -100.20252     0.00013945802         -104.5969
                  6.6070563e-05        -104.72887         0.1086121        -105.05425     0.00013927785        -104.62225        0.19751428        -97.566977

0.3       0.11581544        -152.84672     0.00017298061         -164.1762       0.051673629        -169.20215     0.00011088909        -164.61016
                  0.00017300086        -164.18251        0.11119279        -148.52014     0.00027000491        -165.09602       0.045413766        -163.93992
                    0.052182593        -168.58878     0.00026994614        -165.07495        0.11462303         -152.4949     0.00020568987        -165.29403
                  0.00011084795        -164.55566       0.046510001        -164.28816     0.00020560976        -165.26557        0.11184083        -148.67182

0.325      0.046548985        -103.54237     0.00018960762         116.92922       0.026882332        -106.52501     0.00012022842         113.66868
                  0.00018965905         116.92907       0.056415637        -93.397248     0.00029559216          117.9977       0.035523071        -91.776488
                    0.027293929        -106.79716     0.00029563297         117.98486       0.049006106        -102.93376     0.00022441917         116.67275
                   0.0001202936         113.64654       0.035146394        -91.946374     0.00022441811         116.66278       0.057730956        -93.516763

0.35       0.10239281        -114.84998     0.00018291062         50.367361       0.038551614        -130.46186      0.0001144544         47.497775
                  0.00018292034         50.423912        0.10693403        -112.01965     0.00028919162         51.790768       0.041960665        -126.74339
                    0.039448964        -131.18479     0.00028909846         51.758394        0.10378615        -116.88877     0.00021812419         50.632778
                  0.00011438422         47.435991       0.041973774        -125.63247     0.00021805985         50.550233         0.1088307        -113.16249

0.375      0.065675827        -160.55306     0.00021972044        -14.644839      0.0073032791         -22.65545     0.00014349712        -18.713451
                  0.00021995876        -14.587806       0.058873713        -150.34527     0.00034140919        -13.210467        0.01709116        -16.556654
                   0.0060701322        -20.593552     0.00034124565        -13.193198       0.062896933        -161.09285     0.00026160572        -14.797289
                   0.0001433798        -18.659444       0.016378534        -19.392156     0.00026124012        -14.828192       0.058422651        -151.06004

0.4      0.037281235        -102.71858     0.00022946175        -89.049545       0.054700729        -82.828647     0.00014618637         -95.86659
                  0.00022974649        -89.021726       0.052082092        -94.204986     0.00035830775        -86.304732       0.068642301        -78.677814
                    0.053544852        -82.852219     0.00035846569        -86.265712       0.041626338        -100.85897     0.00027177089        -88.855024
                  0.00014636237        -95.752749       0.067262466        -78.981615     0.00027160333        -88.831717       0.054178412         -94.13814

0.425      0.069983551        -131.06236     0.00022488247        -152.17076       0.047222127        -147.79943     0.00013954915        -156.83784
                  0.00022516407        -152.13603       0.073185017        -126.75339      0.0003561373        -150.03412       0.049654109        -141.85004
                    0.046393365        -148.31086     0.00035654198        -150.05482       0.071090398        -133.19884     0.00026850905        -151.78752
                  0.00014001168          -156.861       0.048233505        -141.45636     0.00026857939        -151.82753        0.07380106         -128.0275

0.45      0.032086021        -126.46839     0.00027060101         139.08102       0.018723259         -54.58772     0.00017780543         133.33501
                  0.00027112405         139.10982       0.038133277        -97.840895     0.00041859562         141.56179       0.032509458        -44.675598
                    0.018817911         -52.07165     0.00041869308         141.50541       0.029815165        -118.48998     0.00032211113         139.12341
                  0.00017803778         133.21955       0.033591871        -45.721746     0.00032174923         139.04594       0.038179702        -93.790196

0.475       0.11301587        -108.98994     0.00025288225         59.816637       0.096464039        -111.70824     0.00016156458         49.349631
                  0.00025349536         59.795961        0.13139185        -104.03498     0.00039721134         64.679173        0.11140643        -105.12118
                    0.096128899        -111.20846     0.00039715114         64.663747        0.11999123        -108.19766     0.00029994507         60.556881
                  0.00016163241         49.313722        0.11141136        -105.66872     0.00029935384         60.556029         0.1356571        -103.86392

0.5       0.16064271        -161.92169     0.00019767837         3.5450218        0.11825805        -174.54738     0.00011142708        -4.1023419
                   0.0001980281         3.4670527        0.16272833        -156.01276     0.00033141267         6.9095767        0.11809129        -167.15846
                     0.11742879        -174.28442     0.00033176517          6.901744        0.16356947        -162.47802     0.00024118419         4.4573868
                   0.0001118373        -4.1107505        0.11703268        -167.53893     0.00024114151         4.5146808        0.16397548        -156.45688

0.525      0.078143355         149.61345      0.0002794212         -52.80941       0.053828874         128.82741     0.00017687785        -56.838014
                  0.00027974584        -52.869218       0.062929146         165.45932     0.00044227635        -51.879368        0.03655478         141.43715
                    0.052619191         129.30157     0.00044257648        -51.986983       0.072981075         150.23593     0.00033609634        -53.685371
                  0.00017727102        -57.108097        0.03488571         142.06999     0.00033609106         -53.74589       0.058556901         167.41327

0.55       0.11301802        -131.06507      0.0003025654        -139.59927       0.069207174        -143.35569      0.0001946821        -149.91751
                  0.00030298407        -139.67502        0.13419349        -124.32026     0.00046993331        -134.69839       0.084686099        -133.57755
                    0.070470939        -143.03077     0.00046950735        -134.80906        0.12364828        -129.92474     0.00035583916        -139.48117
                  0.00019451034        -150.20665       0.086335985        -133.78634     0.00035529093        -139.54762         0.1417335        -124.93658

0.575       0.23293857         173.82871     0.00018850061         156.69547        0.13913579         157.01712     0.00010212944         145.87877
                  0.00018857822         156.56912        0.23293769        -179.02792     0.00032364911         161.93954        0.13518971         165.45274
                      0.1399256         157.18728     0.00032314805         161.91851        0.23807201         173.48812     0.00023018458         158.42014
                  0.00010173137         145.75346         0.1359968         165.11083      0.0002297187         158.46726        0.23747084        -179.89518

0.6       0.20780491         115.47563     0.00024843346         122.54375        0.12096754         100.76719     0.00015156694         122.00513
                   0.0002483158         122.48803         0.1882703         123.41814     0.00040504273         120.97189        0.10163098         108.09243
                     0.12107341         101.01744     0.00040502951          120.9521        0.20404379          115.1261     0.00030392426         120.52823
                  0.00015155332         121.93931        0.10142391          107.6238     0.00030397649          120.5544        0.18537032         122.67216

0.625      0.040853627         108.71345     0.00035915835         38.579911       0.026129925         107.49097     0.00023087762         32.350525
                  0.00035900632         38.536482       0.038774579         146.58982     0.00055277698         40.233068       0.025777633         154.75238
                    0.026966324         110.05867     0.00055216118         40.144829       0.040644755         125.04247     0.00041959414         37.275313
                   0.0002303263         32.135888       0.026489109         157.29046     0.00041934198         37.215408        0.04410437         157.77856

0.65       0.17808058         151.28963     0.00027010193        -40.641934         0.1057498         133.02987     0.00016005536        -49.360161
                  0.00026995082        -40.651665        0.17438169         159.22078     0.00043830601        -36.280069       0.098773619         141.11254
                     0.10702457         132.69381     0.00043732329         -36.31969        0.18488282         150.14377     0.00032034241        -39.441648
                  0.00015917768        -49.484395        0.10018186         141.18525     0.00031973033        -39.502915        0.18057091         158.15481

0.675       0.21761886         93.120614     0.00028295398        -79.692221        0.11112275         76.434041     0.00017745226        -81.413303
                  0.00028303603        -79.664207        0.19482276         101.00248     0.00045473711        -80.511866       0.088926472         82.220243
                     0.11227872         76.170718     0.00045421579        -80.441981        0.21562038         91.957943       0.000344242        -81.063029
                  0.00017709097        -81.236854       0.090259392         82.018163     0.00034365173        -81.011275        0.19478049         99.861194

0.7      0.099972738         37.327517     0.00043255424        -153.54863       0.028466973         28.521195     0.00028813057        -159.32929
                  0.00043274299        -153.54454       0.079637386         45.945054     0.00065231361        -152.31408       0.010318839         39.859823
                    0.029297244         27.924704     0.00065232866        -152.28085       0.092904723         37.244892     0.00050470802        -154.92845
                  0.00028820459        -159.25804       0.011065825         34.936816     0.00050448054        -154.89008       0.075390936         45.638532

0.725      0.076154529         116.83897     0.00039092218         126.35733       0.072924183         117.50683     0.00024945826         118.54594
                  0.00039109575           126.397       0.066473791         126.56511     0.00060541943         130.06059       0.063897088         125.57718
                    0.072581317         116.94454     0.00060533943         130.04626       0.078846186         115.66638     0.00045834099         126.97015
                  0.00024948398          118.5256       0.063607196          126.3088     0.00045812542         126.92852       0.068324047         125.36673

0.75       0.10878496         73.444828     0.00039902648         68.397025       0.071269935         63.102124     0.00026104882         63.142396
                  0.00039966949         68.414116       0.081294953         84.905746     0.00061977016         70.173249       0.045558013         69.753573
                    0.071264404         62.323605     0.00061925407         70.178774        0.10390349         71.225779     0.00047691389         67.884463
                  0.00026074217         63.153433       0.046334045           70.4652     0.00047589233         67.875764       0.079183386          82.59955

0.775       0.02742677         99.906335     0.00048220204        -8.6771661       0.040341362         144.09195     0.00032643488        -17.762328
