! Created Thu Mar  2 12:44:46 2023
# ghz S ma R 45
! 4 Port Network Data from SP1.SP block
! freq  magS11  angS11  magS12  angS12  magS13  angS13  magS14  angS14  
!       magS21  angS21  magS22  angS22  magS23  angS23  magS24  angS24  
!       magS31  angS31  magS32  angS32  magS33  angS33  magS34  angS34  
!       magS41  angS41  magS42  angS42  magS43  angS43  magS44  angS44  
!     
0      0.069622059    -2.9352304e-13     2.5890387e-06     1.5761123e-13      0.0041009243    -4.1541364e-12     3.4700333e-07              -180
                  2.6145855e-06     1.0380748e-13        0.06983163    -2.9119679e-13     1.5200498e-06      1.085086e-13      0.0040765665    -4.1815899e-12
                   0.0049466867     1.2741032e-11     1.5566268e-06    -1.9491668e-14       0.070189348    -2.7925002e-14     3.4647544e-07     1.4310485e-13
                   3.461776e-07              -180      0.0048379516     1.3033155e-11     3.5421474e-07      -2.22074e-13        0.06931734    -2.9042674e-14

0.025       0.15086746         1.7635963     5.9214764e-06         28.886148       0.088036342         20.827781     3.5490712e-06          64.43728
                  5.9148497e-06         28.887943        0.15040662         1.9946553     2.3463727e-06        -4.6565093       0.087907862         21.118743
                     0.08846518         20.383313     2.3562335e-06        -4.7108778        0.15134349         1.9745713     6.0113535e-07         24.934197
                  3.5471966e-06         64.367273       0.088378789         20.691564     5.9373953e-07         24.476537        0.15121971         2.3862894

0.05       0.11797414        -47.170443     2.1083723e-05         123.39244       0.062983086        -39.363855     7.7855144e-06         111.37129
                  2.1092471e-05         123.43472        0.11885743        -46.765877     9.4212897e-06         128.18868       0.063724238        -38.850979
                    0.063649829          -39.9038     9.4278239e-06         128.25661        0.11878274        -47.290274     2.5092506e-06         116.52012
                  7.7889747e-06         111.47356       0.064413646        -39.395399     2.5196822e-06         116.97178        0.11989524        -46.941485

0.075      0.067567633         40.238741     4.2410093e-05         65.826125       0.070454138         55.262858     1.6302764e-05          75.10932
                  4.2413982e-05         65.852543       0.065612865          40.93992     1.7788468e-05         53.730157       0.069192658         56.019606
                    0.069647576         55.173646     1.7813036e-05         53.734795       0.066980132         41.452988      4.864287e-06         54.928461
                  1.6326907e-05         75.080066       0.068381792         55.934803     4.8674747e-06         55.155371       0.065041839         42.333525

0.1       0.19918931         -6.371165     1.1907303e-05         68.292566        0.15960204        -1.8540167       1.39205e-05         78.820838
                  1.1922496e-05         68.393976        0.19919428         -5.221192     5.4692436e-07        -35.298475        0.15975739       -0.71270838
                     0.15895157         -1.998697     5.7132978e-07        -37.291986        0.19989183        -6.1896682     3.0589849e-06         72.987181
                  1.3891591e-05         78.757034        0.15910733       -0.85692984     3.0733307e-06         73.332244        0.19992833        -5.0275925

0.125       0.16122063        -59.941842      6.270635e-05          107.3619        0.11821917        -61.222953     2.4257107e-05         88.297669
                  6.2751013e-05         107.34388        0.16408025        -58.764642     2.5144417e-05         114.78521        0.12044672        -59.753801
                     0.11764803        -61.618664     2.5179185e-05         114.84163        0.16179408         -59.86632     5.5334822e-06         87.957578
                  2.4278605e-05         88.398458        0.11987697        -60.141929     5.5885907e-06         88.013247        0.16448787        -58.676476

0.15      0.050157821         1.7452374     7.0834847e-05         50.167257       0.038005166         26.112541     2.8316459e-05         54.014276
                   7.088984e-05         50.145816       0.047702035         1.4754713     2.7560474e-05          40.32478        0.03611497         26.686825
                    0.037977333          27.72342     2.7597267e-05          40.24983       0.050874048         1.9591358     8.1010417e-06         37.817811
                   2.834974e-05         53.923315       0.036062176         28.381854     8.1694918e-06         37.623259       0.048537596         1.9272201

0.175       0.20753481        -26.046018     3.0404121e-05         115.71672        0.15761723         -25.07143     2.5527866e-05          80.45612
                  3.0366379e-05         115.65827        0.20893749        -24.091898     1.0825639e-05         153.90565        0.15897888        -23.061047
                     0.15754772        -24.781661     1.0852893e-05         154.13069          0.209011         -26.15055     5.8012142e-06         63.892045
                  2.5493614e-05         80.534133        0.15890809        -22.773215     5.7984832e-06         63.512381        0.21041278        -24.177085

0.2       0.21691565        -79.502787     0.00010488276         90.062365        0.15691497        -83.806997      4.094125e-05         63.456183
                  0.00010486306         90.042462        0.22154882        -77.318172     3.8997563e-05         102.73732        0.16052288        -81.255867
                      0.1564606        -83.671123     3.9056289e-05         102.72105         0.2176956        -79.496607     6.2447512e-06         58.423592
                  4.0992937e-05         63.499817        0.16007277        -81.123555     6.2548585e-06         58.064957        0.22209504        -77.303894

0.225      0.071440636        -117.06465     7.8827469e-05         36.575263       0.046053238        -137.22464     3.3316689e-05         26.383548
                  7.8818983e-05         36.515683       0.074204844        -115.48475     2.8836268e-05         41.249429       0.048202569        -134.29285
                    0.045112497        -137.00408     2.8848325e-05         41.113126       0.071435863        -115.27514     9.3250194e-06         26.804905
                  3.3352539e-05         26.267624       0.047260432        -134.08847     9.3414266e-06         26.198462       0.073867481        -113.68586

0.25       0.13229889        -47.806993     7.2201885e-05         124.30339       0.079944617        -48.006327     2.9941577e-05         92.007477
                  7.2145498e-05         124.38022        0.13607708        -45.043081     3.0399817e-05         136.27061       0.083340065        -44.966621
                    0.081072431        -47.639421     3.0442165e-05         136.33148        0.13533265        -48.679351     4.6449685e-06         72.304501
                  2.9944954e-05         92.107664       0.084471973        -44.610851     4.5338446e-06         72.750701        0.13909523        -45.862016

0.275       0.19069264        -99.633748      0.0001455534         74.069161        0.10519447        -108.32681     5.5513026e-05         49.486507
                  0.00014550673         74.107682        0.19702875        -96.560784     5.4209674e-05         84.682094        0.11010954        -104.50702
                     0.10616018        -108.03217      5.423147e-05         84.649064        0.19215527        -100.20252     8.2944442e-06         55.265677
                  5.5541304e-05         49.474576        0.11108107        -104.22948     8.2267701e-06         55.670427        0.19815479        -97.104903

0.3       0.11581544        -152.84672     5.8636735e-05         30.136419       0.051673629        -169.20215     2.7065688e-05        -4.1913137
                  5.8597009e-05         30.203519        0.11793457        -148.85197     2.3242171e-05         56.273214       0.052475032        -164.11158
                    0.052182593        -168.58878     2.3194787e-05         56.199364        0.11462303         -152.4949     7.6183763e-06         23.779367
                  2.7067932e-05        -4.3054259       0.052994257        -163.52381      7.554476e-06         24.222137        0.11642431        -148.47287

0.325      0.046548985        -103.54237     0.00013084475         114.14764       0.026882332        -106.52501     3.9865706e-05         103.27331
                  0.00013089174         114.15944       0.052514564        -96.080894     5.6503662e-05         112.24397       0.031617399        -95.681783
                    0.027293929        -106.79716     5.6567454e-05         112.28725       0.049006106        -102.93376     6.7943024e-06         77.022022
                  3.9920658e-05          103.3541       0.032015957        -95.990751     6.8263179e-06         77.529456       0.054942826        -95.800933

0.35       0.10239281        -114.84998      0.0001711763         57.870058       0.038551614        -130.46186     6.2543388e-05         40.600425
                   0.0001712558         57.903307        0.10926881        -111.44222     6.0805754e-05         60.672038       0.043949452         -124.8169
                    0.039448964        -131.18479     6.0855788e-05         60.630017        0.10378615        -116.88877     9.9976352e-06         35.313313
                  6.2602595e-05            40.585       0.044840046        -125.48293     1.0037578e-05         35.914158        0.11023219        -113.34598

0.375      0.065675827        -160.55306     2.9607562e-05         78.276255      0.0073032791         -22.65545     7.2178653e-06        -7.8895701
                  2.9763684e-05         78.160478       0.065703323        -154.06608     1.9655357e-05          110.4331      0.0095637859        -24.424905
                   0.0060701322        -20.593552     1.9613615e-05         110.59168       0.062896933        -161.09285     4.1339338e-06         45.017015
                  7.1951401e-06        -8.3014468      0.0083109388        -23.861903     4.2800503e-06         45.843383       0.062612949        -154.39481

0.4      0.037281235        -102.71858     0.00019369142         96.839283       0.054700729        -82.828647     6.2783363e-05         86.580461
                  0.00019369668         96.789637       0.046207877        -95.906721     7.7314717e-05         93.587242       0.062643163        -78.140089
                    0.053544852        -82.852219     7.7421767e-05         93.593325       0.041626338        -100.85897     1.1013321e-05         47.625556
                  6.2882765e-05         86.597629       0.061494077        -78.170082     1.1172477e-05         47.108975       0.050385879        -94.661857

0.425      0.069983551        -131.06236     0.00016318511         42.614079       0.047222127        -147.79943     5.6399661e-05         25.482081
                  0.00016321865         42.565912       0.075712404        -126.73559     5.0039293e-05          45.36779        0.05153615         -141.1346
                    0.046393365        -148.31086     5.0071627e-05         45.222141       0.071090398        -133.19884     5.8063806e-06        -3.8184084
                  5.6472741e-05         25.379309       0.050697716        -141.59312     5.9424277e-06        -4.6429814       0.076318624        -128.62934

0.45      0.032086021        -126.46839     8.5966299e-05         122.57479       0.018723259         -54.58772     2.5437905e-05         113.26132
                  8.5839019e-05         122.57642       0.034755607        -112.55197     4.8610165e-05         127.30111       0.024320731        -48.451296
                    0.018817911         -52.07165     4.8658962e-05         127.43245       0.029815165        -118.48998     7.5471953e-06         91.483284
                  2.5455295e-05         113.49001       0.024424856        -46.498057     7.4564257e-06         91.118196       0.033188832         -104.3106

0.475       0.11301587        -108.98994     0.00023679684         79.071857       0.096464039        -111.70824      7.879973e-05         55.806464
                  0.00023664263         79.063028         0.1230893        -103.13245      8.686275e-05         81.711978        0.10509196        -104.84816
                    0.096128899        -111.20846     8.6961307e-05         81.656358        0.11999123        -108.19766     9.8674312e-06         2.7959417
                  7.8902475e-05         55.778775         0.1047747        -104.39109     9.8998154e-06         1.8596772        0.12976834        -102.33546

0.5       0.16064271        -161.92169     0.00012378911         35.917431        0.11825805        -174.54738     4.0276213e-05        -11.343346
                  0.00012362083         35.883029        0.16405776        -154.92829     4.4754718e-05         74.843165        0.11972102        -166.65558
                     0.11742879        -174.28442     4.4586536e-05         74.789501        0.16356947        -162.47802      6.085628e-06         154.47661
                  4.0298826e-05        -11.568545        0.11889799        -166.39036     6.0915475e-06         156.31507        0.16649627        -155.29435

0.525      0.078143355         149.61345      0.0001635524         115.63783       0.053828874         128.82741      4.771629e-05         122.82832
                  0.00016358729         115.71731       0.072188425         161.30727     8.5092218e-05         105.45178       0.045535624         138.90982
                    0.052619191         129.30157     8.5229591e-05         105.51526       0.072981075         150.23593     1.3152837e-05         80.688236
                  4.7868197e-05         122.88043       0.044341042         139.57289     1.3048709e-05           81.6564       0.066844268         162.86266

0.55       0.11301802        -131.06507     0.00025878821         63.640341       0.069207174        -143.35569     8.2304411e-05         36.986193
                  0.00025882193         63.696068        0.12285746        -123.70388     8.8606276e-05         67.890256       0.076999935        -134.05733
                    0.070470939        -143.03077     8.8595335e-05         67.834688        0.12364828        -129.92474     6.8840847e-06        -44.167582
                  8.2322988e-05         36.933102       0.078279014        -133.80834     6.6670037e-06        -44.574612        0.13294072        -123.27038

0.575       0.23293857         173.82871      8.412587e-05         54.874325        0.13913579         157.01712     2.5891892e-05        -75.134412
                  8.4268034e-05         54.957586        0.23294106        -177.69786     7.3669908e-05          92.45155        0.13712051         166.16038
                      0.1399256         157.18728     7.3695062e-05         92.530379        0.23807201         173.48812     1.8975193e-05         120.59212
                  2.5830791e-05        -75.313288        0.13791614         166.32351     1.9167017e-05         120.45773        0.23829726         -178.2293

0.6       0.20780491         115.47563     0.00022556618         101.83258        0.12096754         100.76719     6.7896815e-05          133.2842
                  0.00022567576         101.82464        0.19907408         124.69067     0.00011138738         76.633916        0.11168409         109.38302
                     0.12107341         101.01744     0.00011153074         76.621273        0.20404379          115.1261     1.5875684e-05         42.351019
                  6.7942551e-05         133.17847        0.11179407         109.65869     1.5966492e-05         42.638267        0.19549742         124.25547

0.625      0.040853627         108.71345     0.00026106901         52.055407       0.026129925         107.49097     6.8035373e-05         46.923098
                  0.00026135997         52.081832       0.038691867         128.75732      8.184265e-05         42.748188       0.023087449          131.7607
                    0.026966324         110.05867     8.1817087e-05         42.670769       0.040644755         125.04247       7.93707e-06        -88.298475
                   6.801042e-05         46.837219       0.024232606         133.95476     7.6404143e-06        -87.705504       0.041065239         144.31022

0.65       0.17808058         151.28963     8.9476374e-05          98.48601         0.1057498         133.02987     3.0950253e-05        -175.05147
                  8.9524244e-05         98.277908        0.17370213         160.97702     8.4935326e-05         101.23189       0.099926145         142.82455
                     0.10702457         132.69381      8.500849e-05         101.20529        0.18488282         150.14377     2.5910505e-05         116.16163
                  3.0916241e-05        -175.18015        0.10118513         142.45208     2.5906129e-05          115.4935         0.1801331         159.83068

0.675       0.21761886         93.120614     0.00029248242         88.743452        0.11112275         76.434041     9.6151445e-05         116.32159
                  0.00029230312         88.697012        0.20662172         102.76039     0.00012662805         62.277594          0.100394         84.774779
                     0.11227872         76.170718     0.00012659363         62.236089        0.21562038         91.957943     1.6520216e-05         26.828095
                  9.6051003e-05         116.30967        0.10156054         84.486742      1.671125e-05         25.920514        0.20489879         101.64897

0.7      0.099972738         37.327517     0.00022863492          42.77022       0.028466973         28.521195     6.6647729e-05         63.567435
                  0.00022851583         42.726534       0.094610789         46.204753     5.0692337e-05         21.194493       0.023766346         33.492793
                    0.029297244         27.924704     5.0614365e-05         21.109733       0.092904723         37.244892     1.4665036e-05        -141.61988
                  6.6545662e-05         63.576086       0.024623935         32.915981     1.4791321e-05        -140.82773       0.088188322         46.153806

0.725      0.076154529         116.83897     0.00017094622         114.23381       0.072924183         117.50683     7.6047843e-05         127.81213
                  0.00017075943         114.25774       0.065602486          127.1486     0.00010757057         109.85207       0.063255665         127.65293
                    0.072581317         116.94454     0.00010764865         109.87333       0.078846186         115.66638     3.4791435e-05         110.93773
                  7.6127076e-05         127.82175       0.062893667          127.0096     3.4622825e-05         111.01634       0.068089288         125.96802

0.75       0.10878496         73.444828     0.00035836215         74.004738       0.071269935         63.102124      0.0001170487         79.902766
                  0.00035810838          74.01221       0.096022947         84.842701     0.00013506415         55.677945       0.059604694          72.21424
                    0.071264404         62.323605     0.00013507047         55.653451        0.10390349         71.225779     1.7231352e-05          13.91326
                   0.0001170226         79.877543       0.059608376         71.285442     1.7114435e-05         13.168152       0.091577573         82.649907

0.775       0.02742677         99.906335     0.00015770223         37.769536       0.040341362         144.09195     2.7363101e-05         58.128032
