! Created Thu Mar  2 12:40:35 2023
# ghz S ma R 45
! 4 Port Network Data from SP1.SP block
! freq  magS11  angS11  magS12  angS12  magS13  angS13  magS14  angS14  
!       magS21  angS21  magS22  angS22  magS23  angS23  magS24  angS24  
!       magS31  angS31  magS32  angS32  magS33  angS33  magS34  angS34  
!       magS41  angS41  magS42  angS42  magS43  angS43  magS44  angS44  
!     
0      0.069622059    -2.9352304e-13     4.7326468e-05     1.6141617e-12      0.0041009243    -4.1541364e-12     7.5023534e-05    -7.8391643e-13
                  2.1851764e-05               180       0.072130063    -5.8815829e-13     4.2823264e-05               180      0.0034117698     4.8149203e-12
                   0.0049466867     1.2741032e-11     3.1265184e-05               180       0.070189348    -2.7925002e-14     7.2160406e-05    -9.0685378e-13
                  5.7186312e-05              -180      0.0038396433     8.7930932e-12     1.3708741e-05     2.7799411e-11       0.070908565    -6.1127224e-13

0.025       0.15086746         1.7635963     8.1274763e-05        -15.747913       0.088036342         20.827781     6.8587417e-05        -68.039215
                   5.150089e-05         32.213992         0.1507433        0.88817046      4.720839e-05         52.148984       0.088655571         20.876663
                     0.08846518         20.383313     3.3260686e-05         56.330357        0.15134349         1.9745713      6.886625e-05        -81.306958
                   6.246148e-05         62.621134       0.088650891          20.63205     2.3533144e-05        -40.988471        0.15024775         1.4708923

0.05       0.11797414        -47.170443     4.1581885e-05        -176.81568       0.062983086        -39.363855     0.00014149243         146.64803
                  5.0524539e-05         125.04911        0.11526027        -47.699503     4.8738162e-05         125.41791       0.062939323        -39.812911
                    0.063649829          -39.9038     6.6313152e-05         127.63644        0.11878274        -47.290274     0.00014138865         146.99948
                  6.0641773e-05         104.67478       0.062832546        -40.106419     9.2826511e-05         137.19455        0.11479343        -47.514428

0.075      0.067567633         40.238741     0.00016222229         52.647958       0.070454138         55.262858     0.00028856534         51.920447
                  0.00018655884         54.728348       0.071378311         39.847758     0.00017181667          56.70829       0.071156946         54.459366
                    0.069647576         55.173646     0.00018843372         55.527792       0.066980132         41.452988     0.00026760968         51.382796
                  0.00018645946         52.358066       0.071188031         54.539056     0.00021686676         50.869922          0.072282         40.947701

0.1       0.19918931         -6.371165     9.0161283e-05        -43.461955        0.15960204        -1.8540167     0.00018837962        -34.900024
                  0.00010002511        -16.835588        0.20018258        -7.7136405     0.00010567857        -10.350572        0.15909647        -2.7666351
                     0.15895157         -1.998697     0.00011382734        -9.7597341        0.19989183        -6.1896682     0.00019112479        -33.993878
                  9.3435435e-05        -6.8404293        0.15889067        -2.8921967     0.00014595237        -30.256843        0.20179837        -7.4390714

0.125       0.16122063        -59.941842     0.00019732641         132.45232        0.11821917        -61.222953     0.00018189699         145.73826
                  0.00016119224         112.81956        0.15770908        -61.466828     0.00011580002         108.25275        0.11606636        -62.355231
                     0.11764803        -61.618664     0.00010444155         108.39809        0.16179408         -59.86632     0.00013508374         158.55502
                  0.00017118788         98.244957        0.11540132         -62.60893     0.00012256664         133.12663        0.15887027        -61.108841

0.15      0.050157821         1.7452374      0.0003878742          44.42422       0.038005166         26.112541     0.00044037769         44.192045
                  0.00036290497         32.337921       0.053331623         3.7758897      0.0003319366         29.347902       0.039750419         24.681616
                    0.037977333          27.72342     0.00033037409         30.436916       0.050874048         1.9591358     0.00036865283         43.981634
                  0.00039281172         24.506404       0.040485247          25.68623     0.00035324131          33.79564       0.054920643         2.7246872

0.175       0.20753481        -26.046018     0.00014420907        -36.170127        0.15761723         -25.07143     0.00026002036        -39.771832
                  0.00015110282        -54.474082        0.20761058        -27.821623      0.0001871585        -52.491193        0.15543571        -27.085533
                     0.15754772        -24.781661     0.00019014895        -51.101495          0.209011         -26.15055     0.00026338437        -38.960738
                  0.00018965236        -62.708965        0.15609236         -27.03573      0.0002365596        -49.045006        0.20959545        -28.378941

0.2       0.21691565        -79.502787     0.00025859547         99.493399        0.15691497        -83.806997     0.00016916841         123.80919
                   0.0002455913         105.34836        0.21293105        -81.718369     0.00015838883         112.40844        0.15242042        -86.165967
                      0.1564606        -83.671123     0.00014496918         111.36119         0.2176956        -79.496607     9.4827227e-05         148.73764
                  0.00024219766         105.93388        0.15246282        -86.228498     0.00013223398         132.83879        0.21460056         -82.15721

0.225      0.071440636        -117.06465     0.00055851212         26.797061       0.046053238        -137.22464     0.00049957747         33.007674
                  0.00051548282         25.673591       0.068041718        -119.00173     0.00045160141         24.050585       0.043461528        -139.32961
                    0.045112497        -137.00408     0.00042983451         24.001706       0.071435863        -115.27514     0.00040030289         33.453679
                  0.00054705176         21.255113       0.042695567        -139.23598     0.00044227248         28.184612       0.068741535        -118.66423

0.25       0.13229889        -47.806993     0.00030740339        -54.262049       0.079944617        -48.006327     0.00031254134        -48.768681
                  0.00025206255         -64.24553        0.12895105          -50.0912     0.00030103817         -63.94378       0.076569663         -51.31437
                    0.081072431        -47.639421     0.00028529114        -63.751043        0.13533265        -48.679351     0.00031151159        -47.979734
                  0.00032687732        -71.562116       0.077855236        -51.237737     0.00033146325         -57.70897        0.13060496        -51.178536

0.275       0.19069264        -99.633748     0.00023296837         81.847992        0.10519447        -108.32681     0.00020274915          83.74626
                  0.00029896239         87.378357        0.18495146        -102.44019     0.00020085414         97.676256       0.099587633        -112.30017
                     0.10616018        -108.03217      0.0002042712         95.030891        0.19215527        -100.20252     0.00011564463         81.527932
                  0.00029840976         98.206348        0.10085727        -112.40267     0.00014992466         100.53862        0.18583791        -103.49989

0.3       0.11581544        -152.84672     0.00057770041         7.4426776       0.051673629        -169.20215      0.0005734942          10.23247
                  0.00061701131         11.788229         0.1143316        -156.78706     0.00056172268         11.717216       0.049833127        -174.30264
                    0.052182593        -168.58878     0.00055820548         11.086106        0.11462303         -152.4949     0.00051205813         7.3388487
                  0.00066495249         13.153848        0.05069155        -174.57769     0.00055210302         11.024688        0.11310262        -157.78099

0.325      0.046548985        -103.54237       0.000371698        -71.930915       0.026882332        -106.52501     0.00037377441        -63.070892
                  0.00036967696        -65.134687       0.040727325        -111.85952     0.00043071863        -64.588121       0.023102127         -118.8482
                    0.027293929        -106.79716     0.00042145893         -64.83096       0.049006106        -102.93376     0.00041891426        -64.374197
                  0.00045128969        -65.910726       0.023125897        -119.38857     0.00046199304        -63.383783       0.041507508        -110.80874

0.35       0.10239281        -114.84998     0.00019662504         74.105508       0.038551614        -130.46186     0.00021640867         51.110516
                  0.00021885731         62.695763       0.094948295        -117.67205     0.00012859231         62.758525       0.033993637        -137.29654
                    0.039448964        -131.18479     0.00013740322         61.499633        0.10378615        -116.88877     0.00013575884         40.460841
                  0.00019582078         72.937956       0.034585301        -137.69822     0.00010394672         49.094914       0.096235642        -119.05765

0.375      0.065675827        -160.55306      0.0005657151        -14.097337      0.0073032791         -22.65545     0.00068584562        -20.525279
                   0.0006256446        -15.372377       0.065575234        -166.18757     0.00063081208        -17.319551       0.005417964        -8.4909825
                   0.0060701322        -20.593552      0.0006390258        -17.145102       0.062896933        -161.09285     0.00068893281         -24.26422
                  0.00069736602        -12.623725      0.0044645155         1.3172432     0.00067440407        -21.181275       0.063376115        -167.36914

0.4      0.037281235        -102.71858      0.0004210305         -92.02237       0.054700729        -82.828647     0.00055896035        -93.794429
                  0.00049117656        -89.484627       0.028984406        -111.89053       0.000591303        -87.472774       0.048009987        -86.927603
                    0.053544852        -82.852219     0.00060049066        -86.865527       0.041626338        -100.85897     0.00066617102        -94.349306
                  0.00060621611        -84.731965       0.046567318        -86.313488     0.00066912295        -90.619495       0.031885863        -107.01838

0.425      0.069983551        -131.06236      0.0001433955         58.609977       0.047222127        -147.79943     0.00011426255         55.295738
                  7.0562976e-05         60.978773       0.063555831         -135.4523     1.4159678e-05        -72.768758        0.04470999         -154.9214
                    0.046393365        -148.31086     2.3076231e-05        -102.33714       0.071090398        -133.19884     3.5226562e-05         108.28457
                  2.1225091e-05         31.825119        0.04335903        -154.42604     1.5589156e-05        -155.57395       0.065992212        -136.28286

0.45      0.032086021        -126.46839     0.00058158583         -39.73534       0.018723259         -54.58772     0.00073243838        -45.315217
                  0.00054479279        -44.665364       0.030059754        -137.83898     0.00063423959        -48.826238        0.01195299        -59.303515
                    0.018817911         -52.07165     0.00062330448        -48.586319       0.029815165        -118.48998     0.00076112283        -47.527664
                  0.00065003535         -45.68309       0.012815157        -59.160762      0.0007350926        -49.564232       0.029280802        -135.24799

0.475       0.11301587        -108.98994     0.00052839167        -121.56339       0.096464039        -111.70824     0.00075378738        -125.25706
                  0.00054341784        -126.05046         0.1058018        -115.15165     0.00068770935        -122.29292       0.088130347           -118.02
                    0.096128899        -111.20846      0.0006816854        -121.10981        0.11999123        -108.19766     0.00085760712        -122.93873
                  0.00068822578        -121.74238       0.088018738         -118.0126     0.00083184869        -123.48679        0.11005642        -115.03533

0.5       0.16064271        -161.92169     0.00013021887         107.52157        0.11825805        -174.54738     0.00025343839          122.6996
                  0.00017773087          119.1949        0.15883403        -169.39014     0.00015310818          142.4282        0.11772598         178.02672
                     0.11742879        -174.28442       0.000151005         151.13443        0.16356947        -162.47802     0.00024947791         138.58374
                  0.00017859233         136.12205        0.11655601         178.16432     0.00022273057         138.38855        0.16118972        -169.97954

0.525      0.078143355         149.61345     0.00054947808        -56.938944       0.053828874         128.82741     0.00066056928        -51.512107
                  0.00047266327        -54.040303       0.083111182          138.6484      0.0006040319        -61.267256        0.06190612         119.70445
                    0.052619191         129.30157     0.00057940134        -62.612249       0.072981075         150.23593     0.00071723148          -54.7323
                  0.00059408647        -59.085887        0.06008624         120.75684     0.00071587345        -57.976629       0.080258594         138.65479

0.55       0.11301802        -131.06507     0.00075498661        -147.81372       0.069207174        -143.35569     0.00093455654        -144.78486
                  0.00066953234        -149.44942        0.10735575        -138.20813     0.00082219644        -146.06432       0.062491448         -153.8306
                    0.070470939        -143.03077     0.00079665573         -146.6276        0.12364828        -129.92474     0.00099111311        -141.18491
                  0.00085354314        -148.81022       0.064621157         -154.3541     0.00098012095        -143.82932        0.11366872        -138.42488

0.575       0.23293857         173.82871     0.00033688122         118.08727        0.13913579         157.01712     0.00044076985         115.70729
                  0.00031097501         109.32675        0.23657538         165.46095     0.00026775432         113.21421         0.1420074         148.38402
                      0.1399256         157.18728     0.00024741737         111.81902        0.23807201         173.48812     0.00033746827          121.1167
                  0.00037651794         109.97092        0.14299052         148.05622     0.00033776125         114.74159        0.23954728         164.52155

0.6       0.20780491         115.47563     0.00042032155        -56.355549        0.12096754         100.76719     0.00058436709        -47.821492
                  0.00045153139        -52.452709        0.21754373         106.67494      0.0005883507        -62.886538        0.12961289         93.155636
                     0.12107341         101.01744      0.0005848048        -64.758938        0.20404379          115.1261      0.0006747943        -58.938624
                  0.00058455068        -54.432463        0.12931631         93.048288     0.00070329431        -59.137094        0.21377259         105.63344

0.625      0.040853627         108.71345     0.00092645381        -154.99629       0.026129925         107.49097      0.0010820578        -147.28338
                  0.00089360865        -151.27087       0.042767482         94.968367      0.0010229094        -150.04584       0.030086413         93.020522
                    0.026966324         110.05867      0.0010078294        -151.17891       0.040644755         125.04247      0.0011470261        -146.63437
                   0.0010624957        -151.35639       0.030824061         96.757962      0.0011592246        -147.54721       0.041220134         107.81969

0.65       0.17808058         151.28963     0.00060056738         109.60722         0.1057498         133.02987     0.00060181694         113.50641
                  0.00052004471         112.79255        0.18686867         141.88594     0.00041297727         111.44932        0.11367069         123.55774
                     0.10702457         132.69381     0.00039953171         108.45493        0.18488282         150.14377     0.00043461155         115.34035
                  0.00057846739          106.8549        0.11539813         122.90399     0.00043718553         111.76602        0.19186491         140.63035

0.675       0.21761886         93.120614     0.00042247963        -65.880108        0.11112275         76.434041     0.00058437349        -69.904176
                  0.00045180861        -74.877903        0.22906222         83.937117     0.00064561387        -84.142622        0.12027211         68.356858
                     0.11227872         76.170718     0.00066731149        -84.304911        0.21562038         91.957943      0.0007405017        -83.690752
                  0.00064317156        -71.490833        0.12144888         67.666425     0.00076642594        -82.544423        0.22664798         82.509712

0.7      0.099972738         37.327517      0.0011842157        -163.89804       0.028466973         28.521195      0.0013779404        -160.52875
                   0.0012445574         -164.4701        0.10148175         29.280751       0.001326719        -162.86196       0.029274516          26.26049
                    0.029297244         27.924704      0.0013481031        -162.90364       0.092904723         37.244892      0.0014350689        -161.93944
                   0.0014308826        -161.35561       0.029611955         24.017349      0.0014565654        -161.43842       0.094289367         28.737738

0.725      0.076154529         116.83897     0.00084382931         109.34669       0.072924183         117.50683     0.00083856448         113.64403
                   0.0008794643          112.0038       0.089896313          108.1043       0.000679821         113.86827       0.085605761         107.20314
                    0.072581317         116.94454      0.0007004978         113.35446       0.078846186         115.66638      0.0006473061          112.3351
                  0.00087409312         111.38456       0.085359192         107.27275     0.00065221654         113.32232       0.092877589         106.93612

0.75       0.10878496         73.444828     0.00045163514        -106.56636       0.071269935         63.102124     0.00061339472        -113.93909
                  0.00042139409         -113.8743        0.11931674         63.769064     0.00067858076        -119.07052       0.080981477         53.483504
                    0.071264404         62.323605     0.00067214546        -116.80258        0.10390349         71.225779     0.00083762479        -117.53732
                  0.00062631268         -109.5157       0.081245998         53.001866     0.00084310455        -118.18009        0.11697234         61.446876

0.775       0.02742677         99.906335       0.001518128         162.70843       0.040341362         144.09195      0.0016972067         161.54086
