! Created Thu Mar  2 12:32:15 2023
# ghz S ma R 45
! 4 Port Network Data from SP1.SP block
! freq  magS11  angS11  magS12  angS12  magS13  angS13  magS14  angS14  
!       magS21  angS21  magS22  angS22  magS23  angS23  magS24  angS24  
!       magS31  angS31  magS32  angS32  magS33  angS33  magS34  angS34  
!       magS41  angS41  magS42  angS42  magS43  angS43  magS44  angS44  
!     
0      0.069622059    -2.9352304e-13     1.2333109e-05              -180      0.0041009243    -4.1541364e-12      5.495072e-06               180
                   1.813517e-05               180       0.072254208     2.1875195e-13     2.4901929e-05              -180      0.0038516086    -4.4926385e-12
                   0.0049466867     1.2741032e-11     9.5923451e-07               180       0.070189348    -2.7925002e-14     1.5233528e-05     4.2549014e-12
                  8.9001655e-07               180       0.004811429    -4.2956667e-12     1.7161069e-05               180       0.070846662    -2.3965951e-13

0.025       0.15086746         1.7635963     1.7738764e-05         155.99846       0.088036342         20.827781     1.4165288e-05         132.29851
                  2.4087596e-05         150.17963        0.15139022         1.5026434     3.6026138e-05         149.02478       0.088903639         20.992978
                     0.08846518         20.383313      1.842711e-05        -157.71614        0.15134349         1.9745713     1.8495129e-05        -136.79251
                  2.7776804e-06         178.28688       0.088379838         20.544948     2.7106914e-05         146.17506        0.15136077         1.4299332

0.05       0.11797414        -47.170443      4.063875e-05         131.84793       0.062983086        -39.363855     2.3305409e-05         138.61982
                  4.6370243e-05         121.94689        0.11735147        -47.250612     5.4272032e-05          106.9327       0.063368194        -39.478862
                    0.063649829          -39.9038      5.180856e-05         142.83299        0.11878274        -47.290274     3.9796406e-05         158.58651
                  3.5806541e-05         158.63817       0.062416585         -39.63741     3.9968968e-05         114.94755        0.11682092        -47.523469

0.075      0.067567633         40.238741     7.8183694e-05         33.827996       0.070454138         55.262858     6.9822328e-05         21.789143
                  8.7244417e-05         29.726764       0.069451907          40.31724     8.7872888e-05         34.159397       0.071203233         55.184775
                    0.069647576         55.173646     8.4076734e-05         51.256731       0.066980132         41.452988      6.489134e-05         56.043536
                  7.7458208e-05          25.93562       0.072103131         55.143493     7.8429063e-05         29.551776       0.070313179         40.960933

0.1       0.19918931         -6.371165     4.5264653e-05        -60.804978        0.15960204        -1.8540167     5.4681587e-05        -113.69141
                    5.61268e-05        -61.692058        0.20017864        -6.7039713     8.0186341e-05        -37.248138        0.15999102        -1.8881064
                     0.15895157         -1.998697     6.6885024e-05        -19.871286        0.19989183        -6.1896682     3.5868838e-05         -18.74458
                  5.6621734e-05        -117.12801        0.16032792        -2.1796165      5.315797e-05         -60.75208        0.20131036        -6.8447818

0.125       0.16122063        -59.941842      6.108221e-05        -45.545597        0.11821917        -61.222953     3.0268623e-05        -7.3258779
                  6.3052332e-05         -58.28179        0.15952603        -60.262634     9.1478554e-05        -80.708072        0.11654352        -61.324361
                     0.11764803        -61.618664     9.3060837e-05        -56.250065        0.16179408         -59.86632     7.7864138e-05        -37.817131
                  4.0494194e-05         4.1139429         0.1160968        -61.780103      5.650978e-05        -61.109121        0.15977481        -60.556214

0.15      0.050157821         1.7452374     0.00012775435        -150.21449       0.038005166         26.112541     0.00010464706        -177.02006
                  0.00013440501        -155.99402       0.053386068         4.2472369     0.00014119202        -155.91394       0.041131103         26.638768
                    0.037977333          27.72342     0.00015404876        -139.98561       0.050874048         1.9591358     0.00012347997        -143.24225
                  0.00010744686        -168.36177       0.041910191         27.864865      0.0001186202        -157.73228       0.054145322          5.212675

0.175       0.20753481        -26.046018     6.2798523e-05         113.51754        0.15761723         -25.07143     9.7702363e-05         22.496051
                  7.1701847e-05         106.83515        0.20971714        -26.478797     0.00011378375         128.39472        0.15851525        -25.385219
                     0.15754772        -24.781661      0.0001262388         141.03646          0.209011         -26.15055     4.7509315e-05         139.19381
                  9.3138217e-05         28.260726        0.15956046         -25.37325     5.5295408e-05         106.07509        0.21186143        -26.596886

0.2       0.21691565        -79.502787     8.0643728e-05           132.235        0.15691497        -83.806997     0.00010232052        -157.95194
                  7.5027698e-05         125.57833        0.21499654        -79.935868     0.00010982758          88.29515        0.15427768        -83.971257
                      0.1564606        -83.671123     0.00012164415         98.463948         0.2176956        -79.496607     0.00011200862         139.61206
                  0.00010032665        -155.81053        0.15492136        -84.196185     7.8747802e-05          132.5509        0.21662758        -80.174337

0.225      0.071440636        -117.06465     0.00017268378         35.899371       0.046053238        -137.22464     0.00012527902         36.085814
                  0.00017146612         32.523748       0.066727278        -114.63068     0.00018092596         22.495137       0.040682953         -134.5352
                    0.045112497        -137.00408     0.00020091391         31.130723       0.071435863        -115.27514     0.00019461356         39.960573
                  0.00012422338         41.402571       0.040368896        -135.80719     0.00016465098         33.606979       0.066611519        -114.36253

0.25       0.13229889        -47.806993     0.00012563822        -50.724573       0.079944617        -48.006327     6.4143075e-05        -145.69681
                  0.00012818412        -54.481573        0.13635176        -48.350967      0.0001746826        -57.434368       0.083347095        -48.859725
                    0.081072431        -47.639421     0.00020107129        -49.750941        0.13533265        -48.679351     0.00012918597        -44.353414
                  4.9474781e-05        -136.09913       0.084018289        -48.302486     0.00010945839        -52.197571        0.13889008        -48.677099

0.275       0.19069264        -99.633748     0.00014533365         -84.57743        0.10519447        -108.32681     0.00012085515        -9.5430159
                  0.00014339705        -87.762836         0.1889428        -100.23895     0.00016429279        -108.48606        0.10260132        -109.06089
                     0.10616018        -108.03217     0.00019095898        -106.47528        0.19215527        -100.20252     0.00016213037         -75.60297
                  0.00011880039        -16.136138        0.10370147         -108.8745     0.00014127666        -78.040703        0.19125783        -100.68936

0.3       0.11581544        -152.84672     0.00022962393        -161.70913       0.051673629        -169.20215     0.00019930632        -144.94264
                  0.00022961332        -163.41271        0.10945717        -152.53507     0.00023484631        -169.94181       0.044571936        -169.14434
                    0.052182593        -168.58878     0.00025379804        -169.21196        0.11462303         -152.4949     0.00025829619        -155.47553
                  0.00020035308        -146.30921       0.045676032        -169.47109     0.00023465583        -158.80408        0.10976818        -152.73458

0.325      0.046548985        -103.54237      0.0002147133         122.94087       0.026882332        -106.52501     0.00011769434         109.13553
                   0.0002185447         121.46179       0.050267733        -100.22281     0.00025783916         114.37421       0.030536065        -100.97076
                    0.027293929        -106.79716      0.0002758606         116.18207       0.049006106        -102.93376      0.0002415125         127.15109
                  0.00011947443         112.17309       0.030167626        -101.22349     0.00021614274         124.09578       0.051574191        -100.16218

0.35       0.10239281        -114.84998     0.00022556368         61.053055       0.038551614        -130.46186     8.4205896e-05          83.15291
                  0.00023102085         59.249597        0.10049306        -115.40337     0.00025794494         48.442082       0.036619155        -132.50409
                    0.039448964        -131.18479     0.00027886763          49.59104        0.10378615        -116.88877     0.00024500548         65.151948
                  9.7663541e-05         82.356064       0.036621802         -131.2276     0.00022271545         63.923708        0.10204551        -116.68098

0.375      0.065675827        -160.55306     0.00026189903        -12.133111      0.0073032791         -22.65545     0.00017612929        -8.4250797
                  0.00026771701        -13.849313       0.059078909        -157.20998     0.00030282957         -16.70468       0.015017587        -17.136522
                   0.0060701322        -20.593552     0.00032172869        -16.703858       0.062896933        -161.09285     0.00028715867        -6.7634977
                  0.00018802579        -9.7007682       0.014243991        -20.140808     0.00026751783        -8.4830408       0.058202313         -157.9094

0.4      0.037281235        -102.71858      0.0002285525        -77.556795       0.054700729        -82.828647     0.00013196342        -106.62398
                  0.00023423576        -79.272811       0.043217583        -100.16655     0.00032421616         -88.19125       0.060862932        -83.328627
                    0.053544852        -82.852219     0.00033929371        -88.131564       0.041626338        -100.85897     0.00026111507        -73.179643
                  0.00013904112        -106.52174       0.059485822         -83.65606     0.00023929406        -74.909798       0.045355283        -99.905128

0.425      0.069983551        -131.06236     0.00026292969        -131.65535       0.047222127        -147.79943     0.00011215069        -143.60449
                  0.00026965624        -133.58128       0.068030444        -131.01007     0.00033411166        -152.84023       0.045433586        -148.38637
                    0.046393365        -148.31086     0.00034947079         -152.8125       0.071090398        -133.19884     0.00029602878        -128.96151
                  0.00012225556        -143.94477       0.044016419        -147.99227     0.00027444538        -128.80015       0.068227561        -132.47426

0.45      0.032086021        -126.46839     0.00024912178         154.84186       0.018723259         -54.58772     0.00016526107         126.22587
                  0.00025703788         152.19202       0.034148531        -110.20388     0.00038630922         139.84956        0.02705654        -49.707353
                    0.018817911         -52.07165     0.00040188466         139.37519       0.029815165        -118.48998     0.00028528119         160.03128
                  0.00018014812          125.3376        0.02812878        -50.962127     0.00026672653          159.8593       0.033768317          -104.798

0.475       0.11301587        -108.98994     0.00010561196         87.518988       0.096464039        -111.70824     2.8282241e-05        -4.1254122
                  0.00011036903         81.546675        0.12155247        -109.84665     0.00037389519         67.037023        0.10303538        -111.73571
                    0.096128899        -111.20846     0.00038497016         66.495301        0.11999123        -108.19766      0.0001380977         94.831542
                  3.9803956e-05        -2.4477827        0.10305848        -112.32632     0.00011718795         94.056494        0.12597138        -109.66667

0.5       0.16064271        -161.92169      0.0001449893         31.903521        0.11825805        -174.54738     0.00017211168         82.294676
                   0.0001490791         28.462406        0.15960737        -162.91385     0.00031921676         5.7755838        0.11639815        -174.81307
                     0.11742879        -174.28442     0.00032872041         5.8785493        0.16356947        -162.47802     0.00018008202         32.288414
                  0.00017141629         82.899436        0.11536211         -175.2109     0.00015582213         34.082496        0.16065629        -163.51897

0.525      0.078143355         149.61345       0.000267946        -56.152904       0.053828874         128.82741     0.00022150905        -43.201541
                  0.00027947544        -57.889295       0.068140334         152.73957      0.0003952848        -54.566313       0.043876616         130.26207
                    0.052619191         129.30157     0.00041323335         -54.86783       0.072981075         150.23593     0.00030251193        -53.964542
                  0.00023425413        -42.488151       0.042182048         130.59283      0.0002801172        -52.867407       0.063330887         153.86318

0.55       0.11301802        -131.06507     0.00024721306        -140.65766       0.069207174        -143.35569     1.8294693e-05         170.08859
                   0.0002603236        -143.06708        0.12439001        -132.20798     0.00043502674        -135.30511       0.077385666        -143.50259
                    0.070470939        -143.03077     0.00045589289        -136.57521        0.12364828        -129.92474     0.00026735169        -136.21837
                  3.8144902e-05        -172.23105       0.079063453        -143.67083     0.00025392345        -135.77269        0.13234478         -132.0878

0.575       0.23293857         173.82871     0.00022034715         172.24833        0.13913579         157.01712     0.00027367274        -111.69754
                  0.00022360208         169.42616        0.23353386         172.46602     0.00032576328         156.31943        0.13768507         156.39317
                      0.1399256         157.18728     0.00033658223         153.74376        0.23807201         173.48812      0.0002540538         178.24422
                  0.00025579815         -112.4911        0.13851037         156.06207     0.00023989054         178.06112        0.23737975          171.7832

0.6       0.20780491         115.47563     0.00031876767         114.31628        0.12096754         100.76719     0.00041483578         133.91478
                  0.00032314342         113.14126        0.19754477         114.20699     0.00035838269         113.81988        0.11134427          99.81726
                     0.12107341         101.01744     0.00035985593         112.35423        0.20404379          115.1261     0.00037361623         116.12666
                  0.00040585277         134.34996        0.11113813          99.38924     0.00035093667         116.74239        0.19424686         113.52684

0.625      0.040853627         108.71345     0.00037114832         34.841866       0.026129925         107.49097     0.00025050309         31.841113
                  0.00038251767          33.74513       0.038114508         126.84559     0.00050354023         36.998061       0.025756951         131.03022
                    0.026966324         110.05867     0.00051542311         36.002564       0.040644755         125.04247     0.00041288657         34.200341
                  0.00025848643          34.60634       0.026138619         133.92923     0.00039028026         35.796849       0.041784135         139.70957

0.65       0.17808058         151.28963     0.00032983305        -33.547022         0.1057498         133.02987     0.00022552665         19.497571
                  0.00033968434        -35.458505        0.17949391         149.52067     0.00042527337        -41.294578        0.10512227         131.38975
                     0.10702457         132.69381     0.00044133191        -43.584922        0.18488282         150.14377     0.00034737486        -30.929889
                  0.00023402442         13.951988        0.10651882         131.46499     0.00033845957        -28.819967        0.18518696          148.3467

0.675       0.21761886         93.120614     0.00036863995        -91.626547        0.11112275         76.434041     0.00045358129        -72.915591
                  0.00037338737        -93.084857        0.20586216         91.289777     0.00040960999        -87.400921        0.09966307         73.968174
                     0.11227872         76.170718     0.00040787493        -90.863632        0.21562038         91.957943     0.00041607985        -87.402099
                  0.00045158779        -75.732877        0.10096755         73.785928     0.00040810462        -86.586083        0.20535159         90.055473

0.7      0.099972738         37.327517      0.0004432228        -162.76033       0.028466973         28.521195     0.00042127789         -172.7938
                  0.00045106271        -163.40699       0.084034504         37.080907     0.00059725876        -156.50687       0.014476294         36.203646
                    0.029297244         27.924704     0.00058989575        -158.31336       0.092904723         37.244892     0.00050758683        -161.90249
                  0.00041803645        -174.24723       0.015129519         32.445031     0.00049232414        -161.16896       0.079938442         36.806302

0.725      0.076154529         116.83897       0.000429992         126.56981       0.072924183         117.50683      0.0002752773         128.70961
                  0.00044283117         125.70494       0.077454656         116.20179     0.00057240671          124.8335       0.073824782         115.49738
                    0.072581317         116.94454     0.00057163406         123.19844       0.078846186         115.66638     0.00047075986         127.22538
                  0.00028245914         128.06854        0.07351372         116.11575     0.00045794598          128.6761       0.078859703         114.49099

0.75       0.10878496         73.444828     0.00046471969         61.342184       0.071269935         63.102124       0.000377632         65.158293
                  0.00047579147         60.097434       0.093405497         72.989395      0.0005742325         64.455599       0.056682299           60.7668
                    0.071264404         62.323605     0.00057126652         62.365074        0.10390349         71.225779     0.00051703207         63.497726
                  0.00038783417          62.75888        0.05744416         61.342475     0.00050898327         64.668513       0.090826441         70.570986

0.775       0.02742677         99.906335     0.00048809815        -12.310011       0.040341362         144.09195     0.00033754309        -21.587476
