! Created Thu Mar  2 12:31:34 2023
# ghz S ma R 45
! 4 Port Network Data from SP1.SP block
! freq  magS11  angS11  magS12  angS12  magS13  angS13  magS14  angS14  
!       magS21  angS21  magS22  angS22  magS23  angS23  magS24  angS24  
!       magS31  angS31  magS32  angS32  magS33  angS33  magS34  angS34  
!       magS41  angS41  magS42  angS42  magS43  angS43  magS44  angS44  
!     
0      0.069622059    -2.9352304e-13     2.4968505e-05      -1.96473e-12      0.0041009243    -4.1541364e-12     2.0649864e-05               180
                  1.7679609e-05    -9.7857129e-12       0.073336723    -5.7896496e-13     1.6645032e-05     4.8621989e-13      0.0036332513     4.5297355e-12
                   0.0049466867     1.2741032e-11     2.0619307e-05              -180       0.070189348    -2.7925002e-14     3.5654175e-06    -3.9645913e-11
                  7.7863948e-05              -180      0.0040610382     8.3237261e-12     1.3954277e-05     1.4820602e-11       0.070059023    -6.1870676e-13

0.025       0.15086746         1.7635963     4.5210155e-05        -133.09698       0.088036342         20.827781     5.2167783e-05        -176.20049
                  4.9564006e-05        -158.46935        0.15074155        0.88835179     4.3591083e-05        -154.72084       0.088654607         20.873457
                     0.08846518         20.383313     4.2379073e-05         162.45654        0.15134349         1.9745713     4.3986352e-05        -147.98821
                  0.00011226314         144.88222       0.088649945         20.628605     5.6690092e-05        -155.71039        0.15025229         1.4638573

0.05       0.11797414        -47.170443     0.00010738644         155.46144       0.062983086        -39.363855     0.00013906365         136.36539
                  9.6302613e-05         140.43624        0.11526054        -47.699659     9.0248008e-05         142.43297       0.062939307        -39.812882
                    0.063649829          -39.9038     8.1420921e-05         125.98813        0.11878274        -47.290274     0.00012612922         145.78166
                  0.00014756651         99.730706       0.062831586        -40.106249     0.00012147119         139.80226        0.11479374        -47.514283

0.075      0.067567633         40.238741     0.00016916323         61.989103       0.070454138         55.262858     0.00023268637         48.860657
                  0.00016096197         56.608069       0.071376883         39.848134     0.00015234363         54.993214       0.071157032         54.459558
                    0.069647576         55.173646     0.00015002747         41.822716       0.066980132         41.452988     0.00020193673          52.28196
                  0.00023097233         33.810323       0.071188122         54.539226     0.00019527182          55.30823       0.072281416         40.947534

0.1       0.19918931         -6.371165     0.00013546386        -7.9144437        0.15960204        -1.8540167     0.00019056268         -24.31893
                  0.00014288438        -14.147932        0.20018168        -7.7135415     0.00013047528        -19.709658        0.15909655        -2.7666355
                     0.15895157         -1.998697     0.00012019675        -36.998087        0.19989183        -6.1896682     0.00015747407         -22.89855
                  0.00022182844        -35.688258        0.15889074        -2.8921954     0.00017768019        -16.017669        0.20179983        -7.4391031

0.125       0.16122063        -59.941842     0.00021485504        -48.741039        0.11821917        -61.222953     0.00025360375        -60.196343
                  0.00020613193        -59.145002        0.15773387         -61.45915     0.00017923628        -61.225716        0.11578337           -62.459
                     0.11764803        -61.618664     0.00014580806        -66.088312        0.16179408         -59.86632     0.00020998989        -56.896452
                  0.00026692064        -80.814632        0.11511928        -62.713943     0.00024188606        -62.457754        0.15888662         -61.09642

0.15      0.050157821         1.7452374     0.00033270535        -137.27904       0.038005166         26.112541     0.00041997344        -141.81482
                   0.0003038609        -145.35144       0.053331237         3.7914258       0.000282023        -147.40509       0.039704456         24.710704
                    0.037977333          27.72342      0.0002631236        -150.39739       0.050874048         1.9591358      0.0003557225        -140.41067
                  0.00039612483        -157.13662       0.040439733         25.715966     0.00036074537        -144.73694       0.054923901         2.7319509

0.175       0.20753481        -26.046018     0.00024275211         146.04467        0.15761723         -25.07143     0.00034584269         139.00668
                  0.00021081267          140.9024         0.2076406        -27.822659     0.00020211529         132.27153        0.15531691        -27.045861
                     0.15754772        -24.781661     0.00019187126         124.01598          0.209011         -26.15055     0.00028604156         138.03482
                  0.00031502612         127.96677        0.15597365        -26.996199     0.00028387685         139.17083        0.20960247        -28.378999

0.2       0.21691565        -79.502787     0.00028538669         110.07045        0.15691497        -83.806997      0.0003451125         96.899005
                  0.00026388973         109.78871        0.21293322        -81.721788     0.00021103814         102.57738        0.15237812        -86.134433
                      0.1564606        -83.671123     0.00017396815          97.90887         0.2176956        -79.496607     0.00027142251         98.354346
                  0.00032732979         90.510504        0.15242041        -86.196992     0.00030251219         99.704891        0.21459973        -82.160212

0.225      0.071440636        -117.06465     0.00047049766         32.623236       0.046053238        -137.22464     0.00055064862         28.152084
                  0.00044395508         30.153657       0.068027412        -118.99369     0.00038411373         26.670171       0.043459186        -139.29682
                    0.045112497        -137.00408     0.00034079118         25.257006       0.071435863        -115.27514      0.0004536791         30.147201
                  0.00053757642         20.028849       0.042693254        -139.20256     0.00049438488         27.430812       0.068749519        -118.68109

0.25       0.13229889        -47.806993     0.00042828478        -49.936648       0.079944617        -48.006327     0.00054829228        -51.700373
                  0.00038922257        -53.237807        0.12897366        -50.089865      0.0003517361        -60.061767       0.076570636        -51.312689
                    0.081072431        -47.639421     0.00031744395        -62.585753        0.13533265        -48.679351      0.0004511088        -51.257049
                  0.00050999306        -61.230877       0.077856219        -51.236089     0.00047182548        -54.572564         0.1305828        -51.179818

0.275       0.19069264        -99.633748     0.00041145302        -100.44135        0.10519447        -108.32681     0.00053020774        -107.37323
                  0.00037232335        -99.312608         0.1849666        -102.43653     0.00030437489        -108.03847       0.099588229        -112.29867
                     0.10616018        -108.03217      0.0002669707        -109.15738        0.19215527        -100.20252     0.00042711315         -105.9331
                  0.00046750375        -111.81841        0.10085786        -112.40119     0.00043712329         -107.3283        0.18583516        -103.50675

0.3       0.11581544        -152.84672     0.00058965767        -166.47113       0.051673629        -169.20215     0.00070757061        -171.44282
                  0.00056289693        -165.49904        0.11433845        -156.77622      0.0004682905        -170.12173       0.049833233        -174.30357
                    0.052182593        -168.58878      0.0004240581        -170.24321        0.11462303         -152.4949     0.00058700124        -169.37071
                  0.00066845378        -173.47019       0.050691647        -174.57862     0.00061425342        -170.02883        0.11311393        -157.80064

0.325      0.046548985        -103.54237      0.0006234982         116.20504       0.026882332        -106.52501     0.00076032166         113.87419
                  0.00059703457         116.02927       0.040752593        -111.85606     0.00051293119          110.1149       0.023103084        -118.84695
                    0.027293929        -106.79716     0.00046505311         109.66407       0.049006106        -102.93376     0.00063473401         114.75389
                  0.00073349175         110.19329        0.02312687        -119.38727     0.00067103564         113.26445       0.041484743        -110.81619

0.35       0.10239281        -114.84998     0.00061047758         49.643907       0.038551614        -130.46186     0.00076389483         47.481883
                   0.0005802168         49.546952       0.094971583        -117.66429     0.00049092523          42.15253       0.033996229        -137.30279
                    0.039448964        -131.18479     0.00044336925         42.323298        0.10378615        -116.88877     0.00063243709         48.169185
                  0.00071934204         43.449253       0.034587919        -137.70439     0.00066040949         46.019462       0.096241198        -119.08395

0.375      0.065675827        -160.55306     0.00071388332        -16.656271      0.0073032791         -22.65545     0.00088359051         -18.81177
                  0.00068603027        -16.445019       0.065578265        -166.16235      0.0005806518        -22.910584      0.0054195243        -8.4505013
                   0.0060701322        -20.593552     0.00053301256        -22.215037       0.062896933        -161.09285     0.00074295817        -18.051037
                  0.00083318908           -21.201      0.0044667451         1.3621661     0.00076904731        -19.585351       0.063395893        -167.43171

0.4      0.037281235        -102.71858     0.00074461501        -89.550415       0.054700729        -82.828647     0.00092494699        -90.895638
                  0.00071938814        -89.869632       0.029037242        -111.82783     0.00061709736          -97.4259       0.048012754        -86.928775
                    0.053544852        -82.852219     0.00056894113        -96.928384       0.041626338        -100.85897     0.00077979848         -91.35866
                   0.0008872907        -93.161191       0.046570097        -86.314781     0.00081377639         -92.72481       0.031839043        -107.09158

0.425      0.069983551        -131.06236     0.00074652716        -154.06598       0.047222127        -147.79943     0.00093163075        -155.45722
                  0.00071514303        -154.60417       0.063629936        -135.42489     0.00060198503        -162.61457       0.044710929        -154.92888
                    0.046393365        -148.31086     0.00055638479        -161.59284       0.071090398        -133.19884     0.00077553361        -155.86142
                  0.00088909163        -158.21168       0.043359878        -154.43382     0.00080641808         -157.9036       0.065953549        -136.37212

0.45      0.032086021        -126.46839     0.00086284829         137.41941       0.018723259         -54.58772      0.0010716808         136.30556
                  0.00082474765         137.18227       0.030098671        -137.74866     0.00070944305         129.48581        0.01195492        -59.280303
                    0.018817911         -52.07165     0.00066570021         130.45163       0.029815165        -118.48998     0.00090920468         135.81021
                   0.0010145177         134.36339        0.01281718        -59.139152     0.00093279675         134.16486       0.029201326        -135.44771

0.475       0.11301587        -108.98994     0.00083397446         61.743373       0.096464039        -111.70824      0.0010436806         61.044783
                  0.00079838037         61.461808        0.10600821         -115.0932     0.00069283194         50.303125       0.088135912        -118.02265
                    0.096128899        -111.20846     0.00064945163         50.628394        0.11999123        -108.19766     0.00087730009         58.195423
                   0.0009977758         59.660752       0.088024317        -118.01531      0.0009084123         57.281345        0.10986427        -115.11144

0.5       0.16064271        -161.92169     0.00073003077         1.7947634        0.11825805        -174.54738     0.00091184051        0.53972437
                  0.00069428642         1.4656325        0.15915795        -169.30405     0.00054566096        -10.815561        0.11772856         178.02146
                     0.11742879        -174.28442     0.00050532021        -9.9977356        0.16356947        -162.47802     0.00072028289        -1.4549172
                  0.00087923954         -1.296003        0.11655847         178.15898     0.00075878917        -3.1933366        0.16093073        -170.10611

0.525      0.078143355         149.61345     0.00092717249        -58.443801       0.053828874         128.82741      0.0011422063        -59.128321
                  0.00087811399        -58.358749       0.083317475         138.78951     0.00071792682        -65.572647       0.061898254         119.69808
                    0.052619191         129.30157     0.00067799616        -64.304283       0.072981075         150.23593     0.00094744705        -58.611959
                   0.0010846129         -61.08884       0.060078158         120.75052     0.00097474555        -61.188136       0.080088762         138.44742

0.55       0.11301802        -131.06507      0.0010084428        -140.36327       0.069207174        -143.35569      0.0012542327        -139.91712
                  0.00094999174        -139.95013        0.10766888         -138.1805      0.0008177487        -150.88136       0.062506789        -153.83588
                    0.070470939        -143.03077     0.00077311396        -150.41346        0.12364828        -129.92474      0.0010474296        -142.09611
                   0.0011751156        -141.21568       0.064636545        -154.35923      0.0010662914        -143.90866        0.11337721        -138.48742

0.575       0.23293857         173.82871     0.00074308849          154.1998        0.13913579         157.01712     0.00094046039         153.85056
                   0.0006989455         155.83146        0.23708567         165.48439       0.000520567         139.41783        0.14200783         148.37601
                      0.1399256         157.18728     0.00048047763         140.31882        0.23807201         173.48812     0.00071280013         151.75509
                   0.0008842729         154.29375        0.14299093         148.04825     0.00073294837         150.43883        0.23911544         164.45831

0.6       0.20780491         115.47563     0.00085848611         109.08097        0.12096754         100.76719      0.0010583718         108.20183
                   0.0008289619         111.08011        0.21784171         106.69004     0.00060709059         107.42253        0.12960315           93.1527
                     0.12107341         101.01744     0.00058030186         109.58011        0.20404379          115.1261     0.00085995532         112.32481
                   0.0010297979         108.46765         0.1293065         93.045396     0.00088403573         110.40615        0.21354001         105.59055

0.625      0.040853627         108.71345      0.0011853632         30.864649       0.026129925         107.49097      0.0014448079         31.736306
                    0.001146086         32.256694       0.042829677         95.035922     0.00094520242         25.081437       0.030096163         93.039377
                    0.026966324         110.05867     0.00090427353         25.673714       0.040644755         125.04247      0.0012209503         31.562571
                   0.0013934364         30.887917       0.030834624         96.774939      0.0012480185         29.737797        0.04124514         107.81431

0.65       0.17808058         151.28963     0.00095430775        -48.480675         0.1057498         133.02987       0.001203156        -46.076459
                  0.00091717743        -46.553996        0.18701029         141.86288     0.00071596232        -59.132827        0.11366032         123.54972
                     0.10702457         132.69381     0.00066662664        -58.815408        0.18488282         150.14377      0.0009518653        -47.080112
                   0.0011344764        -46.273638         0.1153877         122.89604     0.00097123462        -48.897539        0.19181976         140.59175

0.675       0.21761886         93.120614     0.00091849123        -92.808606        0.11112275         76.434041      0.0011769155         -93.47702
                  0.00090892067        -90.573251        0.22915674         83.927031     0.00067365494        -94.468961        0.12025873          68.35801
                     0.11227872         76.170718     0.00064043829        -91.420602        0.21562038         91.957943     0.00098430774        -89.236426
                   0.0011367791        -91.784787        0.12143541         67.667579     0.00099602381        -90.832245        0.22662855         82.493954

0.7      0.099972738         37.327517      0.0013750727        -162.24604       0.028466973         28.521195       0.001677601         -162.6223
                   0.0013650927        -161.23699        0.10150636         29.331359      0.0011314725        -166.47603       0.029284098         26.284676
                    0.029297244         27.924704      0.0011011523        -164.87917       0.092904723         37.244892      0.0014747924        -162.32233
                   0.0016540642        -162.02738       0.029621219         24.042085      0.0014972094        -163.51842       0.094298098         28.770378

0.725      0.076154529         116.83897      0.0012782218         116.65717       0.072924183         117.50683      0.0015730094         118.56582
                   0.0012583029         117.42708       0.090013526         108.01952      0.0010257514         108.91845       0.085582625         107.19474
                    0.072581317         116.94454     0.00098777758         109.83194       0.078846186         115.66638      0.0013267455         117.50696
                   0.0015365275         118.50056       0.085335836          107.2644      0.0013526381         116.17216       0.092929826          106.8825

0.75       0.10878496         73.444828      0.0012567013         59.088986       0.071269935         63.102124       0.001577893         59.628872
                   0.0012396392         59.941704        0.11937405         63.739277      0.0010013954         53.521824       0.080964251         53.493072
                    0.071264404         62.323605     0.00096377326         55.196015        0.10390349         71.225779      0.0013535151         60.267039
                   0.0015349924           60.1819       0.081228706         53.011471      0.0013723999         58.857446        0.11699925         61.430848

0.775       0.02742677         99.906335       0.001578081        -16.347988       0.040341362         144.09195      0.0019092891        -15.433646
