! Created Thu Mar  2 12:43:56 2023
# ghz S ma R 45
! 4 Port Network Data from SP1.SP block
! freq  magS11  angS11  magS12  angS12  magS13  angS13  magS14  angS14  
!       magS21  angS21  magS22  angS22  magS23  angS23  magS24  angS24  
!       magS31  angS31  magS32  angS32  magS33  angS33  magS34  angS34  
!       magS41  angS41  magS42  angS42  magS43  angS43  magS44  angS44  
!     
0      0.069622059    -2.9352304e-13      1.492109e-06     7.9545113e-14      0.0041009243    -4.1541364e-12     1.1288048e-06     1.0961631e-13
                  1.4934267e-06    -5.8850223e-14       0.070341714     2.2616049e-13     2.5088297e-06     4.0014473e-15      0.0035931508    -4.8148049e-12
                   0.0049466867     1.2741032e-11      2.503631e-06    -2.1523289e-14       0.070189348    -2.7925002e-14     2.0205887e-06     7.1330433e-15
                  1.1278592e-06     8.2365555e-15      0.0045241248    -4.5801597e-12      2.018494e-06     7.4381014e-14       0.071495081    -2.3759012e-13

0.025       0.15086746         1.7635963     1.0267327e-05        -1.3597122       0.088036342         20.827781      6.442278e-06        -7.9924381
                  1.0268923e-05        -1.4446356        0.15112252         1.8772905     1.5762491e-05         1.1671495       0.088740251         21.292301
                     0.08846518         20.383313     1.5757129e-05         1.1404034        0.15134349         1.9745713     1.1871921e-05        -1.3128412
                  6.4391557e-06        -8.0729532       0.088234158         20.849625     1.1863778e-05         -1.272579        0.15090932         1.7195476

0.05       0.11797414        -47.170443       2.08814e-05          139.7917       0.062983086        -39.363855     1.3378001e-05         143.18996
                  2.0905268e-05         139.92707        0.11838771        -46.901114      3.222066e-05         137.16295       0.064114601        -38.967321
                    0.063649829          -39.9038     3.2252588e-05         137.18026        0.11878274        -47.290274     2.4037127e-05         139.08642
                  1.3415053e-05         143.24651       0.063173165        -39.130171     2.4044118e-05         138.98195        0.11774938        -47.139831

0.075      0.067567633         40.238741     6.2210036e-05         52.798596       0.070454138         55.262858     3.9002114e-05          48.52701
                  6.2253594e-05         52.866119       0.067503746         41.164821     9.5472982e-05         54.758554       0.069896289           55.9499
                    0.069647576         55.173646     9.5496743e-05         54.753742       0.066980132         41.452988     7.1837284e-05         53.251966
                  3.9028165e-05         48.529669       0.070796654         55.913081     7.1810205e-05         53.186712       0.068343607         41.747479

0.1       0.19918931         -6.371165     4.1419522e-05        -25.665978        0.15960204        -1.8540167     2.5168973e-05        -36.399928
                  4.1456215e-05        -25.653073        0.20022531        -5.5380706     6.3368734e-05         -21.15766        0.16012316       -0.74077183
                     0.15895157         -1.998697     6.3354754e-05        -21.174174        0.19989183        -6.1896682     4.8274211e-05        -24.631238
                  2.5167538e-05        -36.425378        0.16046193        -1.0320611     4.8220195e-05        -24.662591        0.20132234        -5.6870584

0.125       0.16122063        -59.941842     3.8616067e-05         131.16136        0.11821917        -61.222953     2.5523148e-05         137.21102
                  3.8685312e-05         131.19612        0.16225373        -59.092966     6.0335672e-05         126.47083        0.11909886         -59.75365
                     0.11764803        -61.618664     6.0458702e-05         126.46052        0.16179408         -59.86632     4.4526623e-05         129.91657
                  2.5649907e-05         137.17907          0.118652         -60.19995     4.4572274e-05         129.86456        0.16256143        -59.380057

0.15      0.050157821         1.7452374     0.00011684029         37.317372       0.038005166         26.112541     7.3262968e-05         33.957008
                  0.00011700739         37.336065       0.050962048          4.446851     0.00017796511         38.790839       0.039196198          27.32307
                    0.037977333          27.72342     0.00017814008         38.748988       0.050874048         1.9591358     0.00013488431         37.412302
                  7.3475403e-05         33.872765       0.039959412         28.635928     0.00013489379         37.354144       0.051613843         5.3792684

0.175       0.20753481        -26.046018     7.4607569e-05        -44.418591        0.15761723         -25.07143     4.4185553e-05        -56.389713
                  7.4764129e-05        -44.430943        0.21113405        -24.498762     0.00011357488        -39.971761         0.1599345        -23.402322
                     0.15754772        -24.781661     0.00011361583        -40.037536          0.209011         -26.15055     8.7258764e-05        -43.537581
                  4.4268421e-05        -56.525688        0.16098107        -23.390084      8.716889e-05        -43.596529        0.21323797        -24.626453

0.2       0.21691565        -79.502787     4.4106575e-05         123.61669        0.15691497        -83.806997      3.066692e-05         130.02127
                  4.4131455e-05         123.66072        0.21943284        -77.735533     6.9845284e-05         117.24008        0.15795823         -81.44556
                      0.1564606        -83.671123     6.9935729e-05         117.25512         0.2176956        -79.496607     5.1140972e-05         122.13297
                  3.0746583e-05         130.04226        0.15860106        -81.665453     5.1190596e-05         122.12074        0.22116399        -77.971777

0.225      0.071440636        -117.06465     0.00015826683         30.405828       0.046053238        -137.22464     9.7862708e-05         30.429365
                  0.00015835164         30.366544       0.069104198        -113.15148     0.00024108456         30.016753       0.042890764        -131.85188
                    0.045112497        -137.00408     0.00024127061         29.982302       0.071435863        -115.27514     0.00018321189         29.632673
                  9.8064568e-05         30.348756       0.042576982        -133.06158     0.00018329953         29.634638       0.069171467        -112.94446

0.25       0.13229889        -47.806993     0.00012341472        -52.547861       0.079944617        -48.006327     7.2644588e-05        -60.575919
                  0.00012354327        -52.632775        0.14016121        -45.535355     0.00018391028        -49.842268       0.086664662        -45.799474
                    0.081072431        -47.639421     0.00018397355        -49.936491        0.13533265        -48.679351     0.00014303035         -52.51974
                  7.2777247e-05        -60.808623       0.087337844        -45.264688     0.00014301928        -52.548363        0.14265035        -45.887912

0.275       0.19069264        -99.633748      4.420467e-05         101.64677        0.10519447        -108.32681     3.4306305e-05         104.37976
                  4.4273605e-05         101.89297        0.19497691        -97.149592       6.93437e-05         96.649888        0.10751236        -105.22828
                     0.10616018        -108.03217      6.944684e-05         96.757772        0.19215527        -100.20252     5.1515713e-05         100.64907
                  3.4408935e-05         104.58316        0.10860961        -105.05476     5.1532509e-05         100.60422        0.19746327        -97.589702

0.3       0.11581544        -152.84672     0.00019374678         13.238011       0.051673629        -169.20215     0.00012062325         12.864054
                  0.00019378343         13.250665        0.11116972          -148.508     0.00029320906         13.173521       0.045413656        -163.93417
                    0.052182593        -168.58878     0.00029322072         13.193286        0.11462303         -152.4949      0.0002254381         12.459848
                  0.00012061418         12.914015       0.046509875         -164.2825     0.00022539725         12.478896         0.1117691        -148.70494

0.325      0.046548985        -103.54237     0.00017283937        -60.720649       0.026882332        -106.52501     0.00010022728        -65.768009
                  0.00017288669        -60.770863       0.056409297        -93.377825     0.00025637285        -59.133949        0.03552192        -91.782036
                    0.027293929        -106.79716      0.0002563261        -59.155245       0.049006106        -102.93376     0.00020015247        -61.213298
                  0.00010019781        -65.833104       0.035145229        -91.952033      0.0002000822        -61.187049       0.057721683        -93.536375

0.35       0.10239281        -114.84998     2.4287479e-05         58.519385       0.038551614        -130.46186     2.5464731e-05         64.159199
                   2.447156e-05         59.222442        0.10691218        -112.00442     3.9723045e-05         55.946619       0.041955299        -126.73445
                    0.039448964        -131.18479     3.9829913e-05         56.128401        0.10378615        -116.88877     3.0092116e-05         58.335932
                  2.5617304e-05         64.464576       0.041968504        -125.62334      2.998729e-05         57.997735        0.10874308        -113.20819

0.375      0.065675827        -160.55306     0.00022986123        -16.436188      0.0073032791         -22.65545      0.0001480844        -20.367485
                  0.00023014993         -16.36426       0.058850551        -150.33666     0.00034098971        -14.712399       0.017092625         -16.59121
                   0.0060701322        -20.593552     0.00034100231        -14.685079       0.062896933        -161.09285      0.0002685518        -16.686387
                  0.00014811517        -20.291773       0.016380479        -19.428084     0.00026826088        -16.711784       0.058328603        -151.08508

0.4      0.037281235        -102.71858     0.00023184088        -85.541376       0.054700729        -82.828647     0.00013871685        -93.573041
                  0.00023203919        -85.536091         0.0520524        -94.160016     0.00034050583        -82.998403       0.068636923        -78.679938
                    0.053544852        -82.852219     0.00034043127        -82.956964       0.041626338        -100.85897     0.00026820023         -85.73407
                  0.00013863635        -93.483237       0.067257043        -78.983793     0.00026791962        -85.689166       0.054177548        -94.190591

0.425      0.069983551        -131.06236     5.7046903e-06        -121.38084       0.047222127        -147.79943     1.2193946e-05         57.000358
                  5.4927012e-06         -122.2711       0.073146012        -126.70987     1.0558652e-05        -101.90757       0.049648871        -141.83785
                    0.046393365        -148.31086     1.0656983e-05        -100.08372       0.071090398        -133.19884     4.5457448e-06        -92.001268
                  1.2284583e-05         55.497461       0.048228326        -141.44369     4.9039485e-06        -89.118845       0.073704179        -128.11592

0.45      0.032086021        -126.46839     0.00025650438        -43.848995       0.018723259         -54.58772     0.00017035966        -49.297742
                  0.00025703585        -43.810639       0.038106939        -97.775236     0.00037361652        -41.730655        0.03251149        -44.698915
                    0.018817911         -52.07165     0.00037371738        -41.789355       0.029815165        -118.48998      0.0003013307        -44.178355
                  0.00017059358        -49.410931       0.033594089        -45.744363     0.00030095032        -44.267836       0.038154347        -93.697497

0.475       0.11301587        -108.98994     0.00027777853        -115.50789       0.096464039        -111.70824     0.00016907563        -126.96083
                  0.00027834508        -115.53462        0.13128483         -103.9631     0.00040942404        -112.21798        0.11139751        -105.12173
                    0.096128899        -111.20846     0.00040929788        -112.23303        0.11999123        -108.19766     0.00032259339        -115.49577
                  0.00016908046        -127.00774        0.11140237        -105.66931      0.0003219844         -115.4925        0.13571347        -103.94084

0.5       0.16064271        -161.92169     5.4393503e-05         153.26464        0.11825805        -174.54738     3.6001961e-05         113.05522
                  5.4580345e-05         153.14432        0.16247213        -155.91205     8.1835097e-05         161.51715         0.1180843        -167.15076
                     0.11742879        -174.28442     8.1519706e-05         161.58058        0.16356947        -162.47802     5.8952543e-05         152.80838
                  3.5806952e-05         112.79616        0.11702558        -167.53114     5.8511792e-05         152.94885        0.16410345        -156.58871

0.525      0.078143355         149.61345     0.00026010556        -54.544143       0.053828874         128.82741     0.00017364384        -58.047318
                  0.00026035473        -54.567678       0.062534075         165.64493     0.00037532295        -53.848143       0.036574167          141.4522
                    0.052619191         129.30157     0.00037548164        -53.978164       0.072981075         150.23593     0.00030852649        -55.962612
                  0.00017390298        -58.315266       0.034905291         142.08549      0.0003084687        -56.069181       0.058843802         167.16132

0.55       0.11301802        -131.06507     0.00033660482        -135.70925       0.069207174        -143.35569     0.00020616356        -146.10238
                  0.00033699501        -135.78764        0.13376029        -124.96542      0.0004952537        -132.56099       0.084680024        -133.61835
                    0.070470939        -143.03077     0.00049483376        -132.66376        0.12364828        -129.92474     0.00038889175        -135.26975
                  0.00020597256         -146.3671        0.08633002        -133.82636     0.00038832567        -135.32097         0.1420948        -124.34375

0.575       0.23293857         173.82871     9.0786725e-05         134.83474        0.13913579         157.01712     5.3346207e-05         100.63228
                  9.1023553e-05         134.58109        0.23305497        -179.25978      0.0001469219         142.36099        0.13516945         165.45059
                      0.1399256         157.18728     0.00014660152         142.26417        0.23807201         173.48812     0.00010141784         134.83197
                  5.3287431e-05         100.25385        0.13597657         165.10868     0.00010100654         134.86842        0.23722961        -179.69729

0.6       0.20780491         115.47563     0.00023835426        -59.154925        0.12096754         100.76719     0.00015768678         -60.27147
                  0.00023843568        -59.154043        0.18811275          123.2415      0.0003421777        -58.801948        0.10161797         108.10459
                     0.12107341         101.01744     0.00034227788        -58.849036        0.20404379          115.1261     0.00028460088        -60.633548
                  0.00015776313        -60.360639        0.10141079         107.63594     0.00028463638        -60.673949        0.18547663         122.82556

0.625      0.040853627         108.71345     0.00040006279        -140.23597       0.026129925         107.49097     0.00024317203        -147.23825
                   0.0003998774         -140.2896       0.038692045         146.48057      0.0005879867        -138.99742       0.025767536         154.70904
                    0.026966324         110.05867     0.00058739584        -139.08244       0.040644755         125.04247     0.00046086422        -141.48522
                  0.00024267021        -147.45352       0.026478077         157.24915     0.00046065136        -141.52849       0.044228378         157.74781

0.65       0.17808058         151.28963     0.00014172448         130.35482         0.1057498         133.02987     7.4635294e-05         102.29211
                  0.00014155041         130.14389        0.17426282         159.22923      0.0002319636         136.78481       0.098752392         141.12097
                     0.10702457         132.69381     0.00023134121          136.6806        0.18488282         150.14377     0.00015671207          130.2481
                   7.431352e-05         101.80129        0.10016062         141.19364     0.00015646378          130.2475        0.18061986         158.09476

0.675       0.21761886         93.120614     0.00024935958         -79.69261        0.11112275         76.434041     0.00017465868        -81.747844
                  0.00024982027        -79.645923        0.19478157         101.00589     0.00034647906        -79.166098       0.088918921         82.230905
                     0.11227872         76.170718     0.00034656065         -79.14245        0.21562038         91.957943     0.00029748895        -81.264985
                  0.00017469347        -81.689854       0.090251879         82.028675     0.00029719831        -81.275637        0.19481184         99.830388

0.7      0.099972738         37.327517     0.00047895708        -153.28506       0.028466973         28.521195     0.00029883629        -158.92713
                  0.00047909803        -153.28931       0.079641034         45.937251     0.00070152408        -152.33003       0.010327936         39.854811
                    0.029297244         27.924704     0.00070149122        -152.29156       0.092904723         37.244892     0.00055108233        -154.47809
                  0.00029875071        -158.83311       0.011075004         34.935714     0.00055095166        -154.43462       0.075475414         45.704264

0.725      0.076154529         116.83897     0.00021416497         128.88129       0.072924183         117.50683     0.00010692208         109.86681
                  0.00021373494         128.84234       0.066456749         126.57094     0.00034821902         133.93545       0.063876658         125.58824
                    0.072581317         116.94454     0.00034802281         133.98945       0.078846186         115.66638     0.00023560527          129.6932
                  0.00010657071         109.97663       0.063586946         126.32024     0.00023587719         129.78042       0.068361112         125.18603

0.75       0.10878496         73.444828      0.0002726312        -112.74688       0.071269935         63.102124      0.0002069937        -114.96955
                  0.00027348519        -112.74566       0.081292961         84.905277     0.00036405075        -113.59331       0.045550153         69.778098
                    0.071264404         62.323605     0.00036407824         -113.6207        0.10390349         71.225779     0.00032519877        -114.56049
                  0.00020710607        -115.01884       0.046326563         70.489453     0.00032445889        -114.58192       0.079206578         82.533941

0.775       0.02742677         99.906335     0.00054050552         172.44985       0.040341362         144.09195     0.00035047719         163.15423
