! Created Thu Mar  2 12:35:34 2023
# ghz S ma R 45
! 4 Port Network Data from SP1.SP block
! freq  magS11  angS11  magS12  angS12  magS13  angS13  magS14  angS14  
!       magS21  angS21  magS22  angS22  magS23  angS23  magS24  angS24  
!       magS31  angS31  magS32  angS32  magS33  angS33  magS34  angS34  
!       magS41  angS41  magS42  angS42  magS43  angS43  magS44  angS44  
!     
0      0.069622059    -2.9352304e-13     1.7458899e-06               180      0.0041009243    -4.1541364e-12     1.9060731e-05               180
                  1.5725804e-06              -180       0.070711258     7.7596271e-13     2.6109202e-05               180      0.0040980622    -1.8439598e-12
                   0.0049466867     1.2741032e-11     3.0541579e-05    -2.4088399e-11       0.070189348    -2.7925002e-14     2.9500389e-05               180
                  3.1153889e-05    -7.7105886e-13      0.0051672788     8.8520964e-12     3.1703692e-05               180       0.070933718    -5.1367278e-13

0.025       0.15086746         1.7635963     3.0806196e-05        -174.07986       0.088036342         20.827781     2.1016049e-05         135.53799
                  3.0651839e-05        -172.09378        0.15168343         1.3215887     3.1427692e-05         146.91297       0.088473522         20.504375
                     0.08846518         20.383313      3.521776e-05         -123.0746        0.15134349         1.9745713     2.5244944e-05         116.22924
                  3.0584757e-05        -112.39418        0.08900654         19.953761     2.7382029e-05         117.55901        0.15175989         1.5431225

0.05       0.11797414        -47.170443     2.1871416e-05         96.656623       0.062983086        -39.363855     1.3957464e-05         22.022888
                   2.202237e-05          104.0269        0.11591222        -47.610299     1.5603841e-05         31.061915       0.061408084        -39.890083
                    0.063649829          -39.9038     1.5445612e-05         151.83956        0.11878274        -47.290274     2.1563014e-05        -24.142706
                  1.8792238e-05         149.31707       0.062228373        -40.556764     2.1208279e-05        -18.176411        0.11659805         -47.73736

0.075      0.067567633         40.238741     2.1070859e-05        -107.59646       0.070454138         55.262858     2.8244208e-05        -137.03118
                  1.7418684e-05        -110.76313       0.072230598         39.857461     4.2302347e-05        -134.95934       0.073929758         54.472819
                    0.069647576         55.173646     2.3249283e-05        -107.69221       0.066980132         41.452988     4.9448745e-05        -142.99381
                  7.3092261e-06        -47.553673        0.07293634         54.333762     4.7901136e-05        -142.13076       0.071292717         40.942538

0.1       0.19918931         -6.371165     2.4740695e-05         148.49948        0.15960204        -1.8540167     3.3968572e-05         114.40452
                  2.1484273e-05         145.94548        0.20061177        -7.7762497     4.4007803e-05         122.14053        0.16063747        -3.2309603
                     0.15895157         -1.998697     2.2580543e-05         -156.6753        0.19989183        -6.1896682     4.4723432e-05         111.51074
                  1.5958609e-05        -111.71674        0.15982577        -3.4162115     4.4704498e-05         111.42748        0.20098371        -7.5807459

0.125       0.16122063        -59.941842     3.0476688e-05        -23.799913        0.11821917        -61.222953     4.5125482e-05        -14.034022
                  2.9614035e-05         -29.31831        0.15623565        -61.314152     5.8094365e-05        -21.718881        0.11437193        -62.902052
                     0.11764803        -61.618664      3.169136e-05        -99.586684        0.16179408         -59.86632     6.0040935e-05        -28.039718
                  2.4771305e-05         -121.5904        0.11367004        -63.398082     6.0848721e-05        -26.361847        0.15725077        -61.214522

0.15      0.050157821         1.7452374     7.2242397e-05        -131.09178       0.038005166         26.112541     7.6842237e-05        -130.12448
                  6.9310237e-05         -133.4277       0.056818615         4.5106294     0.00010805609        -130.55681       0.043878779         26.248749
                    0.037977333          27.72342     8.4427142e-05          -160.041       0.050874048         1.9591358     0.00010547887        -135.61156
                  5.2206116e-05        -172.83814       0.043869427         27.886452     0.00010489069        -133.59665       0.056668817         3.7810383

0.175       0.20753481        -26.046018      3.736288e-05         145.03111        0.15761723         -25.07143     5.3498932e-05         130.85341
                  3.3615194e-05         141.50043        0.20855894        -28.425392     6.2807861e-05         136.88278        0.15816302        -27.495902
                     0.15754772        -24.781661     4.5058724e-05          113.5217          0.209011         -26.15055     6.9278531e-05           129.373
                  2.7368374e-05         97.183801         0.1580079        -27.154737     6.7683049e-05         132.27454        0.20916014        -28.554398

0.2       0.21691565        -79.502787     4.6700404e-05         -74.75141        0.15691497        -83.806997     3.7998583e-05        -27.801932
                  5.0430114e-05        -76.584612        0.20965818        -82.071199     5.7356816e-05        -53.501974        0.15126344        -86.792386
                      0.1564606        -83.671123     5.9003341e-05        -79.174241         0.2176956        -79.496607     5.3240928e-05        -37.366281
                  3.5989187e-05        -86.974416        0.15065319        -86.613875      5.088345e-05        -39.318034        0.21104647        -82.058871

0.225      0.071440636        -117.06465     0.00013393463        -153.72901       0.046053238        -137.22464     0.00010830257        -141.68915
                    0.000135159        -154.68611       0.063271541        -115.46978     0.00016311186        -146.65604       0.038637677         -138.7289
                    0.045112497        -137.00408     0.00015084787        -163.62217       0.071435863        -115.27514     0.00014236012        -142.72627
                   9.991548e-05         -171.4735       0.037537171        -138.27674      0.0001416186        -143.24792       0.065251323        -114.66709

0.25       0.13229889        -47.806993      9.898847e-05         125.01934       0.079944617        -48.006327     0.00010062509         130.47667
                  9.7595857e-05         123.97515        0.13259322        -50.988204     0.00013044483         131.67075       0.079595022          -51.4009
                    0.081072431        -47.639421      0.0001135183         106.03808        0.13533265        -48.679351     0.00012191232         132.64465
                   8.747368e-05         95.946135       0.080861708        -50.996825     0.00012133809         133.40557        0.13358706        -52.022051

0.275       0.19069264        -99.633748     3.7423646e-05        -92.725547        0.10519447        -108.32681     1.8778201e-05         7.6778624
                  4.0609642e-05        -93.616864        0.18158494         -103.2224     2.5559299e-05         -74.76819       0.097698492        -112.73758
                     0.10616018        -108.03217     7.2126734e-05        -71.165683        0.19215527        -100.20252     1.8924723e-05        -12.871115
                  4.9136161e-05        -57.507788       0.098731973        -112.34766     1.5069477e-05        -9.1592222        0.18319094        -103.83428

0.3       0.11581544        -152.84672     0.00016442222        -175.48554       0.051673629        -169.20215     9.7256545e-05        -165.95121
                  0.00016755233        -175.76988        0.10603664        -156.46822     0.00016990283        -171.04818        0.04427859        -174.93283
                    0.052182593        -168.58878      0.0001980543        -169.69037        0.11462303         -152.4949     0.00012406509        -163.77601
                   0.0001267069        -171.07306       0.044794172        -173.98653     0.00012199438         -165.9564        0.10735555        -156.50514

0.325      0.046548985        -103.54237     0.00015888849         107.81846       0.026882332        -106.52501       0.000112304         117.31375
                  0.00016070714         107.67445       0.044448608        -106.72164     0.00016852627         115.26447       0.025231312        -111.99854
                    0.027293929        -106.79716     0.00017971056          109.3846       0.049006106        -102.93376     0.00013106981         123.08534
                  0.00012709742         102.32263       0.025730549        -112.33112     0.00012917339         121.20947       0.044928661        -108.69526

0.35       0.10239281        -114.84998     2.5943552e-05        -31.273861       0.038551614        -130.46186     1.8748318e-05         54.802836
                  2.5739771e-05        -30.395667       0.093449108        -118.35485       9.58038e-06         26.200765       0.030648209        -136.43472
                    0.039448964        -131.18479     4.0501893e-05        -46.931514        0.10378615        -116.88877     1.8751343e-05         95.345933
                  4.4292427e-05        -34.214977       0.031630231        -137.51611     1.6472675e-05          91.08946       0.094310925        -120.61729

0.375      0.065675827        -160.55306     0.00016835358         164.46075      0.0073032791         -22.65545     0.00010032442         153.97535
                  0.00016905348         164.16236       0.058177349        -163.34275     0.00017042609         158.64244       0.013115972        -21.229095
                   0.0060701322        -20.593552     0.00020489467         171.01261       0.062896933        -161.09285     0.00012159794         153.41006
                   0.0001354936         174.71375       0.011825032        -19.293337     0.00012125617         153.48195       0.057629187        -165.35981

0.4      0.037281235        -102.71858     0.00019423792           89.2939       0.054700729        -82.828647     0.00011450166         85.127171
                  0.00019552822         89.083501       0.035442272        -105.72338     0.00018830852         88.420209       0.052983675        -88.394908
                    0.053544852        -82.852219     0.00023054338          97.41049       0.041626338        -100.85897       0.000125608         88.260564
                   0.0001560826         97.192905       0.051713739        -88.456103     0.00012491074         87.140461       0.036681894        -105.88839

0.425      0.069983551        -131.06236     4.3805117e-05        -3.8202549       0.047222127        -147.79943       6.17689e-06         168.05658
                  4.5406849e-05        -2.7660419        0.06339212        -135.26578     1.2410685e-05         3.2480921       0.041252448        -154.73587
                    0.046393365        -148.31086     5.0396391e-05         30.882799       0.071090398        -133.19884     2.4023579e-05         164.86212
                  3.3739895e-05         27.065561       0.040320614        -155.44748     2.2180304e-05          175.8845       0.063825005        -137.63884

0.45      0.032086021        -126.46839     0.00016176801         142.62714       0.018723259         -54.58772     0.00014971818         124.79486
                  0.00015968299         142.49199       0.030811705        -123.45276     0.00020063041          131.6114       0.022061339        -57.321187
                    0.018817911         -52.07165     0.00017933856         137.18212       0.029815165        -118.48998     0.00018336279         122.43083
                   0.0001264165         137.91567       0.022259284        -54.941247     0.00018304423         124.42536       0.028589296        -120.69633

0.475       0.11301587        -108.98994     0.00020040795         67.157912       0.096464039        -111.70824     0.00015328144         49.318939
                  0.00019894912         66.904492        0.11288483        -115.81315     0.00022323749          57.34212       0.095649632        -119.57992
                    0.096128899        -111.20846     0.00022768148         67.684803        0.11999123        -108.19766     0.00017975715          47.62952
                  0.00015389102         69.231155       0.095299857        -119.01918     0.00017931927         49.431688        0.11595422        -115.30745

0.5       0.16064271        -161.92169     4.8924777e-05        -13.361565        0.11825805        -174.54738     3.0699257e-05        -98.686784
                  4.8835439e-05        -14.138031        0.15770749        -170.17707      4.327131e-05        -56.228414        0.11605647         176.60373
                     0.11742879        -174.28442     5.9120528e-05         7.3806227        0.16356947        -162.47802     4.1286214e-05        -106.17539
                  3.6274348e-05          34.37993        0.11515631         176.90448     3.8341835e-05         -105.6741        0.15990537        -170.76482

0.525      0.078143355         149.61345     0.00017178091          122.3213       0.053828874         128.82741     0.00019142302         115.55986
                  0.00017019194         122.56406       0.074059505         140.51985     0.00023690131         119.24981       0.051887284         119.60055
                    0.052619191         129.30157     0.00018459172         111.85304       0.072981075         150.23593     0.00023233906         115.11124
                  0.00014113754         104.62311       0.050593284         120.17931     0.00023155026         115.48896       0.072371071          140.0922

0.55       0.11301802        -131.06507     0.00023345359         42.495961       0.069207174        -143.35569     0.00022422224         30.557371
                  0.00023096158         42.706983        0.11661845        -139.51957      0.0003006444         36.074306        0.07153656        -152.81151
                    0.070470939        -143.03077     0.00025595876         34.559609        0.12364828        -129.92474     0.00027406143         30.837219
                   0.0001787124         29.897622       0.072885357        -152.51527     0.00027377874         32.079474        0.12218323        -138.87083

0.575       0.23293857         173.82871     5.3470202e-05        -36.326401        0.13913579         157.01712     6.1886827e-05        -81.079309
                  5.1474969e-05         -36.55969        0.23523917         164.01782     8.9609632e-05        -64.924112        0.14119075         147.03808
                      0.1399256         157.18728     6.2193311e-05        -60.908713        0.23807201         173.48812     8.8766317e-05        -75.518991
                  2.4379294e-05        -70.097723        0.14201657         147.21151     8.5162559e-05        -71.477921        0.23887136         163.60637

0.6       0.20780491         115.47563     0.00017856506         108.15526        0.12096754         100.76719     0.00017297919         114.21263
                  0.00017981026         108.07316        0.20565523         105.22726     0.00022935179         115.33388        0.12010317         90.854013
                     0.12107341         101.01744     0.00020929641         108.44526        0.20404379          115.1261     0.00020524686         117.36592
                   0.0001501929         99.282391         0.1202315         91.141998     0.00020005708         116.00911        0.20539918         104.80718

0.625      0.040853627         108.71345     0.00030520027          28.46733       0.026129925         107.49097     0.00026804719         27.193972
                   0.0003041937         28.647997       0.038406958         112.44585     0.00037651663         29.705173        0.02623468         113.23192
                    0.026966324         110.05867     0.00034044123         24.900536       0.040644755         125.04247     0.00033124761         28.625559
                  0.00023203646          16.89923       0.027476858         115.07117      0.0003278762         28.024256       0.041285251         120.28042

0.65       0.17808058         151.28963      0.0001070369        -64.985576         0.1057498         133.02987      9.811704e-05        -78.247112
                  0.00010484943        -64.051653        0.18732422         140.14471     0.00015300556        -66.670978        0.11274789         122.60638
                     0.10702457         132.69381     0.00012584083        -81.539448        0.18488282         150.14377     0.00014147348        -68.265848
                  8.4566273e-05        -106.83878        0.11397708         122.21986     0.00014025422        -67.779113        0.19162596         138.83663

0.675       0.21761886         93.120614     0.00020025752         91.868149        0.11112275         76.434041     0.00016257037         99.476527
                  0.00020102766         91.208133        0.21581484          82.17037     0.00022422659          99.12489        0.10942343         66.166558
                     0.11227872         76.170718     0.00025784662         96.814929        0.21562038         91.957943     0.00017598846          103.6075
                  0.00019267472         95.137527         0.1105455         65.853039     0.00017129233         102.68361        0.21690294         80.979389

0.7      0.099972738         37.327517     0.00039086333         14.641929       0.028466973         28.521195     0.00028508649         17.893857
                  0.00039198304         14.403617       0.083577717         29.991983     0.00043854829         18.440099       0.015926971         33.653438
                    0.029297244         27.924704     0.00046245329         16.795165       0.092904723         37.244892     0.00035066128         19.849954
                  0.00030265351         13.417021       0.016665232         31.685221     0.00034451777         19.025086       0.082936065         29.672134

0.725      0.076154529         116.83897      0.0001907354        -73.602713       0.072924183         117.50683     0.00010506276        -74.092042
                   0.0001912344        -73.521695        0.09275945           107.125     0.00021236242        -64.804313       0.085442694          107.0868
                    0.072581317         116.94454     0.00022146451        -71.317563       0.078846186         115.66638     0.00016003078        -62.771317
                  0.00011962339        -92.296699        0.08496073         106.59969     0.00015566823        -64.603869       0.092494694         104.81151

0.75       0.10878496         73.444828     0.00021171739         70.748194       0.071269935         63.102124     0.00017776256         63.185956
                  0.00021143819         70.479197        0.10464874         62.629528     0.00022103804         64.471381        0.06664501         53.649583
                    0.071264404         62.323605     0.00024970784         71.320929        0.10390349         71.225779     0.00018159566         60.382569
                  0.00021368892         74.176544       0.066436725         52.823973     0.00018382648         61.374561        0.10257918         60.211739

0.775       0.02742677         99.906335      0.0004355494        -14.439072       0.040341362         144.09195     0.00029403043        -20.332325
