! Created Thu Mar  2 12:29:49 2023
# ghz S ma R 45
! 4 Port Network Data from SP1.SP block
! freq  magS11  angS11  magS12  angS12  magS13  angS13  magS14  angS14  
!       magS21  angS21  magS22  angS22  magS23  angS23  magS24  angS24  
!       magS31  angS31  magS32  angS32  magS33  angS33  magS34  angS34  
!       magS41  angS41  magS42  angS42  magS43  angS43  magS44  angS44  
!     
0      0.069622059    -2.9352304e-13        0.92795855      1.202632e-13      0.0041009243    -4.1541364e-12      0.0055948847               180
                     0.92795868     1.2027071e-13       0.070832977    -2.8656595e-13      0.0056193101               180      0.0043218123    -3.9397767e-12
                   0.0049466867     1.2741032e-11      0.0050117377              -180       0.070189348    -2.7925002e-14        0.92811851     4.0627698e-14
                   0.0049875531              -180      0.0051678553     1.2189863e-11        0.92811837     4.0626237e-14       0.069335582    -2.8824185e-14

0.025       0.15086746         1.7635963        0.91521673        -67.346791       0.088036342         20.827781       0.017254287         147.88838
                     0.91521672        -67.346792        0.15086579         1.7637762       0.017255112          147.8934        0.08803541         20.824549
                     0.08846518         20.383313       0.016703794         148.92032        0.15134349         1.9745713        0.91546786        -67.422179
                    0.016703292         148.91641       0.088464286         20.379852        0.91546787        -67.422178         0.1513477         1.9674619

0.05       0.11797414        -47.170443        0.91801108        -133.93519       0.062983086        -39.363855       0.013179995          101.6977
                     0.91801109        -133.93519        0.11797419        -47.170479       0.013180049         101.69746       0.062983107        -39.363806
                    0.063649829          -39.9038       0.012687927         103.99392        0.11878274        -47.290274        0.91840106        -134.07109
                    0.012687876         103.99418       0.063648903        -39.903618        0.91840105        -134.07109        0.11878343        -47.289557

0.075      0.067567633         40.238741        0.91182725          158.0162       0.070454138         55.262858       0.037397464         54.412111
                     0.91182725          158.0162       0.067567629           40.2385       0.037397611         54.412035       0.070454023         55.263021
                    0.069647576         55.173646       0.037095213         55.561371       0.066980132         41.452988        0.91249148         157.79577
                     0.03709507         55.561451       0.069647466         55.173784        0.91249148         157.79577       0.066980766         41.449171

0.1       0.19918931         -6.371165        0.88338986          91.71798        0.15960204        -1.8540167       0.047919531        -42.506619
                     0.88338986          91.71798        0.19918913        -6.3712586       0.047919924        -42.506947        0.15960198        -1.8539509
                     0.15895157         -1.998697       0.047270802        -41.865911        0.19989183        -6.1896682        0.88375364          91.41384
                    0.047270416        -41.865576         0.1589515        -1.9986294        0.88375364          91.41384        0.19989385        -6.1904133

0.125       0.16122063        -59.941842        0.89237518         26.329708        0.11821917        -61.222953       0.028025171        -111.57534
                     0.89237498         26.329697        0.16127536        -59.934772        0.02802549        -111.51773        0.11793826        -61.326003
                     0.11764803        -61.618664       0.027333149        -110.19162        0.16179408         -59.86632        0.89255872         25.971101
                    0.027332185        -110.25067        0.11736864        -61.723192        0.89255895          25.97111        0.16183135        -59.849722

0.15      0.050157821         1.7452374        0.90212701        -41.738523       0.038005166         26.112541       0.045920837        -139.74453
                     0.90212688        -41.738515       0.050125987         1.7087214       0.045959148        -139.69101       0.037957847         26.145675
                    0.037977333          27.72342       0.045953957        -138.49975       0.050874048         1.9591358        0.90243428        -42.167163
                    0.045914761        -138.55229       0.037930648         27.758674        0.90243445        -42.167174       0.050878839         1.9288621

0.175       0.20753481        -26.046018        0.86817897        -108.60148        0.15761723         -25.07143       0.064497377         128.05912
                     0.86817899        -108.60148         0.2075489         -26.05293       0.064525931         128.12529        0.15749995        -25.031606
                     0.15754772        -24.781661       0.064206906          128.8365          0.209011         -26.15055        0.86825302        -109.10898
                    0.064177422         128.77032        0.15743099        -24.741577        0.86825303        -109.10899        0.20902446         -26.14914

0.2       0.21691565        -79.502787         0.8632193        -173.26294        0.15691497        -83.806997       0.046407953         43.890334
                     0.86321934        -173.26294        0.21694803        -79.513558       0.046411261         44.018733        0.15687357        -83.776755
                      0.1564606        -83.671123       0.045849548         44.836687         0.2176956        -79.496607        0.86306853        -173.83207
                    0.045844743         44.706768        0.15641941        -83.640752        0.86306854        -173.83207        0.21772606        -79.485279

0.225      0.071440636        -117.06465        0.88660506         119.99315       0.046053238        -137.22464       0.037768171         14.051027
                     0.88660509         119.99314       0.071459036        -117.08974       0.037856323         14.215335       0.046050063         -137.1969
                    0.045112497        -137.00408       0.037902315         15.525685       0.071435863        -115.27514        0.88631231         119.35935
                    0.037811675         15.364697       0.045109439        -136.97573        0.88631232         119.35934       0.071495258        -115.25244

0.25       0.13229889        -47.806993        0.87714632         52.101955       0.079944617        -48.006327       0.061106234        -50.884792
                     0.87714634          52.10195        0.13230146         -47.81459       0.061221838        -50.771097       0.079946942        -48.002976
                    0.081072431        -47.639421       0.061390486        -50.022718        0.13533265        -48.679351        0.87661006         51.411873
                      0.0612733        -50.134639       0.081074762        -47.636101        0.87661007         51.411868        0.13533275        -48.676905

0.275       0.19069264        -99.633748        0.86151608        -13.778361        0.10519447        -108.32681       0.058735569        -127.53917
                      0.8615161        -13.778366        0.19071809        -99.643622       0.058838852        -127.37743          0.105197        -108.32624
                     0.10616018        -108.03217       0.058820005        -126.68215        0.19215527        -100.20252        0.86111125        -14.515894
                    0.058714738        -126.84267        0.10616274         -108.0316        0.86111127        -14.515899        0.19220621        -100.17941

0.3       0.11581544        -152.84672        0.86896171        -79.767257       0.051673629        -169.20215       0.053616526         177.63659
                     0.86896174        -79.767263        0.11584089        -152.85873       0.053779736         177.82233       0.051673911        -169.20702
                    0.052182593        -168.58878       0.053847953         178.61546        0.11462303         -152.4949        0.86873871        -80.584538
                    0.053682378         178.43239       0.052182875        -168.59361        0.86873874        -80.584545        0.11469255        -152.46128

0.325      0.046548985        -103.54237        0.87300139        -146.96546       0.026882332        -106.52501       0.067320234         119.13176
                     0.87300142        -146.96547       0.046554144        -103.56542       0.067543171         119.28072       0.026882923        -106.51748
                    0.027293929        -106.79716       0.067767919         119.93154       0.049006106        -102.93376        0.87234554        -147.85411
                    0.067543021         119.78522       0.027294457        -106.78969        0.87234558        -147.85412       0.049016498        -102.91101

0.35       0.10239281        -114.84998        0.86387269          146.1809       0.038551614        -130.46186       0.075829816         50.285349
                     0.86387273         146.18089        0.10241485        -114.86521       0.076083102         50.451311       0.038556977        -130.47183
                    0.039448964        -131.18479       0.076300984         51.015546        0.10378615        -116.88877        0.86321139         145.25783
                    0.076045575         50.851915       0.039454454        -131.19436        0.86321143         145.25782        0.10387212        -116.84162

0.375      0.065675827        -160.55306         0.8604428         79.607117      0.0073032791         -22.65545       0.082908995        -13.553073
                     0.86044286         79.607106       0.065702954        -160.56224        0.08322557        -13.377379      0.0073017585        -22.575684
                   0.0060701322        -20.593552       0.083470662        -12.852342       0.062896933        -161.09285        0.86017889         78.609766
                    0.083151752        -13.025562      0.0060689129        -20.497085        0.86017894         78.609753       0.062985564        -161.05593

0.4      0.037281235        -102.71858        0.85603595         12.808095       0.054700729        -82.828647       0.093993282        -80.459579
                     0.85603603         12.808078       0.037306929        -102.77317       0.094375177        -80.264728       0.054706618         -82.82636
                    0.053544852        -82.852219       0.094665605        -79.763409       0.041626338        -100.85897        0.85549176         11.725193
                    0.094280863         -79.95565       0.053550722        -82.849815        0.85549183         11.725177       0.041630746        -100.79782

0.425      0.069983551        -131.06236        0.85025031        -53.810406       0.047222127        -147.79943       0.099661077        -147.97704
                     0.85025039         -53.81043       0.070025017        -131.10566        0.10013323        -147.73117       0.047227912        -147.81257
                    0.046393365        -148.31086        0.10051008        -147.24784       0.071090398        -133.19884        0.84965518        -54.937533
                     0.10003427         -147.4905       0.046399305        -148.32413        0.84965525        -54.937556       0.071182148        -133.10821

0.45      0.032086021        -126.46839        0.84646926        -120.68237       0.018723259         -54.58772        0.11011569         146.70195
                     0.84646933        -120.68241       0.032121497        -126.54321        0.11075886         146.99952       0.018720806        -54.547366
                    0.018817911         -52.07165        0.11124505         147.42089       0.029815165        -118.48998        0.84615216        -121.89958
                     0.11059763         147.12709       0.018815964        -52.031141        0.84615223        -121.89961       0.029870329        -118.56375

0.475       0.11301587        -108.98994        0.83137276          172.4236       0.096464039        -111.70824        0.12179966         75.163578
                     0.83137281         172.42355        0.11310808         -109.0659        0.12263524         75.599669       0.096475127         -111.7076
                    0.096128899        -111.20846        0.12313972         75.988223        0.11999123        -108.19766        0.83023696          171.1266
                     0.12229778         75.556586       0.096139987        -111.20783        0.83023703         171.12655        0.11994982        -108.11854

0.5       0.16064271        -161.92169        0.81838875         106.65394        0.11825805        -174.54738        0.11644921          4.693552
                     0.81838874         106.65384        0.16091243        -162.01912        0.11768307         5.5645245        0.11826776        -174.55537
                     0.11742879        -174.28442        0.11825344          5.973346        0.16356947        -162.47802        0.81720705         105.36148
                     0.11700681         5.1108868        0.11743848        -174.29249        0.81720707         105.36138        0.16342584        -162.34937

0.525      0.078143355         149.61345        0.82626888          40.34965       0.053828874         128.82741        0.11784718        -55.089473
                     0.82626875         40.349389       0.078651064         149.45704        0.12102715        -52.672382       0.053806665         128.81519
                    0.052619191         129.30157        0.12186621         -52.37624       0.072981075         150.23593        0.82603573         38.958438
                     0.11865917        -54.768699       0.052596922         129.28918        0.82603572         38.958179       0.072570162          150.4623

0.55       0.11301802        -131.06507        0.81744344        -27.578473       0.069207174        -143.35569        0.14293925        -123.27172
                     0.81745035        -27.578307        0.11339868        -130.42301        0.13020266        -123.45021       0.069198232        -143.29193
                    0.070470939        -143.03077        0.13104075        -123.25885        0.12364828        -129.92474        0.81599505        -29.092557
                     0.14377949        -123.09838        0.07046246        -142.96805        0.81600192        -29.092377        0.12333105        -130.49483

0.575       0.23293857         173.82871         0.7829918        -93.174915        0.13913579         157.01712        0.13978572         159.70716
                     0.78299393        -93.174824        0.23277489         174.06161         0.1354107         158.72454        0.13915485         157.02053
                      0.1399256         157.18728        0.13604009         158.91825        0.23807201         173.48812        0.78103121        -94.631487
                     0.14042312         159.89039        0.13994476         157.19066        0.78103332        -94.631393        0.23835551         173.28982

0.6       0.20780491         115.47563        0.78699285        -157.27028        0.12096754         100.76719        0.11677075         94.630179
                     0.78699502        -157.27029        0.20797771         115.66082        0.11243359         94.663359        0.12098135         100.75549
                     0.12107341         101.01744        0.11308027          94.89439        0.20404379          115.1261        0.78673465        -158.77319
                     0.11741731         94.852813        0.12108715         101.00571        0.78673683        -158.77319        0.20391926         114.96186

0.625      0.040853627         108.71345        0.80973883         135.41805       0.026129925         107.49097        0.12745237         39.535194
                     0.80973916         135.41798       0.040898486          108.7925        0.12675654         40.476711       0.026122445         107.54092
                    0.026966324         110.05867        0.12758262         40.532731       0.040644755         125.04247        0.80883068         133.73979
                      0.1282763          39.59692       0.026959792         110.10779        0.80883106         133.73971       0.040529133         125.06322

0.65       0.17808058         151.28963        0.78505805         67.724292         0.1057498         133.02987        0.14665097         -32.98202
                     0.78505796         67.724272        0.17820411         151.28399        0.14662587        -32.689768        0.10577244         133.02226
                     0.10702457         132.69381        0.14726717        -32.688894        0.18488282         150.14377        0.78312292         66.072965
                      0.1472923        -32.979902        0.10704737         132.68636        0.78312282         66.072943          0.184824          150.2001

0.675       0.21761886         93.120614        0.77276286         3.2448424        0.11112275         76.434041        0.12955483        -101.30822
                     0.77276285         3.2448368        0.21766785         93.117016        0.12955711        -101.17033        0.11113035         76.425269
                     0.11227872         76.170718        0.12999436        -101.13711        0.21562038         91.957943        0.77251307         1.5791371
                      0.1299919        -101.27458        0.11228644         76.162028        0.77251304         1.5791311        0.21558029         91.987281

0.7      0.099972738         37.327517        0.79365569        -62.759886       0.028466973         28.521195        0.13187202        -157.60231
                      0.7936557        -62.759889       0.099970796         37.331696        0.13190487        -157.54284       0.028458094         28.520804
                    0.029297244         27.924704        0.13236816        -157.49244       0.092904723         37.244892        0.79362969        -64.596244
                     0.13233511        -157.55171       0.029288338         27.924055        0.79362968        -64.596246       0.092824383         37.194578

0.725      0.076154529         116.83897        0.78927156        -130.31836       0.072924183         117.50683        0.15136222         135.04472
                     0.78927157        -130.31837       0.076172251         116.83482        0.15136903         135.06661       0.072945334         117.49772
                    0.072581317         116.94454        0.15188322         135.10324       0.078846186         115.66638        0.78850402        -132.18447
                      0.1518763         135.08142       0.072602639         116.93555        0.78850402        -132.18447       0.078798798         115.82089

0.75       0.10878496         73.444828        0.78275731         163.46913       0.071269935         63.102124        0.15223834          68.11647
                     0.78275733         163.46913        0.10878774          73.44493        0.15223915         68.125026       0.071278494         63.086363
                    0.071264404         62.323605        0.15275303         68.156552        0.10390349         71.225779        0.78286738         161.54923
                     0.15275211         68.148019       0.071273255         62.307883        0.78286738         161.54923        0.10387399         71.278234

0.775       0.02742677         99.906335        0.78250016         96.405965       0.040341362         144.09195         0.1670716         3.2457923
