# GHz S RI R 45
0.000     0.066284233000    0.000000000000    -0.000033172457    0.000000000000    0.003973455800    -0.000000000000    -0.000012293280    -0.000000000000
            -0.000039957625    -0.000000000000    0.065218440000    -0.000000000000    -0.000017310946    0.000000000000    0.004181878500    -0.000000000000
            0.005033370000    0.000000000000    0.000010644496    -0.000000000000    0.065635017000    -0.000000000000    -0.000003110597    -0.000000000000
            0.000000895779    -0.000000000000    0.005035314900    0.000000000000    0.000003721715    -0.000000000000    0.064483681000    -0.000000000000
0.025     0.145951520809    0.014641679084    0.000000191714    0.000030314138    0.078491028064    0.036990317159    0.000009824052    0.000015990026
            -0.000001730408    0.000035994349    0.148249066804    0.007793331690    0.000000909605    0.000019207615    0.081074323652    0.029402765124
            0.079213667000    0.036329166501    0.000014621648    -0.000010722511    0.146078457658    0.015247691364    0.000009750312    0.000006586050
            0.000018231091    -0.000000603570    0.081800880891    0.029012271626    0.000012901481    0.000001088821    0.148583154012    0.008354925198
0.050     0.100773625224    -0.075921972670    0.000036292241    0.000010068336    0.064610211366    -0.030912422115    0.000036769658    -0.000010298792
            0.000040824808    0.000014895985    0.084733842702    -0.097306489703    0.000030042774    0.000001450509    0.047730833805    -0.052177229754
            0.064638768945    -0.031985418157    0.000000114637    -0.000018254609    0.101028912871    -0.076632118947    0.000023787874    -0.000013023407
            0.000016795408    -0.000020086831    0.048117653126    -0.052985966206    0.000020641882    -0.000019820605    0.085215715904    -0.097957298375
0.075     0.067606103681    0.010907465665    0.000017640183    -0.000047908793    0.051749698033    0.034687668297    -0.000010618766    -0.000061232977
            0.000023235274    -0.000052557162    0.003147443356    0.030339893897    0.000000636291    -0.000039882534    -0.011448474222    0.049559862297
            0.051147283111    0.033781621538    -0.000019352336    -0.000019915460    0.067063617451    0.010677428183    -0.000015932459    -0.000043084760
            -0.000018492054    -0.000046073188    -0.011995690779    0.048663912124    -0.000024089424    -0.000041103253    0.002662174269    0.030303720075
0.100     0.184949352536    -0.017614206035    -0.000040055606    -0.000029750988    0.149978433908    -0.005570822531    -0.000060552631    -0.000007030705
            -0.000042724142    -0.000032967890    0.179257398060    0.016523121375    -0.000031800196    -0.000011806363    0.141986849281    0.035066341623
            0.149003681359    -0.005684133965    -0.000028821017    0.000012665559    0.185866412136    -0.016944873234    -0.000043421090    0.000002731740
            -0.000056047823    0.000005487962    0.141702205608    0.034329133798    -0.000043952542    0.000007920856    0.179450070300    0.016952435966
0.125     0.105370071881    -0.136356082374    -0.000060562796    0.000023952443    0.071619301125    -0.104472182913    -0.000058263292    0.000051030269
            -0.000062039082    0.000021470469    0.107689460610    -0.139735545381    -0.000045157409    0.000023133779    0.082863203460    -0.096988669096
            0.070705247074    -0.103868972332    -0.000011944711    0.000032669677    0.106268630714    -0.137714340884    -0.000037724539    0.000039596952
            -0.000035193027    0.000053782979    0.082041213576    -0.097626515513    -0.000036587550    0.000045647352    0.107775661002    -0.139782708543
0.150     0.045437118759    -0.041215624339    0.000017275978    0.000089444525    0.024788483375    -0.013667722596    0.000052297456    0.000111209542
            0.000010340276    0.000092168359    -0.004992755430    -0.020364876653    0.000029000390    0.000075442164    -0.006810952420    0.002220374640
            0.024675231728    -0.012495373418    0.000041252144    0.000038281307    0.044865704043    -0.042067582048    0.000046328453    0.000078127728
            0.000054817758    0.000080894971    -0.007887520165    0.002403046257    0.000057841221    0.000077918940    -0.004461543694    -0.019790505232
0.175     0.150254808147    -0.092819353921    0.000079938935    0.000003330366    0.117024068665    -0.065970329728    0.000115056946    -0.000031460841
            0.000084107289    0.000009156723    0.160016265815    0.006396955031    0.000065987205    -0.000018605098    0.129826316290    0.015860965578
            0.117757922330    -0.065199148485    0.000039575284    -0.000031617649    0.150926642892    -0.093400575619    0.000078375176    -0.000032273038
            0.000089152303    -0.000033958650    0.129333084044    0.016470731353    0.000077237322    -0.000042493267    0.161154988469    0.005589717813
0.200     0.030982711151    -0.202275057213    0.000057903720    -0.000059683198    0.003078245024    -0.150214203043    0.000040231792    -0.000101485014
            0.000060254444    -0.000060995520    0.131010464768    -0.169142544572    0.000029949868    -0.000050853360    0.099495521806    -0.120571463038
            0.003911257112    -0.150035847735    0.000009416181    -0.000039898340    0.031110450371    -0.204749797225    0.000024769978    -0.000069292957
            0.000029857921    -0.000084652457    0.099065024141    -0.120146826166    0.000020516660    -0.000071313307    0.130532001709    -0.169655302674
0.225     -0.057823415471    -0.063694411995    -0.000052405066    -0.000114889105    -0.060774844690    -0.013033280384    -0.000097789963    -0.000125688591
            -0.000047080900    -0.000116268425    -0.012444798167    -0.117443941907    -0.000053524951    -0.000086133845    -0.001778101736    -0.077982945242
            -0.059806848094    -0.013373686171    -0.000053656170    -0.000054882056    -0.059689675809    -0.065572549498    -0.000073125313    -0.000092164951
            -0.000087696879    -0.000103114457    -0.002198526140    -0.077013721508    -0.000082078189    -0.000092682385    -0.010938940195    -0.116180821395
0.250     0.068642290908    -0.058506633263    -0.000123916990    0.000038354521    0.061924640564    -0.015938828939    -0.000162231483    0.000082245495
            -0.000128396977    0.000028891454    0.068679185211    -0.048330596252    -0.000100061923    0.000053912559    0.053946905447    -0.045166844744
            0.062408536262    -0.017119103763    -0.000064058195    0.000058816875    0.067350603685    -0.059231839155    -0.000116994379    0.000068433698
            -0.000130903856    0.000075736964    0.054510526537    -0.044045782007    -0.000117099328    0.000082096488    0.071895402047    -0.050682077763
0.275     -0.020891657087    -0.162102745233    -0.000027762547    0.000104213852    -0.012805790476    -0.099009314097    0.000003853461    0.000161850874
            -0.000034994393    0.000110617264    0.070908534504    -0.158188986565    0.000003544949    0.000089350173    0.025443122454    -0.109708683607
            -0.013523509511    -0.100085799854    0.000013347664    0.000057831786    -0.022610248711    -0.163517969029    0.000008461975    0.000114646759
            0.000002680633    0.000129227000    0.026431406051    -0.109371847094    0.000018745342    0.000113758599    0.069894099256    -0.161248812918
0.300     -0.105014747851    -0.021987697267    0.000093054306    0.000109096411    -0.059344872942    0.014114193409    0.000161091452    0.000099843611
            0.000096714093    0.000112375900    -0.034838449759    -0.149683046189    0.000090784491    0.000065593897    -0.025663086007    -0.074578749418
            -0.060406411791    0.014027830541    0.000067576887    0.000049263292    -0.107665381392    -0.021813319190    0.000118459109    0.000072792678
            0.000131309991    0.000092591352    -0.024945677464    -0.074646201903    0.000120788695    0.000069285022    -0.034549710226    -0.148802967495
0.325     0.062541043745    0.015728337810    0.000148403850    -0.000080292001    0.074106437603    0.018324414503    0.000166392618    -0.000145429277
            0.000150808978    -0.000077497235    -0.024921497512    -0.108200397387    0.000102088805    -0.000092865678    -0.004646549427    -0.078751842260
            0.073592341566    0.018600466787    0.000079441835    -0.000079493841    0.061769459827    0.016486774783    0.000121442893    -0.000114126171
            0.000150033504    -0.000121802886    -0.003917688654    -0.078931854899    0.000121828296    -0.000122579167    -0.021525610220    -0.111257938483
0.350     0.024094464917    -0.142426065544    -0.000015172563    -0.000144693940    0.023350975462    -0.100155337698    -0.000062891439    -0.000190880876
            -0.000008460205    -0.000149682501    -0.055349298890    -0.136713813165    -0.000044890469    -0.000106666519    -0.065230314232    -0.090251122219
            0.022711176336    -0.099444518672    -0.000042593468    -0.000080887476    0.023011388715    -0.142672765040    -0.000052125037    -0.000136902758
            -0.000049137100    -0.000166685952    -0.064471629160    -0.090872332783    -0.000062782166    -0.000137334158    -0.057401167495    -0.142028695435
0.375     -0.100400039025    -0.062705504967    -0.000140919579    -0.000082687440    -0.051406891607    -0.036638906492    -0.000212971248    -0.000060396291
            -0.000148108321    -0.000088171900    -0.105425055924    -0.071898788670    -0.000121164867    -0.000036114852    -0.076087866384    -0.001722582944
            -0.051263549368    -0.035283769451    -0.000092459336    -0.000026555831    -0.101199310137    -0.061490694609    -0.000158510284    -0.000043916966
            -0.000181901576    -0.000061472604    -0.075764096883    -0.002782949849    -0.000158778359    -0.000037195405    -0.107212929551    -0.071689693459
0.400     0.014465418844    0.001703691270    -0.000149299730    0.000134454240    0.016644866516    -0.017367528290    -0.000152787914    0.000221057213
            -0.000151351099    0.000140225390    -0.047200379477    -0.052870070624    -0.000091297451    0.000139855069    -0.003233777409    -0.016237819027
            0.018009588051    -0.016793210620    -0.000073505421    0.000108999945    0.015914187176    0.001145676266    -0.000110791246    0.000174585333
            -0.000142228101    0.000184655350    -0.003606193849    -0.017342349072    -0.000110360072    0.000177568583    -0.044717610248    -0.056268400477
0.425     -0.000253001367    -0.152471230093    0.000069422463    0.000159551611    -0.026966705515    -0.094213913649    0.000146901098    0.000186593747
            0.000070052343    0.000160348056    -0.112529419628    -0.109593712132    0.000102053116    0.000099302377    -0.073038142675    -0.062319732256
            -0.025976965818    -0.094885909663    0.000075050651    0.000080065749    -0.001809456730    -0.154863989363    0.000120149446    0.000128402120
            0.000111752778    0.000168990296    -0.073946409111    -0.062907049495    0.000127024667    0.000131136995    -0.116552142309    -0.114684356107
0.450     -0.176152900210    -0.092507990822    0.000163727085    0.000051291203    -0.107122116726    -0.028431251639    0.000215710485    0.000003281927
            0.000165888867    0.000054546935    -0.188782143860    0.016893625231    0.000113432056    -0.000006472183    -0.105844789038    0.042048317621
            -0.106842915409    -0.029068429419    0.000094409473    0.000008105585    -0.177953314063    -0.091887379225    0.000150967618    -0.000000820876
            0.000193685366    0.000027548837    -0.106655728243    0.042007626422    0.000153869713    -0.000007962345    -0.191549603441    0.018790648708
0.475     -0.106193060441    0.047971703401    0.000160361447    -0.000177594683    -0.055638986850    0.030031738730    0.000149308102    -0.000254436812
            0.000163947825    -0.000182092074    -0.040287774838    0.090308416611    0.000086792614    -0.000149455201    0.006953462590    0.062851068300
            -0.055450472662    0.029136955734    0.000083513777    -0.000127034213    -0.106034289102    0.046468763987    0.000112961436    -0.000190989304
            0.000155511004    -0.000226292150    0.006227783171    0.062802821250    0.000110022814    -0.000193545552    -0.037623452906    0.087502398125
0.500     -0.057378410617    -0.041116484445    -0.000149454062    -0.000190847455    -0.050293422044    -0.006843543611    -0.000238453104    -0.000210659927
            -0.000153984773    -0.000192128261    -0.032027250891    -0.058490706074    -0.000156588361    -0.000116021368    -0.012209281493    -0.035426388416
            -0.051105083428    -0.007936950417    -0.000126806282    -0.000097401889    -0.061675978714    -0.043106351850    -0.000189193239    -0.000152694104
            -0.000201716319    -0.000198854043    -0.013324277533    -0.035093990878    -0.000193273209    -0.000156009918    -0.037425380466    -0.063222859215
0.525     -0.179583007095    0.010159981092    -0.000193063914    0.000015799674    -0.082909174381    0.046835574041    -0.000236650146    0.000089748424
            -0.000192825308    0.000016868774    -0.176904654455    0.023189149643    -0.000126037433    0.000067328963    -0.081999813576    0.030693256663
            -0.084309402819    0.046990482611    -0.000102816629    0.000034120804    -0.183094470738    0.013984205740    -0.000168451703    0.000074280918
            -0.000214404702    0.000049143908    -0.082635968722    0.031994502177    -0.000174709851    0.000080185351    -0.178947559871    0.027143688886
0.550     -0.093395302300    0.145051151283    -0.000143942201    0.000214956607    -0.017426696614    0.075339862279    -0.000101139448    0.000283303691
            -0.000145735606    0.000215141786    -0.049199206465    0.159162911275    -0.000055099636    0.000160715724    -0.000386087614    0.074396788192
            -0.018000141303    0.076339943875    -0.000081220980    0.000137241654    -0.093482435709    0.145157977695    -0.000077205648    0.000207836858
            -0.000135353751    0.000256136563    0.000072042503    0.075585608667    -0.000071958322    0.000214022827    -0.043439011544    0.157826985627
0.575     -0.006598335543    0.062430071999    0.000224114616    0.000226826729    -0.015084584694    0.025650211342    0.000309556296    0.000224169526
            0.000226697717    0.000229631173    0.046113648091    0.013725352473    0.000193273976    0.000121343158    0.017915607851    -0.022463365284
            -0.014918844926    0.026435533976    0.000168196907    0.000131102244    -0.009207443380    0.062838845286    0.000235773205    0.000166458080
            0.000278478167    0.000241896823    0.018406068664    -0.021472191648    0.000241597129    0.000165775726    0.041639119263    0.008193843588
0.600     -0.072156467194    0.059726968917    0.000247706246    -0.000117376998    -0.036285957621    0.053562514613    0.000281025568    -0.000201827192
            0.000249375458    -0.000120362126    -0.088185943368    0.000174491970    0.000151638704    -0.000131876871    -0.054850050613    0.018544060487
            -0.035905040323    0.054340081879    0.000143925494    -0.000101004688    -0.071482473119    0.063890350949    0.000208673086    -0.000154345538
            0.000278671569    -0.000164704805    -0.054371165670    0.019098005092    0.000212872155    -0.000160330944    -0.089829669183    0.004330920120
0.625     -0.007083845656    0.098662019981    0.000048709414    -0.000296618966    0.014788500245    0.041409021547    -0.000015339263    -0.000361851903
            0.000047301881    -0.000297768407    -0.037633791137    0.094562671058    -0.000022830318    -0.000214358171    -0.003637383722    0.043447252832
            0.015859434596    0.041848542175    0.000012627735    -0.000196708507    -0.003292643430    0.097930012324    -0.000013332077    -0.000278292615
            0.000025828762    -0.000345783485    -0.002537470910    0.043864672856    -0.000018741666    -0.000285135869    -0.032954072086    0.090605708808
0.650     -0.013705997214    0.016301036153    -0.000319510027    -0.000152738127    -0.039430959729    -0.003298905855    -0.000405265536    -0.000120281513
            -0.000321274908    -0.000152741897    -0.003734777441    0.017409586823    -0.000255446506    -0.000044371203    -0.029603986048    -0.007857976738
            -0.038316112859    -0.003924239682    -0.000234254579    -0.000074316995    -0.014712243482    0.015354199268    -0.000317271725    -0.000082556768
            -0.000382186746    -0.000155179299    -0.028383063189    -0.008334586255    -0.000324905394    -0.000079868999    -0.008791526129    0.012172503193
0.675     -0.071674707578    0.070255157957    -0.000222671174    0.000210278253    -0.059671711883    0.079749239630    -0.000232236509    0.000300003367
            -0.000223190285    0.000212646143    -0.067252930991    0.053489130270    -0.000109315756    0.000191636855    -0.063286139576    0.061299820441
            -0.059463569606    0.078570078977    -0.000122659984    0.000163664372    -0.068704657068    0.071377171721    -0.000169103905    0.000233483460
            -0.000249074211    0.000269039629    -0.062668377173    0.060290970800    -0.000170347457    0.000241620404    -0.067018397189    0.055743361815
0.700     -0.011898043630    0.070830031853    0.000055836959    0.000338838074    0.008627443290    0.062094555671    0.000140166066    0.000392106827
            0.000058303694    0.000339971285    0.011921142858    0.062236829786    0.000105730661    0.000226241787    0.013612701564    0.054708587905
            0.008011327524    0.061223009272    0.000065806105    0.000225302858    -0.010194815084    0.065279415490    0.000117063350    0.000304038851
            0.000098193879    0.000391678035    0.013638653774    0.053640652458    0.000125001300    0.000307513935    0.014701673128    0.053398181516
0.725     -0.103151525987    0.046954817800    0.000387051537    0.000012557463    -0.068954885351    0.050953657800    0.000462971030    -0.000057508412
            0.000388924523    0.000009579913    -0.072894249732    -0.034135721275    0.000275049813    -0.000084158823    -0.062536246764    0.014311156885
            -0.069732548005    0.050772989182    0.000271219083    -0.000040566648    -0.108054670966    0.046554586173    0.000356999490    -0.000069142562
            0.000455270705    -0.000012548598    -0.062612559148    0.013948185309    0.000360414317    -0.000073424019    -0.084288780187    -0.038070294585
0.750     -0.085976176797    0.205817753128    0.000106886897    -0.000264672555    -0.030928569132    0.161229524871    0.000078699035    -0.000340653020
            0.000103446626    -0.000266448806    -0.147566219305    0.136742666783    0.000001696410    -0.000193445702    -0.081330405966    0.127509690525
            -0.031651291079    0.161364949372    0.000029980980    -0.000185354928    -0.082828510570    0.208200413566    0.000043178981    -0.000253245003
            0.000108744942    -0.000326404825    -0.081659640926    0.126894833489    0.000044892369    -0.000257754599    -0.147726002530    0.142666411212
0.775     0.075116732489    0.164007669501    -0.000103452301    -0.000285061084    0.078537857145    0.101418267121    -0.000178070298    -0.000316566750
            -0.000103523458    -0.000282352919    0.041625672083    0.171316590653    -0.000112788782    -0.000173809169    0.048311891881    0.116775558050
            0.077734799432    0.102085339679    -0.000089296314    -0.000180068665    0.075635879591    0.158346363111    -0.000138609998    -0.000246388926
