# GHz S RI R 45
0.000     0.067720783000    -0.000000000000    0.000018018544    -0.000000000000    0.003278046900    0.000000000000    0.000017064198    0.000000000000
            0.000025012794    -0.000000000000    0.065218440000    -0.000000000000    -0.000021310087    0.000000000000    0.004181878500    -0.000000000000
            0.003697473400    0.000000000000    -0.000077915804    -0.000000000000    0.065616104000    -0.000000000000    0.000013836939    0.000000000000
            -0.000020563531    -0.000000000000    0.005035314900    0.000000000000    0.000002912033    -0.000000000000    0.064483681000    -0.000000000000
0.025     0.144921400810    0.013470300313    -0.000046113429    -0.000020323353    0.078469318283    0.037554926377    -0.000039445564    -0.000019915763
            -0.000031315356    -0.000033111379    0.148249066804    0.007793331690    -0.000053455502    -0.000004670292    0.081074323652    0.029402765124
            0.078555202018    0.037214715211    -0.000095396997    0.000060703455    0.144487697351    0.015128703161    -0.000051521389    -0.000024788416
            -0.000041519073    0.000012138226    0.081800880891    0.029012271626    -0.000036790786    -0.000024066101    0.148583154012    0.008354925198
0.050     0.100244591980    -0.075206925014    -0.000077463294    0.000053589976    0.065712600793    -0.031782123771    -0.000073563629    0.000046460639
            -0.000097177403    0.000034508363    0.084733842702    -0.097306489703    -0.000104679985    0.000086978717    0.047730833805    -0.052177229754
            0.065450901194    -0.031919869145    -0.000035271795    0.000142170194    0.100496281981    -0.074622109990    -0.000096717347    0.000068241095
            -0.000049833372    0.000057925207    0.048117653126    -0.052985966206    -0.000107047389    0.000059856288    0.085215715904    -0.097957298375
0.075     0.067332800704    0.010325711170    0.000063656950    0.000154049511    0.050399851909    0.032427354226    0.000062342547    0.000145249357
            0.000050831803    0.000169311959    0.003147443356    0.030339893897    0.000122616142    0.000202373843    -0.011448474222    0.049559862297
            0.050322416800    0.032436458399    0.000168255307    0.000160905132    0.067663475735    0.011670409191    0.000082221074    0.000184097726
            0.000087399420    0.000124424904    -0.011995690779    0.048663912124    0.000093390518    0.000183808685    0.002662174269    0.030303720075
0.100     0.183865191152    -0.017792928308    0.000155441559    -0.000019186833    0.148353681827    -0.004280071712    0.000143697707    -0.000030342791
            0.000153687827    -0.000005959551    0.179257398060    0.016523121375    0.000199564595    -0.000057983245    0.141986849281    0.035066341623
            0.148052475486    -0.004443770830    0.000211480965    -0.000107243306    0.186045104719    -0.017187839850    0.000192175161    -0.000028358043
            0.000123886606    -0.000061308860    0.141702205608    0.034329133798    0.000168166174    -0.000041682275    0.179450070300    0.016952435966
0.125     0.105614372578    -0.136599858592    0.000125258646    -0.000144769146    0.073346752603    -0.104998531476    0.000099875249    -0.000131505615
            0.000148647402    -0.000126382441    0.107689460610    -0.139735545381    0.000148036977    -0.000187300387    0.082863203460    -0.096988669096
            0.072871314309    -0.104475963974    0.000080050305    -0.000241668436    0.107243295670    -0.138192508330    0.000135930977    -0.000182944989
            0.000067694858    -0.000116758453    0.082041213576    -0.097626515513    0.000133644411    -0.000148279980    0.107775661002    -0.139782708543
0.150     0.043831619976    -0.043006412408    -0.000174534469    -0.000257504232    0.022293655479    -0.017044165180    -0.000166015289    -0.000229089254
            -0.000150908130    -0.000296468285    -0.004992755430    -0.020364876653    -0.000228459055    -0.000350840173    -0.006810952420    0.002220374640
            0.022888653276    -0.016341575907    -0.000290756394    -0.000267480460    0.044247900981    -0.044485338524    -0.000208014339    -0.000297799597
            -0.000162547962    -0.000202411342    -0.007887520165    0.002403046257    -0.000186410418    -0.000307747938    -0.004461543694    -0.019790505232
0.175     0.149074134476    -0.091726234343    -0.000242928529    0.000107612304    0.114341510597    -0.063747760346    -0.000220671952    0.000126194423
            -0.000278883407    0.000092547432    0.160016265815    0.006396955031    -0.000360031014    0.000164280147    0.129826316290    0.015860965578
            0.114922557021    -0.064125002907    -0.000305559737    0.000211200698    0.149419113122    -0.093803944406    -0.000307629897    0.000139372027
            -0.000195944617    0.000141409153    0.129333084044    0.016470731353    -0.000303901192    0.000143717749    0.161154988469    0.005589717813
0.200     0.032097464624    -0.203744735690    -0.000115936368    0.000219868053    0.005486800523    -0.150550440143    -0.000062233091    0.000198508206
            -0.000130615880    0.000239459560    0.131010464768    -0.169142544572    -0.000104834680    0.000327438296    0.099495521806    -0.120571463038
            0.005334461860    -0.150671747526    -0.000056723428    0.000323527526    0.030628936653    -0.205948831942    -0.000095439252    0.000286281596
            -0.000031834990    0.000176239688    0.099065024141    -0.120146826166    -0.000081201008    0.000261732238    0.130532001709    -0.169655302674
0.225     -0.061610872574    -0.067259868113    0.000255480488    0.000342976439    -0.063997651481    -0.017872872233    0.000235604199    0.000272787748
            0.000254701718    0.000365912002    -0.012444798167    -0.117443941907    0.000341546448    0.000409587515    -0.001778101736    -0.077982945242
            -0.063391831382    -0.017816730104    0.000381018812    0.000347565072    -0.063281267199    -0.067356883992    0.000306836544    0.000357725577
            0.000216855277    0.000231610397    -0.002198526140    -0.077013721508    0.000271687402    0.000344444194    -0.010938940195    -0.116180821395
0.250     0.065311754697    -0.055581175282    0.000390160004    -0.000227025008    0.057272253910    -0.013012043011    0.000328451261    -0.000233489486
            0.000425349062    -0.000212828130    0.068679185211    -0.048330596252    0.000528141097    -0.000290725956    0.053946905447    -0.045166844744
            0.057477042890    -0.014250786317    0.000457450740    -0.000346289187    0.064964294799    -0.056131149751    0.000451172977    -0.000269780940
            0.000285409737    -0.000223499015    0.054510526537    -0.044045782007    0.000439930049    -0.000243481352    0.071895402047    -0.050682077763
0.275     -0.019605321250    -0.163428346068    0.000024221821    -0.000371165937    -0.011152701080    -0.098923035726    -0.000030706637    -0.000319416405
            0.000043100752    -0.000409537400    0.070908534504    -0.158188986565    0.000004426565    -0.000537248324    0.025443122454    -0.109708683607
            -0.012544845402    -0.099360944419    -0.000052743926    -0.000485299222    -0.021385742274    -0.163696112118    -0.000010870031    -0.000453231859
            -0.000036581022    -0.000278611895    0.026431406051    -0.109371847094    -0.000000694137    -0.000431740892    0.069894099256    -0.161248812918
0.300     -0.111361909073    -0.025790022698    -0.000397613595    -0.000322276780    -0.064192392588    0.009728116374    -0.000358180001    -0.000231333514
            -0.000429575314    -0.000344378447    -0.034838449759    -0.149683046189    -0.000559456804    -0.000374089877    -0.025663086007    -0.074578749418
            -0.064704348826    0.010779320083    -0.000537951656    -0.000314480034    -0.111249924398    -0.023780042416    -0.000476878849    -0.000318167341
            -0.000323085882    -0.000208452473    -0.024945677464    -0.074646201903    -0.000447116855    -0.000316399855    -0.034549710226    -0.148802967495
0.325     0.056617730112    0.022487663240    -0.000466586342    0.000378150734    0.067646208394    0.023545855361    -0.000365926531    0.000372579035
            -0.000491608700    0.000394498309    -0.024921497512    -0.108200397387    -0.000588754073    0.000510489959    -0.004646549427    -0.078751842260
            0.068048865688    0.023575292283    -0.000530268929    0.000517952952    0.058999766513    0.021124194111    -0.000507249412    0.000451300756
            -0.000328035529    0.000346072793    -0.003917688654    -0.078931854899    -0.000494419407    0.000423800717    -0.021525610220    -0.111257938483
0.350     0.027238215138    -0.140635317782    0.000133363497    0.000498415305    0.024862585421    -0.097583498703    0.000183970362    0.000399036096
            0.000130116695    0.000527560562    -0.055349298890    -0.136713813165    0.000200468023    0.000664843455    -0.065230314232    -0.090251122219
            0.024188278085    -0.097397865787    0.000233126059    0.000617987599    0.025663729159    -0.143130753004    0.000193199879    0.000566776779
            0.000169223912    0.000352033750    -0.064471629160    -0.090872332783    0.000174186510    0.000537930243    -0.057401167495    -0.142028695435
0.375     -0.105625630845    -0.065880908099    0.000552378669    0.000217142786    -0.055611258436    -0.038517817315    0.000470036034    0.000118518946
            0.000586318256    0.000238593383    -0.105425055924    -0.071898788670    0.000737647446    0.000249910918    -0.076087866384    -0.001722582944
            -0.055276771745    -0.037012258030    0.000708500739    0.000193084362    -0.105807833199    -0.064506141740    0.000636094208    0.000198674003
            0.000421237177    0.000118879177    -0.075764096883    -0.002782949849    0.000591636623    0.000211986222    -0.107212929551    -0.071689693459
0.400     0.008659944820    0.010337625132    0.000456500714    -0.000564896164    0.011539840666    -0.010545649773    0.000328571899    -0.000532413340
            0.000490256800    -0.000601239894    -0.047200379477    -0.052870070624    0.000588700340    -0.000750270363    -0.003233777409    -0.016237819027
            0.013441801340    -0.010691656442    0.000513997700    -0.000733771818    0.011514396633    0.007220184894    0.000485978386    -0.000669767342
            0.000314029944    -0.000489753192    -0.003606193849    -0.017342349072    0.000496853374    -0.000623220938    -0.044717610248    -0.056268400477
0.425     0.005769389404    -0.149052543670    -0.000336728181    -0.000534953574    -0.023948896853    -0.091005955420    -0.000376630964    -0.000385574984
            -0.000365744960    -0.000570374402    -0.112529419628    -0.109593712132    -0.000479931971    -0.000720997782    -0.073038142675    -0.062319732256
            -0.023768168588    -0.092495704654    -0.000471826449    -0.000651468200    0.001685956961    -0.153207343797    -0.000442905686    -0.000581021854
            -0.000346812784    -0.000356130530    -0.073946409111    -0.062907049495    -0.000411808475    -0.000579756852    -0.116552142309    -0.114684356107
0.450     -0.179180331979    -0.097100516604    -0.000610105062    -0.000084271099    -0.110014046366    -0.029473647404    -0.000461019555    0.000017804222
            -0.000645264275    -0.000073522799    -0.188782143860    0.016893625231    -0.000813962846    -0.000043834028    -0.105844789038    0.042048317621
            -0.110578242382    -0.029589721474    -0.000767963174    -0.000034718950    -0.181618511875    -0.094283013859    -0.000662214983    -0.000026859976
            -0.000421705452    0.000004334765    -0.106655728243    0.042007626422    -0.000639049214    -0.000040494476    -0.191549603441    0.018790648708
0.475     -0.113366043641    0.055186567998    -0.000474383478    0.000689240129    -0.059736292262    0.036268674780    -0.000327574993    0.000588532237
            -0.000485096845    0.000727149591    -0.040287774838    0.090308416611    -0.000564098229    0.000895771399    0.006953462590    0.062851068300
            -0.059318060723    0.035878223217    -0.000526708677    0.000876756466    -0.110325736468    0.053441126470    -0.000485042851    0.000773196079
            -0.000322498064    0.000545674555    0.006227783171    0.062802821250    -0.000488706712    0.000727506523    -0.037623452906    0.087502398125
0.500     -0.051361649507    -0.035968717283    0.000604987710    0.000638312935    -0.046906022875    -0.003667960261    0.000587206781    0.000451098413
            0.000644899421    0.000664433349    -0.032027250891    -0.058490706074    0.000786194421    0.000826242090    -0.012209281493    -0.035426388416
            -0.047790132238    -0.004936387375    0.000780787425    0.000759748960    -0.055690779860    -0.040397629972    0.000714647497    0.000674974783
            0.000547920232    0.000428977008    -0.013324277533    -0.035093990878    0.000662198070    0.000678375624    -0.037425380466    -0.063222859215
0.525     -0.182664602996    0.005958500703    0.000708184746    -0.000168961622    -0.086300049553    0.046684689647    0.000503772932    -0.000228741909
            0.000737939956    -0.000202909144    -0.176904654455    0.023189149643    0.000941972283    -0.000262816853    -0.081999813576    0.030693256663
            -0.087986378572    0.047334946012    0.000872281643    -0.000259005862    -0.185420992038    0.009846694394    0.000750383479    -0.000237050885
            0.000467692068    -0.000200690821    -0.082635968722    0.031994502177    0.000745771636    -0.000200325356    -0.178947559871    0.027143688886
0.550     -0.101565756724    0.153629480354    0.000377476236    -0.000809657158    -0.019685243606    0.084917581542    0.000241744619    -0.000648518812
            0.000359145489    -0.000839143145    -0.049199206465    0.159162911275    0.000417047753    -0.001059527339    -0.000386087614    0.074396788192
            -0.019672043291    0.086477551041    0.000412634591    -0.001008019158    -0.097500565081    0.152744616066    0.000373008156    -0.000892184345
            0.000253864147    -0.000604169619    0.000072042503    0.075585608667    0.000388929802    -0.000870533132    -0.043439011544    0.157826985627
0.575     0.000290906196    0.071075081671    -0.000852135892    -0.000728649499    -0.009877273481    0.030551618708    -0.000772270662    -0.000526822733
            -0.000881854073    -0.000729550764    0.046113648091    0.013725352473    -0.001084642121    -0.000883203417    0.017915607851    -0.022463365284
            -0.009124014172    0.030947667661    -0.001059192614    -0.000859008506    -0.003501296635    0.066560414761    -0.000972045840    -0.000759188657
            -0.000727017100    -0.000520584868    0.018406068664    -0.021472191648    -0.000932259766    -0.000760491838    0.041639119263    0.008193843588
0.600     -0.073388672236    0.057802021722    -0.000873782365    0.000524958523    -0.039490611117    0.055442518945    -0.000636193652    0.000530422179
            -0.000889415204    0.000551664115    -0.088185943368    0.000174491970    -0.001110977348    0.000667335387    -0.054850050613    0.018544060487
            -0.039372674946    0.055627969067    -0.001063891289    0.000660009495    -0.075676926174    0.061618062056    -0.000922878375    0.000609352010
            -0.000611061872    0.000491838637    -0.054371165670    0.019098005092    -0.000914744213    0.000565657150    -0.089829669183    0.004330920120
0.625     -0.010258595273    0.111124758243    -0.000043892688    0.001077900803    0.016339804260    0.054316246351    0.000061024857    0.000870329595
            -0.000026417918    0.001100648702    -0.037633791137    0.094562671058    -0.000028821838    0.001374117767    -0.003637383722    0.043447252832
            0.017108601294    0.054951556971    -0.000028830765    0.001320749863    -0.006466779655    0.109236691700    -0.000011287846    0.001186148991
            0.000032116854    0.000830030344    -0.002537470910    0.043864672856    -0.000044783742    0.001165527842    -0.032954072086    0.090605708808
0.650     -0.000655006536    0.022518085592    0.001205568018    0.000454901263    -0.027603187499    -0.001207319495    0.001058373476    0.000240594635
            0.001230512175    0.000453872853    -0.003734777441    0.017409586823    0.001502463822    0.000558173918    -0.029603986048    -0.007857976738
            -0.026082198809    -0.001825866934    0.001461840699    0.000546965988    -0.004674493779    0.019008442468    0.001343675802    0.000435237843
            0.001013360847    0.000257144329    -0.028383063189    -0.008334586255    0.001308623244    0.000454364248    -0.008791526129    0.012172503193
0.675     -0.071021417523    0.066739681687    0.000736849766    -0.000881011834    -0.061422731519    0.078967486396    0.000470336437    -0.000810356651
            0.000754292673    -0.000906439626    -0.067252930991    0.053489130270    0.000957021964    -0.001091993916    -0.063286139576    0.061299820441
            -0.061449096015    0.077107911458    0.000923720941    -0.001069407545    -0.071150766769    0.069784583491    0.000762694376    -0.000977177160
            0.000467286680    -0.000770779648    -0.062668377173    0.060290970800    0.000768949366    -0.000933907330    -0.067018397189    0.055743361815
0.700     -0.010148820494    0.082056656575    -0.000340138283    -0.001183820507    0.013599441774    0.074054937708    -0.000400542086    -0.000928342766
            -0.000362833501    -0.001216196711    0.011921142858    0.062236829786    -0.000437784674    -0.001516974101    0.013612701564    0.054708587905
            0.012074726144    0.073548932009    -0.000423648039    -0.001463433831    -0.007456407789    0.077517367192    -0.000420785740    -0.001297648034
            -0.000366692625    -0.000904003152    0.013638653774    0.053640652458    -0.000379497813    -0.001290583821    0.014701673128    0.053398181516
0.725     -0.088806961859    0.044410414999    -0.001448919581    0.000088224765    -0.056017663428    0.046892118212    -0.001206104855    0.000295485633
            -0.001488832927    0.000103781899    -0.072894249732    -0.034135721275    -0.001803441589    0.000094044410    -0.062536246764    0.014311156885
            -0.056413263699    0.047405215162    -0.001751627502    0.000080956009    -0.094585734906    0.042958812006    -0.001560406357    0.000194323209
            -0.001172829919    0.000267101335    -0.062612559148    0.013948185309    -0.001538236565    0.000163401459    -0.084288780187    -0.038070294585
0.750     -0.089799417098    0.200348492962    -0.000226937350    0.001066326530    -0.034939527715    0.158942126666    0.000035136332    0.000878624497
            -0.000227272658    0.001107458856    -0.147566219305    0.136742666783    -0.000357391828    0.001322691385    -0.081330405966    0.127509690525
            -0.035116204417    0.158420551839    -0.000351778009    0.001291346750    -0.087324375664    0.203405179520    -0.000201605287    0.001108503306
            0.000023545722    0.000851087781    -0.081659640926    0.126894833489    -0.000219385892    0.001073892645    -0.147726002530    0.142666411212
0.775     0.075483897721    0.176811594105    0.000477951854    0.000895316903    0.082476281573    0.113841811120    0.000441087112    0.000627780889
            0.000520685432    0.000913298624    0.041625672083    0.171316590653    0.000616969442    0.001198468076    0.048311891881    0.116775558050
            0.080824968277    0.114275973798    0.000599331531    0.001159399532    0.076754619513    0.169526066993    0.000521249075    0.001000786014
