# GHz S RI R 45
0.000     0.065430609000    -0.000000000000    0.000002641073    0.000000000000    0.004157281600    -0.000000000000    0.000001536813    0.000000000000
            0.000002615460    0.000000000000    0.065218440000    -0.000000000000    -0.000000350545    0.000000000000    0.004181878500    -0.000000000000
            0.004924919400    0.000000000000    -0.000000349823    -0.000000000000    0.063602856000    -0.000000000000    0.000000358376    -0.000000000000
            0.000001573746    -0.000000000000    0.005035314900    0.000000000000    0.000000350591    0.000000000000    0.064483681000    -0.000000000000
0.025     0.147735136553    0.008357622183    0.000005678674    0.000003110554    0.080790708116    0.029756133284    0.000002610788    -0.000000088679
            0.000005683616    0.000003114388    0.148249066804    0.007793331690    0.000001626558    0.000003300252    0.081074323652    0.029402765124
            0.081545797636    0.029412859963    0.000001629649    0.000003296743    0.148350734078    0.009438608793    0.000000622140    0.000000266627
            0.000002620645    -0.000000090970    0.081800880891    0.029012271626    0.000000625955    0.000000274838    0.148583154012    0.008354925198
0.050     0.086090546860    -0.097236454835    -0.000011502501    0.000015319042    0.048796436467    -0.052143487721    -0.000006048381    0.000006328199
            -0.000011485702    0.000015325432    0.084733842702    -0.097306489703    -0.000002415137    0.000006513919    0.047730833805    -0.052177229754
            0.049203883849    -0.052970559264    -0.000002428310    0.000006509773    0.086691042337    -0.098120856806    -0.000001094365    0.000001914015
            -0.000006060162    0.000006324517    0.048117653126    -0.052985966206    -0.000001072862    0.000001919574    0.085215715904    -0.097957298375
0.075     0.001425174778    0.028629993001    0.000014093656    0.000042078794    -0.012721042328    0.048014787115    0.000009274472    0.000017466378
            0.000014114951    0.000042061651    0.003147443356    0.030339893897    0.000003502432    0.000015618263    -0.011448474222    0.049559862297
            -0.013265022791    0.047108708387    0.000003510288    0.000015643343    0.000823585660    0.028696829170    0.000002724508    0.000004547257
            0.000009282232    0.000017491387    -0.011995690779    0.048663912124    0.000002743282    0.000004527471    0.002662174269    0.030303720075
0.100     0.178470579498    0.020200540311    0.000011215062    0.000011162726    0.141106657398    0.037893936838    0.000004234258    -0.000000643631
            0.000011241455    0.000011154184    0.179257398060    0.016523121375    0.000003019987    0.000012617758    0.141986849281    0.035066341623
            0.140837302178    0.037152119049    0.000003038557    0.000012596716    0.178701682567    0.020683001488    0.000000870090    0.000002262677
            0.000004251380    -0.000000663969    0.141702205608    0.034329133798    0.000000896821    0.000002256828    0.179450070300    0.016952435966
0.125     0.112361171808    -0.139288195018    -0.000023735628    0.000049202642    0.086602576400    -0.096338453468    -0.000012770242    0.000017809847
            -0.000023705091    0.000049161550    0.107689460610    -0.139735545381    -0.000000274831    0.000021951425    0.082863203460    -0.096988669096
            0.085799119839    -0.096996965863    -0.000000316383    0.000021948221    0.112373246474    -0.139218520972    0.000000040707    0.000004893836
            -0.000012806726    0.000017807389    0.082041213576    -0.097626515513    0.000000080669    0.000004850817    0.107775661002    -0.139782708543
0.150     -0.006613482072    -0.023430399708    0.000038895976    0.000072524232    -0.008041845949    -0.000387263737    0.000018469475    0.000028748348
            0.000038880911    0.000072464881    -0.004992755430    -0.020364876653    0.000015383516    0.000026287444    -0.006810952420    0.002220374640
            -0.009124454127    -0.000242307538    0.000015425635    0.000026327561    -0.006039756717    -0.022645939786    0.000005961548    0.000007287786
            0.000018510917    0.000028782905    -0.007887520165    0.002403046257    0.000005932267    0.000007222484    -0.004461543694    -0.019790505232
0.175     0.159874032762    0.011910759878    0.000003728407    0.000016604063    0.129650968740    0.020310763651    0.000000037241    -0.000000459882
            0.000003689954    0.000016576751    0.160016265815    0.006396955031    0.000001134201    0.000018842704    0.129826316290    0.015860965578
            0.129134832708    0.020903854366    0.000001126788    0.000018784623    0.161086539798    0.011193996181    0.000001301115    0.000003395756
            0.000000027269    -0.000000519271    0.129333084044    0.016470731353    0.000001273154    0.000003376990    0.161154988469    0.005589717813
0.200     0.139050296267    -0.167623866309    -0.000022111094    0.000094190230    0.105897994746    -0.119292274450    -0.000013470752    0.000031213379
            -0.000022140651    0.000094156289    0.131010464768    -0.169142544572    0.000009574559    0.000042161696    0.099495521806    -0.120571463038
            0.105451946336    -0.118890514372    0.000009524001    0.000042196707    0.138471490600    -0.168006531680    0.000003894665    0.000007310085
            -0.000013519442    0.000031249069    0.099065024141    -0.120146826166    0.000003866780    0.000007265689    0.130532001709    -0.169655302674
0.225     -0.009589950948    -0.121304986345    0.000067168028    0.000085941900    0.000463818442    -0.080798258747    0.000021145474    0.000032048902
            0.000067084284    0.000085910435    -0.012444798167    -0.117443941907    0.000034977967    0.000029282065    -0.001778101736    -0.077982945242
            -0.000011338813    -0.079850802195    0.000035047013    0.000029309409    -0.008105387066    -0.119628014477    0.000008437339    0.000006925436
            0.000021211092    0.000032070974    -0.002198526140    -0.077013721508    0.000008340948    0.000006891523    -0.010938940195    -0.116180821395
0.250     0.072397730818    -0.045862128949    -0.000011219881    0.000023297352    0.057872391851    -0.043214357810    -0.000009880854    0.000005892665
            -0.000011317570    0.000023350790    0.068679185211    -0.048330596252    0.000003064800    0.000015277480    0.053946905447    -0.045166844744
            0.058379322538    -0.042058836449    0.000003019199    0.000015221689    0.075831824560    -0.047958057119    0.000003403356    0.000001834760
            -0.000009931478    0.000005836234    0.054510526537    -0.044045782007    0.000003318056    0.000001897531    0.071895402047    -0.050682077763
0.275     0.080394752609    -0.160128584280    -0.000009107662    0.000141573657    0.032897876797    -0.113078413884    -0.000009472496    0.000050123139
            -0.000009140275    0.000141670150    0.070908534504    -0.158188986565    0.000018442084    0.000054980041    0.025443122454    -0.109708683607
            0.033862932763    -0.112688550262    0.000018447230    0.000055057764    0.079382491415    -0.162953077716    0.000005166627    0.000006839418
            -0.000009468019    0.000050206822    0.026431406051    -0.109371847094    0.000005123346    0.000006916404    0.069894099256    -0.161248812918
0.300     -0.028216228911    -0.154689223161    0.000088858779    0.000078872641    -0.022475188469    -0.078656641928    0.000021176866    0.000028135179
            0.000088864816    0.000078951926    -0.034838449759    -0.149683046189    0.000050524190    0.000021902189    -0.025663086007    -0.074578749418
            -0.021759437661    -0.078671289186    0.000050603912    0.000021858196    -0.027800984922    -0.153324061530    0.000008173252    0.000003532615
            0.000021253009    0.000028087621    -0.024945677464    -0.074646201903    0.000008169279    0.000003630708    -0.034549710226    -0.148802967495
0.325     -0.014715635591    -0.112798704402    -0.000034809670    0.000046633523    0.003888136967    -0.081449957759    -0.000026544215    0.000024399561
            -0.000034784836    0.000046718367    -0.024921497512    -0.108200397387    0.000004998555    0.000012403602    -0.004646549427    -0.078751842260
            0.004635197985    -0.081576382350    0.000004927452    0.000012360865    -0.011014779631    -0.115549885936    0.000002346479    0.000002373372
            -0.000026618328    0.000024365474    -0.003917688654    -0.078931854899    0.000002383711    0.000002454863    -0.021525610220    -0.111257938483
0.350     -0.045893438951    -0.148866050401    0.000017951541    0.000179684333    -0.058024614060    -0.101907882266    -0.000000404006    0.000072729002
            0.000018027837    0.000179778593    -0.055349298890    -0.136713813165    0.000029113860    0.000050403982    -0.065230314232    -0.090251122219
            -0.057224445212    -0.102472462640    0.000029151537    0.000050462603    -0.047703480987    -0.153832319764    0.000004630382    0.000005353697
            -0.000000360324    0.000072792975    -0.064471629160    -0.090872332783    0.000004689895    0.000005439787    -0.057401167495    -0.142028695435
0.375     -0.102380301616    -0.083085942547    0.000093080391    0.000064835727    -0.077345407490    -0.010463104097    0.000023120198    0.000031225167
            0.000093226235    0.000064880600    -0.105425055924    -0.071898788670    0.000044415406    0.000005312990    -0.076087866384    -0.001722582944
            -0.076932996743    -0.011485702331    0.000044433718    0.000005206686    -0.103794939017    -0.082521915646    0.000005064180    0.000002949338
            0.000023141308    0.000031114910    -0.075764096883    -0.002782949849    0.000005204121    0.000003025837    -0.107212929551    -0.071689693459
0.400     -0.039309371684    -0.062329807257    -0.000060294460    0.000091379111    0.001931461457    -0.021232229040    -0.000030746925    0.000048356877
            -0.000060136695    0.000091319643    -0.047200379477    -0.052870070624    -0.000007942188    0.000024264016    -0.003233777409    -0.016237819027
            0.001665003976    -0.022371579633    -0.000008055349    0.000024290666    -0.036479955369    -0.065471154497    0.000000937491    0.000007012063
            -0.000030863429    0.000048387601    -0.003606193849    -0.017342349072    0.000001121756    0.000006943278    -0.044717610248    -0.056268400477
0.425     -0.104930430957    -0.128572866498    0.000060968340    0.000205512987    -0.068253709649    -0.076682507485    0.000016579699    0.000084174807
            0.000061052159    0.000205377698    -0.112529419628    -0.109593712132    0.000044779347    0.000043938765    -0.073038142675    -0.062319732256
            -0.069108513131    -0.077356056689    0.000044811709    0.000043995460    -0.108553621069    -0.133325693450    0.000005904532    0.000003383842
            0.000016624745    0.000084235883    -0.073946409111    -0.062907049495    0.000005973846    0.000003254577    -0.116552142309    -0.114684356107
0.450     -0.191977518248    -0.004900335848    0.000079280393    0.000056592061    -0.110460775051    0.028285627997    0.000020903823    0.000044868775
            0.000079291678    0.000056464119    -0.188782143860    0.016893625231    0.000024087913    -0.000014578332    -0.105844789038    0.042048317621
            -0.111262303833    0.028168031159    0.000024081091    -0.000014617140    -0.194368328008    -0.002782949031    0.000001801010    0.000006711447
            0.000020896583    0.000044817660    -0.106655728243    0.042007626422    0.000001830003    0.000006594274    -0.191549603441    0.018790648708
0.475     -0.046986815361    0.078044130952    -0.000069266358    0.000142798985    0.003669284671    0.056448919544    -0.000011246973    0.000068714647
            -0.000069261631    0.000142669941    -0.040287774838    0.090308416611    -0.000034213853    0.000039785631    0.006953462590    0.062851068300
            0.002953228197    0.056316215365    -0.000034262860    0.000039874774    -0.043958566025    0.075561773527    0.000004005912    0.000008450850
            -0.000011299509    0.000068808992    0.006227783171    0.062802821250    0.000004030735    0.000008311052    -0.037623452906    0.087502398125
0.500     -0.030236554645    -0.069893170644    0.000109322862    0.000219144051    -0.011179396044    -0.044053716836    0.000038243098    0.000072015020
            0.000109261635    0.000218951993    -0.032027250891    -0.058490706074    0.000054699958    0.000057506003    -0.012209281493    -0.035426388416
            -0.012333027638    -0.043843213059    0.000054793190    0.000057508583    -0.035167547646    -0.074407269444    0.000007784197    -0.000001059831
            0.000038342671    0.000072015060    -0.013324277533    -0.035093990878    0.000007709206    -0.000001255308    -0.037425380466    -0.063222859215
0.525     -0.178091999459    -0.000956865743    0.000049162158    0.000050598619    -0.083475625293    0.017247880252    0.000000938102    0.000048213409
            0.000048921568    0.000050480096    -0.176904654455    0.023189149643    0.000007917422    -0.000019533037    -0.081999813576    0.030693256663
            -0.084258175407    0.018470100026    0.000007919417    -0.000019543138    -0.180436541635    0.003441560926    -0.000005417187    0.000008982105
            0.000000934551    0.000048194882    -0.082635968722    0.031994502177    -0.000005620492    0.000008856420    -0.178947559871    0.027143688886
0.550     -0.065842226376    0.142910138271    -0.000057741531    0.000202450807    -0.006107314021    0.065223678402    0.000010644980    0.000093947730
            -0.000057972325    0.000202539432    -0.049199206465    0.159162911275    -0.000045490313    0.000056126008    -0.000386087614    0.074396788192
            -0.005796946836    0.066459139612    -0.000045468777    0.000056143172    -0.060837560635    0.141515331618    0.000009531351    0.000010237615
            0.000010660319    0.000093974163    0.000072042503    0.075585608667    0.000009272491    0.000010285474    -0.043439011544    0.157826985627
0.575     0.038276587430    0.012439348326    0.000146362984    0.000213918301    0.016636263924    -0.026687059822    0.000054852853    0.000051121272
            0.000146162435    0.000214019196    0.046113648091    0.013725352473    0.000047963721    0.000070062349    0.017915607851    -0.022463365284
            0.016992956306    -0.025633733666    0.000048043428    0.000070000461    0.034864926074    0.007322418415    0.000005592309    -0.000006737780
            0.000054941368    0.000051054220    0.018406068664    -0.021472191648    0.000005379838    -0.000006626178    0.041639119263    0.008193843588
0.600     -0.085147099526    -0.015170059667    0.000008694396    0.000057295150    -0.053866387884    0.007085322523    -0.000026872617    0.000047052263
            0.000008577930    0.000057392419    -0.088185943368    0.000174491970    -0.000004984864    0.000002329042    -0.054850050613    0.018544060487
            -0.053456691738    0.007699531799    -0.000005060561    0.000002291316    -0.086690620708    -0.011711803146    -0.000014181259    0.000012125387
            -0.000026958560    0.000047013185    -0.054371165670    0.019098005092    -0.000014278863    0.000012211879    -0.089829669183    0.004330920120
0.625     -0.050303397051    0.076054120523    -0.000028287797    0.000276144855    -0.008641183304    0.031201495474    0.000018910719    0.000121278904
            -0.000028385466    0.000276388461    -0.037633791137    0.094562671058    -0.000019723777    0.000085174011    -0.003637383722    0.043447252832
            -0.007610876628    0.031763291225    -0.000019687544    0.000085214302    -0.045466781932    0.072976574687    0.000012944835    0.000014386911
            0.000018941770    0.000121332093    -0.002537470910    0.043864672856    0.000012802624    0.000014597091    -0.032954072086    0.090605708808
0.650     -0.011594681342    0.011618516133    0.000174793207    0.000179177255    -0.032023326244    -0.017268978625    0.000052810678    0.000040960264
            0.000174907271    0.000179462166    -0.003734777441    0.017409586823    0.000051961393    0.000042835588    -0.029603986048    -0.007857976738
            -0.030744473016    -0.017556341495    0.000051978127    0.000042704401    -0.015477388320    0.006362096327    -0.000004459057    -0.000012060570
            0.000052851261    0.000040829200    -0.028383063189    -0.008334586255    -0.000004366266    -0.000011730945    -0.008791526129    0.012172503193
0.675     -0.070204023042    0.036646314590    -0.000036353860    0.000095375478    -0.067442521650    0.045192381846    -0.000034858515    0.000074516301
            -0.000036114548    0.000095511052    -0.067252930991    0.053489130270    -0.000034007908    0.000026911520    -0.063286139576    0.061299820441
            -0.066668299674    0.044277374509    -0.000034178800    0.000026949907    -0.070012930101    0.038734698211    -0.000016592018    0.000023451135
            -0.000035038583    0.000074541000    -0.062668377173    0.060290970800    -0.000016342824    0.000023595920    -0.067018397189    0.055743361815
0.700     -0.000103480573    0.049683176235    0.000024425583    0.000332708791    0.004053362799    0.043850822614    0.000041328837    0.000127654772
            0.000024674841    0.000332724482    0.011921142858    0.062236829786    0.000011617837    0.000115338817    0.013612701564    0.054708587905
            0.004232345152    0.042794408895    0.000011718203    0.000115412040    0.003688449739    0.041749333019    0.000016283540    0.000012141464
            0.000041423616    0.000127736738    0.013638653774    0.053640652458    0.000016512097    0.000012161463    0.014701673128    0.053398181516
0.725     -0.069782127821    -0.049241965531    0.000170628566    0.000140073019    -0.065690244194    -0.000244712450    0.000021094263    0.000042065320
            0.000170735638    0.000140059210    -0.072894249732    -0.034135721275    0.000057956147    0.000009513852    -0.062536246764    0.014311156885
            -0.065698941823    -0.000608207349    0.000057871336    0.000009405455    -0.079810655616    -0.054536612333    -0.000023744309    -0.000006678772
            0.000021028868    0.000041950338    -0.062612559148    0.013948185309    -0.000023624591    -0.000006659655    -0.084288780187    -0.038070294585
0.750     -0.164633613009    0.100794195949    -0.000050856874    0.000162892322    -0.098069108845    0.102992355433    -0.000007433804    0.000134756624
            -0.000050701164    0.000162794406    -0.147566219305    0.136742666783    -0.000051216177    0.000030271224    -0.081330405966    0.127509690525
            -0.098291205757    0.102314804683    -0.000051283352    0.000030450770    -0.165834908619    0.106370217752    -0.000002400634    0.000039470079
            -0.000007519210    0.000134931074    -0.081659640926    0.126894833489    -0.000002239153    0.000039369637    -0.147726002530    0.142666411212
0.775     0.008044854750    0.163499068988    0.000073782331    0.000349519931    0.025249459114    0.112087862457    0.000083723795    0.000112843839
            0.000074000681    0.000349301866    0.041625672083    0.171316590653    -0.000008350244    0.000118095796    0.048311891881    0.116775558050
            0.024534834914    0.111147983702    -0.000008172300    0.000118102249    0.013202566363    0.155786546722    0.000015138957    0.000004627179
            0.000083908829    0.000112842653    0.047463887295    0.115965906117    0.000015372986    0.000004433798    0.045643753362    0.162268948236
