# GHz S RI R 45
0.000     0.065945096000    0.000000000000    0.000001508721    -0.000000000000    0.003665609400    -0.000000000000    0.000002536316    0.000000000000
            0.000001507393    0.000000000000    0.065218440000    -0.000000000000    0.000001141277    0.000000000000    0.004181878500    -0.000000000000
            0.004610234100    -0.000000000000    0.000001140297    0.000000000000    0.065809117000    -0.000000000000    0.000002042154    0.000000000000
            0.000002531035    -0.000000000000    0.005035314900    0.000000000000    0.000002044294    0.000000000000    0.064483681000    -0.000000000000
0.025     0.148511375799    0.008119734683    0.000010932360    0.000000280063    0.081393924247    0.030391845621    0.000016814400    0.000001141293
            0.000010929357    0.000000296206    0.148249066804    0.007793331690    0.000006791858    -0.000000566561    0.081074323652    0.029402765124
            0.081301123228    0.029526843679    0.000006787766    -0.000000576434    0.148365318548    0.007598716059    0.000012640662    0.000000351733
            0.000016809066    0.000001132528    0.081800880891    0.029012271626    0.000012650075    0.000000343892    0.148583154012    0.008354925198
0.050     0.085615323397    -0.097186275874    -0.000015983490    0.000010131535    0.049198074610    -0.052310372434    -0.000023477209    0.000016831221
            -0.000015941538    0.000010164237    0.084733842702    -0.097306489703    -0.000010884479    0.000005919990    0.047730833805    -0.052177229754
            0.048234562201    -0.052141988125    -0.000010924846    0.000005922904    0.084680358571    -0.097348875802    -0.000018116352    0.000011953610
            -0.000023510392    0.000016839044    0.048117653126    -0.052985966206    -0.000018127432    0.000011911588    0.085215715904    -0.097957298375
0.075     0.002514283997    0.030478319943    0.000030659799    0.000060015827    -0.012719106387    0.048487590488    0.000044322699    0.000091495437
            0.000030724756    0.000059920008    0.003147443356    0.030339893897    0.000021697308    0.000037598112    -0.011448474222    0.049559862297
            -0.011922181279    0.049664957774    0.000021716741    0.000037619980    0.002655872126    0.031442240887    0.000034998121    0.000068837473
            0.000044349033    0.000091507335    -0.011995690779    0.048663912124    0.000034910562    0.000068922248    0.002662174269    0.030303720075
0.100     0.180095809409    0.019127294754    0.000052102197    -0.000012356043    0.141735752631    0.037511394601    0.000080530090    -0.000013356265
            0.000052074130    -0.000012363664    0.179257398060    0.016523121375    0.000030515899    -0.000012442854    0.141986849281    0.035066341623
            0.142502576713    0.037011809471    0.000030494141    -0.000012463227    0.181165676833    0.018895137772    0.000060588892    -0.000013400549
            0.000080500883    -0.000013384024    0.141702205608    0.034329133798    0.000060641759    -0.000013361640    0.179450070300    0.016952435966
0.125     0.110692178873    -0.139282450580    -0.000021796769    0.000008434612    0.085728442184    -0.095604454597    -0.000031006140    0.000017362752
            -0.000021712051    0.000008433165    0.107689460610    -0.139735545381    -0.000016510523    0.000004197507    0.082863203460    -0.096988669096
            0.085028221335    -0.096382848587    -0.000016631169    0.000004234175    0.110260395938    -0.140305948525    -0.000024570470    0.000010394102
            -0.000031114007    0.000017412649    0.082041213576    -0.097626515513    -0.000024540777    0.000010345742    0.107775661002    -0.139782708543
0.150     -0.004778213054    -0.019750629783    0.000064701111    0.000097179738    -0.005900740711    0.002378936541    0.000097017457    0.000147795592
            0.000064713080    0.000097012221    -0.004992755430    -0.020364876653    0.000042823827    0.000060943965    -0.006810952420    0.002220374640
            -0.006693890580    0.003264109837    0.000042953086    0.000061153410    -0.005290591221    -0.018849569750    0.000074991330    0.000111444598
            0.000097145738    0.000147977419    -0.007887520165    0.002403046257    0.000074866097    0.000111442049    -0.004461543694    -0.019790505232
0.175     0.163177599058    0.010062314375    0.000103398513    -0.000044821601    0.131893934385    0.018396125156    0.000159096239    -0.000057297474
            0.000103246393    -0.000044833187    0.160016265815    0.006396955031    0.000059417558    -0.000036848820    0.129826316290    0.015860965578
            0.132700038439    0.019119865924    0.000059505503    -0.000036983469    0.164734126903    0.010113935776    0.000120087209    -0.000050415038
            0.000159176311    -0.000057435693    0.129333084044    0.016470731353    0.000120153087    -0.000050302102    0.161154988469    0.005589717813
0.200     0.137236285675    -0.168235360036    -0.000017404678    -0.000016044986    0.104057904224    -0.118863427860    -0.000022380504    -0.000018006423
            -0.000017360062    -0.000016025015    0.131010464768    -0.169142544572    -0.000016473072    -0.000009416322    0.099495521806    -0.120571463038
            0.104569378980    -0.119551163586    -0.000016554060    -0.000009398016    0.137596106558    -0.169776274988    -0.000019422353    -0.000018000716
            -0.000022468575    -0.000017984748    0.099065024141    -0.120146826166    -0.000019392651    -0.000018022454    0.130532001709    -0.169655302674
0.225     -0.007666671508    -0.116943751227    0.000075248538    0.000097068479    0.003038439946    -0.076455344941    0.000119413994    0.000150086846
            0.000075111443    0.000096911082    -0.012444798167    -0.117443941907    0.000045283852    0.000059596347    -0.001778101736    -0.077982945242
            0.002220013290    -0.076731790874    0.000045404920    0.000059785236    -0.007900779424    -0.117008691135    0.000089265986    0.000111957717
            0.000119530347    0.000150269428    -0.002198526140    -0.077013721508    0.000089313412    0.000111951255    -0.010938940195    -0.116180821395
0.250     0.077346778699    -0.048119312411    0.000146605812    -0.000074505755    0.062574966095    -0.045587925741    0.000224973741    -0.000103389563
            0.000146410078    -0.000074328356    0.068679185211    -0.048330596252    0.000082767206    -0.000053868047    0.053946905447    -0.045166844744
            0.062424737721    -0.044580852518    0.000082971683    -0.000054097774    0.079019102727    -0.048856602212    0.000169946348    -0.000086508420
            0.000225171653    -0.000103615792    0.054510526537    -0.044045782007    0.000169946629    -0.000086539429    0.071895402047    -0.050682077763
0.275     0.078914648066    -0.161424189112    -0.000018826474    -0.000048343745    0.031372168051    -0.113807913676    -0.000021067634    -0.000068746278
            -0.000018723117    -0.000048204487    0.070908534504    -0.158188986565    -0.000020457269    -0.000023518735    0.025443122454    -0.109708683607
            0.032490771641    -0.113519373351    -0.000020548339    -0.000023599542    0.079076124125    -0.163786053839    -0.000021005966    -0.000055820585
            -0.000021159723    -0.000068815369    0.026431406051    -0.109371847094    -0.000021072751    -0.000055834277    0.069894099256    -0.161248812918
0.300     -0.025566886314    -0.151098297011    0.000092852272    0.000075031286    -0.019399174310    -0.074654721086    0.000145032327    0.000116565614
            0.000092779731    0.000074941343    -0.034838449759    -0.149683046189    0.000058320178    0.000046972579    -0.025663086007    -0.074578749418
            -0.018923757470    -0.075736283074    0.000058348789    0.000046896819    -0.025875993567    -0.151831768730    0.000110007253    0.000086515361
            0.000145044130    0.000116467541    -0.024945677464    -0.074646201903    0.000110106036    0.000086685562    -0.034549710226    -0.148802967495
0.325     -0.010028611334    -0.116084486256    0.000154347150    -0.000115392726    0.009165389418    -0.084378911132    0.000239957240    -0.000166047026
            0.000154255177    -0.000115089861    -0.024921497512    -0.108200397387    0.000082305357    -0.000077053551    -0.004646549427    -0.078751842260
            0.008348110173    -0.084720054242    0.000082233707    -0.000077184468    -0.008904584784    -0.118125571121    0.000179320076    -0.000135579649
            0.000239870269    -0.000166129015    -0.003917688654    -0.078931854899    0.000179478055    -0.000135809542    -0.021525610220    -0.111257938483
0.350     -0.047936608780    -0.149954638112    -0.000033631618    -0.000077450798    -0.058819545876    -0.103411398285    -0.000040892755    -0.000117500361
            -0.000033324607    -0.000077319764    -0.055349298890    -0.136713813165    -0.000030746209    -0.000032369215    -0.065230314232    -0.090251122219
            -0.058874639882    -0.102495517914    -0.000030855337    -0.000032344255    -0.049399054317    -0.153191575035    -0.000038480934    -0.000089809454
            -0.000040957861    -0.000117463439    -0.064471629160    -0.090872332783    -0.000038736462    -0.000089932702    -0.057401167495    -0.142028695435
0.375     -0.098163171781    -0.079271389901    0.000111883167    0.000059119782    -0.073128411324    -0.007796609894    0.000167427743    0.000087105194
            0.000111996921    0.000058941715    -0.105425055924    -0.071898788670    0.000077639514    0.000042081338    -0.076087866384    -0.001722582944
            -0.071922300347    -0.008047080152    0.000077694452    0.000041918040    -0.099325248267    -0.079639329605    0.000132049079    0.000066781853
            0.000167484242    0.000086891873    -0.075764096883    -0.002782949849    0.000131934851    0.000067101860    -0.107212929551    -0.071689693459
0.400     -0.033747793881    -0.068247272925    0.000170917158    -0.000194031442    0.007259125346    -0.026468076761    0.000260517806    -0.000277772975
            0.000170886780    -0.000193875613    -0.047200379477    -0.052870070624    0.000094493037    -0.000129968825    -0.003233777409    -0.016237819027
            0.006956194943    -0.028031933667    0.000093987084    -0.000130032181    -0.032716717149    -0.071250673201    0.000196186616    -0.000227064162
            0.000259970617    -0.000277783380    -0.003606193849    -0.017342349072    0.000196640040    -0.000227146535    -0.044717610248    -0.056268400477
0.425     -0.108770840857    -0.130022784188    -0.000081367200    -0.000123323808    -0.069689242160    -0.078534864473    -0.000110163496    -0.000190019377
            -0.000080987240    -0.000123418416    -0.112529419628    -0.109593712132    -0.000060359550    -0.000053439455    -0.073038142675    -0.062319732256
            -0.071215197354    -0.078347620370    -0.000060427370    -0.000052983512    -0.112588731956    -0.133568135820    -0.000093771008    -0.000141857409
            -0.000110164042    -0.000189540237    -0.073946409111    -0.062907049495    -0.000094059270    -0.000142212923    -0.116552142309    -0.114684356107
0.450     -0.187054800175    0.000626698408    0.000091853275    0.000044705402    -0.105532300120    0.030039563784    0.000133651972    0.000063290560
            0.000091858231    0.000044363588    -0.188782143860    0.016893625231    0.000070818888    0.000035407310    -0.105844789038    0.042048317621
            -0.105386658242    0.031226594132    0.000071073501    0.000035516945    -0.189570682764    0.002592574500    0.000110337081    0.000049892218
            0.000133941596    0.000063335863    -0.106655728243    0.042007626422    0.000110068463    0.000050148807    -0.191549603441    0.018790648708
0.475     -0.037529256899    0.070423935687    0.000200097809    -0.000252142222    0.009750223366    0.048533293205    0.000293409863    -0.000362398561
            0.000199969201    -0.000252229912    -0.040287774838    0.090308416611    0.000122185501    -0.000167906591    0.006953462590    0.062851068300
            0.010655017943    0.048047178917    0.000121968241    -0.000168119690    -0.035399834567    0.068494060095    0.000227017698    -0.000297307461
            0.000293147351    -0.000362631002    0.006227783171    0.062802821250    0.000227299366    -0.000297029783    -0.037623452906    0.087502398125
0.500     -0.035639342967    -0.075590120860    -0.000171395141    -0.000223011925    -0.015392451869    -0.047932561477    -0.000237467957    -0.000334186068
            -0.000171290291    -0.000223185329    -0.032027250891    -0.058490706074    -0.000120627515    -0.000116677084    -0.012209281493    -0.035426388416
            -0.016371707571    -0.048826173625    -0.000120720306    -0.000115969374    -0.040314714886    -0.079680254821    -0.000197246873    -0.000252430792
            -0.000237569452    -0.000333484532    -0.013324277533    -0.035093990878    -0.000197182014    -0.000252818298    -0.037425380466    -0.063222859215
0.525     -0.174953512058    0.004310297230    0.000021801089    0.000028700966    -0.079352811048    0.019010383598    0.000021811301    0.000040383009
            0.000021462172    0.000028377648    -0.176904654455    0.023189149643    0.000034499136    0.000023722967    -0.081999813576    0.030693256663
            -0.080444566225    0.020053981155    0.000035053577    0.000023820275    -0.177934269183    0.008054803548    0.000030684386    0.000030789254
            0.000022376942    0.000040487458    -0.082635968722    0.031994502177    0.000030489343    0.000030950252    -0.178947559871    0.027143688886
0.550     -0.055895734608    0.134054294719    0.000157326780    -0.000270945387    -0.001022533597    0.054974028105    0.000227642105    -0.000391008422
            0.000156957797    -0.000270722955    -0.049199206465    0.159162911275    0.000094360762    -0.000181297119    -0.000386087614    0.074396788192
            -0.000347130194    0.056221604364    0.000094703348    -0.000181452254    -0.051411849627    0.134935844374    0.000173173636    -0.000325098533
            0.000227956173    -0.000391200584    0.000072042503    0.075585608667    0.000173245925    -0.000325142700    -0.043439011544    0.157826985627
0.575     0.033088738659    0.002070783895    -0.000262326418    -0.000298989601    0.009478572727    -0.034047585521    -0.000371411516    -0.000442320962
            -0.000262397525    -0.000298944855    0.046113648091    0.013725352473    -0.000181696475    -0.000166284942    0.017915607851    -0.022463365284
            0.010335832264    -0.033964509771    -0.000181410562    -0.000166414560    0.030515458085    -0.002212586247    -0.000307295205    -0.000336004844
            -0.000371165931    -0.000442423007    0.018406068664    -0.021472191648    -0.000307449850    -0.000335908260    0.041639119263    0.008193843588
0.600     -0.084012778872    -0.013953137562    -0.000089408953    0.000041413237    -0.051314503690    0.008679106522    -0.000150508120    0.000055458357
            -0.000089796333    0.000041373875    -0.088185943368    0.000174491970    -0.000027408957    0.000033013733    -0.054850050613    0.018544060487
            -0.051748068223    0.008024850821    -0.000027163734    0.000032852144    -0.086480112694    -0.010601569764    -0.000095073643    0.000042760084
            -0.000150301574    0.000055322848    -0.054371165670    0.019098005092    -0.000094836788    0.000042879249    -0.089829669183    0.004330920120
0.625     -0.045008715952    0.064506292244    0.000034670901    -0.000287229923    -0.004834094734    0.019217015709    0.000054319785    -0.000400787136
            0.000034440488    -0.000286505832    -0.037633791137    0.094562671058    0.000009663495    -0.000199970464    -0.003637383722    0.043447252832
            -0.005414186437    0.020091769883    0.000009700931    -0.000200196949    -0.041586798417    0.063877917492    0.000033540599    -0.000339671386
            0.000054358821    -0.000400935709    -0.002537470910    0.043864672856    0.000033687809    -0.000340225962    -0.032954072086    0.090605708808
0.650     -0.021536760750    0.003122800669    -0.000397132879    -0.000207286527    -0.042297003451    -0.023986443172    -0.000566199453    -0.000325547173
            -0.000396468886    -0.000207098640    -0.003734777441    0.017409586823    -0.000266191483    -0.000090668589    -0.029603986048    -0.007857976738
            -0.041015696026    -0.023014290176    -0.000266067059    -0.000091124273    -0.023344514069    0.000152779445    -0.000457297314    -0.000233761647
            -0.000565955098    -0.000325987340    -0.028383063189    -0.008334586255    -0.000458106351    -0.000233552218    -0.008791526129    0.012172503193
0.675     -0.069888903480    0.037871370420    -0.000133742466    0.000124092646    -0.067102394671    0.046822631864    -0.000235637253    0.000176023647
            -0.000133864757    0.000123916733    -0.067252930991    0.053489130270    -0.000038820594    0.000084782382    -0.063286139576    0.061299820441
            -0.065758092445    0.045605109891    -0.000039171783    0.000084214857    -0.069000452903    0.039180288066    -0.000150050994    0.000132736445
            -0.000236028168    0.000175357556    -0.062668377173    0.060290970800    -0.000149602803    0.000133430408    -0.067018397189    0.055743361815
0.700     -0.000044434920    0.034750583591    -0.000054077624    -0.000269838832    0.004229319455    0.031389498101    -0.000077800451    -0.000361965552
            -0.000053893304    -0.000269192454    0.011921142858    0.062236829786    -0.000049546413    -0.000200862956    0.013612701564    0.054708587905
            0.003257375815    0.030120769410    -0.000050597432    -0.000200738266    0.002482770562    0.028786164456    -0.000075820705    -0.000318452579
            -0.000078859261    -0.000361751908    0.013638653774    0.053640652458    -0.000075165367    -0.000319203163    0.014701673128    0.053398181516
0.725     -0.088244728758    -0.052210823239    -0.000519479133    -0.000025642706    -0.078522152331    -0.001662930269    -0.000754164526    -0.000076588217
            -0.000518890018    -0.000025868191    -0.072894249732    -0.034135721275    -0.000336723132    0.000045077647    -0.062536246764    0.014311156885
            -0.079057531471    -0.001706722713    -0.000336551077    0.000045619533    -0.095428075612    -0.054881312235    -0.000596939730    -0.000024503625
            -0.000753957183    -0.000076042586    -0.062612559148    0.013948185309    -0.000597577632    -0.000024751191    -0.084288780187    -0.038070294585
0.750     -0.164518193698    0.108878136550    -0.000098917874    0.000267050880    -0.098027500891    0.106183778723    -0.000210102726    0.000402857038
            -0.000099258856    0.000266625940    -0.147566219305    0.136742666783    0.000003543570    0.000164939569    -0.081330405966    0.127509690525
            -0.096797014403    0.106256490706    0.000003421473    0.000164553773    -0.163640651519    0.113287216446    -0.000117474067    0.000298434231
            -0.000210231684    0.000402344419    -0.081659640926    0.126894833489    -0.000117119570    0.000299237267    -0.147726002530    0.142666411212
0.775     0.010897199020    0.151001646473    -0.000010699160    -0.000168058442    0.024171978008    0.101044075558    -0.000018108836    -0.000205074855
            -0.000010448498    -0.000167917921    0.041625672083    0.171316590653    -0.000012734305    -0.000142880968    0.048311891881    0.116775558050
            0.024294109396    0.099340690548    -0.000013760521    -0.000142793847    0.015515269371    0.143714962618    -0.000027627221    -0.000202562310
