# GHz S RI R 45
0.000     0.066618266000    0.000000000000    -0.000018431450    0.000000000000    0.003496783000    -0.000000000000    -0.000024965334    -0.000000000000
            -0.000012623621    -0.000000000000    0.065218440000    -0.000000000000    -0.000005427558    0.000000000000    0.004181878500    -0.000000000000
            0.004459277400    -0.000000000000    -0.000001162678    0.000000000000    0.066393309000    -0.000000000000    -0.000017144832    0.000000000000
            -0.000001358558    0.000000000000    0.005035314900    0.000000000000    0.000015570714    0.000000000000    0.064483681000    -0.000000000000
0.025     0.145544312019    0.015052088576    -0.000021986600    0.000012165233    0.078604886393    0.037786999264    -0.000031748355    0.000017311188
            -0.000016859573    0.000006859983    0.148249066804    0.007793331690    -0.000010984304    0.000010966471    0.081074323652    0.029402765124
            0.078295571037    0.036980684730    -0.000003602211    0.000001311193    0.145452989952    0.014951373676    -0.000023114320    0.000014012765
            -0.000017066485    -0.000007441816    0.081800880891    0.029012271626    -0.000013596355    -0.000013054968    0.148583154012    0.008354925198
0.050     0.102162173671    -0.076087892371    -0.000024196737    0.000035174109    0.066176478841    -0.031629492748    -0.000019218179    0.000049674721
            -0.000026897919    0.000026947690    0.084733842702    -0.097306489703    -0.000015382968    0.000011013058    0.047730833805    -0.052177229754
            0.065430905109    -0.031043245079    -0.000030592208    0.000006675343    0.101545643060    -0.075950509357    -0.000019842456    0.000032817644
            -0.000042662522    0.000027473489    0.048117653126    -0.052985966206    -0.000037598182    0.000009517420    0.085215715904    -0.097957298375
0.075     0.065965480553    0.009416460032    0.000062062756    0.000056462828    0.049936398723    0.033051389165    0.000063022868    0.000061559737
            0.000052355002    0.000054081166    0.003147443356    0.030339893897    0.000051167035    0.000044217581    -0.011448474222    0.049559862297
            0.050501030546    0.033673585435    0.000054219267    0.000053073963    0.066318778427    0.010396087496    0.000059280945    0.000057955006
            0.000041418367    0.000075146667    -0.011995690779    0.048663912124    0.000025337194    0.000070246840    0.002662174269    0.030303720075
0.100     0.184302075926    -0.014029847903    0.000042593123    -0.000047784400    0.149341018788    -0.001801986093    0.000074864584    -0.000039595102
            0.000034580664    -0.000037052516    0.179257398060    0.016523121375    0.000001201906    -0.000062291070    0.141986849281    0.035066341623
            0.149393393359    -0.002667147648    -0.000002117598    -0.000062839266    0.185431809206    -0.014662703963    0.000042690704    -0.000048714203
            0.000070894507    -0.000014555964    0.141702205608    0.034329133798    0.000047530076    -0.000015195248    0.179450070300    0.016952435966
0.125     0.109889102230    -0.136284017372    0.000032074778    -0.000041046671    0.076129608372    -0.104262761834    0.000028669131    -0.000083538851
            0.000042708496    -0.000030630897    0.107689460610    -0.139735545381    0.000011788081    0.000012438780    0.082863203460    -0.096988669096
            0.075205731611    -0.103954943191    0.000020583726    0.000020435521    0.109532317168    -0.137011316613    0.000027979056    -0.000038366130
            0.000060290434    -0.000065068330    0.082041213576    -0.097626515513    0.000055990591    -0.000029638740    0.107775661002    -0.139782708543
0.150     0.043908996237    -0.043226932990    -0.000084510134    -0.000095980413    0.023327138064    -0.015800357786    -0.000101904513    -0.000098385739
            -0.000074885561    -0.000102923959    -0.004992755430    -0.020364876653    -0.000070869793    -0.000059759998    -0.006810952420    0.002220374640
            0.024025590742    -0.014862430994    -0.000067270363    -0.000075297824    0.044545272477    -0.042510632584    -0.000084198109    -0.000094213406
            -0.000080936128    -0.000133353945    -0.007887520165    0.002403046257    -0.000062032276    -0.000116615606    -0.004461543694    -0.019790505232
0.175     0.153402897803    -0.087695461431    -0.000063826534    0.000065345581    0.119491364850    -0.061112423901    -0.000109003458    0.000074388233
            -0.000062490754    0.000056246708    0.160016265815    0.006396955031    0.000028870131    0.000091459565    0.129826316290    0.015860965578
            0.120167989216    -0.061943252680    0.000018859185    0.000094376671    0.155225390821    -0.089166838303    -0.000059555445    0.000078712057
            -0.000132276255    0.000056918774    0.129333084044    0.016470731353    -0.000075656704    0.000049274557    0.161154988469    0.005589717813
0.200     0.040697085735    -0.205735963804    -0.000047670750    0.000054131684    0.012087608707    -0.153069443780    -0.000018401687    0.000111918208
            -0.000058156906    0.000046937149    0.131010464768    -0.169142544572    -0.000023395159    -0.000065771520    0.099495521806    -0.120571463038
            0.011190682814    -0.153384765525    -0.000021309649    -0.000065598418    0.039908501574    -0.208043298941    -0.000024729141    0.000036222618
            -0.000040536697    0.000115796034    0.099065024141    -0.120146826166    -0.000056056120    0.000042164425    0.130532001709    -0.169655302674
0.225     -0.058588450285    -0.070892913834    0.000101145740    0.000145718147    -0.061890072013    -0.020173034535    0.000125670913    0.000124607599
            0.000094902773    0.000155190823    -0.012444798167    -0.117443941907    0.000032231588    0.000107954976    -0.001778101736    -0.077982945242
            -0.061703735312    -0.019230848930    0.000025842573    0.000112887354    -0.059214385579    -0.070728652894    0.000070132244    0.000125557110
            0.000117279984    0.000155261169    -0.002198526140    -0.077013721508    0.000064149603    0.000155716015    -0.010938940195    -0.116180821395
0.250     0.072014970881    -0.056398419951    0.000128688412    -0.000097080215    0.063386616383    -0.013835769275    0.000163449053    -0.000112501775
            0.000130316900    -0.000093401000    0.068679185211    -0.048330596252    0.000014751432    -0.000093694686    0.053946905447    -0.045166844744
            0.064300549541    -0.014586612603    0.000026991534    -0.000086889284    0.073334946989    -0.058108136440    0.000116811620    -0.000076092039
            0.000195792302    -0.000101605020    0.054510526537    -0.044045782007    0.000142562712    -0.000060392401    0.071895402047    -0.050682077763
0.275     -0.011891367824    -0.170247102970    0.000037575837    -0.000122167673    -0.005964077811    -0.104802105315    -0.000007820004    -0.000170283224
            0.000042441499    -0.000114832878    0.070908534504    -0.158188986565    0.000032390639    0.000045343309    0.025443122454    -0.109708683607
            -0.007003430303    -0.105603026420    0.000035277821    0.000033052458    -0.013884152316    -0.172797988224    0.000037073003    -0.000094834406
            0.000004843171    -0.000193617576    0.026431406051    -0.109371847094    0.000059117089    -0.000113472492    0.069894099256    -0.161248812918
0.300     -0.108515140949    -0.032269232847    -0.000174436664    -0.000153856095    -0.062719910982    0.006664076397    -0.000183376607    -0.000125093432
            -0.000163485172    -0.000160109533    -0.034838449759    -0.149683046189    -0.000043434800    -0.000133834413    -0.025663086007    -0.074578749418
            -0.063325751812    0.007786722463    -0.000051158161    -0.000135346565    -0.110161770850    -0.030899302026    -0.000113294349    -0.000150352466
            -0.000195313544    -0.000141446506    -0.024945677464    -0.074646201903    -0.000121649472    -0.000174499760    -0.034549710226    -0.148802967495
0.325     0.062224339280    0.017553959465    -0.000149609537    0.000173463759    0.073971678671    0.020938204634    -0.000200618468    0.000174888531
            -0.000153001458    0.000165291576    -0.024921497512    -0.108200397387    -0.000048452931    0.000107849662    -0.004646549427    -0.078751842260
            0.074911388105    0.021072675644    -0.000051742618    0.000110367534    0.064129192922    0.016882394008    -0.000172430815    0.000091312907
            -0.000220264634    0.000177439239    -0.003917688654    -0.078931854899    -0.000196636461    0.000086618643    -0.021525610220    -0.111257938483
0.350     0.032539904750    -0.147434535903    0.000013675717    0.000140564944    0.029988107705    -0.103255999354    0.000071140426    0.000225118030
            0.000008904487    0.000136532278    -0.055349298890    -0.136713813165    -0.000026850858    -0.000022482951    -0.065230314232    -0.090251122219
            0.029595858654    -0.104089912533    -0.000028378248    -0.000017565630    0.030975896494    -0.149857212866    -0.000037083455    0.000175195432
            0.000065839834    0.000244498712    -0.064471629160    -0.090872332783    -0.000052872311    0.000199282812    -0.057401167495    -0.142028695435
0.375     -0.098449666846    -0.072791261652    0.000191863094    0.000146862632    -0.048899945840    -0.042578759261    0.000246477463    0.000088623745
            0.000180221622    0.000150479543    -0.105425055924    -0.071898788670    0.000069170826    0.000145394539    -0.076087866384    -0.001722582944
            -0.049653121968    -0.041646995264    0.000074831311    0.000150893412    -0.099268867504    -0.070814095163    0.000202098634    0.000166956351
            0.000263418917    0.000101099594    -0.075764096883    -0.002782949849    0.000224797046    0.000187079898    -0.107212929551    -0.071689693459
0.400     0.016369435740    -0.002061871729    0.000194406320    -0.000193437442    0.021169501591    -0.021177254648    0.000212113289    -0.000252612428
            0.000197419511    -0.000178399930    -0.047200379477    -0.052870070624    0.000068432528    -0.000137864228    -0.003233777409    -0.016237819027
            0.022438277146    -0.020509117302    0.000077719726    -0.000145426683    0.020199378128    -0.003528448623    0.000213205257    -0.000161699862
            0.000229387003    -0.000267197216    -0.003606193849    -0.017342349072    0.000230739853    -0.000176977064    -0.044717610248    -0.056268400477
0.425     0.010546675519    -0.159058174109    -0.000025259157    -0.000178886134    -0.020026438744    -0.102238342954    -0.000161490962    -0.000261931271
            -0.000013178022    -0.000179716066    -0.112529419628    -0.109593712132    0.000034033844    0.000018791553    -0.073038142675    -0.062319732256
            -0.019473410860    -0.103437482957    0.000024190845    0.000010244958    0.009121171352    -0.163623487906    0.000020016220    -0.000226059431
            -0.000172215443    -0.000279219646    -0.073946409111    -0.062907049495    0.000020089088    -0.000241378641    -0.116552142309    -0.114684356107
0.450     -0.167392970531    -0.112551018742    -0.000151009755    -0.000179429742    -0.102308895263    -0.041879939620    -0.000285425313    -0.000026947062
            -0.000146983454    -0.000185843233    -0.188782143860    0.016893625231    -0.000085956078    -0.000231055483    -0.105844789038    0.042048317621
            -0.103241542310    -0.042091635172    -0.000089491768    -0.000223065606    -0.169049088527    -0.111970682600    -0.000216750022    -0.000197885770
            -0.000299909684    -0.000022825228    -0.106655728243    0.042007626422    -0.000233717990    -0.000212543187    -0.191549603441    0.018790648708
0.475     -0.109808531007    0.028534082869    -0.000203450441    0.000113053052    -0.056027864895    0.014937163901    -0.000227235026    0.000293776475
            -0.000204596792    0.000102818082    -0.040287774838    0.090308416611    -0.000210981004    0.000201695900    0.006953462590    0.062851068300
            -0.055716493567    0.015678839689    -0.000211854298    0.000199851976    -0.107229592438    0.025873707786    -0.000194664652    0.000162143697
            -0.000233034021    0.000306186798    0.006227783171    0.062802821250    -0.000215705339    0.000183497659    -0.037623452906    0.087502398125
0.500     -0.057688376275    -0.053222564703    0.000122318218    0.000161527422    -0.053707841028    -0.018800273673    0.000237182524    0.000308892059
            0.000108363655    0.000159543034    -0.032027250891    -0.058490706074    0.000056867142    0.000064791988    -0.012209281493    -0.035426388416
            -0.053084560076    -0.019686578913    0.000056521819    0.000078184239    -0.061300163964    -0.058541484429    0.000109008575    0.000142623826
            0.000251020182    0.000323275261    -0.013324277533    -0.035093990878    0.000129072179    0.000159201112    -0.037425380466    -0.063222859215
0.525     -0.178952231589    -0.014098019511    0.000223958894    -0.000023432961    -0.085562644561    0.033517663400    0.000323417792    -0.000057832020
            0.000220625971    -0.000011830993    -0.176904654455    0.023189149643    0.000140405857    0.000199169089    -0.081999813576    0.030693256663
            -0.086711230584    0.032876350652    0.000157793627    0.000191368382    -0.182568684840    -0.012453423060    0.000226435180    0.000018761840
            0.000340161492    -0.000073288229    -0.082635968722    0.031994502177    0.000237868637    0.000011458838    -0.178947559871    0.027143688886
0.550     -0.110997385129    0.123569783689    0.000117751836    -0.000285227619    -0.024607895836    0.064036333259    0.000179935545    -0.000346591191
            0.000122964916    -0.000279492176    -0.049199206465    0.159162911275    0.000254766958    -0.000296361934    -0.000386087614    0.074396788192
            -0.025333772682    0.065198166822    0.000243411487    -0.000308270383    -0.109510421575    0.122842762646    0.000141376736    -0.000307618257
            0.000166167258    -0.000362151903    0.000072042503    0.075585608667    0.000148561406    -0.000319224285    -0.043439011544    0.157826985627
0.575     -0.018581931322    0.057917299837    -0.000273729045    -0.000227997375    -0.022625594558    0.019080214364    -0.000345289755    -0.000344501794
            -0.000264426470    -0.000225452719    0.046113648091    0.013725352473    -0.000248437930    -0.000145990732    0.017915607851    -0.022463365284
            -0.021662548991    0.019564620289    -0.000251986330    -0.000142308472    -0.022075906842    0.055335774020    -0.000277960687    -0.000207382848
            -0.000358708594    -0.000337654191    0.018406068664    -0.021472191648    -0.000293793262    -0.000222433189    0.041639119263    0.008193843588
0.600     -0.074691861510    0.044669761902    -0.000320246514    0.000155180153    -0.039339642498    0.044999204320    -0.000413723143    0.000196834195
            -0.000312677195    0.000143614625    -0.088185943368    0.000174491970    -0.000184440848    0.000019261813    -0.054850050613    0.018544060487
            -0.039377644828    0.044176687826    -0.000193945074    0.000022917225    -0.076085961872    0.047810410238    -0.000312421194    0.000120902002
            -0.000415878274    0.000211223616    -0.054371165670    0.019098005092    -0.000326243967    0.000135534307    -0.089829669183    0.004330920120
0.625     -0.021813555123    0.085527279740    0.000007019521    0.000393935165    0.010039863967    0.032739587823    -0.000055368717    0.000485002246
            -0.000002103274    0.000384207653    -0.037633791137    0.094562671058    -0.000068442536    0.000315372678    -0.003637383722    0.043447252832
            0.009263045315    0.033433223978    -0.000057990280    0.000330089093    -0.018771334119    0.083938139074    -0.000041760732    0.000405437301
            -0.000038354559    0.000492541689    -0.002537470910    0.043864672856    -0.000035822461    0.000418075648    -0.032954072086    0.090605708808
0.650     -0.017105862897    0.011874318676    0.000373093305    0.000134541450    -0.040115718406    -0.013497804111    0.000512653582    0.000249916909
            0.000362429763    0.000136989579    -0.003734777441    0.017409586823    0.000264918281    0.000058387475    -0.029603986048    -0.007857976738
            -0.038835555913    -0.012576732953    0.000275112672    0.000047155823    -0.019417605874    0.009223870327    0.000387451055    0.000168825122
            0.000521683072    0.000234339104    -0.028383063189    -0.008334586255    0.000402132370    0.000171931148    -0.008791526129    0.012172503193
0.675     -0.074556966373    0.049059348332    0.000297201041    -0.000250445585    -0.066519646834    0.062203118242    0.000385629711    -0.000361782404
            0.000291336139    -0.000238341427    -0.067252930991    0.053489130270    0.000177302128    -0.000106816727    -0.063286139576    0.061299820441
            -0.065581591148    0.060757630311    0.000177074007    -0.000114871949    -0.073300265290    0.049878365046    0.000324254242    -0.000242631566
            0.000377667143    -0.000373867110    -0.062668377173    0.060290970800    0.000330968364    -0.000258129924    -0.067018397189    0.055743361815
0.700     -0.026822461533    0.055649096574    -0.000113252140    -0.000445015479    -0.002718840709    0.051834362012    -0.000116785920    -0.000562842522
            -0.000100382672    -0.000433118653    0.011921142858    0.062236829786    -0.000070866936    -0.000295270345    0.013612701564    0.054708587905
            -0.004099268651    0.051169058791    -0.000086950200    -0.000304601123    -0.025372744619    0.049355909082    -0.000096515574    -0.000479367710
            -0.000136063529    -0.000561914132    0.013638653774    0.053640652458    -0.000106969962    -0.000487706200    0.014701673128    0.053398181516
0.725     -0.107805634405    0.027384751502    -0.000453230740    -0.000007699190    -0.075425855863    0.034325398384    -0.000654893531    -0.000021155115
            -0.000440580750    -0.000017844432    -0.072894249732    -0.034135721275    -0.000180395712    0.000036705628    -0.062536246764    0.014311156885
            -0.075443159732    0.035123376180    -0.000184319709    0.000060038019    -0.114408777439    0.025046887605    -0.000481439970    -0.000017572492
            -0.000654859675    0.000002016620    -0.062612559148    0.013948185309    -0.000495147668    -0.000015529587    -0.084288780187    -0.038070294585
0.750     -0.113463973203    0.176507209177    -0.000183416939    0.000329485803    -0.055702537533    0.144090096126    -0.000165149680    0.000479275122
            -0.000185993185    0.000317660385    -0.147566219305    0.136742666783    -0.000192415601    0.000048135753    -0.081330405966    0.127509690525
            -0.054885184921    0.143237333896    -0.000178537857    0.000043140543    -0.112522867507    0.178921493736    -0.000197574749    0.000317753372
            -0.000148071230    0.000480591588    -0.081659640926    0.126894833489    -0.000199725981    0.000336741880    -0.147726002530    0.142666411212
0.775     0.041892176354    0.163477032474    0.000163570362    0.000402504350    0.057419798109    0.105254280757    0.000187464741    0.000442127286
            0.000153018167    0.000395791382    0.041625672083    0.171316590653    0.000058725574    0.000377597590    0.048311891881    0.116775558050
            0.055943491282    0.104417001571    0.000055736773    0.000383104075    0.041785275804    0.156898969748    0.000142032813    0.000434705525
