# GHz S RI R 45
0.000     0.066322682000    0.000000000000    -0.000001509974    -0.000000000000    0.004179431000    -0.000000000000    -0.000026358158    0.000000000000
            -0.000001703200    0.000000000000    0.065218440000    -0.000000000000    -0.000019263402    0.000000000000    0.004181878500    -0.000000000000
            0.005257948200    0.000000000000    0.000031570666    -0.000000000000    0.065243072000    -0.000000000000    -0.000032067977    0.000000000000
            0.000030961577    -0.000000000000    0.005035314900    0.000000000000    -0.000029846910    0.000000000000    0.064483681000    -0.000000000000
0.025     0.149195547290    0.006681659668    -0.000030387194    -0.000008016723    0.081672762970    0.029119717106    -0.000029808553    0.000014207006
            -0.000030957192    -0.000006906371    0.148249066804    0.007793331690    -0.000017856537    0.000013191172    0.081074323652    0.029402765124
            0.082571777953    0.028626742228    -0.000007443366    -0.000029692869    0.149126709985    0.007225032157    -0.000016954954    0.000023119146
            -0.000015181775    -0.000031589847    0.081800880891    0.029012271626    -0.000015184019    0.000021720476    0.148583154012    0.008354925198
0.050     0.082488482013    -0.096705108016    -0.000013509276    0.000017291502    0.045985699418    -0.051793477725    0.000008141700    0.000010086506
            -0.000010597844    0.000018628264    0.084733842702    -0.097306489703    0.000010478894    0.000007974379    0.047730833805    -0.052177229754
            0.046461946886    -0.052778516445    -0.000019846346    0.000002927808    0.082802681109    -0.097312155100    0.000019323895    -0.000001715680
            -0.000018153492    0.000000886895    0.048117653126    -0.052985966206    0.000019524388    -0.000003980036    0.085215715904    -0.097957298375
0.075     0.006428737828    0.034577167825    -0.000013219737    -0.000016918154    -0.009011645266    0.053310884620    -0.000030674914    -0.000039548384
            -0.000011727884    -0.000020923438    0.003147443356    0.030339893897    -0.000019667951    -0.000027359129    -0.011448474222    0.049559862297
            -0.009681208121    0.052207613020    -0.000002503789    -0.000001871953    0.005757063219    0.034182134773    -0.000034561058    -0.000042770519
            -0.000013213540    -0.000021128134    -0.011995690779    0.048663912124    -0.000035871354    -0.000043777572    0.002662174269    0.030303720075
0.100     0.181982599727    0.011961749309    -0.000030161787    0.000015965881    0.144515250221    0.031728895850    -0.000050622220    0.000036131358
            -0.000033874641    0.000015127139    0.179257398060    0.016523121375    -0.000034757209    0.000029956032    0.141986849281    0.035066341623
            0.144132933738    0.030810428948    0.000000503195    -0.000004588132    0.181675856216    0.012515686151    -0.000044822004    0.000039620112
            -0.000020111801    -0.000001568696    0.141702205608    0.034329133798    -0.000044785287    0.000039534512    0.179450070300    0.016952435966
0.125     0.101528472500    -0.139408529865    0.000019105936    0.000004393314    0.078102335926    -0.096996707198    0.000042088661    0.000017878338
            0.000019710785    0.000007679290    0.107689460610    -0.139735545381    0.000035908144    0.000020306517    0.082863203460    -0.096988669096
            0.077087381997    -0.097724039201    0.000000674458    -0.000027312312    0.101823673143    -0.139512312944    0.000047768035    0.000014841460
            0.000005604438    -0.000031014750    0.082041213576    -0.097626515513    0.000047490708    0.000012746898    0.107775661002    -0.139782708543
0.150     -0.000277762663    -0.013175758520    -0.000037257101    -0.000054106909    -0.002961564083    0.008177925740    -0.000032780841    -0.000087633581
            -0.000033935664    -0.000057161513    -0.004992755430    -0.020364876653    -0.000014148139    -0.000065238373    -0.006810952420    0.002220374640
            -0.004214789824    0.008395093422    -0.000057436905    -0.000035080954    -0.000275554986    -0.013584344506    -0.000027452872    -0.000088014999
            -0.000081108657    -0.000063399490    -0.007887520165    0.002403046257    -0.000031182955    -0.000089118881    -0.004461543694    -0.019790505232
0.175     0.163827339325    -0.001343736870    -0.000052367543    0.000040774184    0.132983806459    0.009661820542    -0.000082019438    0.000041451035
            -0.000055441334    0.000037707987    0.160016265815    0.006396955031    -0.000064247365    0.000028528514    0.129826316290    0.015860965578
            0.132350970104    0.010365453519    -0.000036661821    0.000049044208    0.163721217602    -0.001870289995    -0.000083846685    0.000032077358
            -0.000069068534    0.000064186868    0.129333084044    0.016470731353    -0.000086145544    0.000035204676    0.161154988469    0.005589717813
0.200     0.121425205847    -0.170470400205    0.000037226345    -0.000000641097    0.092109418161    -0.121593393982    0.000037980875    0.000020096538
            0.000034512520    0.000001554171    0.131010464768    -0.169142544572    0.000025954389    0.000028904672    0.099495521806    -0.120571463038
            0.091580198560    -0.120996974342    0.000030803739    -0.000006693471    0.121180332164    -0.170737750449    0.000028447576    0.000028099671
            0.000040583895    -0.000004544233    0.099065024141    -0.120146826166    0.000029609015    0.000030763772    0.130532001709    -0.169655302674
0.225     -0.011777340726    -0.109197079737    -0.000058191537    -0.000091115094    -0.000947915712    -0.071827219372    -0.000045511888    -0.000102175010
            -0.000056605570    -0.000090244637    -0.012444798167    -0.117443941907    -0.000013176436    -0.000065786065    -0.001778101736    -0.077982945242
            -0.001318252419    -0.070656485618    -0.000064525943    -0.000069931507    -0.011043583101    -0.109436761317    -0.000025706032    -0.000084799289
            -0.000091157169    -0.000103113936    -0.002198526140    -0.077013721508    -0.000024586753    -0.000084850379    -0.010938940195    -0.116180821395
0.250     0.070071442105    -0.053620440515    -0.000111247622    0.000061105558    0.053854563681    -0.049426558807    -0.000128982937    0.000045605012
            -0.000112081050    0.000059541793    0.068679185211    -0.048330596252    -0.000088748779    0.000023105383    0.053946905447    -0.045166844744
            0.054539673155    -0.048217317093    -0.000100561884    0.000076679463    0.070904874196    -0.055545929903    -0.000110253843    0.000023143806
            -0.000142815456    0.000099062682    0.054510526537    -0.044045782007    -0.000111445289    0.000024248293    0.071895402047    -0.050682077763
0.275     0.060373094905    -0.156817091153    0.000033030665    0.000030164701    0.017447883821    -0.106049651844    0.000011766674    0.000035576446
            0.000030848390    0.000030759269    0.070908534504    -0.158188986565    -0.000000986306    0.000036118676    0.025443122454    -0.109708683607
            0.018561506905    -0.105660699877    0.000039285456    0.000053394484    0.059093360158    -0.158925315811    -0.000011536985    0.000033817045
            0.000051293693    0.000062336273    0.026431406051    -0.109371847094    -0.000010132212    0.000037179583    0.069894099256    -0.161248812918
0.300     -0.037519750511    -0.141095110914    -0.000072654049    -0.000084645620    -0.024620253935    -0.067803054098    -0.000082572425    -0.000067462482
            -0.000073296902    -0.000082592632    -0.034838449759    -0.149683046189    -0.000044521771    -0.000027546470    -0.025663086007    -0.074578749418
            -0.023730034948    -0.067890897176    -0.000035140690    -0.000057048045    -0.038419992733    -0.141244101062    -0.000066368265    -0.000030708905
            -0.000062205508    -0.000090601926    -0.024945677464    -0.074646201903    -0.000061940065    -0.000029911928    -0.034549710226    -0.148802967495
0.325     -0.029782039080    -0.106619715294    -0.000145014102    0.000084102926    -0.008990692588    -0.078958888647    -0.000134702716    0.000093125007
            -0.000144400784    0.000085826029    -0.024921497512    -0.108200397387    -0.000074582696    0.000063226158    -0.004646549427    -0.078751842260
            -0.008152909925    -0.079274492598    -0.000108072255    0.000069480736    -0.029303893805    -0.108483395307    -0.000088081007    0.000075083134
            -0.000157235920    0.000092960322    -0.003917688654    -0.078931854899    -0.000085115901    0.000071950823    -0.021525610220    -0.111257938483
0.350     -0.065109043538    -0.125225192138    0.000019284719    0.000082006859    -0.072194912944    -0.078345071367    0.000015386926    0.000062754533
            0.000020666452    0.000082748897    -0.055349298890    -0.136713813165    0.000010109615    0.000038132165    -0.065230314232    -0.090251122219
            -0.071428454983    -0.079126364162    0.000023019975    0.000085739745    -0.067656483934    -0.128631251808    0.000003504972    0.000033610574
            0.000028393146    0.000101611962    -0.064471629160    -0.090872332783    0.000002986468    0.000030477657    -0.057401167495    -0.142028695435
0.375     -0.102665178137    -0.057725592281    -0.000069737259    -0.000037879862    -0.068503813768    0.008895353430    -0.000112049985    -0.000029171778
            -0.000069423240    -0.000038000665    -0.105425055924    -0.071898788670    -0.000080155419    -0.000006880622    -0.076087866384    -0.001722582944
            -0.068251324170    0.007682753269    -0.000021238346    -0.000012958112    -0.105893175163    -0.057549851968    -0.000111619077    -0.000004606957
            -0.000055178233    -0.000036840422    -0.075764096883    -0.002782949849    -0.000112565985    -0.000004953456    -0.107212929551    -0.071689693459
0.400     -0.048275556042    -0.049342731926    -0.000132780382    0.000138821578    -0.002718649544    -0.017192090151    -0.000127826088    0.000190825718
            -0.000132335782    0.000140135687    -0.047200379477    -0.052870070624    -0.000068122234    0.000148770117    -0.003233777409    -0.016237819027
            -0.003263682043    -0.018378756411    -0.000068349835    0.000092510574    -0.048645987684    -0.050065674152    -0.000080258629    0.000182507105
            -0.000124051916    0.000132509825    -0.003606193849    -0.017342349072    -0.000078088205    0.000181479621    -0.044717610248    -0.056268400477
0.425     -0.121337209051    -0.092654623799    0.000047220894    0.000113223490    -0.078021832713    -0.049687816818    0.000087067133    0.000099316660
            0.000049915421    0.000113724234    -0.112529419628    -0.109593712132    0.000079447813    0.000055097534    -0.073038142675    -0.062319732256
            -0.079091288933    -0.050216678567    0.000037235501    0.000062684123    -0.124876052534    -0.094676443234    0.000094859234    0.000060271963
            0.000045512789    0.000095921096    -0.073946409111    -0.062907049495    0.000094228998    0.000054613464    -0.116552142309    -0.114684356107
0.450     -0.178107087783    0.041728991350    -0.000052910715    0.000002148035    -0.094258246454    0.056426228440    -0.000089719806    -0.000029269154
            -0.000051022978    -0.000000268610    -0.188782143860    0.016893625231    -0.000067623205    -0.000028495351    -0.105844789038    0.042048317621
            -0.095154232410    0.056470756006    -0.000044668854    0.000006114821    -0.181520253988    0.044151470910    -0.000088608538    -0.000038359175
            -0.000078383883    -0.000002506614    -0.106655728243    0.042007626422    -0.000095156498    -0.000040538523    -0.191549603441    0.018790648708
0.475     -0.023176925330    0.091873143088    -0.000105320878    0.000198669190    0.017603073125    0.059419320450    -0.000143821961    0.000254343334
            -0.000106419054    0.000197110964    -0.040287774838    0.090308416611    -0.000100613036    0.000189988232    0.006953462590    0.062851068300
            0.016755515368    0.059491288861    -0.000057875408    0.000153219758    -0.022928342559    0.092624730986    -0.000123308385    0.000228141067
            -0.000113878158    0.000223675921    0.006227783171    0.062802821250    -0.000127594367    0.000232659900    -0.037623452906    0.087502398125
0.500     -0.039325287519    -0.054839653250    0.000149388654    0.000142949226    -0.017041651134    -0.032741953148    0.000202653507    0.000176013495
            0.000150215597    0.000143069018    -0.032027250891    -0.058490706074    0.000161866854    0.000116386493    -0.012209281493    -0.035426388416
            -0.018160244414    -0.032130067709    0.000122048876    0.000065940553    -0.042680122218    -0.055258949757    0.000192235661    0.000142526281
            0.000164018253    0.000134384582    -0.013324277533    -0.035093990878    0.000194431097    0.000144734076    -0.037425380466    -0.063222859215
0.525     -0.169617643861    0.050079816845    -0.000019663188    -0.000013585091    -0.074841277535    0.043508315904    -0.000016049030    -0.000053655911
            -0.000019335099    -0.000016221447    -0.176904654455    0.023189149643    -0.000015746002    -0.000050294152    -0.081999813576    0.030693256663
            -0.075223665473    0.044979752909    -0.000059575014    -0.000021818516    -0.170612538487    0.054397931592    -0.000009025975    -0.000066378580
            -0.000059817589    -0.000027134965    -0.082635968722    0.031994502177    -0.000011333727    -0.000068216511    -0.178947559871    0.027143688886
0.550     -0.020396157889    0.162041169922    -0.000076874976    0.000224343550    0.012420376377    0.071764937232    -0.000120377748    0.000248026058
            -0.000079391655    0.000222483130    -0.049199206465    0.159162911275    -0.000091787667    0.000170032708    -0.000386087614    0.074396788192
            0.013094713767    0.072893008870    -0.000072514613    0.000200345738    -0.016150076625    0.163685875471    -0.000113253670    0.000191817999
            -0.000110152646    0.000282149565    0.000072042503    0.075585608667    -0.000117840618    0.000196139650    -0.043439011544    0.157826985627
0.575     0.043207111703    0.001321428747    0.000258145225    0.000184536063    0.010059361677    -0.026871218279    0.000278848745    0.000238197913
            0.000256369386    0.000185523579    0.046113648091    0.013725352473    0.000189653701    0.000162230300    0.017915607851    -0.022463365284
            0.010755542100    -0.025840934189    0.000210191451    0.000135890119    0.041647104891    0.000425748808    0.000218526856    0.000199880874
            0.000299208378    0.000227839729    0.018406068664    -0.021472191648    0.000221065099    0.000207168796    0.041639119263    0.008193843588
0.600     -0.090990082114    0.019152426774    0.000056082942    -0.000085227476    -0.053697275211    0.030906354050    0.000087004310    -0.000081332931
            0.000055562348    -0.000085367504    -0.088185943368    0.000174491970    0.000042939239    -0.000047856245    -0.054850050613    0.018544060487
            -0.052998885680    0.031359923937    0.000005111220    -0.000069718771    -0.090088700619    0.023233748068    0.000070379957    -0.000057301966
            0.000063271096    -0.000096782227    -0.054371165670    0.019098005092    0.000076715018    -0.000056659864    -0.089829669183    0.004330920120
0.625     -0.019121757618    0.097522162867    -0.000033134576    0.000219555447    0.003522169082    0.041982943456    -0.000023066957    0.000228149136
            -0.000034875485    0.000219676986    -0.037633791137    0.094562671058    -0.000009771522    0.000166399289    -0.003637383722    0.043447252832
            0.004733277952    0.042081612581    -0.000045224436    0.000206604805    -0.015102158640    0.096285053206    -0.000010824760    0.000178154895
            -0.000050247605    0.000263036020    -0.002537470910    0.043864672856    -0.000008672254    0.000176299553    -0.032954072086    0.090605708808
0.650     -0.012483031304    0.014237948403    0.000339739923    0.000134386470    -0.040426578385    -0.003091478808    0.000356090852    0.000140422963
            0.000338095169    0.000136202655    -0.003734777441    0.017409586823    0.000230248388    0.000076435659    -0.029603986048    -0.007857976738
            -0.039346031156    -0.003864817669    0.000265563062    0.000121674971    -0.013315032775    0.012934005008    0.000268597948    0.000097833659
            0.000392356965    0.000182863367    -0.028383063189    -0.008334586255    0.000269816825    0.000097946299    -0.008791526129    0.012172503193
0.675     -0.063385964127    0.075364028621    0.000101673039    -0.000150735566    -0.055803073399    0.080152023980    0.000104696958    -0.000129047417
            0.000101872086    -0.000148299061    -0.067252930991    0.053489130270    0.000028438547    -0.000057634272    -0.063286139576    0.061299820441
            -0.055419859850    0.078971649834    0.000067189297    -0.000088190162    -0.060210209918    0.076296908386    0.000057141165    -0.000072689306
            0.000147824200    -0.000157836670    -0.062668377173    0.060290970800    0.000060460406    -0.000072235162    -0.067018397189    0.055743361815
0.700     0.022930633499    0.056891173336    0.000017506331    0.000172232935    0.021566464805    0.049668110732    0.000075330866    0.000211275218
            0.000019431305    0.000173449030    0.011921142858    0.062236829786    0.000073606104    0.000185562593    0.013612701564    0.054708587905
            0.021264866842    0.048553756139    0.000036600434    0.000160656836    0.025025162791    0.050669681817    0.000091930618    0.000202882113
            0.000048744523    0.000180461113    0.013638653774    0.053640652458    0.000097138148    0.000199389890    0.014701673128    0.053398181516
0.725     -0.098305271958    -0.015534658151    0.000374849022    -0.000003299178    -0.074486503047    0.031487344066    0.000439147004    -0.000058682129
            0.000374650912    -0.000003531900    -0.072894249732    -0.034135721275    0.000296660509    -0.000071942232    -0.062536246764    0.014311156885
            -0.074712639204    0.031182043829    0.000284623702    -0.000019274754    -0.103644487644    -0.015750089340    0.000367712428    -0.000079204981
            0.000426789584    -0.000021449772    -0.062612559148    0.013948185309    0.000367312446    -0.000087054498    -0.084288780187    -0.038070294585
0.750     -0.122369699357    0.181179111550    0.000060942968    -0.000207143311    -0.057306517452    0.154067560536    0.000028678309    -0.000241176334
            0.000061862465    -0.000205306816    -0.147566219305    0.136742666783    -0.000030856680    -0.000127036898    -0.081330405966    0.127509690525
            -0.057807032998    0.153568788896    0.000025941517    -0.000114823170    -0.118638895592    0.183920317444    -0.000006526779    -0.000180547127
            0.000074786855    -0.000235839841    -0.081659640926    0.126894833489    -0.000012603088    -0.000183344403    -0.147726002530    0.142666411212
0.775     0.075347219850    0.158742351103    0.000021559311    0.000106065315    0.068245967914    0.104119727847    0.000037295468    0.000160842718
            0.000024239208    0.000106939419    0.041625672083    0.171316590653    0.000044846819    0.000160984406    0.048311891881    0.116775558050
            0.067123403594    0.103612075842    0.000065483710    0.000107988285    0.078223820025    0.150808817733    0.000049865108    0.000170421609
