# GHz S RI R 45
0.000     0.066356725000    0.000000000000    -0.000000065310    -0.000000000000    0.004105277900    -0.000000000000    0.000014574263    0.000000000000
            -0.000000063447    0.000000000000    0.065218440000    -0.000000000000    -0.000000220822    -0.000000000000    0.004181878500    -0.000000000000
            0.005233183300    0.000000000000    -0.000000221264    0.000000000000    0.064750667000    -0.000000000000    -0.000000313295    -0.000000000000
            0.000014573739    0.000000000000    0.005035314900    0.000000000000    -0.000000307493    -0.000000000000    0.064483681000    -0.000000000000
0.025     0.148729872099    0.007321089710    -0.000007363041    0.000000051925    0.081300320479    0.029455737333    0.000038437810    0.000020560916
            -0.000007384095    0.000000063564    0.148249066804    0.007793331690    -0.000005485626    0.000000236068    0.081074323652    0.029402765124
            0.082179860486    0.028938420620    -0.000005484122    0.000000255434    0.148819272664    0.008132048236    -0.000008187170    -0.000000003557
            0.000038434617    0.000020571657    0.081800880891    0.029012271626    -0.000008207132    0.000000003213    0.148583154012    0.008354925198
0.050     0.084064732540    -0.096831759291    0.000007972526    -0.000000875715    0.047091199369    -0.051819506115    -0.000058791479    0.000083222068
            0.000008030722    -0.000000847123    0.084733842702    -0.097306489703    0.000008072714    -0.000003275403    0.047730833805    -0.052177229754
            0.047569334562    -0.052784320205    0.000008120960    -0.000003261001    0.084430877682    -0.097563280311    0.000009067795    -0.000001695705
            -0.000058756686    0.000083249194    0.048117653126    -0.052985966206    0.000009122031    -0.000001671024    0.085215715904    -0.097957298375
0.075     0.004519281916    0.032547645851    -0.000009297914    -0.000033111213    -0.010445844843    0.051624512927    0.000090129592    0.000255514660
            -0.000009324595    -0.000033250793    0.003147443356    0.030339893897    -0.000014273230    -0.000029022543    -0.011448474222    0.049559862297
            -0.011092818619    0.050507629560    -0.000014227169    -0.000029062138    0.003793674530    0.032225928383    -0.000011201372    -0.000037625149
            0.000090171638    0.000255444341    -0.011995690779    0.048663912124    -0.000011238551    -0.000037762490    0.002662174269    0.030303720075
0.100     0.181212542072    0.015614458912    -0.000046711373    0.000012277271    0.143647349181    0.034569914816    0.000134625538    0.000066606067
            -0.000046845855    0.000012380454    0.179257398060    0.016523121375    -0.000030361975    0.000012596884    0.141986849281    0.035066341623
            0.143283964994    0.033644802599    -0.000030325248    0.000012591815    0.180950837871    0.016183843929    -0.000050888270    0.000012865136
            0.000134619215    0.000066623579    0.141702205608    0.034329133798    -0.000051030602    0.000012973699    0.179450070300    0.016952435966
0.125     0.106311414769    -0.139516007786    0.000017295096    0.000013275244    0.081848008736    -0.096683385195    -0.000092609757    0.000244955047
            0.000017480872    0.000013320317    0.107689460610    -0.139735545381    0.000014758029    0.000001269601    0.082863203460    -0.096988669096
            0.080857527588    -0.097441867870    0.000014849658    0.000001191091    0.106568115839    -0.139569454879    0.000018738098    0.000012129060
            -0.000092521878    0.000244909054    0.082041213576    -0.097626515513    0.000018926010    0.000012177281    0.107775661002    -0.139782708543
0.150     -0.002488658846    -0.016413064577    -0.000022728146    -0.000054566877    -0.004646384063    0.005562692634    0.000274033160    0.000453778694
            -0.000022901775    -0.000054753529    -0.004992755430    -0.020364876653    -0.000031875347    -0.000046470427    -0.006810952420    0.002220374640
            -0.005913880607    0.005736491659    -0.000031889278    -0.000046654750    -0.002460906018    -0.016708532787    -0.000027638221    -0.000061915362
            0.000273985603    0.000453666481    -0.007887520165    0.002403046257    -0.000027836222    -0.000062093117    -0.004461543694    -0.019790505232
0.175     0.164035725665    0.004170373923    -0.000095568133    0.000038045671    0.133015990854    0.014130140989    0.000222212434    0.000071094415
            -0.000095609034    0.000038366062    0.160016265815    0.006396955031    -0.000059176803    0.000035874371    0.129826316290    0.015860965578
            0.132359274489    0.014815119629    -0.000059378587    0.000035842399    0.164023585046    0.003651278261    -0.000103740976    0.000041342370
            0.000222143939    0.000071096371    0.129333084044    0.016470731353    -0.000103755849    0.000041690696    0.161154988469    0.005589717813
0.200     0.129432978570    -0.170015329465    0.000032997055    0.000049307314    0.098365478340    -0.120923110558    -0.000044770059    0.000440722641
            0.000033323412    0.000049223018    0.131010464768    -0.169142544572    0.000020856608    0.000019050257    0.099495521806    -0.120571463038
            0.097813195213    -0.120354521655    0.000020843174    0.000019056664    0.129081851211    -0.170278081101    0.000034083387    0.000049424990
            -0.000044789671    0.000440698294    0.099065024141    -0.120146826166    0.000034412447    0.000049331203    0.130532001709    -0.169655302674
0.225     -0.009825536255    -0.113179374300    -0.000025739560    -0.000061916661    0.000641819550    -0.074586666617    0.000543360186    0.000566431303
            -0.000026030858    -0.000062101470    -0.012444798167    -0.117443941907    -0.000035623727    -0.000049056732    -0.001778101736    -0.077982945242
            0.000208377009    -0.073433822354    -0.000035794252    -0.000049184160    -0.009084249560    -0.113109370823    -0.000032834082    -0.000069205143
            0.000543299048    0.000566368757    -0.002198526140    -0.077013721508    -0.000033106492    -0.000069360971    -0.010938940195    -0.116180821395
0.250     0.074268143182    -0.051396414644    -0.000127516735    0.000059069692    0.057969177775    -0.047661239666    0.000319645324    0.000010267344
            -0.000127341013    0.000059468999    0.068679185211    -0.048330596252    -0.000079028263    0.000051944194    0.053946905447    -0.045166844744
            0.058593371673    -0.046413640878    -0.000079367636    0.000052234174    0.075357495074    -0.053273536055    -0.000138824794    0.000066252230
            0.000319416934    0.000010342441    0.054510526537    -0.044045782007    -0.000138605489    0.000066612847    0.071895402047    -0.050682077763
0.275     0.069342756256    -0.160118281761    0.000046493718    0.000087866707    0.024219038387    -0.110101268024    0.000066415911    0.000618176174
            0.000046801116    0.000087454993    0.070908534504    -0.158188986565    0.000022608937    0.000031961891    0.025443122454    -0.109708683607
            0.025304256786    -0.109651480610    0.000022853076    0.000032260568    0.067996918345    -0.162195465187    0.000048259872    0.000089950774
            0.000066536751    0.000618404414    0.026431406051    -0.109371847094    0.000048524950    0.000089515476    0.069894099256    -0.161248812918
0.300     -0.031800254819    -0.146180062178    -0.000029777710    -0.000070596434    -0.022085901021    -0.071584307152    0.000850103173    0.000542966474
            -0.000030267064    -0.000070739639    -0.034838449759    -0.149683046189    -0.000049777697    -0.000040894016    -0.025663086007    -0.074578749418
            -0.021195146961    -0.071606988253    -0.000049724868    -0.000040970257    -0.032563584864    -0.145995021223    -0.000038996406    -0.000075952475
            0.000850107927    0.000542832504    -0.024945677464    -0.074646201903    -0.000039455866    -0.000076057933    -0.034549710226    -0.148802967495
0.325     -0.019494698887    -0.112253433434    -0.000148307471    0.000096151331    -0.000600979980    -0.082350393101    0.000392726322    -0.000073035168
            -0.000148110969    0.000096563193    -0.024921497512    -0.108200397387    -0.000084131254    0.000074833243    -0.004646549427    -0.078751842260
            0.000264341491    -0.082606206052    -0.000084135176    0.000075148884    -0.018717259468    -0.114123244127    -0.000159780222    0.000108120503
            0.000392582958    -0.000072786515    -0.003917688654    -0.078931854899    -0.000159571154    0.000108443304    -0.021525610220    -0.111257938483
0.350     -0.057338319363    -0.138659277851    0.000069543773    0.000111287043    -0.066636571446    -0.090418895334    0.000243998908    0.000712302762
            0.000069663153    0.000110756318    -0.055349298890    -0.136713813165    0.000022374617    0.000040722239    -0.065230314232    -0.090251122219
            -0.065817475795    -0.091141584627    0.000022925097    0.000040703174    -0.059816836748    -0.141977085008    0.000073375135    0.000114325122
            0.000244386156    0.000712406430    -0.064471629160    -0.090872332783    0.000073396151    0.000113813178    -0.057401167495    -0.142028695435
0.375     -0.100719997905    -0.068437650766    -0.000052456748    -0.000075287721    -0.070510809389    0.001149217242    0.001105875207    0.000399279171
            -0.000053084568    -0.000075083756    -0.105425055924    -0.071898788670    -0.000073912338    -0.000024279057    -0.076087866384    -0.001722582944
            -0.070155076816    -0.000031749656    -0.000073948639    -0.000024662527    -0.103605732531    -0.068101942146    -0.000063985220    -0.000078373696
            0.001105804396    0.000399062705    -0.075764096883    -0.002782949849    -0.000064572340    -0.000078098862    -0.107212929551    -0.071689693459
0.400     -0.040740607776    -0.059995633030    -0.000180057888    0.000172211593    0.002073439742    -0.022721106127    0.000396115679    -0.000146862138
            -0.000179619275    0.000172574555    -0.047200379477    -0.052870070624    -0.000094610769    0.000135502482    -0.003233777409    -0.016237819027
            0.001639387100    -0.023959390131    -0.000094529473    0.000135619295    -0.040884668195    -0.060889739246    -0.000190739459    0.000190907516
            0.000396319262    -0.000146679228    -0.003606193849    -0.017342349072    -0.000190297288    0.000191199232    -0.044717610248    -0.056268400477
0.425     -0.116238012551    -0.112478738765    0.000128772694    0.000138637376    -0.075165493713    -0.063830886014    0.000487004172    0.000745622626
            0.000128701263    0.000138224084    -0.112529419628    -0.109593712132    0.000051166528    0.000056826500    -0.073038142675    -0.062319732256
            -0.076186944383    -0.064458350446    0.000051329665    0.000056327832    -0.119731572884    -0.114383118302    0.000136289415    0.000142571386
            0.000487161131    0.000745255891    -0.073946409111    -0.062907049495    0.000136158336    0.000142234066    -0.116552142309    -0.114684356107
0.450     -0.183247370261    0.021089078929    -0.000084000450    -0.000080036701    -0.099857398484    0.044076819771    0.001268596350    0.000160824773
            -0.000084331245    -0.000079634695    -0.188782143860    0.016893625231    -0.000084457919    -0.000006369235    -0.105844789038    0.042048317621
            -0.100750370603    0.044034262070    -0.000084951474    -0.000006648963    -0.186332696388    0.023595133739    -0.000095847573    -0.000080345706
            0.001268345188    0.000160595400    -0.106655728243    0.042007626422    -0.000096071618    -0.000079925950    -0.191549603441    0.018790648708
0.475     -0.030467344636    0.080108711970    -0.000198111378    0.000240775089    0.013850931251    0.053608180367    0.000375376449    -0.000230550566
            -0.000197465199    0.000240856077    -0.040287774838    0.090308416611    -0.000108111618    0.000179780933    0.006953462590    0.062851068300
            0.012996744234    0.053582875596    -0.000108174538    0.000179959234    -0.030057291246    0.080661673056    -0.000208826957    0.000264626121
            0.000375455901    -0.000230608019    0.006227783171    0.062802821250    -0.000208238978    0.000264622923    -0.037623452906    0.087502398125
0.500     -0.038470017928    -0.066324424815    0.000241924162    0.000211989074    -0.016592835035    -0.040475339023    0.000754204758    0.000772517473
            0.000241543245    0.000211608701    -0.032027250891    -0.058490706074    0.000134430857    0.000113892913    -0.012209281493    -0.035426388416
            -0.017778136078    -0.039983353860    0.000134462680    0.000113170049    -0.041955917559    -0.066676135442    0.000257131636    0.000219557034
            0.000754077628    0.000771895499    -0.013324277533    -0.035093990878    0.000256780091    0.000219302833    -0.037425380466    -0.063222859215
0.525     -0.172929026635    0.026088815003    -0.000029579926    -0.000107324709    -0.077047680984    0.030481117838    0.001428632102    -0.000163116488
            -0.000029549278    -0.000106930185    -0.176904654455    0.023189149643    -0.000039097147    -0.000008852979    -0.081999813576    0.030693256663
            -0.077596612047    0.031900547035    -0.000039826373    -0.000008836048    -0.174269590782    0.030916414649    -0.000038859237    -0.000104701384
            0.001428156975    -0.000163296684    -0.082635968722    0.031994502177    -0.000038721906    -0.000104422199    -0.178947559871    0.027143688886
0.550     -0.038374530986    0.147962523994    -0.000145114400    0.000276071151    0.005783593373    0.063829579141    0.000368138474    -0.000324556124
            -0.000144700783    0.000275982465    -0.049199206465    0.159162911275    -0.000068102850    0.000192936560    -0.000386087614    0.074396788192
            0.006315571318    0.065032297268    -0.000068318508    0.000193240153    -0.035087781117    0.149182510963    -0.000153815063    0.000306174854
            0.000367685047    -0.000324402182    0.000072042503    0.075585608667    -0.000153543439    0.000306012879    -0.043439011544    0.157826985627
0.575     0.037142625829    0.000964017162    0.000312901529    0.000250832254    0.009901434047    -0.030119858081    0.000948448386    0.000692687043
            0.000312632581    0.000250444409    0.046113648091    0.013725352473    0.000187974121    0.000155638665    0.017915607851    -0.022463365284
            0.010462702576    -0.029000959548    0.000187769282    0.000155625567    0.035989099300    0.000384106690    0.000339044788    0.000264124887
            0.000948190058    0.000692791133    0.018406068664    -0.021472191648    0.000338823956    0.000263889164    0.041639119263    0.008193843588
0.600     -0.089108405380    0.001653000083    0.000030201968    -0.000122847324    -0.053366970866    0.018279590349    0.001524981321    -0.000497469340
            0.000030187717    -0.000122372527    -0.088185943368    0.000174491970    0.000015021239    -0.000013523528    -0.054850050613    0.018544060487
            -0.052727015979    0.018819140919    0.000014544545    -0.000013328984    -0.088225242450    0.005212804001    0.000028259352    -0.000122652256
            0.001524596677    -0.000497365444    -0.054371165670    0.019098005092    0.000028319313    -0.000122318594    -0.089829669183    0.004330920120
0.625     -0.033953438052    0.080910910594    -0.000062152981    0.000320606689    -0.003091063493    0.031240911185    0.000326678544    -0.000410140464
            -0.000061697494    0.000320303533    -0.037633791137    0.094562671058    0.000015203149    0.000213558932    -0.003637383722    0.043447252832
            -0.001907444517    0.031503787266    0.000015271550    0.000214230750    -0.030003347669    0.080059479359    -0.000058132336    0.000349038201
            0.000326542599    -0.000409531371    -0.002537470910    0.043864672856    -0.000057842973    0.000348703649    -0.032954072086    0.090605708808
0.650     -0.018219800563    0.008463681766    0.000428468023    0.000147589903    -0.041615256174    -0.012201634828    0.001163489329    0.000428428065
            0.000427918494    0.000147175196    -0.003734777441    0.017409586823    0.000256702504    0.000074870700    -0.029603986048    -0.007857976738
            -0.040427867082    -0.012805761239    0.000257283231    0.000074988475    -0.018728350739    0.007255356397    0.000462130578    0.000151933018
            0.001163892745    0.000428703654    -0.028383063189    -0.008334586255    0.000461570702    0.000151680985    -0.008791526129    0.012172503193
0.675     -0.068799634874    0.056223133879    0.000015931978    -0.000171073564    -0.062348266255    0.063051131013    0.001405369421    -0.000851162809
            0.000015964731    -0.000170453501    -0.067252930991    0.053489130270    0.000022400779    -0.000040638119    -0.063286139576    0.061299820441
            -0.061787253898    0.061925226203    0.000022305451    -0.000040597554    -0.065559768405    0.057329845175    0.000018022706    -0.000173773820
            0.001405456127    -0.000850973874    -0.062668377173    0.060290970800    0.000018134638    -0.000173214125    -0.067018397189    0.055743361815
0.700     0.009791873010    0.046459711130    0.000021246620    0.000334631006    0.010987218491    0.041603310246    0.000265730828    -0.000468503465
            0.000021501689    0.000334009856    0.011921142858    0.062236829786    0.000084243749    0.000206890295    0.013612701564    0.054708587905
            0.010848096677    0.040457992013    0.000085051955    0.000207263125    0.012568178785    0.040523303611    0.000037950238    0.000361745070
            0.000266377362    -0.000468250885    0.013638653774    0.053640652458    0.000038072355    0.000361180744    0.014701673128    0.053398181516
0.725     -0.095018214544    -0.034787581931    0.000508437823    -0.000038587963    -0.077273030226    0.015473538777    0.001295009308    0.000034410529
            0.000507738692    -0.000038387169    -0.072894249732    -0.034135721275    0.000296655791    -0.000054158267    -0.062536246764    0.014311156885
            -0.077435764669    0.015135850791    0.000296765136    -0.000054892727    -0.100089148351    -0.035804331842    0.000546809783    -0.000054610372
            0.001295199167    0.000034062679    -0.062612559148    0.013948185309    0.000546234222    -0.000054300391    -0.084288780187    -0.038070294585
0.750     -0.147354724931    0.146457988920    -0.000063009070    -0.000213500805    -0.079345298582    0.131770917511    0.001090355699    -0.001139867336
            -0.000062520181    -0.000212968271    -0.147566219305    0.136742666783    -0.000000952254    -0.000080821647    -0.081330405966    0.127509690525
            -0.079766629068    0.131181091037    -0.000001364973    -0.000080755995    -0.144152294152    0.149527632849    -0.000060017758    -0.000223462563
            0.001090268926    -0.001139958359    -0.081659640926    0.126894833489    -0.000059478259    -0.000223060940    -0.147726002530    0.142666411212
0.775     0.042539796883    0.157710188473    0.000037806076    0.000263335979    0.046394074943    0.104976143073    0.000132190565    -0.000576676681
            0.000037829611    0.000262629253    0.041625672083    0.171316590653    0.000066830873    0.000139451725    0.048311891881    0.116775558050
            0.045361461034    0.104298346260    0.000067495333    0.000139468588    0.046482751763    0.150382839395    0.000049855947    0.000279997222
