# GHz S RI R 45
0.000     0.066656821000    0.000000000000    0.000005062349    -0.000000000000    0.003702957800    -0.000000000000    -0.000019202583    -0.000000000000
            0.000020012191    0.000000000000    0.065218440000    -0.000000000000    -0.000008384066    0.000000000000    0.004181878500    -0.000000000000
            0.004677593000    -0.000000000000    0.000039708830    0.000000000000    0.066012688000    -0.000000000000    -0.000025843604    -0.000000000000
            0.000053174137    0.000000000000    0.005035314900    0.000000000000    -0.000040622286    -0.000000000000    0.064483681000    -0.000000000000
0.025     0.148869644772    0.007142948902    -0.000011457876    -0.000012768348    0.081716788974    0.030042218272    -0.000002849427    0.000013493262
            0.000000960411    -0.000021153830    0.148249066804    0.007793331690    0.000057438099    0.000043702034    0.081074323652    0.029402765124
            0.081607160007    0.029161945673    0.000052357506    -0.000002077185    0.148874606416    0.006885939643    -0.000005177112    0.000017883340
            0.000027672275    -0.000040038541    0.081800880891    0.029012271626    0.000003886983    0.000034051074    0.148583154012    0.008354925198
0.050     0.084202659044    -0.097071039584    -0.000053271144    0.000040112359    0.048129193729    -0.052344685139    -0.000026645730    0.000033705987
            -0.000049200604    0.000028013600    0.084733842702    -0.097306489703    -0.000062541396    0.000093176449    0.047730833805    -0.052177229754
            0.047162305077    -0.052156902358    -0.000107600958    0.000104077461    0.083312050484    -0.097346995758    -0.000023264144    0.000030524638
            -0.000047287240    0.000007121135    0.048117653126    -0.052985966206    -0.000002902443    0.000020557605    0.085215715904    -0.097957298375
0.075     0.004384902770    0.032069725632    0.000051787945    0.000106065620    -0.011406688371    0.050073700666    0.000042462926    0.000093570918
            0.000051179367    0.000100235050    0.003147443356    0.030339893897    0.000129703480    0.000326797953    -0.011448474222    0.049559862297
            -0.010587169632    0.051235719810    0.000149410275    0.000370808170    0.004477053507    0.033105760697    0.000036628498    0.000082659869
            0.000055018525    0.000105020352    -0.011995690779    0.048663912124    0.000032492747    0.000062064687    0.002662174269    0.030303720075
0.100     0.180806809592    0.015356074076    0.000062084788    -0.000003439410    0.142642355016    0.034657944617    0.000062724296    0.000007656539
            0.000067395687    -0.000012244013    0.179257398060    0.016523121375    0.000194821611    0.000053966591    0.141986849281    0.035066341623
            0.143396948791    0.034142297927    0.000236220236    0.000033134884    0.181914021194    0.015138483329    0.000042813847    0.000019316289
            0.000098399164    -0.000037275900    0.141702205608    0.034329133798    0.000030063568    0.000013545387    0.179450070300    0.016952435966
0.125     0.106053662364    -0.139712165250    -0.000016041934    0.000029823187    0.081984664414    -0.096210423384    -0.000009328566    0.000044147904
            -0.000022557373    0.000009150919    0.107689460610    -0.139735545381    -0.000118162323    0.000275891349    0.082863203460    -0.096988669096
            0.081263954044    -0.096969207662    -0.000136620321    0.000235114048    0.105557458468    -0.140726118272    0.000010717574    0.000049438770
            -0.000050796364    -0.000025441615    0.082041213576    -0.097626515513    -0.000000261994    0.000056614712    0.107775661002    -0.139782708543
0.150     -0.003046042569    -0.016868390619    0.000094531790    0.000124671518    -0.004505754722    0.004967963149    0.000120443886    0.000133347536
            0.000075926412    0.000119260259    -0.004992755430    -0.020364876653    0.000394451744    0.000588601602    -0.006810952420    0.002220374640
            -0.005267628706    0.005876568842    0.000358657646    0.000610738159    -0.003519723930    -0.015846447081    0.000117384534    0.000095162800
            0.000047902303    0.000151771113    -0.007887520165    0.002403046257    0.000126008659    0.000105153887    -0.004461543694    -0.019790505232
0.175     0.163197266911    0.004396256327    0.000108744203    -0.000033445550    0.132069359948    0.013832030348    0.000146146036    -0.000055181347
            0.000099794486    -0.000027109681    0.160016265815    0.006396955031    0.000364077426    -0.000021504630    0.129826316290    0.015860965578
            0.132899472703    0.014525756208    0.000392369681    0.000006348087    0.164831971195    0.004413201116    0.000078301807    -0.000046708174
            0.000147986942    -0.000020757255    0.129333084044    0.016470731353    0.000087136404    -0.000065183287    0.161154988469    0.005589717813
0.200     0.129243704035    -0.169773607818    0.000029885395    -0.000002048444    0.097680276451    -0.120074306178    0.000001866040    -0.000005112744
            0.000025429156    -0.000001076233    0.131010464768    -0.169142544572    -0.000091070070    0.000428786956    0.099495521806    -0.120571463038
            0.098163460061    -0.120783576417    -0.000062074357    0.000394776647    0.129485178260    -0.171301770410    0.000021448349    0.000030576087
            0.000002417436    -0.000024018247    0.099065024141    -0.120146826166    -0.000005800376    0.000023182698    0.130532001709    -0.169655302674
0.225     -0.010357048590    -0.113466010696    0.000099717509    0.000066197776    0.001100805471    -0.073766683907    0.000139442877    0.000118645340
            0.000090095658    0.000068513874    -0.012444798167    -0.117443941907    0.000676502401    0.000725317484    -0.001778101736    -0.077982945242
            0.000269770953    -0.074003507293    0.000637261281    0.000689465104    -0.010567002541    -0.113298280135    0.000141406646    0.000074310263
            0.000087554593    0.000121422699    -0.002198526140    -0.077013721508    0.000131469274    0.000108892597    -0.010938940195    -0.116180821395
0.250     0.073355618528    -0.050884161954    0.000104261548    -0.000076116160    0.058586773301    -0.047831504241    0.000202707143    -0.000121932574
            0.000095659310    -0.000065879667    0.068679185211    -0.048330596252    0.000549050598    -0.000132849241    0.053946905447    -0.045166844744
            0.058489119694    -0.046815940645    0.000513768551    -0.000094518196    0.075157461591    -0.051650431563    0.000110104837    -0.000120198999
            0.000182868971    -0.000058904506    0.054510526537    -0.044045782007    0.000142715295    -0.000112029627    0.071895402047    -0.050682077763
0.275     0.069454624953    -0.159597128270    0.000021287643    -0.000002506048    0.023935168298    -0.110386188753    -0.000021183445    -0.000074935483
            0.000021371389    0.000011568595    0.070908534504    -0.158188986565    0.000010765805    0.000534693989    0.025443122454    -0.109708683607
            0.025075169730    -0.110166893401    0.000044377225    0.000561882468    0.069435421639    -0.161886759104    -0.000019860707    -0.000001937428
            0.000018715675    -0.000032733164    0.026431406051    -0.109371847094    -0.000016356957    -0.000027675707    0.069894099256    -0.161248812918
0.300     -0.032177300372    -0.146649850024    0.000125130126    0.000016937092    -0.022234714176    -0.070871032780    0.000133877256    0.000088469992
            0.000132922427    0.000026902064    -0.034838449759    -0.149683046189    0.000984002989    0.000670624368    -0.025663086007    -0.074578749418
            -0.021838710202    -0.071984845295    0.001001039666    0.000633093232    -0.032393622638    -0.147063049436    0.000133579706    0.000063006416
            0.000168292884    0.000076908180    -0.024945677464    -0.074646201903    0.000109759910    0.000066724736    -0.034549710226    -0.148802967495
0.325     -0.020644065262    -0.111770544346    0.000064112822    -0.000121490479    0.000473849013    -0.082117160862    0.000204752201    -0.000173791177
            0.000072503195    -0.000119075516    -0.024921497512    -0.108200397387    0.000633391689    -0.000254128766    -0.004646549427    -0.078751842260
            -0.000364269088    -0.082393224768    0.000584235760    -0.000264942730    -0.019412787286    -0.113863930056    0.000114313102    -0.000133714467
            0.000196892686    -0.000179376648    -0.003917688654    -0.078931854899    0.000123767097    -0.000107776194    -0.021525610220    -0.111257938483
0.350     -0.057379056689    -0.137980337949    -0.000018976508    0.000005574248    -0.066064368057    -0.091799164774    -0.000064079960    -0.000122603677
            -0.000014534628    0.000007141071    -0.055349298890    -0.136713813165    0.000185028291    0.000582743362    -0.065230314232    -0.090251122219
            -0.066043127287    -0.090885054216    0.000171255890    0.000639495240    -0.059122752950    -0.140978308695    -0.000030862472    -0.000037398553
            -0.000052008091    -0.000091937504    -0.064471629160    -0.090872332783    -0.000001788633    -0.000044384637    -0.057401167495    -0.142028695435
0.375     -0.101317255506    -0.068828461523    0.000148598794    0.000031133420    -0.071613563200    0.000437242816    0.000127218357    0.000083923033
            0.000155340368    0.000035794414    -0.105425055924    -0.071898788670    0.001261318733    0.000480077524    -0.076087866384    -0.001722582944
            -0.070442042642    0.000084229357    0.001315830178    0.000500119283    -0.102237086926    -0.068730157876    0.000112911517    0.000052958436
            0.000184304818    0.000082279282    -0.075764096883    -0.002782949849    0.000111637647    0.000023054660    -0.107212929551    -0.071689693459
0.400     -0.042269214378    -0.059121027501    0.000087280692    -0.000179818628    0.001740800641    -0.022007267678    0.000220359744    -0.000243747074
            0.000101544604    -0.000181185905    -0.047200379477    -0.052870070624    0.000632019567    -0.000438444013    -0.003233777409    -0.016237819027
            0.001306825771    -0.023529545535    0.000648486526    -0.000485217482    -0.041131972339    -0.062245172857    0.000123414965    -0.000143048217
            0.000239811566    -0.000303288456    -0.003606193849    -0.017342349072    0.000096324796    -0.000144136886    -0.044717610248    -0.056268400477
0.425     -0.116424389710    -0.111200856767    -0.000050309824    -0.000048209059    -0.074558674165    -0.064319657073    -0.000121711103    -0.000183204157
            -0.000042184677    -0.000062524030    -0.112529419628    -0.109593712132    0.000363760934    0.000578787121    -0.073038142675    -0.062319732256
            -0.076061418899    -0.063994707083    0.000321580204    0.000577445377    -0.120598970764    -0.114262311682    -0.000005081910    -0.000081728666
            -0.000157822344    -0.000208147066    -0.073946409111    -0.062907049495    -0.000003083850    -0.000058576965    -0.116552142309    -0.114684356107
0.450     -0.183870915090    0.021461446491    0.000083659208    0.000030575850    -0.100809441364    0.042989887203    0.000084664779    0.000074314248
            0.000078579502    0.000020166045    -0.188782143860    0.016893625231    0.001419808366    0.000209041635    -0.105844789038    0.042048317621
            -0.100547153305    0.044158276703    0.001430428025    0.000256343179    -0.185819849128    0.024103477864    0.000065704183    -0.000010563387
            0.000078000071    0.000093262399    -0.106655728243    0.042007626422    0.000088924218    -0.000017305277    -0.191549603441    0.018790648708
0.475     -0.031805769488    0.081894420008    0.000156084308    -0.000198413352    0.012223458760    0.054231228698    0.000253439213    -0.000308938316
            0.000153358068    -0.000199237919    -0.040287774838    0.090308416611    0.000636713123    -0.000636944532    0.006953462590    0.062851068300
            0.013076710252    0.053655889371    0.000697414261    -0.000646769598    -0.029370979855    0.079685770210    0.000133884214    -0.000185966241
            0.000277879997    -0.000327383674    0.006227783171    0.062802821250    0.000122149828    -0.000216231449    -0.037623452906    0.087502398125
0.500     -0.037824230672    -0.064164622565    -0.000066970852    -0.000176942506    -0.016581538991    -0.039212314633    -0.000202492405    -0.000302818300
            -0.000062428711    -0.000183558280    -0.032027250891    -0.058490706074    0.000465081786    0.000485438971    -0.012209281493    -0.035426388416
            -0.017659526209    -0.040000057544    0.000461194673    0.000418977645    -0.042982059530    -0.067700390595    -0.000033615346    -0.000159920824
            -0.000230576973    -0.000344433201    -0.013324277533    -0.035093990878    -0.000067768142    -0.000145172903    -0.037425380466    -0.063222859215
0.525     -0.172721109340    0.026885868810    -0.000001517409    -0.000046391268    -0.076749085132    0.030684268354    0.000006759061    0.000036187653
            -0.000008772842    -0.000059697669    -0.176904654455    0.023189149643    0.001503151975    -0.000116975111    -0.081999813576    0.030693256663
            -0.077706431220    0.031859970817    0.001449956175    -0.000115912006    -0.175230381695    0.031642663026    0.000031899260    -0.000094122434
            -0.000041557211    0.000050226095    -0.082635968722    0.031994502177    0.000044892884    -0.000063300766    -0.178947559871    0.027143688886
0.550     -0.038694347899    0.150202060586    0.000109830810    -0.000185111108    0.005470289893    0.064137094621    0.000198669064    -0.000352542173
            0.000094332128    -0.000185819313    -0.049199206465    0.159162911275    0.000576930297    -0.000786284590    -0.000386087614    0.074396788192
            0.006297293611    0.065278442120    0.000583182961    -0.000747131216    -0.034385473160    0.149845199417    0.000078244981    -0.000243484068
            0.000195329342    -0.000314010899    0.000072042503    0.075585608667    0.000104000537    -0.000255630991    -0.043439011544    0.157826985627
0.575     0.039126185405    0.003249899621    -0.000136563774    -0.000252916110    0.009796553673    -0.029362981961    -0.000347448493    -0.000392329401
            -0.000143558746    -0.000244517544    0.046113648091    0.013725352473    0.000480284524    0.000283477791    0.017915607851    -0.022463365284
            0.010645182123    -0.029390380876    0.000522178913    0.000261193679    0.036429680958    -0.000640664947    -0.000191863395    -0.000236962002
            -0.000325466091    -0.000389438677    0.018406068664    -0.021472191648    -0.000209579467    -0.000257704640    0.041639119263    0.008193843588
0.600     -0.087747900692    0.001716452268    -0.000129246315    -0.000075503844    -0.052524321374    0.019485476373    -0.000143716405    0.000064392269
            -0.000129971243    -0.000072568738    -0.088185943368    0.000174491970    0.001432124329    -0.000394923503    -0.054850050613    0.018544060487
            -0.053035002673    0.018908187581    0.001398383859    -0.000447482307    -0.089070086049    0.005159581960    -0.000102639146    -0.000051689174
            -0.000155288901    0.000049197517    -0.054371165670    0.019098005092    -0.000117690601    -0.000029163281    -0.089829669183    0.004330920120
0.625     -0.033646924659    0.082475646390    -0.000064981882    -0.000171181473    -0.001377457290    0.031149319534    0.000044087218    -0.000368114246
            -0.000069413035    -0.000169557091    -0.037633791137    0.094562671058    0.000369599379    -0.000887356150    -0.003637383722    0.043447252832
            -0.001825045555    0.032078042949    0.000306668618    -0.000860354357    -0.029838629465    0.080916109142    -0.000045274227    -0.000233950386
            0.000018612187    -0.000344997913    -0.002537470910    0.043864672856    -0.000021435745    -0.000217900348    -0.032954072086    0.090605708808
0.650     -0.015543584149    0.009896250229    -0.000267825948    -0.000137753000    -0.041219561428    -0.013449310435    -0.000554466374    -0.000284558933
            -0.000274691593    -0.000131573201    -0.003734777441    0.017409586823    0.000504757259    0.000160765748    -0.029603986048    -0.007857976738
            -0.039826087846    -0.012666139465    0.000522151179    0.000221820414    -0.017734795524    0.007246551281    -0.000351258716    -0.000172409688
            -0.000531178702    -0.000246188007    -0.028383063189    -0.008334586255    -0.000333906443    -0.000193584801    -0.008791526129    0.012172503193
0.675     -0.067080288617    0.055258153834    -0.000176316745    0.000038979532    -0.062764988101    0.063164454749    -0.000221845082    0.000215653267
            -0.000177049773    0.000051905399    -0.067252930991    0.053489130270    0.001241377575    -0.000629868437    -0.063286139576    0.061299820441
            -0.061612450222    0.061768291876    0.001286586392    -0.000648403803    -0.065103994330    0.056601340659    -0.000215823623    0.000098604847
            -0.000182096719    0.000199917399    -0.062668377173    0.060290970800    -0.000231432304    0.000082412295    -0.067018397189    0.055743361815
0.700     0.010066996973    0.047090959230    -0.000136771148    -0.000143407087    0.012168772720    0.041870264317    -0.000058773465    -0.000329049818
            -0.000124264709    -0.000133691199    0.011921142858    0.062236829786    0.000158997382    -0.000898805174    0.013612701564    0.054708587905
            0.011011314018    0.040754850393    0.000124682665    -0.000933531513    0.012225784966    0.040127364827    -0.000099848897    -0.000134196740
            -0.000072273818    -0.000359292857    0.013638653774    0.053640652458    -0.000112409336    -0.000120386020    0.014701673128    0.053398181516
0.725     -0.092596542372    -0.034094713239    -0.000408094124    0.000026316166    -0.076155801844    0.014978253407    -0.000740723903    -0.000043265316
            -0.000401298113    0.000019420137    -0.072894249732    -0.034135721275    0.000497983020    0.000085504612    -0.062536246764    0.014311156885
            -0.076694350680    0.015039577230    0.000463117588    0.000138999795    -0.100048876838    -0.035441742929    -0.000429590440    -0.000008159377
            -0.000759232275    -0.000022954588    -0.062612559148    0.013948185309    -0.000413701099    -0.000001009276    -0.084288780187    -0.038070294585
0.750     -0.145914283470    0.145229155479    -0.000161554627    0.000279984208    -0.080516135680    0.130823333922    -0.000178235323    0.000458569950
            -0.000164402984    0.000281941392    -0.147566219305    0.136742666783    0.001011645002    -0.000746547332    -0.081330405966    0.127509690525
            -0.079289423426    0.130680507653    0.001063630513    -0.000702842243    -0.143255703644    0.149400019797    -0.000210887130    0.000292296504
            -0.000151879842    0.000473055426    -0.081659640926    0.126894833489    -0.000203185310    0.000273030443    -0.147726002530    0.142666411212
0.775     0.042704589197    0.157959653224    0.000017950028    -0.000044160930    0.045606397871    0.105517228135    0.000019343119    -0.000181207165
            0.000025134381    -0.000033999648    0.041625672083    0.171316590653    0.000070682848    -0.000863400834    0.048311891881    0.116775558050
            0.045429869997    0.103821078115    0.000123109469    -0.000903237994    0.046509664136    0.149203528633    0.000007559831    -0.000006294284
