# GHz S RI R 45
0.000     0.065179617000    -0.000000000000    0.932946420000    0.000000000000    0.003975438900    -0.000000000000    -0.005469359900    0.000000000000
            0.932946870000    0.000000000000    0.065218440000    -0.000000000000    -0.005475874800    0.000000000000    0.004181878500    -0.000000000000
            0.004812016200    0.000000000000    -0.004867537400    -0.000000000000    0.064875603000    -0.000000000000    0.933173280000    0.000000000000
            -0.004861079300    -0.000000000000    0.005035314900    0.000000000000    0.933172830000    0.000000000000    0.064483681000    -0.000000000000
0.025     0.144943645184    0.015744958891    0.387577908250    -0.834615825116    0.077823503448    0.037243015514    -0.015390887958    0.008280650508
            0.387592481540    -0.834618760067    0.148249066804    0.007793331690    -0.015394227095    0.008289935440    0.081074323652    0.029402765124
            0.078405236060    0.036719656850    -0.015068707832    0.007752174882    0.145476223070    0.016324157226    0.386573502232    -0.835387902786
            -0.015064941622    0.007742590915    0.081800880891    0.029012271626    0.386558935935    -0.835384924652    0.148583154012    0.008354925198
0.050     0.102725868572    -0.076226569905    -0.583365371288    -0.712599217812    0.066011589911    -0.031031897535    -0.001812844735    0.013707998747
            -0.583370629884    -0.712627971165    0.084733842702    -0.097306489703    -0.001813265106    0.013680484556    0.047730833805    -0.052177229754
            0.066043736742    -0.031909156720    -0.002159227926    0.013068047005    0.103049578149    -0.077086412082    -0.585366108885    -0.711493783527
            -0.002158961935    0.013095604150    0.048117653126    -0.052985966206    -0.585360784312    -0.711465039376    0.085215715904    -0.097957298375
0.075     0.064993875487    0.008056027732    -0.888654259704    0.235847688051    0.049857181724    0.032321371074    0.014618552068    0.029529360030
            -0.888699546918    0.235850409420    0.003147443356    0.030339893897    0.014584143843    0.029600559541    -0.011448474222    0.049559862297
            0.049361511553    0.031579632614    0.013783261603    0.029685641103    0.064543511597    0.008131190694    -0.888384977095    0.239481281839
            0.013817722822    0.029614727523    -0.011995690779    0.048663912124    -0.888339708886    0.239478392375    0.002662174269    0.030303720075
0.100     0.183069094893    -0.013087956125    -0.166024669525    0.877560898075    0.148438795098    -0.002099366388    0.041498512813    -0.021547707544
            -0.166006495175    0.877619975767    0.179257398060    0.016523121375    0.041593709298    -0.021593240739    0.141986849281    0.035066341623
            0.147649791489    -0.002180399647    0.041347579216    -0.020808557724    0.184387694574    -0.012303921929    -0.161309551148    0.878883297602
            0.041252875524    -0.020762673062    0.141702205608    0.034329133798    -0.161328038135    0.878824209007    0.179450070300    0.016952435966
0.125     0.111387117842    -0.136587883277    0.708517368619    0.545998787118    0.076619156310    -0.104614618286    -0.006372108326    -0.030970448057
            0.708585774636    0.545965782041    0.107689460610    -0.139735545381    -0.006420174933    -0.030992209025    0.082863203460    -0.096988669096
            0.075878476357    -0.104141450064    -0.005727622230    -0.030422584699    0.112143009844    -0.137744118109    0.712213711638    0.541526158786
            -0.005679009394    -0.030401653429    0.082041213576    -0.097626515513    0.712145416529    0.541559619735    0.107775661002    -0.139782708543
0.150     0.041983042982    -0.046317565778    0.805819159100    -0.420238985635    0.021977440038    -0.018237986363    -0.022329057177    -0.031144707390
            0.805772282748    -0.420304037937    -0.004992755430    -0.020364876653    -0.022259400973    -0.031229974214    -0.006810952420    0.002220374640
            0.021854310087    -0.017273934733    -0.021470120566    -0.031718532909    0.041880784921    -0.046101085544    0.802846373650    -0.426600009405
            -0.021540917689    -0.031633858710    -0.007887520165    0.002403046257    0.802893857509    -0.426535360373    -0.004461543694    -0.019790505232
0.175     0.150943890688    -0.085905086435    -0.042174031832    -0.882843503016    0.117608052983    -0.060613978594    -0.054633423345    0.027828760548
            -0.042232818003    -0.882802979720    0.160016265815    0.006396955031    -0.054860554932    0.027830120784    0.129826316290    0.015860965578
            0.118216331155    -0.059956821203    -0.055026878527    0.026977316129    0.152879701911    -0.086378058462    -0.050277225436    -0.882501291367
            -0.054800298472    0.026977018589    0.129333084044    0.016470731353    -0.050219002774    -0.882542337399    0.161154988469    0.005589717813
0.200     0.042636099256    -0.205977758751    -0.792831609802    -0.359023706684    0.012519248329    -0.154002718147    0.016440083019    0.048932703772
            -0.792800504177    -0.358948761049    0.131010464768    -0.169142544572    0.016560446291    0.049114385254    0.099495521806    -0.120571463038
            0.013202469027    -0.153856003349    0.015736371947    0.048884700276    0.043061116264    -0.208392809244    -0.796257024849    -0.350804299524
            0.015616911633    0.048703992506    0.099065024141    -0.120146826166    -0.796288632414    -0.350878965705    0.130532001709    -0.169655302674
0.225     -0.061615358958    -0.075229980861    -0.685021594756    0.565844400846    -0.065262027695    -0.023472978389    0.034004849222    0.020709256848
            -0.684922383279    0.565795834259    -0.012444798167    -0.117443941907    0.033977607159    0.020606526837    -0.001778101736    -0.077982945242
            -0.064457584764    -0.023706590183    0.033425941510    0.021322399622    -0.062102144495    -0.075979668622    -0.678370192104    0.573387618752
            0.033454688156    0.021422841125    -0.002198526140    -0.077013721508    -0.678468946158    0.573437187219    -0.010938940195    -0.116180821395
0.250     0.067601707242    -0.053107798744    0.231017072739    0.856986795981    0.059675446448    -0.011226819686    0.056246042618    -0.024692500605
            0.230937451176    0.856890074587    0.068679185211    -0.048330596252    0.056292710688    -0.024502342025    0.053946905447    -0.045166844744
            0.060164455759    -0.012204566976    0.056769471452    -0.023754496929    0.068659109712    -0.054753531440    0.241586723983    0.853561564179
            0.056720456815    -0.023945813822    0.054510526537    -0.044045782007    0.241667646879    0.853657625370    0.071895402047    -0.050682077763
0.275     -0.009485856679    -0.169860807916    0.854826733337    0.162734192306    -0.005122036894    -0.105196257072    -0.009374453645    -0.065394921375
            0.854758735597    0.162817945640    0.070908534504    -0.158188986565    -0.009252232948    -0.065548094722    0.025443122454    -0.109708683607
            -0.005701236282    -0.106183674159    -0.008433570717    -0.065656505355    -0.010993171362    -0.172336063412    0.856375344428    0.151237466327
            -0.008555949938    -0.065500683080    0.026431406051    -0.109371847094    0.856442415463    0.151152513568    0.069894099256    -0.161248812918
0.300     -0.112722720088    -0.037296521982    0.524810912590    -0.695757942974    -0.067661952541    0.003485575579    -0.057196171178    -0.024349466051
            0.524875455153    -0.695703679353    -0.034838449759    -0.149683046189    -0.057213910216    -0.024326555997    -0.025663086007    -0.074578749418
            -0.068605115458    0.003389233781    -0.056930283321    -0.025124642462    -0.113988068944    -0.036432275771    0.514526392259    -0.703110445558
            -0.056910231906    -0.025147912823    -0.024945677464    -0.074646201903    0.514460906061    -0.703163765109    -0.034549710226    -0.148802967495
0.325     0.055330623225    0.022845675904    -0.406513725338    -0.770440973015    0.068738310205    0.026221918724    -0.061122114547    0.045306632865
            -0.406441259988    -0.770481193981    -0.024921497512    -0.108200397387    -0.061062091941    0.044992081453    -0.004646549427    -0.078751842260
            0.068326075049    0.026448379794    -0.061729610888    0.044388370805    0.057228131539    0.021746875144    -0.418675547078    -0.763356101251
            -0.061789576676    0.044700802175    -0.003917688654    -0.078931854899    -0.418747468168    -0.763315019460    -0.021525610220    -0.111257938483
0.350     0.035281680159    -0.144624329573    -0.858464318530    0.032111608731    0.031839235946    -0.102249611631    0.022460271953    0.078955802686
            -0.858507397219    0.032021091356    -0.055349298890    -0.136713813165    0.021848270369    0.079035799951    -0.065230314232    -0.090251122219
            0.031226360307    -0.101739086485    0.021031728549    0.079444889603    0.033774631826    -0.146862072175    -0.856824306851    0.046570428245
            0.021640187385    0.079363994827    -0.064471629160    -0.090872332783    -0.856780368222    0.046660877092    -0.057401167495    -0.142028695435
0.375     -0.102373943212    -0.076707036576    -0.350078424855    0.784184108092    -0.054195412858    -0.045054314483    0.076647308076    0.018893039871
            -0.350173589686    0.784249086334    -0.105425055924    -0.071898788670    0.076760805331    0.019555986970    -0.076087866384    -0.001722582944
            -0.054243836098    -0.043821992067    0.076846486828    0.020484995045    -0.102207013940    -0.074829157513    -0.335986198226    0.789740515572
            0.076732567365    0.019827810763    -0.075764096883    -0.002782949849    -0.335891191972    0.789674443118    -0.107212929551    -0.071689693459
0.400     0.009068105312    0.005149211698    0.563066588518    0.652107824109    0.015831994613    -0.013901277805    0.066955711679    -0.065569053857
            0.563146823521    0.652182568072    -0.047200379477    -0.052870070624    0.067530576211    -0.065443360914    -0.003233777409    -0.016237819027
            0.017041473933    -0.013220002742    0.068440124978    -0.065222517766    0.013505760378    0.002296262005    0.575453761973    0.640714281716
            0.067872181708    -0.065349724822    -0.003606193849    -0.017342349072    0.575372384844    0.640640094609    -0.044717610248    -0.056268400477
0.425     0.015090569281    -0.153871435270    0.811354467682    -0.226004031118    -0.016852820242    -0.099903440836    -0.047671381228    -0.096049790163
            0.811399173659    -0.226063853027    -0.112529419628    -0.109593712132    -0.047020689234    -0.096593914421    -0.073038142675    -0.062319732256
            -0.015884895703    -0.100463605036    -0.046534860641    -0.097313843432    0.012928141665    -0.159210309114    0.805358938749    -0.242380914668
            -0.047188118676    -0.096775529474    -0.073946409111    -0.062907049495    0.805315072494    -0.242320517001    -0.116552142309    -0.114684356107
0.450     -0.168831037761    -0.115907716855    0.161673552104    -0.811946900422    -0.107035578693    -0.043492087567    -0.098140017161    0.009978148251
            0.161643355010    -0.811991332026    -0.188782143860    0.016893625231    -0.098693414246    0.008760564112    -0.105844789038    0.042048317621
            -0.106777844710    -0.044015143035    -0.099122117673    0.008039534569    -0.170030909605    -0.115317474116    0.144523032792    -0.814092341294
            -0.098573410365    0.009258205079    -0.106655728243    0.042007626422    0.144553198656    -0.814048776984    -0.191549603441    0.018790648708
0.475     -0.116408224516    0.034759617552    -0.664184310065    -0.512709945703    -0.061317753872    0.023277661898    -0.045683626978    0.082810703248
            -0.664248181065    -0.512693202477    -0.040287774838    0.090308416611    -0.047424597551    0.083164101620    0.006953462590    0.062851068300
            -0.060989664755    0.022560616833    -0.048299209597    0.083313068677    -0.113363198541    0.030172216715    -0.675154659960    -0.497342364675
            -0.046558996502    0.082965357712    0.006227783171    0.062802821250    -0.675091632036    -0.497358828418    -0.037623452906    0.087502398125
0.500     -0.052233802163    -0.047616599159    -0.744915064438    0.390488648421    -0.048931575592    -0.014653891870    0.059953801907    0.096706180868
            -0.744887485525    0.390566343258    -0.032027250891    -0.058490706074    0.059408288625    0.099120146846    -0.012209281493    -0.035426388416
            -0.049464069683    -0.015821391746    0.059344473592    0.099983893332    -0.057922652242    -0.054046586316    -0.734127455347    0.407655879866
            0.059897521214    0.097570861573    -0.013324277533    -0.035093990878    -0.734154951146    0.407579619069    -0.037425380466    -0.063222859215
0.525     -0.180716717689    -0.017788852157    0.027457125768    0.817943792832    -0.090308103923    0.032714111819    0.115974120535    -0.025879803586
            0.027520981276    0.817904265662    -0.176904654455    0.023189149643    0.119773771983    -0.021121216354    -0.081999813576    0.030693256663
            -0.091665898363    0.032617342613    0.120407688390    -0.020839002326    -0.185098979651    -0.014813538973    0.046866142292    0.815658430889
            0.116607403678    -0.025604808968    -0.082635968722    0.031994502177    0.046807270474    0.815698541744    -0.178947559871    0.027143688886
0.550     -0.118462900460    0.130582012955    0.738329548369    0.347011386792    -0.030356926148    0.072862622235    0.028121824768    -0.106701192493
            0.738296475976    0.346974573363    -0.049199206465    0.159162911275    0.023803650399    -0.095029196678    -0.000386087614    0.074396788192
            -0.031039051640    0.073730715433    0.024314282619    -0.095359413616    -0.117060320415    0.127123325656    0.746543470705    0.328280288791
            0.028626957354    -0.107030016371    0.000072042503    0.075585608667    0.746583527554    0.328324214011    -0.043439011544    0.157826985627
0.575     -0.013564538548    0.065503097168    0.641389763457    -0.521765898112    -0.015999960620    0.024902045861    -0.082183976571    -0.088284843967
            0.641354957478    -0.521737137267    0.046113648091    0.013725352473    -0.079900722044    -0.083888015027    0.017915607851    -0.022463365284
            -0.015968310673    0.025610911603    -0.079957921816    -0.084545860016    -0.019225347657    0.061197469057    0.626342359868    -0.538626569664
            -0.082242521367    -0.088939713354    0.018406068664    -0.021472191648    0.626380639587    -0.538655704114    0.041639119263    0.008193843588
0.600     -0.076777779498    0.043676860694    -0.198601962879    -0.795699929456    -0.041787133610    0.044068404060    -0.126365652182    0.044863575618
            -0.198595176302    -0.795678649530    -0.088185943368    0.000174491970    -0.122594272866    0.042430819667    -0.054850050613    0.018544060487
            -0.041654980995    0.044837129313    -0.123246114073    0.042259790451    -0.078602036610    0.047797251379    -0.220086329403    -0.788780978427
            -0.127015641368    0.044693564392    -0.054371165670    0.019098005092    -0.220093751558    -0.788805983664    -0.089829669183    0.004330920120
0.625     -0.025923136287    0.097940209210    -0.796395360262    -0.170093798201    0.007553953597    0.044969205873    -0.014858331808    0.131862146157
            -0.796375861147    -0.170097336314    -0.037633791137    0.094562671058    -0.016980774856    0.130862119449    -0.003637383722    0.043447252832
            0.008439967710    0.045662234873    -0.017398301981    0.131346067822    -0.021634035604    0.094379450018    -0.800756430264    -0.147229972662
            -0.015274617083    0.132344954665    -0.002537470910    0.043864672856    -0.800777516683    -0.147224891523    -0.032954072086    0.090605708808
0.650     -0.005323207393    0.019186179208    -0.495881837505    0.645954417328    -0.028599064711    -0.007881350782    0.119064417541    0.082067305905
            -0.495884919908    0.645946995673    -0.003734777441    0.017409586823    0.118562472438    0.082913208568    -0.029603986048    -0.007857976738
            -0.027383718971    -0.008211060658    0.118830385968    0.083562033766    -0.010621542371    0.014309608340    -0.475505741149    0.660558287127
            0.119332514945    0.082715212823    -0.028383063189    -0.008334586255    -0.475502115288    0.660566380235    -0.008791526129    0.012172503193
0.675     -0.074411495970    0.046802378896    0.363096807955    0.716304378436    -0.067007762887    0.060085799791    0.128885474834    -0.081665468572
            0.363103668690    0.716297514813    -0.067252930991    0.053489130270    0.129238696514    -0.081188276702    -0.063286139576    0.061299820441
            -0.066554090926    0.059034110276    0.130023031683    -0.081241989793    -0.074441612817    0.049212956768    0.384975118845    0.704037148946
            0.129668671496    -0.081720933439    -0.062668377173    0.060290970800    0.384968732650    0.704044356472    -0.067018397189    0.055743361815
0.700     -0.025166236116    0.068725442882    0.801520688190    -0.013104662121    -0.001673272804    0.064095761636    -0.013769539587    -0.154991083350
            0.801504211952    -0.013118970262    0.011921142858    0.062236829786    -0.013286256109    -0.155176813243    0.013612701564    0.054708587905
            -0.001997593003    0.063172056482    -0.013116624340    -0.155977583379    -0.022884198653    0.060618509957    0.800813506617    -0.039657194438
            -0.013602457910    -0.155790344586    0.013638653774    0.053640652458    0.800830744430    -0.039643509848    0.014701673128    0.053398181516
0.725     -0.091369132212    0.026473885616    0.319616216051    -0.723400437724    -0.061879826617    0.034748448175    -0.166403235530    -0.056022377581
            0.319581525891    -0.723376669515    -0.072894249732    -0.034135721275    -0.166530249780    -0.056418827779    -0.062536246764    0.014311156885
            -0.062516614572    0.034329337881    -0.167215468656    -0.056789083858    -0.101945502834    0.022432042672    0.293379396150    -0.733031856540
            -0.167088528964    -0.056388127171    -0.062612559148    0.013948185309    0.293413727383    -0.733056773637    -0.084288780187    -0.038070294585
0.750     -0.116678506381    0.169264343310    -0.485217242976    -0.586723061618    -0.056609444561    0.140581360151    -0.103589629786    0.138095039380
            -0.485199091376    -0.586676926969    -0.147566219305    0.136742666783    -0.103813465009    0.138132995510    -0.081330405966    0.127509690525
            -0.057353469937    0.140479339308    -0.104400720910    0.138657088365    -0.117334094774    0.174368935930    -0.503828690255    -0.568730256013
            -0.104172103432    0.138618910199    -0.081659640926    0.126894833489    -0.503848567051    -0.568776492804    -0.147726002530    0.142666411212
0.775     0.040474092793    0.176379475530    -0.752798588736    0.158643661265    0.058969406812    0.116360505358    0.061409581159    0.139905240493
            -0.752721850901    0.158605536305    0.041625672083    0.171316590653    0.061374873811    0.140085953420    0.048311891881    0.116775558050
            0.058036629171    0.116748140157    0.061737549586    0.140863921157    0.041417731817    0.169074241651    -0.747253929383    0.185542131383
