# GHz S RI R 45
0.000     0.065905899000    0.000000000000    -0.000001508097    0.000000000000    0.003459351600    -0.000000000000    -0.000002535962    0.000000000000
            -0.000001507878    -0.000000000000    0.065218440000    -0.000000000000    -0.000001141115    -0.000000000000    0.004181878500    -0.000000000000
            0.004391830200    -0.000000000000    -0.000001140330    -0.000000000000    0.066192594000    -0.000000000000    -0.000002041737    -0.000000000000
            -0.000002531005    0.000000000000    0.005035314900    0.000000000000    -0.000002043495    0.000000000000    0.064483681000    -0.000000000000
0.025     0.145139135034    0.016017383473    -0.000015258597    -0.000002054429    0.078237029658    0.038124831725    -0.000024304331    -0.000003616809
            -0.000015266274    -0.000002055609    0.148249066804    0.007793331690    -0.000009666465    -0.000000777294    0.081074323652    0.029402765124
            0.077943974968    0.037332757520    -0.000009663350    -0.000000790956    0.144897215313    0.015650240275    -0.000018272795    -0.000002455194
            -0.000024301890    -0.000003629453    0.081800880891    0.029012271626    -0.000018267432    -0.000002440842    0.148583154012    0.008354925198
0.050     0.103345671993    -0.075988369945    -0.000024606680    0.000020527807    0.067017158811    -0.031382499933    -0.000037467210    0.000033249256
            -0.000024591207    0.000020562571    0.084733842702    -0.097306489703    -0.000015601487    0.000012791292    0.047730833805    -0.052177229754
            0.066270622948    -0.030812907162    -0.000015627161    0.000012803879    0.102674247969    -0.075741724470    -0.000028356826    0.000024966438
            -0.000037487946    0.000033266137    0.048117653126    -0.052985966206    -0.000028349921    0.000024916203    0.085215715904    -0.097957298375
0.075     0.064551492896    0.008858113665    0.000027084241    0.000052149631    0.048982590766    0.032500075920    0.000039102885    0.000078429525
            0.000027135471    0.000052076203    0.003147443356    0.030339893897    0.000019399130    0.000033282477    -0.011448474222    0.049559862297
            0.049533741409    0.033132662484    0.000019408656    0.000033305134    0.064934517282    0.009775996506    0.000030900674    0.000059130641
            0.000039114289    0.000078443045    -0.011995690779    0.048663912124    0.000030837385    0.000059188107    0.002662174269    0.030303720075
0.100     0.184223191440    -0.010204878601    0.000052555046    -0.000013856844    0.149222797021    0.001172075054    0.000084629063    -0.000015491725
            0.000052521676    -0.000013890090    0.179257398060    0.016523121375    0.000030882243    -0.000012369472    0.141986849281    0.035066341623
            0.149294252855    0.000307727207    0.000030874593    -0.000012311971    0.185320268227    -0.010839462782    0.000062210749    -0.000013645640
            0.000084620302    -0.000015431787    0.141702205608    0.034329133798    0.000062254065    -0.000013662405    0.179450070300    0.016952435966
0.125     0.114430059113    -0.135720966144    0.000035901452    -0.000047165141    0.080093292681    -0.103817507294    0.000057941039    -0.000078759007
            0.000035809762    -0.000047189566    0.107689460610    -0.139735545381    0.000021311985    -0.000026990967    0.082863203460    -0.096988669096
            0.079160640595    -0.103535467892    0.000021439611    -0.000027030728    0.114124767088    -0.136498966212    0.000043373873    -0.000057756731
            0.000058058457    -0.000078816489    0.082041213576    -0.097626515513    0.000043358595    -0.000057692098    0.107775661002    -0.139782708543
0.150     0.043123194310    -0.044468012699    -0.000057312361    -0.000088976353    0.022661396942    -0.017414804933    -0.000086390463    -0.000134810874
            -0.000057344931    -0.000088763227    -0.004992755430    -0.020364876653    -0.000038838027    -0.000056759411    -0.006810952420    0.002220374640
            0.023328596374    -0.016450738156    -0.000038973694    -0.000056863401    0.043641544136    -0.043866882448    -0.000067293098    -0.000102143336
            -0.000086534310    -0.000134875789    -0.007887520165    0.002403046257    -0.000067145660    -0.000102271147    -0.004461543694    -0.019790505232
0.175     0.156903062725    -0.082361047722    -0.000088808064    0.000045944743    0.122160851623    -0.056993978831    -0.000141507651    0.000059446272
            -0.000088590693    0.000045911579    0.160016265815    0.006396955031    -0.000051042647    0.000035057179    0.129826316290    0.015860965578
            0.122870329878    -0.057800863365    -0.000051056588    0.000035110601    0.158673048904    -0.083775148703    -0.000102803558    0.000048267113
            -0.000141492249    0.000059491901    0.129333084044    0.016470731353    -0.000103007835    0.000048244592    0.161154988469    0.005589717813
0.200     0.050604680351    -0.208025134515    -0.000021175539    0.000074401572    0.020236139966    -0.155585447552    -0.000043410140    0.000124595813
            -0.000021140074    0.000074275583    0.131010464768    -0.169142544572    -0.000011003409    0.000040290808    0.099495521806    -0.120571463038
            0.019353333619    -0.155940928699    -0.000011110428    0.000040351254    0.049880745367    -0.210453057873    -0.000033100536    0.000089278032
            -0.000043524503    0.000124649854    0.099065024141    -0.120146826166    -0.000033058774    0.000089353423    0.130532001709    -0.169655302674
0.225     -0.058023091057    -0.077011798301    0.000077248708    0.000103637470    -0.062656177853    -0.026242084054    0.000124614099    0.000165260424
            0.000077157743    0.000103428051    -0.012444798167    -0.117443941907    0.000048471355    0.000067497285    -0.001778101736    -0.077982945242
            -0.062518730259    -0.025287973005    0.000048701322    0.000067676229    -0.058840973641    -0.077016333503    0.000094823893    0.000128585846
            0.000124862469    0.000165412604    -0.002198526140    -0.077013721508    0.000094735410    0.000128666859    -0.010938940195    -0.116180821395
0.250     0.076300626131    -0.053719047684    0.000131272005    -0.000075050405    0.065500922791    -0.011356821592    0.000210005893    -0.000108860040
            0.000130946393    -0.000074862536    0.068679185211    -0.048330596252    0.000080219228    -0.000055661918    0.053946905447    -0.045166844744
            0.066458490781    -0.012060181207    0.000080245965    -0.000055944830    0.077533805951    -0.055363488143    0.000157883287    -0.000089150197
            0.000209975601    -0.000109146868    0.054510526537    -0.044045782007    0.000158178927    -0.000089113361    0.071895402047    -0.050682077763
0.275     -0.001483651055    -0.177064144225    -0.000003057109    -0.000121396243    0.001393842647    -0.110160252302    0.000005456304    -0.000198997871
            -0.000002841641    -0.000121132064    0.070908534504    -0.158188986565    -0.000006947613    -0.000069970377    0.025443122454    -0.109708683607
            0.000402300223    -0.111022291115    -0.000007028043    -0.000069990333    -0.003460715947    -0.179833814131    0.000001145387    -0.000145975576
            0.000005390330    -0.000198963346    0.026431406051    -0.109371847094    0.000001011290    -0.000146224063    0.069894099256    -0.161248812918
0.300     -0.109655544306    -0.042320908754    -0.000122497914    -0.000095915404    -0.065284082115    -0.000358237930    -0.000196433157    -0.000158692882
            -0.000122319612    -0.000096015845    -0.034838449759    -0.149683046189    -0.000077473426    -0.000061013429    -0.025663086007    -0.074578749418
            -0.065962658861    0.000724635704    -0.000077688338    -0.000061067209    -0.111705604341    -0.041138512102    -0.000149676834    -0.000122951494
            -0.000196624408    -0.000158768570    -0.024945677464    -0.074646201903    -0.000149695954    -0.000122821778    -0.034549710226    -0.148802967495
0.325     0.063169657873    0.019015560791    -0.000147111884    0.000119423502    0.074834281858    0.023784269460    -0.000244147030    0.000183166755
            -0.000147024588    0.000119233187    -0.024921497512    -0.108200397387    -0.000089931574    0.000087145619    -0.004646549427    -0.078751842260
            0.075763278951    0.023980302171    -0.000089887939    0.000087508832    0.064891223180    0.018526728136    -0.000185826214    0.000150000588
            -0.000244097744    0.000183542590    -0.003917688654    -0.078931854899    -0.000185941784    0.000149916386    -0.021525610220    -0.111257938483
0.350     0.042271473941    -0.152058331983    0.000043489200    0.000151711383    0.037584407854    -0.107076298778    0.000064956585    0.000254329842
            0.000043222845    0.000151541639    -0.055349298890    -0.136713813165    0.000038424011    0.000087084499    -0.065230314232    -0.090251122219
            0.037254515376    -0.107933241105    0.000038678727    0.000086972925    0.040646710488    -0.154696672487    0.000060248098    0.000187906429
            0.000065229861    0.000254172632    -0.064471629160    -0.090872332783    0.000060304957    0.000188153600    -0.057401167495    -0.142028695435
0.375     -0.094758206169    -0.082892072017    0.000165706309    0.000076815605    -0.046786544983    -0.048762366585    0.000266272712    0.000119990852
            0.000165576093    0.000077116208    -0.105425055924    -0.071898788670    0.000102744478    0.000043115404    -0.076087866384    -0.001722582944
            -0.047610741459    -0.047896334504    0.000102816700    0.000043014635    -0.096197871642    -0.080984295155    0.000201028312    0.000085340354
            0.000266288694    0.000119902611    -0.075764096883    -0.002782949849    0.000201097742    0.000085119246    -0.107212929551    -0.071689693459
0.400     0.019645533766    -0.006077343283    0.000155114647    -0.000180448001    0.026366408056    -0.023872302514    0.000250662739    -0.000272814278
            0.000155330753    -0.000180437935    -0.047200379477    -0.052870070624    0.000089983864    -0.000125962818    -0.003233777409    -0.016237819027
            0.027568333528    -0.023100529151    0.000089777729    -0.000126292627    0.023267383989    -0.007075196871    0.000184331753    -0.000217082702
            0.000250500245    -0.000273136529    -0.003606193849    -0.017342349072    0.000184253179    -0.000216808222    -0.044717610248    -0.056268400477
0.425     0.022246973358    -0.165194132514    -0.000110884905    -0.000161768706    -0.012037028097    -0.110529365039    -0.000165225937    -0.000275894820
            -0.000110917281    -0.000161820359    -0.112529419628    -0.109593712132    -0.000083516020    -0.000086898990    -0.073038142675    -0.062319732256
            -0.011373701007    -0.111659659763    -0.000083776903    -0.000086535456    0.020861689458    -0.169903232534    -0.000138435036    -0.000198651811
            -0.000165551721    -0.000275536969    -0.073946409111    -0.062907049495    -0.000138125540    -0.000198879746    -0.116552142309    -0.114684356107
0.450     -0.156212426970    -0.131202818192    -0.000170687541    -0.000036804615    -0.097627926251    -0.054424695051    -0.000285665119    -0.000053789096
            -0.000170632236    -0.000036799546    -0.188782143860    0.016893625231    -0.000098368751    -0.000015188647    -0.105844789038    0.042048317621
            -0.098528388214    -0.054738164260    -0.000098100700    -0.000015101175    -0.158554833575    -0.130641365371    -0.000209591927    -0.000030989241
            -0.000285341248    -0.000053640402    -0.106655728243    0.042007626422    -0.000209889391    -0.000031114083    -0.191549603441    0.018790648708
0.475     -0.109498738416    0.008567627299    -0.000173807548    0.000202112867    -0.054022240477    0.001808932264    -0.000263320406    0.000311781907
            -0.000173900887    0.000202076181    -0.040287774838    0.090308416611    -0.000102015246    0.000133718112    0.006953462590    0.062851068300
            -0.053799157897    0.002580046102    -0.000101954793    0.000133737830    -0.107115106679    0.006530911858    -0.000190672002    0.000240611844
            -0.000263253383    0.000311753431    0.006227783171    0.062802821250    -0.000190634111    0.000240640552    -0.037623452906    0.087502398125
0.500     -0.056377887232    -0.067031134606    0.000185709748    0.000211128759    -0.054591466153    -0.031828273308    0.000266935721    0.000339311174
            0.000185876210    0.000211203218    -0.032027250891    -0.058490706074    0.000132252595    0.000117426110    -0.012209281493    -0.035426388416
            -0.053868266467    -0.032629371866    0.000132438572    0.000117080309    -0.059920112392    -0.072537729634    0.000213591582    0.000243271850
            0.000267173121    0.000338982358    -0.013324277533    -0.035093990878    0.000213203851    0.000243458222    -0.037425380466    -0.063222859215
0.525     -0.175585648978    -0.037724463599    0.000210092773    -0.000036824152    -0.088334921711    0.020603170961    0.000346791607    -0.000045835915
            0.000209992086    -0.000037149552    -0.176904654455    0.023189149643    0.000121438927    -0.000032310798    -0.081999813576    0.030693256663
            -0.089397005402    0.019813731709    0.000120990970    -0.000032288751    -0.180550388915    -0.035889759219    0.000253588012    -0.000042489797
            0.000346276128    -0.000045940490    -0.082635968722    0.031994502177    0.000254112447    -0.000042049367    -0.178947559871    0.027143688886
0.550     -0.124051021796    0.098957150282    0.000152830565    -0.000233364666    -0.030818960923    0.050333472387    0.000229005620    -0.000370822213
            0.000152478385    -0.000233092303    -0.049199206465    0.159162911275    0.000092065919    -0.000151377117    -0.000386087614    0.074396788192
            -0.031697651611    0.051410476009    0.000092259925    -0.000151051260    -0.123527801445    0.097823655858    0.000170370395    -0.000282355909
            0.000229106807    -0.000370370681    0.000072042503    0.075585608667    0.000170639760    -0.000283004502    -0.043439011544    0.157826985627
0.575     -0.031498371981    0.048958077918    -0.000250533350    -0.000256786199    -0.029034092118    0.009726370429    -0.000365327509    -0.000397932811
            -0.000250484521    -0.000256551103    0.046113648091    0.013725352473    -0.000177132879    -0.000147923158    0.017915607851    -0.022463365284
            -0.028126680800    0.010333685653    -0.000176980207    -0.000148190319    -0.034895160441    0.045936206340    -0.000288140298    -0.000289513666
            -0.000365118322    -0.000398138257    0.018406068664    -0.021472191648    -0.000288377424    -0.000289585083    0.041639119263    0.008193843588
0.600     -0.076885566175    0.030775305779    -0.000285005547    0.000134852920    -0.041795843815    0.035738158255    -0.000456382865    0.000185325658
            -0.000284726964    0.000134978829    -0.088185943368    0.000174491970    -0.000167850649    0.000101509756    -0.054850050613    0.018544060487
            -0.041726590948    0.034903523603    -0.000167846909    0.000101671402    -0.079346599735    0.033689753567    -0.000336837912    0.000151003210
            -0.000456311666    0.000185529094    -0.054371165670    0.019098005092    -0.000337151676    0.000150739112    -0.089829669183    0.004330920120
0.625     -0.033656242608    0.069188800970    -0.000052498250    0.000338809767    0.006226751302    0.022402485426    -0.000095773316    0.000524452414
            -0.000052193400    0.000338226523    -0.037633791137    0.094562671058    -0.000015934906    0.000223414367    -0.003637383722    0.043447252832
            0.005351556877    0.022998229307    -0.000015979821    0.000223232714    -0.030841649398    0.068607174663    -0.000060048396    0.000405115673
            -0.000095730300    0.000524102468    -0.002537470910    0.043864672856    -0.000060370883    0.000405955408    -0.032954072086    0.090605708808
0.650     -0.023285334720    0.004800659552    0.000362189755    0.000174718986    -0.041189316561    -0.023870081023    0.000534340136    0.000294556665
            0.000361494901    0.000174535843    -0.003734777441    0.017409586823    0.000254003936    0.000080163836    -0.029603986048    -0.007857976738
            -0.040039894472    -0.022777606539    0.000254021317    0.000080597148    -0.025472136654    0.002198001302    0.000423707147    0.000200874015
            0.000534147793    0.000294944625    -0.028383063189    -0.008334586255    0.000424558121    0.000200742600    -0.008791526129    0.012172503193
0.675     -0.076422153638    0.030386331106    0.000258197838    -0.000237307409    -0.070625073569    0.045188071092    0.000431628700    -0.000342241747
            0.000257930636    -0.000236919502    -0.067252930991    0.053489130270    0.000136637077    -0.000171216747    -0.063286139576    0.061299820441
            -0.069486227583    0.043888762607    0.000137086709    -0.000171793651    -0.075815274754    0.031857802793    0.000309319836    -0.000276154474
            0.000432060227    -0.000342685318    -0.062668377173    0.060290970800    0.000309195627    -0.000276239821    -0.067018397189    0.055743361815
0.700     -0.038100352524    0.037424750264    -0.000060088310    -0.000394217334    -0.012196092640    0.038764418995    -0.000071527120    -0.000613098346
            -0.000059862427    -0.000393483102    0.011921142858    0.062236829786    -0.000066799006    -0.000251357704    0.013612701564    0.054708587905
            -0.013458624385    0.037907320779    -0.000067708416    -0.000251365508    -0.035968091225    0.032145361393    -0.000079811618    -0.000468031408
            -0.000072376115    -0.000613015457    0.013638653774    0.053640652458    -0.000079403828    -0.000468703320    0.014701673128    0.053398181516
0.725     -0.113476220806    0.006022804273    -0.000450129009    -0.000009690196    -0.081394270817    0.017463907639    -0.000675789804    -0.000068197388
            -0.000449479660    -0.000010070064    -0.072894249732    -0.034135721275    -0.000296374842    0.000050200364    -0.062536246764    0.014311156885
            -0.081535686532    0.018234410231    -0.000295975396    0.000050513424    -0.119753219076    0.003054196861    -0.000520115444    -0.000005846302
            -0.000675275919    -0.000067925517    -0.062612559148    0.013948185309    -0.000521083544    -0.000005768319    -0.084288780187    -0.038070294585
0.750     -0.137746226095    0.145593105480    -0.000102890914    0.000299527453    -0.075759813729    0.123900586718    -0.000224267069    0.000451070836
            -0.000103227708    0.000299049474    -0.147566219305    0.136742666783    -0.000015948505    0.000190454870    -0.081330405966    0.127509690525
            -0.074814624907    0.123195885449    -0.000016081569    0.000190652661    -0.137680143413    0.148717419802    -0.000134012191    0.000340828375
            -0.000224466806    0.000451152737    -0.081659640926    0.126894833489    -0.000133558283    0.000341261941    -0.147726002530    0.142666411212
0.775     0.009099537018    0.156386229472    0.000089814541    0.000309866662    0.035844953921    0.102783691156    0.000133163642    0.000508901296
            0.000089390349    0.000309576788    0.041625672083    0.171316590653    0.000067786643    0.000184306584    0.048311891881    0.116775558050
            0.034530058707    0.101714480681    0.000068862589    0.000184300218    0.009959823221    0.150672744927    0.000112169247    0.000379850538
