# GHz S RI R 45
0.000     0.065393592000    -0.000000000000    -0.000002629681    -0.000000000000    0.003950746300    -0.000000000000    -0.000001542910    -0.000000000000
            -0.000002623677    -0.000000000000    0.065218440000    -0.000000000000    0.000000345541    0.000000000000    0.004181878500    -0.000000000000
            0.004701513700    0.000000000000    0.000000362403    0.000000000000    0.063991605000    -0.000000000000    -0.000000350275    0.000000000000
            -0.000001563259    0.000000000000    0.005035314900    0.000000000000    -0.000000349586    -0.000000000000    0.064483681000    -0.000000000000
0.025     0.144385021569    0.016294265031    0.000000985106    0.000003683600    0.077494713083    0.037583623985    -0.000005651622    -0.000000205618
            0.000000992487    0.000003687238    0.148249066804    0.007793331690    0.000010885405    0.000004948591    0.081074323652    0.029402765124
            0.078105343811    0.037107199287    0.000010891924    0.000004946951    0.145196431801    0.017398210812    -0.000001359833    0.000000144529
            -0.000005643896    -0.000000210829    0.081800880891    0.029012271626    -0.000001354512    0.000000151282    0.148583154012    0.008354925198
0.050     0.103849587373    -0.075949705328    0.000002034103    -0.000001891130    0.066845310406    -0.030784610837    -0.000008704037    0.000007768535
            0.000002045396    -0.000001896479    0.084733842702    -0.097306489703    0.000016374877    -0.000015827310    0.047730833805    -0.052177229754
            0.066899300860    -0.031683340051    0.000016364098    -0.000015839608    0.104298956516    -0.077036404619    -0.000002244909    0.000001646418
            -0.000008707911    0.000007755584    0.048117653126    -0.052985966206    -0.000002226108    0.000001636634    0.085215715904    -0.097957298375
0.075     0.063709121886    0.007378841114    0.000004501743    -0.000002467608    0.048941966498    0.031804384858    0.000009567939    0.000017256240
            0.000004501171    -0.000002495223    0.003147443356    0.030339893897    -0.000007267353    -0.000031537170    -0.011448474222    0.049559862297
            0.048447762764    0.031053328511    -0.000007278255    -0.000031515421    0.063153226154    0.007558115105    0.000002704382    0.000004303345
            0.000009555928    0.000017271848    -0.011995690779    0.048663912124    0.000002697913    0.000004279170    0.002662174269    0.030303720075
0.100     0.182914007425    -0.009348567825    -0.000012158456    -0.000006359598    0.148357391174    0.000843666314    0.000016526450    -0.000001098055
            -0.000012184421    -0.000006373531    0.179257398060    0.016523121375    -0.000047396984    -0.000009379354    0.141986849281    0.035066341623
            0.147569315057    0.000747846506    -0.000047376485    -0.000009374790    0.184267238975    -0.008489542491    0.000002948771    -0.000000286148
            0.000016526013    -0.000001078624    0.141702205608    0.034329133798    0.000002910610    -0.000000296042    0.179450070300    0.016952435966
0.125     0.115991231570    -0.136054034917    0.000000925541    0.000013306677    0.080566484673    -0.104136223343    0.000018398132    -0.000016724881
            0.000000889757    0.000013333442    0.107689460610    -0.139735545381    -0.000028813954    0.000049015673    0.082863203460    -0.096988669096
            0.079813832823    -0.103682099221    -0.000028801170    0.000048987350    0.116708191348    -0.137060462518    0.000005581381    -0.000002748417
            0.000018438675    -0.000016729914    0.082041213576    -0.097626515513    0.000005555013    -0.000002691077    0.107775661002    -0.139782708543
0.150     0.041243649776    -0.047849202670    -0.000000006732    0.000001547569    0.021457228861    -0.019847078202    -0.000019785156    -0.000031668379
            0.000000017520    0.000001609037    -0.004992755430    -0.020364876653    0.000029952057    0.000054632946    -0.006810952420    0.002220374640
            0.021301958076    -0.018887902176    0.000029899806    0.000054635224    0.041229323930    -0.047417967526    -0.000004651219    -0.000008657031
            -0.000019819780    -0.000031706629    -0.007887520165    0.002403046257    -0.000004590822    -0.000008637862    -0.004461543694    -0.019790505232
0.175     0.154247966745    -0.080730284969    0.000020044232    -0.000000433629    0.120318711499    -0.056599262459    -0.000028815688    0.000004935200
            0.000020118144    -0.000000445592    0.160016265815    0.006396955031    0.000081163629    -0.000006252858    0.129826316290    0.015860965578
            0.120902524121    -0.055917454970    0.000081198198    -0.000006213586    0.156295328980    -0.081073386209    -0.000005919658    -0.000000534734
            -0.000028825599    0.000004964270    0.129333084044    0.016470731353    -0.000005900225    -0.000000554550    0.161154988469    0.005589717813
0.200     0.052570519380    -0.208307390265    -0.000013701924    -0.000021842399    0.020687352762    -0.156494014360    -0.000024865134    0.000029111068
            -0.000013679830    -0.000021926224    0.131010464768    -0.169142544572    0.000021559772    -0.000083004155    0.099495521806    -0.120571463038
            0.021364718061    -0.156320631145    0.000021574400    -0.000083036528    0.053049805839    -0.210544792522    -0.000009527961    0.000006381155
            -0.000024870566    0.000029132157    0.099065024141    -0.120146826166    -0.000009513122    0.000006339811    0.130532001709    -0.169655302674
0.225     -0.060949526839    -0.081790647788    -0.000005734872    0.000011001904    -0.065771569104    -0.029670652206    0.000030955344    0.000046324561
            -0.000005836588    0.000010949298    -0.012444798167    -0.117443941907    -0.000058295345    -0.000061276505    -0.001778101736    -0.077982945242
            -0.064961123016    -0.029862158821    -0.000058321901    -0.000061297607    -0.061272583063    -0.082273819866    0.000008001053    0.000014321964
            0.000031024011    0.000046323717    -0.002198526140    -0.077013721508    0.000007962904    0.000014298164    -0.010938940195    -0.116180821395
0.250     0.071518205678    -0.050707567396    -0.000012812307    0.000006277855    0.061735428252    -0.008979336962    0.000049318312    -0.000012609120
            -0.000012868066    0.000006374886    0.068679185211    -0.048330596252    -0.000103766533    0.000028346144    0.053946905447    -0.045166844744
            0.062282272367    -0.009925904987    -0.000103796111    0.000028412149    0.072804896233    -0.052242799623    0.000011972512    -0.000001489374
            0.000049262884    -0.000012674994    0.054510526537    -0.044045782007    0.000011926980    -0.000001501774    0.071895402047    -0.050682077763
0.275     0.000913284900    -0.176722170127    0.000023605261    0.000014892150    0.002290003935    -0.110533320657    0.000023934998    -0.000054882346
            0.000023662698    0.000014951097    0.070908534504    -0.158188986565    -0.000006427751    0.000112151354    0.025443122454    -0.109708683607
            0.001773227465    -0.111559278222    -0.000006332370    0.000112131499    -0.000497984696    -0.179046717476    0.000010383158    -0.000014144349
            0.000023909907    -0.000054823232    0.026431406051    -0.109371847094    0.000010319094    -0.000014049468    0.069894099256    -0.161248812918
0.300     -0.113785187041    -0.047933742828    0.000000474629    -0.000019472055    -0.069927622100    -0.003878734365    -0.000055186639    -0.000051258148
            0.000000538637    -0.000019483848    -0.034838449759    -0.149683046189    0.000089086596    0.000061203830    -0.025663086007    -0.074578749418
            -0.070868017806    -0.004036127360    0.000089026421    0.000061131982    -0.114862498810    -0.046851530714    -0.000015130530    -0.000015988686
            -0.000055160321    -0.000051238402    -0.024945677464    -0.074646201903    -0.000015000630    -0.000015901520    -0.034549710226    -0.148802967495
0.325     0.055763411860    0.023869938445    0.000004637724    -0.000007303174    0.069368959206    0.028695067630    -0.000065848062    0.000029061856
            0.000004667284    -0.000007362844    -0.024921497512    -0.108200397387    0.000119947068    -0.000058722801    -0.004646549427    -0.078751842260
            0.068947186184    0.028893103622    0.000119913911    -0.000058691529    0.057828585757    0.022930107719    -0.000016547433    0.000005478542
            -0.000065790545    0.000029035565    -0.003917688654    -0.078931854899    -0.000016449137    0.000005374586    -0.021525610220    -0.111257938483
0.350     0.044802914237    -0.149405616132    -0.000029148269    -0.000003426120    0.039471473429    -0.106068799375    -0.000012447994    0.000084109810
            -0.000029171685    -0.000003473199    -0.055349298890    -0.136713813165    -0.000019515646    -0.000139673060    -0.065230314232    -0.090251122219
            0.038817605924    -0.105613522667    -0.000019491119    -0.000139589177    0.043479444876    -0.151359326616    -0.000008432652    0.000022239337
            -0.000012507635    0.000084042345    -0.064471629160    -0.090872332783    -0.000008490336    0.000022089510    -0.057401167495    -0.142028695435
0.375     -0.098818204964    -0.087436955790    0.000010792061    0.000023400874    -0.051821684806    -0.051795841812    0.000089557950    0.000043425074
            0.000010728182    0.000023360957    -0.105425055924    -0.071898788670    -0.000125167679    -0.000047577316    -0.076087866384    -0.001722582944
            -0.051977090789    -0.050563307016    -0.000125060690    -0.000047666319    -0.098369341265    -0.085317206219    0.000023755852    0.000015441756
            0.000089500107    0.000043497724    -0.075764096883    -0.002782949849    0.000023550689    0.000015480641    -0.107212929551    -0.071689693459
0.400     0.011604551257    0.000618819499    0.000001333810    0.000003463771    0.020572575891    -0.017084808710    0.000068388818    -0.000059728540
            0.000001223528    0.000003559190    -0.047200379477    -0.052870070624    -0.000118827482    0.000100016953    -0.003233777409    -0.016237819027
            0.021726967445    -0.016302572347    -0.000118965849    0.000099998125    0.016342405603    -0.001902287009    0.000020194156    -0.000012513491
            0.000068470882    -0.000059656523    -0.003606193849    -0.017342349072    0.000020240714    -0.000012327621    -0.044717610248    -0.056268400477
0.425     0.026169086013    -0.160086542239    0.000032211839    -0.000012828947    -0.008916149624    -0.108174841818    -0.000012694398    -0.000104371372
            0.000032317856    -0.000012688879    -0.112529419628    -0.109593712132    0.000057043523    0.000149176700    -0.073038142675    -0.062319732256
            -0.007908822643    -0.108642552155    0.000057097210    0.000149242953    0.024699368056    -0.165166976936    0.000001828762    -0.000031113498
            -0.000012628387    -0.000104488730    -0.073946409111    -0.062907049495    0.000001933770    -0.000031108359    -0.116552142309    -0.114684356107
0.450     -0.157930988858    -0.134846292895    -0.000036963717    -0.000025959437    -0.102068235112    -0.056791879203    -0.000122795822    -0.000022406523
            -0.000036802530    -0.000026019658    -0.188782143860    0.016893625231    0.000144106291    0.000021410127    -0.105844789038    0.042048317621
            -0.101754518143    -0.057278412658    0.000144110672    0.000021393429    -0.158593075255    -0.134492283154    -0.000034545076    -0.000009994997
            -0.000122909766    -0.000022446777    -0.106655728243    0.042007626422    -0.000034458949    -0.000010050400    -0.191549603441    0.018790648708
0.475     -0.116796644193    0.014341673052    0.000000265023    0.000025065039    -0.059993856200    0.009327085745    -0.000054521566    0.000098783657
            0.000000264887    0.000024860984    -0.040287774838    0.090308416611    0.000108755893    -0.000124239816    0.006953462590    0.062851068300
            -0.059586139043    0.008638687045    0.000108755139    -0.000124298242    -0.113387658331    0.009750714837    -0.000018154636    0.000025039803
            -0.000054588639    0.000098855258    0.006227783171    0.062802821250    -0.000018184603    0.000024909406    -0.037623452906    0.087502398125
0.500     -0.051670965872    -0.061360853353    -0.000012588652    0.000012324207    -0.050039791161    -0.027611656103    0.000048029204    0.000103504805
            -0.000012823017    0.000012302603    -0.032027250891    -0.058490706074    -0.000084292223    -0.000157985204    -0.012209281493    -0.035426388416
            -0.050447173846    -0.028827784233    -0.000084390412    -0.000157879247    -0.056410246686    -0.068073919477    0.000009916203    0.000032022490
            0.000048119363    0.000103654093    -0.013324277533    -0.035093990878    0.000009803351    0.000032020333    -0.037425380466    -0.063222859215
0.525     -0.177333834665    -0.041712836967    0.000048199224    0.000005505917    -0.091610501844    0.018404072801    0.000138774384    -0.000011432090
            0.000048165444    0.000005699896    -0.176904654455    0.023189149643    -0.000166551597    -0.000002598084    -0.081999813576    0.030693256663
            -0.092942629593    0.018146547298    -0.000166374474    -0.000002592387    -0.181170351225    -0.039975017074    0.000038353101    -0.000001615118
            0.000138915369    -0.000011613913    -0.082635968722    0.031994502177    0.000038287350    -0.000001547663    -0.178947559871    0.027143688886
0.550     -0.132118257425    0.104891688761    -0.000022098414    -0.000042020453    -0.035974269029    0.060095198111    0.000028114905    -0.000125436991
            -0.000021978278    -0.000041952751    -0.049199206465    0.159162911275    -0.000103220074    0.000157212458    -0.000386087614    0.074396788192
            -0.036764101230    0.060869868624    -0.000103284409    0.000157064397    -0.129994515233    0.102771280222    0.000010443829    -0.000030326757
            0.000027923259    -0.000125505516    0.000072042503    0.075585608667    0.000010461128    -0.000030194710    -0.043439011544    0.157826985627
0.575     -0.027669080778    0.056270211805    -0.000005291800    0.000013216928    -0.023295414879    0.015911116528    -0.000078504068    -0.000087550545
            -0.000005156655    0.000013163690    0.046113648091    0.013725352473    0.000119693856    0.000171292812    0.017915607851    -0.022463365284
            -0.023359042014    0.016626903994    0.000119596625    0.000171354835    -0.032677555462    0.052062627922    -0.000016974761    -0.000028360917
            -0.000078618653    -0.000087422503    0.018406068664    -0.021472191648    -0.000016822705    -0.000028343629    0.041639119263    0.008193843588
0.600     -0.079721061048    0.029261028911    -0.000022018198    0.000008333289    -0.044645675914    0.034359460359    -0.000137133755    0.000042111832
            -0.000022015421    0.000008207465    -0.088185943368    0.000174491970    0.000202116910    -0.000032004675    -0.054850050613    0.018544060487
            -0.044609510811    0.035140660075    0.000202139072    -0.000031869152    -0.081720570589    0.033303983777    -0.000037988436    0.000008503528
            -0.000137066651    0.000042231924    -0.054371165670    0.019098005092    -0.000037964480    0.000008352062    -0.089829669183    0.004330920120
0.625     -0.039206561081    0.081092083737    0.000026319789    0.000016242813    0.002319668123    0.034346526178    -0.000008847408    0.000136626638
            0.000026228298    0.000016187808    -0.037633791137    0.094562671058    0.000072989750    -0.000212080010    -0.003637383722    0.043447252832
            0.003099316680    0.035153150128    0.000073161072    -0.000212155515    -0.034752517618    0.078253800107    -0.000008130630    0.000032794286
            -0.000008679590    0.000136495957    -0.002537470910    0.043864672856    -0.000008204994    0.000032706351    -0.032954072086    0.090605708808
0.650     -0.013395567423    0.013119411130    0.000000931842    -0.000003360317    -0.031032675291    -0.017175377323    0.000114226718    0.000083899631
            0.000000808413    -0.000003318424    -0.003734777441    0.017409586823    -0.000174209644    -0.000150414432    -0.029603986048    -0.007857976738
            -0.029780341073    -0.017318081319    -0.000174350589    -0.000150539259    -0.017550699357    0.008082197145    0.000028251549    0.000030636958
            0.000114046041    0.000083786834    -0.028383063189    -0.008334586255    0.000028071493    0.000030653956    -0.008791526129    0.012172503193
0.675     -0.076305772336    0.028784993560    0.000017116579    -0.000023226993    -0.070949278765    0.043391650053    0.000134228863    -0.000088413723
            0.000017121362    -0.000023054121    -0.067252930991    0.053489130270    -0.000210456789    0.000076479853    -0.063286139576    0.061299820441
            -0.070331465709    0.042409326441    -0.000210506093    0.000076629311    -0.076520637405    0.030831956929    0.000037654178    -0.000022761555
            0.000134169751    -0.000088264358    -0.062668377173    0.060290970800    0.000037647545    -0.000022542311    -0.067018397189    0.055743361815
0.700     -0.038035947193    0.050294069847    -0.000023841817    -0.000000256010    -0.012620920399    0.050671359451    -0.000023450937    -0.000143798445
            -0.000023658337    -0.000000218810    0.011921142858    0.062236829786    -0.000026728457    0.000246774223    0.013612701564    0.054708587905
            -0.012811160166    0.049704100515    -0.000026582365    0.000246761790    -0.034944309971    0.042973166811    0.000000334716    -0.000036260455
            -0.000023317425    -0.000143751510    0.013638653774    0.053640652458    0.000000523468    -0.000036196802    0.014701673128    0.053398181516
0.725     -0.097993153229    0.007668932148    -0.000019557631    -0.000020247639    -0.068767909771    0.019897396509    -0.000157485077    -0.000063365179
            -0.000019478114    -0.000020440379    -0.072894249732    -0.034135721275    0.000204043416    0.000111661522    -0.062536246764    0.014311156885
            -0.069321504768    0.019386073010    0.000203974232    0.000111574463    -0.107266379650    0.002279144415    -0.000046306198    -0.000021356466
            -0.000157476399    -0.000063375547    -0.062612559148    0.013948185309    -0.000046124914    -0.000021484589    -0.084288780187    -0.038070294585
0.750     -0.139530030009    0.138412931153    -0.000017666300    0.000074459438    -0.075921438179    0.120586587308    -0.000107988002    0.000147221705
            -0.000017805519    0.000074332593    -0.147566219305    0.136742666783    0.000209400115    -0.000099839552    -0.081330405966    0.127509690525
            -0.076644562012    0.120347954354    0.000209348003    -0.000099776133    -0.141244096969    0.143012195155    -0.000021215757    0.000040031148
            -0.000108020177    0.000147174903    -0.081659640926    0.126894833489    -0.000021369242    0.000039772008    -0.147726002530    0.142666411212
0.775     0.005982892480    0.168321504302    0.000072599935    -0.000021265969    0.035912608155    0.113526961496    0.000075367730    0.000126340700
            0.000072446646    -0.000021165588    0.041625672083    0.171316590653    0.000002987048    -0.000280977363    0.048311891881    0.116775558050
            0.034911923443    0.113763781853    0.000003043805    -0.000280850786    0.007700234826    0.161824179765    0.000011493172    0.000024053872
