# GHz S RI R 45
0.000     0.066320082000    0.000000000000    0.000000066430    0.000000000000    0.003899241600    -0.000000000000    -0.000014544880    -0.000000000000
            0.000000064894    -0.000000000000    0.065218440000    -0.000000000000    0.000000219810    0.000000000000    0.004181878500    -0.000000000000
            0.005008539200    0.000000000000    0.000000220632    0.000000000000    0.065139333000    -0.000000000000    0.000000310278    0.000000000000
            -0.000014543691    -0.000000000000    0.005035314900    0.000000000000    0.000000307783    0.000000000000    0.064483681000    -0.000000000000
0.025     0.145440957840    0.015265616899    0.000011560305    0.000004863638    0.078073545107    0.037312508065    0.000012727599    0.000021867598
            0.000011517419    0.000004862141    0.148249066804    0.007793331690    0.000008069084    0.000001749920    0.081074323652    0.029402765124
            0.078777571360    0.036625939369    0.000008066425    0.000001757530    0.145724361105    0.016142670046    0.000012640112    0.000005443499
            0.000012723421    0.000021869838    0.081800880891    0.029012271626    0.000012594721    0.000005455990    0.148583154012    0.008354925198
0.050     0.102115441453    -0.075839856740    0.000014461851    -0.000018113148    0.065481997613    -0.030724131446    0.000025979193    -0.000016157860
            0.000014474026    -0.000018017612    0.084733842702    -0.097306489703    0.000013369848    -0.000010727266    0.047730833805    -0.052177229754
            0.065513252573    -0.031782036065    0.000013392271    -0.000010720408    0.102427980030    -0.076670966146    0.000019342672    -0.000019322446
            0.000025993552    -0.000016140025    0.048117653126    -0.052985966206    0.000019395883    -0.000019231912    0.085215715904    -0.097957298375
0.075     0.066161116836    0.009907414559    -0.000005630819    -0.000028858938    0.050697938390    0.034025153850    0.000018839371    -0.000039806564
            -0.000005511831    -0.000028956243    0.003147443356    0.030339893897    -0.000013783280    -0.000029007044    -0.011448474222    0.049559862297
            0.050114541465    0.033106921224    -0.000013739934    -0.000029046635    0.065568901036    0.009748123407    -0.000010801831    -0.000042482551
            0.000018873979    -0.000039849571    -0.011995690779    0.048663912124    -0.000010688302    -0.000042588972    0.002662174269    0.030303720075
0.100     0.184806836194    -0.013919000241    -0.000054749198    -0.000008813235    0.149905747704    -0.002637584755    -0.000085941920    -0.000049725827
            -0.000054751533    -0.000008939299    0.179257398060    0.016523121375    -0.000029733043    0.000010032273    0.141986849281    0.035066341623
            0.148932485137    -0.002769324029    -0.000029801639    0.000009957281    0.185766501080    -0.013211191525    -0.000064332299    -0.000002375868
            -0.000085984142    -0.000049762696    0.141702205608    0.034329133798    -0.000064458131    -0.000002444945    0.179450070300    0.016952435966
0.125     0.110088549030    -0.136374157974    -0.000020065788    0.000059260769    0.075567412016    -0.104335814418    -0.000047821015    0.000089788522
            -0.000020281146    0.000059265035    0.107689460610    -0.139735545381    -0.000017020192    0.000025131282    0.082863203460    -0.096988669096
            0.074641513848    -0.103761818631    -0.000017117839    0.000025216176    0.110988363714    -0.137651884564    -0.000021268228    0.000064557179
            -0.000047893536    0.000089828005    0.082041213576    -0.097626515513    -0.000021360497    0.000064741915    0.107775661002    -0.139782708543
0.150     0.044180384702    -0.042968793647    0.000033262441    0.000046914309    0.023865233429    -0.015326738972    0.000017080874    0.000076989827
            0.000033392275    0.000047160228    -0.004992755430    -0.020364876653    0.000031000697    0.000047933842    -0.006810952420    0.002220374640
            0.023706551209    -0.014158702612    0.000031062006    0.000048091293    0.043679078903    -0.043710768828    0.000043643558    0.000063388745
            0.000017140985    0.000077100264    -0.007887520165    0.002403046257    0.000043955330    0.000063397017    -0.004461543694    -0.019790505232
0.175     0.153848598575    -0.087812171456    0.000089918558    -0.000012864180    0.119876300121    -0.062075463694    0.000165577574    0.000028341824
            0.000090053708    -0.000013030011    0.160016265815    0.006396955031    0.000048261665    -0.000032309391    0.129826316290    0.015860965578
            0.120584078577    -0.061272706167    0.000048484081    -0.000032404070    0.154647141806    -0.088347729352    0.000107771860    -0.000040795880
            0.000165678395    0.000028272198    0.129333084044    0.016470731353    0.000107619463    -0.000041104946    0.161154988469    0.005589717813
0.200     0.040672615726    -0.205756174582    0.000004892889    -0.000101785586    0.010895492875    -0.153391339662    0.000020790455    -0.000184513540
            0.000004885403    -0.000101933545    0.131010464768    -0.169142544572    0.000004791515    -0.000034964848    0.099495521806    -0.120571463038
            0.011720421527    -0.153180447216    0.000004713486    -0.000035158284    0.040854085908    -0.208182663844    -0.000027410727    -0.000102023670
            0.000020777901    -0.000184599525    0.099065024141    -0.120146826166    -0.000027638534    -0.000101847534    0.130532001709    -0.169655302674
0.225     -0.058241347411    -0.070203359725    -0.000082477108    -0.000047786713    -0.062154293357    -0.018965672941    -0.000094425402    -0.000061931974
            -0.000082881027    -0.000047800999    -0.012444798167    -0.117443941907    -0.000039521605    -0.000053723142    -0.001778101736    -0.077982945242
            -0.061173224551    -0.019254700219    -0.000039682535    -0.000053749411    -0.059926241569    -0.071938856480    -0.000064182018    -0.000033368685
            -0.000094546398    -0.000061976647    -0.002198526140    -0.077013721508    -0.000064000738    -0.000033074405    -0.010938940195    -0.116180821395
0.250     0.073040289001    -0.056366075747    -0.000106242656    0.000069867986    0.064214083038    -0.013753136835    -0.000192422223    0.000027251366
            -0.000105972333    0.000070373517    0.068679185211    -0.048330596252    -0.000070524679    0.000048713382    0.053946905447    -0.045166844744
            0.064766289897    -0.014904970359    -0.000070648882    0.000048950095    0.071988939904    -0.057185978905    -0.000117512024    0.000061429780
            -0.000192448413    0.000027398752    0.054510526537    -0.044045782007    -0.000117143345    0.000061075976    0.071895402047    -0.050682077763
0.275     -0.011400603429    -0.170378830208    0.000049124135    0.000120376778    -0.006235986699    -0.105024096664    0.000032850723    0.000238051355
            0.000049470082    0.000120005379    0.070908534504    -0.158188986565    0.000013053259    0.000056521154    0.025443122454    -0.109708683607
            -0.006887514773    -0.106146289610    0.000013283036    0.000056597919    -0.013104462188    -0.171825040044    0.000062836496    0.000123575527
            0.000032920842    0.000238051895    0.026431406051    -0.109371847094    0.000062283572    0.000123362237    0.069894099256    -0.161248812918
0.300     -0.107442302518    -0.031956161985    0.000116341178    0.000019318534    -0.062538392152    0.007589341266    0.000158536872    0.000026676852
            0.000116124970    0.000019051183    -0.034838449759    -0.149683046189    0.000059320251    0.000047767181    -0.025663086007    -0.074578749418
            -0.063596943426    0.007435400600    0.000059385184    0.000047685245    -0.109888236756    -0.031699700823    0.000083954363    0.000007992271
            0.000158579056    0.000026716190    -0.024945677464    -0.074646201903    0.000083982790    0.000008537313    -0.034549710226    -0.148802967495
0.325     0.063707578779    0.016581283651    0.000093676089    -0.000143227480    0.075188178373    0.020788582457    0.000192870931    -0.000097083802
            0.000093220481    -0.000143171800    -0.024921497512    -0.108200397387    0.000076601849    -0.000073967857    -0.004646549427    -0.078751842260
            0.074661402461    0.021027946679    0.000076670749    -0.000074165306    0.063106547308    0.017174907354    0.000120590191    -0.000081668963
            0.000192946137    -0.000097217755    -0.003917688654    -0.078931854899    0.000120879830    -0.000081739093    -0.021525610220    -0.111257938483
0.350     0.032697249070    -0.148562046008    -0.000140623339    -0.000101042277    0.030132310122    -0.104495007988    -0.000111973720    -0.000269294562
            -0.000140516971    -0.000100397387    -0.055349298890    -0.136713813165    -0.000039692691    -0.000064933045    -0.065230314232    -0.090251122219
            0.029435218859    -0.103840939130    -0.000039940617    -0.000065017629    0.031603500436    -0.148763542182    -0.000100515042    -0.000154908299
            -0.000112075335    -0.000269371303    -0.064471629160    -0.090872332783    -0.000100520933    -0.000155397464    -0.057401167495    -0.142028695435
0.375     -0.097913062986    -0.073052645106    -0.000099714158    0.000052749613    -0.049605642371    -0.042807157082    -0.000204753821    0.000036900133
            -0.000099023947    0.000052589555    -0.105425055924    -0.071898788670    -0.000073153300    -0.000032731771    -0.076087866384    -0.001722582944
            -0.049577054487    -0.041435432772    -0.000073303091    -0.000032591012    -0.098423765390    -0.071744929785    -0.000143367264    0.000033016905
            -0.000204909877    0.000036925045    -0.075764096883    -0.002782949849    -0.000144113554    0.000033296908    -0.107212929551    -0.071689693459
0.400     0.017275893002    -0.003444397852    -0.000054716064    0.000168369033    0.021248099672    -0.021043001378    -0.000166890432    0.000166740375
            -0.000054849642    0.000167660174    -0.047200379477    -0.052870070624    -0.000072637630    0.000100522398    -0.003233777409    -0.016237819027
            0.022565281435    -0.020357039115    -0.000072520095    0.000100923431    0.018972048746    -0.004142178863    -0.000080156479    0.000178033545
            -0.000166838211    0.000167028990    -0.003606193849    -0.017342349072    -0.000079339188    0.000178560102    -0.044717610248    -0.056268400477
0.425     0.009901367613    -0.160108714304    0.000237517263    0.000070597849    -0.020185570284    -0.102715798090    0.000230985437    0.000268800246
            0.000236795108    0.000070755429    -0.112529419628    -0.109593712132    0.000072724465    0.000050270703    -0.073038142675    -0.062319732256
            -0.019146494865    -0.103290049843    0.000073200810    0.000049982709    0.008643509428    -0.162535064145    0.000224607785    0.000127796073
            0.000231269300    0.000268691033    -0.073946409111    -0.062907049495    0.000224651783    0.000126980561    -0.116552142309    -0.114684356107
0.450     -0.167025335557    -0.112293416807    0.000104745449    -0.000163284887    -0.103188502062    -0.041694799626    0.000189947370    -0.000191975107
            0.000104895747    -0.000162679931    -0.188782143860    0.016893625231    0.000050001774    0.000012671653    -0.105844789038    0.042048317621
            -0.102839150491    -0.042295044812    0.000049800431    0.000012319660    -0.168390027034    -0.112035894157    0.000184276901    -0.000155311508
            0.000189955656    -0.000192214628    -0.106655728243    0.042007626422    0.000183798463    -0.000155345308    -0.191549603441    0.018790648708
0.475     -0.108489256217    0.027321122331    0.000087745105    -0.000213518610    -0.055960899403    0.016154304579    0.000043259356    -0.000138488201
            0.000088204314    -0.000213420853    -0.040287774838    0.090308416611    0.000076715547    -0.000100764230    0.006953462590    0.062851068300
            -0.055678069864    0.015272591342    0.000076343060    -0.000100953885    -0.108169694308    0.025296571338    0.000075312889    -0.000287437311
            0.000042970825    -0.000138769929    0.006227783171    0.062802821250    0.000074914165    -0.000286767490    -0.037623452906    0.087502398125
0.500     -0.058106030564    -0.054718320004    -0.000224988415    -0.000225437617    -0.052579240699    -0.018522933206    -0.000262527958    -0.000246312706
            -0.000224562392    -0.000226095140    -0.032027250891    -0.058490706074    -0.000125604844    -0.000083657999    -0.012209281493    -0.035426388416
            -0.053270401298    -0.019693017644    -0.000125856399    -0.000083019439    -0.062094155979    -0.057200453314    -0.000262548201    -0.000213818636
            -0.000262787099    -0.000245943909    -0.013324277533    -0.035093990878    -0.000261295105    -0.000213584110    -0.037425380466    -0.063222859215
0.525     -0.178444411738    -0.014356544166    -0.000160399008    0.000088935107    -0.085088659242    0.032893838642    -0.000183932565    0.000274229530
            -0.000161407622    0.000088684156    -0.176904654455    0.023189149643    -0.000085526882    0.000025884402    -0.081999813576    0.030693256663
            -0.086494080019    0.032878788449    -0.000084950678    0.000025656551    -0.181620083094    -0.011742838558    -0.000183189150    0.000092965142
            -0.000183673626    0.000274210270    -0.082635968722    0.031994502177    -0.000183553040    0.000091720499    -0.178947559871    0.027143688886
0.550     -0.109911778410    0.121266960647    -0.000114624414    0.000140792438    -0.024616009098    0.063880472043    0.000030478713    0.000096227416
            -0.000114527602    0.000141703886    -0.049199206465    0.159162911275    -0.000089251703    0.000124746675    -0.000386087614    0.074396788192
            -0.025315925428    0.064803727403    -0.000089666142    0.000124528457    -0.109433298954    0.122145500312    -0.000111979911    0.000189938492
            0.000030322566    0.000096168846    0.000072042503    0.075585608667    -0.000112846330    0.000190542191    -0.043439011544    0.157826985627
0.575     -0.020104655787    0.055399760871    0.000194447755    0.000234524982    -0.021968456613    0.018764764218    0.000190083996    0.000235558788
            0.000195177039    0.000234776874    0.046113648091    0.013725352473    0.000156579340    0.000128653647    0.017915607851    -0.022463365284
            -0.021903259133    0.019574695614    0.000156441445    0.000129007580    -0.022802253341    0.055811803230    0.000236162981    0.000208884883
            0.000190055994    0.000235701451    0.018406068664    -0.021472191648    0.000236559038    0.000209436172    0.041639119263    0.008193843588
0.600     -0.075888965762    0.044189270123    0.000201302978    -0.000139222640    -0.039373145267    0.043363845951    0.000251361208    -0.000233134335
            0.000201635344    -0.000139539807    -0.088185943368    0.000174491970    0.000133963783    -0.000080934501    -0.054850050613    0.018544060487
            -0.039092066901    0.044183399378    0.000134128568    -0.000080724433    -0.075451106566    0.048518509655    0.000206097852    -0.000143855344
            0.000251458994    -0.000233062461    -0.054371165670    0.019098005092    0.000206815062    -0.000144144071    -0.089829669183    0.004330920120
0.625     -0.022195957790    0.083765044795    0.000031961152    -0.000230688062    0.008250998771    0.032287337746    -0.000023357070    -0.000241927944
            0.000031317524    -0.000231270247    -0.037633791137    0.094562671058    0.000023917842    -0.000189878798    -0.003637383722    0.043447252832
            0.009248818318    0.032870209547    0.000024395503    -0.000190331578    -0.018499169983    0.083274182467    0.000044086895    -0.000267731633
            -0.000023112386    -0.000242208898    -0.002537470910    0.043864672856    0.000043531152    -0.000268549708    -0.032954072086    0.090605708808
0.650     -0.019708676381    0.010289163913    -0.000300554697    -0.000119572976    -0.040614298307    -0.012291940971    -0.000356280190    -0.000166760475
            -0.000300998669    -0.000118673531    -0.003734777441    0.017409586823    -0.000216700723    -0.000061375397    -0.029603986048    -0.007857976738
            -0.039414075688    -0.012744599306    -0.000217536036    -0.000061807945    -0.020422335494    0.009307657407    -0.000344917107    -0.000129155222
            -0.000356790394    -0.000167034507    -0.028383063189    -0.008334586255    -0.000345449903    -0.000128297784    -0.008791526129    0.012172503193
0.675     -0.076303477363    0.049766892170    -0.000132554822    0.000217891000    -0.066139895228    0.062033660122    -0.000191986906    0.000316827331
            -0.000131660147    0.000218195932    -0.067252930991    0.053489130270    -0.000105058579    0.000126254878    -0.063286139576    0.061299820441
            -0.065753034277    0.060882691007    -0.000105318645    0.000127163114    -0.073443353821    0.050896017894    -0.000157587282    0.000243733579
            -0.000192242644    0.000317434210    -0.062668377173    0.060290970800    -0.000156729224    0.000243873025    -0.067018397189    0.055743361815
0.700     -0.027047758460    0.054877462115    0.000057306707    0.000249344279    -0.003838400477    0.051839343680    0.000086607457    0.000330629761
            0.000057575225    0.000248430181    0.011921142858    0.062236829786    0.000042049491    0.000215523917    0.013612701564    0.054708587905
            -0.004326067745    0.050886631252    0.000043005437    0.000215858108    -0.024848950114    0.049559278229    0.000081270130    0.000300946675
            0.000087286284    0.000330924079    0.013638653774    0.053640652458    0.000081131963    0.000300165742    0.014701673128    0.053398181516
0.725     -0.110078535551    0.026283738053    0.000348124901    -0.000054101298    -0.075449390647    0.035597459756    0.000549266765    -0.000036281083
            0.000347831355    -0.000054208687    -0.072894249732    -0.034135721275    0.000232985856    -0.000051950613    -0.062536246764    0.014311156885
            -0.076178826685    0.035292214017    0.000233040869    -0.000052746683    -0.114719326440    0.025054935570    0.000395850251    -0.000083133161
            0.000549405368    -0.000036830093    -0.062612559148    0.013948185309    0.000395294199    -0.000082716744    -0.084288780187    -0.038070294585
0.750     -0.115273531631    0.177180261653    -0.000029260633    -0.000232285778    -0.054315868212    0.143788993962    -0.000087426620    -0.000439964326
            -0.000029672497    -0.000231947577    -0.147566219305    0.136742666783    0.000019051654    -0.000111676661    -0.081330405966    0.127509690525
            -0.055066596094    0.143794369046    0.000018429066    -0.000111808108    -0.112733723816    0.179718250041    -0.000033263541    -0.000242397755
            -0.000087812230    -0.000440253816    -0.081659640926    0.126894833489    -0.000032947606    -0.000242007153    -0.147726002530    0.142666411212
0.775     0.041377106025    0.162890749078    -0.000057658186    -0.000147491233    0.057091640054    0.104051988368    -0.000132260080    -0.000108362873
            -0.000057206782    -0.000146411504    0.041625672083    0.171316590653    -0.000024679099    -0.000180439917    0.048311891881    0.116775558050
            0.056182373364    0.104595011182    -0.000025284306    -0.000180041455    0.042524346955    0.157449021490    -0.000066483411    -0.000186544002
