# GHz S RI R 45
0.000     0.036440782491    0.001840210826    -0.000000014000    -0.000000092209    0.001054547056    0.001573207201    -0.000000016964    -0.000000096063
            -0.000000014000    -0.000000092209    0.034908363436    0.001501005773    -0.000000000917    -0.000000071401    0.000918283028    0.001334878724
            0.001054546891    0.001573207191    -0.000000000917    -0.000000071401    0.036378770992    0.001828284882    -0.000000003826    -0.000000075356
            -0.000000016964    -0.000000096063    0.000918282752    0.001334878672    -0.000000003826    -0.000000075356    0.034894601312    0.001485508229
0.025     0.044618376830    0.005818098848    -0.000000120335    -0.000000177660    0.005092667596    0.011296910199    -0.000000129149    -0.000000185330
            -0.000000120336    -0.000000177660    0.042441901881    0.004502232365    -0.000000080490    -0.000000146755    0.004451221366    0.009659185874
            0.005091071605    0.011300144557    -0.000000080490    -0.000000146755    0.044545931777    0.005801589832    -0.000000088954    -0.000000154056
            -0.000000129149    -0.000000185330    0.004451359886    0.009658405231    -0.000000088954    -0.000000154058    0.042380684485    0.004449707474
0.050     0.054053455792    0.000776090923    -0.000000354575    -0.000000197086    0.015466499712    0.017445583994    -0.000000374120    -0.000000203970
            -0.000000354575    -0.000000197086    0.051087350367    -0.000628396890    -0.000000270160    -0.000000178257    0.013725471467    0.015008146346
            0.015466488175    0.017445624959    -0.000000270160    -0.000000178257    0.053960944064    0.000773386652    -0.000000289080    -0.000000184492
            -0.000000374120    -0.000000203970    0.013725491787    0.015008129117    -0.000000289080    -0.000000184492    0.050996338162    -0.000672183465
0.075     0.060355664090    -0.011508983714    -0.000000588676    -0.000000024402    0.027605935521    0.015443477554    -0.000000617578    -0.000000021846
            -0.000000588676    -0.000000024402    0.057439161281    -0.012142714614    -0.000000473101    -0.000000052947    0.025034730564    0.013307073678
            0.027605931144    0.015443483329    -0.000000473101    -0.000000052947    0.060288782851    -0.011468684539    -0.000000500987    -0.000000049680
            -0.000000617578    -0.000000021846    0.025034729543    0.013307079860    -0.000000500987    -0.000000049680    0.057345128078    -0.012157225330
0.100     0.059391498667    -0.029023489135    -0.000000700050    0.000000318315    0.036154384537    0.005560016890    -0.000000732060    0.000000336890
            -0.000000700050    0.000000318315    0.058010625870    -0.028721465794    -0.000000585933    0.000000220849    0.033883814147    0.004425059114
            0.036154384508    0.005560017080    -0.000000585933    0.000000220849    0.059403909705    -0.028949227621    -0.000000616614    0.000000239828
            -0.000000732060    0.000000336890    0.033883815115    0.004425059421    -0.000000616614    0.000000239828    0.057961239287    -0.028694643638
0.125     0.048133946580    -0.047106349455    -0.000000589839    0.000000738665    0.036732867832    -0.008929675895    -0.000000615167    0.000000775623
            -0.000000589839    0.000000738665    0.049909909165    -0.046821652175    -0.000000519727    0.000000572621    0.036359127614    -0.009312157778
            0.036732867832    -0.008929675895    -0.000000519727    0.000000572621    0.048277705686    -0.047043456165    -0.000000543851    0.000000609586
            -0.000000615167    0.000000775623    0.036359127776    -0.009312157143    -0.000000543851    0.000000609586    0.049968124052    -0.046774082614
0.150     0.026527604434    -0.059741475997    -0.000000224595    0.000001094332    0.027459504279    -0.022665918186    -0.000000232584    0.000001146336
            -0.000000224595    0.000001094332    0.032459889397    -0.061593127804    -0.000000238768    0.000000884820    0.030328320131    -0.023728321933
            0.027459504279    -0.022665918186    -0.000000238768    0.000000884820    0.026827145172    -0.059770503482    -0.000000246012    0.000000936470
            -0.000000232584    0.000001146336    0.030328320131    -0.023728321933    -0.000000246012    0.000000936470    0.032660705639    -0.061587499209
0.175     -0.001946457680    -0.061169469976    0.000000341752    0.000001237642    0.009747008639    -0.029840015959    0.000000359661    0.000001295359
            0.000000341752    0.000001237642    0.007724634030    -0.067986993473    0.000000219146    0.000001032290    0.016168951627    -0.033949312239
            0.009747008639    -0.029840015959    0.000000219146    0.000001032290    -0.001516775467    -0.061389469054    0.000000237079    0.000001089631
            0.000000359661    0.000001295359    0.016168951627    -0.033949312239    0.000000237079    0.000001089631    0.008072278835    -0.068107911376
0.200     -0.030748771307    -0.048119490938    0.000000975212    0.000001066193    -0.011787460549    -0.026112017860    0.000001022169    0.000001115668
            0.000000975212    0.000001066193    -0.019592400587    -0.062475938119    0.000000748143    0.000000924737    -0.003122206633    -0.035813789344
            -0.011787460549    -0.026112017860    0.000000748143    0.000000924737    -0.030274913539    -0.048615321779    0.000000794402    0.000000974198
            0.000001022169    0.000001115668    -0.003122206633    -0.035813789344    0.000000794402    0.000000974198    -0.019144140101    -0.062811733638
0.225     -0.052031397186    -0.021275306662    0.000001497366    0.000000563060    -0.030546627121    -0.010280414100    0.000001568630    0.000000588971
            0.000001497366    0.000000563060    -0.043243137746    -0.044293336524    0.000001203642    0.000000540751    -0.022593248002    -0.027192060931
            -0.030546627121    -0.010280414100    0.000001203642    0.000000540751    -0.051648489726    -0.022079113278    0.000001273600    0.000000567265
            0.000001568630    0.000000588971    -0.022593248002    -0.027192060931    0.000001273600    0.000000567265    -0.042793218266    -0.044903365707
0.250     -0.059044007039    0.014371118541    0.000001738327    -0.000000189585    -0.040028498313    0.014969689381    0.000001820835    -0.000000199282
            0.000001738327    -0.000000189585    -0.057046396516    -0.016023180593    0.000001445050    -0.000000061726    -0.036644278513    -0.008819087034
            -0.040028498313    0.014969689381    0.000001445050    -0.000000061726    -0.058900465285    0.013305944138    0.000001525716    -0.000000070003
            0.000001820835    -0.000000199282    -0.036644278513    -0.008819087034    0.000001525716    -0.000000070003    -0.056724996513    -0.016907167991
0.275     -0.048432418822    0.050674618826    0.000001588990    -0.000001028973    -0.036019345555    0.043682827094    0.000001663908    -0.000001078453
            0.000001588990    -0.000001028973    -0.056649816000    0.016773245280    0.000001376302    -0.000000759366    -0.040622277882    0.015692730958
            -0.036019345555    0.043682827094    0.000001376302    -0.000000759366    -0.048642301452    0.049475562772    0.000001448950    -0.000000806172
            0.000001663908    -0.000001078453    -0.040622277882    0.015692730958    0.000001448950    -0.000000806172    -0.056581526693    0.015689212798
0.300     -0.021526949453    0.078631307276    0.000001032852    -0.000001753208    -0.018042650193    0.068410409278    0.000001080708    -0.000001836265
            0.000001032852    -0.000001753208    -0.040905471710    0.046810592802    0.000000969827    -0.000001393585    -0.032221933054    0.040697777141
            -0.018042650193    0.068410409278    0.000000969827    -0.000001393585    -0.022126511238    0.077479882238    0.000001015413    -0.000001472191
            0.000001080708    -0.000001836265    -0.032221933054    0.040697777141    0.000001015413    -0.000001472191    -0.041168243829    0.045665853297
0.325     0.015909460555    0.090971154011    0.000000153086    -0.000002171002    0.010479117103    0.082406941757    0.000000159339    -0.000002272161
            0.000000153086    -0.000002171002    -0.012381622375    0.066906133446    0.000000274765    -0.000001805337    -0.012223590233    0.059968084952
            0.010479117103    0.082406941757    0.000000274765    -0.000001805337    0.014983381765    0.090054268944    0.000000279869    -0.000001899904
            0.000000159339    -0.000002272161    -0.012223590233    0.059968084952    0.000000279869    -0.000001899904    -0.012973900328    0.065874466152
0.350     0.055200972727    0.084119247004    -0.000000883317    -0.000002144872    0.043193835582    0.081442821579    -0.000000924107    -0.000002243188
            -0.000000883317    -0.000002144872    0.023105593284    0.071814139913    -0.000000589065    -0.000001866808    0.015603213075    0.068299081621
            0.043193835582    0.081442821579    -0.000000589065    -0.000001866808    0.054105035984    0.083576832827    -0.000000628501    -0.000001956935
            -0.000000924107    -0.000002243188    0.015603213075    0.068299081621    -0.000000628501    -0.000001956935    0.022276498711    0.071059324127
0.375     0.086914159433    0.059038241934    -0.000001855817    -0.000001624063    0.072398263370    0.064788395036    -0.000001938982    -0.000001698239
            -0.000001855817    -0.000001624063    0.057800965571    0.059554836391    -0.000001447002    -0.000001511419    0.045352526297    0.062808130689
            0.072398263370    0.064788395036    -0.000001447002    -0.000001511419    0.085866405238    0.058919173214    -0.000001525359    -0.000001577345
            -0.000001938982    -0.000001698239    0.045352526297    0.062808130689    -0.000001525359    -0.000001577345    0.056907997153    0.059183980627
0.400     0.102990377334    0.021033851452    -0.000002530111    -0.000000663351    0.090737277480    0.035425166204    -0.000002642142    -0.000000696024
            -0.000002530111    -0.000000663351    0.083747428334    0.031968725330    -0.000002096737    -0.000000757438    0.070301500741    0.043674470168
            0.090737277480    0.035425166204    -0.000002096737    -0.000000757438    0.102221146894    0.021271220311    -0.000002200659    -0.000000783979
            -0.000002642142    -0.000000696024    0.070301500741    0.043674470168    -0.000002200659    -0.000000783979    0.083009311654    0.031995311924
0.425     0.098531540758    -0.021245448731    -0.000002707102    0.000000572041    0.092796821783    -0.000378084710    -0.000002828127    0.000000591393
            -0.000002707102    0.000000572041    0.094547612445    -0.005582440125    -0.000002350031    0.000000276834    0.084377578118    0.014207296393
            0.092796821783    -0.000378084710    -0.000002350031    0.000000276834    0.098223930559    -0.020835091779    -0.000002461243    0.000000298474
            -0.000002828127    0.000000591393    0.084377578118    0.014207296393    -0.000002461243    0.000000298474    0.094179767661    -0.005256439702
0.450     0.073132111846    -0.057425050816    -0.000002275815    0.000001823481    0.076556472017    -0.034078165146    -0.000002382300    0.000001896702
            -0.000002275815    0.000001823481    0.086825082525    -0.045233429284    -0.000002084115    0.000001379550    0.083534973961    -0.019703521115
            0.076556472017    -0.034078165146    -0.000002084115    0.000001379550    0.073363557034    -0.057112902490    -0.000002181545    0.000001450671
            -0.000002382300    0.000001896702    0.083534973961    -0.019703521115    -0.000002181545    0.000001450671    0.086983297128    -0.044809734113
0.475     0.031538583055    -0.077619248066    -0.000001263304    0.000002786134    0.044449615889    -0.056596181993    -0.000001331188    0.000002904757
            -0.000001263304    0.000002786134    0.061123542918    -0.078187456034    -0.000001294365    0.000002283223    0.066795426501    -0.050699595233
            0.044449615889    -0.056596181993    -0.000001294365    0.000002283223    0.032237569490    -0.077704513821    -0.000001356349    0.000002396354
            -0.000001331188    0.000002904757    0.066795426501    -0.050699595233    -0.000001356349    0.000002396354    0.061855322834    -0.077936794668
0.500     -0.016785435002    -0.075089164007    0.000000144124    0.000003187090    0.003521737109    -0.060760907620    0.000000134929    0.000003331385
            0.000000144124    0.000003187090    0.022064353294    -0.096607111485    -0.000000120736    0.000002735189    0.036755272909    -0.071504555817
            0.003521737109    -0.060760907620    -0.000000120736    0.000002735189    -0.015847850755    -0.075815092435    -0.000000128540    0.000002872748
            0.000000134929    0.000003331385    0.036755272909    -0.071504555817    -0.000000128540    0.000002872748    0.023278417067    -0.096810623454
0.525     -0.059668371547    -0.048656013131    0.000001630525    0.000002876440    -0.035952593553    -0.043820073154    0.000001689844    0.000003016846
            0.000001630525    0.000002876440    -0.022402894287    -0.095484867305    0.000001173784    0.000002583205    -0.000695448461    -0.076651562214
            -0.035952593553    -0.043820073154    0.000001173784    0.000002583205    -0.058836620067    -0.050125083410    0.000001230004    0.000002717982
            0.000001689844    0.000003016846    -0.000695448461    -0.076651562214    0.000001230004    0.000002717982    -0.020933376968    -0.096362186576
0.550     -0.085657262087    -0.003719820807    0.000002836260    0.000001886821    -0.063400156128    -0.008868642909    0.000002958217    0.000001989730
            0.000002836260    0.000001886821    -0.062641044279    -0.074049137079    0.000002278727    0.000001832010    -0.037527987301    -0.063994203009
            -0.063400156128    -0.008868642909    0.000002278727    0.000001832010    -0.085300004021    -0.005841465576    0.000002393977    0.000001932331
            0.000002958217    0.000001989730    -0.037527987301    -0.063994203009    0.000002393977    0.000001932331    -0.061238270395    -0.075692361346
0.575     -0.087648721776    0.049046444090    0.000003467700    0.000000428892    -0.071347030246    0.035863193990    0.000003628933    0.000000466251
            0.000003467700    0.000000428892    -0.089569690581    -0.036210182048    0.000002932570    0.000000641813    -0.065438215110    -0.035464612476
            -0.071347030246    0.035863193990    0.000002932570    0.000000641813    -0.088049905377    0.046545303031    0.000003085016    0.000000680919
            0.000003628933    0.000000466251    -0.065438215110    -0.035464612476    0.000003085016    0.000000680919    -0.088578168488    -0.038545329332
0.600     -0.065035809255    0.096995631254    0.000003375553    -0.000001178118    -0.057668638724    0.079674179777    0.000003540471    -0.000001219258
            0.000003375553    -0.000001178118    -0.096927403245    0.010213273996    0.000002990211    -0.000000731228    -0.077924044593    0.003233846192
            -0.057668638724    0.079674179777    0.000002990211    -0.000000731228    -0.066309285681    0.094499806178    0.000003146040    -0.000000765597
            0.000003540471    -0.000001219258    -0.077924044593    0.003233846192    0.000003146040    -0.000000765597    -0.096627352409    0.007422023990
0.625     -0.023430354181    0.129250616967    0.000002575847    -0.000002597474    -0.025699912154    0.112639385761    0.000002706811    -0.000002710532
            0.000002575847    -0.000002597474    -0.082833621366    0.055345105096    0.000002439629    -0.000002009758    -0.071895725413    0.043987796926
            -0.025699912154    0.112639385761    0.000002439629    -0.000002009758    -0.025490270913    0.127154773322    0.000002563218    -0.000002110881
            0.000002706811    -0.000002710532    -0.071895725413    0.043987796926    0.000002563218    -0.000002110881    -0.083367833130    0.052448373242
0.650     0.027492866131    0.139295923688    0.000001220673    -0.000003545977    0.017332133094    0.127966084707    0.000001288511    -0.000003707305
            0.000001220673    -0.000003545977    -0.050186258823    0.089617828915    0.000001377888    -0.000002949911    -0.048356398266    0.078225700716
            0.017332133094    0.127966084707    0.000001377888    -0.000002949911    0.024906090758    0.137908481562    0.000001442351    -0.000003094708
            0.000001288511    -0.000003707305    -0.048356398266    0.078225700716    0.000001442351    -0.000003094708    -0.051519693334    0.087001126224
0.675     0.076726909968    0.125821061236    -0.000000445587    -0.000003832132    0.062423572051    0.122906065161    -0.000000455058    -0.000004008381
            -0.000000445587    -0.000003832132    -0.005848598770    0.105924979035    -0.000000018810    -0.000003368141    -0.012020152789    0.098836165777
            0.062423572051    0.122906065161    -0.000000018810    -0.000003368141    0.073984649441    0.125300346228    -0.000000025275    -0.000003524979
            -0.000000455058    -0.000004008381    -0.012020152789    0.098836165777    -0.000000025275    -0.000003524979    -0.007771189972    0.103923006710
0.700     0.114211284372    0.092270784073    -0.000002125928    -0.000003370206    0.100566375340    0.098675791924    -0.000002210735    -0.000003526875
            -0.000002125928    -0.000003370206    0.040997508597    0.101036617823    -0.000001517612    -0.000003152976    0.029835041638    0.101583669583
            0.100566375340    0.098675791924    -0.000001517612    -0.000003152976    0.111721000621    0.092594851330    -0.000001591671    -0.000003290516
            -0.000002210735    -0.000003526875    0.029835041638    0.101583669583    -0.000001591671    -0.000003290516    0.038830070418    0.099859269949
0.725     0.132383593466    0.045817620400    -0.000003502132    -0.000002191264    0.124029280184    0.059981396751    -0.000003647100    -0.000002299086
            -0.000003502132    -0.000002191264    0.080812944575    0.076070498122    -0.000002845193    -0.000002282811    0.068889837027    0.085798965300
            0.124029280184    0.059981396751    -0.000002845193    -0.000002282811    0.130511659365    0.046784068281    -0.000002971984    -0.000002375696
            -0.000003647100    -0.000002299086    0.068889837027    0.085798965300    -0.000002971984    -0.000002375696    0.078811269448    0.075754897259
0.750     0.127258888482    -0.003811020931    -0.000004269293    -0.000000455648    0.127478530857    0.014474855094    -0.000004449936    -0.000000493948
            -0.000004269293    -0.000000455648    0.105552600785    0.036120621610    -0.000003712659    -0.000000850067    0.097349413773    0.054422426965
            0.127478530857    0.014474855094    -0.000003712659    -0.000000850067    0.126255845559    -0.002559183880    -0.000003870173    -0.000000881219
            -0.000004449936    -0.000000493948    0.097349413773    0.054422426965    -0.000003870173    -0.000000881219    0.104112254988    0.036516447961
0.775     0.099312324308    -0.045709147487    -0.000004191403    0.000001537324    0.109189421315    -0.028094870870    -0.000004377211    0.000001579344
            -0.000004191403    0.000001537324    0.110143680200    -0.010763110623    -0.000003867508    0.000000914596    0.109352419242    0.013471379870
            0.109189421315    -0.028094870870    -0.000003867508    0.000000914596    0.099245833911    -0.044627855821    -0.000004029531    0.000000953903
