# GHz S RI R 45
0.000     0.036440782491    0.001840210826    -0.000004981769    -0.000010381664    0.001054547056    0.001573207201    -0.000005812065    -0.000012535760
            -0.000004981534    -0.000010381664    0.037192001296    0.001438789380    -0.000003756603    -0.000008810105    0.001162431406    0.001624224591
            0.001054546891    0.001573207191    -0.000003756880    -0.000008810106    0.036378770992    0.001828284882    -0.000004724387    -0.000010448193
            -0.000005812091    -0.000012535759    0.001162430719    0.001624224590    -0.000004724369    -0.000010448193    0.037131685238    0.001425267549
0.025     0.044618376830    0.005818098848    -0.000013670081    -0.000021212090    0.005092667596    0.011296910199    -0.000016164611    -0.000025168572
            -0.000013670087    -0.000021212083    0.043319295454    0.005904975410    -0.000011103692    -0.000017812311    0.003873360909    0.012445865455
            0.005091071605    0.011300144557    -0.000011103697    -0.000017812318    0.044545931777    0.005801589832    -0.000012963996    -0.000019730476
            -0.000016164615    -0.000025168567    0.003873927324    0.012444877485    -0.000012963979    -0.000019730474    0.043261114596    0.005868299777
0.050     0.054053455792    0.000776090923    -0.000032537915    -0.000032486448    0.015466499712    0.017445583994    -0.000038400654    -0.000038476410
            -0.000032537916    -0.000032486448    0.048060585647    0.003997769537    -0.000026918318    -0.000027209205    0.011237987591    0.021822653002
            0.015466488175    0.017445624959    -0.000026918319    -0.000027209205    0.053960944064    0.000773386652    -0.000030620721    -0.000029948579
            -0.000038400655    -0.000038476411    0.011238051921    0.021822674990    -0.000030620721    -0.000029948578    0.047937462074    0.003958395293
0.075     0.060355664090    -0.011508983714    -0.000056053369    -0.000033583933    0.027605935521    0.015443477554    -0.000066155857    -0.000039918285
            -0.000056053369    -0.000033583933    0.049474403412    -0.000802656397    -0.000046608999    -0.000028060013    0.020444948900    0.026184293870
            0.027605931144    0.015443483329    -0.000046608999    -0.000028060013    0.060288782851    -0.011468684539    -0.000052435799    -0.000030649380
            -0.000066155858    -0.000039918285    0.020444954860    0.026184293023    -0.000052435799    -0.000030649380    0.049321820343    -0.000789765734
0.100     0.059391498667    -0.029023489135    -0.000080698371    -0.000024129235    0.036154384537    0.005560016890    -0.000095411562    -0.000028923579
            -0.000080698371    -0.000024129235    0.046303840084    -0.006541212622    -0.000067189465    -0.000020049958    0.028283185855    0.025706446458
            0.036154384508    0.005560017080    -0.000067189465    -0.000020049958    0.059403909705    -0.028949227621    -0.000075187481    -0.000021551924
            -0.000095411563    -0.000028923579    0.028283185115    0.025706445786    -0.000075187482    -0.000021551924    0.046178133362    -0.006450808166
0.125     0.048133946580    -0.047106349455    -0.000103387865    -0.000003988477    0.036732867832    -0.008929675895    -0.000122478694    -0.000005177770
            -0.000103387865    -0.000003988477    0.038104264251    -0.010278738289    -0.000086051731    -0.000003094963    0.032282367400    0.022341043688
            0.036732867832    -0.008929675895    -0.000086051731    -0.000003094963    0.048277705686    -0.047043456165    -0.000096026120    -0.000002519732
            -0.000122478694    -0.000005177770    0.032282367400    0.022341043688    -0.000096026120    -0.000002519732    0.038074403242    -0.010134566168
0.150     0.026527604434    -0.059741475997    -0.000120818453    0.000026875326    0.027459504279    -0.022665918186    -0.000143290668    0.000031425459
            -0.000120818453    0.000026875326    0.026194620243    -0.008994528027    -0.000100429227    0.000022789368    0.031558010206    0.019133833051
            0.027459504279    -0.022665918186    -0.000100429227    0.000022789368    0.026827145172    -0.059770503482    -0.000111834971    0.000026494380
            -0.000143290668    0.000031425459    0.031558010206    0.019133833051    -0.000111834971    0.000026494380    0.026318040691    -0.008864467771
0.175     -0.001946457680    -0.061169469976    -0.000128526975    0.000068076290    0.009747008639    -0.029840015959    -0.000152446968    0.000080294510
            -0.000128526975    0.000068076290    0.013696863503    -0.000597690013    -0.000106585641    0.000057248909    0.027177323856    0.019139687333
            0.009747008639    -0.029840015959    -0.000106585641    0.000057248909    -0.001516775467    -0.061389469054    -0.000118368989    0.000065093543
            -0.000152446968    0.000080294510    0.027177323856    0.019139687333    -0.000118368989    0.000065093543    0.013976916345    -0.000589727791
0.200     -0.030748771307    -0.048119490938    -0.000120760630    0.000116872273    -0.011787460549    -0.026112017860    -0.000143210551    0.000138000203
            -0.000120760630    0.000116872273    0.004698181951    0.015023179950    -0.000099714201    0.000097928545    0.021889170038    0.024287992498
            -0.011787460549    -0.026112017860    -0.000099714201    0.000097928545    -0.030274913539    -0.048615321779    -0.000110189348    0.000110570601
            -0.000143210551    0.000138000203    0.021889170038    0.024287992498    -0.000110189348    0.000110570601    0.005065079462    0.014803353742
0.225     -0.052031397186    -0.021275306662    -0.000092397764    0.000166531807    -0.030546627121    -0.010280414100    -0.000109743416    0.000196544001
            -0.000092397764    0.000166531807    0.003021367432    0.035588460162    -0.000075575424    0.000139117797    0.019185916645    0.034531207361
            -0.030546627121    -0.010280414100    -0.000075575424    0.000139117797    -0.051648489726    -0.022079113278    -0.000082560880    0.000156401755
            -0.000109743416    0.000196544001    0.019185916645    0.034531207361    -0.000082560880    0.000156401755    0.003341596958    0.035085386308
0.250     -0.059044007039    0.014371118541    -0.000042326406    0.000206842685    -0.040028498313    0.014969689381    -0.000050921203    0.000244039673
            -0.000042326406    0.000206842685    0.010824199914    0.056868346140    -0.000033367450    0.000172204878    0.021987647786    0.047733608421
            -0.040028498313    0.014969689381    -0.000033367450    0.000172204878    -0.058900465285    0.013305944138    -0.000034699544    0.000192824149
            -0.000050921203    0.000244039673    0.021987647786    0.047733608421    -0.000034699544    0.000192824149    0.010940278412    0.056111702150
0.275     -0.048432418822    0.050674618826    0.000024350244    0.000227400926    -0.036019345555    0.043682827094    0.000027263937    0.000268495383
            0.000024350244    0.000227400926    0.027666026271    0.073891980301    0.000022454074    0.000188516636    0.031498721075    0.060382027131
            -0.036019345555    0.043682827094    0.000022454074    0.000188516636    -0.048642301452    0.049475562772    0.000028199826    0.000210081812
            0.000027263937    0.000268495383    0.031498721075    0.060382027131    0.000028199826    0.000210081812    0.027451056254    0.073001737351
0.300     -0.021526949453    0.078631307276    0.000097190391    0.000222003433    -0.018042650193    0.068410409278    0.000112755337    0.000262777082
            0.000097190391    0.000222003433    0.050473723538    0.082565191816    0.000083003553    0.000183034582    0.046754027800    0.068843807534
            -0.018042650193    0.068410409278    0.000083003553    0.000183034582    -0.022126511238    0.077479882238    0.000095952935    0.000202640244
            0.000112755337    0.000262777082    0.046754027800    0.068843807534    0.000095952935    0.000202640244    0.049881035957    0.081721151256
0.325     0.015909460555    0.090971154011    0.000164302931    0.000191088822    0.010479117103    0.082406941757    0.000191860492    0.000227350162
            0.000164302931    0.000191088822    0.074446682703    0.080947690426    0.000138323866    0.000156373453    0.064970302190    0.070562544456
            0.010479117103    0.082406941757    0.000138323866    0.000156373453    0.014983381765    0.090054268944    0.000157218751    0.000171432533
            0.000191860492    0.000227350162    0.064970302190    0.070562544456    0.000157218751    0.000171432533    0.073533503464    0.080337527382
0.350     0.055200972727    0.084119247004    0.000216737185    0.000140905213    0.043193835582    0.081442821579    0.000254266136    0.000169312112
            0.000216737185    0.000140905213    0.094466566057    0.069804852746    0.000181076819    0.000113947786    0.082441939746    0.064797851956
            0.043193835582    0.081442821579    0.000181076819    0.000113947786    0.054105035984    0.083576832827    0.000203766117    0.000122889165
            0.000254266136    0.000169312112    0.082441939746    0.064797851956    0.000203766117    0.000122889165    0.093385304375    0.069565919230
0.375     0.086914159433    0.059038241934    0.000250939434    0.000080064504    0.072398263370    0.064788395036    0.000295818782    0.000098438991
            0.000250939434    0.000080064504    0.106464670102    0.052324426044    0.000208492333    0.000063007761    0.095555022976    0.052772759662
            0.072398263370    0.064788395036    0.000208492333    0.000063007761    0.085866405238    0.058919173214    0.000232728983    0.000065457490
            0.000295818782    0.000098438991    0.095555022976    0.052772759662    0.000232728983    0.000065457490    0.105426806893    0.052499324347
0.400     0.102990377334    0.021033851452    0.000268427215    0.000015647493    0.090737277480    0.035425166204    0.000318112550    0.000022715325
            0.000268427215    0.000015647493    0.108428056160    0.033307715854    0.000221979874    0.000009401606    0.101707653358    0.037402556973
            0.090737277480    0.035425166204    0.000221979874    0.000009401606    0.102221146894    0.021271220311    0.000246100686    0.000005823180
            0.000318112550    0.000022715325    0.101707653358    0.037402556973    0.000246100686    0.000005823180    0.107648602506    0.033821546218
0.425     0.098531540758    -0.021245448731    0.000273011452    -0.000049465261    0.092796821783    -0.000378084710    0.000325229553    -0.000054684856
            0.000273011452    -0.000049465261    0.100930283965    0.018039265790    0.000224758480    -0.000044551467    0.100030571066    0.022673139853
            0.092796821783    -0.000378084710    0.000224758480    -0.000044551467    0.098223930559    -0.020835091779    0.000247885496    -0.000053609541
            0.000325229553    -0.000054684856    0.100030571066    0.022673139853    0.000247885496    -0.000053609541    0.100565023164    0.018706263863
0.450     0.073132111846    -0.057425050816    0.000266867587    -0.000116786480    0.076556472017    -0.034078165146    0.000319217207    -0.000135435785
            0.000266867587    -0.000116786480    0.087190823221    0.011019410434    0.000218612872    -0.000100140432    0.091869984873    0.012713529609
            0.076556472017    -0.034078165146    0.000218612872    -0.000100140432    0.073363557034    -0.057112902490    0.000240231425    -0.000114667010
            0.000319217207    -0.000135435785    0.091869984873    0.012713529609    0.000240231425    -0.000114667010    0.087280141857    0.011582318621
0.475     0.031538583055    -0.077619248066    0.000247093083    -0.000189247191    0.044449615889    -0.056596181993    0.000296323618    -0.000222538484
            0.000247093083    -0.000189247191    0.072535077325    0.014632217870    0.000201083854    -0.000159762499    0.080772448483    0.010541265462
            0.044449615889    -0.056596181993    0.000201083854    -0.000159762499    0.032237569490    -0.077704513821    0.000220226023    -0.000180355473
            0.000296323618    -0.000222538484    0.080772448483    0.010541265462    0.000220226023    -0.000180355473    0.072970192785    0.014832762729
0.500     -0.016785435002    -0.075089164007    0.000205548970    -0.000265778648    0.003521737109    -0.060760907620    0.000247058309    -0.000314171877
            0.000205548970    -0.000265778648    0.063108904623    0.028084395489    0.000165396412    -0.000222392471    0.071696402736    0.016805875061
            0.003521737109    -0.060760907620    0.000165396412    -0.000222392471    -0.015847850755    -0.075815092435    0.000179969513    -0.000249597115
            0.000247058309    -0.000314171877    0.071696402736    0.016805875061    0.000179969513    -0.000249597115    0.063643436832    0.027749888587
0.525     -0.059668371547    -0.048656013131    0.000133700314    -0.000336733931    -0.035952593553    -0.043820073154    0.000161864548    -0.000398711768
            0.000133700314    -0.000336733931    0.063916992342    0.047166621130    0.000104609203    -0.000279780406    0.069367826666    0.029130340216
            -0.035952593553    -0.043820073154    0.000104609203    -0.000279780406    -0.058836620067    -0.050125083410    0.000111462303    -0.000312958540
            0.000161864548    -0.000398711768    0.069367826666    0.029130340216    0.000111462303    -0.000312958540    0.064231987346    0.046283852609
0.550     -0.085657262087    -0.003719820807    0.000030658106    -0.000384957821    -0.063400156128    -0.008868642909    0.000040103317    -0.000456207022
            0.000030658106    -0.000384957821    0.076889933189    0.065368377410    0.000018372667    -0.000317535792    0.076413585100    0.042706208993
            -0.063400156128    -0.008868642909    0.000018372667    -0.000317535792    -0.085300004021    -0.005841465576    0.000014328093    -0.000353993470
            0.000040103317    -0.000456207022    0.076413585100    0.042706208993    0.000014328093    -0.000353993470    0.076697372811    0.064104583698
0.575     -0.087648721776    0.049046444090    -0.000092065063    -0.000393618549    -0.071347030246    0.035863193990    -0.000104663214    -0.000467266255
            -0.000092065063    -0.000393618549    0.099998376305    0.076103056143    -0.000083169822    -0.000321874474    0.092256814539    0.052043249327
            -0.071347030246    0.035863193990    -0.000083169822    -0.000321874474    -0.088049905377    0.046545303031    -0.000099792897    -0.000356987611
            -0.000104663214    -0.000467266255    0.092256814539    0.052043249327    -0.000099792897    -0.000356987611    0.099140057771    0.074761015063
0.600     -0.065035809255    0.096995631254    -0.000213735073    -0.000355480723    -0.057668638724    0.079674179777    -0.000248385422    -0.000423550343
            -0.000213735073    -0.000355480723    0.128009851404    0.075001393607    -0.000182428978    -0.000287452313    0.113457179615    0.052974566423
            -0.057668638724    0.079674179777    -0.000182428978    -0.000287452313    -0.066309285681    0.094499806178    -0.000210677918    -0.000315903467
            -0.000248385422    -0.000423550343    0.113457179615    0.052974566423    -0.000210677918    -0.000315903467    0.126508846931    0.073924187062
0.625     -0.023430354181    0.129250616967    -0.000313310220    -0.000276400445    -0.025699912154    0.112639385761    -0.000366616155    -0.000331787210
            -0.000313310220    -0.000276400445    0.154373659486    0.061137162717    -0.000262112463    -0.000219972307    0.135088666577    0.043845537486
            -0.025699912154    0.112639385761    -0.000262112463    -0.000219972307    -0.025490270913    0.127154773322    -0.000298374153    -0.000237512551
            -0.000366616155    -0.000331787210    0.135088666577    0.043845537486    -0.000298374153    -0.000237512551    0.152423756310    0.060606986733
0.650     0.027492866131    0.139295923688    -0.000377343701    -0.000171698736    0.017332133094    0.127966084707    -0.000443623231    -0.000209733938
            -0.000377343701    -0.000171698736    0.173213386985    0.036896550916    -0.000311757376    -0.000132694519    0.152299603910    0.025613835637
            0.017332133094    0.127966084707    -0.000311757376    -0.000132694519    0.024906090758    0.137908481562    -0.000350910392    -0.000137483471
            -0.000443623231    -0.000209733938    0.152299603910    0.025613835637    -0.000350910392    -0.000137483471    0.171120224035    0.037063286088
0.675     0.076726909968    0.125821061236    -0.000402724569    -0.000059282755    0.062423572051    0.122906065161    -0.000475767567    -0.000078181517
            -0.000402724569    -0.000059282755    0.180642604391    0.006986805384    -0.000329619536    -0.000040430554    0.161363914660    0.001254365035
            0.062423572051    0.122906065161    -0.000329619536    -0.000040430554    0.073984649441    0.125300346228    -0.000366708980    -0.000033358289
            -0.000475767567    -0.000078181517    0.161363914660    0.001254365035    -0.000366708980    -0.000033358289    0.178745799451    0.007834461032
0.700     0.114211284372    0.092270784073    -0.000395063892    0.000046213134    0.100566375340    0.098675791924    -0.000469605129    0.000045941006
            -0.000395063892    0.000046213134    0.175357610162    -0.022774884980    -0.000320887790    0.000045171229    0.160257871635    -0.024974538306
            0.100566375340    0.098675791924    -0.000320887790    0.000045171229    0.111721000621    0.092594851330    -0.000352587933    0.000061273252
            -0.000469605129    0.000045941006    0.160257871635    -0.024974538306    -0.000352587933    0.000061273252    0.173952391010    -0.021423042212
0.725     0.132383593466    0.045817620400    -0.000364853646    0.000136796692    0.124029280184    0.059981396751    -0.000437252174    0.000153711761
            -0.000364853646    0.000136796692    0.158742588845    -0.046562402860    -0.000294334546    0.000118053465    0.148968925815    -0.048226741510
            0.124029280184    0.059981396751    -0.000294334546    0.000118053465    0.130511659365    0.046784068281    -0.000319561031    0.000139861328
            -0.000437252174    0.000153711761    0.148968925815    -0.048226741510    -0.000319561031    0.000139861328    0.158009874745    -0.045012488307
0.750     0.127258888482    -0.003811020931    -0.000322924770    0.000212354765    0.127478530857    0.014474855094    -0.000390778880    0.000245358156
            -0.000322924770    0.000212354765    0.134752727450    -0.059582965297    -0.000258715492    0.000178452805    0.129769223595    -0.063853735628
            0.127478530857    0.014474855094    -0.000258715492    0.000178452805    0.126255845559    -0.002559183880    -0.000278166938    0.000203677276
            -0.000390778880    0.000245358156    0.129769223595    -0.063853735628    -0.000278166938    0.000203677276    0.134703160541    -0.058206681523
0.775     0.099312324308    -0.045709147487    -0.000275323371    0.000279361224    0.109189421315    -0.028094870870    -0.000336269932    0.000328322965
            -0.000275323371    0.000279361224    0.109489504592    -0.059212888132    -0.000218798477    0.000231790533    0.107233971248    -0.068517046971
            0.109189421315    -0.028094870870    -0.000218798477    0.000231790533    0.099245833911    -0.044627855821    -0.000233601880    0.000259946557
            -0.000336269932    0.000328322965    0.107233971248    -0.068517046971    -0.000233601880    0.000259946557    0.109935219716    -0.058359284563
