# GHz S RI R 45
0.000     0.036440782491    0.001840210826    -0.000001679358    -0.000003663322    0.001054547056    0.001573207201    -0.000001864937    -0.000003996889
            -0.000001679358    -0.000003663322    0.037130613749    0.001339850531    -0.000001516492    -0.000003352684    0.001069975302    0.001459961697
            0.001054546891    0.001573207191    -0.000001516492    -0.000003352684    0.036378770992    0.001828284882    -0.000001665622    -0.000003622241
            -0.000001864937    -0.000003996889    0.001069975379    0.001459961641    -0.000001665623    -0.000003622241    0.037098004863    0.001328600588
0.025     0.044618376830    0.005818098848    -0.000004798824    -0.000007290453    0.005092667596    0.011296910199    -0.000005263533    -0.000007957756
            -0.000004798829    -0.000007290461    0.043571494692    0.006038599461    -0.000004368656    -0.000006680410    0.003914427933    0.012329051090
            0.005091071605    0.011300144557    -0.000004368647    -0.000006680394    0.044545931777    0.005801589832    -0.000004743286    -0.000007219361
            -0.000005263528    -0.000007957742    0.003913058313    0.012329049407    -0.000004743280    -0.000007219352    0.043482734487    0.006009057654
0.050     0.054053455792    0.000776090923    -0.000011281258    -0.000010889828    0.015466499712    0.017445583994    -0.000012334533    -0.000011902903
            -0.000011281258    -0.000010889828    0.048695599704    0.003828560901    -0.000010307403    -0.000009989434    0.011481832546    0.021355743960
            0.015466488175    0.017445624959    -0.000010307403    -0.000009989434    0.053960944064    0.000773386652    -0.000011159772    -0.000010808870
            -0.000012334534    -0.000011902904    0.011481835733    0.021355648011    -0.000011159772    -0.000010808870    0.048547452633    0.003829424666
0.075     0.060355664090    -0.011508983714    -0.000019151638    -0.000011059481    0.027605935521    0.015443477554    -0.000020943796    -0.000012114126
            -0.000019151638    -0.000011059481    0.050370675035    -0.001594850099    -0.000017529189    -0.000010153673    0.020793283031    0.025138739215
            0.027605931144    0.015443483329    -0.000017529189    -0.000010153673    0.060288782851    -0.011468684539    -0.000018982460    -0.000011004243
            -0.000020943796    -0.000012114126    0.020793287659    0.025138734089    -0.000018982460    -0.000011004243    0.050203364209    -0.001506246244
0.100     0.059391498667    -0.029023489135    -0.000027313609    -0.000007741429    0.036154384537    0.005560016890    -0.000029902021    -0.000008493146
            -0.000027313608    -0.000007741429    0.047142026344    -0.008189453881    -0.000025023800    -0.000007111618    0.028481730653    0.023913576735
            0.036154384508    0.005560017080    -0.000025023800    -0.000007111618    0.059403909705    -0.028949227621    -0.000027123437    -0.000007711029
            -0.000029902021    -0.000008493146    0.028481752782    0.023913569041    -0.000027123437    -0.000007711029    0.047025739843    -0.007990831210
0.125     0.048133946580    -0.047106349455    -0.000034777050    -0.000000903368    0.036732867832    -0.008929675895    -0.000038088425    -0.000000978601
            -0.000034777050    -0.000000903368    0.038380240820    -0.012854765293    -0.000031876768    -0.000000828894    0.031970609175    0.019786029686
            0.036732867832    -0.008929675895    -0.000031876768    -0.000000828894    0.048277705686    -0.047043456165    -0.000034559627    -0.000000872557
            -0.000038088425    -0.000000978601    0.031970608324    0.019786029160    -0.000034559627    -0.000000872557    0.038393783385    -0.012570846056
0.150     0.026527604434    -0.059741475997    -0.000040454513    0.000009487798    0.027459504279    -0.022665918186    -0.000044265186    0.000010442036
            -0.000040454513    0.000009487798    0.025529884241    -0.012210220484    -0.000037077164    0.000008720624    0.030363025841    0.016001792968
            0.027459504279    -0.022665918186    -0.000037077164    0.000008720624    0.026827145172    -0.059770503482    -0.000040156396    0.000009519740
            -0.000044265186    0.000010442036    0.030363025841    0.016001792968    -0.000040156396    0.000009519740    0.025744720890    -0.011934986188
0.175     -0.001946457680    -0.061169469976    -0.000042841856    0.000023290041    0.009747008639    -0.029840015959    -0.000046777560    0.000025541692
            -0.000042841856    0.000023290041    0.011803078323    -0.003999651300    -0.000039239639    0.000021396198    0.024840393448    0.015815698470
            0.009747008639    -0.029840015959    -0.000039239639    0.000021396198    -0.001516775467    -0.061389469054    -0.000042405494    0.000023252253
            -0.000046777560    0.000025541692    0.024840393448    0.015815698470    -0.000042405494    0.000023252253    0.012225078890    -0.003860878708
0.200     -0.030748771307    -0.048119490938    -0.000040023678    0.000039546301    -0.011787460549    -0.026112017860    -0.000043597723    0.000043212289
            -0.000040023678    0.000039546301    0.001547860712    0.012014838557    -0.000036607596    0.000036303737    0.018374609792    0.021272114693
            -0.011787460549    -0.026112017860    -0.000036607596    0.000036303737    -0.030274913539    -0.048615321779    -0.000039461104    0.000039303961
            -0.000043597723    0.000043212289    0.018374609792    0.021272114693    -0.000039461104    0.000039303961    0.002099629008    0.011891833613
0.225     -0.052031397186    -0.021275306662    -0.000030336930    0.000055967515    -0.030546627121    -0.010280414100    -0.000033019725    0.000060967214
            -0.000030336930    0.000055967515    -0.001089212359    0.033511859722    -0.000027668550    0.000051327599    0.014727551153    0.032295651394
            -0.030546627121    -0.010280414100    -0.000027668550    0.000051327599    -0.051648489726    -0.022079113278    -0.000029779997    0.000055396786
            -0.000033019725    0.000060967214    0.014727551153    0.032295651394    -0.000029779997    0.000055396786    -0.000557862106    0.033055948011
0.250     -0.059044007039    0.014371118541    -0.000013500503    0.000069140902    -0.040028498313    0.014969689381    -0.000014806564    0.000075191509
            -0.000013500503    0.000069140902    0.006312266945    0.056032046074    -0.000012192307    0.000063331492    0.017040703293    0.046568113911
            -0.040028498313    0.014969689381    -0.000012192307    0.000063331492    -0.058900465285    0.013305944138    -0.000013172485    0.000068230504
            -0.000014806564    0.000075191509    0.017040703293    0.046568113911    -0.000013172485    0.000068230504    0.006641670849    0.055265036581
0.275     -0.048432418822    0.050674618826    0.000008693323    0.000075666343    -0.036019345555    0.043682827094    0.000009126027    0.000082319136
            0.000008693323    0.000075666343    0.023404615707    0.074255927689    0.000008149557    0.000069214133    0.026606004108    0.060293009570
            -0.036019345555    0.043682827094    0.000008149557    0.000069214133    -0.048642301452    0.049475562772    0.000008585080    0.000074571710
            0.000009126027    0.000082319136    0.026606004108    0.060293009570    0.000008585080    0.000074571710    0.023378695990    0.073300950664
0.300     -0.021526949453    0.078631307276    0.000032735355    0.000073608307    -0.018042650193    0.068410409278    0.000035096800    0.000080315856
            0.000032735355    0.000073608307    0.047000273653    0.083738094965    0.000030126493    0.000067236091    0.042377555462    0.069547700929
            -0.018042650193    0.068410409278    0.000030126493    0.000067236091    -0.022126511238    0.077479882238    0.000032121125    0.000072605733
            0.000035096800    0.000080315856    0.042377555462    0.069547700929    0.000032121125    0.000072605733    0.046549221919    0.082790343498
0.325     0.015909460555    0.090971154011    0.000054732463    0.000063251868    0.010479117103    0.082406941757    0.000059037785    0.000069436459
            0.000054732463    0.000063251868    0.072013094369    0.082297001674    0.000050187732    0.000057695800    0.061352399747    0.071570009662
            0.010479117103    0.082406941757    0.000050187732    0.000057695800    0.014983381765    0.090054268944    0.000053742136    0.000062610975
            0.000059037785    0.000069436459    0.061352399747    0.071570009662    0.000053742136    0.000062610975    0.071178871908    0.081568665548
0.350     0.055200972727    0.084119247004    0.000071862873    0.000046747521    0.043193835582    0.081442821579    0.000077964467    0.000051854005
            0.000071862873    0.000046747521    0.092948988345    0.070632013080    0.000065785624    0.000042577640    0.079528744627    0.065548393168
            0.043193835582    0.081442821579    0.000065785624    0.000042577640    0.054105035984    0.083576832827    0.000070770052    0.000046594337
            0.000077964467    0.000051854005    0.079528744627    0.065548393168    0.000070770052    0.000046594337    0.091880876729    0.070290651157
0.375     0.086914159433    0.059038241934    0.000083129465    0.000026914579    0.072398263370    0.064788395036    0.000090743202    0.000030437113
            0.000083129465    0.000026914579    0.105367840085    0.052058496674    0.000076041142    0.000024447691    0.092989753053    0.052784663710
            0.072398263370    0.064788395036    0.000076041142    0.000024447691    0.085866405238    0.058919173214    0.000082219860    0.000027160351
            0.000090743202    0.000030437113    0.092989753053    0.052784663710    0.000082219860    0.000027160351    0.104286957241    0.052176736615
0.400     0.102990377334    0.021033851452    0.000089168807    0.000005943145    0.090737277480    0.035425166204    0.000097885216    0.000007439627
            0.000089168807    0.000005943145    0.106970302430    0.031682206939    0.000081547056    0.000005272123    0.098883393835    0.036416899268
            0.090737277480    0.035425166204    0.000081547056    0.000005272123    0.102221146894    0.021271220311    0.000088579896    0.000006332589
            0.000097885216    0.000007439627    0.098883393835    0.036416899268    0.000088579896    0.000006332589    0.106114902012    0.032209376385
0.425     0.098531540758    -0.021245448731    0.000091256361    -0.000015452116    0.092796821783    -0.000378084710    0.000100535684    -0.000016333745
            0.000091256361    -0.000015452116    0.098209405077    0.015228282864    0.000083444779    -0.000014320639    0.096209172475    0.020778347811
            0.092796821783    -0.000378084710    0.000083444779    -0.000014320639    0.098223930559    -0.020835091779    0.000090889404    -0.000015195224
            0.000100535684    -0.000016333745    0.096209172475    0.020778347811    0.000090889404    -0.000015195224    0.097768796238    0.015991464766
0.450     0.073132111846    -0.057425050816    0.000089947974    -0.000037998425    0.076556472017    -0.034078165146    0.000099121751    -0.000041481776
            0.000089947974    -0.000037998425    0.082424693608    0.007693869961    0.000082201715    -0.000034999116    0.086372584447    0.010415214014
            0.076556472017    -0.034078165146    0.000082201715    -0.000034999116    0.073363557034    -0.057112902490    0.000089506752    -0.000037975471
            0.000099121751    -0.000041481776    0.086372584447    0.010415214014    0.000089506752    -0.000037975471    0.082476686210    0.008432271845
0.475     0.031538583055    -0.077619248066    0.000083962222    -0.000062755867    0.044449615889    -0.056596181993    0.000092254485    -0.000068864477
            0.000083962222    -0.000062755867    0.065341046025    0.011877992461    0.000076613708    -0.000057693089    0.073223222378    0.008719825146
            0.044449615889    -0.056596181993    0.000076613708    -0.000057693089    0.032237569490    -0.077704513821    0.000083143799    -0.000062772339
            0.000092254485    -0.000068864477    0.073223222378    0.008719825146    0.000083143799    -0.000062772339    0.065810549526    0.012311719251
0.500     -0.016785435002    -0.075089164007    0.000070252718    -0.000089200426    0.003521737109    -0.060760907620    0.000076853526    -0.000097696023
            0.000070252718    -0.000089200426    0.053727735178    0.027142508487    0.000063890252    -0.000081864592    0.062232786285    0.016512165240
            0.003521737109    -0.060760907620    0.000063890252    -0.000081864592    -0.015847850755    -0.075815092435    0.000068989420    -0.000088827148
            0.000076853526    -0.000097696023    0.062232786285    0.016512165240    0.000068989420    -0.000088827148    0.054388516311    0.027062962194
0.525     -0.059668371547    -0.048656013131    0.000045828190    -0.000113724972    -0.035952593553    -0.043820073154    0.000050004669    -0.000124084029
            0.000045828190    -0.000113724972    0.053246200454    0.049045158634    0.000041348543    -0.000104151868    0.058693322024    0.031252938022
            -0.035952593553    -0.043820073154    0.000041348543    -0.000104151868    -0.058836620067    -0.050125083410    0.000044437517    -0.000112543431
            0.000050004669    -0.000124084029    0.058693322024    0.031252938022    0.000044437517    -0.000112543431    0.053779805240    0.048396973650
0.550     -0.085657262087    -0.003719820807    0.000010577143    -0.000130199795    -0.063400156128    -0.008868642909    0.000011798010    -0.000141653303
            0.000010577143    -0.000130199795    0.066255923431    0.070489852414    0.000008982331    -0.000118931345    0.065614316607    0.047660665523
            -0.063400156128    -0.008868642909    0.000008982331    -0.000118931345    -0.085300004021    -0.005841465576    0.000009662039    -0.000128105188
            0.000011798010    -0.000141653303    0.065614316607    0.047660665523    0.000009662039    -0.000128105188    0.066354563558    0.069403696724
0.575     -0.087648721776    0.049046444090    -0.000031217442    -0.000132857890    -0.071347030246    0.035863193990    -0.000033198022    -0.000144497323
            -0.000031217442    -0.000132857890    0.090755522796    0.084169149306    -0.000029187005    -0.000120992992    0.082464118891    0.059648724613
            -0.071347030246    0.035863193990    -0.000029187005    -0.000120992992    -0.088049905377    0.046545303031    -0.000031073533    -0.000130204095
            -0.000033198022    -0.000144497323    0.082464118891    0.059648724613    -0.000031073533    -0.000130204095    0.090227481828    0.082925427812
0.600     -0.065035809255    0.096995631254    -0.000072235067    -0.000119498114    -0.057668638724    0.079674179777    -0.000077356927    -0.000130402455
            -0.000072235067    -0.000119498114    0.121164694415    0.085121042931    -0.000066424338    -0.000108457118    0.105533064754    0.062561448980
            -0.057668638724    0.079674179777    -0.000066424338    -0.000108457118    -0.066309285681    0.094499806178    -0.000070780780    -0.000116973609
            -0.000077356927    -0.000130402455    0.105533064754    0.062561448980    -0.000070780780    -0.000116973609    0.119994756933    0.084058345750
0.625     -0.023430354181    0.129250616967    -0.000105327723    -0.000092502248    -0.025699912154    0.112639385761    -0.000113271071    -0.000101843557
            -0.000105327723    -0.000092502248    0.150379227714    0.072107592192    -0.000096261562    -0.000083642006    0.129464982891    0.054486918379
            -0.025699912154    0.112639385761    -0.000096261562    -0.000083642006    -0.025490270913    0.127154773322    -0.000102793015    -0.000090826583
            -0.000113271071    -0.000101843557    0.129464982891    0.054486918379    -0.000102793015    -0.000090826583    0.148725689557    0.071520952929
0.650     0.027492866131    0.139295923688    -0.000126208947    -0.000057359850    0.017332133094    0.127966084707    -0.000136469542    -0.000064461976
            -0.000126208947    -0.000057359850    0.171938558585    0.047493949938    -0.000114925824    -0.000051628088    0.148961463207    0.036348357641
            0.017332133094    0.127966084707    -0.000114925824    -0.000051628088    0.024906090758    0.137908481562    -0.000123209857    -0.000056976045
            -0.000136469542    -0.000064461976    0.148961463207    0.036348357641    -0.000123209857    -0.000056976045    0.170080855141    0.047559429996
0.675     0.076726909968    0.125821061236    -0.000134239959    -0.000020182267    0.062423572051    0.122906065161    -0.000146198039    -0.000024535125
            -0.000134239959    -0.000020182267    0.181447390200    0.016194718871    -0.000121984898    -0.000017946903    0.159906071356    0.011248532219
            0.062423572051    0.122906065161    -0.000121984898    -0.000017946903    0.073984649441    0.125300346228    -0.000131522720    -0.000021087882
            -0.000146198039    -0.000024535125    0.159906071356    0.011248532219    -0.000131522720    -0.000021087882    0.179713413016    0.016930730529
0.700     0.114211284372    0.092270784073    -0.000131695045    0.000014292055    0.100566375340    0.098675791924    -0.000144659447    0.000013056602
            -0.000131695045    0.000014292055    0.177214214497    -0.015590348547    -0.000119588704    0.000013204871    0.159953614434    -0.016301169454
            0.100566375340    0.098675791924    -0.000119588704    0.000013204871    0.111721000621    0.092594851330    -0.000129837034    0.000012536032
            -0.000144659447    0.000013056602    0.159953614434    -0.016301169454    -0.000129837034    0.000012536032    0.175902970700    -0.014323535129
0.725     0.132383593466    0.045817620400    -0.000122319637    0.000043797782    0.124029280184    0.059981396751    -0.000135532149    0.000045924146
            -0.000122319637    0.000043797782    0.160397605146    -0.041505532681    -0.000111125570    0.000039892902    0.148863283069    -0.041074925347
            0.124029280184    0.059981396751    -0.000111125570    0.000039892902    0.130511659365    0.046784068281    -0.000121492129    0.000041872092
            -0.000135532149    0.000045924146    0.148863283069    -0.041074925347    -0.000121492129    0.000041872092    0.159710397078    -0.039981457517
0.750     0.127258888482    -0.003811020931    -0.000109674118    0.000068827843    0.127478530857    0.014474855094    -0.000122292854    0.000074408877
            -0.000109674118    0.000068827843    0.134965400975    -0.056115203839    -0.000099738431    0.000062638693    0.128843384141    -0.057912913697
            0.127478530857    0.014474855094    -0.000099738431    0.000062638693    0.126255845559    -0.002559183880    -0.000109562082    0.000067328811
            -0.000122292854    0.000074408877    0.128843384141    -0.057912913697    -0.000109562082    0.000067328811    0.134946749297    -0.054684847848
0.775     0.099312324308    -0.045709147487    -0.000095341132    0.000092004795    0.109189421315    -0.028094870870    -0.000106440283    0.000100940854
            -0.000095341132    0.000092004795    0.107371103501    -0.056143008843    -0.000086755976    0.000083813632    0.104689821826    -0.062906510360
            0.109189421315    -0.028094870870    -0.000086755976    0.000083813632    0.099245833911    -0.044627855821    -0.000095300696    0.000091123368
            -0.000106440283    0.000100940854    0.104689821826    -0.062906510360    -0.000095300696    0.000091123368    0.107874215912    -0.055152572909
