# GHz S RI R 45
0.000     0.036440782491    0.001840210826    0.000000313469    0.000001086532    0.001054547056    0.001573207201    0.000000305107    0.000001079273
            0.000000313469    0.000001086532    0.037183526604    0.001150007575    0.000000338658    0.000001121025    0.001054452129    0.001374334433
            0.001054546891    0.001573207191    0.000000338658    0.000001121025    0.036378770992    0.001828284882    0.000000340384    0.000001129873
            0.000000305107    0.000001079273    0.001054451478    0.001374334428    0.000000340384    0.000001129873    0.037123573642    0.001154464350
0.025     0.044618376830    0.005818098848    0.000001207371    0.000002233014    0.005092667596    0.011296910199    0.000001185127    0.000002223536
            0.000001207367    0.000002233016    0.043251904361    0.005521223910    0.000001266187    0.000002301747    0.003830159710    0.012100246018
            0.005091071605    0.011300144557    0.000001266185    0.000002301748    0.044545931777    0.005801589832    0.000001268743    0.000002323511
            0.000001185125    0.000002223536    0.003832559493    0.012099926705    0.000001268743    0.000002323511    0.043222157130    0.005597250293
0.050     0.054053455792    0.000776090923    0.000003134404    0.000003414500    0.015466499712    0.017445583994    0.000003099768    0.000003417884
            0.000003134405    0.000003414500    0.048073780360    0.003065902032    0.000003254105    0.000003510137    0.011256704716    0.021003842715
            0.015466488175    0.017445624959    0.000003254105    0.000003510137    0.053960944064    0.000773386652    0.000003271979    0.000003557950
            0.000003099768    0.000003417884    0.011256738570    0.021003849532    0.000003271979    0.000003557950    0.048102081322    0.003200661035
0.075     0.060355664090    -0.011508983714    0.000005522631    0.000003599420    0.027605935521    0.015443477554    0.000005487882    0.000003620669
            0.000005522631    0.000003599420    0.049513159178    -0.002439510061    0.000005708704    0.000003692875    0.020439503884    0.024755195885
            0.027605931144    0.015443483329    0.000005708704    0.000003692875    0.060288782851    -0.011468684539    0.000005758519    0.000003758156
            0.000005487882    0.000003620669    0.020439518665    0.024755197946    0.000005758519    0.000003758156    0.049628743202    -0.002287060536
0.100     0.059391498667    -0.029023489135    0.000008058327    0.000002737583    0.036154384537    0.005560016890    0.000008034238    0.000002774716
            0.000008058327    0.000002737583    0.046182465119    -0.009047908387    0.000008311256    0.000002802949    0.028070884673    0.023550196708
            0.036154384508    0.005560017080    0.000008311256    0.000002802949    0.059403909705    -0.028949227621    0.000008404982    0.000002869585
            0.000008034238    0.000002774716    0.028070884673    0.023550196708    0.000008404982    0.000002869585    0.046381002796    -0.008937924481
0.125     0.048133946580    -0.047106349455    0.000010439721    0.000000798302    0.036732867832    -0.008929675895    0.000010433880    0.000000843250
            0.000010439721    0.000000798302    0.037456196488    -0.013779593760    0.000010754143    0.000000810278    0.031593403061    0.019417914139
            0.036732867832    -0.008929675895    0.000010754143    0.000000810278    0.048277705686    -0.047043456165    0.000010895790    0.000000855548
            0.000010433880    0.000000843250    0.031593403061    0.019417914139    0.000010895790    0.000000855548    0.037693807808    -0.013764369787
0.150     0.026527604434    -0.059741475997    0.000012333938    -0.000002243618    0.027459504279    -0.022665918186    0.000012347350    -0.000002201597
            0.000012333938    -0.000002243618    0.024714640960    -0.013402870428    0.000012700872    -0.000002312257    0.030071769852    0.015524127132
            0.027459504279    -0.022665918186    0.000012700872    -0.000002312257    0.026827145172    -0.059770503482    0.000012882553    -0.000002313003
            0.000012347350    -0.000002201597    0.030071800705    0.015524113147    0.000012882553    -0.000002313003    0.024924316186    -0.013501107532
0.175     -0.001946457680    -0.061169469976    0.000013290636    -0.000006357022    0.009747008639    -0.029840015959    0.000013317646    -0.000006326574
            0.000013290636    -0.000006357022    0.011005949463    -0.005698160588    0.000013689391    -0.000006535978    0.024591327089    0.015082067967
            0.009747008639    -0.029840015959    0.000013689391    -0.000006535978    -0.001516775467    -0.061389469054    0.000013891253    -0.000006602488
            0.000013317646    -0.000006326574    0.024591344300    0.015082059031    0.000013891253    -0.000006602488    0.011110499241    -0.005887690380
0.200     -0.030748771307    -0.048119490938    0.000012737454    -0.000011282424    -0.011787460549    -0.026112017860    0.000012769135    -0.000011266417
            0.000012737454    -0.000011282424    0.000490983585    0.009639042694    0.000013131524    -0.000011597712    0.018005566606    0.020170526745
            -0.011787460549    -0.026112017860    0.000013131524    -0.000011597712    -0.030274913539    -0.048615321779    0.000013325805    -0.000011739055
            0.000012769135    -0.000011266417    0.018005566606    0.020170526745    0.000013325805    -0.000011739055    0.000429848122    0.009425842776
0.225     -0.052031397186    -0.021275306662    0.000010159569    -0.000016380683    -0.030546627121    -0.010280414100    0.000010188607    -0.000016376053
            0.000010159569    -0.000016380683    -0.002808418472    0.030475462870    0.000010495799    -0.000016844237    0.013995719757    0.030833354507
            -0.030546627121    -0.010280414100    0.000010495799    -0.000016844237    -0.051648489726    -0.022079113278    0.000010653244    -0.000017056419
            0.000010188607    -0.000016376053    0.013995719757    0.030833354507    0.000010653244    -0.000017056419    -0.003052695856    0.030338706887
0.250     -0.059044007039    0.014371118541    0.000005412324    -0.000020673492    -0.040028498313    0.014969689381    0.000005436257    -0.000020674105
            0.000005412324    -0.000020673492    0.003543165226    0.052603902095    0.000005629062    -0.000021271907    0.015716306516    0.044914805321
            -0.040028498313    0.014969689381    0.000005629062    -0.000021271907    -0.058900465285    0.013305944138    0.000005725387    -0.000021539468
            0.000005436257    -0.000020674105    0.015716306516    0.044914805321    0.000005725387    -0.000021539468    0.003157112434    0.052648209947
0.275     -0.048432418822    0.050674618826    -0.000001064865    -0.000023145739    -0.036019345555    0.043682827094    -0.000001043487    -0.000023146955
            -0.000001064865    -0.000023145739    0.019376085607    0.070919626790    -0.000001022098    -0.000023835618    0.024580650550    0.058750447156
            -0.036019345555    0.043682827094    -0.000001022098    -0.000023835618    -0.048642301452    0.049475562772    -0.000001002528    -0.000024136844
            -0.000001043487    -0.000023146955    0.024580650550    0.058750447156    -0.000001002528    -0.000024136844    0.018945831390    0.071219981340
0.300     -0.021526949453    0.078631307276    -0.000008316111    -0.000023152553    -0.018042650193    0.068410409278    -0.000008292691    -0.000023154055
            -0.000008316111    -0.000023152553    0.041788432433    0.081053068975    -0.000008477973    -0.000023868507    0.039729526091    0.068452586848
            -0.018042650193    0.068410409278    -0.000008477973    -0.000023868507    -0.022126511238    0.077479882238    -0.000008542125    -0.000024179726
            -0.000008292691    -0.000023154055    0.039729526091    0.068452586848    -0.000008542125    -0.000024179726    0.041446414131    0.081626159417
0.325     0.015909460555    0.090971154011    -0.000015221670    -0.000020664673    0.010479117103    0.082406941757    -0.000015193062    -0.000020670436
            -0.000015221670    -0.000020664673    0.065984220079    0.080725327697    -0.000015586912    -0.000021335848    0.058337363479    0.071178589768
            0.010479117103    0.082406941757    -0.000015586912    -0.000021335848    0.014983381765    0.090054268944    -0.000015735224    -0.000021634801
            -0.000015193062    -0.000020670436    0.058337363479    0.071178589768    -0.000015735224    -0.000021634801    0.065862712383    0.081516011675
0.350     0.055200972727    0.084119247004    -0.000020910272    -0.000016204173    0.043193835582    0.081442821579    -0.000020877523    -0.000016220131
            -0.000020910272    -0.000016204173    0.086666537944    0.070394456699    -0.000021450467    -0.000016772450    0.076509329833    0.065951888839
            0.043193835582    0.081442821579    -0.000021450467    -0.000016772450    0.054105035984    0.083576832827    -0.000021679047    -0.000017038711
            -0.000020877523    -0.000016220131    0.076509329833    0.065951888839    -0.000021679047    -0.000017038711    0.086859933972    0.071282174922
0.375     0.086914159433    0.059038241934    -0.000025005451    -0.000010530464    0.072398263370    0.064788395036    -0.000024973884    -0.000010561326
            -0.000025005451    -0.000010530464    0.099444788545    0.053062729203    -0.000025679062    -0.000010960010    0.090338925169    0.053875693236
            0.072398263370    0.064788395036    -0.000025679062    -0.000010960010    0.085866405238    0.058919173214    -0.000025981323    -0.000011174685
            -0.000024973884    -0.000010561326    0.090338925169    0.053875693236    -0.000025981323    -0.000011174685    0.099979800083    0.053885143431
0.400     0.102990377334    0.021033851452    -0.000027598572    -0.000004266887    0.090737277480    0.035425166204    -0.000027576537    -0.000004313918
            -0.000027598572    -0.000004266887    0.101908108711    0.033525176602    -0.000028367428    -0.000004542624    0.096885021784    0.037899058842
            0.090737277480    0.035425166204    -0.000028367428    -0.000004542624    0.102221146894    0.021271220311    -0.000028734109    -0.000004687009
            -0.000027576537    -0.000004313918    0.096885021784    0.037899058842    -0.000028734109    -0.000004687009    0.102725261982    0.034115167011
0.425     0.098531540758    -0.021245448731    -0.000028987211    0.000002357702    0.092796821783    -0.000378084710    -0.000028984122    0.000002298397
            -0.000028987211    0.000002357702    0.094245737749    0.017270930360    -0.000029826454    0.000002242652    0.094965429606    0.022216026295
            0.092796821783    -0.000378084710    -0.000029826454    0.000002242652    0.098223930559    -0.020835091779    -0.000030244502    0.000002188079
            -0.000028984122    0.000002298397    0.094965429606    0.022216026295    -0.000030244502    0.000002188079    0.095200544072    0.017501100911
0.450     0.073132111846    -0.057425050816    -0.000029286837    0.000009522149    0.076556472017    -0.034078165146    -0.000029309758    0.000009459993
            -0.000029286837    0.000009522149    0.079411838043    0.009209980468    -0.000030182826    0.000009582999    0.085723298553    0.011332581031
            0.076556472017    -0.034078165146    -0.000030182826    0.000009582999    0.073363557034    -0.057112902490    -0.000030632773    0.000009638178
            -0.000029309758    0.000009459993    0.085723298553    0.011332581031    -0.000030632773    0.000009638178    0.080298350739    0.009037105498
0.475     0.031538583055    -0.077619248066    -0.000028102103    0.000017515369    0.044449615889    -0.056596181993    -0.000028152640    0.000017463874
            -0.000028102103    0.000017515369    0.062703757643    0.012281478800    -0.000029036527    0.000017786337    0.072717957808    0.008761397113
            0.044449615889    -0.056596181993    -0.000029036527    0.000017786337    0.032237569490    -0.077704513821    -0.000029489548    0.000017968976
            -0.000028152640    0.000017463874    0.072717957808    0.008761397113    -0.000029489548    0.000017968976    0.063303335378    0.011778127477
0.500     -0.016785435002    -0.075089164007    -0.000024514343    0.000026194582    0.003521737109    -0.060760907620    -0.000024585993    0.000026167710
            -0.000024514343    0.000026194582    0.050567124917    0.026248905891    -0.000025441265    0.000026723141    0.061214192197    0.015633241091
            0.003521737109    -0.060760907620    -0.000025441265    0.000026723141    -0.015847850755    -0.075815092435    -0.000025857792    0.000027043293
            -0.000024585993    0.000026167710    0.061214192197    0.015633241091    -0.000025857792    0.000027043293    0.050716009432    0.025604923462
0.525     -0.059668371547    -0.048656013131    -0.000017572699    0.000034529504    -0.035952593553    -0.043820073154    -0.000017651297    0.000034536530
            -0.000017572699    0.000034529504    0.048625198991    0.047249411728    -0.000018404778    0.000035351333    0.056524852460    0.029841618862
            -0.035952593553    -0.043820073154    -0.000018404778    0.000035351333    -0.058836620067    -0.050125083410    -0.000018737009    0.000035804270
            -0.000017651297    0.000034536530    0.056524852460    0.029841618862    -0.000018737009    0.000035804270    0.048279363511    0.046731405375
0.550     -0.085657262087    -0.003719820807    -0.000007100568    0.000040695820    -0.063400156128    -0.008868642909    -0.000007167911    0.000040736833
            -0.000007100568    0.000040695820    0.059576967590    0.068719084888    -0.000007718242    0.000041801214    0.061971742834    0.046470422404
            -0.063400156128    -0.008868642909    -0.000007718242    0.000041801214    -0.085300004021    -0.005841465576    -0.000007917690    0.000042361488
            -0.000007167911    0.000040736833    0.061971742834    0.046470422404    -0.000007917690    0.000042361488    0.058843954499    0.068591961696
0.575     -0.087648721776    0.049046444090    0.000005792800    0.000042855760    -0.071347030246    0.035863193990    0.000005752535    0.000042920320
            0.000005792800    0.000042855760    0.082034545455    0.083583913709    0.000005506621    0.000044169819    0.077520849204    0.059533365153
            -0.071347030246    0.035863193990    0.000005506621    0.000044169819    -0.088049905377    0.046545303031    0.000005477872    0.000044791445
            0.000005752535    0.000042920320    0.077520849204    0.059533365153    0.000005477872    0.000044791445    0.081153342528    0.084026006979
0.600     -0.065035809255    0.096995631254    0.000018996367    0.000040112175    -0.057668638724    0.079674179777    0.000018990394    0.000040182664
            0.000018996367    0.000040112175    0.111046459577    0.086715043226    0.000019114865    0.000041504871    0.099918182359    0.064153878837
            -0.057668638724    0.079674179777    0.000019114865    0.000041504871    -0.066309285681    0.094499806178    0.000019274105    0.000042127508
            0.000018990394    0.000040182664    0.099918182359    0.064153878837    0.000019274105    0.000042127508    0.110320767569    0.087759426250
0.625     -0.023430354181    0.129250616967    0.000030290845    0.000032925308    -0.025699912154    0.112639385761    0.000030315454    0.000032982782
            0.000030290845    0.000032925308    0.139918520956    0.076409016557    0.000030818867    0.000034246172    0.124042448558    0.057998675143
            -0.025699912154    0.112639385761    0.000030818867    0.000034246172    -0.025490270913    0.127154773322    0.000031158423    0.000034806876
            0.000030315454    0.000032982782    0.124042450583    0.057998670813    0.000031158424    0.000034806876    0.139633855090    0.077932367423
0.650     0.027492866131    0.139295923688    0.000038191468    0.000022779330    0.017332133094    0.127966084707    0.000038232678    0.000022810848
            0.000038191468    0.000022779330    0.162295678747    0.054463748954    0.000039068751    0.000023898355    0.144573848941    0.041547601226
            0.017332133094    0.127966084707    0.000039068751    0.000023898355    0.024906090758    0.137908481562    0.000039557563    0.000024343379
            0.000038232678    0.000022810848    0.144573848941    0.041547601226    0.000039557563    0.000024343379    0.162646812355    0.056218636576
0.675     0.076726909968    0.125821061236    0.000042285270    0.000011476305    0.062423572051    0.122906065161    0.000042323958    0.000011479361
            0.000042285270    0.000011476305    0.173625269118    0.025279493763    0.000043411898    0.000012311937    0.157189761824    0.017554027169
            0.062423572051    0.122906065161    0.000043411898    0.000012311937    0.073984649441    0.125300346228    0.000044003430    0.000012605066
            0.000042323958    0.000011479361    0.157189761824    0.017554027169    0.000044003430    0.000012605066    0.174670963841    0.026949443904
0.700     0.114211284372    0.092270784073    0.000043077892    0.000000494479    0.100566375340    0.098675791924    0.000043096900    0.000000478851
            0.000043077892    0.000000494479    0.171873880965    -0.005329170283    0.000044348061    0.000001020476    0.159236568634    -0.009695295192
            0.100566375340    0.098675791924    0.000044348061    0.000001020476    0.111721000621    0.092594851330    0.000044990806    0.000001146689
            0.000043096900    0.000000478851    0.159236568634    -0.009695295192    0.000044990806    0.000001146689    0.173518455086    -0.004063986449
0.725     0.132383593466    0.045817620400    0.000041583285    -0.000009393983    0.124029280184    0.059981396751    0.000041574620    -0.000009408597
            0.000041583285    -0.000009393983    0.157728310056    -0.031234645312    0.000042915778    -0.000009162146    0.150100385087    -0.035078262713
            0.124029280184    0.059981396751    0.000042915778    -0.000009162146    0.130511659365    0.046784068281    0.000043562753    -0.000009198738
            0.000041574620    -0.000009408597    0.150100385087    -0.035078262713    0.000043562753    -0.000009198738    0.159727871402    -0.030628579426
0.750     0.127258888482    -0.003811020931    0.000038805940    -0.000018244807    0.127478530857    0.014474855094    0.000038776846    -0.000018235571
            0.000038805940    -0.000018244807    0.134584905492    -0.047028800756    0.000040159348    -0.000018278165    0.131556858211    -0.053395632597
            0.127478530857    0.014474855094    0.000040159348    -0.000018278165    0.126255845559    -0.002559183880    0.000040776301    -0.000018461558
            0.000038776846    -0.000018235571    0.131556858211    -0.053395632597    0.000040776301    -0.000018461558    0.136581318759    -0.047199964471
0.775     0.099312324308    -0.045709147487    0.000035188501    -0.000026770991    0.109189421315    -0.028094870870    0.000035162958    -0.000026723371
            0.000035188501    -0.000026770991    0.108288028085    -0.049178390405    0.000036554803    -0.000027061462    0.107947156880    -0.060480740138
            0.109189421315    -0.028094870870    0.000036554803    -0.000027061462    0.099245833911    -0.044627855821    0.000037122349    -0.000027374470
            0.000035162958    -0.000026723371    0.107947156880    -0.060480740138    0.000037122349    -0.000027374470    0.109878396820    -0.050053004662
