# GHz S RI R 45
0.000     0.036440782491    0.001840210826    0.000001798200    0.000003597331    0.001054547056    0.001573207201    0.000001956444    0.000004207436
            0.000001798134    0.000003597330    0.035928250196    0.001834370858    0.000002165877    0.000004228607    0.001021304219    0.001571891346
            0.001054546891    0.001573207191    0.000002165821    0.000004228608    0.036378770992    0.001828284882    0.000002365192    0.000005014487
            0.000001956365    0.000004207434    0.001021304383    0.001571891358    0.000002364899    0.000005014486    0.035892130186    0.001844725010
0.025     0.044618376830    0.005818098848    0.000006169425    0.000006679111    0.005092667596    0.011296910199    0.000007010982    0.000007303090
            0.000006169422    0.000006679104    0.043981018596    0.005558508204    0.000007356430    0.000008410087    0.004954332714    0.010923694594
            0.005091071605    0.011300144557    0.000007356436    0.000008410084    0.044545931777    0.005801589832    0.000008388826    0.000008934946
            0.000007010987    0.000007303080    0.004953592374    0.010923890890    0.000008388835    0.000008934945    0.043912768404    0.005492584592
0.050     0.054053455792    0.000776090923    0.000014957046    0.000006842309    0.015466499712    0.017445583994    0.000017180731    0.000007058555
            0.000014957046    0.000006842309    0.053349370135    0.000529525044    0.000017667827    0.000009111506    0.015120489082    0.016880110832
            0.015466488175    0.017445624959    0.000017667828    0.000009111506    0.053960944064    0.000773386652    0.000020485909    0.000008897759
            0.000017180731    0.000007058555    0.015120477341    0.016880111951    0.000020485909    0.000008897759    0.053280116521    0.000399333658
0.075     0.060355664090    -0.011508983714    0.000023006395    -0.000000410726    0.027605935521    0.015443477554    0.000026518469    -0.000001764699
            0.000023006395    -0.000000410726    0.059861099488    -0.011596204398    0.000027107469    0.000001172174    0.027160129506    0.014925963416
            0.027605931144    0.015443483329    0.000027107470    0.000001172174    0.060288782851    -0.011468684539    0.000031623748    -0.000001289202
            0.000026518469    -0.000001764699    0.027160124367    0.014925968616    0.000031623748    -0.000001289202    0.059798457319    -0.011788262619
0.100     0.059391498667    -0.029023489135    0.000025531739    -0.000013594115    0.036154384537    0.005560016890    0.000029505372    -0.000017486976
            0.000025531739    -0.000013594115    0.059533827877    -0.029026276924    0.000030137484    -0.000013691549    0.035924155130    0.005189479659
            0.036154384508    0.005560017080    0.000030137484    -0.000013691549    0.059403909705    -0.028949227621    0.000035312282    -0.000019669119
            0.000029505372    -0.000017486976    0.035924156092    0.005189479990    0.000035312282    -0.000019669119    0.059484147253    -0.029294400667
0.125     0.048133946580    -0.047106349455    0.000019130801    -0.000028582193    0.036732867832    -0.008929675895    0.000022186328    -0.000035392857
            0.000019130801    -0.000028582193    0.049296323167    -0.047466401632    0.000022795468    -0.000030714296    0.037110470186    -0.009330523093
            0.036732867832    -0.008929675895    0.000022795468    -0.000030714296    0.048277705686    -0.047043456165    0.000026864092    -0.000040725886
            0.000022186328    -0.000035392857    0.037110470186    -0.009330523093    0.000026864092    -0.000040725886    0.049254423977    -0.047832099839
0.150     0.026527604434    -0.059741475997    0.000003299993    -0.000039621495    0.027459504279    -0.022665918186    0.000003912966    -0.000048875467
            0.000003299993    -0.000039621495    0.028860980638    -0.061119023493    0.000004458496    -0.000043234838    0.028694403512    -0.023590774674
            0.027459504279    -0.022665918186    0.000004458496    -0.000043234838    0.026827145172    -0.059770503482    0.000005454248    -0.000056703141
            0.000003912966    -0.000048875467    0.028694403512    -0.023590774674    0.000005454248    -0.000056703141    0.028806775139    -0.061608584430
0.175     -0.001946457680    -0.061169469976    -0.000019009058    -0.000041186860    0.009747008639    -0.029840015959    -0.000022013763    -0.000051549105
            -0.000019009057    -0.000041186859    0.001243335212    -0.064428815292    -0.000021511866    -0.000044835032    0.011732264790    -0.031981611823
            0.009747008639    -0.029840015959    -0.000021511866    -0.000044835032    -0.001516775467    -0.061389469054    -0.000025124656    -0.000060070639
            -0.000022013763    -0.000051549105    0.011732264790    -0.031981611823    -0.000025124656    -0.000060070639    0.001133394259    -0.065057244039
0.200     -0.030748771307    -0.048119490938    -0.000041760837    -0.000030008791    -0.011787460549    -0.026112017860    -0.000048744249    -0.000039551006
            -0.000041760837    -0.000030008791    -0.027615170071    -0.053932598914    -0.000048189394    -0.000031664269    -0.009651241152    -0.030102203010
            -0.011787460549    -0.026112017860    -0.000048189394    -0.000031664269    -0.030274913539    -0.048615321779    -0.000056916568    -0.000046199494
            -0.000048744249    -0.000039551006    -0.009651241152    -0.030102203010    -0.000056916568    -0.000046199494    -0.027837760713    -0.054688612143
0.225     -0.052031397186    -0.021275306662    -0.000057523543    -0.000006729607    -0.030546627121    -0.010280414100    -0.000067761978    -0.000013433986
            -0.000057523543    -0.000006729607    -0.050295840320    -0.029719218929    -0.000066997734    -0.000004336166    -0.029288414863    -0.016344110476
            -0.030546627121    -0.010280414100    -0.000066997734    -0.000004336166    -0.051648489726    -0.022079113278    -0.000079961578    -0.000015559844
            -0.000067761978    -0.000013433986    -0.029288414863    -0.016344110476    -0.000079961578    -0.000015559844    -0.050685437274    -0.030556072948
0.250     -0.059044007039    0.014371118541    -0.000060069707    0.000023682242    -0.040028498313    0.014969689381    -0.000071798887    0.000021309803
            -0.000060069707    0.000023682242    -0.060056597879    0.004058972094    -0.000070655060    0.000031567095    -0.040798490960    0.007284503091
            -0.040028498313    0.014969689381    -0.000070655060    0.000031567095    -0.058900465285    0.013305944138    -0.000085630843    0.000025632810
            -0.000071798887    0.000021309803    -0.040798490960    0.007284503091    -0.000085630843    0.000025632810    -0.060642293544    0.003222025579
0.275     -0.048432418822    0.050674618826    -0.000046800972    0.000053342386    -0.036019345555    0.043682827094    -0.000057598814    0.000055757495
            -0.000046800972    0.000053342386    -0.053014882002    0.040036224930    -0.000055945287    0.000067036867    -0.039629135636    0.035525877680
            -0.036019345555    0.043682827094    -0.000055945287    0.000067036867    -0.048642301452    0.049475562772    -0.000069822644    0.000067069417
            -0.000057598814    0.000055757495    -0.039629135636    0.035525877680    -0.000069822644    0.000067069417    -0.053779123716    0.039298393220
0.300     -0.021526949453    0.078631307276    -0.000019795053    0.000074086145    -0.018042650193    0.068410409278    -0.000027197912    0.000080468274
            -0.000019795053    0.000074086145    -0.029544825390    0.069584741947    -0.000024985684    0.000092579667    -0.024564198792    0.061338456569
            -0.018042650193    0.068410409278    -0.000024985684    0.000092579667    -0.022126511238    0.077479882238    -0.000034536487    0.000097618501
            -0.000027197912    0.000080468274    -0.024564198792    0.061338456569    -0.000034536487    0.000097618501    -0.030414256046    0.069036034851
0.325     0.015909460555    0.090971154011    0.000015017677    0.000080033084    0.010479117103    0.082406941757    0.000012866906    0.000088402473
            0.000015017677    0.000080033084    0.005657218284    0.085211787859    0.000015588838    0.000101149144    0.001861680941    0.077899750559
            0.010479117103    0.082406941757    0.000015588838    0.000101149144    0.014983381765    0.090054268944    0.000012873162    0.000108698349
            0.000012866906    0.000088402473    0.001861680941    0.077899750559    0.000012873162    0.000108698349    0.004805287938    0.084901175438
0.350     0.055200972727    0.084119247004    0.000049771329    0.000068987759    0.043193835582    0.081442821579    0.000053626250    0.000076622950
            0.000049771329    0.000068987759    0.044734980494    0.082563488236    0.000056715139    0.000089848784    0.034032091251    0.080431736458
            0.043193835582    0.081442821579    0.000056715139    0.000089848784    0.054105035984    0.083576832827    0.000061945704    0.000096381365
            0.000053626250    0.000076622950    0.034032091251    0.080431736458    0.000061945704    0.000096381365    0.044047893198    0.082473007253
0.375     0.086914159433    0.059038241934    0.000076615256    0.000042508529    0.072398263370    0.064788395036    0.000085890304    0.000046530748
            0.000076615256    0.000042508529    0.078588992886    0.061490685504    0.000089130391    0.000060160709    0.064627398882    0.067348846837
            0.072398263370    0.064788395036    0.000089130391    0.000060160709    0.085866405238    0.058919173214    0.000101661302    0.000061866488
            0.000085890304    0.000046530748    0.064627398882    0.067348846837    0.000101661302    0.000061866488    0.078203178083    0.061525888260
0.400     0.102990377334    0.021033851452    0.000089085542    0.000005340235    0.090737277480    0.035425166204    0.000101892770    0.000003329700
            0.000089085542    0.000005340235    0.098934136678    0.026123516833    0.000105035408    0.000017409713    0.086250702944    0.040662763682
            0.090737277480    0.035425166204    0.000105035408    0.000017409713    0.102221146894    0.021271220311    0.000122470785    0.000011028381
            0.000101892770    0.000003329700    0.086250702944    0.040662763682    0.000122470785    0.000011028381    0.098936764896    0.026120691991
0.425     0.098531540758    -0.021245448731    0.000083048568    -0.000035265195    0.092796821783    -0.000378084710    0.000096480590    -0.000044713319
            0.000083048568    -0.000035265195    0.100115404123    -0.015903924450    0.000099311101    -0.000029996685    0.093010601067    0.005714565796
            0.092796821783    -0.000378084710    0.000099311101    -0.000029996685    0.098223930559    -0.020835091779    0.000117865158    -0.000046407797
            0.000096480590    -0.000044713319    0.093010601067    0.005714565796    0.000117865158    -0.000046407797    0.100510512235    -0.016152441373
0.450     0.073132111846    -0.057425050816    0.000057734832    -0.000070296444    0.076556472017    -0.034078165146    0.000068376189    -0.000087148457
            0.000057734832    -0.000070296444    0.080500051628    -0.054870519753    0.000070795485    -0.000071487833    0.081960979651    -0.029678309266
            0.076556472017    -0.034078165146    0.000070795485    -0.000071487833    0.073363557034    -0.057112902490    0.000085978687    -0.000097974175
            0.000068376189    -0.000087148457    0.081960979651    -0.029678309266    0.000085978687    -0.000097974175    0.081186355613    -0.055573730965
0.475     0.031538583055    -0.077619248066    0.000016865606    -0.000090404716    0.044449615889    -0.056596181993    0.000021493573    -0.000112991959
            0.000016865606    -0.000090404716    0.043249008096    -0.080943403334    0.000023589295    -0.000096038426    0.054184453275    -0.056718736848
            0.044449615889    -0.056596181993    0.000023589295    -0.000096038426    0.032237569490    -0.077704513821    0.000031142922    -0.000130490501
            0.000021493573    -0.000112991959    0.054184453275    -0.056718736848    0.000031142922    -0.000130490501    0.044019798632    -0.082257920542
0.500     -0.016785435002    -0.075089164007    -0.000030853321    -0.000088493425    0.003521737109    -0.060760907620    -0.000034452947    -0.000113672556
            -0.000030853321    -0.000088493425    -0.003830025121    -0.086565543183    -0.000032399950    -0.000095155663    0.015160596877    -0.067751244768
            0.003521737109    -0.060760907620    -0.000032399950    -0.000095155663    -0.015847850755    -0.075815092435    -0.000035439333    -0.000133530641
            -0.000034452947    -0.000113672556    0.015160596877    -0.067751244768    -0.000035439333    -0.000133530641    -0.003259016234    -0.088539395297
0.525     -0.059668371547    -0.048656013131    -0.000073213788    -0.000062868754    -0.035952593553    -0.043820073154    -0.000085538069    -0.000086630397
            -0.000073213788    -0.000062868754    -0.049736408925    -0.068760693660    -0.000083129675    -0.000066462613    -0.026105028218    -0.058578200083
            -0.035952593553    -0.043820073154    -0.000083129675    -0.000066462613    -0.058836620067    -0.050125083410    -0.000097525790    -0.000103562883
            -0.000085538069    -0.000086630397    -0.026105028218    -0.058578200083    -0.000097525790    -0.000103562883    -0.049665192125    -0.071293969974
0.550     -0.085657262087    -0.003719820807    -0.000098388751    -0.000019078595    -0.063400156128    -0.008868642909    -0.000117903243    -0.000037529162
            -0.000098388751    -0.000019078595    -0.083032856652    -0.030498389707    -0.000114750836    -0.000015837879    -0.059332393599    -0.030130539243
            -0.063400156128    -0.008868642909    -0.000114750836    -0.000015837879    -0.085300004021    -0.005841465576    -0.000138653636    -0.000046543651
            -0.000117903243    -0.000037529162    -0.059332393599    -0.030130539243    -0.000138653636    -0.000046543651    -0.083695155987    -0.033341819021
0.575     -0.087648721776    0.049046444090    -0.000099515676    0.000031544720    -0.071347030246    0.035863193990    -0.000122947913    0.000021134335
            -0.000099515676    0.000031544720    -0.095148939572    0.019757780676    -0.000118779622    0.000044059425    -0.075975469943    0.011479182630
            -0.071347030246    0.035863193990    -0.000118779622    0.000044059425    -0.088049905377    0.046545303031    -0.000148046959    0.000023460201
            -0.000122947913    0.000021134335    -0.075975469943    0.011479182630    -0.000148046959    0.000023460201    -0.096636247111    0.016954967682
0.600     -0.065035809255    0.096995631254    -0.000077109710    0.000076214334    -0.057668638724    0.079674179777    -0.000100280193    0.000074693420
            -0.000077109710    0.000076214334    -0.082913474773    0.070404355684    -0.000094988238    0.000098487513    -0.071750476391    0.056721070265
            -0.057668638724    0.079674179777    -0.000094988238    0.000098487513    -0.066309285681    0.094499806178    -0.000124175702    0.000089341044
            -0.000100280193    0.000074693420    -0.071750476391    0.056721070265    -0.000124175702    0.000089341044    -0.085135176781    0.068008924496
0.625     -0.023430354181    0.129250616967    -0.000037825728    0.000105193906    -0.025699912154    0.112639385761    -0.000056685509    0.000111390005
            -0.000037825728    0.000105193906    -0.049225252154    0.110015271166    -0.000050319396    0.000135690714    -0.047575593291    0.095452456748
            -0.025699912154    0.112639385761    -0.000050319396    0.000135690714    -0.025490270913    0.127154773322    -0.000073981764    0.000136689528
            -0.000056685509    0.000111390005    -0.047575593291    0.095452456748    -0.000073981764    0.000136689528    -0.051921731267    0.108315884394
0.650     0.027492866131    0.139295923688    0.000008936223    0.000113897567    0.017332133094    0.127966084707    -0.000002576054    0.000125001919
            0.000008936223    0.000113897567    -0.001823501031    0.130237814917    0.000004677864    0.000149494970    -0.008834602888    0.119498230285
            0.017332133094    0.127966084707    0.000004677864    0.000149494970    0.024906090758    0.137908481562    -0.000009203525    0.000157055165
            -0.000002576054    0.000125001919    -0.008834602888    0.119498230285    -0.000009203525    0.000157055165    -0.004625251007    0.129373107137
0.675     0.076726909968    0.125821061236    0.000054098034    0.000102310337    0.062423572051    0.122906065161    0.000051437789    0.000114540507
            0.000054098034    0.000102310337    0.049005004616    0.127359304431    0.000059271700    0.000138997797    0.036346539650    0.124165549193
            0.062423572051    0.122906065161    0.000059271700    0.000138997797    0.073984649441    0.125300346228    0.000057435147    0.000148061917
            0.000051437789    0.000114540507    0.036346539650    0.124165549193    0.000057435147    0.000148061917    0.046496559426    0.127285779545
0.700     0.114211284372    0.092270784073    0.000090241197    0.000073342631    0.100566375340    0.098675791924    0.000096230355    0.000082658161
            0.000090241197    0.000073342631    0.092781886124    0.102526388784    0.000104233051    0.000106991936    0.078922678257    0.108702396976
            0.100566375340    0.098675791924    0.000104233051    0.000106991936    0.111721000621    0.092594851330    0.000114344727    0.000112000416
            0.000096230355    0.000082658161    0.078922678257    0.108702396976    0.000114344727    0.000112000416    0.090911750284    0.103025178428
0.725     0.132383593466    0.045817620400    0.000111559198    0.000031635253    0.124029280184    0.059981396751    0.000124348370    0.000034383147
            0.000111559198    0.000031635253    0.120702738439    0.061088243907    0.000132061928    0.000058713728    0.110436151419    0.076088473818
            0.124029280184    0.059981396751    0.000132061928    0.000058713728    0.130511659365    0.046784068281    0.000151670207    0.000054576815
            0.000124348370    0.000034383147    0.110436151419    0.076088473818    0.000151670207    0.000054576815    0.119693064285    0.061801561932
0.750     0.127258888482    -0.003811020931    0.000113608754    -0.000016534946    0.127478530857    0.014474855094    0.000129920056    -0.000023029080
            0.000113608754    -0.000016534946    0.126988900323    0.011546233446    0.000136955336    0.000001672650    0.124275326596    0.032570528135
            0.127478530857    0.014474855094    0.000136955336    0.000001672650    0.126255845559    -0.002559183880    0.000161576333    -0.000015319070
            0.000129920056    -0.000023029080    0.124275326596    0.032570528135    0.000161576333    -0.000015319070    0.126886632534    0.012037592762
0.775     0.099312324308    -0.045709147487    0.000093888660    -0.000062795068    0.109189421315    -0.028094870870    0.000109414315    -0.000079659134
            0.000093888660    -0.000062795068    0.109893794027    -0.035742746173    0.000115618081    -0.000054000171    0.116863380160    -0.013081661922
            0.109189421315    -0.028094870870    0.000115618081    -0.000054000171    0.099245833911    -0.044627855821    0.000139367572    -0.000085366584
            0.000109414315    -0.000079659134    0.116863380160    -0.013081661922    0.000139367572    -0.000085366584    0.110541617481    -0.035909947908
