# GHz S RI R 45
0.000     0.036440782491    0.001840210826    -0.000000015857    -0.000000107920    0.001054547056    0.001573207201    -0.000000012393    -0.000000106975
            -0.000000015857    -0.000000107920    0.035264762536    0.001364397242    0.000000003120    -0.000000079061    0.000933327605    0.001174615664
            0.001054546891    0.001573207191    0.000000003120    -0.000000079061    0.036378770992    0.001828284882    0.000000009055    -0.000000075215
            -0.000000012393    -0.000000106975    0.000933327605    0.001174615664    0.000000009055    -0.000000075215    0.035188320183    0.001356452585
0.025     0.044618376830    0.005818098848    -0.000000138557    -0.000000206596    0.005092667596    0.011296910199    -0.000000132710    -0.000000206475
            -0.000000138557    -0.000000206596    0.042565534028    0.004627307194    -0.000000082072    -0.000000162546    0.004315707100    0.009636400029
            0.005091071605    0.011300144557    -0.000000082072    -0.000000162546    0.044545931777    0.005801589832    -0.000000069468    -0.000000158262
            -0.000000132710    -0.000000206475    0.004315559723    0.009636478084    -0.000000069468    -0.000000158262    0.042474501397    0.004513481680
0.050     0.054053455792    0.000776090923    -0.000000410645    -0.000000231058    0.015466499712    0.017445583994    -0.000000403357    -0.000000234655
            -0.000000410645    -0.000000231058    0.050938971979    -0.000263596882    -0.000000291857    -0.000000201049    0.013229571207    0.015149549213
            0.015466488175    0.017445624959    -0.000000291857    -0.000000201049    0.053960944064    0.000773386652    -0.000000270447    -0.000000202834
            -0.000000403357    -0.000000234655    0.013229549790    0.015149567916    -0.000000270447    -0.000000202834    0.050797198118    -0.000447929552
0.075     0.060355664090    -0.011508983714    -0.000000684233    -0.000000031403    0.027605935521    0.015443477554    -0.000000678489    -0.000000039755
            -0.000000684233    -0.000000031403    0.056915556007    -0.011336126648    -0.000000519200    -0.000000065090    0.024094520334    0.013891652527
            0.027605931144    0.015443483329    -0.000000519200    -0.000000065090    0.060288782851    -0.011468684539    -0.000000493259    -0.000000079830
            -0.000000678489    -0.000000039755    0.024094514964    0.013891657836    -0.000000493259    -0.000000079830    0.056728433364    -0.011556015558
0.100     0.059391498667    -0.029023489135    -0.000000816010    0.000000366455    0.036154384537    0.005560016890    -0.000000815007    0.000000354200
            -0.000000816010    0.000000366455    0.057142385023    -0.027215979312    -0.000000649054    0.000000235836    0.032590905639    0.005760938430
            0.036154384508    0.005560017080    -0.000000649054    0.000000235836    0.059403909705    -0.028949227621    -0.000000626480    0.000000204553
            -0.000000815007    0.000000354200    0.032590905639    0.005760938430    -0.000000626480    0.000000204553    0.056937881837    -0.027445455482
0.125     0.048133946580    -0.047106349455    -0.000000691455    0.000000856322    0.036732867832    -0.008929675895    -0.000000697908    0.000000843111
            -0.000000691455    0.000000856322    0.048871795236    -0.044436024919    -0.000000584265    0.000000626100    0.034978063032    -0.006984318741
            0.036732867832    -0.008929675895    -0.000000584265    0.000000626100    0.048277705686    -0.047043456165    -0.000000574950    0.000000579886
            -0.000000697908    0.000000843111    0.034978063032    -0.006984318741    -0.000000574950    0.000000579886    0.048689523752    -0.044672612108
0.150     0.026527604434    -0.059741475997    -0.000000270061    0.000001275046    0.027459504279    -0.022665918186    -0.000000284551    0.000001265495
            -0.000000270061    0.000001275046    0.031528150449    -0.058135241353    -0.000000282223    0.000000980162    0.029243360437    -0.020325531676
            0.027459504279    -0.022665918186    -0.000000282223    0.000000980162    0.026827145172    -0.059770503482    -0.000000294175    0.000000926935
            -0.000000284551    0.000001265495    0.029243360437    -0.020325531676    -0.000000294175    0.000000926935    0.031407650518    -0.058407517146
0.175     -0.001946457680    -0.061169469976    0.000000390431    0.000001450533    0.009747008639    -0.029840015959    0.000000370167    0.000001449563
            0.000000390431    0.000001450533    0.007278475509    -0.063489796303    0.000000222876    0.000001159350    0.015795714573    -0.029587761903
            0.009747008639    -0.029840015959    0.000000222876    0.000001159350    -0.001516775467    -0.061389469054    0.000000186942    0.000001111163
            0.000000370167    0.000001449563    0.015795714573    -0.029587761903    0.000000186942    0.000001111163    0.007233428035    -0.063851216305
0.200     -0.030748771307    -0.048119490938    0.000001137609    0.000001257757    -0.011787460549    -0.026112017860    0.000001116954    0.000001268623
            0.000001137609    0.000001257757    -0.019219350660    -0.057162604499    0.000000819690    0.000001055772    -0.002433179110    -0.030813129499
            -0.011787460549    -0.026112017860    0.000000819690    0.000001055772    -0.030274913539    -0.048615321779    0.000000764237    0.000001025172
            0.000001116954    0.000001268623    -0.002433179110    -0.030813129499    0.000000764237    0.000001025172    -0.019212920124    -0.057671870477
0.225     -0.052031397186    -0.021275306662    0.000001760504    0.000000668773    -0.030546627121    -0.010280414100    0.000001746473    0.000000691213
            0.000001760504    0.000000668773    -0.041830484512    -0.038536359953    0.000001344876    0.000000634280    -0.020649568927    -0.022039894572
            -0.030546627121    -0.010280414100    0.000001344876    0.000000634280    -0.051648489726    -0.022079113278    0.000001280853    0.000000630180
            0.000001746473    0.000000691213    -0.020649568927    -0.022039894572    0.000001280853    0.000000630180    -0.041834393849    -0.039232779479
0.250     -0.059044007039    0.014371118541    0.000002050789    -0.000000223712    -0.040028498313    0.014969689381    0.000002049635    -0.000000194187
            0.000002050789    -0.000000223712    -0.054549086699    -0.010300629410    0.000001630068    -0.000000046085    -0.033490772971    -0.004095798462
            -0.040028498313    0.014969689381    0.000001630068    -0.000000046085    -0.058900465285    0.013305944138    0.000001571981    -0.000000021496
            0.000002049635    -0.000000194187    -0.033490772971    -0.004095798462    0.000001571981    -0.000000021496    -0.054646580348    -0.011181931977
0.275     -0.048432418822    0.050674618826    0.000001871133    -0.000001222403    -0.036019345555    0.043682827094    0.000001885912    -0.000001193399
            0.000001871133    -0.000001222403    -0.053259737229    0.021957865174    0.000001555965    -0.000000841062    -0.036590297402    0.019430101171
            -0.036019345555    0.043682827094    0.000001555965    -0.000000841062    -0.048642301452    0.049475562772    0.000001517912    -0.000000793058
            0.000001885912    -0.000001193399    -0.036590297402    0.019430101171    0.000001517912    -0.000000793058    -0.053528057761    0.020944940551
0.300     -0.021526949453    0.078631307276    0.000001202070    -0.000002077900    -0.018042650193    0.068410409278    0.000001231309    -0.000002057884
            0.000001202070    -0.000002077900    -0.037070289659    0.051055212517    0.000001090293    -0.000001559303    -0.027917353909    0.043064345241
            -0.018042650193    0.068410409278    0.000001090293    -0.000001559303    -0.022126511238    0.077479882238    0.000001082470    -0.000001499408
            0.000001231309    -0.000002057884    -0.027917353909    0.043064345241    0.000001082470    -0.000001499408    -0.037550682826    0.050007142240
0.325     0.015909460555    0.090971154011    0.000000152087    -0.000002557668    0.010479117103    0.082406941757    0.000000190322    -0.000002553389
            0.000000152087    -0.000002557668    -0.008743396330    0.070050094468    0.000000299226    -0.000002013739    -0.008428733574    0.060894098696
            0.010479117103    0.082406941757    0.000000299226    -0.000002013739    0.014983381765    0.090054268944    0.000000325797    -0.000001957238
            0.000000190322    -0.000002553389    -0.008428733574    0.060894098696    0.000000325797    -0.000001957238    -0.009418838047    0.069081467037
0.350     0.055200972727    0.084119247004    -0.000001068888    -0.000002504546    0.043193835582    0.081442821579    -0.000001029952    -0.000002519567
            -0.000001068888    -0.000002504546    0.025855768979    0.074028489101    -0.000000669066    -0.000002065905    0.018107823984    0.068105578989
            0.043193835582    0.081442821579    -0.000000669066    -0.000002065905    0.054105035984    0.083576832827    -0.000000611120    -0.000002029128
            -0.000001029952    -0.000002519567    0.018107823984    0.068105578989    -0.000000611120    -0.000002029128    0.025065802690    0.073238100317
0.375     0.086914159433    0.059038241934    -0.000002196637    -0.000001873182    0.072398263370    0.064788395036    -0.000002166399    -0.000001907038
            -0.000002196637    -0.000001873182    0.059101149537    0.061334210213    -0.000001614990    -0.000001656078    0.045989807562    0.062171269628
            0.072398263370    0.064788395036    -0.000001614990    -0.000001656078    0.085866405238    0.058919173214    -0.000001536183    -0.000001653434
            -0.000002166399    -0.000001907038    0.045989807562    0.062171269628    -0.000001536183    -0.000001653434    0.058327453779    0.060772347832
0.400     0.102990377334    0.021033851452    -0.000002964504    -0.000000740912    0.090737277480    0.035425166204    -0.000002951833    -0.000000788988
            -0.000002964504    -0.000000740912    0.083304681864    0.034026469652    -0.000002322731    -0.000000816870    0.068847134425    0.043484667758
            0.090737277480    0.035425166204    -0.000002322731    -0.000000816870    0.102221146894    0.021271220311    -0.000002240308    -0.000000857334
            -0.000002951833    -0.000000788988    0.068847134425    0.043484667758    -0.000002240308    -0.000000857334    0.082699989102    0.033671122540
0.425     0.098531540758    -0.021245448731    -0.000003154194    0.000000697056    0.092796821783    -0.000378084710    -0.000003165902    0.000000643567
            -0.000003154194    0.000000697056    0.092393342688    -0.002462666177    -0.000002598632    0.000000321468    0.081008820245    0.015383466506
            0.092796821783    -0.000378084710    -0.000002598632    0.000000321468    0.098223930559    -0.020835091779    -0.000002533953    0.000000237764
            -0.000003165902    0.000000643567    0.081008820245    0.015383466506    -0.000002533953    0.000000237764    0.092094615074    -0.002713532546
0.450     0.073132111846    -0.057425050816    -0.000002645265    0.000002149222    0.076556472017    -0.034078165146    -0.000002684002    0.000002102703
            -0.000002645265    0.000002149222    0.083296222876    -0.040326804089    -0.000002313618    0.000001538394    0.078787305635    -0.016376633819
            0.076556472017    -0.034078165146    -0.000002313618    0.000001538394    0.073363557034    -0.057112902490    -0.000002287399    0.000001422706
            -0.000002684002    0.000002102703    0.078787305635    -0.016376633819    -0.000002287399    0.000001422706    0.083383011773    -0.040644527042
0.475     0.031538583055    -0.077619248066    -0.000001464169    0.000003272597    0.044449615889    -0.056596181993    -0.000001526016    0.000003247165
            -0.000001464169    0.000003272597    0.056816639665    -0.070912770305    -0.000001452538    0.000002552245    0.061479469680    -0.044675079667
            0.044449615889    -0.056596181993    -0.000001452538    0.000002552245    0.032237569490    -0.077704513821    -0.000001478255    0.000002426421
            -0.000001526016    0.000003247165    0.061479469680    -0.044675079667    -0.000001478255    0.000002426421    0.057277955266    -0.071506155180
0.500     -0.016785435002    -0.075089164007    0.000000186868    0.000003749316    0.003521737109    -0.060760907620    0.000000113720    0.000003756917
            0.000000186868    0.000003749316    0.017804210903    -0.086596658011    -0.000000149529    0.000003081855    0.031880999219    -0.062544102356
            0.003521737109    -0.060760907620    -0.000000149529    0.000003081855    -0.015847850755    -0.075815092435    -0.000000227357    0.000002973453
            0.000000113720    0.000003756917    0.031880999219    -0.062544102356    -0.000000227357    0.000002973453    0.018520167262    -0.087663480573
0.525     -0.059668371547    -0.048656013131    0.000001948012    0.000003388007    -0.035952593553    -0.043820073154    0.000001882157    0.000003433365
            0.000001948012    0.000003388007    -0.025600875899    -0.082691163088    0.000001316605    0.000002936875    -0.003996568579    -0.064912460830
            -0.035952593553    -0.043820073154    0.000001316605    0.000002936875    -0.058836620067    -0.050125083410    0.000001201563    0.000002870456
            0.000001882157    0.000003433365    -0.003996568579    -0.064912460830    0.000001201563    0.000002870456    -0.024848194850    -0.084360219487
0.550     -0.085657262087    -0.003719820807    0.000003387434    0.000002206556    -0.063400156128    -0.008868642909    0.000003348864    0.000002283207
            0.000003387434    0.000002206556    -0.063689392150    -0.058888506427    0.000002589427    0.000002095800    -0.038150498150    -0.050136390773
            -0.063400156128    -0.008868642909    0.000002589427    0.000002095800    -0.085300004021    -0.005841465576    0.000002463260    0.000002084488
            0.000003348864    0.000002283207    -0.038150498150    -0.050136390773    0.000002463260    0.000002084488    -0.063174174772    -0.061170195004
0.575     -0.087648721776    0.049046444090    0.000004133353    0.000000448851    -0.071347030246    0.035863193990    0.000004136354    0.000000539631
            0.000004133353    0.000000448851    -0.087564513206    -0.019650153662    0.000003346304    0.000000729207    -0.062567806832    -0.020692844646
            -0.071347030246    0.035863193990    0.000003346304    0.000000729207    -0.088049905377    0.046545303031    0.000003237688    0.000000770670
            0.000004136354    0.000000539631    -0.062567806832    -0.020692844646    0.000003237688    0.000000770670    -0.087550022028    -0.022415220984
0.600     -0.065035809255    0.096995631254    0.000003988721    -0.000001486608    -0.057668638724    0.079674179777    0.000004036371    -0.000001404682
            0.000003988721    -0.000001486608    -0.091482573690    0.026754479117    0.000003398242    -0.000000855423    -0.071360678402    0.017316972662
            -0.057668638724    0.079674179777    0.000003398242    -0.000000855423    -0.066309285681    0.094499806178    0.000003329822    -0.000000777113
            0.000004036371    -0.000001404682    -0.071360678402    0.017316972662    0.000003329822    -0.000000777113    -0.092147980317    0.023757286406
0.625     -0.023430354181    0.129250616967    0.000002977802    -0.000003168868    -0.025699912154    0.112639385761    0.000003060869    -0.000003116821
            0.000002977802    -0.000003168868    -0.074321098350    0.070331472103    0.000002732093    -0.000002312198    -0.062266221692    0.055751284629
            -0.025699912154    0.112639385761    0.000002732093    -0.000002312198    -0.025490270913    0.127154773322    0.000002715474    -0.000002220509
            0.000003060869    -0.000003116821    -0.062266221692    0.055751284629    0.000002715474    -0.000002220509    -0.075708813946    0.067420323386
0.650     0.027492866131    0.139295923688    0.000001312112    -0.000004244278    0.017332133094    0.127966084707    0.000001412523    -0.000004235642
            0.000001312112    -0.000004244278    -0.039720748510    0.101842998689    0.000001484940    -0.000003345376    -0.037056063325    0.086482158597
            0.017332133094    0.127966084707    0.000001484940    -0.000003345376    0.024906090758    0.137908481562    0.000001520078    -0.000003264948
            0.000001412523    -0.000004235642    -0.037056063325    0.086482158597    0.000001520078    -0.000003264948    -0.041718689733    0.099327522268
0.675     0.076726909968    0.125821061236    -0.000000682027    -0.000004497733    0.062423572051    0.122906065161    -0.000000585761    -0.000004535929
            -0.000000682027    -0.000004497733    0.005002178804    0.114862691141    -0.000000110044    -0.000003756155    -0.000873764483    0.103196630990
            0.062423572051    0.122906065161    -0.000000110044    -0.000003756155    0.073984649441    0.125300346228    -0.000000032845    -0.000003708558
            -0.000000585761    -0.000004535929    -0.000873764483    0.103196630990    -0.000000032845    -0.000003708558    0.002639607332    0.112973667257
0.700     0.114211284372    0.092270784073    -0.000002634411    -0.000003863520    0.100566375340    0.098675791924    -0.000002562406    -0.000003942553
            -0.000002634411    -0.000003863520    0.050634684762    0.106942972812    -0.000001773636    -0.000003450250    0.039045475332    0.102542621259
            0.100566375340    0.098675791924    -0.000001773636    -0.000003450250    0.111721000621    0.092594851330    -0.000001671495    -0.000003451567
            -0.000002562406    -0.000003942553    0.039045475332    0.102542621259    -0.000001671495    -0.000003451567    0.048236539868    0.105780314847
0.725     0.132383593466    0.045817620400    -0.000004179897    -0.000002417384    0.124029280184    0.059981396751    -0.000004148046    -0.000002523924
            -0.000004179897    -0.000002417384    0.087963528468    0.079837853448    -0.000003209171    -0.000002436418    0.074822038089    0.084551162367
            0.124029280184    0.059981396751    -0.000003209171    -0.000002436418    0.130511659365    0.046784068281    -0.000003104885    -0.000002495436
            -0.000004148046    -0.000002523924    0.074822038089    0.084551162367    -0.000003104885    -0.000002495436    0.085879001093    0.079346425592
0.750     0.127258888482    -0.003811020931    -0.000004991994    -0.000000369345    0.127478530857    0.014474855094    -0.000005010124    -0.000000484851
            -0.000004991994    -0.000000369345    0.109445640301    0.039014490056    -0.000004121945    -0.000000832722    0.099297562422    0.052544704709
            0.127478530857    0.014474855094    -0.000004121945    -0.000000832722    0.126255845559    -0.002559183880    -0.000004042088    -0.000000948284
            -0.000005010124    -0.000000484851    0.099297562422    0.052544704709    -0.000004042088    -0.000000948284    0.107974969769    0.038986683006
0.775     0.099312324308    -0.045709147487    -0.000004828258    0.000001935198    0.109189421315    -0.028094870870    -0.000004898909    0.000001832916
            -0.000004828258    0.000001935198    0.110520358943    -0.007332045138    -0.000004256874    0.000001113837    0.107252818900    0.012635663319
            0.109189421315    -0.028094870870    -0.000004256874    0.000001113837    0.099245833911    -0.044627855821    -0.000004227538    0.000000955368
