# GHz S RI R 45
0.000     0.036440782491    0.001840210826    -0.000000010769    0.000000484877    0.001054547056    0.001573207201    -0.000000212172    0.000000108311
            -0.000000010767    0.000000484877    0.036977606950    0.001031136525    0.000000137668    0.000000763671    0.001094923192    0.001213572535
            0.001054546891    0.001573207191    0.000000137651    0.000000763671    0.036378770992    0.001828284882    -0.000000010758    0.000000494025
            -0.000000212172    0.000000108311    0.001094923192    0.001213572535    -0.000000010758    0.000000494025    0.036999719072    0.001043180042
0.025     0.044618376830    0.005818098848    0.000000317865    0.000001057013    0.005092667596    0.011296910199    -0.000000211265    0.000000305264
            0.000000317866    0.000001057015    0.042888471191    0.005118208721    0.000000714484    0.000001610593    0.003632709799    0.011454932644
            0.005091071605    0.011300144557    0.000000714481    0.000001610583    0.044545931777    0.005801589832    0.000000330138    0.000001073517
            -0.000000211265    0.000000305264    0.003632575981    0.011453309135    0.000000330138    0.000001073517    0.042789347110    0.005062491257
0.050     0.054053455792    0.000776090923    0.000001168690    0.000001776917    0.015466499712    0.017445583994    -0.000000019514    0.000000669760
            0.000001168690    0.000001776917    0.047416570240    0.002697573414    0.000002054869    0.000002578391    0.010582089283    0.020046800331
            0.015466488175    0.017445624959    0.000002054869    0.000002578391    0.053960944064    0.000773386652    0.000001194668    0.000001786069
            -0.000000019514    0.000000669760    0.010582145146    0.020046762927    0.000001194668    0.000001786069    0.047215004995    0.002669614839
0.075     0.060355664090    -0.011508983714    0.000002364844    0.000002055064    0.027605935521    0.015443477554    0.000000367075    0.000000920582
            0.000002364844    0.000002055064    0.048799490919    -0.002572263214    0.000003817605    0.000002855450    0.019319922679    0.023846152074
            0.027605931144    0.015443483329    0.000003817605    0.000002855450    0.060288782851    -0.011468684539    0.000002373088    0.000002049009
            0.000000367075    0.000000920582    0.019319929797    0.023846156604    0.000002373088    0.000002049009    0.048499230764    -0.002499902289
0.100     0.059391498667    -0.029023489135    0.000003730152    0.000001783825    0.036154384537    0.005560016890    0.000000867453    0.000000998125
            0.000003730152    0.000001783825    0.045750083037    -0.008950519070    0.000005760382    0.000002345846    0.026779157085    0.022935979577
            0.036154384508    0.005560017080    0.000005760382    0.000002345846    0.059403909705    -0.028949227621    0.000003691943    0.000001799309
            0.000000867453    0.000000998125    0.026779156684    0.022935980044    0.000003691943    0.000001799309    0.045406864910    -0.008704971886
0.125     0.048133946580    -0.047106349455    0.000005065093    0.000000910626    0.036732867832    -0.008929675895    0.000001423950    0.000000885321
            0.000005065093    0.000000910626    0.037673929215    -0.013706132249    0.000007624469    0.000000999285    0.030527704456    0.019088912838
            0.036732867832    -0.008929675895    0.000007624469    0.000000999285    0.048277705686    -0.047043456165    0.000005000067    0.000001012681
            0.000001423950    0.000000885321    0.030527703608    0.019088912308    0.000005000067    0.000001012681    0.037382852607    -0.013269598109
0.150     0.026527604434    -0.059741475997    0.000006151739    -0.000000564670    0.027459504279    -0.022665918186    0.000001990607    0.000000550981
            0.000006151739    -0.000000564670    0.025616906586    -0.013852391298    0.000009134939    -0.000001186180    0.029566782347    0.015166136548
            0.027459504279    -0.022665918186    0.000009134939    -0.000001186180    0.026827145172    -0.059770503482    0.000006145607    -0.000000336207
            0.000001990607    0.000000550981    0.029566782347    0.015166136548    0.000006145607    -0.000000336207    0.025481483998    -0.013252721217
0.175     -0.001946457680    -0.061169469976    0.000006757930    -0.000002576617    0.009747008639    -0.029840015959    0.000002497742    -0.000000039159
            0.000006757930    -0.000002576617    0.012361539239    -0.007205483694    0.000009967141    -0.000004153578    0.024713655327    0.014156688498
            0.009747008639    -0.029840015959    0.000009967141    -0.000004153578    -0.001516775467    -0.061389469054    0.000006926507    -0.000002264607
            0.000002497742    -0.000000039159    0.024713655327    0.014156688498    0.000006926507    -0.000002264607    0.012450369621    -0.006540747864
0.200     -0.030748771307    -0.048119490938    0.000006651437    -0.000004967657    -0.011787460549    -0.026112017860    0.000002828597    -0.000000904228
            0.000006651437    -0.000004967657    0.001729610938    0.006682689409    0.000009754535    -0.000007705678    0.018430785443    0.018123649221
            -0.011787460549    -0.026112017860    0.000009754535    -0.000007705678    -0.030274913539    -0.048615321779    0.000007062508    -0.000004709172
            0.000002828597    -0.000000904228    0.018430785443    0.018123649221    0.000007062508    -0.000004709172    0.002039901069    0.007283835504
0.225     -0.052031397186    -0.021275306662    0.000005649511    -0.000007468554    -0.030546627121    -0.010280414100    0.000002832052    -0.000001992963
            0.000005649511    -0.000007468554    -0.002490793195    0.026049170496    0.000008176206    -0.000011441665    0.014041861594    0.027361937134
            -0.030546627121    -0.010280414100    0.000008176206    -0.000011441665    -0.051648489726    -0.022079113278    0.000006252973    -0.000007436577
            0.000002832052    -0.000001992963    0.014041861594    0.027361937134    0.000006252973    -0.000007436577    -0.002039683478    0.026477090907
0.250     -0.059044007039    0.014371118541    0.000003686563    -0.000009715686    -0.040028498313    0.014969689381    0.000002374566    -0.000003155091
            0.000003686563    -0.000009715686    0.002164101997    0.047180637092    0.000005103333    -0.000014769669    0.014555438248    0.040171949995
            -0.040028498313    0.014969689381    0.000005103333    -0.000014769669    -0.058900465285    0.013305944138    0.000004310473    -0.000010016324
            0.000002374566    -0.000003155091    0.014555438248    0.040171949995    0.000004310473    -0.000010016324    0.002619798205    0.047389917709
0.275     -0.048432418822    0.050674618826    0.000000869433    -0.000011321011    -0.036019345555    0.043682827094    0.000001419739    -0.000004160963
            0.000000869433    -0.000011321011    0.015865317685    0.065390415838    0.000000719437    -0.000017039729    0.021549359684    0.053373137271
            -0.036019345555    0.043682827094    0.000000719437    -0.000017039729    -0.048642301452    0.049475562772    0.000001300536    -0.000011914213
            0.000001419739    -0.000004160963    0.021549359684    0.053373137271    0.000001300536    -0.000011914213    0.016180242279    0.065423959001
0.300     -0.021526949453    0.078631307276    -0.000002522920    -0.000011970041    -0.018042650193    0.068410409278    0.000000068109    -0.000004778877
            -0.000002522920    -0.000011970041    0.036259105373    0.076463105253    -0.000004473883    -0.000017745941    0.034594084632    0.063387757800
            -0.018042650193    0.068410409278    -0.000004473883    -0.000017745941    -0.022126511238    0.077479882238    -0.000002417689    -0.000012675184
            0.000000068109    -0.000004778877    0.034594084632    0.063387757800    -0.000002417689    -0.000012675184    0.036332687763    0.076444573411
0.325     0.015909460555    0.090971154011    -0.000006106146    -0.000011507416    0.010479117103    0.082406941757    -0.000001465366    -0.000004870804
            -0.000006106146    -0.000011507416    0.059104567886    0.077933675758    -0.000009798558    -0.000016692138    0.051401039644    0.067391971073
            0.010479117103    0.082406941757    -0.000009798558    -0.000016692138    0.014983381765    0.090054268944    -0.000006295714    -0.000012100389
            -0.000001465366    -0.000004870804    0.051401039644    0.067391971073    -0.000006295714    -0.000012100389    0.058919953869    0.078030773989
0.350     0.055200972727    0.084119247004    -0.000009493987    -0.000009954103    0.043193835582    0.081442821579    -0.000002940266    -0.000004438456
            -0.000009493987    -0.000009954103    0.079475728013    0.069800528034    -0.000014613453    -0.000014021021    0.068542486625    0.064141624642
            0.043193835582    0.081442821579    -0.000014613453    -0.000014021021    0.054105035984    0.083576832827    -0.000009794703    -0.000010301593
            -0.000002940266    -0.000004438456    0.068542486625    0.064141624642    -0.000009794703    -0.000010301593    0.079113027585    0.070173140313
0.375     0.086914159433    0.059038241934    -0.000012385465    -0.000007459970    0.072398263370    0.064788395036    -0.000004184675    -0.000003601589
            -0.000012385465    -0.000007459970    0.093067417168    0.054477247417    -0.000018490438    -0.000010099424    0.082388004204    0.054270769555
            0.072398263370    0.064788395036    -0.000018490438    -0.000010099424    0.085866405238    0.058919173214    -0.000012568599    -0.000007611473
            -0.000004184675    -0.000003601589    0.082388004204    0.054270769555    -0.000012568599    -0.000007611473    0.092687426486    0.055225738186
0.400     0.102990377334    0.021033851452    -0.000014587992    -0.000004216712    0.090737277480    0.035425166204    -0.000005142931    -0.000002512558
            -0.000014587992    -0.000004216712    0.097252035687    0.036190843015    -0.000021259276    -0.000005325455    0.090017713185    0.040163694474
            0.090737277480    0.035425166204    -0.000021259276    -0.000005325455    0.102221146894    0.021271220311    -0.000014530724    -0.000004396464
            -0.000005142931    -0.000002512558    0.090017713185    0.040163694474    -0.000014530724    -0.000004396464    0.097056998980    0.037320436955
0.425     0.098531540758    -0.021245448731    -0.000015980977    -0.000000391789    0.092796821783    -0.000378084710    -0.000005855395    -0.000001270363
            -0.000015980977    -0.000000391789    0.091735971885    0.020008710851    -0.000022917119    0.000000033142    0.089983287867    0.025464951452
            0.092796821783    -0.000378084710    -0.000022917119    0.000000033142    0.098223930559    -0.020835091779    -0.000015782710    -0.000000880163
            -0.000005855395    -0.000001270363    0.089983287867    0.025464951452    -0.000015782710    -0.000000880163    0.091915203993    0.021415441693
0.450     0.073132111846    -0.057425050816    -0.000016441848    0.000003883116    0.076556472017    -0.034078165146    -0.000006376263    0.000000131046
            -0.000016441848    0.000003883116    0.078787293053    0.010683193913    -0.000023445400    0.000005886046    0.082866479764    0.014287059702
            0.076556472017    -0.034078165146    -0.000023445400    0.000005886046    0.073363557034    -0.057112902490    -0.000016429716    0.000002936774
            -0.000006376263    0.000000131046    0.082866479764    0.014287059702    -0.000016429716    0.000002936774    0.079459911106    0.012169456491
0.475     0.031538583055    -0.077619248066    -0.000015796400    0.000008458153    0.044449615889    -0.056596181993    -0.000006679872    0.000001776805
            -0.000015796400    0.000008458153    0.062938750863    0.011383911847    -0.000022644235    0.000012211564    0.071443096832    0.010091568427
            0.044449615889    -0.056596181993    -0.000022644235    0.000012211564    0.032237569490    -0.077704513821    -0.000016383871    0.000007197051
            -0.000006679872    0.000001776805    0.071443096832    0.010091568427    -0.000016383871    0.000007197051    0.064107530950    0.012704087603
0.500     -0.016785435002    -0.075089164007    -0.000013827821    0.000013074354    0.003521737109    -0.060760907620    -0.000006598777    0.000003734131
            -0.000013827821    0.000013074354    0.050030926825    0.022564209966    -0.000020093929    0.000018825114    0.060197856821    0.014458001839
            0.003521737109    -0.060760907620    -0.000020093929    0.000018825114    -0.015847850755    -0.075815092435    -0.000015268186    0.000011956316
            -0.000006598777    0.000003734131    0.060197856821    0.014458001839    -0.000015268186    0.000011956316    0.051564201818    0.023494198120
0.525     -0.059668371547    -0.048656013131    -0.000010374439    0.000017299119    -0.035952593553    -0.043820073154    -0.000005863656    0.000005922357
            -0.000010374439    0.000017299119    0.045560754463    0.041397122263    -0.000015334772    0.000025160697    0.054027862628    0.026199702080
            -0.035952593553    -0.043820073154    -0.000015334772    0.000025160697    -0.058836620067    -0.050125083410    -0.000012542998    0.000016917082
            -0.000005863656    0.000005922357    0.054027862628    0.026199702080    -0.000012542998    0.000016917082    0.047218725764    0.041809669242
0.550     -0.085657262087    -0.003719820807    -0.000005471005    0.000020546554    -0.063400156128    -0.008868642909    -0.000004240728    0.000008033314
            -0.000005471005    0.000020546554    0.052785735320    0.062325556867    -0.000008207375    0.000030241344    0.056495149793    0.041466071322
            -0.063400156128    -0.008868642909    -0.000008207375    0.000030241344    -0.085300004021    -0.005841465576    -0.000007837082    0.000021315373
            -0.000004240728    0.000008033314    0.056495149793    0.041466071322    -0.000007837082    0.000021315373    0.054289146762    0.062240546882
0.575     -0.087648721776    0.049046444090    0.000000536957    0.000022219157    -0.071347030246    0.035863193990    -0.000001718947    0.000009592114
            0.000000536957    0.000022219157    0.071429641337    0.078775711596    0.000000842558    0.000032950737    0.068432284453    0.054994118421
            -0.071347030246    0.035863193990    0.000000842558    0.000032950737    -0.088049905377    0.046545303031    -0.000001309324    0.000024120808
            -0.000001718947    0.000009592114    0.068432284453    0.054994118421    -0.000001309324    0.000024120808    0.072548986451    0.078361280200
0.600     -0.065035809255    0.096995631254    0.000007005835    0.000021911869    -0.057668638724    0.079674179777    0.000001399352    0.000010150325
            0.000007005835    0.000021911869    0.097745066588    0.085358672375    0.000010741138    0.000032481482    0.087694017611    0.061972102774
            -0.057668638724    0.079674179777    0.000010741138    0.000032481482    -0.066309285681    0.094499806178    0.000006238395    0.000024471026
            0.000001399352    0.000010150325    0.087694017611    0.061972102774    0.000006238395    0.000024471026    0.098373630567    0.084879716292
0.625     -0.023430354181    0.129250616967    0.000013158194    0.000019576299    -0.025699912154    0.112639385761    0.000004583770    0.000009509795
            0.000013158194    0.000019576299    0.125849411653    0.079494786245    0.000020103474    0.000028695483    0.110055062645    0.059522118340
            -0.025699912154    0.112639385761    0.000020103474    0.000028695483    -0.025490270913    0.127154773322    0.000013608884    0.000022081564
            0.000004583770    0.000009509795    0.110055062645    0.059522118340    0.000013608884    0.000022081564    0.126033522361    0.079232201767
0.650     0.027492866131    0.139295923688    0.000018315220    0.000015519798    0.017332133094    0.127966084707    0.000007296157    0.000007802995
            0.000018315220    0.000015519798    0.149584717543    0.061876398735    0.000027701595    0.000022157882    0.130634723357    0.047269759451
            0.017332133094    0.127966084707    0.000027701595    0.000022157882    0.024906090758    0.137908481562    0.000019661692    0.000017352378
            0.000007296157    0.000007802995    0.130634723357    0.047269759451    0.000019661692    0.000017352378    0.149505227558    0.062049382906
0.675     0.076726909968    0.125821061236    0.000022064212    0.000010262650    0.062423572051    0.122906065161    0.000009195489    0.000005409305
            0.000022064212    0.000010262650    0.164047906089    0.035922208586    0.000032816272    0.000013875143    0.145103080067    0.027088949909
            0.062423572051    0.122906065161    0.000032816272    0.000013875143    0.073984649441    0.125300346228    0.000023697350    0.000011161093
            0.000009195489    0.000005409305    0.145103080067    0.027088949909    0.000023697350    0.000011161093    0.163971423909    0.036632433793
0.700     0.114211284372    0.092270784073    0.000024277521    0.000004337916    0.100566375340    0.098675791924    0.000010216333    0.000002767066
            0.000024277521    0.000004337916    0.166500314249    0.006766713584    0.000035324009    0.000004908587    0.150461331684    0.002509030267
            0.100566375340    0.098675791924    0.000035324009    0.000004908587    0.111721000621    0.092594851330    0.000025595901    0.000004493277
            0.000010216333    0.000002767066    0.150461331684    0.002509030267    0.000025595901    0.000004493277    0.166713694010    0.007975563703
0.725     0.132383593466    0.045817620400    0.000025022644    -0.000001848867    0.124029280184    0.059981396751    0.000010525585    0.000000204271
            0.000025022644    -0.000001848867    0.156728423199    -0.019795126183    0.000035559251    -0.000003946964    0.145485170547    -0.021934103522
            0.124029280184    0.059981396751    0.000035559251    -0.000003946964    0.130511659365    0.046784068281    0.000025725258    -0.000001899155
            0.000010525585    0.000000204271    0.145485170547    -0.021934103522    0.000025725258    -0.000001899155    0.157472747094    -0.018263771114
0.750     0.127258888482    -0.003811020931    0.000024411535    -0.000008066073    0.127478530857    0.014474855094    0.000010386936    -0.000002167111
            0.000024411535    -0.000008066073    0.137121182470    -0.038317393158    0.000034026772    -0.000012333030    0.131079819231    -0.041383288512
            0.127478530857    0.014474855094    0.000034026772    -0.000012333030    0.126255845559    -0.002559183880    0.000024674487    -0.000007714165
            0.000010386936    -0.000002167111    0.131079819231    -0.041383288512    0.000024674487    -0.000007714165    0.138530860272    -0.036743801205
0.775     0.099312324308    -0.045709147487    0.000022470910    -0.000014199691    0.109189421315    -0.028094870870    0.000009997368    -0.000004457261
            0.000022470910    -0.000014199691    0.112499075708    -0.044771385124    0.000031074566    -0.000020298304    0.110491468895    -0.051596618201
            0.109189421315    -0.028094870870    0.000031074566    -0.000020298304    0.099245833911    -0.044627855821    0.000022910496    -0.000013127582
            0.000009997368    -0.000004457261    0.110491468895    -0.051596618201    0.000022910496    -0.000013127582    0.114555044399    -0.043482727652
