# GHz S RI R 45
0.000     0.036440782491    0.001840210826    0.000000567604    0.000001112472    0.001054547056    0.001573207201    0.000000639207    0.000001238697
            0.000000567604    0.000001112472    0.035793637314    0.001673875356    0.000000647231    0.000001242408    0.000997177657    0.001411148381
            0.001054546891    0.001573207191    0.000000647230    0.000001242408    0.036378770992    0.001828284882    0.000000734480    0.000001395450
            0.000000639208    0.000001238697    0.000997178307    0.001411148412    0.000000734491    0.000001395450    0.035727088403    0.001687879325
0.025     0.044618376830    0.005818098848    0.000001919337    0.000001863381    0.005092667596    0.011296910199    0.000002144745    0.000002074743
            0.000001919337    0.000001863380    0.043426945640    0.005053375741    0.000002157296    0.000002078354    0.004686695450    0.010332104058
            0.005091071605    0.011300144557    0.000002157296    0.000002078355    0.044545931777    0.005801589832    0.000002431264    0.000002333479
            0.000002144745    0.000002074742    0.004684131372    0.010331155366    0.000002431267    0.000002333482    0.043379427102    0.005072066940
0.050     0.054053455792    0.000776090923    0.000004540173    0.000001678062    0.015466499712    0.017445583994    0.000005060890    0.000001869001
            0.000004540173    0.000001678062    0.052278893725    0.000005357507    0.000005078825    0.000001868987    0.014274696082    0.016097127673
            0.015466488175    0.017445624959    0.000005078826    0.000001868987    0.053960944064    0.000773386652    0.000005709984    0.000002098254
            0.000005060890    0.000001869001    0.014274675758    0.016097129657    0.000005709984    0.000002098254    0.052295683055    0.000035345645
0.075     0.060355664090    -0.011508983714    0.000006844313    -0.000000693137    0.027605935521    0.015443477554    0.000007626100    -0.000000763847
            0.000006844313    -0.000000693137    0.058471504039    -0.011669954028    0.000007645247    -0.000000771607    0.025797742880    0.014475997448
            0.027605931144    0.015443483329    0.000007645247    -0.000000771607    0.060288782851    -0.011468684539    0.000008592002    -0.000000859038
            0.000007626100    -0.000000763847    0.025797737346    0.014476003223    0.000008592002    -0.000000859038    0.058576474467    -0.011664063023
0.100     0.059391498667    -0.029023489135    0.000007461945    -0.000004757517    0.036154384537    0.005560016890    0.000008324086    -0.000005279662
            0.000007461945    -0.000004757517    0.058339659338    -0.028390697123    0.000008339074    -0.000005295287    0.034490732963    0.005478152784
            0.036154384508    0.005560017080    0.000008339074    -0.000005295287    0.059403909705    -0.028949227621    0.000009384084    -0.000005928521
            0.000008324086    -0.000005279662    0.034490732934    0.005478152965    0.000009384084    -0.000005928521    0.058546402899    -0.028463693423
0.125     0.048133946580    -0.047106349455    0.000005436370    -0.000009285017    0.036732867832    -0.008929675895    0.000006091382    -0.000010319445
            0.000005436370    -0.000009285017    0.048989349840    -0.046222071676    0.000006097979    -0.000010340040    0.036304110032    -0.008266660170
            0.036732867832    -0.008929675895    0.000006097979    -0.000010340040    0.048277705686    -0.047043456165    0.000006895113    -0.000011593629
            0.000006091382    -0.000010319445    0.036304110032    -0.008266660170    0.000006895113    -0.000011593629    0.049282910524    -0.046435787293
0.150     0.026527604434    -0.059741475997    0.000000663926    -0.000012597054    0.027459504279    -0.022665918186    0.000000806236    -0.000014024808
            0.000000663926    -0.000012597054    0.029966988175    -0.059933798985    0.000000802970    -0.000014046113    0.029192130779    -0.022207229883
            0.027459504279    -0.022665918186    0.000000802970    -0.000014046113    0.026827145172    -0.059770503482    0.000000983742    -0.000015778662
            0.000000806236    -0.000014024808    0.029192130779    -0.022207229883    0.000000983742    -0.000015778662    0.030292938941    -0.060345708377
0.175     -0.001946457680    -0.061169469976    -0.000005973247    -0.000013108239    0.009747008639    -0.029840015959    -0.000006563763    -0.000014636931
            -0.000005973247    -0.000013108239    0.003850286383    -0.064241493801    -0.000006576574    -0.000014655585    0.013868263924    -0.031171086699
            0.009747008639    -0.029840015959    -0.000006576574    -0.000014655585    -0.001516775467    -0.061389469054    -0.000007279299    -0.000016517081
            -0.000006563763    -0.000014636931    0.013868263924    -0.031171086699    -0.000007279299    -0.000016517081    0.004124331051    -0.064878490139
0.200     -0.030748771307    -0.048119490938    -0.000012721263    -0.000009888098    -0.011787460549    -0.026112017860    -0.000014085768    -0.000011114784
            -0.000012721263    -0.000009888098    -0.024011925798    -0.055717936294    -0.000014108069    -0.000011128366    -0.006143714956    -0.030933687460
            -0.011787460549    -0.026112017860    -0.000014108069    -0.000011128366    -0.030274913539    -0.048615321779    -0.000015748170    -0.000012635167
            -0.000014085768    -0.000011114784    -0.006143714956    -0.030933687460    -0.000015748170    -0.000012635167    -0.023889575914    -0.056561459267
0.225     -0.052031397186    -0.021275306662    -0.000017432147    -0.000003121024    -0.030546627121    -0.010280414100    -0.000019384612    -0.000003643166
            -0.000017432147    -0.000003121024    -0.046803064544    -0.034104163200    -0.000019417119    -0.000003647809    -0.025340845574    -0.019659151750
            -0.030546627121    -0.010280414100    -0.000019417119    -0.000003647809    -0.051648489726    -0.022079113278    -0.000021777163    -0.000004313646
            -0.000019384612    -0.000003643166    -0.025340845574    -0.019659151750    -0.000021777163    -0.000004313646    -0.046923734131    -0.035080860424
0.250     -0.059044007039    0.014371118541    -0.000018288226    0.000005773675    -0.040028498313    0.014969689381    -0.000020436662    0.000006230291
            -0.000018288226    0.000005773675    -0.058115961093    -0.002834709013    -0.000020477806    0.000006241697    -0.037797955557    0.001273053177
            -0.040028498313    0.014969689381    -0.000020477806    0.000006241697    -0.058900465285    0.013305944138    -0.000023091966    0.000006753968
            -0.000020436662    0.000006230291    -0.037797955557    0.001273053177    -0.000023091966    0.000006753968    -0.058530517107    -0.003821734937
0.275     -0.048432418822    0.050674618826    -0.000014488570    0.000014520614    -0.036019345555    0.043682827094    -0.000016325977    0.000016003053
            -0.000014488570    0.000014520614    -0.053915947324    0.031586676994    -0.000016367501    0.000016038104    -0.038979510955    0.027445497847
            -0.036019345555    0.043682827094    -0.000016367501    0.000016038104    -0.048642301452    0.049475562772    -0.000018626480    0.000017796934
            -0.000016325977    0.000016003053    -0.038979510955    0.027445497847    -0.000018626480    0.000017796934    -0.054608693946    0.030738003433
0.300     -0.021526949453    0.078631307276    -0.000006571608    0.000020713837    -0.018042650193    0.068410409278    -0.000007608273    0.000023006355
            -0.000006571608    0.000020713837    -0.033918287249    0.061203611468    -0.000007635345    0.000023066364    -0.027186517549    0.052561715151
            -0.018042650193    0.068410409278    -0.000007635345    0.000023066364    -0.022126511238    0.077479882238    -0.000008942003    0.000025824612
            -0.000007608273    0.000023006355    -0.027186517549    0.052561715151    -0.000008942003    0.000025824612    -0.034795044822    0.060630514753
0.325     0.015909460555    0.090971154011    0.000003771887    0.000022555903    0.010479117103    0.082406941757    0.000003878671    0.000025218748
            0.000003771887    0.000022555903    -0.001855054830    0.078731395800    0.000003881029    0.000025292980    -0.004116788105    0.070176609622
            0.010479117103    0.082406941757    0.000003881029    0.000025292980    0.014983381765    0.090054268944    0.000003954663    0.000028527672
            0.000003878671    0.000025218748    -0.004116788105    0.070176609622    0.000003954663    0.000028527672    -0.002752956321    0.078518295660
0.350     0.055200972727    0.084119247004    0.000014216473    0.000019304157    0.043193835582    0.081442821579    0.000015570845    0.000021768267
            0.000014216473    0.000019304157    0.035372549096    0.079473178828    0.000015607404    0.000021836647    0.025541578121    0.075399749812
            0.043193835582    0.081442821579    0.000015607404    0.000021836647    0.054105035984    0.083576832827    0.000017204660    0.000024858395
            0.000015570845    0.000021768267    0.025541578121    0.075399749812    0.000017204660    0.000024858395    0.034654610841    0.079619116807
0.375     0.086914159433    0.059038241934    0.000022376392    0.000011351779    0.072398263370    0.064788395036    0.000024807531    0.000013040317
            0.000022376392    0.000011351779    0.069333340846    0.062489406361    0.000024867411    0.000013083612    0.055237544969    0.066087074821
            0.072398263370    0.064788395036    0.000024867411    0.000013083612    0.085866405238    0.058919173214    0.000027795538    0.000015183861
            0.000024807531    0.000013040317    0.055237544969    0.066087074821    0.000027795538    0.000015183861    0.068990522871    0.062892889088
0.400     0.102990377334    0.021033851452    0.000026252129    0.000000093016    0.090737277480    0.035425166204    0.000029330974    0.000000545596
            0.000026252129    0.000000093016    0.091963216197    0.030871649730    0.000029393419    0.000000557838    0.078013486231    0.043375772189
            0.090737277480    0.035425166204    0.000029393419    0.000000557838    0.102221146894    0.021271220311    0.000033139088    0.000001163551
            0.000029330974    0.000000545596    0.078013486231    0.043375772189    0.000033139088    0.000001163551    0.092135591187    0.031337533958
0.425     0.098531540758    -0.021245448731    0.000024559551    -0.000012288455    0.092796821783    -0.000378084710    0.000027664751    -0.000013305516
            0.000024559551    -0.000012288455    0.097325893101    -0.008821152711    0.000027712660    -0.000013313942    0.087988851542    0.011569234151
            0.092796821783    -0.000378084710    0.000027712660    -0.000013313942    0.098223930559    -0.020835091779    0.000031521720    -0.000014501104
            0.000027664751    -0.000013305516    0.087988851542    0.011569234151    0.000031521720    -0.000014501104    0.098054792391    -0.008552980491
0.450     0.073132111846    -0.057425050816    0.000017045489    -0.000023083683    0.076556472017    -0.034078165146    0.000019476155    -0.000025495392
            0.000017045489    -0.000023083683    0.083005586438    -0.047776243632    0.000019508048    -0.000025507637    0.081726910622    -0.022542420897
            0.076556472017    -0.034078165146    0.000019508048    -0.000025507637    0.073363557034    -0.057112902490    0.000022524820    -0.000028409458
            0.000019476155    -0.000025495392    0.081726910622    -0.022542420897    0.000022524820    -0.000028409458    0.084203653635    -0.047981001039
0.475     0.031538583055    -0.077619248066    0.000004789700    -0.000029503919    0.044449615889    -0.056596181993    0.000005919083    -0.000032897002
            0.000004789700    -0.000029503919    0.050930548935    -0.076675543743    0.000005947144    -0.000032905917    0.059287394242    -0.050939990527
            0.044449615889    -0.056596181993    0.000005947144    -0.000032905917    0.032237569490    -0.077704513821    0.000007402513    -0.000037032404
            0.000005919083    -0.000032897002    0.059287394242    -0.050939990527    0.000007402513    -0.000037032404    0.052375672549    -0.077579070348
0.500     -0.016785435002    -0.075089164007    -0.000009686905    -0.000029412931    0.003521737109    -0.060760907620    -0.000010239915    -0.000033087935
            -0.000009686905    -0.000029412931    0.007398417740    -0.087815828499    -0.000010205976    -0.000033104699    0.024699374434    -0.066174859584
            0.003521737109    -0.060760907620    -0.000010205976    -0.000033104699    -0.015847850755    -0.075815092435    -0.000010788886    -0.000037617684
            -0.000010239915    -0.000033087935    0.024699374434    -0.066174859584    -0.000010788886    -0.000037617684    0.008762122432    -0.089526161838
0.525     -0.059668371547    -0.048656013131    -0.000022833252    -0.000022196514    -0.035952593553    -0.043820073154    -0.000025067541    -0.000025316810
            -0.000022833252    -0.000022196514    -0.037991622767    -0.077217473199    -0.000025038467    -0.000025359087    -0.014560128917    -0.063403605852
            -0.035952593553    -0.043820073154    -0.000025038467    -0.000025359087    -0.058836620067    -0.050125083410    -0.000027681765    -0.000029248340
            -0.000025067541    -0.000025316810    -0.014560128917    -0.063403605852    -0.000027681765    -0.000029248340    -0.037079033300    -0.079672952695
0.550     -0.085657262087    -0.003719820807    -0.000031111326    -0.000009295505    -0.063400156128    -0.008868642909    -0.000034606446    -0.000011105904
            -0.000031111326    -0.000009295505    -0.074540367639    -0.046071475356    -0.000034612054    -0.000011173418    -0.049248880339    -0.042044236131
            -0.063400156128    -0.008868642909    -0.000034612054    -0.000011173418    -0.085300004021    -0.005841465576    -0.000038834909    -0.000013512157
            -0.000034606446    -0.000011105904    -0.049248880339    -0.042044236131    -0.000038834909    -0.000013512157    -0.074397751577    -0.049027462455
0.575     -0.087648721776    0.049046444090    -0.000032272709    0.000006105138    -0.071347030246    0.035863193990    -0.000036284724    0.000006068231
            -0.000032272709    0.000006105138    -0.093298939731    -0.000786295133    -0.000036348726    0.000006006986    -0.070852832694    -0.006246858882
            -0.071347030246    0.035863193990    -0.000036348726    0.000006006986    -0.088049905377    0.046545303031    -0.000041270625    0.000005811866
            -0.000036284724    0.000006068231    -0.070852832694    -0.006246858882    -0.000041270625    0.000005811866    -0.094101086378    -0.003855821627
0.600     -0.065035809255    0.096995631254    -0.000026132057    0.000020195495    -0.057668638724    0.079674179777    -0.000029789243    0.000021984634
            -0.000026132057    0.000020195495    -0.089580359623    0.048611104231    -0.000029901431    0.000021976494    -0.073996221047    0.036155937965
            -0.057668638724    0.079674179777    -0.000029901431    0.000021976494    -0.066309285681    0.094499806178    -0.000034464834    0.000024032897
            -0.000029789243    0.000021984634    -0.073996221047    0.036155937965    -0.000034464834    0.000024032897    -0.091297563787    0.045869904808
0.625     -0.023430354181    0.129250616967    -0.000014394591    0.000029820315    -0.025699912154    0.112639385761    -0.000016912577    0.000033084710
            -0.000014394591    0.000029820315    -0.064134615978    0.091194633576    -0.000017026358    0.000033157177    -0.057779059420    0.075844731048
            -0.025699912154    0.112639385761    -0.000017026358    0.000033157177    -0.025490270913    0.127154773322    -0.000020250692    0.000037078409
            -0.000016912577    0.000033084710    -0.057779059420    0.075844731048    -0.000020250692    0.000037078409    -0.066527703175    0.089170357019
0.650     0.027492866131    0.139295923688    0.000000184421    0.000033219708    0.017332133094    0.127966084707    -0.000000659402    0.000037310354
            0.000000184421    0.000033219708    -0.022663220117    0.117918848268    -0.000000718922    0.000037448072    -0.025689858376    0.104412245515
            0.017332133094    0.127966084707    -0.000000718922    0.000037448072    0.024906090758    0.137908481562    -0.000001906289    0.000042461689
            -0.000000659402    0.000037310354    -0.025689858376    0.104412245515    -0.000001906289    0.000042461689    -0.025332794559    0.116852124345
0.675     0.076726909968    0.125821061236    0.000014686591    0.000030057494    0.062423572051    0.122906065161    0.000015721032    0.000034172493
            0.000014686591    0.000030057494    0.025897024459    0.123527876095    0.000015744464    0.000034323813    0.015592717077    0.116118066697
            0.062423572051    0.122906065161    0.000015744464    0.000034323813    0.073984649441    0.125300346228    0.000016890458    0.000039439821
            0.000015721032    0.000034172493    0.015592717077    0.116118066697    0.000016890458    0.000039439821    0.023425276514    0.123455150987
0.700     0.114211284372    0.092270784073    0.000026544621    0.000021069665    0.100566375340    0.098675791924    0.000029313506    0.000024396704
            0.000026544621    0.000021069665    0.071516431809    0.107290330352    0.000029403289    0.000024505717    0.057806028073    0.108739073548
            0.100566375340    0.098675791924    0.000029403289    0.000024505717    0.111721000621    0.092594851330    0.000032737337    0.000028697669
            0.000029313506    0.000024396704    0.057806028073    0.108739073548    0.000032737337    0.000028697669    0.069693898928    0.108031556330
0.725     0.132383593466    0.045817620400    0.000033688057    0.000007733815    0.124029280184    0.059981396751    0.000037723064    0.000009576265
            0.000033688057    0.000007733815    0.105018512943    0.072763235514    0.000037829374    0.000009618048    0.092630379979    0.083672519706
            0.124029280184    0.059981396751    0.000037829374    0.000009618048    0.130511659365    0.046784068281    0.000042783994    0.000011993797
            0.000037723064    0.000009576265    0.092630379979    0.083672519706    0.000042783994    0.000011993797    0.104183822235    0.073949355692
0.750     0.127258888482    -0.003811020931    0.000034584164    -0.000007841342    0.127478530857    0.014474855094    0.000039145639    -0.000007946118
            0.000034584164    -0.000007841342    0.119611023336    0.026978009248    0.000039220481    -0.000007951368    0.113011331437    0.045634904106
            0.127478530857    0.014474855094    0.000039220481    -0.000007951368    0.126255845559    -0.002559183880    0.000044876550    -0.000007988064
            0.000039145639    -0.000007946118    0.113011331437    0.045634904106    0.000044876550    -0.000007988064    0.119915785927    0.028111124982
0.775     0.099312324308    -0.045709147487    0.000028441882    -0.000022896580    0.109189421315    -0.028094870870    0.000032614585    -0.000025064063
            0.000028441882    -0.000022896580    0.112026952883    -0.020727481344    0.000032646467    -0.000025068969    0.114346321079    0.002039047818
            0.109189421315    -0.028094870870    0.000032646467    -0.000025068969    0.099245833911    -0.044627855821    0.000037863126    -0.000027674921
            0.000032614585    -0.000025064063    0.114346321079    0.002039047818    0.000037863126    -0.000027674921    0.113386964082    -0.020187255294
