# GHz S RI R 45
0.000     0.036440782491    0.001840210826    -0.000014307130    -0.000037711126    0.001054547056    0.001573207201    -0.000020285302    -0.000052122144
            -0.000014307078    -0.000037711128    0.036697833340    0.001342741765    -0.000010761620    -0.000028180452    0.001101110057    0.001457804910
            0.001054546891    0.001573207191    -0.000010761626    -0.000028180452    0.036378770992    0.001828284882    -0.000014426851    -0.000037683771
            -0.000020285259    -0.000052122141    0.001101110295    0.001457804855    -0.000014426942    -0.000037683770    0.036674197244    0.001333562128
0.025     0.044618376830    0.005818098848    -0.000045512503    -0.000076674408    0.005092667596    0.011296910199    -0.000063314480    -0.000106655659
            -0.000045512492    -0.000076674360    0.042706238769    0.005730645484    -0.000034085805    -0.000057197195    0.003617905749    0.011844265406
            0.005091071605    0.011300144557    -0.000034085779    -0.000057197174    0.044545931777    0.005801589832    -0.000045359879    -0.000076780669
            -0.000063315020    -0.000106655721    0.003617918062    0.011843501483    -0.000045359897    -0.000076780608    0.042592253702    0.005623766749
0.050     0.054053455792    0.000776090923    -0.000113172343    -0.000117015391    0.015466499712    0.017445583994    -0.000156456278    -0.000163929433
            -0.000113172343    -0.000117015391    0.047248241532    0.003883876203    -0.000084783448    -0.000087281817    0.010494897120    0.020883166195
            0.015466488175    0.017445624959    -0.000084783463    -0.000087281802    0.053960944064    0.000773386652    -0.000112880883    -0.000118065944
            -0.000156456278    -0.000163929433    0.010494919385    0.020883165078    -0.000112880883    -0.000118065944    0.047020567649    0.003743979464
0.075     0.060355664090    -0.011508983714    -0.000196858482    -0.000120863183    0.027605935521    0.015443477554    -0.000273298260    -0.000171830236
            -0.000196858482    -0.000120863183    0.048648141604    -0.000656493243    -0.000147686553    -0.000089892267    0.019198059838    0.025310527189
            0.027605931144    0.015443483329    -0.000147686553    -0.000089892267    0.060288782851    -0.011468684539    -0.000197821111    -0.000123174381
            -0.000273298260    -0.000171830236    0.019198075321    0.025310529252    -0.000197821103    -0.000123174376    0.048299322145    -0.000737867001
0.100     0.059391498667    -0.029023489135    -0.000283880042    -0.000087500195    0.036154384537    0.005560016890    -0.000397161865    -0.000127302496
            -0.000283880042    -0.000087500195    0.045791103641    -0.006111254379    -0.000213130304    -0.000064208556    0.026813527006    0.025197009349
            0.036154384508    0.005560017080    -0.000213130314    -0.000064208559    0.059403909705    -0.028949227621    -0.000287622294    -0.000089675351
            -0.000397161875    -0.000127302499    0.026813527006    0.025197009349    -0.000287622294    -0.000089675351    0.045379477062    -0.006052834800
0.125     0.048133946580    -0.047106349455    -0.000363567952    -0.000017265246    0.036732867832    -0.008929675895    -0.000511726384    -0.000028813415
            -0.000363567952    -0.000017265246    0.038199314797    -0.009859601399    -0.000272729418    -0.000010333198    0.031037707595    0.022211203123
            0.036732867832    -0.008929675895    -0.000272729418    -0.000010333198    0.048277705686    -0.047043456165    -0.000369971451    -0.000016520594
            -0.000511726384    -0.000028813415    0.031037690147    0.022211157053    -0.000369971451    -0.000016520594    0.037827422828    -0.009634583141
0.150     0.026527604434    -0.059741475997    -0.000425359451    0.000089762136    0.027459504279    -0.022665918186    -0.000599549004    0.000123315664
            -0.000425359451    0.000089762136    0.027112609760    -0.009051017653    -0.000317996246    0.000071504762    0.030919567256    0.019037030116
            0.027459504279    -0.022665918186    -0.000317996246    0.000071504762    0.026827145172    -0.059770503482    -0.000431707070    0.000095712845
            -0.000599549004    0.000123315664    0.030919566924    0.019037030656    -0.000431707070    0.000095712845    0.026891291247    -0.008701438616
0.175     -0.001946457680    -0.061169469976    -0.000454550223    0.000232691101    0.009747008639    -0.029840015959    -0.000638635877    0.000325090026
            -0.000454550223    0.000232691101    0.015218273675    -0.001786130540    -0.000337473544    0.000179984325    0.027221373001    0.018469097120
            0.009747008639    -0.029840015959    -0.000337473544    0.000179984325    -0.001516775467    -0.061389469054    -0.000456528916    0.000243415191
            -0.000638635877    0.000325090026    0.027221373001    0.018469097120    -0.000456528916    0.000243415191    0.015214887986    -0.001422973941
0.200     -0.030748771307    -0.048119490938    -0.000431522074    0.000403322142    -0.011787460549    -0.026112017860    -0.000603364317    0.000561786180
            -0.000431522074    0.000403322142    0.006145766239    0.012197941614    -0.000316511851    0.000307957527    0.022238532097    0.022419087862
            -0.011787460549    -0.026112017860    -0.000316511851    0.000307957527    -0.030274913539    -0.048615321779    -0.000425899901    0.000414871440
            -0.000603364317    0.000561786180    0.022238532409    0.022419088960    -0.000425899901    0.000414871440    0.006348505521    0.012433541704
0.225     -0.052031397186    -0.021275306662    -0.000337486950    0.000579973556    -0.030546627121    -0.010280414100    -0.000472007575    0.000802543158
            -0.000337486950    0.000579973556    0.003410008284    0.031073938291    -0.000241847266    0.000438206429    0.019050900865    0.031137549767
            -0.030546627121    -0.010280414100    -0.000241847266    0.000438206429    -0.051648489726    -0.022079113278    -0.000324815793    0.000586562029
            -0.000472007575    0.000802543158    0.019050900865    0.031137549767    -0.000324815793    0.000586562029    0.003719499514    0.031064274189
0.250     -0.059044007039    0.014371118541    -0.000166116901    0.000727832800    -0.040028498313    0.014969689381    -0.000239633458    0.001002587429
            -0.000166116901    0.000727832800    0.009190535190    0.051223828598    -0.000110231973    0.000544328865    0.020418437287    0.043024128652
            -0.040028498313    0.014969689381    -0.000110231973    0.000544328865    -0.058900465285    0.013305944138    -0.000151326637    0.000725342494
            -0.000239633458    0.001002587429    0.020418437287    0.043024128652    -0.000151326637    0.000725342494    0.009447183849    0.050925124689
0.275     -0.048432418822    0.050674618826    0.000067700403    0.000809243137    -0.036019345555    0.043682827094    0.000073317705    0.001115819533
            0.000067700403    0.000809243137    0.023453548493    0.068203926639    0.000065594524    0.000598919524    0.027751748516    0.055127763916
            -0.036019345555    0.043682827094    0.000065594524    0.000598919524    -0.048642301452    0.049475562772    0.000077719692    0.000798295854
            0.000073317705    0.001115819533    0.027751748516    0.055127763916    0.000077719692    0.000798295854    0.023490060097    0.067672936999
0.300     -0.021526949453    0.078631307276    0.000328875910    0.000799068953    -0.018042650193    0.068410409278    0.000423509364    0.001112000620
            0.000328875910    0.000799068953    0.043797128993    0.078127313796    0.000258592666    0.000584973598    0.040599748588    0.064166467635
            -0.018042650193    0.068410409278    0.000258592666    0.000584973598    -0.022126511238    0.077479882238    0.000329460715    0.000785331888
            0.000423509364    0.001112000620    0.040599748588    0.064166467635    0.000329460715    0.000785331888    0.043498548953    0.077510332710
0.325     0.015909460555    0.090971154011    0.000574336151    0.000695045326    0.010479117103    0.082406941757    0.000759149924    0.000987442833
            0.000574336151    0.000695045326    0.066112082514    0.078844624368    0.000437229576    0.000502717996    0.056813522704    0.067589118487
            0.010479117103    0.082406941757    0.000437229576    0.000502717996    0.014983381765    0.090054268944    0.000566379271    0.000686215597
            0.000759149924    0.000987442833    0.056813522704    0.067589118487    0.000566379271    0.000686215597    0.065458860084    0.078336057763
0.350     0.055200972727    0.084119247004    0.000768940359    0.000517152507    0.043193835582    0.081442821579    0.001037526554    0.000763559012
            0.000768940359    0.000517152507    0.085754713638    0.070567239224    0.000576993311    0.000368007628    0.073231826859    0.064321298730
            0.043193835582    0.081442821579    0.000576993311    0.000368007628    0.054105035984    0.083576832827    0.000759032417    0.000518176837
            0.001037526554    0.000763559012    0.073231826859    0.064321298730    0.000759032417    0.000518176837    0.084836309429    0.070350966666
0.375     0.086914159433    0.059038241934    0.000896072806    0.000296773506    0.072398263370    0.064788395036    0.001236057390    0.000474435602
            0.000896072806    0.000296773506    0.098783230739    0.055757191159    0.000667262510    0.000203601655    0.086551324559    0.055015469263
            0.072398263370    0.064788395036    0.000667262510    0.000203601655    0.085866405238    0.058919173214    0.000893033670    0.000306131860
            0.001236057390    0.000474435602    0.086551324559    0.055015469263    0.000893033670    0.000306131860    0.097779826515    0.055949483249
0.400     0.102990377334    0.021033851452    0.000958790748    0.000062444478    0.090737277480    0.035425166204    0.001352861318    0.000151552621
            0.000958790748    0.000062444478    0.102933074263    0.038503330823    0.000710846061    0.000029144287    0.094166374568    0.041909465230
            0.090737277480    0.035425166204    0.000710846061    0.000029144287    0.102221146894    0.021271220311    0.000968192355    0.000071838852
            0.001352861318    0.000151552621    0.094166374568    0.041909465230    0.000968192355    0.000071838852    0.102070064804    0.039112780080
0.425     0.098531540758    -0.021245448731    0.000971322523    -0.000171376193    0.092796821783    -0.000378084710    0.001397091505    -0.000187431602
            0.000971322523    -0.000171376193    0.098185002806    0.023555556039    0.000717295354    -0.000145993889    0.094854140787    0.028348623523
            0.092796821783    -0.000378084710    0.000717295344    -0.000145993887    0.098223930559    -0.020835091779    0.000990867533    -0.000173083800
            0.001397091505    -0.000187431602    0.094854141745    0.028348623810    0.000990867533    -0.000173083800    0.097672715418    0.024468100387
0.450     0.073132111846    -0.057425050816    0.000945155042    -0.000407223084    0.076556472017    -0.034078165146    0.001374462916    -0.000540521854
            0.000945155042    -0.000407223084    0.086907270157    0.015215394992    0.000693157387    -0.000323694470    0.089261571792    0.018037261613
            0.076556472017    -0.034078165146    0.000693157387    -0.000323694470    0.073363557034    -0.057112902490    0.000963893125    -0.000427369795
            0.001374462916    -0.000540521854    0.089261571792    0.018037261613    0.000963893125    -0.000427369795    0.086876108465    0.016212135833
0.475     0.031538583055    -0.077619248066    0.000875381659    -0.000656171723    0.044449615889    -0.056596181993    0.001274288370    -0.000911433538
            0.000875381659    -0.000656171723    0.073484923207    0.016159192970    0.000633144330    -0.000510335198    0.080005939658    0.014001480668
            0.044449615889    -0.056596181993    0.000633144330    -0.000510335198    0.032237569490    -0.077704513821    0.000878278131    -0.000692208681
            0.001274288370    -0.000911433538    0.080005939658    0.014001480668    0.000878278131    -0.000692208681    0.073933340327    0.016968193345
0.500     -0.016785435002    -0.075089164007    0.000737142939    -0.000919637610    0.003521737109    -0.060760907620    0.001067986063    -0.001290469231
            0.000737142939    -0.000919637610    0.063341018976    0.026448319239    0.000518821248    -0.000703793697    0.071175345115    0.017488432349
            0.003521737109    -0.060760907620    0.000518821248    -0.000703793697    -0.015847850755    -0.075815092435    0.000713515946    -0.000957669527
            0.001067986063    -0.001290469231    0.071175345115    0.017488432349    0.000713515946    -0.000957669527    0.064115987874    0.026823780491
0.525     -0.059668371547    -0.048656013131    0.000498935825    -0.001171300641    -0.035952593553    -0.043820073154    0.000725218651    -0.001637640288
            0.000498935825    -0.001171300641    0.061357122836    0.043125874331    0.000329435407    -0.000881456993    0.067101492003    0.027226798077
            -0.035952593553    -0.043820073154    0.000329435407    -0.000881456993    -0.058836620067    -0.050125083410    0.000450384927    -0.001191678838
            0.000725218651    -0.001637640288    0.067101492003    0.027226798077    0.000450384927    -0.001191678838    0.062184617526    0.042933205656
0.550     -0.085657262087    -0.003719820807    0.000149689151    -0.001355616392    -0.063400156128    -0.008868642909    0.000242409404    -0.001884220222
            0.000149689151    -0.001355616392    0.070159177283    0.060865334565    0.000061721558    -0.001001181176    0.070785495323    0.039612938252
            -0.063400156128    -0.008868642909    0.000061721558    -0.001001181176    -0.085300004021    -0.005841465576    0.000091832815    -0.001343379032
            0.000242409404    -0.001884220222    0.070785495323    0.039612938252    0.000091832815    -0.001343379032    0.070723328937    0.060137184357
0.575     -0.087648721776    0.049046444090    -0.000280409618    -0.001410246892    -0.071347030246    0.035863193990    -0.000337245854    -0.001958855065
            -0.000280409618    -0.001410246892    0.089044138894    0.073643087572    -0.000256588378    -0.001019658270    0.082706935923    0.049912747211
            -0.071347030246    0.035863193990    -0.000256588378    -0.001019658270    -0.088049905377    0.046545303031    -0.000324432785    -0.001364346290
            -0.000337245854    -0.001958855065    0.082706935923    0.049912747211    -0.000324432785    -0.001364346290    0.089088094823    0.072579048517
0.600     -0.065035809255    0.096995631254    -0.000723527690    -0.001299051280    -0.057668638724    0.079674179777    -0.000930580887    -0.001822908892
            -0.000723527690    -0.001299051280    0.114189441479    0.076762696283    -0.000572726202    -0.000916626493    0.100702837987    0.053949238024
            -0.057668638724    0.079674179777    -0.000572726202    -0.000916626493    -0.066309285681    0.094499806178    -0.000734756500    -0.001234288946
            -0.000930580887    -0.001822908892    0.100702837987    0.053949238024    -0.000734756500    -0.001234288946    0.113596349797    0.075669513811
0.625     -0.023430354181    0.129250616967    -0.001101256813    -0.001031067627    -0.025699912154    0.112639385761    -0.001445345848    -0.001489107940
            -0.001101256813    -0.001031067627    0.139989263947    0.068264923088    -0.000831165427    -0.000705884968    0.120847544296    0.049383310883
            -0.025699912154    0.112639385761    -0.000831165427    -0.000705884968    -0.025490270913    0.127154773322    -0.001074626222    -0.000971442287
            -0.001445345848    -0.001489107940    0.120847544296    0.049383310883    -0.001074626222    -0.000971442287    0.138815644072    0.067465104149
0.650     0.027492866131    0.139295923688    -0.001355098979    -0.000654913551    0.017332133094    0.127966084707    -0.001812974316    -0.001013782817
            -0.001355098979    -0.000654913551    0.160804546498    0.049238833603    -0.000995372753    -0.000427230452    0.138758377524    0.036151142996
            0.017332133094    0.127966084707    -0.000995372753    -0.000427230452    0.024906090758    0.137908481562    -0.001302124828    -0.000622205183
            -0.001812974316    -0.001013782817    0.138758377524    0.036151142996    -0.001302124828    -0.000622205183    0.159257056682    0.048983918730
0.675     0.076726909968    0.125821061236    -0.001462592104    -0.000237105930    0.062423572051    0.122906065161    -0.002005362928    -0.000472040707
            -0.001462592104    -0.000237105930    0.172351224776    0.023221821506    -0.001056172923    -0.000128248654    0.150662037430    0.016179686015
            0.062423572051    0.122906065161    -0.001056172923    -0.000128248654    0.073984649441    0.125300346228    -0.001406024810    -0.000240614813
            -0.002005362928    -0.000472040707    0.150662037430    0.016179686015    -0.001406024810    -0.000240614813    0.170732382926    0.023631851107
0.700     0.114211284372    0.092270784073    -0.001437148360    0.000161155792    0.100566375340    0.098675791924    -0.002033128850    0.000067287394
            -0.001437148360    0.000161155792    0.172494935070    -0.004801555812    -0.001027704252    0.000151580934    0.154075701594    -0.007181362864
            0.100566375340    0.098675791924    -0.001027704252    0.000151580934    0.111721000621    0.092594851330    -0.001400325531    0.000129116479
            -0.002033128850    0.000067287394    0.154075701594    -0.007181362864    -0.001400325531    0.000129116479    0.171130198189    -0.003764560318
0.725     0.132383593466    0.045817620400    -0.001316646668    0.000500637364    0.124029280184    0.059981396751    -0.001932252422    0.000559063984
            -0.001316646668    0.000500637364    0.161524807570    -0.029430403752    -0.000937198693    0.000389872727    0.148183002866    -0.029770746195
            0.124029280184    0.059981396751    -0.000937198693    0.000389872727    0.130511659365    0.046784068281    -0.001312134564    0.000461445989
            -0.001932252422    0.000559063984    0.148183002866    -0.029770746195    -0.001312134564    0.000461445989    0.160689369555    -0.027959209021
0.750     0.127258888482    -0.003811020931    -0.001146613881    0.000772497659    0.127478530857    0.014474855094    -0.001745534345    0.000988961369
            -0.001146613881    0.000772497659    0.142146221848    -0.045825719652    -0.000813494491    0.000584006269    0.134130450813    -0.047274209125
            0.127478530857    0.014474855094    -0.000813494491    0.000584006269    0.126255845559    -0.002559183880    -0.001169019064    0.000751122858
            -0.001745534345    0.000988961369    0.134130450813    -0.047274209125    -0.001169019064    0.000751122858    0.141995924925    -0.044231030544
0.775     0.099312324308    -0.045709147487    -0.000959870667    0.000997126081    0.109189421315    -0.028094870870    -0.001501888163    0.001370361924
            -0.000959870667    0.000997126081    0.119199818802    -0.050717410648    -0.000675015269    0.000748308521    0.115147606972    -0.056111741984
            0.109189421315    -0.028094870870    -0.000675015269    0.000748308521    0.099245833911    -0.044627855821    -0.000986799291    0.001008632068
            -0.001501888163    0.001370361924    0.115147606972    -0.056111741984    -0.000986799291    0.001008632068    0.119717676649    -0.049364859201
