# GHz S RI R 45
0.000     0.036440782491    0.001840210826    0.000000382659    0.000000498329    0.001054547056    0.001573207201    0.000000547611    0.000000761975
            0.000000382665    0.000000498329    0.035831340475    0.001363265577    0.000000569031    0.000000786605    0.000960852009    0.001175559314
            0.001054546891    0.001573207191    0.000000569295    0.000000786605    0.036378770992    0.001828284882    0.000000790130    0.000001146785
            0.000000547609    0.000000761975    0.000960852072    0.001175559391    0.000000790152    0.000001146785    0.035668918149    0.001358737810
0.025     0.044618376830    0.005818098848    0.000001048553    0.000000752251    0.005092667596    0.011296910199    0.000001547905    0.000001167708
            0.000001048551    0.000000752248    0.043246445278    0.004794538239    0.000001604758    0.000001222596    0.004445230130    0.010169048658
            0.005091071605    0.011300144557    0.000001604757    0.000001222599    0.044545931777    0.005801589832    0.000002277078    0.000001780297
            0.000001547910    0.000001167709    0.004445072345    0.010169364276    0.000002277079    0.000001780296    0.043192186988    0.004762750839
0.050     0.054053455792    0.000776090923    0.000002174647    0.000000439284    0.015466499712    0.017445583994    0.000003269641    0.000000746331
            0.000002174647    0.000000439284    0.051590624931    -0.000164126508    0.000003384302    0.000000807612    0.013578189716    0.016019794444
            0.015466488175    0.017445624959    0.000003384302    0.000000807612    0.053960944064    0.000773386652    0.000004866089    0.000001214902
            0.000003269641    0.000000746331    0.013578181782    0.016019803790    0.000004866089    0.000001214902    0.051535079056    -0.000199963960
0.075     0.060355664090    -0.011508983714    0.000002951806    -0.000000796440    0.027605935521    0.015443477554    0.000004512140    -0.000001077811
            0.000002951806    -0.000000796440    0.057203915457    -0.011373796138    0.000004676302    -0.000001055914    0.024558571382    0.014860871505
            0.027605931144    0.015443483329    0.000004676302    -0.000001055914    0.060288782851    -0.011468684539    0.000006796655    -0.000001449415
            0.000004512140    -0.000001077811    0.024558566895    0.014860876988    0.000006796655    -0.000001449415    0.057173562203    -0.011407325338
0.100     0.059391498667    -0.029023489135    0.000002846290    -0.000002605740    0.036154384537    0.005560016890    0.000004463215    -0.000003813650
            0.000002846290    -0.000002605740    0.056650109637    -0.027230490909    0.000004640764    -0.000003866168    0.032860823490    0.006715540430
            0.036154384508    0.005560017080    0.000004640764    -0.000003866168    0.059403909705    -0.028949227621    0.000006852917    -0.000005523848
            0.000004463215    -0.000003813650    0.032860823490    0.006715540430    0.000006852917    -0.000005523848    0.056679985360    -0.027272887527
0.125     0.048133946580    -0.047106349455    0.000001552422    -0.000004363166    0.036732867832    -0.008929675895    0.000002631956    -0.000006548590
            0.000001552422    -0.000004363166    0.047241902504    -0.043930443850    0.000002767524    -0.000006684001    0.034657213531    -0.005890035280
            0.036732867832    -0.008929675895    0.000002767524    -0.000006684001    0.048277705686    -0.047043456165    0.000004269825    -0.000009688773
            0.000002631956    -0.000006548590    0.034657214609    -0.005890034903    0.000004269825    -0.000009688773    0.047361769800    -0.044019403475
0.150     0.026527604434    -0.059741475997    -0.000000811855    -0.000005319705    0.027459504279    -0.022665918186    -0.000000853899    -0.000008163940
            -0.000000811855    -0.000005319705    0.028694192406    -0.056393297955    -0.000000816122    -0.000008356420    0.028048589789    -0.018624163121
            0.027459504279    -0.022665918186    -0.000000816122    -0.000008356420    0.026827145172    -0.059770503482    -0.000000819093    -0.000012289354
            -0.000000853899    -0.000008163940    0.028048592938    -0.018624163802    -0.000000819093    -0.000012289354    0.028911692780    -0.056586406853
0.175     -0.001946457680    -0.061169469976    -0.000003694174    -0.000004862998    0.009747008639    -0.029840015959    -0.000005221754    -0.000007717412
            -0.000003694174    -0.000004862998    0.003621050973    -0.059657989868    -0.000005318951    -0.000007910464    0.013773658168    -0.026589590343
            0.009747008639    -0.029840015959    -0.000005318951    -0.000007910464    -0.001516775467    -0.061389469054    -0.000007333483    -0.000011909072
            -0.000005221754    -0.000007717412    0.013773673910    -0.026589592325    -0.000007333483    -0.000011909072    0.003907022397    -0.060022159509
0.200     -0.030748771307    -0.048119490938    -0.000006210579    -0.000002770396    -0.011787460549    -0.026112017860    -0.000009191729    -0.000004812245
            -0.000006210579    -0.000002770396    -0.022763134768    -0.050578316468    -0.000009427909    -0.000004932086    -0.004759411364    -0.025839602499
            -0.011787460549    -0.026112017860    -0.000009427909    -0.000004932086    -0.030274913539    -0.048615321779    -0.000013439480    -0.000007891838
            -0.000009191729    -0.000004812245    -0.004759411364    -0.025839602499    -0.000013439480    -0.000007891838    -0.022479923980    -0.051164371872
0.225     -0.052031397186    -0.021275306662    -0.000007422364    0.000000622124    -0.030546627121    -0.010280414100    -0.000011362343    0.000000147105
            -0.000007422364    0.000000622124    -0.043894372031    -0.029094361594    -0.000011702270    0.000000173397    -0.022302076889    -0.014748819939
            -0.030546627121    -0.010280414100    -0.000011702270    0.000000173397    -0.051648489726    -0.022079113278    -0.000017080110    -0.000000715164
            -0.000011362343    0.000000147105    -0.022302076889    -0.014748819939    -0.000017080110    -0.000000715164    -0.043716235174    -0.029910274058
0.250     -0.059044007039    0.014371118541    -0.000006697874    0.000004447464    -0.040028498313    0.014969689381    -0.000010721672    0.000005967266
            -0.000006697874    0.000004447464    -0.053705008105    0.001286796129    -0.000011092796    0.000006192216    -0.033282446095    0.005230283135
            -0.040028498313    0.014969689381    -0.000011092796    0.000006192216    -0.058900465285    0.013305944138    -0.000016685723    0.000007994559
            -0.000010721672    0.000005967266    -0.033282446095    0.005230283135    -0.000016685723    0.000007994559    -0.053736966507    0.000293130109
0.275     -0.048432418822    0.050674618826    -0.000003994306    0.000007582081    -0.036019345555    0.043682827094    -0.000007066690    0.000011022306
            -0.000003994306    0.000007582081    -0.048529344435    0.034158773983    -0.000007369844    0.000011458906    -0.033543931193    0.029789622005
            -0.036019345555    0.043682827094    -0.000007369844    0.000011458906    -0.048642301452    0.049475562772    -0.000011781136    0.000015915324
            -0.000007066690    0.000011022306    -0.033543931193    0.029789622005    -0.000011781136    0.000015915324    -0.048843151287    0.033097578538
0.300     -0.021526949453    0.078631307276    0.000000094523    0.000009043467    -0.018042650193    0.068410409278    -0.000001118226    0.000013797976
            0.000000094523    0.000009043467    -0.028389480013    0.061845545513    -0.000001249763    0.000014404868    -0.021693488173    0.052929735527
            -0.018042650193    0.068410409278    -0.000001249763    0.000014404868    -0.022126511238    0.077479882238    -0.000003211365    0.000020759256
            -0.000001118226    0.000013797976    -0.021693488173    0.052929735527    -0.000003211365    0.000020759256    -0.028992381388    0.060862586071
0.325     0.015909460555    0.090971154011    0.000004549936    0.000008314191    0.010479117103    0.082406941757    0.000005720814    0.000013371585
            0.000004549936    0.000008314191    0.002831091262    0.077483080781    0.000005837028    0.000014051775    0.000429942735    0.068639207474
            0.010479117103    0.082406941757    0.000005837028    0.000014051775    0.014983381765    0.090054268944    0.000007111398    0.000020969757
            0.000005720814    0.000013371585    0.000429942735    0.068639207474    0.000007111398    0.000020969757    0.002011607721    0.076720417375
0.350     0.055200972727    0.084119247004    0.000008253366    0.000005457787    0.043193835582    0.081442821579    0.000011791401    0.000009635098
            0.000008253366    0.000005457787    0.038295069401    0.076841014793    0.000012172666    0.000010256245    0.028217199359    0.072500282233
            0.043193835582    0.081442821579    0.000012172666    0.000010256245    0.054105035984    0.083576832827    0.000016750468    0.000016120932
            0.000011791401    0.000009635098    0.028217199359    0.072500282233    0.000016750468    0.000016120932    0.037403874680    0.076395246682
0.375     0.086914159433    0.059038241934    0.000010266243    0.000001041703    0.072398263370    0.064788395036    0.000015586917    0.000003255759
            0.000010266243    0.000001041703    0.069849209307    0.059383507301    0.000016176819    0.000003688127    0.055411092534    0.062771555083
            0.072398263370    0.064788395036    0.000016176819    0.000003688127    0.085866405238    0.058919173214    0.000023337163    0.000006969590
            0.000015586917    0.000003255759    0.055411092534    0.062771555083    0.000023337163    0.000006969590    0.069074938529    0.059270934633
0.400     0.102990377334    0.021033851452    0.000009993736    -0.000004014105    0.090737277480    0.035425166204    0.000016036473    -0.000004491881
            0.000009993736    -0.000004014105    0.089867475983    0.028452465492    0.000016716296    -0.000004333568    0.075506149805    0.040832559653
            0.090737277480    0.035425166204    0.000016716296    -0.000004333568    0.102221146894    0.021271220311    0.000025051859    -0.000004713196
            0.000016036473    -0.000004491881    0.075506149805    0.040832559653    0.000025051859    -0.000004713196    0.089400251871    0.028590905219
0.425     0.098531540758    -0.021245448731    0.000007275998    -0.000008585924    0.092796821783    -0.000378084710    0.000012696289    -0.000011930403
            0.000007275998    -0.000008585924    0.092931498632    -0.009344132581    0.000013319360    -0.000012060432    0.083150267006    0.011023189778
            0.092796821783    -0.000378084710    0.000013319360    -0.000012060432    0.098223930559    -0.020835091779    0.000020992961    -0.000016431522
            0.000012696289    -0.000011930403    0.083150267006    0.011023189778    0.000020992961    -0.000016431522    0.092912803276    -0.009132253587
0.450     0.073132111846    -0.057425050816    0.000002475182    -0.000011500776    0.076556472017    -0.034078165146    0.000005921668    -0.000017221815
            0.000002475182    -0.000011500776    0.077142914124    -0.045359040269    0.000006354420    -0.000017582435    0.075428183859    -0.020048717501
            0.076556472017    -0.034078165146    0.000006354420    -0.000017582435    0.073363557034    -0.057112902490    0.000011482659    -0.000025360545
            0.000005921668    -0.000017221815    0.075428183859    -0.020048717501    0.000011482659    -0.000025360545    0.077618252265    -0.045319537764
0.475     0.031538583055    -0.077619248066    -0.000003455599    -0.000011776076    0.044449615889    -0.056596181993    -0.000003009441    -0.000018741021
            -0.000003455599    -0.000011776076    0.044874421058    -0.070649850159    -0.000002857572    -0.000019223067    0.052842055941    -0.044757632773
            0.044449615889    -0.056596181993    -0.000002857572    -0.000019223067    0.032237569490    -0.077704513821    -0.000001748514    -0.000028932106
            -0.000003009441    -0.000018741021    0.052842055941    -0.044757632773    -0.000001748514    -0.000028932106    0.045760519429    -0.071044316034
0.500     -0.016785435002    -0.075089164007    -0.000009038937    -0.000008978064    0.003521737109    -0.060760907620    -0.000011974973    -0.000015612598
            -0.000009038937    -0.000008978064    0.002715121420    -0.078085066071    -0.000012140969    -0.000016081358    0.019700833334    -0.056243531844
            0.003521737109    -0.060760907620    -0.000012140969    -0.000016081358    -0.015847850755    -0.075815092435    -0.000015681954    -0.000025615514
            -0.000011974973    -0.000015612598    0.019700833334    -0.056243531844    -0.000015681954    -0.000025615514    0.003794858272    -0.079122559208
0.525     -0.059668371547    -0.048656013131    -0.000012629158    -0.000003562871    -0.035952593553    -0.043820073154    -0.000018492544    -0.000008228055
            -0.000012629158    -0.000003562871    -0.039700502613    -0.064409059334    -0.000018958366    -0.000008540690    -0.016501423349    -0.050397478924
            -0.035952593553    -0.043820073154    -0.000018958366    -0.000008540690    -0.058836620067    -0.050125083410    -0.000026671273    -0.000015651597
            -0.000018492544    -0.000008228055    -0.016501423349    -0.050397478924    -0.000026671273    -0.000015651597    -0.038743152621    -0.066175195108
0.550     -0.085657262087    -0.003719820807    -0.000013026921    0.000003079659    -0.063400156128    -0.008868642909    -0.000020573537    0.000001627385
            -0.000013026921    0.000003079659    -0.072000830518    -0.031566564574    -0.000021260180    0.000001607017    -0.046871886345    -0.027391376032
            -0.063400156128    -0.008868642909    -0.000021260180    0.000001607017    -0.085300004021    -0.005841465576    -0.000031589970    -0.000001285959
            -0.000020573537    0.000001627385    -0.046871886345    -0.027391376032    -0.000031589970    -0.000001285959    -0.071506507584    -0.033977082077
0.575     -0.087648721776    0.049046444090    -0.000010029906    0.000009069462    -0.071347030246    0.035863193990    -0.000017536113    0.000011308597
            -0.000010029906    0.000009069462    -0.085956793726    0.013463456515    -0.000018295758    0.000011680812    -0.063635648027    0.008063945062
            -0.071347030246    0.035863193990    -0.000018295758    0.000011680812    -0.088049905377    0.046545303031    -0.000028971455    0.000013844902
            -0.000017536113    0.000011308597    -0.063635648027    0.008063945062    -0.000028971455    0.000013844902    -0.086196716080    0.010660569417
0.600     -0.065035809255    0.096995631254    -0.000004524168    0.000012773611    -0.057668638724    0.079674179777    -0.000010251052    0.000018286523
            -0.000004524168    0.000012773611    -0.077866623365    0.060498820871    -0.000010882320    0.000019070462    -0.062414311356    0.047997222087
            -0.057668638724    0.079674179777    -0.000010882320    0.000019070462    -0.066309285681    0.094499806178    -0.000019490473    0.000025946874
            -0.000010251052    0.000018286523    -0.062414311356    0.047997222087    -0.000019490473    0.000025946874    -0.078961287753    0.057668311347
0.625     -0.023430354181    0.129250616967    0.000001951357    0.000013374932    -0.025699912154    0.112639385761    -0.000000676220    0.000020985635
            0.000001951357    0.000013374932    -0.049458578087    0.098986343473    -0.000000977694    0.000022085378    -0.043289134732    0.083481180433
            -0.025699912154    0.112639385761    -0.000000977694    0.000022085378    -0.025490270913    0.127154773322    -0.000005544220    0.000032247130
            -0.000000676220    0.000020985635    -0.043289134732    0.083481180433    -0.000005544220    0.000032247130    -0.051339076846    0.096516557244
0.650     0.027492866131    0.139295923688    0.000007828569    0.000010967606    0.017332133094    0.127966084707    0.000008927685    0.000019055270
            0.000007828569    0.000010967606    -0.007110886686    0.120697512720    0.000009084186    0.000020270037    -0.010421137552    0.106941304044
            0.017332133094    0.127966084707    0.000009084186    0.000020270037    0.024906090758    0.137908481562    0.000009668547    0.000031557738
            0.000008927685    0.000019055270    -0.010421137552    0.106941304044    0.000009668547    0.000031557738    -0.009531890428    0.118904794345
0.675     0.076726909968    0.125821061236    0.000011932077    0.000006276411    0.062423572051    0.122906065161    0.000016611205    0.000013130957
            0.000011932077    0.000006276411    0.040034171768    0.121401055538    0.000017226741    0.000014214932    0.029312500671    0.113674012230
            0.062423572051    0.122906065161    0.000017226741    0.000014214932    0.073984649441    0.125300346228    0.000023003744    0.000024198776
            0.000016611205    0.000013130957    0.029312500671    0.113674012230    0.000023003744    0.000024198776    0.037440167373    0.120458530287
0.700     0.114211284372    0.092270784073    0.000013579643    0.000000305488    0.100566375340    0.098675791924    0.000020978211    0.000004443189
            0.000013579643    0.000000305488    0.082211998042    0.101339215142    0.000021922658    0.000005187427    0.067923467755    0.102439306113
            0.100566375340    0.098675791924    0.000021922658    0.000005187427    0.111721000621    0.092594851330    0.000031866912    0.000011636995
            0.000020978211    0.000004443189    0.067923467755    0.102439306113    0.000031866912    0.000011636995    0.079858457467    0.101238561720
0.725     0.132383593466    0.045817620400    0.000012495283    -0.000005867167    0.124029280184    0.059981396751    0.000021184796    -0.000005449976
            0.000012495283    -0.000005867167    0.110864050826    0.064816824829    0.000022243492    -0.000005152070    0.097720938992    0.075390952829
            0.124029280184    0.059981396751    0.000022243492    -0.000005152070    0.130511659365    0.046784068281    0.000034426794    -0.000003845748
            0.000021184796    -0.000005449976    0.097720938992    0.075390952829    0.000034426794    -0.000003845748    0.109130031127    0.065364101580
0.750     0.127258888482    -0.003811020931    0.000008738727    -0.000011127165    0.127478530857    0.014474855094    0.000016935558    -0.000014749766
            0.000008738727    -0.000011127165    0.120030225211    0.019313510548    0.000017883140    -0.000014880664    0.112496850353    0.037700147595
            0.127478530857    0.014474855094    0.000017883140    -0.000014880664    0.126255845559    -0.002559183880    0.000029783774    -0.000019356299
            0.000016935558    -0.000014749766    0.112496850353    0.037700147595    0.000029783774    -0.000019356299    0.119182249984    0.020155238069
0.775     0.099312324308    -0.045709147487    0.000002770456    -0.000014325048    0.109189421315    -0.028094870870    0.000008632477    -0.000021476372
            0.000002770456    -0.000014325048    0.107388159006    -0.025699011809    0.000009297157    -0.000021921702    0.108613156801    -0.003083574808
            0.109189421315    -0.028094870870    0.000009297157    -0.000021921702    0.099245833911    -0.044627855821    0.000018251387    -0.000031617023
            0.000008632477    -0.000021476372    0.108613156801    -0.003083574808    0.000018251387    -0.000031617023    0.107514709108    -0.025020580109
