# GHz S RI R 45
0.000     0.036440782491    0.001840210826    0.000000047772    -0.000000035916    0.001054547056    0.001573207201    0.000000074737    -0.000000005013
            0.000000047772    -0.000000035916    0.035765387909    0.001503478262    0.000000096493    0.000000035610    0.000990791413    0.001335063882
            0.001054546891    0.001573207191    0.000000096493    0.000000035610    0.036378770992    0.001828284882    0.000000135126    0.000000081836
            0.000000074737    -0.000000005013    0.000990791812    0.001335063835    0.000000135126    0.000000081836    0.035634800914    0.001494158290
0.025     0.044618376830    0.005818098848    0.000000024212    -0.000000100105    0.005092667596    0.011296910199    0.000000092143    -0.000000054564
            0.000000024211    -0.000000100105    0.043240394309    0.004846311370    0.000000163833    0.000000010316    0.004603013709    0.010212693453
            0.005091071605    0.011300144557    0.000000163833    0.000000010316    0.044545931777    0.005801589832    0.000000264195    0.000000078418
            0.000000092143    -0.000000054564    0.004604363464    0.010212191395    0.000000264195    0.000000078418    0.043166666097    0.004837777218
0.050     0.054053455792    0.000776090923    -0.000000088493    -0.000000175841    0.015466499712    0.017445583994    0.000000047991    -0.000000152790
            -0.000000088493    -0.000000175841    0.051899847434    -0.000175748022    0.000000211346    -0.000000100030    0.014074626728    0.015943071759
            0.015466488175    0.017445624959    0.000000211346    -0.000000100030    0.053960944064    0.000773386652    0.000000412636    -0.000000061084
            0.000000047992    -0.000000152790    0.014074623855    0.015943094304    0.000000412636    -0.000000061084    0.051820103035    -0.000133500993
0.075     0.060355664090    -0.011508983714    -0.000000255596    -0.000000155621    0.027605935521    0.015443477554    -0.000000074168    -0.000000207678
            -0.000000255596    -0.000000155621    0.057974831867    -0.011711033812    0.000000164006    -0.000000240863    0.025469217377    0.014378281833
            0.027605931144    0.015443483329    0.000000164006    -0.000000240863    0.060288782851    -0.011468684539    0.000000435222    -0.000000310438
            -0.000000074168    -0.000000207678    0.025469213244    0.014378287121    0.000000435222    -0.000000310438    0.057929135688    -0.011612207839
0.100     0.059391498667    -0.029023489135    -0.000000406287    -0.000000014575    0.036154384537    0.005560016890    -0.000000231817    -0.000000174382
            -0.000000406287    -0.000000014575    0.057835297242    -0.028221045616    0.000000021014    -0.000000348747    0.034073112640    0.005516939302
            0.036154384508    0.005560017080    0.000000021014    -0.000000348747    0.059403909705    -0.028949227621    0.000000288596    -0.000000577551
            -0.000000231817    -0.000000174382    0.034073112611    0.005516939481    0.000000288596    -0.000000577551    0.057873069362    -0.028077558147
0.125     0.048133946580    -0.047106349455    -0.000000466266    0.000000227522    0.036732867832    -0.008929675895    -0.000000366999    -0.000000037556
            -0.000000466266    0.000000227522    0.048619475043    -0.045835427186    -0.000000190435    -0.000000364067    0.035878014132    -0.008034444665
            0.036732867832    -0.008929675895    -0.000000190435    -0.000000364067    0.048277705686    -0.047043456165    -0.000000027046    -0.000000752442
            -0.000000366999    -0.000000037556    0.035878011900    -0.008034445480    -0.000000027046    -0.000000752442    0.048786725605    -0.045688379680
0.150     0.026527604434    -0.059741475997    -0.000000377212    0.000000510834    0.027459504279    -0.022665918186    -0.000000415458    0.000000185145
            -0.000000377212    0.000000510834    0.029871911040    -0.059394582742    -0.000000406714    -0.000000248088    0.028865542342    -0.021767458749
            0.027459504279    -0.022665918186    -0.000000406714    -0.000000248088    0.026827145172    -0.059770503482    -0.000000441563    -0.000000735606
            -0.000000415458    0.000000185145    0.028865542342    -0.021767458749    -0.000000441563    -0.000000735606    0.030191292821    -0.059318428061
0.175     -0.001946457680    -0.061169469976    -0.000000120607    0.000000746130    0.009747008639    -0.029840015959    -0.000000329421    0.000000438726
            -0.000000120607    0.000000746130    0.004135940538    -0.063686146049    -0.000000547307    -0.000000004260    0.013757737597    -0.030564969836
            0.009747008639    -0.029840015959    -0.000000547307    -0.000000004260    -0.001516775467    -0.061389469054    -0.000000834210    -0.000000477932
            -0.000000329421    0.000000438726    0.013757737597    -0.030564969836    -0.000000834210    -0.000000477932    0.004586354433    -0.063769548676
0.200     -0.030748771307    -0.048119490938    0.000000271767    0.000000837744    -0.011787460549    -0.026112017860    -0.000000092684    0.000000642786
            0.000000271767    0.000000837744    -0.023309273010    -0.055334446821    -0.000000537160    0.000000315381    -0.005941930348    -0.030263261569
            -0.011787460549    -0.026112017860    -0.000000537160    0.000000315381    -0.030274913539    -0.048615321779    -0.000001062656    -0.000000006745
            -0.000000092684    0.000000642786    -0.005941930348    -0.030263261569    -0.000001062656    -0.000000006745    -0.022800415816    -0.055654488116
0.225     -0.052031397186    -0.021275306662    0.000000715251    0.000000712646    -0.030546627121    -0.010280414100    0.000000262354    0.000000710190
            0.000000715251    0.000000712646    -0.045740217622    -0.034096638341    -0.000000339078    0.000000615664    -0.024783343227    -0.019075884801
            -0.030546627121    -0.010280414100    -0.000000339078    0.000000615664    -0.051648489726    -0.022079113278    -0.000001013012    0.000000567289
            0.000000262354    0.000000710190    -0.024783343227    -0.019075884801    -0.000001013012    0.000000567289    -0.045289250435    -0.034687885010
0.250     -0.059044007039    0.014371118541    0.000001086761    0.000000347881    -0.040028498313    0.014969689381    0.000000652713    0.000000574551
            0.000001086761    0.000000347881    -0.056846984638    -0.003376447051    0.000000023551    0.000000785156    -0.036917901816    0.001598843057
            -0.040028498313    0.014969689381    0.000000023551    0.000000785156    -0.058900465285    0.013305944138    -0.000000648106    0.000001075363
            0.000000652713    0.000000574551    -0.036917901816    0.001598843057    -0.000000648106    0.000001075363    -0.056586659096    -0.004207260213
0.275     -0.048432418822    0.050674618826    0.000001257057    -0.000000208032    -0.036019345555    0.043682827094    0.000000960032    0.000000223542
            0.000001257057    -0.000000208032    -0.052672677906    0.030398978034    0.000000461446    0.000000738115    -0.037891465116    0.027364062774
            -0.036019345555    0.043682827094    0.000000461446    0.000000738115    -0.048642301452    0.049475562772    -0.000000033822    0.000001346136
            0.000000960032    0.000000223542    -0.037891465116    0.027364062774    -0.000000033822    0.000001346136    -0.052712916078    0.029432115430
0.300     -0.021526949453    0.078631307276    0.000001131215    -0.000000837190    -0.018042650193    0.068410409278    0.000001065873    -0.000000285315
            0.000001131215    -0.000000837190    -0.032969254969    0.059381380736    0.000000844774    0.000000449414    -0.026070496708    0.051980770211
            -0.018042650193    0.068410409278    0.000000844774    0.000000449414    -0.022126511238    0.077479882238    0.000000675057    0.000001266034
            0.000001065873    -0.000000285315    -0.026070496708    0.051980770211    0.000000675057    0.000001266034    -0.033358182390    0.058436566686
0.325     0.015909460555    0.090971154011    0.000000686819    -0.000001379362    0.010479117103    0.082406941757    0.000000896050    -0.000000831718
            0.000000686819    -0.000001379362    -0.001454832712    0.076403665230    0.000001045399    -0.000000029064    -0.003188874062    0.069085550599
            0.010479117103    0.082406941757    0.000001045399    -0.000000029064    0.014983381765    0.090054268944    0.000001282442    0.000000820578
            0.000000896050    -0.000000831718    -0.003188874062    0.069085550599    0.000001282442    0.000000820578    -0.002154299042    0.075655182130
0.350     0.055200972727    0.084119247004    -0.000000012957    -0.000001675141    0.043193835582    0.081442821579    0.000000447957    -0.000001266075
            -0.000000012957    -0.000001675141    0.035030932000    0.076872631216    0.000000976934    -0.000000583589    0.026062379981    0.073880799364
            0.043193835582    0.081442821579    0.000000976934    -0.000000583589    0.054105035984    0.083576832827    0.000001608946    0.000000098126
            0.000000447957    -0.000001266075    0.026062379981    0.073880799364    0.000001608946    0.000000098126    0.034147603240    0.076464427229
0.375     0.086914159433    0.059038241934    -0.000000829926    -0.000001611306    0.072398263370    0.064788395036    -0.000000202632    -0.000001452653
            -0.000000829926    -0.000001611306    0.068156173703    0.059924595641    0.000000621315    -0.000001068097    0.055165313369    0.064317236521
            0.072398263370    0.064788395036    0.000000621315    -0.000001068097    0.085866405238    0.058919173214    0.000001539965    -0.000000733679
            -0.000000202632    -0.000001452653    0.055165313369    0.064317236521    0.000001539965    -0.000000733679    0.067282515990    0.059927608797
0.400     0.102990377334    0.021033851452    -0.000001580875    -0.000001148958    0.090737277480    0.035425166204    -0.000000919606    -0.000001303345
            -0.000001580875    -0.000001148958    0.089984729110    0.028689501084    0.000000033164    -0.000001339449    0.077235526734    0.041618707277
            0.090737277480    0.035425166204    0.000000033164    -0.000001339449    0.102221146894    0.021271220311    0.000001052073    -0.000001467042
            -0.000000919606    -0.000001303345    0.077235526734    0.041618707277    0.000001052073    -0.000001467042    0.089339458533    0.029072056501
0.425     0.098531540758    -0.021245448731    -0.000002075499    -0.000000338678    0.092796821783    -0.000378084710    -0.000001533724    -0.000000801724
            -0.000002075499    -0.000000338678    0.094727487509    -0.010284522283    -0.000000665012    -0.000001290705    0.086510802582    0.010149571894
            0.092796821783    -0.000378084710    -0.000000665012    -0.000001290705    0.098223930559    -0.020835091779    0.000000225042    -0.000001897712
            -0.000001533724    -0.000000801724    0.086510802582    0.010149571894    0.000000225042    -0.000001897712    0.094502834085    -0.009663671084
0.450     0.073132111846    -0.057425050816    -0.000002153299    0.000000681012    0.076556472017    -0.034078165146    -0.000001873459    -0.000000011749
            -0.000002153299    0.000000681012    0.080120373195    -0.048259346913    -0.000001301676    -0.000000879393    0.079712547482    -0.023293923084
            0.076556472017    -0.034078165146    -0.000001301676    -0.000000879393    0.073363557034    -0.057112902490    -0.000000763844    -0.000001871182
            -0.000001873459    -0.000000011749    0.079712547482    -0.023293923084    -0.000000763844    -0.000001871182    0.080426785228    -0.047632476788
0.475     0.031538583055    -0.077619248066    -0.000001725611    0.000001696744    0.044449615889    -0.056596181993    -0.000001802746    0.000000919172
            -0.000001725611    0.000001696744    0.048216639666    -0.076067605435    -0.000001688042    -0.000000155452    0.057069742339    -0.050771643539
            0.044449615889    -0.056596181993    -0.000001688042    -0.000000155452    0.032237569490    -0.077704513821    -0.000001664684    -0.000001333312
            -0.000001802746    0.000000919172    0.057069742339    -0.050771643539    -0.000001664684    -0.000001333312    0.049040524416    -0.075712793222
0.500     -0.016785435002    -0.075089164007    -0.000000812867    0.000002452693    0.003521737109    -0.060760907620    -0.000001261733    0.000001774415
            -0.000000812867    0.000002452693    0.005366941532    -0.086226896648    -0.000001668082    0.000000729601    0.022737485867    -0.065010479358
            0.003521737109    -0.060760907620    -0.000001668082    0.000000729601    -0.015847850755    -0.075815092435    -0.000002210944    -0.000000368355
            -0.000001261733    0.000001774415    0.022737485867    -0.065010479358    -0.000002210944    -0.000000368355    0.006551737068    -0.086400088272
0.525     -0.059668371547    -0.048656013131    0.000000428559    0.000002711802    -0.035952593553    -0.043820073154    -0.000000310630    0.000002309745
            0.000000428559    0.000002711802    -0.038895165009    -0.075007187846    -0.000001181518    0.000001543098    -0.015784924242    -0.061408403513
            -0.035952593553    -0.043820073154    -0.000001181518    0.000001543098    -0.058836620067    -0.050125083410    -0.000002203829    0.000000795259
            -0.000000310630    0.000002309745    -0.015784924242    -0.061408403513    -0.000002203829    0.000000795259    -0.037628256131    -0.075868148041
0.550     -0.085657262087    -0.003719820807    0.000001719911    0.000002333314    -0.063400156128    -0.008868642909    0.000000855755    0.000002324851
            0.000001719911    0.000002333314    -0.074069204329    -0.043803602682    -0.000000306236    0.000002036193    -0.049370503115    -0.039618932147
            -0.063400156128    -0.008868642909    -0.000000306236    0.000002036193    -0.085300004021    -0.005841465576    -0.000001593571    0.000001839680
            0.000000855755    0.000002324851    -0.049370503115    -0.039618932147    -0.000001593571    0.000001839680    -0.073061226408    -0.045357168392
0.575     -0.087648721776    0.049046444090    0.000002727770    0.000001342411    -0.071347030246    0.035863193990    0.000001944506    0.000001747159
            0.000002727770    0.000001342411    -0.091498139428    0.000893199034    0.000000746089    0.000002033510    -0.069734431736    -0.003939429515
            -0.071347030246    0.035863193990    0.000000746089    0.000002033510    -0.088049905377    0.046545303031    -0.000000515254    0.000002461338
            0.000001944506    0.000001747159    -0.069734431736    -0.003939429515    -0.000000515254    0.000002461338    -0.091064360603    -0.001185357692
0.600     -0.065035809255    0.096995631254    0.000003167927    -0.000000058656    -0.057668638724    0.079674179777    0.000002654741    0.000000674252
            0.000003167927    -0.000000058656    -0.086796924959    0.049131957993    0.000001697345    0.000001499408    -0.071771975744    0.037785889414
            -0.057668638724    0.079674179777    0.000001697345    0.000001499408    -0.066309285681    0.094499806178    0.000000754724    0.000002475635
            0.000002654741    0.000000674252    -0.071771975744    0.037785889414    0.000000754724    0.000002475635    -0.087140378904    0.046837209512
0.625     -0.023430354181    0.129250616967    0.000002900071    -0.000001547557    -0.025699912154    0.112639385761    0.000002780226    -0.000000649788
            0.000002900071    -0.000001547557    -0.060942453205    0.090196416718    0.000002295078    0.000000548845    -0.054818343723    0.076352428882
            -0.025699912154    0.112639385761    0.000002295078    0.000000548845    -0.025490270913    0.127154773322    0.000001893273    0.000001869379
            0.000002780226    -0.000000649788    -0.054818343723    0.076352428882    0.000001893273    0.000001869379    -0.062097426809    0.088062906322
0.650     0.027492866131    0.139295923688    0.000001960203    -0.000002780441    0.017332133094    0.127966084707    0.000002266214    -0.000001915936
            0.000001960203    -0.000002780441    -0.019740588488    0.115322904690    0.000002381834    -0.000000601291    -0.022516031193    0.103546699533
            0.017332133094    0.127966084707    0.000002381834    -0.000000601291    0.024906090758    0.137908481562    0.000002625038    0.000000781943
            0.000002266214    -0.000001915936    -0.022516031193    0.103546699533    0.000002625038    0.000000781943    -0.021560407831    0.113706292796
0.675     0.076726909968    0.125821061236    0.000000534677    -0.000003480751    0.062423572051    0.122906065161    0.000001208626    -0.000002837766
            0.000000534677    -0.000003480751    0.027893172602    0.119544217215    0.000001920260    -0.000001696344    0.018389522988    0.113855497152
            0.062423572051    0.122906065161    0.000001920260    -0.000001696344    0.073984649441    0.125300346228    0.000002776709    -0.000000548365
            0.000001208626    -0.000002837766    0.018389522988    0.113855497152    0.000002776709    -0.000000548365    0.025704489037    0.118699294967
0.700     0.114211284372    0.092270784073    -0.000001099187    -0.000003484211    0.100566375340    0.098675791924    -0.000000189872    -0.000003207059
            -0.000001099187    -0.000003484211    0.072054827755    0.102383705527    0.000000980933    -0.000002496040    0.059649376900    0.105292529233
            0.100566375340    0.098675791924    0.000000980933    -0.000002496040    0.111721000621    0.092594851330    0.000002291320    -0.000001840263
            -0.000000189872    -0.000003207059    0.059649376900    0.105292529233    0.000002291320    -0.000001840263    0.069881946896    0.102409085765
0.725     0.132383593466    0.045817620400    -0.000002626866    -0.000002752109    0.124029280184    0.059981396751    -0.000001665218    -0.000002917194
            -0.000002626866    -0.000002752109    0.103778474669    0.067596938536    -0.000000274466    -0.000002806203    0.093039031587    0.079489874138
            0.124029280184    0.059981396751    -0.000000274466    -0.000002806203    0.130511659365    0.046784068281    0.000001230074    -0.000002809264
            -0.000001665218    -0.000002917194    0.093039031587    0.079489874138    0.000001230074    -0.000002809264    0.102020005489    0.068410611523
0.750     0.127258888482    -0.003811020931    -0.000003734422    -0.000001368150    0.127478530857    0.014474855094    -0.000002926073    -0.000001967434
            -0.000003734422    -0.000001368150    0.116557369547    0.022336696030    -0.000001609070    -0.000002502578    0.111698952275    0.041374609513
            0.127478530857    0.014474855094    -0.000001609070    -0.000002502578    0.126255845559    -0.002559183880    -0.000000227906    -0.000003203936
            -0.000002926073    -0.000001967434    0.111698952275    0.041374609513    -0.000000227906    -0.000003203936    0.115546133856    0.023683117716
0.775     0.099312324308    -0.045709147487    -0.000004145303    0.000000456791    0.109189421315    -0.028094870870    -0.000003682677    -0.000000475612
            -0.000004145303    0.000000456791    0.107470820070    -0.024050169733    -0.000002728059    -0.000001566823    0.111332034738    -0.001505247055
            0.109189421315    -0.028094870870    -0.000002728059    -0.000001566823    0.099245833911    -0.044627855821    -0.000001786874    -0.000002856993
