# GHz S RI R 45
0.000     0.036440782491    0.001840210826    -0.000002062354    -0.000004539184    0.001054547056    0.001573207201    -0.000002963263    -0.000006588915
            -0.000002062355    -0.000004539184    0.036677423411    0.001161089733    -0.000001405002    -0.000002990281    0.001085275149    0.001376098801
            0.001054546891    0.001573207191    -0.000001405002    -0.000002990281    0.036378770992    0.001828284882    -0.000002110822    -0.000004610869
            -0.000002963258    -0.000006588915    0.001085274857    0.001376098777    -0.000002110821    -0.000004610869    0.036640770507    0.001170853242
0.025     0.044618376830    0.005818098848    -0.000006004096    -0.000009107201    0.005092667596    0.011296910199    -0.000008606703    -0.000013269541
            -0.000006004015    -0.000009107237    0.042402280551    0.005244068728    -0.000004036975    -0.000005980924    0.003539161548    0.011619978311
            0.005091071605    0.011300144557    -0.000004037033    -0.000005980899    0.044545931777    0.005801589832    -0.000006091512    -0.000009275508
            -0.000008606700    -0.000013269537    0.003541517421    0.011618383399    -0.000006091511    -0.000009275511    0.042347989556    0.005320328533
0.050     0.054053455792    0.000776090923    -0.000014192319    -0.000013455853    0.015466499712    0.017445583994    -0.000020398313    -0.000019820145
            -0.000014192319    -0.000013455853    0.046667018903    0.003174541960    -0.000009490397    -0.000008765810    0.010278272578    0.020529189732
            0.015466488175    0.017445624959    -0.000009490397    -0.000008765810    0.053960944064    0.000773386652    -0.000014411769    -0.000013802313
            -0.000020398313    -0.000019820145    0.010278406563    0.020529247903    -0.000014411768    -0.000013802313    0.046647131610    0.003336468455
0.075     0.060355664090    -0.011508983714    -0.000023951796    -0.000013435190    0.027605935521    0.015443477554    -0.000034691946    -0.000020163093
            -0.000023951796    -0.000013435190    0.047836510835    -0.001446077507    -0.000015949157    -0.000008602310    0.018847495974    0.024911887882
            0.027605931144    0.015443483329    -0.000015949157    -0.000008602310    0.060288782851    -0.011468684539    -0.000024482892    -0.000013906958
            -0.000034691946    -0.000020163093    0.018847494474    0.024911894032    -0.000024482891    -0.000013906957    0.047891566425    -0.001218028140
0.100     0.059391498667    -0.029023489135    -0.000033895449    -0.000009082810    0.036154384537    0.005560016890    -0.000049540400    -0.000014101139
            -0.000033895449    -0.000009082810    0.044860532138    -0.006907587533    -0.000022460960    -0.000005536065    0.026383854224    0.024809459689
            0.036154384508    0.005560017080    -0.000022460960    -0.000005536065    0.059403909705    -0.028949227621    -0.000034894163    -0.000009442327
            -0.000049540400    -0.000014101139    0.026383832059    0.024809465744    -0.000034894163    -0.000009442327    0.045009512523    -0.006655664471
0.125     0.048133946580    -0.047106349455    -0.000042773245    -0.000000482834    0.036732867832    -0.008929675895    -0.000062941516    -0.000001553833
            -0.000042773245    -0.000000482834    0.037265019311    -0.010688047909    -0.000028177361    0.000000353127    0.030606283647    0.021828024651
            0.036732867832    -0.008929675895    -0.000028177361    0.000000353127    0.048277705686    -0.047043456165    -0.000044184326    -0.000000360141
            -0.000062941516    -0.000001553833    0.030606283647    0.021828024651    -0.000044184326    -0.000000360141    0.037503782927    -0.010458326116
0.150     0.026527604434    -0.059741475997    -0.000049356880    0.000012257112    0.027459504279    -0.022665918186    -0.000072809674    0.000017275708
            -0.000049356880    0.000012257112    0.026264915372    -0.010071043453    -0.000032267425    0.000008967140    0.030539732769    0.018583242099
            0.027459504279    -0.022665918186    -0.000032267425    0.000008967140    0.026827145172    -0.059770503482    -0.000050826506    0.000013155995
            -0.000072809674    0.000017275708    0.030539732769    0.018583242099    -0.000050826506    0.000013155995    0.026565821938    -0.009905608385
0.175     -0.001946457680    -0.061169469976    -0.000051972455    0.000028913099    0.009747008639    -0.029840015959    -0.000076587880    0.000041746785
            -0.000051972455    0.000028913099    0.014409462518    -0.003194009905    -0.000033591771    0.000020119432    0.026873189121    0.017827793566
            0.009747008639    -0.029840015959    -0.000033591771    0.000020119432    -0.001516775467    -0.061389469054    -0.000052969708    0.000030564820
            -0.000076587880    0.000041746785    0.026873189121    0.017827793566    -0.000052969708    0.000030564820    0.014724581461    -0.003116748993
0.200     -0.030748771307    -0.048119490938    -0.000048472525    0.000048413324    -0.011787460549    -0.026112017860    -0.000071392244    0.000069982027
            -0.000048472525    0.000048413324    0.005172401723    0.010243202310    -0.000030706092    0.000033012999    0.021805746351    0.021490394699
            -0.011787460549    -0.026112017860    -0.000030706092    0.000033012999    -0.030274913539    -0.048615321779    -0.000048584416    0.000050402556
            -0.000071392244    0.000069982027    0.021805746351    0.021490394699    -0.000048584416    0.000050402556    0.005444246290    0.010237753906
0.225     -0.052031397186    -0.021275306662    -0.000036893738    0.000068211117    -0.030546627121    -0.010280414100    -0.000054855291    0.000098304744
            -0.000036893738    0.000068211117    0.001953959397    0.028548863061    -0.000022349025    0.000045827712    0.018343301697    0.029906909733
            -0.030546627121    -0.010280414100    -0.000022349025    0.000045827712    -0.051648489726    -0.022079113278    -0.000036110688    0.000069916492
            -0.000054855291    0.000098304744    0.018343301697    0.029906909733    -0.000036110688    0.000069916492    0.002132647808    0.028499151273
0.250     -0.059044007039    0.014371118541    -0.000016719903    0.000084391434    -0.040028498313    0.014969689381    -0.000026571450    0.000121522389
            -0.000016719903    0.000084391434    0.006920999096    0.048301679934    -0.000008332540    0.000055849090    0.019240240577    0.041605153935
            -0.040028498313    0.014969689381    -0.000008332540    0.000055849090    -0.058900465285    0.013305944138    -0.000015489660    0.000085359844
            -0.000026571450    0.000121522389    0.019240240577    0.041605153935    -0.000015489660    0.000085359844    0.006982688407    0.048271664828
0.275     -0.048432418822    0.050674618826    0.000010217536    0.000092832495    -0.036019345555    0.043682827094    0.000010984738    0.000134365131
            0.000010217536    0.000092832495    0.020155585520    0.065242613761    0.000009878561    0.000060342244    0.025987867656    0.053749453191
            -0.036019345555    0.043682827094    0.000009878561    0.000060342244    -0.048642301452    0.049475562772    0.000011246777    0.000093094015
            0.000010984738    0.000134365131    0.025987867656    0.053749453191    0.000011246777    0.000093094015    0.020114716723    0.065304703233
0.300     -0.021526949453    0.078631307276    0.000039922782    0.000090885492    -0.018042650193    0.068410409278    0.000052770663    0.000133414307
            0.000039922782    0.000090885492    0.039468485650    0.075574578949    0.000029405140    0.000057731310    0.038277208621    0.063106085285
            -0.018042650193    0.068410409278    0.000029405140    0.000057731310    -0.022126511238    0.077479882238    0.000040350456    0.000090972490
            0.000052770663    0.000133414307    0.038277208621    0.063106085285    0.000040350456    0.000090972490    0.039379130335    0.075786953300
0.325     0.015909460555    0.090971154011    0.000067627258    0.000078437764    0.010479117103    0.082406941757    0.000092832197    0.000118265423
            0.000067627258    0.000078437764    0.060986707092    0.077104796859    0.000047015000    0.000048244513    0.054108846540    0.067081506720
            0.010479117103    0.082406941757    0.000047015000    0.000048244513    0.014983381765    0.090054268944    0.000067633358    0.000079048377
            0.000092832197    0.000118265423    0.054108846540    0.067081506720    0.000067633358    0.000079048377    0.060929610824    0.077491259336
0.350     0.055200972727    0.084119247004    0.000089510821    0.000057769016    0.043193835582    0.081442821579    0.000126246980    0.000091319550
            0.000089510821    0.000057769016    0.080245757468    0.069878633118    0.000060303648    0.000033672134    0.070426015115    0.064482661635
            0.043193835582    0.081442821579    0.000060303648    0.000033672134    0.054105035984    0.083576832827    0.000089839259    0.000059259739
            0.000126246980    0.000091319550    0.070426015115    0.064482661635    0.000089839259    0.000059259739    0.080308631301    0.070417272226
0.375     0.086914159433    0.059038241934    0.000103791563    0.000032317405    0.072398263370    0.064788395036    0.000150330675    0.000056375110
            0.000103791563    0.000032317405    0.093375337753    0.056120303452    0.000068336357    0.000016414352    0.083956074832    0.055804032583
            0.072398263370    0.064788395036    0.000068336357    0.000016414352    0.085866405238    0.058919173214    0.000105352281    0.000034321004
            0.000150330675    0.000056375110    0.083956074832    0.055804032583    0.000105352281    0.000034321004    0.093626913491    0.056744084949
0.400     0.102990377334    0.021033851452    0.000110763649    0.000005158605    0.090737277480    0.035425166204    0.000164624542    0.000016977995
            0.000110763649    0.000005158605    0.098053312555    0.039668497087    0.000071525486    -0.000001538269    0.092041669248    0.043124023382
            0.090737277480    0.035425166204    0.000071525486    -0.000001538269    0.102221146894    0.021271220311    0.000114028450    0.000006592643
            0.000164624542    0.000016977995    0.092041669248    0.043124023382    0.000114028450    0.000006592643    0.098521620121    0.040278813460
0.425     0.098531540758    -0.021245448731    0.000111838422    -0.000022134360    0.092796821783    -0.000378084710    0.000169838876    -0.000024758075
            0.000111838422    -0.000022134360    0.094079556314    0.025071690898    0.000070894854    -0.000019275570    0.093330231240    0.029662202583
            0.092796821783    -0.000378084710    0.000070894854    -0.000019275570    0.098223930559    -0.020835091779    0.000116350908    -0.000022605407
            0.000169838876    -0.000024758075    0.093330231240    0.029662202583    0.000116350908    -0.000022605407    0.094737443036    0.025561932360
0.450     0.073132111846    -0.057425050816    0.000108077578    -0.000049706277    0.076556472017    -0.034078165146    0.000166324614    -0.000068272794
            0.000108077578    -0.000049706277    0.083541879205    0.016536388773    0.000067104398    -0.000036985924    0.088271717898    0.019068857967
            0.076556472017    -0.034078165146    0.000067104398    -0.000036985924    0.073363557034    -0.057112902490    0.000112403883    -0.000052912073
            0.000166324614    -0.000068272794    0.088271717898    0.019068857967    0.000112403883    -0.000052912073    0.084305465517    0.016822615728
0.475     0.031538583055    -0.077619248066    0.000098830423    -0.000078471321    0.044449615889    -0.056596181993    0.000152765460    -0.000113464167
            0.000098830423    -0.000078471321    0.070502047498    0.016807828037    0.000059615603    -0.000055239772    0.079256121687    0.014432179640
            0.044449615889    -0.056596181993    0.000059615603    -0.000055239772    0.032237569490    -0.077704513821    0.000101099878    -0.000084067915
            0.000152765460    -0.000113464167    0.079256121687    0.014432179640    0.000101099878    -0.000084067915    0.071246998698    0.016859541736
0.500     -0.016785435002    -0.075089164007    0.000081475237    -0.000108199534    0.003521737109    -0.060760907620    0.000126142473    -0.000158676835
            0.000081475237    -0.000108199534    0.060116095377    0.026208806165    0.000046646562    -0.000073680368    0.070187724813    0.017204136337
            0.003521737109    -0.060760907620    0.000046646562    -0.000073680368    -0.015847850755    -0.075815092435    0.000080339257    -0.000114535755
            0.000126142473    -0.000158676835    0.070187724813    0.017204136337    0.000080339257    -0.000114535755    0.060710632671    0.026068570235
0.525     -0.059668371547    -0.048656013131    0.000052907714    -0.000135713747    -0.035952593553    -0.043820073154    0.000083515475    -0.000199021189
            0.000052907714    -0.000135713747    0.057183087584    0.042192617907    0.000026319600    -0.000089897789    0.065359471606    0.026426501895
            -0.035952593553    -0.043820073154    0.000026319600    -0.000089897789    -0.058836620067    -0.050125083410    0.000048429122    -0.000140468566
            0.000083515475    -0.000199021189    0.065359471606    0.026426501895    0.000048429122    -0.000140468566    0.057532021529    0.041974805394
0.550     -0.085657262087    -0.003719820807    0.000012397635    -0.000154894604    -0.063400156128    -0.008868642909    0.000025073525    -0.000226692495
            0.000012397635    -0.000154894604    0.064514703204    0.059850806250    -0.000001346439    -0.000099649764    0.067944473943    0.038801987350
            -0.063400156128    -0.008868642909    -0.000001346439    -0.000099649764    -0.085300004021    -0.005841465576    0.000006236194    -0.000156255506
            0.000025073525    -0.000226692495    0.067944473943    0.038801987350    0.000006236194    -0.000156255506    0.064597244203    0.059712561897
0.575     -0.087648721776    0.049046444090    -0.000036320671    -0.000159166250    -0.071347030246    0.035863193990    -0.000043832450    -0.000233897819
            -0.000036320671    -0.000159166250    0.081825473329    0.073402763094    -0.000033187699    -0.000098819061    0.078764373514    0.049748481054
            -0.071347030246    0.035863193990    -0.000033187699    -0.000098819061    -0.088049905377    0.046545303031    -0.000041645215    -0.000156863438
            -0.000043832450    -0.000233897819    0.078764373514    0.049748481054    -0.000041645215    -0.000156863438    0.081711070305    0.073496602599
0.600     -0.065035809255    0.096995631254    -0.000085636731    -0.000145014219    -0.057668638724    0.079674179777    -0.000113622897    -0.000216683195
            -0.000085636731    -0.000145014219    0.105781145194    0.078109590600    -0.000063696269    -0.000085847457    0.096028353077    0.055008278668
            -0.057668638724    0.079674179777    -0.000063696269    -0.000085847457    -0.066309285681    0.094499806178    -0.000088041317    -0.000140535509
            -0.000113622897    -0.000216683195    0.096028353077    0.055008278668    -0.000088041317    -0.000140535509    0.105614446453    0.078533361507
0.625     -0.023430354181    0.129250616967    -0.000127087132    -0.000113851038    -0.025699912154    0.112639385761    -0.000173974834    -0.000176819910
            -0.000127087132    -0.000113851038    0.131151342507    0.071710466223    -0.000087411482    -0.000062675365    0.116065329281    0.051971609932
            -0.025699912154    0.112639385761    -0.000087411482    -0.000062675365    -0.025490270913    0.127154773322    -0.000126012070    -0.000109697022
            -0.000173974834    -0.000176819910    0.116065329281    0.051971609932    -0.000126012070    -0.000109697022    0.131112999363    0.072475093773
0.650     0.027492866131    0.139295923688    -0.000154587435    -0.000071225221    0.017332133094    0.127966084707    -0.000217373275    -0.000120770357
            -0.000154587435    -0.000071225221    0.152451298576    0.054861479141    -0.000101086095    -0.000033685370    0.134561505950    0.040230365091
            0.017332133094    0.127966084707    -0.000101086095    -0.000033685370    0.024906090758    0.137908481562    -0.000151295504    -0.000069619832
            -0.000217373275    -0.000120770357    0.134561505950    0.040230365091    -0.000151295504    -0.000069619832    0.152709130495    0.055885120093
0.675     0.076726909968    0.125821061236    -0.000166019809    -0.000024348443    0.062423572051    0.122906065161    -0.000240800869    -0.000056854978
            -0.000166019809    -0.000024348443    0.165328062819    0.030667998889    -0.000104331604    -0.000003719932    0.147646625054    0.021397562981
            0.062423572051    0.122906065161    -0.000104331604    -0.000003719932    0.073984649441    0.125300346228    -0.000162966452    -0.000026101450
            -0.000240800869    -0.000056854978    0.147646625054    0.021397562981    -0.000162966452    -0.000026101450    0.165993932003    0.031792819352
0.700     0.114211284372    0.092270784073    -0.000163008916    0.000020359280    0.100566375340    0.098675791924    -0.000245358266    0.000007461354
            -0.000163008916    0.000020359280    0.167402608672    0.003769798310    -0.000098985104    0.000023487449    0.152626827438    -0.001408890735
            0.100566375340    0.098675791924    -0.000098985104    0.000023487449    0.111721000621    0.092594851330    -0.000162624495    0.000016335201
            -0.000245358266    0.000007461354    0.152626827438    -0.001408890735    -0.000162624495    0.000016335201    0.168501843666    0.004795537623
0.725     0.132383593466    0.045817620400    -0.000149558278    0.000058906572    0.124029280184    0.059981396751    -0.000234671583    0.000067298086
            -0.000149558278    0.000058906572    0.158598301986    -0.020648375304    -0.000087931291    0.000046044531    0.148400902765    -0.024163656231
            0.124029280184    0.059981396751    -0.000087931291    0.000046044531    0.130511659365    0.046784068281    -0.000152969168    0.000055188609
            -0.000234671583    0.000067298086    0.148400902765    -0.024163656231    -0.000152969168    0.000055188609    0.160055000760    -0.019922580621
0.750     0.127258888482    -0.003811020931    -0.000130256512    0.000090442798    0.127478530857    0.014474855094    -0.000212909921    0.000120900866
            -0.000130256512    0.000090442798    0.141170990808    -0.037800277917    -0.000073969495    0.000063974167    0.135772401303    -0.042572343595
            0.127478530857    0.014474855094    -0.000073969495    0.000063974167    0.126255845559    -0.002559183880    -0.000136495389    0.000089902864
            -0.000212909921    0.000120900866    0.135772401303    -0.042572343595    -0.000136495389    0.000089902864    0.142812314631    -0.037524037887
0.775     0.099312324308    -0.045709147487    -0.000108236325    0.000116931382    0.109189421315    -0.028094870870    -0.000182730789    0.000169131852
            -0.000108236325    0.000116931382    0.119480453567    -0.044254671466    -0.000058723589    0.000078774212    0.117599046237    -0.052912693990
            0.109189421315    -0.028094870870    -0.000058723589    0.000078774212    0.099245833911    -0.044627855821    -0.000114406706    0.000121190708
            -0.000182730789    0.000169131852    0.117599046237    -0.052912693990    -0.000114406706    0.000121190708    0.121063705616    -0.044479447975
