# GHz S RI R 45
0.000     0.036440782491    0.001840210826    -0.000008999246    -0.000020250503    0.001054547056    0.001573207201    -0.000045467302    -0.000020879799
            -0.000008999039    -0.000020250504    0.036291888465    0.001040809310    -0.000007642082    -0.000018277498    0.000985690750    0.001219134241
            0.001054546891    0.001573207191    -0.000007640125    -0.000018277512    0.036378770992    0.001828284882    -0.000009304772    -0.000020731370
            -0.000045467169    -0.000020879805    0.000985690708    0.001219134276    -0.000009304746    -0.000020731370    0.036296036452    0.001053490978
0.025     0.044618376830    0.005818098848    -0.000028568408    -0.000046000655    0.005092667596    0.011296910199    -0.000066413626    -0.000033916180
            -0.000028568130    -0.000046000871    0.041913964657    0.004992361597    -0.000024601598    -0.000041921880    0.003309131981    0.011073417474
            0.005091071605    0.011300144557    -0.000024601633    -0.000041921890    0.044545931777    0.005801589832    -0.000030057264    -0.000046809421
            -0.000066413715    -0.000033916211    0.003305911591    0.011073628977    -0.000030056590    -0.000046809271    0.041857865208    0.005030101288
0.050     0.054053455792    0.000776090923    -0.000070729495    -0.000069430303    0.015466499712    0.017445583994    -0.000113249453    -0.000051143726
            -0.000070729497    -0.000069430305    0.046037757753    0.002789079657    -0.000061524454    -0.000064443966    0.009638520691    0.019639174912
            0.015466488175    0.017445624959    -0.000061524456    -0.000064443967    0.053960944064    0.000773386652    -0.000074015029    -0.000068444690
            -0.000113249462    -0.000051143730    0.009638565351    0.019639130714    -0.000074015014    -0.000068444677    0.045958872962    0.002897904519
0.075     0.060355664090    -0.011508983714    -0.000121726938    -0.000068817155    0.027605935521    0.015443477554    -0.000162497536    -0.000033845548
            -0.000121726938    -0.000068817155    0.047123434279    -0.001816701689    -0.000107620097    -0.000067064018    0.017766082546    0.024014295429
            0.027605931144    0.015443483329    -0.000107620097    -0.000067064018    0.060288782851    -0.011468684539    -0.000124300524    -0.000063954073
            -0.000162497536    -0.000033845548    0.017766086981    0.024014290904    -0.000124300515    -0.000063954068    0.047054750330    -0.001611820266
0.100     0.059391498667    -0.029023489135    -0.000172146410    -0.000044738096    0.036154384537    0.005560016890    -0.000198528379    0.000006745398
            -0.000172146410    -0.000044738096    0.044252688630    -0.007212226650    -0.000155896604    -0.000048936652    0.025082853064    0.024180684177
            0.036154384508    0.005560017080    -0.000155896604    -0.000048936652    0.059403909705    -0.028949227621    -0.000169973010    -0.000036961610
            -0.000198528389    0.000006745399    0.025082853064    0.024180684177    -0.000169973010    -0.000036961610    0.044236505129    -0.006906424497
0.125     0.048133946580    -0.047106349455    -0.000214795837    0.000000400157    0.036732867832    -0.008929675895    -0.000217758565    0.000057942946
            -0.000214795837    0.000000400157    0.037043275454    -0.011050398352    -0.000200040666    -0.000010055742    0.029468808417    0.021515734726
            0.036732867832    -0.008929675895    -0.000200040666    -0.000010055742    0.048277705686    -0.047043456165    -0.000205402403    0.000006538643
            -0.000217758565    0.000057942946    0.029468808417    0.021515734726    -0.000205402403    0.000006538643    0.037128634885    -0.010674619824
0.150     0.026527604434    -0.059741475997    -0.000244274314    0.000064002925    0.027459504279    -0.022665918186    -0.000224588524    0.000113053964
            -0.000244274314    0.000064002925    0.026474349088    -0.010825467109    -0.000233669092    0.000049181576    0.029931800618    0.018332014991
            0.027459504279    -0.022665918186    -0.000233669092    0.000049181576    0.026827145172    -0.059770503482    -0.000229437369    0.000062484355
            -0.000224588524    0.000113053964    0.029931800618    0.018332014991    -0.000229437369    0.000062484355    0.026689515542    -0.010419633267
0.175     -0.001946457680    -0.061169469976    -0.000254529612    0.000143890303    0.009747008639    -0.029840015959    -0.000222793295    0.000174206200
            -0.000254529612    0.000143890303    0.014920663244    -0.004747179999    -0.000248770726    0.000127408336    0.026933687300    0.017129144863
            0.009747008639    -0.029840015959    -0.000248770726    0.000127408336    -0.001516775467    -0.061389469054    -0.000240651111    0.000130934558
            -0.000222793295    0.000174206200    0.026933687300    0.017129144863    -0.000240651111    0.000130934558    0.015269815704    -0.004380306024
0.200     -0.030748771307    -0.048119490938    -0.000237534794    0.000235752929    -0.011787460549    -0.026112017860    -0.000208284785    0.000247217724
            -0.000237534794    0.000235752929    0.005579349994    0.007551916438    -0.000235526180    0.000219557642    0.022301213373    0.019765748064
            -0.011787460549    -0.026112017860    -0.000235526180    0.000219557642    -0.030274913539    -0.048615321779    -0.000232997934    0.000213039750
            -0.000208284785    0.000247217724    0.022301213373    0.019765748064    -0.000232997934    0.000213039750    0.006021412128    0.007810501766
0.225     -0.052031397186    -0.021275306662    -0.000184851062    0.000329915386    -0.030546627121    -0.010280414100    -0.000168199458    0.000332569340
            -0.000184851062    0.000329915386    0.001624882764    0.024645232078    -0.000184916696    0.000314248621    0.018663385825    0.026764433324
            -0.030546627121    -0.010280414100    -0.000184916696    0.000314248621    -0.051648489726    -0.022079113278    -0.000195484452    0.000305026781
            -0.000168199458    0.000332569340    0.018663385825    0.026764433324    -0.000195484452    0.000305026781    0.002079482582    0.024756751788
0.250     -0.059044007039    0.014371118541    -0.000092561572    0.000410349714    -0.040028498313    0.014969689381    -0.000088059001    0.000418376171
            -0.000092561572    0.000410349714    0.005193707557    0.043509570797    -0.000093961934    0.000393960401    0.018563353606    0.037061791118
            -0.040028498313    0.014969689381    -0.000093961934    0.000393960401    -0.058900465285    0.013305944138    -0.000117834122    0.000393657559
            -0.000088059001    0.000418376171    0.018563353606    0.037061791118    -0.000117834122    0.000393657559    0.005563589043    0.043487279787
0.275     -0.048432418822    0.050674618826    0.000033889993    0.000458280631    -0.036019345555    0.043682827094    0.000037417071    0.000481173728
            0.000033889993    0.000458280631    0.016599550450    0.060261276602    0.000030131393    0.000439684293    0.023564279261    0.048309763538
            -0.036019345555    0.043682827094    0.000030131393    0.000439684293    -0.048642301452    0.049475562772    0.000001497984    0.000457777989
            0.000037417071    0.000481173728    0.023564279261    0.048309763538    0.000001497984    0.000457777989    0.016803326846    0.060175053851
0.300     -0.021526949453    0.078631307276    0.000178787081    0.000459207294    -0.018042650193    0.068410409278    0.000196978938    0.000495171708
            0.000178787081    0.000459207294    0.034087436056    0.071287913201    0.000170155372    0.000438148373    0.033708568698    0.057650909416
            -0.018042650193    0.068410409278    0.000170155372    0.000438148373    -0.022126511238    0.077479882238    0.000150468001    0.000476182384
            0.000196978938    0.000495171708    0.033708568698    0.057650909416    0.000150468001    0.000476182384    0.034091446250    0.071248879891
0.325     0.015909460555    0.090971154011    0.000320779978    0.000408687163    0.010479117103    0.082406941757    0.000364472896    0.000444224223
            0.000320779978    0.000408687163    0.054266630275    0.074300831431    0.000304508597    0.000387019136    0.047509611819    0.062616583717
            0.010479117103    0.082406941757    0.000304508597    0.000387019136    0.014983381765    0.090054268944    0.000305907049    0.000436869929
            0.000364472896    0.000444224223    0.047509611819    0.062616583717    0.000305907049    0.000436869929    0.054101645348    0.074430706662
0.350     0.055200972727    0.084119247004    0.000440170618    0.000313436003    0.043193835582    0.081442821579    0.000508202139    0.000329469886
            0.000440170618    0.000313436003    0.073032365325    0.068996176790    0.000414759572    0.000294962351    0.062419261614    0.061848598376
            0.043193835582    0.081442821579    0.000414759572    0.000294962351    0.054105035984    0.083576832827    0.000441673295    0.000342118961
            0.000508202139    0.000329469886    0.062419261614    0.061848598376    0.000441673295    0.000342118961    0.072793831214    0.069390526190
0.375     0.086914159433    0.059038241934    0.000524617970    0.000187266539    0.072398263370    0.064788395036    0.000602567815    0.000168657288
            0.000524617970    0.000187266539    0.086642823755    0.057107632817    0.000490948506    0.000176651506    0.075529095748    0.055437015388
            0.072398263370    0.064788395036    0.000490948506    0.000176651506    0.085866405238    0.058919173214    0.000537636261    0.000206772351
            0.000602567815    0.000168657288    0.075529095748    0.055437015388    0.000537636261    0.000206772351    0.086470812767    0.057804616880
0.400     0.102990377334    0.021033851452    0.000570627477    0.000045008525    0.090737277480    0.035425166204    0.000636180563    -0.000011222468
            0.000570627477    0.000045008525    0.092643909921    0.041974312490    0.000532185067    0.000046231694    0.084309587519    0.044910936860
            0.090737277480    0.035425166204    0.000532185067    0.000046231694    0.102221146894    0.021271220311    0.000585160587    0.000051760509
            0.000636180563    -0.000011222468    0.084309587519    0.044910936860    0.000585160587    0.000051760509    0.092688686184    0.042936277572
0.425     0.098531540758    -0.021245448731    0.000580833697    -0.000102622425    0.092796821783    -0.000378084710    0.000613483017    -0.000184412610
            0.000580833697    -0.000102622425    0.090466658195    0.027751528283    0.000542991157    -0.000087737143    0.087247924154    0.032911377373
            0.092796821783    -0.000378084710    0.000542991157    -0.000087737143    0.098223930559    -0.020835091779    0.000587261800    -0.000104006945
            0.000613483017    -0.000184412610    0.087247924154    0.032911377373    0.000587261800    -0.000104006945    0.090849154888    0.028865123591
0.450     0.073132111846    -0.057425050816    0.000558961061    -0.000250925734    0.076556472017    -0.034078165146    0.000549658718    -0.000335316472
            0.000558961061    -0.000250925734    0.081648250372    0.018458830345    0.000527454326    -0.000223511874    0.084331445963    0.022621982534
            0.076556472017    -0.034078165146    0.000527454326    -0.000223511874    0.073363557034    -0.057112902490    0.000553869707    -0.000249776826
            0.000549658718    -0.000335316472    0.084331445963    0.022621982534    0.000553869707    -0.000249776826    0.082422021758    0.019555635810
0.475     0.031538583055    -0.077619248066    0.000504592724    -0.000399022187    0.044449615889    -0.056596181993    0.000460680951    -0.000462043673
            0.000504592724    -0.000399022187    0.069613317950    0.016956723947    0.000483766194    -0.000362864573    0.077242054621    0.016947407008
            0.044449615889    -0.056596181993    0.000483766194    -0.000362864573    0.032237569490    -0.077704513821    0.000493889030    -0.000384581335
            0.000460680951    -0.000462043673    0.077242054621    0.016947407008    0.000493889030    -0.000384581335    0.070739643182    0.017852950748
0.500     -0.016785435002    -0.075089164007    0.000411016298    -0.000543881795    0.003521737109    -0.060760907620    0.000353373204    -0.000571755047
            0.000411016298    -0.000543881795    0.058964118735    0.024049697819    0.000402620986    -0.000504073395    0.069105109708    0.017591771203
            0.003521737109    -0.060760907620    0.000402620986    -0.000504073395    -0.015847850755    -0.075815092435    0.000408060607    -0.000512317636
            0.000353373204    -0.000571755047    0.069105109708    0.017591771203    0.000408060607    -0.000512317636    0.060309998879    0.024597624243
0.525     -0.059668371547    -0.048656013131    0.000268890418    -0.000673472801    -0.035952593553    -0.043820073154    0.000221852146    -0.000669397961
            0.000268890418    -0.000673472801    0.054268673379    0.037988128947    0.000272040438    -0.000634636005    0.063660213688    0.024310257244
            -0.035952593553    -0.043820073154    0.000272040438    -0.000634636005    -0.058836620067    -0.050125083410    0.000287750124    -0.000632091221
            0.000221852146    -0.000669397961    0.063660213688    0.024310257244    0.000287750124    -0.000632091221    0.055634770049    0.038125807343
0.550     -0.085657262087    -0.003719820807    0.000075735563    -0.000764883546    -0.063400156128    -0.008868642909    0.000054638697    -0.000747076979
            0.000075735563    -0.000764883546    0.058627208323    0.054736160817    0.000087953914    -0.000729897590    0.064037405970    0.034776250427
            -0.063400156128    -0.008868642909    0.000087953914    -0.000729897590    -0.085300004021    -0.005841465576    0.000122771020    -0.000730336572
            0.000054638697    -0.000747076979    0.064037405970    0.034776250427    0.000122771020    -0.000730336572    0.059803541847    0.054515243807
0.575     -0.087648721776    0.049046444090    -0.000155074500    -0.000791466884    -0.071347030246    0.035863193990    -0.000151627804    -0.000782992237
            -0.000155074500    -0.000791466884    0.072547486769    0.069095186872    -0.000136296695    -0.000761245331    0.071612011074    0.045251230913
            -0.071347030246    0.035863193990    -0.000136296695    -0.000761245331    -0.088049905377    0.046545303031    -0.000086214221    -0.000782242063
            -0.000151627804    -0.000782992237    0.071612011074    0.045251230913    -0.000086214221    -0.000782242063    0.073376637283    0.068673420631
0.600     -0.065035809255    0.096995631254    -0.000393748925    -0.000735954323    -0.057668638724    0.079674179777    -0.000382533141    -0.000752076331
            -0.000393748925    -0.000735954323    0.093706730520    0.076340396716    -0.000369882036    -0.000710247111    0.085530714366    0.051848001366
            -0.057668638724    0.079674179777    -0.000369882036    -0.000710247111    -0.066309285681    0.094499806178    -0.000320585621    -0.000763258266
            -0.000382533141    -0.000752076331    0.085530714366    0.051848001366    -0.000320585621    -0.000763258266    0.094134368421    0.075937957274
0.625     -0.023430354181    0.129250616967    -0.000603967443    -0.000599954899    -0.025699912154    0.112639385761    -0.000607648759    -0.000640107759
            -0.000603967443    -0.000599954899    0.117706239921    0.073654539874    -0.000575196853    -0.000578508825    0.103074427301    0.051751446260
            -0.025699912154    0.112639385761    -0.000575196853    -0.000578508825    -0.025490270913    0.127154773322    -0.000547897653    -0.000662124123
            -0.000607648759    -0.000640107759    0.103074427301    0.051751446260    -0.000547897653    -0.000662124123    0.117798886684    0.073491143131
0.650     0.027492866131    0.139295923688    -0.000756237658    -0.000403487533    0.017332133094    0.127966084707    -0.000791485810    -0.000451658048
            -0.000756237658    -0.000403487533    0.139440602719    0.060813728699    -0.000721970256    -0.000386987276    0.120594582803    0.043922025634
            0.017332133094    0.127966084707    -0.000721970256    -0.000386987276    0.024906090758    0.137908481562    -0.000733654303    -0.000486556076
            -0.000791485810    -0.000451658048    0.120594582803    0.043922025634    -0.000733654303    -0.000486556076    0.139366711505    0.061049099833
0.675     0.076726909968    0.125821061236    -0.000836277932    -0.000176210822    0.062423572051    0.122906065161    -0.000905402396    -0.000208639169
            -0.000836277932    -0.000176210822    0.154443912762    0.040030422217    -0.000796110892    -0.000166633686    0.134488676538    0.029151953777
            0.062423572051    0.122906065161    -0.000796110892    -0.000166633686    0.073984649441    0.125300346228    -0.000852415817    -0.000259663160
            -0.000905402396    -0.000208639169    0.134488676538    0.029151953777    -0.000852415817    -0.000259663160    0.154432021197    0.040722975558
0.700     0.114211284372    0.092270784073    -0.000845693314    0.000053053143    0.100566375340    0.098675791924    -0.000935114843    0.000057051553
            -0.000845693314    0.000053053143    0.159853341705    0.015250961612    -0.000800389523    0.000052668361    0.141953288137    0.009737859037
            0.100566375340    0.098675791924    -0.000800389523    0.000052668361    0.111721000621    0.092594851330    -0.000893312542    -0.000011763339
            -0.000935114843    0.000057051553    0.141953288137    0.009737859037    -0.000893312542    -0.000011763339    0.160136890000    0.016343158843
0.725     0.132383593466    0.045817620400    -0.000797019980    0.000263639466    0.124029280184    0.059981396751    -0.000882555870    0.000312495102
            -0.000797019980    0.000263639466    0.154888366134    -0.008746398898    -0.000749255333    0.000250023389    0.141452903454    -0.011008471109
            0.124029280184    0.059981396751    -0.000749255333    0.000250023389    0.130511659365    0.046784068281    -0.000860057227    0.000228065587
            -0.000882555870    0.000312495102    0.141452903454    -0.011008471109    -0.000860057227    0.000228065587    0.155652750395    -0.007421332822
0.750     0.127258888482    -0.003811020931    -0.000706834463    0.000446084724    0.127478530857    0.014474855094    -0.000763443848    0.000531882884
            -0.000706834463    0.000446084724    0.140988901418    -0.027273680281    -0.000661370847    0.000417018658    0.133057819583    -0.029302389621
            0.127478530857    0.014474855094    -0.000661370847    0.000417018658    0.126255845559    -0.002559183880    -0.000767424864    0.000438588883
            -0.000763443848    0.000531882884    0.133057819583    -0.029302389621    -0.000767424864    0.000438588883    0.142324046898    -0.025958460753
0.775     0.099312324308    -0.045709147487    -0.000588605846    0.000601330029    0.109189421315    -0.028094870870    -0.000600732975    0.000702507960
            -0.000588605846    0.000601330029    0.121663514540    -0.036649568571    -0.000551648409    0.000556882725    0.118637567441    -0.041584409360
            0.109189421315    -0.028094870870    -0.000551648409    0.000556882725    0.099245833911    -0.044627855821    -0.000634854241    0.000610538129
            -0.000600732975    0.000702507960    0.118637567441    -0.041584409360    -0.000634854241    0.000610538129    0.123531535829    -0.035614343786
