# GHz S RI R 45
0.000     0.036440782491    0.001840210826    0.000000419115    0.000000917814    0.001054547056    0.001573207201    0.000000441020    0.000000991799
            0.000000419109    0.000000917814    0.035443952530    0.001834353085    0.000000465586    0.000000999314    0.000993119549    0.001570304669
            0.001054546891    0.001573207191    0.000000465596    0.000000999315    0.036378770992    0.001828284882    0.000000478623    0.000001083816
            0.000000441060    0.000000991799    0.000993119386    0.001570304653    0.000000478610    0.000001083816    0.035392557272    0.001842708763
0.025     0.044618376830    0.005818098848    0.000001509155    0.000001612519    0.005092667596    0.011296910199    0.000001615134    0.000001718623
            0.000001509154    0.000001612512    0.043254713889    0.005309334891    0.000001652603    0.000001803155    0.004814062994    0.010398400871
            0.005091071605    0.011300144557    0.000001652603    0.000001803160    0.044545931777    0.005801589832    0.000001755720    0.000001863795
            0.000001615135    0.000001718621    0.004812858420    0.010398442763    0.000001755724    0.000001863797    0.043195294260    0.005300486381
0.050     0.054053455792    0.000776090923    0.000003717102    0.000001611352    0.015466499712    0.017445583994    0.000003993448    0.000001700826
            0.000003717102    0.000001611352    0.052601774728    0.000308778043    0.000004053027    0.000001850035    0.014754691494    0.016048317562
            0.015466488175    0.017445624959    0.000004053027    0.000001850035    0.053960944064    0.000773386652    0.000004347394    0.000001840113
            0.000003993448    0.000001700826    0.014754689883    0.016048323118    0.000004347394    0.000001840113    0.052584102685    0.000329176910
0.075     0.060355664090    -0.011508983714    0.000005781607    -0.000000243727    0.027605935521    0.015443477554    0.000006225258    -0.000000310597
            0.000005781607    -0.000000243727    0.059412365261    -0.011676960540    0.000006300270    -0.000000111558    0.026697083849    0.014045974838
            0.027605931144    0.015443483329    0.000006300270    -0.000000111558    0.060288782851    -0.011468684539    0.000006785494    -0.000000352850
            0.000006225258    -0.000000310597    0.026697033974    0.014045972990    0.000006785494    -0.000000352850    0.059484034315    -0.011665735482
0.100     0.059391498667    -0.029023489135    0.000006510519    -0.000003616514    0.036154384537    0.005560016890    0.000007030275    -0.000003962281
            0.000006510519    -0.000003616514    0.059831227967    -0.029095243373    0.000007108123    -0.000003718594    0.035721972466    0.004371697123
            0.036154384508    0.005560017080    0.000007108123    -0.000003718594    0.059403909705    -0.028949227621    0.000007681088    -0.000004334766
            0.000007030275    -0.000003962281    0.035721972443    0.004371697310    0.000007681088    -0.000004334766    0.060019751431    -0.029145919331
0.125     0.048133946580    -0.047106349455    0.000005034253    -0.000007516837    0.036732867832    -0.008929675895    0.000005468347    -0.000008198541
            0.000005034253    -0.000007516837    0.050742603774    -0.048001878582    0.000005536943    -0.000007907251    0.037615474509    -0.010284713138
            0.036732867832    -0.008929675895    0.000005536943    -0.000007907251    0.048277705686    -0.047043456165    0.000006011041    -0.000008967746
            0.000005468347    -0.000008198541    0.037615474509    -0.010284713138    0.000006011041    -0.000008967746    0.051048203943    -0.048181743328
0.150     0.026527604434    -0.059741475997    0.000001178174    -0.000010537195    0.027459504279    -0.022665918186    0.000001340701    -0.000011511100
            0.000001178174    -0.000010537195    0.031559148289    -0.062906907232    0.000001390847    -0.000011163363    0.030210101732    -0.025234289873
            0.027459504279    -0.022665918186    0.000001390847    -0.000011163363    0.026827145172    -0.059770503482    0.000001549356    -0.000012621451
            0.000001340701    -0.000011511100    0.030210101732    -0.025234289873    0.000001549356    -0.000012621451    0.031946459627    -0.063282258691
0.175     -0.001946457680    -0.061169469976    -0.000004399323    -0.000011296879    0.009747008639    -0.029840015959    -0.000004659780    -0.000012414251
            -0.000004399323    -0.000011296879    0.004789845720    -0.068386631209    -0.000004633834    -0.000011996771    0.014170270580    -0.035110245320
            0.009747008639    -0.029840015959    -0.000004633834    -0.000011996771    -0.001516775467    -0.061389469054    -0.000004969797    -0.000013683862
            -0.000004659780    -0.000012414251    0.014170270580    -0.035110245320    -0.000004969797    -0.000013683862    0.005186775314    -0.069007450924
0.200     -0.030748771307    -0.048119490938    -0.000010275130    -0.000008917920    -0.011787460549    -0.026112017860    -0.000011019191    -0.000009953732
            -0.000010275130    -0.000008917920    -0.024229965795    -0.060764809880    -0.000011017305    -0.000009447583    -0.006932778181    -0.035475508281
            -0.011787460549    -0.026112017860    -0.000011017305    -0.000009447583    -0.030274913539    -0.048615321779    -0.000011923546    -0.000011105677
            -0.000011019191    -0.000009953732    -0.006932778181    -0.035475508281    -0.000011923546    -0.000011105677    -0.023922569874    -0.061642909676
0.225     -0.052031397186    -0.021275306662    -0.000014634025    -0.000003433856    -0.030546627121    -0.010280414100    -0.000015796850    -0.000004142750
            -0.000014634025    -0.000003433856    -0.048547527261    -0.039515687779    -0.000015807439    -0.000003525871    -0.027444639173    -0.024304749309
            -0.030546627121    -0.010280414100    -0.000015807439    -0.000003525871    -0.051648489726    -0.022079113278    -0.000017216473    -0.000004871193
            -0.000015796850    -0.000004142750    -0.027444639173    -0.024304749309    -0.000017216473    -0.000004871193    -0.048435245981    -0.040609623936
0.250     -0.059044007039    0.014371118541    -0.000015865061    0.000004068692    -0.040028498313    0.014969689381    -0.000017257012    0.000003882346
            -0.000015865061    0.000004068692    -0.061473456487    -0.007888323364    -0.000017253165    0.000004626616    -0.041191831176    -0.002862244409
            -0.040028498313    0.014969689381    -0.000017253165    0.000004626616    -0.058900465285    0.013305944138    -0.000018953784    0.000003824246
            -0.000017257012    0.000003882346    -0.041191831176    -0.002862244409    -0.000018953784    0.000003824246    -0.061637704294    -0.009100259404
0.275     -0.048432418822    0.050674618826    -0.000013158482    0.000011722503    -0.036019345555    0.043682827094    -0.000014502833    0.000012144300
            -0.000013158482    0.000011722503    -0.058599575925    0.027643968378    -0.000014445988    0.000013015400    -0.043327931558    0.024421188758
            -0.036019345555    0.043682827094    -0.000014445988    0.000013015400    -0.048642301452    0.049475562772    -0.000016124140    0.000012863500
            -0.000014502833    0.000012144300    -0.043327931558    0.024421188758    -0.000016124140    0.000012863500    -0.059067141659    0.026452276997
0.300     -0.021526949453    0.078631307276    -0.000006824013    0.000017468510    -0.018042650193    0.068410409278    -0.000007820937    0.000018440945
            -0.000006824013    0.000017468510    -0.039265995044    0.058954616635    -0.000007675159    0.000019413446    -0.031854851735    0.051070522786
            -0.018042650193    0.068410409278    -0.000007675159    0.000019413446    -0.022126511238    0.077479882238    -0.000008984743    0.000019856969
            -0.000007820937    0.000018440945    -0.031854851735    0.051070522786    -0.000008984743    0.000019856969    -0.039989411594    0.057930630197
0.325     0.015909460555    0.090971154011    0.000001818932    0.000019691892    0.010479117103    0.082406941757    0.000001420939    0.000021016741
            0.000001818932    0.000019691892    -0.006937976684    0.078401046018    0.000001671740    0.000022045656    -0.008276214032    0.070309345210
            0.010479117103    0.082406941757    0.000001671740    0.000022045656    0.014983381765    0.090054268944    0.000001028047    0.000022865670
            0.000001420939    0.000021016741    -0.008276214032    0.070309345210    0.000001028047    0.000022865670    -0.007795484097    0.077660840840
0.350     0.055200972727    0.084119247004    0.000010854541    0.000017635934    0.043193835582    0.081442821579    0.000011197199    0.000019009011
            0.000010854541    0.000017635934    0.031547696779    0.080816483635    0.000011539055    0.000020046549    0.022729624153    0.076837064286
            0.043193835582    0.081442821579    0.000011539055    0.000020046549    0.054105035984    0.083576832827    0.000011736792    0.000020896239
            0.000011197199    0.000019009011    0.022729624153    0.076837064286    0.000011736792    0.000020896239    0.030731587195    0.080408371552
0.375     0.086914159433    0.059038241934    0.000018260290    0.000011501076    0.072398263370    0.064788395036    0.000019335399    0.000012570076
            0.000018260290    0.000011501076    0.067587862625    0.064797641246    0.000019728690    0.000013585987    0.054418270209    0.068127070960
            0.072398263370    0.064788395036    0.000019728690    0.000013585987    0.085866405238    0.058919173214    0.000020771111    0.000014054784
            0.000019335399    0.000012570076    0.054418270209    0.068127070960    0.000020771111    0.000014054784    0.067005318210    0.064679624853
0.400     0.102990377334    0.021033851452    0.000022298289    0.000002344509    0.090737277480    0.035425166204    0.000023934682    0.000002779478
            0.000022298289    0.000002344509    0.092745380423    0.033093257733    0.000024331066    0.000003773132    0.079479780760    0.045059053121
            0.090737277480    0.035425166204    0.000024331066    0.000003773132    0.102221146894    0.021271220311    0.000026029193    0.000003469413
            0.000023934682    0.000002779478    0.079479780760    0.045059053121    0.000026029193    0.000003469413    0.092560082185    0.033129446600
0.425     0.098531540758    -0.021245448731    0.000021794218    -0.000008100328    0.092796821783    -0.000378084710    0.000023675041    -0.000008533704
            0.000021794218    -0.000008100328    0.100589660912    -0.007890226323    0.000024037773    -0.000007535653    0.091601054234    0.011851485087
            0.092796821783    -0.000378084710    0.000024037773    -0.000007535653    0.098223930559    -0.020835091779    0.000026027320    -0.000008896362
            0.000023675041    -0.000008533704    0.091601054234    0.011851485087    0.000026027320    -0.000008896362    0.100892714230    -0.007912025619
0.450     0.073132111846    -0.057425050816    0.000016388923    -0.000017637220    0.076556472017    -0.034078165146    0.000018101850    -0.000019011948
            0.000016388923    -0.000017637220    0.088177589622    -0.049278137311    0.000018418644    -0.000017970832    0.086908387078    -0.024613947948
            0.076556472017    -0.034078165146    0.000018418644    -0.000017970832    0.073363557034    -0.057112902490    0.000020217888    -0.000020486282
            0.000018101850    -0.000019011948    0.086908387078    -0.024613947948    0.000020217888    -0.000020486282    0.088951908502    -0.049609153037
0.475     0.031538583055    -0.077619248066    0.000006779104    -0.000023942976    0.044449615889    -0.056596181993    0.000007898701    -0.000026130303
            0.000006779104    -0.000023942976    0.056947068963    -0.081479311593    0.000008179415    -0.000025013623    0.065067972660    -0.056064711654
            0.044449615889    -0.056596181993    0.000008179415    -0.000025013623    0.032237569490    -0.077704513821    0.000009285918    -0.000028544906
            0.000007898701    -0.000026130303    0.065067972660    -0.056064711654    0.000009285918    -0.000028544906    0.058051483144    -0.082354504151
0.500     -0.016785435002    -0.075089164007    -0.000005163502    -0.000025122050    0.003521737109    -0.060760907620    -0.000004972836    -0.000027794704
            -0.000005163502    -0.000025122050    0.012813938340    -0.096309407152    -0.000004709569    -0.000026585845    0.029802278495    -0.074639007164
            0.003521737109    -0.060760907620    -0.000004709569    -0.000026585845    -0.015847850755    -0.075815092435    -0.000004698158    -0.000030759837
            -0.000004972836    -0.000027794704    0.029802278495    -0.074639007164    -0.000004698158    -0.000030759837    0.013993803483    -0.097884886484
0.525     -0.059668371547    -0.048656013131    -0.000016648055    -0.000020395978    -0.035952593553    -0.043820073154    -0.000017536144    -0.000023089164
            -0.000016648055    -0.000020395978    -0.034800226434    -0.089114963592    -0.000017276874    -0.000021781327    -0.011557869446    -0.074918340444
            -0.035952593553    -0.043820073154    -0.000017276874    -0.000021781327    -0.058836620067    -0.050125083410    -0.000018550685    -0.000026059449
            -0.000017536144    -0.000023089164    -0.011557869446    -0.074918340444    -0.000018550685    -0.000026059449    -0.033867442009    -0.091411656525
0.550     -0.085657262087    -0.003719820807    -0.000024718947    -0.000010599151    -0.063400156128    -0.008868642909    -0.000026597684    -0.000012819582
            -0.000024718947    -0.000010599151    -0.075040828650    -0.060303071154    -0.000026334191    -0.000011402202    -0.049638227740    -0.055639658269
            -0.063400156128    -0.008868642909    -0.000026334191    -0.000011402202    -0.085300004021    -0.005841465576    -0.000028807681    -0.000015205310
            -0.000026597684    -0.000012819582    -0.049638227740    -0.055639658269    -0.000028807681    -0.000015205310    -0.074669988711    -0.063177672872
0.575     -0.087648721776    0.049046444090    -0.000027266292    0.000001941079    -0.071347030246    0.035863193990    -0.000029825171    0.000000592497
            -0.000027266292    0.000001941079    -0.098380710543    -0.015580794486    -0.000029540365    0.000002138287    -0.075419942820    -0.020328441431
            -0.071347030246    0.035863193990    -0.000029540365    0.000002138287    -0.088049905377    0.046545303031    -0.000032866011    -0.000000711079
            -0.000029825171    0.000000592497    -0.075419942820    -0.020328441431    -0.000032866011    -0.000000711079    -0.098793615182    -0.018742370049
0.600     -0.065035809255    0.096995631254    -0.000023744061    0.000014186926    -0.057668638724    0.079674179777    -0.000026527030    0.000013922762
            -0.000023744061    0.000014186926    -0.099193029066    0.035377221272    -0.000026182942    0.000015610638    -0.082690547760    0.023505052714
            -0.057668638724    0.079674179777    -0.000026182942    0.000015610638    -0.066309285681    0.094499806178    -0.000029834730    0.000013983115
            -0.000026527030    0.000013922762    -0.082690547760    0.023505052714    -0.000029834730    0.000013983115    -0.100449742801    0.032305254697
0.625     -0.023430354181    0.129250616967    -0.000015183526    0.000023408968    -0.025699912154    0.112639385761    -0.000017693947    0.000024218808
            -0.000015183526    0.000023408968    -0.077173863692    0.081456380764    -0.000017238080    0.000026035426    -0.069599253096    0.066379282665
            -0.025699912154    0.112639385761    -0.000017238080    0.000026035426    -0.025490270913    0.127154773322    -0.000020630148    0.000025638207
            -0.000017693947    0.000024218808    -0.069599253096    0.066379282665    -0.000020630148    0.000025638207    -0.079147368046    0.078846247722
0.650     0.027492866131    0.139295923688    -0.000003624845    0.000027878398    0.017332133094    0.127966084707    -0.000005422974    0.000029544559
            -0.000003624845    0.000027878398    -0.037191892524    0.112891965409    -0.000004813675    0.000031439520    -0.038879310768    0.099242161232
            0.017332133094    0.127966084707    -0.000004813675    0.000031439520    0.024906090758    0.137908481562    -0.000007416365    0.000032031945
            -0.000005422974    0.000029544559    -0.038879310768    0.099242161232    -0.000007416365    0.000032031945    -0.039591957541    0.111020694291
0.675     0.076726909968    0.125821061236    0.000008594709    0.000027008701    0.062423572051    0.122906065161    0.000007819371    0.000029153910
            0.000008594709    0.000027008701    0.012179073851    0.123395040213    0.000008585975    0.000031053532    0.003122706680    0.115423016165
            0.062423572051    0.122906065161    0.000008585975    0.000031053532    0.073984649441    0.125300346228    0.000007155541    0.000032196339
            0.000007819371    0.000029153910    0.003122706680    0.115423016165    0.000007155541    0.000032196339    0.009743022775    0.122380529282
0.700     0.114211284372    0.092270784073    0.000019315703    0.000021139384    0.100566375340    0.098675791924    0.000019698306    0.000023288435
            0.000019315703    0.000021139384    0.060741259122    0.111186916612    0.000020577310    0.000025127111    0.048000116812    0.111757586376
            0.100566375340    0.098675791924    0.000020577310    0.000025127111    0.111721000621    0.092594851330    0.000020493071    0.000026255304
            0.000019698306    0.000023288435    0.048000116812    0.111757586376    0.000020493071    0.000026255304    0.058678451018    0.110960478438
0.725     0.132383593466    0.045817620400    0.000026734651    0.000011264167    0.124029280184    0.059981396751    0.000028208010    0.000012912342
            0.000026734651    0.000011264167    0.098728423458    0.079002007163    0.000029120324    0.000014664749    0.086916831298    0.088901898820
            0.124029280184    0.059981396751    0.000029120324    0.000014664749    0.130511659365    0.046784068281    0.000030310777    0.000015172900
            0.000028208010    0.000012912342    0.086916831298    0.088901898820    0.000030310777    0.000015172900    0.097384649893    0.079317564050
0.750     0.127258888482    -0.003811020931    0.000029448852    -0.000001091664    0.127478530857    0.014474855094    0.000031735013    -0.000000399743
            0.000029448852    -0.000001091664    0.118515404793    0.033389214088    0.000032601441    0.000001296688    0.112092315398    0.051127184156
            0.127478530857    0.014474855094    0.000032601441    0.000001296688    0.126255845559    -0.002559183880    0.000034739362    0.000000637388
            0.000031735013    -0.000000399743    0.112092315398    0.051127184156    0.000034739362    0.000000637388    0.118101787956    0.033863824378
0.775     0.099312324308    -0.045709147487    0.000026579744    -0.000013869346    0.109189421315    -0.028094870870    0.000029208736    -0.000014450294
            0.000026579744    -0.000013869346    0.115911848352    -0.016446822191    0.000029988065    -0.000012736168    0.118113771361    0.005690485074
            0.109189421315    -0.028094870870    0.000029988065    -0.000012736168    0.099245833911    -0.044627855821    0.000032515714    -0.000014943279
            0.000029208736    -0.000014450294    0.118113771361    0.005690485074    0.000032515714    -0.000014943279    0.116452913129    -0.016267495796
