!$
! Info: Touchstone file created by Circ.  Input file=Intel_C2M_200G_3p0in_202208016_staggered.circ
!$
# Hz S RI R 50
0	0.01505203	4.770061e-24	-6.360029e-05	7.788789e-21	0.0003099094	3.51252e-22	-5.924395e-05	7.255291e-21
	-6.360038e-05	7.788801e-21	0.01449582	2.357696e-24	-7.082546e-05	8.673618e-21	8.464117e-05	2.697954e-22
	0.0003099788	3.51496e-22	-7.082556e-05	8.673629e-21	0.01505325	4.842738e-24	-6.362584e-05	7.791918e-21
	-5.924394e-05	7.25529e-21	8.469919e-05	2.69946e-22	-6.362574e-05	7.791906e-21	0.01449375	2.237485e-24
1e+07	0.01801699	0.004288634	-0.0003961007	-0.0001214877	0.0008318593	0.004538303	-4.348562e-05	-9.870648e-05
	-0.0003961007	-0.0001214877	0.0174611	0.004644397	-0.0002449289	2.170953e-05	0.001051361	0.004583528
	0.0008318593	0.004538303	-0.0002449289	2.170953e-05	0.01791078	0.004562381	-0.0003237983	-8.796918e-05
	-4.348562e-05	-9.870648e-05	0.001051361	0.004583528	-0.0003237983	-8.796918e-05	0.0175495	0.004275239
2e+07	0.02108325	0.00605477	-0.0003834246	-0.0002373176	0.001739065	0.008767	-6.665986e-05	-0.000160468
	-0.0003834245	-0.0002373176	0.02110496	0.006647663	-0.0003388132	-6.065904e-05	0.002137984	0.008685839
	0.001739153	0.008766896	-0.0003388132	-6.065902e-05	0.02123603	0.006552224	-0.0003017661	-0.000293271
	-6.665985e-05	-0.000160468	0.002137996	0.008685827	-0.0003017661	-0.000293271	0.02077326	0.006039757
3e+07	0.02348399	0.006445972	-0.0003991847	-0.0003496172	0.003168328	0.01278504	-9.995596e-05	-0.0002294307
	-0.0003991847	-0.0003496172	0.02437816	0.007124985	-0.0004278389	-0.0001338922	0.0037008	0.01267922
	0.003168304	0.01278501	-0.0004278389	-0.0001338922	0.0238534	0.007007679	-0.0003074151	-0.0004149615
	-9.995595e-05	-0.0002294307	0.003700769	0.01267925	-0.0003074151	-0.0004149615	0.02372029	0.006533173
4e+07	0.02561865	0.006365442	-0.0004335164	-0.0004400823	0.00502129	0.01661455	-0.0001429576	-0.0002945823
	-0.0004335164	-0.0004400823	0.02729544	0.006750639	-0.0005207529	-0.0002014036	0.005798284	0.01638392
	0.00502129	0.01661455	-0.0005207529	-0.0002014036	0.02617133	0.006933209	-0.0003341207	-0.0005136498
	-0.0001429576	-0.0002945823	0.005798276	0.01638395	-0.0003341207	-0.0005136498	0.02638192	0.006263891
5e+07	0.02751983	0.005870358	-0.0004828957	-0.0005155693	0.007302223	0.02018954	-0.0001946038	-0.000353081
	-0.0004828957	-0.0005155693	0.02995146	0.005818423	-0.0006197558	-0.0002615832	0.008365634	0.0197735
	0.007302227	0.02018955	-0.0006197558	-0.0002615832	0.02823118	0.006405736	-0.0003773808	-0.0005965517
	-0.0001946038	-0.000353081	0.008365635	0.01977351	-0.0003773808	-0.0005965517	0.02883711	0.00549236
6e+07	0.02916751	0.005079706	-0.0005447428	-0.0005777254	0.009976072	0.02346562	-0.00025415	-0.0004044951
	-0.0005447428	-0.0005777253	0.03237298	0.004426724	-0.0007256091	-0.0003135404	0.01136602	0.02279795
	0.009976071	0.02346562	-0.0007256091	-0.0003135404	0.03001513	0.005553121	-0.0004340205	-0.0006654898
	-0.00025415	-0.0004044951	0.01136604	0.02279794	-0.0004340205	-0.0006654898	0.03110841	0.004301079
7e+07	0.0305777	0.004085543	-0.0006168299	-0.0006267364	0.01300541	0.02640483	-0.0003208196	-0.0004482978
	-0.0006168299	-0.0006267364	0.03454726	0.002650062	-0.0008386917	-0.0003568776	0.01475204	0.02540955
	0.01300541	0.02640483	-0.0008386917	-0.0003568776	0.03153868	0.004472263	-0.0005013726	-0.0007207198
	-0.0003208196	-0.0004482978	0.01475205	0.02540954	-0.0005013726	-0.0007207197	0.03318222	0.002754154
8e+07	0.03176877	0.002948618	-0.0006969838	-0.0006622286	0.01634869	0.02897338	-0.0003932759	-0.0004835503
	-0.0006969838	-0.0006622286	0.03646369	0.0005559388	-0.0009589366	-0.0003913252	0.01847139	0.02756651
	0.01634869	0.02897338	-0.0009589366	-0.0003913252	0.03281838	0.003226813	-0.0006073425	-0.0007440462
	-0.0003932759	-0.0004835503	0.01847139	0.02756651	-0.0006073425	-0.0007440462	0.03504894	0.0009127121
9e+07	0.03275531	0.001720863	-0.0007828345	-0.0006833429	0.01996205	0.03114315	-0.0004706178	-0.0005099773
	-0.0007828345	-0.0006833429	0.03811944	-0.001799603	-0.001087658	-0.000418442	0.02246828	0.02923315
	0.01996205	0.03114315	-0.001087658	-0.000418442	0.03386541	0.001869933	-0.0007332627	-0.0007368331
	-0.0004706178	-0.0005099773	0.02246828	0.02923316	-0.0007332627	-0.0007368331	0.03670945	-0.001169353
1e+08	0.03358221	0.0004889089	-0.0008701384	-0.0006863678	0.02380352	0.03289282	-0.0005521287	-0.0005276031
	-0.0008701384	-0.0006863678	0.03951999	-0.004366046	-0.001233285	-0.0004483831	0.02668491	0.03037993
	0.02380352	0.03289282	-0.001233285	-0.0004483831	0.03470827	0.0004741509	-0.0008510718	-0.0007050083
	-0.0005521287	-0.0005276031	0.02668491	0.03037993	-0.0008510718	-0.0007050083	0.03819543	-0.003417394
1.1e+08	0.03439014	-0.0009302269	-0.0009727445	-0.0006685699	0.02782094	0.03418253	-0.0006374572	-0.0005357433
	-0.0009727445	-0.0006685699	0.04065936	-0.007171587	-0.001345566	-0.00049235	0.03107573	0.03098035
	0.02782094	0.03418253	-0.001345566	-0.00049235	0.03544587	-0.001028424	-0.0009471773	-0.0006773016
	-0.0006374572	-0.0005357433	0.03107573	0.03098035	-0.0009471773	-0.0006773016	0.03963352	-0.006036246
1.2e+08	0.03491121	-0.002456281	-0.00107976	-0.0006435455	0.03194449	0.03501327	-0.0007256733	-0.0005342174
	-0.00107976	-0.0006435455	0.04148604	-0.01010994	-0.001451058	-0.0005060738	0.0355303	0.03101662
	0.03194449	0.03501327	-0.001451058	-0.0005060738	0.03592368	-0.002611685	-0.001049565	-0.0006471705
	-0.0007256733	-0.0005342174	0.0355303	0.03101662	-0.001049565	-0.0006471705	0.04066753	-0.008892671
1.3e+08	0.03519966	-0.003988179	-0.001187598	-0.0006074487	0.03612683	0.03538469	-0.0008157006	-0.0005228585
	-0.001187598	-0.0006074487	0.04202194	-0.01314631	-0.00155647	-0.0005016698	0.03999537	0.03048711
	0.03612683	0.03538469	-0.00155647	-0.0005016698	0.03617481	-0.004193145	-0.001153192	-0.0006079524
	-0.0008157006	-0.0005228585	0.03999537	0.0304871	-0.001153192	-0.0006079524	0.04137203	-0.01187409
1.4e+08	0.03528717	-0.005478463	-0.001294527	-0.0005596534	0.04031756	0.03529953	-0.0009065821	-0.0005015541
	-0.001294527	-0.0005596534	0.04227306	-0.01625429	-0.001662194	-0.0004819342	0.04440959	0.029395
	0.04031756	0.03529953	-0.001662194	-0.0004819342	0.03622596	-0.00572666	-0.001256085	-0.0005584091
	-0.0009065821	-0.0005015541	0.04440959	0.029395	-0.001256085	-0.0005584091	0.04177771	-0.01494203
1.5e+08	0.03520438	-0.00689435	-0.00139912	-0.0005000713	0.04446729	0.03476554	-0.0009974055	-0.0004702008
	-0.00139912	-0.0005000713	0.04224259	-0.0194066	-0.001767918	-0.0004481294	0.04870951	0.02774925
	0.04446729	0.03476554	-0.001767918	-0.0004481294	0.03610678	-0.00717967	-0.001356711	-0.000498194
	-0.0009974055	-0.0004702008	0.04870951	0.02774925	-0.001356711	-0.000498194	0.04189629	-0.01807005
1.6e+08	0.03498178	-0.00821231	-0.00150006	-0.0004289419	0.0485283	0.03379609	-0.001087227	-0.0004288545
	-0.00150006	-0.0004289419	0.04193407	-0.02257551	-0.001873025	-0.0004010031	0.05283196	0.02556552
	0.0485283	0.03379609	-0.001873025	-0.0004010031	0.03584773	-0.008528923	-0.00145376	-0.0004273992
	-0.001087227	-0.0004288545	0.05283196	0.02556552	-0.00145376	-0.0004273992	0.04173319	-0.02123223
1.7e+08	0.03464975	-0.009416011	-0.001596175	-0.0003466359	0.05245492	0.03240914	-0.001175148	-0.0003775955
	-0.001596175	-0.0003466359	0.04135359	-0.0257337	-0.001976786	-0.0003410826	0.05671538	0.02286606
	0.05245492	0.03240914	-0.001976786	-0.0003410826	0.0354798	-0.009758628	-0.001546044	-0.0003463247
	-0.001175148	-0.0003775955	0.05671538	0.02286605	-0.001546044	-0.0003463247	0.04129297	-0.02440187
1.8e+08	0.03423855	-0.01049473	-0.0016864	-0.0002537154	0.05620473	0.03062766	-0.001260272	-0.0003165783
	-0.0016864	-0.0002537154	0.04050938	-0.02885536	-0.002078463	-0.0002686141	0.06030085	0.01967975
	0.05620473	0.03062766	-0.002078463	-0.0002686141	0.03503307	-0.01085879	-0.001632582	-0.0002555198
	-0.001260272	-0.0003165783	0.06030085	0.01967975	-0.001632582	-0.0002555198	0.04058155	-0.02755262
1.9e+08	0.0337772	-0.01144307	-0.001769786	-0.0001507803	0.05973857	0.02847929	-0.001341752	-0.0002460114
	-0.001769786	-0.0001507803	0.03941244	-0.03191647	-0.002177185	-0.0001839528	0.06353322	0.01604217
	0.05973857	0.02847929	-0.002177185	-0.0001839528	0.03453727	-0.01182468	-0.001712436	-0.0001555771
	-0.001341752	-0.0002460114	0.06353322	0.01604217	-0.001712436	-0.0001555771	0.03960757	-0.03065912
2e+08	0.03329461	-0.01226022	-0.001845489	-3.854495e-05	0.06302093	0.02599511	-0.001418705	-0.0001661992
	-0.001845489	-3.854495e-05	0.03807541	-0.03489573	-0.002272113	-8.727847e-05	0.06636172	0.01199472
	0.06302093	0.02599511	-0.002272113	-8.727847e-05	0.03402038	-0.01265579	-0.001784868	-4.717802e-05
	-0.001418705	-0.0001661992	0.06636172	0.01199472	-0.001784868	-4.717802e-05	0.03838196	-0.03369782
2.1e+08	0.03281723	-0.01294969	-0.00191276	8.223709e-05	0.06602137	0.02321014	-0.001490336	-7.748024e-05
	-0.00191276	8.223709e-05	0.03651206	-0.03777384	-0.002362327	2.113081e-05	0.06874041	0.007584253
	0.06602137	0.02321014	-0.002362327	2.113081e-05	0.03350981	-0.01335614	-0.001849229	6.892609e-05
	-0.001490336	-7.748024e-05	0.06874041	0.007584252	-0.001849229	6.892609e-05	0.03691703	-0.03664757
2.2e+08	0.03237084	-0.01351887	-0.001970953	0.0002108044	0.06871358	0.020162	-0.001555849	1.975105e-05
	-0.001970953	0.0002108044	0.03473721	-0.04053457	-0.002446904	0.0001410809	0.07062899	0.002862409
	0.06871358	0.020162	-0.002446904	0.0001410809	0.03303045	-0.01393318	-0.001904973	0.0001919943
	-0.001555849	1.975105e-05	0.07062899	0.002862408	-0.001904973	0.0001919943	0.03522654	-0.03948946
2.3e+08	0.03197865	-0.01397875	-0.002019507	0.0003463042	0.07107638	0.01689046	-0.001614501	0.0001250187
	-0.002019507	0.0003463042	0.0327663	-0.04316356	-0.002524879	0.0002722144	0.0719935	-0.002115206
	0.07107638	0.01689046	-0.002524879	0.0002722144	0.03260566	-0.01439795	-0.001951673	0.0003212358
	-0.001614501	0.0001250187	0.0719935	-0.002115206	-0.001951673	0.0003212358	0.03332579	-0.04220697
2.4e+08	0.0316615	-0.01434361	-0.002057953	0.0004880241	0.07309405	0.01343714	-0.001665577	0.0002377903
	-0.002057953	0.0004880241	0.03061486	-0.04564887	-0.002595279	0.0004141979	0.07280617	-0.007289344
	0.07309405	0.01343714	-0.002595279	0.0004141979	0.03225636	-0.01476471	-0.001988959	0.0004559042
	-0.001665577	0.0002377903	0.07280617	-0.007289344	-0.001988959	0.0004559042	0.0312299	-0.04478628
2.5e+08	0.03143785	-0.0146307	-0.002085907	0.0006351146	0.07475596	0.009844379	-0.001708378	0.0003575404
	-0.002085907	0.0006351146	0.02829833	-0.0479806	-0.002657067	0.0005666341	0.07304601	-0.01259839
	0.07475596	0.009844379	-0.002657067	0.0005666341	0.03200104	-0.01505038	-0.002016591	0.0005952415
	-0.001708378	0.0003575404	0.07304601	-0.01259839	-0.002016591	0.0005952415	0.02895464	-0.04721515
2.6e+08	0.03132258	-0.0148593	-0.002103011	0.0007868008	0.07605677	0.00615459	-0.001742301	0.0004836075
	-0.002103011	0.0007868008	0.02583196	-0.05015053	-0.002709248	0.0007290361	0.0726994	-0.01797889
	0.07605677	0.00615459	-0.002709248	0.0007290361	0.03185483	-0.01527449	-0.002034359	0.0007385503
	-0.001742301	0.0004836075	0.07269939	-0.01797889	-0.002034359	0.0007385503	0.02651553	-0.04948397
2.7e+08	0.03132791	-0.01505109	-0.002108979	0.0009423291	0.07699645	0.002410182	-0.001766718	0.0006154028
	-0.002108979	0.0009423291	0.02323073	-0.05215212	-0.002750834	0.0009007335	0.07175924	-0.0233662
	0.07699645	0.002410182	-0.002750834	0.0009007335	0.0318302	-0.01545833	-0.002042105	0.000885171
	-0.001766718	0.0006154028	0.07175924	-0.0233662	-0.002042105	0.000885171	0.0239279	-0.0515848
2.8e+08	0.03146244	-0.01522923	-0.002103569	0.001100959	0.07758013	-0.001347966	-0.001781087	0.0007521746
	-0.002103569	0.001100959	0.02050865	-0.05398034	-0.002780806	0.001081103	0.07022585	-0.02869559
	0.07758013	-0.001347966	-0.002780806	0.001081103	0.03193606	-0.0156248	-0.002039734	0.00103445
	-0.001781087	0.0007521746	0.07022585	-0.02869559	-0.002039734	0.00103445	0.02120661	-0.05351081
2.9e+08	0.03173081	-0.01541762	-0.002086565	0.001261921	0.07781771	-0.005080242	-0.001784911	0.0008931898
	-0.002086565	0.001261921	0.01767959	-0.05563144	-0.002798208	0.001269372	0.06810674	-0.03390291
	0.07781771	-0.005080242	-0.002798208	0.001269372	0.0321777	-0.01579805	-0.002027135	0.001185852
	-0.001784911	0.0008931898	0.06810674	-0.03390291	-0.002027135	0.001185852	0.01836583	-0.05525737
3e+08	0.03213467	-0.01564099	-0.002057763	0.001424494	0.07772349	-0.008749816	-0.001777747	0.001037681
	-0.002057763	0.001424494	0.01475643	-0.05710244	-0.002802138	0.001464623	0.065416	-0.03892507
	0.07772349	-0.008749816	-0.002802138	0.001464623	0.03255717	-0.01600259	-0.002004216	0.00133882
	-0.001777747	0.001037681	0.065416	-0.03892507	-0.002004216	0.00133882	0.01541936	-0.05682034
3.1e+08	0.03267178	-0.01592397	-0.002017014	0.001587963	0.07731636	-0.01232201	-0.001759146	0.001184874
	-0.002017014	0.001587963	0.01175142	-0.05839149	-0.002791674	0.001665917	0.06217465	-0.04370133
	0.07731636	-0.01232201	-0.002791674	0.001665917	0.03307261	-0.01626337	-0.001970945	0.001492788
	-0.001759146	0.001184874	0.06217465	-0.04370133	-0.001970945	0.001492788	0.01237993	-0.05819714
3.2e+08	0.03333628	-0.01629095	-0.001964132	0.001751612	0.07661883	-0.01576596	-0.001728791	0.001333865
	-0.001964132	0.001751612	0.008676068	-0.05949755	-0.002766089	0.001872089	0.05841012	-0.04817371
	0.07661883	-0.01576596	-0.002766089	0.001872089	0.03371872	-0.01660491	-0.001927201	0.001647277
	-0.001728791	0.001333865	0.05841012	-0.04817371	-0.001927201	0.001647277	0.009259652	-0.05938535
3.3e+08	0.03411896	-0.01676531	-0.001898959	0.001914718	0.07565623	-0.01905422	-0.00168635	0.001483794
	-0.001898959	0.001914718	0.005540983	-0.06041991	-0.002724587	0.002082057	0.05415565	-0.05228725
	0.07565623	-0.01905422	-0.002724587	0.002082057	0.03448704	-0.01705083	-0.001872869	0.001801816
	-0.00168635	0.001483794	0.05415565	-0.05228725	-0.001872869	0.001801816	0.006069923	-0.06038371
3.4e+08	0.03500734	-0.01736917	-0.001821368	0.002076526	0.07445738	-0.02216321	-0.001631588	0.001633776
	-0.001821368	0.002076526	0.00235616	-0.06115825	-0.002666606	0.002294473	0.04945025	-0.05599153
	0.07445738	-0.02216321	-0.002666606	0.002294473	0.03536528	-0.01762355	-0.001807815	0.001955943
	-0.001631588	0.001633776	0.04945025	-0.05599153	-0.001807815	0.001955943	0.002821474	-0.06119098
3.5e+08	0.03598562	-0.01812277	-0.001731237	0.002236223	0.07305285	-0.02507413	-0.001564312	0.001782828
	-0.001731237	0.002236223	-0.0008694516	-0.06171249	-0.002591674	0.002508012	0.04433786	-0.05924025
	0.07305285	-0.02507413	-0.002591674	0.002508012	0.03633849	-0.01834423	-0.001731905	0.002109117
	-0.001564312	0.001782828	0.04433786	-0.05924025	-0.001731905	0.002109117	-0.0004757684	-0.06180658
3.6e+08	0.03703542	-0.01904479	-0.001628477	0.002393023	0.07147487	-0.0277723	-0.00148443	0.001929987
	-0.001628477	0.002393023	-0.004127279	-0.06208285	-0.0024993	0.00272132	0.03886719	-0.06199242
	0.07147487	-0.0277723	-0.0024993	0.00272132	0.0373886	-0.01923138	-0.001644981	0.002260831
	-0.00148443	0.001929987	0.03886719	-0.06199242	-0.001644981	0.002260831	-0.00381253	-0.0622297
3.7e+08	0.03813577	-0.02015076	-0.001512949	0.002546087	0.06975669	-0.03024775	-0.001391817	0.002074306
	-0.001512949	0.002546087	-0.007409109	-0.06226897	-0.002389209	0.00293295	0.03309053	-0.06421272
	0.06975669	-0.03024775	-0.002389209	0.00293295	0.0384949	-0.02030174	-0.001546771	0.002410577
	-0.001391817	0.002074306	0.03309053	-0.06421272	-0.001546771	0.002410577	-0.007179876	-0.0624596
3.8e+08	0.03926365	-0.02145364	-0.001384646	0.002694502	0.06793186	-0.0324953	-0.001286542	0.002214734
	-0.001384646	0.002694502	-0.01070762	-0.06227085	-0.002261318	0.003141362	0.02706353	-0.06587115
	0.06793186	-0.0324953	-0.002261318	0.003141362	0.03963492	-0.02156914	-0.001437105	0.002557709
	-0.001286542	0.002214734	0.02706353	-0.06587115	-0.001437105	0.002557709	-0.01056945	-0.06249573
3.9e+08	0.04039386	-0.02296398	-0.001243561	0.002837332	0.06603395	-0.03451449	-0.001168655	0.002350254
	-0.001243561	0.002837332	-0.01401595	-0.06208766	-0.002115622	0.003345058	0.02084476	-0.06694448
	0.06603395	-0.03451449	-0.002115622	0.003345058	0.04078341	-0.02304414	-0.001315758	0.002701586
	-0.001168655	0.002350254	0.02084476	-0.06694448	-0.001315758	0.002701586	-0.01397316	-0.06233682
4e+08	0.04150005	-0.02468849	-0.001089746	0.002973584	0.06409544	-0.03630939	-0.00103832	0.002479808
	-0.001089746	0.002973584	-0.01732725	-0.06171875	-0.001952163	0.003542528	0.01449422	-0.0674154
	0.06409544	-0.03630939	-0.001952163	0.003542528	0.04191448	-0.02473499	-0.001182446	0.002841488
	-0.00103832	0.002479808	0.01449422	-0.0674154	-0.001182446	0.002841488	-0.01738311	-0.06198197
4.1e+08	0.04255507	-0.02663064	-0.0009237059	0.00310148	0.06214741	-0.03788798	-0.0008957779	0.002602409
	-0.0009237059	0.00310148	-0.02063415	-0.06116256	-0.00175667	0.003741797	0.008073557	-0.067273
	0.06214741	-0.03788798	-0.00175667	0.003741797	0.04300082	-0.02664564	-0.001037813	0.002976121
	-0.0008957779	0.002602409	0.008073557	-0.067273	-0.001037813	0.002976121	-0.02079155	-0.06142943
4.2e+08	0.04353079	-0.02879065	-0.0007455625	0.003220407	0.06021904	-0.03926347	-0.0007413843	0.002716983
	-0.0007455625	0.003220407	-0.02393038	-0.06041715	-0.001535898	0.003933978	0.001644603	-0.06651334
	0.06021904	-0.03926347	-0.001535898	0.003933978	0.04401441	-0.02877737	-0.0008813123	0.003105047
	-0.0007413843	0.002716983	0.001644603	-0.06651334	-0.0008813123	0.003105047	-0.02419058	-0.06067716
4.3e+08	0.04439942	-0.03116498	-0.0005553978	0.003329624	0.05833681	-0.04045166	-0.0005754238	0.002822438
	-0.0005553978	0.003329624	-0.0272086	-0.05948032	-0.001297567	0.004112448	-0.004731061	-0.06513845
	0.05833681	-0.04045166	-0.001297567	0.004112448	0.04492672	-0.03112768	-0.0007123754	0.003227568
	-0.0005754238	0.002822438	-0.004731061	-0.06513845	-0.0007123754	0.003227568	-0.02757203	-0.05972287
4.4e+08	0.0451333	-0.03374674	-0.0003536025	0.003427978	0.05652409	-0.0414725	-0.0003984543	0.002917724
	-0.0003536025	0.003427978	-0.03046131	-0.05834965	-0.001042515	0.004275742	-0.01099246	-0.06315692
	0.05652409	-0.0414725	-0.001042515	0.004275742	0.04571015	-0.03369058	-0.0005310369	0.003342592
	-0.0003984543	0.002917724	-0.01099246	-0.06315692	-0.0005310369	0.003342592	-0.03092734	-0.05856399
4.5e+08	0.04570541	-0.03652571	-0.0001406562	0.003514329	0.05480128	-0.04234869	-0.0002111101	0.003001816
	-0.0001406562	0.003514329	-0.0336804	-0.05702176	-0.00077172	0.004422472	-0.01708039	-0.06058358
	0.05480128	-0.04234869	-0.00077172	0.004422472	0.0463371	-0.03645664	-0.0003372868	0.003449011
	-0.0002111101	0.003001816	-0.01708039	-0.06058358	-0.0003372868	0.003449011	-0.03424745	-0.05719733
4.6e+08	0.04609005	-0.03948856	8.273842e-05	0.003587493	0.05318471	-0.04310567	-1.401795e-05	0.003073709
	8.273842e-05	0.003587493	-0.03685734	-0.05549302	-0.0004865021	0.004551297	-0.02293765	-0.05743903
	0.05318471	-0.04310567	-0.0004865021	0.004551297	0.04678115	-0.03941333	-0.0001310776	0.003545577
	-1.401795e-05	0.003073709	-0.02293765	-0.05743903	-0.0001310776	0.003545577	-0.03752262	-0.05561993
4.7e+08	0.0462631	-0.04261809	0.0003159145	0.003646318	0.05168644	-0.04377025	0.0001919919	0.003132436
	0.0003159145	0.003646318	-0.0399819	-0.05376004	-0.0001881266	0.004660993	-0.02851033	-0.05374945
	0.05168644	-0.04377025	-0.0001881266	0.004660993	0.04701761	-0.04254456	8.722026e-05	0.003631031
	0.0001919919	0.003132436	-0.02851033	-0.05374945	8.722026e-05	0.003631031	-0.04074217	-0.05382816
4.8e+08	0.04620273	-0.04589527	0.0005579849	0.00368969	0.05031462	-0.044371	0.0004061075	0.003177063
	0.0005579849	0.00368969	-0.04304367	-0.05181922	0.0001222282	0.004750472	-0.0337472	-0.04954629
	0.05031462	-0.044371	0.0001222282	0.004750472	0.04702363	-0.0458315	0.0003173301	0.003704012
	0.0004061075	0.003177063	-0.0337472	-0.04954629	0.0003173301	0.003704012	-0.04389435	-0.05181896
4.9e+08	0.04588883	-0.04929762	0.0008078403	0.003716526	0.04907266	-0.04493734	0.0006273844	0.003206731
