!$
! Info: Touchstone file created by Circ.  Input file=Intel_C2M_200G_3p0in_202208016_staggered.circ
!$
# Hz S RI R 50
0	0.01448265	2.090836e-24	4.136201e-05	5.038103e-23	8.505051e-05	2.710964e-22	4.135439e-05	5.028203e-23
	4.136202e-05	5.038103e-23	0.01449582	2.357696e-24	4.136678e-05	5.042617e-23	8.464117e-05	2.697954e-22
	8.510853e-05	2.712459e-22	4.136677e-05	5.042709e-23	0.01447745	2.164546e-24	4.135705e-05	5.032051e-23
	4.135438e-05	5.028295e-23	8.469919e-05	2.69946e-22	4.135705e-05	5.032051e-23	0.01449375	2.237485e-24
1e+07	0.01752033	0.004243931	3.157389e-06	1.834168e-05	0.001045885	0.004523359	5.307488e-06	1.235542e-05
	3.15739e-06	1.834169e-05	0.0174611	0.004644397	2.596391e-06	2.454713e-05	0.001051361	0.004583528
	0.001045885	0.004523359	2.596391e-06	2.454713e-05	0.01743634	0.004690507	3.233773e-06	1.941802e-05
	5.307488e-06	1.235542e-05	0.001051361	0.004583528	3.233773e-06	1.941802e-05	0.0175495	0.004275239
2e+07	0.02072701	0.005985632	7.259946e-06	1.613512e-05	0.002127495	0.008566196	3.506563e-06	7.675624e-06
	7.259945e-06	1.613512e-05	0.02110496	0.006647663	1.468644e-05	2.523812e-05	0.002137984	0.008685839
	0.002127507	0.008566184	1.468644e-05	2.523812e-05	0.02108516	0.00674136	8.440722e-06	1.780814e-05
	3.506564e-06	7.675624e-06	0.002137996	0.008685827	8.440723e-06	1.780814e-05	0.02077326	0.006039757
3e+07	0.02366441	0.006457545	1.315119e-05	1.457646e-05	0.003681483	0.0125013	2.339919e-06	6.764178e-06
	1.315119e-05	1.457645e-05	0.02437816	0.007124985	2.513369e-05	2.350831e-05	0.0037008	0.01267922
	0.003681452	0.01250133	2.513369e-05	2.350831e-05	0.0243579	0.007273061	1.517535e-05	1.624281e-05
	2.33992e-06	6.764178e-06	0.003700769	0.01267925	1.517535e-05	1.624281e-05	0.02372029	0.006533173
4e+07	0.02631097	0.006172291	1.786831e-05	1.217993e-05	0.005766975	0.01614996	2.650446e-06	5.955757e-06
	1.786831e-05	1.217992e-05	0.02729544	0.006750639	3.349502e-05	1.973093e-05	0.005798284	0.01638392
	0.005766967	0.01614998	3.349502e-05	1.973093e-05	0.02728422	0.006952801	2.056569e-05	1.361023e-05
	2.650447e-06	5.955757e-06	0.005798276	0.01638395	2.056569e-05	1.361023e-05	0.02638192	0.006263891
5e+07	0.02875059	0.00538901	2.157864e-05	9.037974e-06	0.008319599	0.01948628	3.909011e-06	4.810427e-06
	2.157864e-05	9.037973e-06	0.02995146	0.005818423	4.008062e-05	1.443657e-05	0.008365634	0.0197735
	0.0083196	0.01948629	4.008062e-05	1.443657e-05	0.02995409	0.006074166	2.48097e-05	1.008584e-05
	3.909011e-06	4.810427e-06	0.008365635	0.01977351	2.48097e-05	1.008584e-05	0.02883711	0.00549236
6e+07	0.03100621	0.004189212	2.434964e-05	5.313844e-06	0.01130304	0.02246083	4.853167e-06	3.55757e-06
	2.434964e-05	5.313843e-06	0.03237298	0.004426724	4.500812e-05	8.000491e-06	0.01136602	0.02279795
	0.01130306	0.02246082	4.500812e-05	8.000491e-06	0.03239411	0.004735698	2.798434e-05	5.874322e-06
	4.853167e-06	3.55757e-06	0.01136604	0.02279794	2.798434e-05	5.874322e-06	0.03110841	0.004301079
7e+07	0.0330641	0.00263706	2.620025e-05	1.143096e-06	0.01467051	0.02502636	5.484447e-06	2.211126e-06
	2.620024e-05	1.143096e-06	0.03454726	0.002650062	4.832404e-05	7.069098e-07	0.01475204	0.02540955
	0.01467051	0.02502635	4.832404e-05	7.069094e-07	0.03459188	0.00301119	3.011229e-05	1.138815e-06
	5.484448e-06	2.211125e-06	0.01475205	0.02540954	3.011229e-05	1.138814e-06	0.03318222	0.002754154
8e+07	0.03491461	0.0007935045	2.711263e-05	-3.375034e-06	0.01837038	0.02714147	5.792192e-06	7.976156e-07
	2.711264e-05	-3.375037e-06	0.03646369	0.0005559388	5.000186e-05	-7.256646e-06	0.01847139	0.02756651
	0.01837038	0.02714147	5.000186e-05	-7.256646e-06	0.03653691	0.0009677366	3.11734e-05	-4.004618e-06
	5.792192e-06	7.976154e-07	0.01847139	0.02756651	3.11734e-05	-4.004618e-06	0.03504894	0.0009127121
9e+07	0.03655922	-0.00128718	2.701067e-05	-8.204003e-06	0.02234759	0.0287707	5.754431e-06	-6.628582e-07
	2.701067e-05	-8.204003e-06	0.03811944	-0.001799603	4.990712e-05	-1.583185e-05	0.02246828	0.02923315
	0.02234759	0.02877071	4.990712e-05	-1.583185e-05	0.03822578	-0.001339512	3.108089e-05	-9.514382e-06
	5.754431e-06	-6.628583e-07	0.02246828	0.02923316	3.108089e-05	-9.514382e-06	0.03670945	-0.001169353
1e+08	0.03802996	-0.003529973	2.540313e-05	-1.373418e-05	0.02654504	0.02988455	5.220611e-06	-2.247163e-06
	2.540313e-05	-1.373418e-05	0.03951999	-0.004366046	4.716676e-05	-2.57565e-05	0.02668491	0.03037993
	0.02654504	0.02988455	4.716676e-05	-2.57565e-05	0.03966326	-0.00386079	2.927299e-05	-1.584152e-05
	5.220611e-06	-2.247163e-06	0.02668491	0.03037993	2.927299e-05	-1.584152e-05	0.03819543	-0.003417394
1.1e+08	0.03939495	-0.00613486	2.123391e-05	-1.686787e-05	0.03091802	0.03045688	4.039725e-06	-3.03399e-06
	2.123391e-05	-1.686787e-05	0.04065936	-0.007171587	3.972174e-05	-3.14935e-05	0.03107573	0.03098035
	0.03091802	0.03045688	3.972174e-05	-3.14935e-05	0.04090625	-0.006629982	2.451737e-05	-1.94502e-05
	4.039725e-06	-3.03399e-06	0.03107573	0.03098035	2.451737e-05	-1.94502e-05	0.03963352	-0.006036246
1.2e+08	0.04041374	-0.008951412	1.778364e-05	-1.860473e-05	0.03535735	0.03046952	3.101806e-06	-3.442475e-06
	1.778364e-05	-1.860473e-05	0.04148604	-0.01010994	3.351986e-05	-3.470319e-05	0.0355303	0.03101662
	0.03535735	0.03046952	3.351986e-05	-3.470319e-05	0.04178547	-0.009560248	2.058009e-05	-2.145722e-05
	3.101806e-06	-3.442475e-06	0.0355303	0.03101662	2.058009e-05	-2.145722e-05	0.04066753	-0.008892671
1.3e+08	0.04113044	-0.0119039	1.575971e-05	-1.884743e-05	0.03981045	0.02992046	2.30675e-06	-3.77174e-06
	1.575971e-05	-1.884743e-05	0.04202194	-0.01314631	3.160939e-05	-3.331292e-05	0.03999537	0.03048711
	0.03981045	0.02992045	3.160939e-05	-3.331292e-05	0.04235268	-0.01258048	1.846652e-05	-2.153861e-05
	2.30675e-06	-3.77174e-06	0.03999537	0.0304871	1.846652e-05	-2.153861e-05	0.04137203	-0.01187409
1.4e+08	0.04155431	-0.01495603	1.466985e-05	-1.819674e-05	0.04421666	0.02881245	1.596082e-06	-4.031251e-06
	1.466985e-05	-1.819674e-05	0.04227306	-0.01625429	2.965676e-05	-3.224039e-05	0.04440959	0.029395
	0.04421666	0.02881245	2.965676e-05	-3.224039e-05	0.04263492	-0.01566268	1.721978e-05	-2.081056e-05
	1.596082e-06	-4.031251e-06	0.04440959	0.029395	1.721978e-05	-2.081056e-05	0.04177771	-0.01494203
1.5e+08	0.04168931	-0.01807536	1.354339e-05	-1.762511e-05	0.04851321	0.02715395	9.254155e-07	-4.173243e-06
	1.354339e-05	-1.762511e-05	0.04224259	-0.0194066	2.763411e-05	-3.13174e-05	0.04870951	0.02774925
	0.04851321	0.02715395	2.763411e-05	-3.13174e-05	0.04264279	-0.01878623	1.593124e-05	-2.017601e-05
	9.254155e-07	-4.173243e-06	0.04870951	0.02774925	1.593124e-05	-2.017601e-05	0.04189629	-0.01807005
1.6e+08	0.04153891	-0.02123077	1.240342e-05	-1.708724e-05	0.05263748	0.02495999	2.953025e-07	-4.217019e-06
	1.240342e-05	-1.708724e-05	0.04193407	-0.02257551	2.558153e-05	-3.046124e-05	0.05283196	0.02556552
	0.05263748	0.02495999	2.558153e-05	-3.046124e-05	0.04238128	-0.02192914	1.462647e-05	-1.958145e-05
	2.953025e-07	-4.217019e-06	0.05283196	0.02556552	1.462647e-05	-1.958145e-05	0.04173319	-0.02123223
1.7e+08	0.04110893	-0.02439243	1.126592e-05	-1.655647e-05	0.05652845	0.02225212	-2.927035e-07	-4.177186e-06
	1.126592e-05	-1.655647e-05	0.04135359	-0.0257337	2.352707e-05	-2.963124e-05	0.05671538	0.02286606
	0.05652845	0.02225212	2.352707e-05	-2.963124e-05	0.04185478	-0.02506778	1.332318e-05	-1.899559e-05
	-2.927034e-07	-4.177186e-06	0.05671538	0.02286605	1.332318e-05	-1.899559e-05	0.04129297	-0.02440187
1.8e+08	0.04040712	-0.02753243	1.014328e-05	-1.60293e-05	0.06012762	0.01905846	-5.780167e-07	-3.940393e-06
	1.014328e-05	-1.60293e-05	0.04050938	-0.02885536	2.148906e-05	-2.879462e-05	0.06030085	0.01967975
	0.06012762	0.01905846	2.148906e-05	-2.879462e-05	0.0410691	-0.02817837	1.203521e-05	-1.841316e-05
	-5.780167e-07	-3.940393e-06	0.06030085	0.01967975	1.203521e-05	-1.841316e-05	0.04058155	-0.02755262
1.9e+08	0.03944406	-0.03062496	9.043367e-06	-1.547891e-05	0.06338016	0.01541375	-8.180119e-07	-3.678658e-06
	9.043367e-06	-1.547891e-05	0.03941244	-0.03191647	1.94853e-05	-2.791561e-05	0.06353322	0.01604217
	0.06338016	0.01541375	1.94853e-05	-2.791561e-05	0.04003273	-0.03123773	1.077219e-05	-1.780417e-05
	-8.180119e-07	-3.678658e-06	0.06353322	0.01604217	1.077219e-05	-1.780417e-05	0.03960757	-0.03065912
2e+08	0.03823201	-0.03364708	7.975024e-06	-1.489574e-05	0.06623552	0.01135846	-1.045179e-06	-3.409964e-06
	7.975024e-06	-1.489574e-05	0.03807541	-0.03489573	1.753141e-05	-2.697978e-05	0.06636172	0.01199472
	0.06623552	0.01135846	1.753141e-05	-2.697978e-05	0.03875639	-0.0342242	9.544153e-06	-1.715782e-05
	-1.045179e-06	-3.409964e-06	0.06636172	0.01199472	9.544153e-06	-1.715782e-05	0.03838196	-0.03369782
2.1e+08	0.03678438	-0.03657798	6.946228e-06	-1.427545e-05	0.06864787	0.006938541	-1.257007e-06	-3.133456e-06
	6.946228e-06	-1.427545e-05	0.03651206	-0.03777384	1.564126e-05	-2.597853e-05	0.06874041	0.007584253
	0.06864787	0.006938541	1.564126e-05	-2.597853e-05	0.03725208	-0.03711838	8.360238e-06	-1.646908e-05
	-1.257007e-06	-3.133456e-06	0.06874041	0.007584252	8.360238e-06	-1.646908e-05	0.03691703	-0.03664757
2.2e+08	0.03511578	-0.03940003	5.964112e-06	-1.361608e-05	0.07057683	0.002204673	-1.451347e-06	-2.848984e-06
	5.964112e-06	-1.361608e-05	0.03473721	-0.04053457	1.38272e-05	-2.490744e-05	0.07062899	0.002862409
	0.07057683	0.002204673	1.38272e-05	-2.490744e-05	0.03553321	-0.03990295	7.228497e-06	-1.573561e-05
	-1.451347e-06	-2.848984e-06	0.07062899	0.002862408	7.228497e-06	-1.573561e-05	0.03522654	-0.03948946
2.3e+08	0.03324149	-0.04209751	5.034992e-06	-1.291752e-05	0.07198832	-0.002788513	-1.626386e-06	-2.556937e-06
	5.034992e-06	-1.291752e-05	0.0327663	-0.04316356	1.210029e-05	-2.376549e-05	0.0719935	-0.002115206
	0.07198832	-0.002788513	1.210029e-05	-2.376549e-05	0.03361462	-0.04256275	6.156117e-06	-1.495721e-05
	-1.626386e-06	-2.556937e-06	0.0719935	-0.002115206	6.156117e-06	-1.495721e-05	0.03332579	-0.04220697
2.4e+08	0.03117701	-0.04465725	4.164489e-06	-1.21812e-05	0.07285432	-0.007982733	-1.780556e-06	-2.258133e-06
	4.164489e-06	-1.21812e-05	0.03061486	-0.04564887	1.047044e-05	-2.255436e-05	0.07280617	-0.007289344
	0.07285432	-0.007982733	1.047044e-05	-2.255436e-05	0.03151093	-0.04508531	5.149481e-06	-1.413542e-05
	-1.780556e-06	-2.258133e-06	0.07280617	-0.007289344	5.149481e-06	-1.413542e-05	0.0312299	-0.04478628
2.5e+08	0.02893787	-0.0470681	3.357507e-06	-1.140974e-05	0.07315338	-0.01331727	-1.912568e-06	-1.953716e-06
	3.357507e-06	-1.140974e-05	0.02829833	-0.0479806	8.946365e-06	-2.127777e-05	0.07304601	-0.01259839
	0.07315338	-0.01331727	8.946365e-06	-2.127777e-05	0.02923729	-0.04745953	4.214181e-06	-1.327307e-05
	-1.912568e-06	-1.953716e-06	0.07304601	-0.01259839	4.214181e-06	-1.327307e-05	0.02895464	-0.04721515
2.6e+08	0.02653941	-0.04932079	2.618236e-06	-1.060666e-05	0.07287139	-0.01872957	-2.021408e-06	-1.645093e-06
	2.618236e-06	-1.060666e-05	0.02583196	-0.05015053	7.535705e-06	-1.994122e-05	0.0726994	-0.01797889
	0.07287139	-0.01872957	7.535705e-06	-1.994122e-05	0.02680856	-0.0496769	3.355026e-06	-1.237414e-05
	-2.021408e-06	-1.645093e-06	0.07269939	-0.01797889	3.355026e-06	-1.237414e-05	0.02651553	-0.04948397
2.7e+08	0.0239969	-0.05140774	1.950204e-06	-9.77628e-06	0.07200059	-0.02415581	-2.106298e-06	-1.333866e-06
	1.950204e-06	-9.77628e-06	0.02323073	-0.05215212	6.244873e-06	-1.85515e-05	0.07175924	-0.0233662
	0.07200059	-0.02415581	6.244873e-06	-1.85515e-05	0.02423937	-0.05173038	2.575973e-06	-1.144339e-05
	-2.106298e-06	-1.333866e-06	0.07175924	-0.0233662	2.575973e-06	-1.144339e-05	0.0239279	-0.0515848
2.8e+08	0.02132463	-0.05332298	1.356244e-06	-8.923533e-06	0.07054057	-0.02953208	-2.166714e-06	-1.021797e-06
	1.356244e-06	-8.923533e-06	0.02050865	-0.05398034	5.079178e-06	-1.711662e-05	0.07022585	-0.02869559
	0.07054057	-0.02953208	5.079178e-06	-1.711662e-05	0.0215438	-0.05361405	1.880268e-06	-1.048636e-05
	-2.166714e-06	-1.021797e-06	0.07022585	-0.02869559	1.880268e-06	-1.048636e-05	0.02120661	-0.05351081
2.9e+08	0.01853688	-0.05506188	8.384448e-07	-8.053842e-06	0.06849798	-0.03479482	-2.202381e-06	-7.107525e-07
	8.384448e-07	-8.053842e-06	0.01767959	-0.05563144	4.042787e-06	-1.564547e-05	0.06810674	-0.03390291
	0.06849798	-0.03479482	4.042787e-06	-1.564547e-05	0.0187352	-0.05532397	1.270355e-06	-9.509086e-06
	-2.202381e-06	-7.107525e-07	0.06810674	-0.03390291	1.270355e-06	-9.509086e-06	0.01836583	-0.05525737
3e+08	0.01564695	-0.05662072	3.982447e-07	-7.172938e-06	0.06588592	-0.03988162	-2.213256e-06	-4.026631e-07
	3.982447e-07	-7.172938e-06	0.01475643	-0.05710244	3.138716e-06	-1.414747e-05	0.065416	-0.03892507
	0.06588592	-0.03988162	3.138716e-06	-1.414747e-05	0.01582652	-0.05685667	7.478989e-07	-8.517977e-06
	-2.213256e-06	-4.026631e-07	0.065416	-0.03892507	7.478989e-07	-8.517977e-06	0.01541936	-0.05682034
3.1e+08	0.01266761	-0.05799697	3.632348e-08	-6.28681e-06	0.06272442	-0.04473218	-2.199545e-06	-9.949682e-08
	3.632348e-08	-6.28681e-06	0.01175142	-0.05839149	2.368764e-06	-1.263267e-05	0.06217465	-0.04370133
	0.06272442	-0.04473218	2.368764e-06	-1.263267e-05	0.01282963	-0.05821012	3.137894e-07	-7.519758e-06
	-2.199545e-06	-9.949682e-08	0.06217465	-0.04370133	3.137894e-07	-7.519758e-06	0.01237993	-0.05819714
3.2e+08	0.009610908	-0.05918902	-2.472629e-07	-5.40161e-06	0.0590398	-0.04928885	-2.161684e-06	1.967822e-07
	-2.472629e-07	-5.40161e-06	0.008676068	-0.05949755	1.733613e-06	-1.111135e-05	0.05841012	-0.04817371
	0.0590398	-0.04928885	1.733613e-06	-1.111135e-05	0.00975569	-0.05938232	-3.194674e-08	-6.521272e-06
	-2.161684e-06	1.967822e-07	0.05841012	-0.04817371	-3.194674e-08	-6.521272e-06	0.009259652	-0.05938535
3.3e+08	0.006488	-0.06019569	-4.531556e-07	-4.523464e-06	0.05486413	-0.05349695	-2.100309e-06	4.842319e-07
	-4.531556e-07	-4.523464e-06	0.005540983	-0.06041991	1.232861e-06	-9.593926e-06	0.05415565	-0.05228725
	0.05486413	-0.05349695	1.232861e-06	-9.593926e-06	0.006615218	-0.0603724	-2.898759e-07	-5.529445e-06
	-2.100309e-06	4.842319e-07	0.05415565	-0.05228725	-2.898759e-07	-5.529445e-06	0.006069923	-0.06038371
3.4e+08	0.003309452	-0.06101624	-5.826679e-07	-3.658556e-06	0.05023523	-0.05730616	-2.016294e-06	7.609755e-07
	-5.826679e-07	-3.658556e-06	0.00235616	-0.06115825	8.649445e-07	-8.090878e-06	0.04945025	-0.05599153
	0.05023523	-0.05730616	8.649445e-07	-8.090878e-06	0.00341798	-0.06117936	-4.614157e-07	-4.551134e-06
	-2.016294e-06	7.609755e-07	0.04945025	-0.05599153	-4.614157e-07	-4.551134e-06	0.002821474	-0.06119098
3.5e+08	8.477717e-05	-0.06165037	-6.377419e-07	-2.812837e-06	0.0451958	-0.06067014	-1.910688e-06	1.025213e-06
	-6.377419e-07	-2.812837e-06	-0.0008694516	-0.06171249	6.272734e-07	-6.612511e-06	0.04433786	-0.05924025
	0.0451958	-0.06067014	6.272734e-07	-6.612511e-06	0.0001729807	-0.06180281	-5.485779e-07	-3.593129e-06
	-1.910688e-06	1.025213e-06	0.04433786	-0.05924025	-5.485779e-07	-3.593129e-06	-0.0004757684	-0.06180658
3.6e+08	-0.003176858	-0.06209803	-6.209001e-07	-1.992164e-06	0.03979329	-0.06354768	-1.784749e-06	1.275253e-06
	-6.209002e-07	-1.992164e-06	-0.004127279	-0.06208285	5.162307e-07	-5.168903e-06	0.03886719	-0.06199242
	0.03979329	-0.06354768	5.162306e-07	-5.168903e-06	-0.003111444	-0.06224201	-5.541458e-07	-2.66194e-06
	-1.784749e-06	1.275253e-06	0.03886719	-0.06199242	-5.541458e-07	-2.66194e-06	-0.00381253	-0.0622297
3.7e+08	-0.006466709	-0.0623588	-5.352291e-07	-1.202062e-06	0.03407878	-0.06590317	-1.639883e-06	1.509541e-06
	-5.352291e-07	-1.202062e-06	-0.007409109	-0.06226897	5.27215e-07	-3.769716e-06	0.03309053	-0.06421272
	0.03407878	-0.06590317	5.27215e-07	-3.769716e-06	-0.006427271	-0.06249621	-4.814939e-07	-1.763792e-06
	-1.639883e-06	1.509541e-06	0.03309053	-0.06421272	-4.814939e-07	-1.763792e-06	-0.007179876	-0.0624596
3.8e+08	-0.009776935	-0.06243265	-3.84337e-07	-4.477435e-07	0.02810672	-0.06770611	-1.477639e-06	1.726655e-06
	-3.84337e-07	-4.477435e-07	-0.01070762	-0.06227085	6.547775e-07	-2.424181e-06	0.02706353	-0.06587115
	0.02810672	-0.06770611	6.547775e-07	-2.424181e-06	-0.009767071	-0.06256483	-3.344921e-07	-9.046163e-07
	-1.477639e-06	1.726655e-06	0.02706353	-0.06587115	-3.344921e-07	-9.046163e-07	-0.01056945	-0.06249573
3.9e+08	-0.01310021	-0.06231875	-1.723232e-07	2.659081e-07	0.02193448	-0.06893265	-1.299729e-06	1.92534e-06
	-1.723232e-07	2.659081e-07	-0.01401595	-0.06208766	8.925562e-07	-1.141005e-06	0.02084476	-0.06694448
	0.02193448	-0.06893265	8.925562e-07	-1.141005e-06	-0.01312365	-0.06244638	-1.176979e-07	-8.991944e-08
	-1.299729e-06	1.92534e-06	0.02084476	-0.06694448	-1.176979e-07	-8.991944e-08	-0.01397316	-0.06233682
4e+08	-0.01642924	-0.06201662	9.627852e-08	9.344627e-07	0.01562095	-0.06956472	-1.107946e-06	2.104517e-06
	9.627852e-08	9.344627e-07	-0.01732725	-0.06171875	1.233458e-06	7.177385e-08	0.01449422	-0.0674154
	0.01562095	-0.06956472	1.233458e-06	7.177385e-08	-0.01648997	-0.06213975	1.639955e-07	6.752481e-07
	-1.107946e-06	2.104517e-06	0.01449422	-0.0674154	1.639955e-07	6.752481e-07	-0.01738311	-0.06198197
4.1e+08	-0.01975641	-0.06152501	4.169251e-07	1.553848e-06	0.009226741	-0.06959051	-9.041573e-07	2.263185e-06
	4.169251e-07	1.553848e-06	-0.02063415	-0.06116256	1.669295e-06	1.207643e-06	0.008073557	-0.067273
	0.009226741	-0.06959051	1.669295e-06	1.207643e-06	-0.0198591	-0.06164273	5.048334e-07	1.387058e-06
	-9.041573e-07	2.263185e-06	0.008073557	-0.067273	5.048334e-07	1.387058e-06	-0.02079155	-0.06142943
4.2e+08	-0.02307513	-0.06084207	7.841474e-07	2.120537e-06	0.002812757	-0.06900503	-6.903558e-07	2.400669e-06
	7.841474e-07	2.120537e-06	-0.02393038	-0.06041715	2.191751e-06	2.260081e-06	0.001644603	-0.06651334
	0.002812757	-0.06900503	2.191751e-06	2.260081e-06	-0.02322391	-0.06095295	8.991418e-07	2.041467e-06
	-6.903558e-07	2.400669e-06	0.001644603	-0.06651334	8.991418e-07	2.041467e-06	-0.02419058	-0.06067716
4.3e+08	-0.02637777	-0.05996576	1.192334e-06	2.631698e-06	-0.003560235	-0.06780918	-4.685374e-07	2.516548e-06
	1.192334e-06	2.631698e-06	-0.0272086	-0.05948032	2.792528e-06	3.222859e-06	-0.004731061	-0.06513845
	-0.003560235	-0.06780918	2.792528e-06	3.222859e-06	-0.02657708	-0.06006785	1.341333e-06	2.63461e-06
	-4.685374e-07	2.516548e-06	-0.004731061	-0.06513845	1.341333e-06	2.63461e-06	-0.02757203	-0.05972287
4.4e+08	-0.02965666	-0.05889394	1.635824e-06	3.084975e-06	-0.00983196	-0.06601026	-2.40722e-07	2.610522e-06
	1.635824e-06	3.084975e-06	-0.03046131	-0.05834965	3.46241e-06	4.091147e-06	-0.01099246	-0.06315692
	-0.00983196	-0.06601026	3.46241e-06	4.091147e-06	-0.02991078	-0.05898426	1.825184e-06	3.163629e-06
	-2.40722e-07	2.610522e-06	-0.01099246	-0.06315692	1.825184e-06	3.163629e-06	-0.03092734	-0.05856399
4.5e+08	-0.0329036	-0.05762348	2.108804e-06	3.478526e-06	-0.01594379	-0.06362179	-8.918542e-09	2.682494e-06
	2.108804e-06	3.478526e-06	-0.0336804	-0.05702176	4.191843e-06	4.86095e-06	-0.01708039	-0.06058358
	-0.01594379	-0.06362179	4.191843e-06	4.86095e-06	-0.03321669	-0.05769851	2.344294e-06	3.626285e-06
	-8.918542e-09	2.682494e-06	-0.01708039	-0.06058358	2.344294e-06	3.626285e-06	-0.03424745	-0.05719733
4.6e+08	-0.03611006	-0.05615108	2.605402e-06	3.81109e-06	-0.02183895	-0.06066297	2.248957e-07	2.73255e-06
	2.605402e-06	3.81109e-06	-0.03685734	-0.05549302	4.971083e-06	5.529238e-06	-0.02293765	-0.05743903
	-0.02183895	-0.06066297	4.971083e-06	5.529238e-06	-0.03648572	-0.05620696	2.892189e-06	4.020946e-06
	2.248957e-07	2.73255e-06	-0.02293765	-0.05743903	2.892189e-06	4.020946e-06	-0.03752262	-0.05561993
4.7e+08	-0.03926587	-0.05447362	3.11975e-06	4.082045e-06	-0.02746376	-0.05715849	4.587987e-07	2.760988e-06
	3.11975e-06	4.082045e-06	-0.0399819	-0.05376004	5.790274e-06	6.093969e-06	-0.02851033	-0.05374945
	-0.02746376	-0.05715849	5.790274e-06	6.093969e-06	-0.03970787	-0.0545053	3.462339e-06	4.346635e-06
	4.587987e-07	2.760988e-06	-0.02851033	-0.05374945	3.462339e-06	4.346635e-06	-0.04074217	-0.05382816
4.8e+08	-0.04236074	-0.0525877	3.646041e-06	4.291174e-06	-0.03276709	-0.05313828	6.909343e-07	2.768247e-06
	3.646041e-06	4.291174e-06	-0.04304367	-0.05181922	6.639516e-06	6.553893e-06	-0.0337472	-0.04954629
