!$
! Info: Touchstone file created by Circ.  Input file=Intel_C2M_200G_3p0in_202208016_staggered.circ
!$
# Hz S RI R 50
0	0.01448259	2.169483e-24	4.164431e-05	5.049107e-23	8.502804e-05	2.710175e-22	4.157741e-05	5.038837e-23
	4.164431e-05	5.049107e-23	0.01449582	2.357696e-24	4.162661e-05	5.046819e-23	8.464117e-05	2.697954e-22
	8.508606e-05	2.71167e-22	4.162661e-05	5.046911e-23	0.01447739	2.090675e-24	4.159026e-05	5.036752e-23
	4.15774e-05	5.038929e-23	8.469919e-05	2.69946e-22	4.159026e-05	5.036752e-23	0.01449375	2.237485e-24
1e+07	0.01794296	0.004458031	4.381187e-05	2.696583e-06	0.0008638377	0.00446113	1.417681e-06	6.605481e-06
	4.381187e-05	2.696583e-06	0.0174611	0.004644397	4.332682e-05	1.878687e-05	0.001051361	0.004583528
	0.0008638377	0.00446113	4.332682e-05	1.878687e-05	0.01805624	0.004285514	1.69071e-05	5.998065e-06
	1.417681e-06	6.605481e-06	0.001051361	0.004583528	1.69071e-05	5.998065e-06	0.0175495	0.004275239
2e+07	0.02127085	0.006178037	3.063675e-05	2.415935e-05	0.001919635	0.008534529	1.8941e-05	2.410284e-05
	3.063675e-05	2.415935e-05	0.02110496	0.006647663	4.037731e-05	1.54115e-06	0.002137984	0.008685839
	0.001919647	0.008534517	4.037731e-05	1.541148e-06	0.02114845	0.005876713	9.712989e-06	1.259944e-05
	1.894101e-05	2.410284e-05	0.002137996	0.008685827	9.712988e-06	1.259944e-05	0.02077326	0.006039757
3e+07	0.02429894	0.006611746	2.174874e-05	3.427294e-05	0.003455219	0.01249238	3.244617e-05	2.696162e-05
	2.174874e-05	3.427294e-05	0.02437816	0.007124985	3.86131e-05	-1.255159e-06	0.0037008	0.01267922
	0.003455188	0.01249241	3.861309e-05	-1.255158e-06	0.02399156	0.006336944	5.282891e-06	1.895739e-05
	3.244617e-05	2.696162e-05	0.003700769	0.01267925	5.28289e-06	1.895739e-05	0.02372029	0.006533173
4e+07	0.02701538	0.006270717	1.50366e-05	4.054303e-05	0.005528135	0.01616625	4.345985e-05	2.540906e-05
	1.50366e-05	4.054303e-05	0.02729544	0.006750639	3.805992e-05	8.793056e-07	0.005798284	0.01638392
	0.005528127	0.01616627	3.805992e-05	8.793056e-07	0.02656641	0.006073591	1.066092e-05	2.059728e-05
	4.345985e-05	2.540906e-05	0.005798276	0.01638395	1.066092e-05	2.059728e-05	0.02638192	0.006263891
5e+07	0.02950726	0.00541867	1.995191e-05	4.149988e-05	0.008073619	0.01953006	5.235519e-05	2.116359e-05
	1.995191e-05	4.149988e-05	0.02995146	0.005818423	3.760226e-05	2.147255e-06	0.008365634	0.0197735
	0.008073621	0.01953006	3.760226e-05	2.147255e-06	0.02894906	0.005330685	1.678849e-05	1.995752e-05
	5.235519e-05	2.116359e-05	0.008365635	0.01977351	1.678849e-05	1.995752e-05	0.02883711	0.00549236
6e+07	0.03179872	0.004140372	2.992344e-05	3.819685e-05	0.01105526	0.02253363	5.92769e-05	1.506704e-05
	2.992344e-05	3.819685e-05	0.03237298	0.004426724	3.7172e-05	2.958754e-06	0.01136602	0.02279795
	0.01105528	0.02253362	3.7172e-05	2.958754e-06	0.03116117	0.004183888	2.18804e-05	1.803775e-05
	5.92769e-05	1.506704e-05	0.01136604	0.02279794	2.18804e-05	1.803775e-05	0.03110841	0.004301079
7e+07	0.03387639	0.002502255	3.807276e-05	3.313751e-05	0.01442626	0.02512899	6.430479e-05	7.672843e-06
	3.807276e-05	3.313751e-05	0.03454726	0.002650062	3.676691e-05	3.564697e-06	0.01475204	0.02540955
	0.01442627	0.02512898	3.676691e-05	3.564697e-06	0.03318894	0.002693405	2.59571e-05	1.517507e-05
	6.430479e-05	7.672843e-06	0.01475205	0.02540954	2.59571e-05	1.517508e-05	0.03318222	0.002754154
8e+07	0.0357303	0.0005667024	4.436068e-05	2.667896e-05	0.01813516	0.02727408	6.739999e-05	-7.067865e-07
	4.436068e-05	2.667896e-05	0.03646369	0.0005559388	3.636692e-05	4.073829e-06	0.01847139	0.02756651
	0.01813516	0.02727408	3.636692e-05	4.073829e-06	0.03502307	0.0009179421	2.898797e-05	1.157614e-05
	6.739999e-05	-7.067865e-07	0.01847139	0.02756651	2.898797e-05	1.157614e-05	0.03504894	0.0009127121
9e+07	0.03736042	-0.001612066	4.861626e-05	1.89529e-05	0.02212729	0.02893299	6.840704e-05	-9.963468e-06
	4.861626e-05	1.89529e-05	0.03811944	-0.001799603	3.595792e-05	4.568098e-06	0.02246828	0.02923315
	0.02212729	0.028933	3.595792e-05	4.568098e-06	0.03666534	-0.001089849	3.08789e-05	7.328804e-06
	6.840704e-05	-9.963468e-06	0.02246828	0.02923316	3.08789e-05	7.328804e-06	0.03670945	-0.001169353
1e+08	0.03878934	-0.003968525	4.979704e-05	8.977931e-06	0.02634818	0.03007727	6.626361e-05	-2.103551e-05
	4.979704e-05	8.97793e-06	0.03951999	-0.004366046	3.54953e-05	5.169412e-06	0.02668491	0.03037993
	0.02634818	0.03007727	3.54953e-05	5.169412e-06	0.03815265	-0.003251031	3.10316e-05	1.973105e-06
	6.626361e-05	-2.103551e-05	0.02668491	0.03037993	3.10316e-05	1.973105e-06	0.03819543	-0.003417394
1.1e+08	0.04005849	-0.006641449	4.525481e-05	3.705813e-06	0.03075487	0.03066479	5.840874e-05	-2.694388e-05
	4.525481e-05	3.705813e-06	0.04065936	-0.007171587	3.527309e-05	5.963186e-06	0.03107573	0.03098035
	0.03075487	0.03066479	3.527309e-05	5.963186e-06	0.03962856	-0.005805957	2.807089e-05	-7.008065e-07
	5.840874e-05	-2.694388e-05	0.03107573	0.03098035	2.807089e-05	-7.008066e-07	0.03963352	-0.006036246
1.2e+08	0.0409952	-0.009496029	4.236996e-05	1.132151e-06	0.03522323	0.03068519	5.365456e-05	-2.835236e-05
	4.236996e-05	1.132151e-06	0.04148604	-0.01010994	3.5237e-05	6.677648e-06	0.0355303	0.03101662
	0.03522323	0.03068518	3.5237e-05	6.677648e-06	0.04069753	-0.008613802	2.607206e-05	-1.905739e-06
	5.365456e-05	-2.835236e-05	0.0355303	0.03101662	2.607206e-05	-1.905739e-06	0.04066753	-0.008892671
1.3e+08	0.04163569	-0.01247168	4.024874e-05	-4.728767e-07	0.03970313	0.03013954	5.290489e-05	-2.569409e-05
	4.024874e-05	-4.728768e-07	0.04202194	-0.01314631	3.533882e-05	7.357999e-06	0.03999537	0.03048711
	0.03970313	0.03013953	3.533883e-05	7.357999e-06	0.04143833	-0.01155402	2.454312e-05	-2.603825e-06
	5.290489e-05	-2.569409e-05	0.03999537	0.0304871	2.454312e-05	-2.603825e-06	0.04137203	-0.01187409
1.4e+08	0.0419881	-0.015536	3.864519e-05	-1.351341e-06	0.04413423	0.02903154	5.22028e-05	-2.347977e-05
	3.864519e-05	-1.351341e-06	0.04227306	-0.01625429	3.557994e-05	8.014105e-06	0.04440959	0.029395
	0.04413423	0.02903154	3.557994e-05	8.014106e-06	0.0418822	-0.01458653	2.330967e-05	-2.866777e-06
	5.22028e-05	-2.347977e-05	0.04440959	0.029395	2.330967e-05	-2.866777e-06	0.04177771	-0.01494203
1.5e+08	0.04205611	-0.01865867	3.751221e-05	-1.727214e-06	0.04845377	0.02737023	5.164692e-05	-2.160978e-05
	3.751221e-05	-1.727214e-06	0.04224259	-0.0194066	3.597902e-05	8.582334e-06	0.04870951	0.02774925
	0.04845377	0.02737023	3.597902e-05	8.582334e-06	0.04204088	-0.01768429	2.35331e-05	-1.961475e-06
	5.164692e-05	-2.160978e-05	0.04870951	0.02774925	2.35331e-05	-1.961475e-06	0.04189629	-0.01807005
1.6e+08	0.04184317	-0.02181005	3.683445e-05	-1.755533e-06	0.05259913	0.02517106	5.126443e-05	-1.996818e-05
	3.683445e-05	-1.755533e-06	0.04193407	-0.02257551	3.651927e-05	9.093858e-06	0.05283196	0.02556552
	0.05259913	0.02517106	3.651927e-05	9.093858e-06	0.04191961	-0.02082106	2.422229e-05	-9.082125e-07
	5.126443e-05	-1.996818e-05	0.05283196	0.02556552	2.422229e-05	-9.082125e-07	0.04173319	-0.02123223
1.7e+08	0.04135514	-0.02496147	3.763705e-05	-9.786e-07	0.05650923	0.02245596	5.108803e-05	-1.855969e-05
	3.763705e-05	-9.786001e-07	0.04135359	-0.0257337	3.720641e-05	9.495211e-06	0.05671538	0.02286606
	0.05650923	0.02245596	3.720641e-05	9.495211e-06	0.04152269	-0.02397004	2.500485e-05	-9.676891e-10
	5.108803e-05	-1.855969e-05	0.05671538	0.02286605	2.500485e-05	-9.677072e-10	0.04129297	-0.02440187
1.8e+08	0.04059988	-0.02808598	3.968902e-05	1.619102e-07	0.06012553	0.01925341	5.112639e-05	-1.737038e-05
	3.968902e-05	1.619102e-07	0.04050938	-0.02885536	3.803142e-05	9.773265e-06	0.06030085	0.01967975
	0.06012553	0.01925341	3.803142e-05	9.773265e-06	0.0408557	-0.02710479	2.589314e-05	7.671003e-07
	5.112639e-05	-1.737038e-05	0.06030085	0.01967975	2.589314e-05	7.671003e-07	0.04058155	-0.02755262
1.9e+08	0.03958799	-0.0311586	4.192916e-05	9.820893e-07	0.06339317	0.01559842	5.138413e-05	-1.634722e-05
	4.192916e-05	9.820893e-07	0.03941244	-0.03191647	3.898742e-05	9.965695e-06	0.06353322	0.01604217
	0.06339317	0.01559842	3.898742e-05	9.965695e-06	0.03992694	-0.03019991	2.68955e-05	1.393804e-06
	5.138413e-05	-1.634722e-05	0.06353322	0.01604217	2.68955e-05	1.393804e-06	0.03960757	-0.03065912
2e+08	0.03833177	-0.03415718	4.43538e-05	1.467688e-06	0.06626156	0.0115318	5.186902e-05	-1.550399e-05
	4.43538e-05	1.467688e-06	0.03807541	-0.03489573	4.00754e-05	1.005246e-05	0.06636172	0.01199472
	0.06626156	0.0115318	4.00754e-05	1.005246e-05	0.03874693	-0.03323171	2.801503e-05	1.872139e-06
	5.186902e-05	-1.550399e-05	0.06636172	0.01199472	2.801503e-05	1.872139e-06	0.03838196	-0.03369782
2.1e+08	0.03684465	-0.03706157	4.695214e-05	1.600074e-06	0.06868488	0.007099752	5.258193e-05	-1.486179e-05
	4.695214e-05	1.600074e-06	0.03651206	-0.03777384	4.129387e-05	1.001071e-05	0.06874041	0.007584253
	0.06868488	0.007099752	4.129387e-05	1.001071e-05	0.03732765	-0.03617894	2.925185e-05	2.190448e-06
	5.258193e-05	-1.486179e-05	0.06874041	0.007584252	2.925185e-05	2.190448e-06	0.03691703	-0.03664757
2.2e+08	0.03514118	-0.0398548	4.970708e-05	1.356135e-06	0.07062281	0.002353204	5.351763e-05	-1.444625e-05
	4.970708e-05	1.356135e-06	0.03473721	-0.04053457	4.263789e-05	9.81768e-06	0.07062899	0.002862409
	0.07062281	0.002353203	4.263789e-05	9.81768e-06	0.03568249	-0.03902257	3.06026e-05	2.333839e-06
	5.351763e-05	-1.444625e-05	0.07062899	0.002862408	3.06026e-05	2.333839e-06	0.03522654	-0.03948946
2.3e+08	0.03323656	-0.04252174	5.259545e-05	7.103496e-07	0.07204129	-0.002652952	5.466507e-05	-1.428799e-05
	5.259545e-05	7.103496e-07	0.0327663	-0.04316356	4.409954e-05	9.446674e-06	0.0719935	-0.002115206
	0.07204129	-0.002652952	4.409954e-05	9.446674e-06	0.03382642	-0.0417459	3.205995e-05	2.285906e-06
	5.466507e-05	-1.428799e-05	0.0719935	-0.002115206	3.205995e-05	2.285906e-06	0.03332579	-0.04220697
2.4e+08	0.03114619	-0.04504974	5.558802e-05	-3.635287e-07	0.07291234	-0.00786019	5.600625e-05	-1.441712e-05
	5.558802e-05	-3.635287e-07	0.03061486	-0.04564887	4.566645e-05	8.873184e-06	0.07280617	-0.007289344
	0.07291234	-0.00786019	4.566645e-05	8.873184e-06	0.0317743	-0.04433495	3.361402e-05	2.027964e-06
	5.600625e-05	-1.441712e-05	0.07280617	-0.007289344	3.361402e-05	2.027964e-06	0.0312299	-0.04478628
2.5e+08	0.02888542	-0.0474282	5.864973e-05	-1.891265e-06	0.07321461	-0.01320759	5.751731e-05	-1.486519e-05
	5.864973e-05	-1.891265e-06	0.02829833	-0.0479806	4.732238e-05	8.071307e-06	0.07304601	-0.01259839
	0.07321461	-0.01320759	4.732238e-05	8.071307e-06	0.02954159	-0.04677729	3.525061e-05	1.542211e-06
	5.751731e-05	-1.486519e-05	0.07304601	-0.01259839	3.525061e-05	1.542211e-06	0.02895464	-0.04721515
2.6e+08	0.02646941	-0.04964828	6.173948e-05	-3.896868e-06	0.07293409	-0.0186324	5.916833e-05	-1.566284e-05
	6.173948e-05	-3.896868e-06	0.02583196	-0.05015053	4.904717e-05	7.016712e-06	0.0726994	-0.01797889
	0.07293409	-0.0186324	4.904717e-05	7.016712e-06	0.02714362	-0.0490631	3.695247e-05	8.097795e-07
	5.916833e-05	-1.566284e-05	0.07269939	-0.01797889	3.695247e-05	8.097795e-07	0.02651553	-0.04948397
2.7e+08	0.02391319	-0.05170281	6.481114e-05	-6.402692e-06	0.07206314	-0.02407062	6.092377e-05	-1.683985e-05
	6.481114e-05	-6.402692e-06	0.02323073	-0.05215212	5.081619e-05	5.685506e-06	0.07175924	-0.0233662
	0.07206314	-0.02407062	5.081619e-05	5.685506e-06	0.02459553	-0.0511842	3.869875e-05	-1.885351e-07
	6.092377e-05	-1.683985e-05	0.07175924	-0.0233662	3.869875e-05	-1.885351e-07	0.0239279	-0.0515848
2.8e+08	0.02123085	-0.0535862	6.781295e-05	-9.425257e-06	0.07060146	-0.02945815	6.27422e-05	-1.842233e-05
	6.781295e-05	-9.425257e-06	0.02050865	-0.05398034	5.260088e-05	4.054755e-06	0.07022585	-0.02869559
	0.07060146	-0.02945815	5.260088e-05	4.054755e-06	0.02191198	-0.05313363	4.046496e-05	-1.469074e-06
	6.27422e-05	-1.842233e-05	0.07022585	-0.02869559	4.046496e-05	-1.469074e-06	0.02120661	-0.05351081
2.9e+08	0.01843637	-0.05529414	7.068845e-05	-1.297734e-05	0.06855586	-0.03473132	6.457743e-05	-2.043227e-05
	7.068845e-05	-1.297734e-05	0.01767959	-0.05563144	5.436844e-05	2.10574e-06	0.06810674	-0.03390291
	0.06855586	-0.03473132	5.436844e-05	2.10574e-06	0.01910704	-0.05490649	4.222329e-05	-3.047645e-06
	6.457743e-05	-2.043227e-05	0.06810674	-0.03390291	4.222329e-05	-3.047645e-06	0.01836583	-0.05525737
3e+08	0.01554279	-0.05682322	7.337708e-05	-1.706859e-05	0.06593957	-0.03982757	6.63779e-05	-2.288809e-05
	7.337708e-05	-1.706859e-05	0.01475643	-0.05710244	5.608275e-05	-1.766011e-07	0.065416	-0.03892507
	0.06593957	-0.03982757	5.608275e-05	-1.766011e-07	0.01619437	-0.05649848	4.394256e-05	-4.937734e-06
	6.63779e-05	-2.288809e-05	0.065416	-0.03892507	4.394256e-05	-4.937734e-06	0.01541936	-0.05682034
3.1e+08	0.01256256	-0.0581711	7.581512e-05	-2.169732e-05	0.06277279	-0.0446865	6.808849e-05	-2.580262e-05
	7.581512e-05	-2.169732e-05	0.01175142	-0.05839149	5.770341e-05	-2.807055e-06	0.06217465	-0.04370133
	0.06277279	-0.0446865	5.770341e-05	-2.807055e-06	0.01318669	-0.05790684	4.558881e-05	-7.149077e-06
	6.808849e-05	-2.580262e-05	0.06217465	-0.04370133	4.558881e-05	-7.149077e-06	0.01237993	-0.05819714
3.2e+08	0.009507438	-0.0593364	7.793528e-05	-2.686002e-05	0.05908198	-0.04925039	6.965029e-05	-2.918167e-05
	7.793528e-05	-2.686002e-05	0.008676068	-0.05949755	5.918802e-05	-5.791666e-06	0.05841012	-0.04817371
	0.05908198	-0.04925039	5.918802e-05	-5.791665e-06	0.01009597	-0.059129	4.712471e-05	-9.690379e-06
	6.965029e-05	-2.918167e-05	0.05841012	-0.04817371	4.712471e-05	-9.690379e-06	0.009259652	-0.05938535
3.3e+08	0.00638826	-0.06031808	7.966878e-05	-3.25427e-05	0.05489943	-0.05346447	7.10015e-05	-3.30261e-05
	7.966878e-05	-3.25427e-05	0.005540983	-0.06041991	6.04907e-05	-9.13604e-06	0.05415565	-0.05228725
	0.05489943	-0.05346447	6.04907e-05	-9.13604e-06	0.006933612	-0.06016359	4.851113e-05	-1.256416e-05
	7.10015e-05	-3.30261e-05	0.05415565	-0.05228725	4.851113e-05	-1.256416e-05	0.006069923	-0.06038371
3.4e+08	0.003215312	-0.06111555	8.094515e-05	-3.872483e-05	0.05026309	-0.05727839	7.207941e-05	-3.732614e-05
	8.094515e-05	-3.872483e-05	0.00235616	-0.06115825	6.156335e-05	-1.283876e-05	0.04945025	-0.05599153
	0.05026309	-0.05727839	6.156335e-05	-1.283876e-05	0.003710277	-0.06100923	4.970608e-05	-1.577084e-05
	7.207941e-05	-3.732614e-05	0.04945025	-0.05599153	4.970608e-05	-1.577084e-05	0.002821474	-0.06119098
3.5e+08	-2.200304e-06	-0.06172852	8.169613e-05	-4.537458e-05	0.04521583	-0.06064577	7.281819e-05	-4.207019e-05
	8.169613e-05	-4.537458e-05	-0.0008694516	-0.06171249	6.235753e-05	-1.689144e-05	0.04433786	-0.05924025
	0.04521583	-0.06064577	6.235753e-05	-1.689144e-05	0.0004358634	-0.06166527	5.06664e-05	-1.930547e-05
	7.281819e-05	-4.207019e-05	0.04433786	-0.05924025	5.06664e-05	-1.930547e-05	-0.0004757684	-0.06180658
3.6e+08	-0.003255415	-0.06215706	8.184993e-05	-5.245639e-05	0.0398053	-0.06352542	7.315343e-05	-4.723378e-05
	8.184993e-05	-5.245639e-05	-0.004127279	-0.06208285	6.282137e-05	-2.128464e-05	0.03886719	-0.06199242
	0.0398053	-0.06352542	6.282137e-05	-2.128464e-05	-0.002880391	-0.06213082	5.134811e-05	-2.315684e-05
	7.315343e-05	-4.723378e-05	0.03886719	-0.06199242	5.134811e-05	-2.315684e-05	-0.00381253	-0.0622297
3.7e+08	-0.00653586	-0.06240071	8.134325e-05	-5.992049e-05	0.03408273	-0.06588172	7.302167e-05	-5.278517e-05
	8.134325e-05	-5.992049e-05	-0.007409109	-0.06226897	6.290599e-05	-2.599666e-05	0.03309053	-0.06421272
	0.03408273	-0.06588172	6.290599e-05	-2.599666e-05	-0.006229588	-0.06240511	5.170461e-05	-2.731251e-05
	7.302167e-05	-5.278517e-05	0.03309053	-0.06421272	5.170461e-05	-2.731251e-05	-0.007179876	-0.0624596
3.8e+08	-0.00983596	-0.06245939	8.010925e-05	-6.771307e-05	0.02810271	-0.06768422	7.236155e-05	-5.868482e-05
	8.010925e-05	-6.771307e-05	-0.01070762	-0.06227085	6.255999e-05	-3.100472e-05	0.02706353	-0.06587115
	0.02810271	-0.06768422	6.255999e-05	-3.100472e-05	-0.009603438	-0.06248757	5.169239e-05	-3.17498e-05
	7.236155e-05	-5.868482e-05	0.02706353	-0.06587115	5.169239e-05	-3.17498e-05	-0.01056945	-0.06249573
3.9e+08	-0.01314862	-0.06233231	7.808935e-05	-7.576946e-05	0.02192281	-0.06890912	7.111127e-05	-6.488823e-05
	7.808935e-05	-7.576946e-05	-0.01401595	-0.06208766	6.173345e-05	-3.627865e-05	0.02084476	-0.06694448
	0.02192281	-0.06890912	6.173345e-05	-3.627865e-05	-0.01299393	-0.06237695	5.126437e-05	-3.644528e-05
	7.111127e-05	-6.488823e-05	0.02084476	-0.06694448	5.126437e-05	-3.644528e-05	-0.01397316	-0.06233682
4e+08	-0.0164668	-0.06201883	7.523068e-05	-8.401516e-05	0.01560204	-0.0695384	6.9219e-05	-7.133739e-05
	7.523068e-05	-8.401516e-05	-0.01732725	-0.06171875	6.037904e-05	-4.177995e-05	0.01449422	-0.0674154
	0.01560204	-0.0695384	6.037904e-05	-4.177995e-05	-0.01639327	-0.06207232	5.037934e-05	-4.136478e-05
	6.9219e-05	-7.133739e-05	0.01449422	-0.0674154	5.037934e-05	-4.136478e-05	-0.01738311	-0.06198197
4.1e+08	-0.01978303	-0.06151752	7.148521e-05	-9.23721e-05	0.009201119	-0.06956035	6.663065e-05	-7.797144e-05
	7.148521e-05	-9.23721e-05	-0.02063415	-0.06116256	5.84502e-05	-4.746643e-05	0.008073557	-0.067273
	0.009201119	-0.06956035	5.84502e-05	-4.746643e-05	-0.01979384	-0.06157197	4.89931e-05	-4.647328e-05
	6.663065e-05	-7.797144e-05	0.008073557	-0.067273	4.89931e-05	-4.647328e-05	-0.02079155	-0.06142943
4.2e+08	-0.02309086	-0.06082644	6.681158e-05	-0.0001007518	0.002781093	-0.06897006	6.330498e-05	-8.471935e-05
	6.681158e-05	-0.0001007518	-0.02393038	-0.06041715	5.590514e-05	-5.329041e-05	0.001644603	-0.06651334
	0.002781093	-0.06897006	5.590514e-05	-5.329041e-05	-0.02318789	-0.0608739	4.706651e-05	-5.172666e-05
	6.330498e-05	-8.471935e-05	0.001644603	-0.06651334	4.706651e-05	-5.172666e-05	-0.02419058	-0.06067716
4.3e+08	-0.02638291	-0.05994356	6.117703e-05	-0.0001090603	-0.003597161	-0.06776856	5.920415e-05	-9.150397e-05
	6.117703e-05	-0.0001090603	-0.0272086	-0.05948032	5.270383e-05	-5.919201e-05	-0.004731061	-0.06513845
	-0.003597161	-0.06776856	5.270383e-05	-5.919201e-05	-0.02656744	-0.05997583	4.456384e-05	-5.707684e-05
	5.920415e-05	-9.150397e-05	-0.004731061	-0.06513845	4.456384e-05	-5.707684e-05	-0.02757203	-0.05972287
4.4e+08	-0.0296516	-0.0588666	5.456166e-05	-0.0001171984	-0.009873282	-0.06596325	5.42948e-05	-9.824545e-05
	5.456166e-05	-0.0001171984	-0.03046131	-0.05834965	4.881264e-05	-6.511078e-05	-0.01099246	-0.06315692
	-0.009873282	-0.06596325	4.881264e-05	-6.511078e-05	-0.0299242	-0.05887521	4.145344e-05	-6.246861e-05
	5.42948e-05	-9.824545e-05	-0.01099246	-0.06315692	4.145344e-05	-6.246861e-05	-0.03092734	-0.05856399
4.5e+08	-0.03288889	-0.05759234	4.69509e-05	-0.0001250616	-0.01598857	-0.0635678	4.85582e-05	-0.0001048545
	4.69509e-05	-0.0001250616	-0.0336804	-0.05702176	4.42048e-05	-7.098005e-05	-0.01708039	-0.06058358
	-0.01598857	-0.0635678	4.42048e-05	-7.098005e-05	-0.03324936	-0.05756885	3.770399e-05	-6.784422e-05
	4.85582e-05	-0.0001048545	-0.01708039	-0.06058358	3.770399e-05	-6.784422e-05	-0.03424745	-0.05719733
4.6e+08	-0.03608633	-0.05611729	3.834307e-05	-0.0001325413	-0.0218862	-0.06060151	4.198243e-05	-0.0001112383
	3.834307e-05	-0.0001325413	-0.03685734	-0.05549302	3.885272e-05	-7.67289e-05	-0.02293765	-0.05743903
	-0.0218862	-0.06060151	3.885272e-05	-7.67289e-05	-0.03653349	-0.05605377	3.329485e-05	-7.31394e-05
	4.198243e-05	-0.0001112383	-0.02293765	-0.05743903	3.329485e-05	-7.31394e-05	-0.03752262	-0.05561993
4.7e+08	-0.03923384	-0.05443818	2.874588e-05	-0.000139528	-0.02751246	-0.05708921	3.456094e-05	-0.0001173045
	2.874588e-05	-0.000139528	-0.0399819	-0.05376004	3.274252e-05	-8.22773e-05	-0.02851033	-0.05374945
	-0.02751246	-0.05708921	3.274252e-05	-8.22773e-05	-0.03976629	-0.05432629	2.821042e-05	-7.828319e-05
	3.456094e-05	-0.0001173045	-0.02851033	-0.05374945	2.821042e-05	-7.828319e-05	-0.04074217	-0.05382816
4.8e+08	-0.04232118	-0.05255149	1.81831e-05	-0.000145909	-0.03281616	-0.05306101	2.630594e-05	-0.0001229539
	1.81831e-05	-0.000145909	-0.04304367	-0.05181922	2.586301e-05	-8.754528e-05	-0.0337472	-0.04954629
	-0.03281616	-0.05306101	2.586301e-05	-8.754528e-05	-0.04293636	-0.05238322	2.243786e-05	-8.320542e-05
	2.630594e-05	-0.0001229539	-0.0337472	-0.04954629	2.243786e-05	-8.320542e-05	-0.04389435	-0.05181896
