!$
! Info: Touchstone file created by Circ.  Input file=Intel_C2M_200G_3p0in_202208016_staggered.circ
!$
# Hz S RI R 50
0	0.01449582	2.357696e-24	0.9853033	-4.268129e-24	8.464117e-05	2.697954e-22	-0.0002162328	2.648088e-20
	0.9853033	-4.266506e-24	0.01505203	4.77045e-24	-0.0002162881	2.648765e-20	0.0003099076	3.51257e-22
	8.469919e-05	2.69946e-22	-0.0002164258	2.650451e-20	0.01449375	2.237485e-24	0.9853036	-4.298008e-24
	-0.0002163705	2.649774e-20	0.000309977	3.515023e-22	0.9853036	-4.299642e-24	0.01505344	4.841426e-24
1e+07	0.0174611	0.004644397	0.9804884	-0.06735355	0.001051361	0.004583528	-0.0007850552	-0.000763916
	0.9804884	-0.06735355	0.01739865	0.004714583	-0.0007851045	-0.0007639507	0.001013033	0.004593068
	0.001051361	0.004583528	-0.0007851045	-0.0007639507	0.0175495	0.004275239	0.9804015	-0.06696787
	-0.0007850552	-0.000763916	0.001013033	0.004593068	0.9804015	-0.06696787	0.01748727	0.004344757
2e+07	0.02110496	0.006647663	0.97083	-0.1317791	0.002137984	0.008685839	-0.001069968	-0.001158971
	0.97083	-0.1317791	0.02102912	0.006958222	-0.001069997	-0.001158972	0.001940218	0.008785975
	0.002137996	0.008685827	-0.001069991	-0.001159083	0.02077326	0.006039757	0.9711717	-0.1311394
	-0.001069962	-0.001159075	0.001940306	0.008785871	0.9711717	-0.1311394	0.0206896	0.006353312
3e+07	0.02437816	0.007124985	0.9577964	-0.194078	0.0037008	0.01267922	-0.001377777	-0.001504388
	0.9577964	-0.194078	0.023868	0.007436216	-0.001377865	-0.001504158	0.003382684	0.01277896
	0.003700769	0.01267925	-0.001377907	-0.001504159	0.02372029	0.006533173	0.9584667	-0.1934349
	-0.001377789	-0.001504395	0.003382661	0.01277893	0.9584667	-0.1934349	0.0232133	0.006844288
4e+07	0.02729544	0.006750639	0.9412083	-0.2548358	0.005798284	0.01638392	-0.001713614	-0.001793379
	0.9412083	-0.2548358	0.02636412	0.007311952	-0.001713581	-0.001792832	0.005243266	0.01658231
	0.005798276	0.01638395	-0.001713586	-0.001792829	0.02638192	0.006263891	0.942146	-0.2542805
	-0.001713617	-0.001793366	0.005243266	0.01658231	0.942146	-0.2542805	0.02545746	0.006823854
5e+07	0.02995146	0.005818423	0.9210653	-0.3140315	0.008365634	0.0197735	-0.002073042	-0.002024524
	0.9210653	-0.3140315	0.02856348	0.006692231	-0.002072744	-0.002023757	0.007526597	0.02012988
	0.008365635	0.01977351	-0.002072741	-0.002023758	0.02883711	0.00549236	0.9222211	-0.3136228
	-0.002073039	-0.002024525	0.007526601	0.02012989	0.9222211	-0.3136228	0.02746053	0.006364378
6e+07	0.03237298	0.004426724	0.8974298	-0.3715418	0.01136602	0.02279795	-0.002448826	-0.00220171
	0.8974298	-0.3715418	0.03045079	0.005718899	-0.002448177	-0.002200786	0.01019776	0.02337788
	0.01136604	0.02279794	-0.002448175	-0.002200787	0.03110841	0.004301079	0.8987579	-0.371323
	-0.002448823	-0.002201709	0.01019776	0.02337789	0.8987579	-0.371323	0.02920367	0.005590588
7e+07	0.03454726	0.002650062	0.8703918	-0.4272131	0.01475204	0.02540955	-0.00283615	-0.002329176
	0.8703918	-0.4272131	0.03204302	0.004497528	-0.002835004	-0.002328276	0.01321936	0.026289
	0.01475205	0.02540954	-0.00283495	-0.002328322	0.03318222	0.002754154	0.8718459	-0.4272188
	-0.002836148	-0.002329178	0.01321936	0.026289	0.8718459	-0.4272188	0.03070226	0.004597182
8e+07	0.03646369	0.0005559388	0.8400581	-0.4808792	0.01847139	0.02756651	-0.003231161	-0.002410481
	0.8400581	-0.4808792	0.03335688	0.003097243	-0.003229491	-0.002409832	0.0165498	0.02883
	0.01847139	0.02756651	-0.003229493	-0.00240983	0.03504894	0.0009127121	0.8415923	-0.4811401
	-0.003231163	-0.002410479	0.0165498	0.02883001	0.8415923	-0.4811401	0.03197347	0.003446423
9e+07	0.03811944	-0.001799603	0.8065499	-0.5323707	0.02246828	0.02923315	-0.003631075	-0.002448757
	0.8065499	-0.5323707	0.03440106	0.001572581	-0.003628918	-0.002448605	0.02014493	0.03097323
	0.02246828	0.02923316	-0.003628918	-0.002448596	0.03670945	-0.001169353	0.8081095	-0.5329172
	-0.003631078	-0.002448747	0.02014493	0.03097323	0.8081095	-0.5329172	0.03303031	0.002191475
1e+08	0.03951999	-0.004366046	0.7699961	-0.581526	0.02668491	0.03037993	-0.004035391	-0.002447205
	0.7699961	-0.581526	0.03518663	-1.856586e-05	-0.004032972	-0.002447823	0.02396039	0.0326965
	0.02668491	0.03037993	-0.004032972	-0.002447824	0.03819543	-0.003417394	0.7714976	-0.5824181
	-0.004035391	-0.002447206	0.02396039	0.0326965	0.7714976	-0.5824181	0.03391133	0.0009141188
1.1e+08	0.04065936	-0.007171587	0.7305375	-0.6281367	0.03107573	0.03098035	-0.004442125	-0.002397306
	0.7305375	-0.6281367	0.0357701	-0.001648204	-0.004440056	-0.002397705	0.02794301	0.03397432
	0.03107573	0.03098035	-0.004440055	-0.002397706	0.03963352	-0.006036246	0.7318166	-0.6292472
	-0.004442124	-0.002397307	0.02794301	0.03397432	0.7318166	-0.6292472	0.03474109	-0.0005157235
1.2e+08	0.04148604	-0.01010994	0.6883649	-0.6720508	0.0355303	0.03101662	-0.004839015	-0.002314286
	0.6883649	-0.6720508	0.03611125	-0.003294384	-0.004836682	-0.002314999	0.03203617	0.03480033
	0.0355303	0.03101662	-0.004836682	-0.002315001	0.04066753	-0.008892671	0.6894546	-0.673303
	-0.004839015	-0.002314288	0.03203617	0.03480033	0.6894546	-0.673303	0.03529753	-0.002055103
1.3e+08	0.04202194	-0.01314631	0.6436495	-0.7131295	0.03999537	0.03048711	-0.005230251	-0.002200206
	0.6436495	-0.7131295	0.03623618	-0.004905319	-0.005227854	-0.002202018	0.03619039	0.03517151
	0.03999537	0.0304871	-0.005227854	-0.002202019	0.04137203	-0.01187409	0.6445597	-0.7144884
	-0.005230251	-0.002200207	0.03619039	0.03517152	0.6445597	-0.7144884	0.03562206	-0.003606587
1.4e+08	0.04227306	-0.01625429	0.5965743	-0.7512369	0.04440959	0.029395	-0.005617251	-0.002056592
	0.5965743	-0.7512369	0.03617205	-0.006445656	-0.005615518	-0.002059422	0.04035506	0.0350897
	0.04440959	0.029395	-0.005615518	-0.002059423	0.04177771	-0.01494203	0.5973094	-0.7526742
	-0.005617251	-0.002056593	0.04035506	0.0350897	0.5973094	-0.7526742	0.0357427	-0.00512028
1.5e+08	0.04224259	-0.0194066	0.5473291	-0.7862468	0.04870951	0.02774925	-0.006001089	-0.001883906
	0.5473291	-0.7862468	0.0359481	-0.007888999	-0.006000434	-0.001887637	0.04448086	0.03456213
	0.04870951	0.02774925	-0.006000434	-0.001887637	0.04189629	-0.01807005	0.5478941	-0.7877397
	-0.006001089	-0.001883907	0.04448086	0.03456213	0.5478941	-0.7877397	0.03568959	-0.006561624
1.6e+08	0.04193407	-0.02257551	0.496111	-0.8180408	0.05283196	0.02556552	-0.006382464	-0.001682005
	0.496111	-0.8180408	0.03559436	-0.009215986	-0.006383208	-0.001686245	0.04852013	0.03360169
	0.05283196	0.02556552	-0.006383209	-0.001686245	0.04173319	-0.02123223	0.4965094	-0.8195716
	-0.006382465	-0.001682005	0.04852013	0.03360169	0.4965094	-0.8195716	0.03549336	-0.00790606
1.7e+08	0.04135359	-0.0257337	0.4431232	-0.8465157	0.05671538	0.02286606	-0.006761741	-0.001450217
	0.4431232	-0.8465157	0.0351411	-0.0104134	-0.006764071	-0.001454401	0.05242734	0.03222595
	0.05671538	0.02286605	-0.006764071	-0.001454402	0.04129297	-0.02440187	0.4433591	-0.8480679
	-0.006761742	-0.001450218	0.05242734	0.03222595	0.4433591	-0.8480679	0.03518505	-0.009136823
1.8e+08	0.04050938	-0.02885536	0.3885743	-0.8715805	0.06030085	0.01967975	-0.007138922	-0.001187371
	0.3885743	-0.8715805	0.03461865	-0.01147302	-0.007142818	-0.001191052	0.05616012	0.03045745
	0.06030085	0.01967975	-0.007142818	-0.001191053	0.04058155	-0.02755262	0.3886519	-0.873138
	-0.007138922	-0.001187371	0.05616012	0.03045745	0.3886519	-0.873138	0.03479479	-0.01024319
1.9e+08	0.03941244	-0.03191647	0.332679	-0.8931539	0.06353322	0.01604217	-0.007513628	-0.0008915323
	0.332679	-0.8931539	0.03405607	-0.01239157	-0.007518966	-0.0008942983	0.05967942	0.0283235
	0.06353322	0.01604217	-0.007518966	-0.0008942985	0.03960757	-0.03065912	0.3326047	-0.8947038
	-0.007513628	-0.0008915325	0.05967942	0.02832351	0.3326047	-0.8947038	0.03435223	-0.01121979
2e+08	0.03807541	-0.03489573	0.2756554	-0.9111684	0.06636172	0.01199472	-0.007884844	-0.0005605554
	0.2756554	-0.9111684	0.03348231	-0.01317008	-0.007891416	-0.0005622322	0.06294973	0.02585483
	0.06636172	0.01199472	-0.007891416	-0.0005622324	0.03838196	-0.03369782	0.2754326	-0.9126972
	-0.007884844	-0.0005605555	0.06294973	0.02585483	0.2754326	-0.9126972	0.03388542	-0.01206561
2.1e+08	0.03651206	-0.03777384	0.2177244	-0.9255718	0.06874041	0.007584253	-0.008251022	-0.0001923285
	0.2177244	-0.9255718	0.03292385	-0.01381372	-0.008258614	-0.0001924284	0.06594066	0.02308609
	0.06874041	0.007584252	-0.008258615	-0.0001924286	0.03691703	-0.03664757	0.2173592	-0.927067
	-0.008251022	-0.0001923286	0.06594066	0.02308609	0.2173592	-0.927067	0.03342168	-0.01278419
2.2e+08	0.03473721	-0.04053457	0.1591091	-0.9363227	0.07062899	0.002862409	-0.00860978	0.0002159003
	0.1591091	-0.9363227	0.0324063	-0.01433141	-0.008618089	0.0002174574	0.06862585	0.0200546
	0.07062899	0.002862408	-0.008618089	0.0002174574	0.03522654	-0.03948946	0.1586076	-0.937773
	-0.00860978	0.0002159002	0.06862585	0.0200546	0.1586076	-0.937773	0.03298592	-0.0133826
2.3e+08	0.0327663	-0.04316356	0.1000363	-0.9433922	0.0719935	-0.002115206	-0.00895801	0.0006660717
	0.1000363	-0.9433922	0.03195275	-0.01473555	-0.008966819	0.0006696951	0.07098406	0.01679975
	0.0719935	-0.002115206	-0.008966819	0.0006696949	0.03332579	-0.04220697	0.09940383	-0.9447872
	-0.00895801	0.0006660715	0.07098406	0.01679975	0.09940383	-0.9447872	0.0326015	-0.0138715
2.4e+08	0.03061486	-0.04564887	0.04073072	-0.9467681	0.07280617	-0.007289344	-0.00929208	0.001160808
	0.04073072	-0.9467681	0.03158376	-0.01504168	-0.009301008	0.001166433	0.0729995	0.01336293
	0.07280617	-0.007289344	-0.009301008	0.001166433	0.0312299	-0.04478628	0.03997509	-0.9480987
	-0.00929208	0.001160808	0.0729995	0.01336293	0.03997509	-0.9480987	0.0322893	-0.01426484
2.5e+08	0.02829833	-0.0479806	-0.01858011	-0.9464506	0.07304601	-0.01259839	-0.009607499	0.001701831
	-0.01858011	-0.9464506	0.03131749	-0.01526822	-0.009616112	0.001709538	0.0746614	0.009786123
	0.07304601	-0.01259839	-0.009616112	0.001709538	0.02895464	-0.04721515	-0.01945272	-0.9477056
	-0.009607499	0.001701831	0.0746614	0.009786123	-0.01945272	-0.9477056	0.03206782	-0.0145792
2.6e+08	0.02583196	-0.05015053	-0.07767189	-0.9424517	0.0726994	-0.01797889	-0.009899366	0.002290213
	-0.07767189	-0.9424517	0.03116836	-0.01543554	-0.00990723	0.002300288	0.07596429	0.006111549
	0.07269939	-0.01797889	-0.00990723	0.002300288	0.02651553	-0.04948397	-0.07865197	-0.9436225
	-0.009899366	0.002290213	0.07596429	0.006111549	-0.07865197	-0.9436225	0.03195222	-0.01483386
2.7e+08	0.02323073	-0.05215212	-0.1363202	-0.9347968	0.07175924	-0.0233662	-0.01016211	0.002926743
	-0.1363202	-0.9347968	0.03114814	-0.01556626	-0.0101688	0.002938897	0.07690797	0.002381343
	0.07175924	-0.0233662	-0.0101688	0.002938897	0.0239279	-0.0515848	-0.1374003	-0.9358764
	-0.01016211	0.002926743	0.07690797	0.002381343	-0.1374003	-0.9358764	0.03195492	-0.01504985
2.8e+08	0.02050865	-0.05398034	-0.1943036	-0.9235258	0.07022585	-0.02869559	-0.01038972	0.003611163
	-0.1943036	-0.9235258	0.03126487	-0.01568445	-0.01039476	0.003625528	0.07749736	-0.001363816
	0.07022585	-0.02869559	-0.01039476	0.003625528	0.02120661	-0.05351081	-0.195475	-0.9245071
	-0.01038972	0.003611163	0.07749736	-0.001363816	-0.195475	-0.9245071	0.03208487	-0.01524982
2.9e+08	0.01767959	-0.05563144	-0.2514025	-0.9086924	0.06810674	-0.03390291	-0.01057578	0.004343052
	-0.2514025	-0.9086924	0.03152265	-0.01581475	-0.01057888	0.004359222	0.07774215	-0.005084514
	0.06810674	-0.03390291	-0.01057888	0.004359222	0.01836583	-0.05525737	-0.2526563	-0.9095686
	-0.01057578	0.004343052	0.07774215	-0.005084514	-0.2526563	-0.9095686	0.03234732	-0.01545765
3e+08	0.01475643	-0.05710244	-0.3074021	-0.8903602	0.065416	-0.03892507	-0.01071402	0.005120286
	-0.3074021	-0.8903602	0.03192243	-0.01598254	-0.01071482	0.005137991	0.07765639	-0.008744057
	0.065416	-0.03892507	-0.01071482	0.005137991	0.01541936	-0.05682034	-0.3087288	-0.8911249
	-0.01071402	0.005120285	0.07765639	-0.008744057	-0.3087288	-0.8911249	0.03274436	-0.01569764
3.1e+08	0.01175142	-0.05839149	-0.3620933	-0.8686082	0.06217465	-0.04370133	-0.01079804	0.005940225
	-0.3620933	-0.8686082	0.03246134	-0.01621303	-0.0107959	0.005959256	0.07725876	-0.01230787
	0.06217465	-0.04370133	-0.0107959	0.005959256	0.01237993	-0.05819714	-0.3634809	-0.8692555
	-0.01079804	0.005940225	0.07725876	-0.01230787	-0.3634809	-0.8692555	0.03327417	-0.01599453
3.2e+08	0.008676068	-0.05949755	-0.4152676	-0.8435263	0.05841012	-0.04817371	-0.01082146	0.006799308
	-0.4152676	-0.8435263	0.03313282	-0.01653106	-0.0108161	0.006819271	0.07657148	-0.01574519
	0.05841012	-0.04817371	-0.0108161	0.006819271	0.009259652	-0.05938535	-0.4167091	-0.8440526
	-0.01082146	0.006799308	0.07657148	-0.01574519	-0.4167091	-0.8440526	0.03393143	-0.01637259
3.3e+08	0.005540983	-0.06041991	-0.4667272	-0.8152153	0.05415565	-0.05228725	-0.010778	0.0076933
	-0.4667272	-0.8152153	0.03392692	-0.01696037	-0.01076955	0.007713235	0.07561963	-0.01902861
	0.05415565	-0.05228725	-0.01076955	0.007713235	0.006069923	-0.06038371	-0.4682104	-0.8156176
	-0.010778	0.0076933	0.07561963	-0.01902861	-0.4682104	-0.8156176	0.03470765	-0.01685521
3.4e+08	0.00235616	-0.06115825	-0.5162761	-0.7837907	0.04945025	-0.05599153	-0.01066228	0.008616374
	-0.5162761	-0.7837907	0.03483049	-0.01752336	-0.01065022	0.008636142	0.0744318	-0.02213457
	0.04945025	-0.05599153	-0.01065022	0.008636142	0.002821474	-0.06119098	-0.5177936	-0.7840665
	-0.01066228	0.008616373	0.0744318	-0.02213457	-0.5177936	-0.7840665	0.03559064	-0.01746459
3.5e+08	-0.0008694516	-0.06171249	-0.5637312	-0.7493777	0.04433786	-0.05924025	-0.01046904	0.009562621
	-0.5637312	-0.7493777	0.03582702	-0.01824043	-0.01045328	0.0095816	0.07303828	-0.02504424
	0.04433786	-0.05924025	-0.01045328	0.009581599	-0.0004757684	-0.06180658	-0.5652684	-0.7495246
	-0.01046904	0.00956262	0.07303828	-0.02504424	-0.5652684	-0.7495246	0.03656546	-0.0182217
3.6e+08	-0.004127279	-0.06208285	-0.6089116	-0.7121134	0.03886719	-0.06199242	-0.01019375	0.01052515
	-0.6089116	-0.7121134	0.03689741	-0.01913032	-0.01017465	0.0105426	0.07147105	-0.0277429
	0.03886719	-0.06199242	-0.01017465	0.0105426	-0.00381253	-0.0622297	-0.6104586	-0.7121303
	-0.01019375	0.01052515	0.07147105	-0.0277429	-0.6104586	-0.7121303	0.03761407	-0.01914478
3.7e+08	-0.007409109	-0.06226897	-0.6516476	-0.6721433	0.03309053	-0.06421272	-0.009832942	0.01149623
	-0.6516476	-0.6721433	0.03802007	-0.0202086	-0.009810412	0.01151174	0.06976313	-0.03022047
	0.03309053	-0.06421272	-0.009810412	0.01151174	-0.007179876	-0.0624596	-0.6531952	-0.6720307
	-0.009832942	0.01149623	0.06976313	-0.03022047	-0.6531952	-0.6720307	0.03871585	-0.02025034
3.8e+08	-0.01070762	-0.06227085	-0.6917795	-0.629625	0.02706353	-0.06587115	-0.009383161	0.01246829
	-0.6917795	-0.629625	0.03917134	-0.02148811	-0.009358031	0.01248085	0.06794786	-0.03247168
	0.02706353	-0.06587115	-0.009358031	0.01248085	-0.01056945	-0.06249573	-0.6933145	-0.6293829
	-0.009383161	0.01246829	0.06794786	-0.03247168	-0.6933145	-0.6293829	0.03984836	-0.02155198
3.9e+08	-0.01401595	-0.06208766	-0.7291533	-0.5847263	0.02084476	-0.06694448	-0.008843252	0.01343233
	-0.7291533	-0.5847263	0.04032545	-0.02297925	-0.008815061	0.0134419	0.06605862	-0.03449593
	0.02084476	-0.06694448	-0.008815061	0.0134419	-0.01397316	-0.06233682	-0.7306679	-0.5843583
	-0.008843252	0.01343233	0.06605862	-0.03449593	-0.7306679	-0.5843583	0.04098648	-0.02306007
4e+08	-0.01732725	-0.06171875	-0.7636286	-0.5376256	0.01449422	-0.0674154	-0.008211541	0.01437991
	-0.7636286	-0.5376256	0.04145547	-0.02468854	-0.008181297	0.01438583	0.06412771	-0.03629711
	0.01449422	-0.0674154	-0.008181297	0.01438583	-0.01738311	-0.06198197	-0.7651109	-0.5371318
	-0.008211541	0.01437991	0.06412771	-0.03629711	-0.7651109	-0.5371318	0.04210439	-0.02478257
4.1e+08	-0.02063415	-0.06116256	-0.795076	-0.4885032	0.008073557	-0.067273	-0.00748786	0.01530219
	-0.795076	-0.4885032	0.04253392	-0.02661904	-0.007456256	0.01530393	0.06218606	-0.03788303
	0.008073557	-0.067273	-0.007456256	0.01530393	-0.02079155	-0.06142943	-0.7965174	-0.4878869
	-0.00748786	0.01530219	0.06218606	-0.03788303	-0.7965174	-0.4878869	0.04317481	-0.02672336
4.2e+08	-0.02393038	-0.06041715	-0.8233764	-0.4375556	0.001644603	-0.06651334	-0.00667367	0.0161901
	-0.8233764	-0.4375556	0.0435322	-0.02877074	-0.006641014	0.01618743	0.0602627	-0.03926669
	0.001644603	-0.06651334	-0.006641014	0.01618743	-0.02419058	-0.06067716	-0.8247659	-0.436822
	-0.00667367	0.0161901	0.0602627	-0.03926669	-0.8247659	-0.436822	0.04416989	-0.02888339
4.3e+08	-0.0272086	-0.05948032	-0.8484233	-0.384981	-0.004731061	-0.06513845	-0.005770102	0.01703504
	-0.8484233	-0.384981	0.04442211	-0.03113983	-0.005737457	0.01702788	0.05838408	-0.0404637
	-0.004731061	-0.06513845	-0.005737457	0.01702788	-0.02757203	-0.05972287	-0.8497525	-0.384134
	-0.005770102	0.01703504	0.05838408	-0.0404637	-0.8497525	-0.384134	0.04506131	-0.03125988
4.4e+08	-0.03046131	-0.05834965	-0.8701232	-0.3309848	-0.01099246	-0.06315692	-0.004780157	0.01782834
	-0.8701232	-0.3309848	0.04517567	-0.03371901	-0.00474791	0.01781653	0.05657348	-0.04149374
	-0.01099246	-0.06315692	-0.00474791	0.01781653	-0.03092734	-0.05856399	-0.8713827	-0.3300306
	-0.004780157	0.01782834	0.05657348	-0.04149374	-0.8713827	-0.3300306	0.0458217	-0.03384659
4.5e+08	-0.0336804	-0.05702176	-0.8883939	-0.2757817	-0.01708039	-0.06058358	-0.003707356	0.01856177
	-0.8883939	-0.2757817	0.04576566	-0.03649765	-0.003676217	0.01854547	0.05485128	-0.04237934
	-0.01708039	-0.06058358	-0.003676217	0.01854547	-0.03424745	-0.05719733	-0.8895756	-0.2747263
	-0.003707356	0.01856177	0.05485128	-0.04237934	-0.8895756	-0.2747263	0.04642367	-0.03663396
4.6e+08	-0.03685734	-0.05549302	-0.9031674	-0.2195894	-0.02293765	-0.05743903	-0.002555533	0.01922742
	-0.9031674	-0.2195894	0.04616617	-0.039462	-0.002526599	0.01920685	0.0532338	-0.04314568
	-0.02293765	-0.05743903	-0.002526599	0.01920685	-0.03752262	-0.05561993	-0.9042634	-0.2184379
	-0.002555533	0.01922742	0.0532338	-0.04314568	-0.9042634	-0.2184379	0.04684105	-0.03960927
4.7e+08	-0.0399819	-0.05376004	-0.9143935	-0.1626263	-0.02851033	-0.05374945	-0.001330437	0.01981783
	-0.9143935	-0.1626263	0.046353	-0.04259449	-0.001304057	0.0197933	0.05173316	-0.04381936
	-0.02851033	-0.05374945	-0.001304057	0.0197933	-0.04074217	-0.05382816	-0.9153949	-0.1613875
	-0.001330437	0.01981783	0.05173316	-0.04381936	-0.9153949	-0.1613875	0.04704941	-0.04275623
4.8e+08	-0.04304367	-0.05181922	-0.9220276	-0.1051173	-0.0337472	-0.04954629	-3.689227e-05	0.02032625
	-0.9220276	-0.1051173	0.04630426	-0.04587558	-1.419007e-05	0.02029812	0.05035754	-0.04442872
	-0.0337472	-0.04954629	-1.419004e-05	0.02029812	-0.04389435	-0.05181896	-0.922931	-0.1037992
	-3.689224e-05	0.02032625	0.05035754	-0.04442872	-0.922931	-0.1037992	0.04702616	-0.04605593
4.9e+08	-0.04603089	-0.04966663	-0.9260465	-0.04729297	-0.03860163	-0.04486576	0.001318099	0.02074634
	-0.9260465	-0.04729297	0.04599989	-0.04928247	0.001337076	0.0207152	0.04911046	-0.04500304
	-0.03860163	-0.04486576	0.001337076	0.0207152	-0.04696656	-0.04958893	-0.926845	-0.04590108
	0.001318099	0.02074634	0.04911046	-0.04500304	-0.926845	-0.04590108	0.04675057	-0.04948679
5e+08	-0.04893	-0.04729925	-0.9264415	0.01062444	-0.04303074	-0.03974797	0.002728726	0.02107209
	-0.9264415	0.01062444	0.04542286	-0.0527905	0.002743049	0.02103878	0.04799099	-0.04557119
	-0.04303074	-0.03974797	0.002743049	0.02103878	-0.04994473	-0.04713563	-0.9271286	0.01207803
	0.002728726	0.02107209	0.04799099	-0.04557119	-0.9271286	0.01207803	0.04620483	-0.05302489
5.1e+08	-0.05172702	-0.04471407	-0.9232125	0.06840331	-0.0469961	-0.03423728	0.004187113	0.02129875
	-0.9232125	0.06840331	0.04455893	-0.05637308	0.004196486	0.02126391	0.04699376	-0.04616212
	-0.0469961	-0.03423728	0.004196486	0.02126391	-0.05281393	-0.04445674	-0.9237863	0.06991105
	0.004187113	0.02129875	0.04699376	-0.04616212	-0.9237863	0.06991105	0.04537382	-0.05664406
5.2e+08	-0.05440612	-0.0419091	-0.9163808	0.1258155	-0.05046518	-0.02838075	0.005686425	0.02142144
