!$
! Info: Touchstone file created by Circ.  Input file=Intel_C2M_200G_11p0in_202208016_staggered.circ
!$
# Hz S RI R 50
0	0.02814225	9.983221e-24	-0.0001273468	1.559548e-20	0.0003697325	1.013222e-21	-0.0001231093	1.507654e-20
	-0.0001273469	1.559549e-20	0.0275912	5.620339e-24	-0.0001343771	1.645645e-20	0.0001480351	3.511798e-22
	0.0003697982	1.013938e-21	-0.0001343772	1.645646e-20	0.02814348	1.024018e-23	-0.000127372	1.559857e-20
	-0.0001231093	1.507654e-20	0.0001480917	3.513038e-22	-0.0001273719	1.559856e-20	0.02758918	5.314314e-24
1e+07	0.0339445	-0.006121063	-0.0007815235	-1.313357e-06	0.002073188	0.008290269	-7.049654e-05	-0.0001122196
	-0.0007815235	-1.313357e-06	0.03346644	-0.006840085	-0.001096573	0.0002550922	0.002731987	0.008210557
	0.002073188	0.008290269	-0.001096573	0.0002550922	0.03351118	-0.00595389	-0.000572258	-3.480076e-05
	-7.049654e-05	-0.0001122196	0.002731987	0.008210557	-0.000572258	-3.480076e-05	0.03325004	-0.006805255
2e+07	0.03531331	-0.01814467	-0.0007221731	-0.0003431282	0.005477582	0.01539524	-0.0001019038	-0.0001724096
	-0.000722173	-0.0003431281	0.03570162	-0.01961891	-0.001003125	-4.881399e-06	0.006855656	0.01475492
	0.005477666	0.01539513	-0.001003125	-4.881346e-06	0.03512611	-0.01773076	-0.000558188	-0.0002348014
	-0.0001019038	-0.0001724096	0.006855662	0.01475491	-0.000558188	-0.0002348014	0.03554799	-0.0194759
3e+07	0.03079311	-0.03138675	-0.0007278314	-0.0004698197	0.0105007	0.02114978	-0.000154006	-0.0002225657
	-0.0007278313	-0.0004698197	0.03296267	-0.03417562	-0.0009216603	-6.118292e-05	0.01284886	0.01970469
	0.01050067	0.02114976	-0.0009216603	-6.11829e-05	0.03081419	-0.03091933	-0.0005955654	-0.0003249803
	-0.000154006	-0.0002225657	0.01284885	0.01970473	-0.0005955655	-0.0003249802	0.032867	-0.03397685
4e+07	0.02182762	-0.042713	-0.0007768943	-0.0005361481	0.01662433	0.02528018	-0.0002406186	-0.0002458657
	-0.0007768943	-0.0005361481	0.02587431	-0.04795333	-0.0008585306	-0.0001061267	0.02012071	0.02240001
	0.01662433	0.02528019	-0.0008585306	-0.0001061267	0.02201794	-0.04226379	-0.0006628172	-0.000365217
	-0.0002406186	-0.0002458656	0.02012072	0.02240003	-0.0006628173	-0.0003652169	0.02584149	-0.04772794
5e+07	0.009599562	-0.05084138	-0.000851994	-0.000560399	0.0233513	0.02756514	-0.0003356252	-0.0002470682
	-0.000851994	-0.000560399	0.01530392	-0.0595892	-0.0008233424	-0.0001641017	0.02789742	0.02260233
	0.0233513	0.02756515	-0.0008233424	-0.0001641017	0.009920521	-0.05045566	-0.0007460726	-0.000367466
	-0.0003356252	-0.0002470682	0.02789742	0.02260234	-0.0007460727	-0.000367466	0.01533013	-0.05935895
6e+07	-0.004591054	-0.05492737	-0.0009404853	-0.0005488002	0.03012292	0.02796999	-0.0004341366	-0.000225225
	-0.0009404853	-0.0005488002	0.002175527	-0.0682368	-0.0008291123	-0.0002351382	0.03538349	0.02028085
	0.03012292	0.02796999	-0.0008291123	-0.0002351382	-0.004180454	-0.05463344	-0.0008344676	-0.0003368196
	-0.0004341366	-0.000225225	0.03538349	0.02028083	-0.0008344675	-0.0003368196	0.002252704	-0.0680196
7e+07	-0.01933132	-0.05460894	-0.001076441	-0.0004373238	0.03641231	0.02662746	-0.0005297642	-0.0001796541
	-0.001076441	-0.0004373238	-0.01250114	-0.07337108	-0.0008843663	-0.000306837	0.04181379	0.01564941
	0.03641231	0.02662746	-0.0008843663	-0.000306837	-0.01887369	-0.05442098	-0.000919485	-0.0002776272
	-0.0005297642	-0.0001796541	0.04181379	0.01564941	-0.000919485	-0.0002776273	-0.01238482	-0.07318153
8e+07	-0.03324083	-0.04998295	-0.001226256	-0.0002003077	0.04177059	0.02381162	-0.0006172067	-0.0001116671
	-0.001226256	-0.0002003077	-0.02766993	-0.07478906	-0.0009916974	-0.000360829	0.04653067	0.009138834
	0.04177059	0.02381162	-0.0009916974	-0.000360829	-0.03277843	-0.04990272	-0.0009944021	-0.000194256
	-0.0006172067	-0.0001116671	0.04653067	0.009138836	-0.0009944021	-0.000194256	-0.02752939	-0.0746379
9e+07	-0.04508225	-0.04153858	-0.001309578	7.062325e-05	0.04586261	0.01990274	-0.0006938354	-2.189838e-05
	-0.001309578	7.062325e-05	-0.04231082	-0.07259193	-0.001146875	-0.000376307	0.04903981	0.001349124
	0.04586261	0.01990274	-0.001146875	-0.000376307	-0.04465513	-0.04155544	-0.001060575	-6.586789e-05
	-0.0006938354	-2.189838e-05	0.04903982	0.001349124	-0.001060575	-6.586785e-05	-0.04216387	-0.07248492
1e+08	-0.05379594	-0.03007495	-0.001299608	0.0003618665	0.04848763	0.01534094	-0.000752824	8.721292e-05
	-0.001299608	0.0003618665	-0.0554605	-0.06712405	-0.001331132	-0.0003348484	0.04904637	-0.007011952
	0.04848763	0.01534094	-0.001331132	-0.0003348484	-0.05344863	-0.03016899	-0.001098242	0.000143624
	-0.000752824	8.721292e-05	0.04904637	-0.007011952	-0.001098242	0.000143624	-0.05532688	-0.06706152
1.1e+08	-0.05879595	-0.01690539	-0.001230766	0.0005664122	0.04954998	0.01059508	-0.0007958884	0.0002087523
	-0.001230766	0.0005664122	-0.066517	-0.05926599	-0.001533609	-0.0002062697	0.04644382	-0.01518488
	0.04954998	0.01059508	-0.001533609	-0.0002062697	-0.05854355	-0.0169877	-0.001096306	0.0003143504
	-0.0007958884	0.0002087523	0.04644381	-0.01518488	-0.001096306	0.0003143503	-0.06643713	-0.05929104
1.2e+08	-0.05990248	-0.002873058	-0.001163961	0.0007630182	0.04913527	0.006147332	-0.0008221471	0.0003478606
	-0.001163961	0.0007630182	-0.07513126	-0.04938959	-0.001730569	-6.538891e-07	0.04141441	-0.02235613
	0.04913527	0.006147333	-0.001730569	-6.538891e-07	-0.05971654	-0.00292999	-0.001087369	0.0004880295
	-0.0008221471	0.0003478606	0.0414144	-0.02235613	-0.001087369	0.0004880295	-0.07513018	-0.04942849
1.3e+08	-0.05698073	0.01087869	-0.001076143	0.0009556465	0.04744201	0.002397882	-0.0008309261	0.0005033105
	-0.001076143	0.0009556465	-0.08088543	-0.03823704	-0.001890463	0.0002798926	0.03433108	-0.02787261
	0.04744201	0.002397882	-0.001890463	0.0002798926	-0.05684855	0.01085997	-0.001058321	0.0006668007
	-0.0008309261	0.0005033105	0.03433107	-0.0278726	-0.001058321	0.0006668007	-0.08094717	-0.03825625
1.4e+08	-0.05029298	0.02323501	-0.000962029	0.001141929	0.04476102	-0.0003265598	-0.0008076301	0.0006690253
	-0.000962029	0.001141929	-0.08364958	-0.0265978	-0.001987829	0.0006229888	0.02573069	-0.0311985
	0.04476102	-0.0003265592	-0.001987829	0.0006229888	-0.05020182	0.02326788	-0.001005001	0.0008492639
	-0.0008076301	0.0006690253	0.02573069	-0.03119849	-0.001005001	0.0008492639	-0.08376152	-0.02658858
1.5e+08	-0.04041189	0.03321605	-0.0008188312	0.001317854	0.04145548	-0.001794755	-0.0007495144	0.0008380892
	-0.0008188312	0.001317854	-0.08350994	-0.01523488	-0.002003367	0.001008424	0.01627871	-0.03196061
	0.04145548	-0.001794754	-0.002003367	0.001008424	-0.0403463	0.03331276	-0.0009238894	0.001032928
	-0.0007495144	0.0008380892	0.01627871	-0.0319606	-0.0009238894	0.001032928	-0.08366889	-0.01519285
1.6e+08	-0.02816032	0.04005592	-0.0006454589	0.00147825	0.03793469	-0.001884084	-0.0006554086	0.001002872
	-0.0006454589	0.00147825	-0.0807422	-0.004833827	-0.001925944	0.001410866	0.006723437	-0.02997853
	0.03793469	-0.001884084	-0.001925944	0.001410866	-0.02810136	0.04022568	-0.0008118607	0.001214044
	-0.0006554086	0.001002872	0.006723437	-0.02997853	-0.0008118607	0.001214044	-0.08094947	-0.004751059
1.7e+08	-0.01453675	0.0432626	-0.0004422902	0.001617295	0.03462518	-0.0005899562	-0.0005258599	0.001155542
	-0.0004422902	0.001617295	-0.07577836	0.004040428	-0.001753563	0.00180326	-0.00215644	-0.02528196
	0.03462518	-0.0005899558	-0.001753563	0.00180326	-0.01446273	0.04350956	-0.0006662948	0.001387511
	-0.0005258599	0.001155542	-0.00215644	-0.02528196	-0.0006662948	0.001387511	-0.07603368	0.004177194
1.8e+08	-0.0006282388	0.04265447	-0.0002113064	0.001728866	0.03194037	0.001972956	-0.0003632257	0.001288496
	-0.0002113064	0.001728866	-0.06916338	0.01097789	-0.001492839	0.002160286	-0.009608098	-0.01811469
	0.03194037	0.001972956	-0.001492839	0.002160286	-0.000516721	0.04297654	-0.0004855947	0.001546971
	-0.0003632257	0.001288496	-0.009608098	-0.01811469	-0.0004855947	0.001546971	-0.0694612	0.01118511
1.9e+08	0.01248175	0.03837041	4.400098e-05	0.001806954	0.03024822	0.00557606	-0.0001715341	0.001394883
	4.400098e-05	0.001806954	-0.06150539	0.0157437	-0.001156924	0.002461361	-0.01496215	-0.008924589
	0.03024822	0.00557606	-0.001156924	0.002461361	0.01265266	0.03875961	-0.0002695274	0.001684843
	-0.0001715341	0.001394883	-0.01496215	-0.008924588	-0.0002695274	0.001684843	-0.06183288	0.01603779
2e+08	0.02380794	0.03085469	0.0003172456	0.001844668	0.02983928	0.009890846	4.384673e-05	0.001468964
	0.0003172456	0.001844668	-0.05342015	0.01828328	-0.0007061392	0.002704603	-0.01768723	0.001662804
	0.02983928	0.009890846	-0.0007061392	0.002704603	0.02405766	0.03129687	-2.156924e-05	0.001792595
	4.384673e-05	0.001468964	-0.01768723	0.001662804	-2.156924e-05	0.001792595	-0.05375871	0.01867682
2.1e+08	0.03254633	0.02081396	0.0006030466	0.00183938	0.03089961	0.01451355	0.0002763929	0.001506323
	0.0006030466	0.00183938	-0.04548016	0.01870835	-0.0002189015	0.002851841	-0.01743758	0.01288539
	0.03089961	0.01451355	-0.0002189015	0.002851841	0.03289012	0.02128937	0.0002563986	0.001862597
	0.0002763929	0.001506323	-0.01743758	0.01288539	0.0002563986	0.001862597	-0.04580533	0.01920861
2.2e+08	0.03814454	0.009150114	0.0008940524	0.001787848	0.03348933	0.01899811	0.0005190749	0.001504166
	0.0008940524	0.001787848	-0.03816856	0.01727084	0.0002817706	0.002903291	-0.0140883	0.02389917
	0.03348933	0.01899811	0.0002817706	0.002903291	0.03859124	0.009635331	0.0005581831	0.001886577
	0.0005190749	0.001504166	-0.0140883	0.02389917	0.0005581831	0.001886577	-0.0384531	0.01787688
2.3e+08	0.04034559	-0.003123752	0.001182045	0.001688397	0.0375337	0.02289578	0.0007647275	0.001461247
	0.001182045	0.001688397	-0.03184716	0.01432111	0.0007763222	0.002865025	-0.007754629	0.03384318
	0.0375337	0.02289578	0.0007763222	0.002865025	0.04089743	-0.002654181	0.0008750632	0.001857586
	0.0007647275	0.001461247	-0.007754629	0.03384318	0.0008750632	0.001857586	-0.03206427	0.01502368
2.4e+08	0.03920659	-0.01497771	0.001458571	0.001541061	0.04282713	0.02579773	0.001006431	0.001377652
	0.001458571	0.001541061	-0.0267405	0.01026073	0.00125034	0.002746584	0.001209034	0.04190808
	0.04282713	0.02579773	0.00125034	0.002746584	0.03985841	-0.01454897	0.001196249	0.001770769
	0.001006431	0.001377652	0.001209034	0.04190808	0.001196249	0.001770769	-0.02686571	0.01104239
2.5e+08	0.0350855	-0.02545966	0.001715193	0.001347714	0.04905101	0.02737346	0.001237783	0.001254496
	0.001715193	0.001347714	-0.02293686	0.005494468	0.001694562	0.002558361	0.01223039	0.04740348
	0.04905101	0.02737346	0.001694562	0.002558361	0.03582508	-0.02509472	0.001509573	0.001624126
	0.001237783	0.001254496	0.01223039	0.04740348	0.001509573	0.001624126	-0.02295138	0.006330909
2.6e+08	0.0286	-0.03378013	0.001944124	0.001111822	0.0558041	0.02740202	0.001452902	0.001093763
	0.001944124	0.001111822	-0.02040618	0.0003883869	0.00210394	0.002309502	0.02455947	0.04981661
	0.0558041	0.02740202	0.00210394	0.002309502	0.02940907	-0.0334976	0.001802462	0.001418773
	0.001452902	0.001093763	0.02455947	0.04981662	0.001802462	0.001418773	-0.02029789	0.001250036
2.7e+08	0.0205647	-0.03937971	0.002138582	0.0008381898	0.06264109	0.02579139	0.001646501	0.0008978606
	0.002138582	0.0008381898	-0.01902898	-0.004761338	0.002475803	0.002006562	0.03732485	0.04885558
	0.06264109	0.02579139	0.002475803	0.002006562	0.02142057	-0.0391921	0.002062934	0.00115894
	0.001646501	0.0008978606	0.03732485	0.04885558	0.002062934	0.00115894	-0.01879412	-0.003907092
2.8e+08	0.01191117	-0.0419727	0.002292974	0.000532524	0.06911426	0.02258277	0.001813632	0.0006696775
	0.002292974	0.000532524	-0.01863263	-0.009746161	0.002807946	0.001653014	0.04959951	0.04447606
	0.06911426	0.02258277	0.002807946	0.001653014	0.01278848	-0.04188504	0.002280488	0.0008516081
	0.001813632	0.0006696775	0.04959951	0.04447606	0.002280488	0.0008516081	-0.01827657	-0.008932403
2.9e+08	0.003600733	-0.04156399	0.002402865	0.0002010419	0.07481309	0.01794288	0.001949651	0.0004124054
	0.002402865	0.0002010419	-0.01902872	-0.014447	0.003096659	0.00125011	0.06047076	0.03688737
	0.07481309	0.01794288	0.003096659	0.00125011	0.004474009	-0.04157402	0.002446792	0.0005057113
	0.001949651	0.0004124054	0.06047076	0.03688737	0.002446792	0.0005057113	-0.01856522	-0.0137053
3e+08	-0.003460204	-0.0384413	0.002464848	-0.0001499003	0.07939792	0.0121432	0.002050034	0.0001296348
	0.002464848	-0.0001499003	-0.02004582	-0.01882431	0.003335501	0.0007983601	0.06910816	0.02653889
	0.07939792	0.0121432	0.003335501	0.0007983601	-0.00261441	-0.03853903	0.002555937	0.0001314366
	0.002050034	0.0001296348	0.06910816	0.02653889	0.002555937	0.0001314366	-0.01949666	-0.01818218
3.1e+08	-0.008498521	-0.0331422	0.00247628	-0.0005139115	0.08262489	0.005533598	0.002110262	-0.0001745355
	0.00247628	-0.0005139115	-0.02155428	-0.02289757	0.003514963	0.000299292	0.07482519	0.01408986
	0.08262489	0.005533598	0.003514963	0.000299292	-0.007699643	-0.03331138	0.002604503	-0.0002605505
	0.002110262	-0.0001745355	0.07482519	0.01408986	0.002604503	-0.0002605505	-0.02094804	-0.02237721
3.2e+08	-0.01093814	-0.02640304	0.002434957	-0.000884558	0.0843599	-0.001490642	0.002125893	-0.0004951012
	0.002434957	-0.000884558	-0.02348105	-0.02671995	0.003623114	-0.0002424299	0.07712952	0.0003641975
	0.0843599	-0.001490642	0.003623114	-0.0002424299	-0.01019942	-0.02662206	0.002591242	-0.0006599281
	0.002125893	-0.0004951012	0.07712952	0.0003641975	0.002591242	-0.0006599281	-0.02285223	-0.02633559
3.3e+08	-0.01044535	-0.01909241	0.002339005	-0.001255121	0.08458326	-0.008520651	0.002092694	-0.0008261264
	0.002339005	-0.001255121	-0.02581383	-0.03034956	0.00364697	-0.0008179655	0.07575963	-0.01370562
	0.08458326	-0.008520651	0.00364697	-0.0008179655	-0.00977271	-0.01933675	0.002516672	-0.00105706
	0.002092694	-0.0008261264	0.07575963	-0.01370562	0.002516672	-0.00105706	-0.02520034	-0.03010714
3.4e+08	-0.006955068	-0.01213642	0.002186932	-0.001618304	0.08338714	-0.01516493	0.002006977	-0.001160443
	0.002186932	-0.001618304	-0.0285955	-0.03382352	0.003574568	-0.001413229	0.07070734	-0.02714212
	0.08338714	-0.01516493	0.003574568	-0.001413229	-0.006346392	-0.01238043	0.002382576	-0.001443239
	0.002006977	-0.001160443	0.07070734	-0.02714212	0.002382576	-0.001443239	-0.02803648	-0.03371898
3.5e+08	-0.0006741833	-0.006439635	0.001977825	-0.001965978	0.08096382	-0.02107782	0.001865959	-0.001489528
	0.001977825	-0.001965978	-0.03190913	-0.03713565	0.003397116	-0.002009477	0.06222198	-0.0389897
	0.08096382	-0.02107782	0.003397116	-0.002009477	-0.0001195522	-0.00666034	0.002191539	-0.001810618
	0.001865959	-0.001489528	0.06222198	-0.0389897	0.002191539	-0.001810618	-0.03144304	-0.03715556
3.6e+08	0.007935549	-0.00280986	0.001711804	-0.002289128	0.0775898	-0.02598252	0.001668353	-0.001803669
	0.001711804	-0.002289128	-0.03585757	-0.04022124	0.003110782	-0.002584472	0.050799	-0.04838187
	0.0775898	-0.02598252	0.003110782	-0.002584472	0.008453524	-0.002987283	0.001946616	-0.002152164
	0.001668353	-0.001803669	0.050799	-0.04838187	0.001946616	-0.002152164	-0.03551936	-0.04034185
3.7e+08	0.01819636	-0.001888018	0.001390403	-0.002577874	0.07360451	-0.0296908	0.001414722	-0.002092267
	0.001390403	-0.002577874	-0.04053762	-0.04294841	0.00271818	-0.003114306	0.0371502	-0.05460418
	0.07360451	-0.0296908	0.00271818	-0.003114306	0.01870085	-0.002008748	0.001651007	-0.002461376
	0.001414722	-0.002092267	0.0371502	-0.05460418	0.001651007	-0.002461376	-0.04035623	-0.04313708
3.8e+08	0.02927062	-0.004092967	0.00101724	-0.002821741	0.0693847	-0.03211698	0.001108114	-0.002344197
	0.00101724	-0.002821741	-0.04601306	-0.04511973	0.002228793	-0.0035758	0.0221586	-0.05714735
	0.0693847	-0.03211698	0.002228793	-0.0035758	0.02978834	-0.004151903	0.00130822	-0.002731817
	0.001108114	-0.002344197	0.0221586	-0.05714735	0.00130822	-0.002731817	-0.0460094	-0.04533643
3.9e+08	0.04023036	-0.009584294	0.0005982769	-0.003010256	0.06531606	-0.03328541	0.0007541218	-0.002548629
	0.0005982769	-0.003010256	-0.05228781	-0.04648114	0.001658295	-0.003949029	0.006819751	-0.05574916
	0.06531606	-0.03328541	0.001658295	-0.003949029	0.04078974	-0.009583627	0.0009220935	-0.002957003
	0.0007541218	-0.002548629	0.006819751	-0.05574916	0.0009220935	-0.002957003	-0.05247158	-0.04668017
4e+08	0.0501385	-0.01824479	0.0001420754	-0.003133612	0.06176159	-0.03333035	0.0003610085	-0.002695737
	0.0001420754	-0.003133612	-0.05928049	-0.04674231	0.001026986	-0.004219205	-0.007828283	-0.05041748
	0.06176159	-0.03333035	0.001026986	-0.004219205	0.05076649	-0.01819707	0.0004970917	-0.003130132
	0.0003610085	-0.002695737	-0.007828283	-0.05041748	0.0004970917	-0.003130132	-0.0596501	-0.04687588
4.1e+08	0.05813009	-0.02969074	-0.0003402814	-0.003183473	0.05903072	-0.03248654	-6.061342e-05	-0.002777516
	-0.0003402814	-0.003183473	-0.06680698	-0.04560513	0.000357956	-0.004377872	-0.02077842	-0.04143446
	0.05903072	-0.03248654	0.000357956	-0.004377872	0.05884966	-0.02961623	3.895753e-05	-0.00324412
	-6.061342e-05	-0.002777516	-0.02077842	-0.04143446	3.895753e-05	-0.00324412	-0.06734827	-0.04562566
4.2e+08	0.06348737	-0.04330258	-0.0008354483	-0.003153792	0.05735068	-0.03107238	-0.000498294	-0.002788454
	-0.0008354483	-0.003153792	-0.07457143	-0.04279721	-0.0003258858	-0.004423141	-0.03112837	-0.02933978
	0.05735068	-0.03107238	-0.0003258858	-0.004423141	0.0643149	-0.04322807	-0.0004451516	-0.003291874
	-0.000498294	-0.002788454	-0.03112837	-0.02933978	-0.0004451516	-0.003291874	-0.07525764	-0.04266108
4.3e+08	0.0657042	-0.05828094	-0.001328529	-0.003041487	0.05684398	-0.02946042	-0.0009386801	-0.002725874
	-0.001328529	-0.003041487	-0.08216865	-0.03811367	-0.001003433	-0.004358847	-0.03814602	-0.01489262
	0.05684398	-0.02946042	-0.001003433	-0.004358847	0.06664761	-0.05823838	-0.0009461798	-0.00326673
	-0.0009386801	-0.002725874	-0.03814602	-0.01489262	-0.0009461798	-0.00326673	-0.08296196	-0.03778486
4.4e+08	0.06452846	-0.07371734	-0.001803861	-0.002846917	0.05751487	-0.02804517	-0.001368076	-0.002590212
	-0.001803861	-0.002846917	-0.08910103	-0.03145609	-0.001657517	-0.004192907	-0.04132163	0.0009815684
	0.05751487	-0.02804517	-0.001657517	-0.004192907	0.06558653	-0.07374046	-0.001452816	-0.003163203
	-0.001368076	-0.002590212	-0.04132163	0.0009815684	-0.001452816	-0.003163203	-0.08995427	-0.03090852
4.5e+08	0.05998167	-0.08867465	-0.002246106	-0.002574072	0.05924818	-0.0272053	-0.00177347	-0.002384825
	-0.002246106	-0.002574072	-0.09480802	-0.02286733	-0.002275343	-0.00393528	-0.04040309	0.01725744
	0.05924818	-0.0272053	-0.002275343	-0.00393528	0.06114327	-0.08879641	-0.001951975	-0.002977724
	-0.00177347	-0.002384825	-0.04040309	0.01725744	-0.001951975	-0.002977724	-0.09566782	-0.02208762
4.6e+08	0.05235263	-0.1022701	-0.002641168	-0.002230372	0.06181894	-0.0272675	-0.002143294	-0.002115512
	-0.002641168	-0.002230372	-0.09871001	-0.01255805	-0.002848008	-0.003596051	-0.03541013	0.03288123
	0.06181894	-0.0272675	-0.002848008	-0.003596051	0.05359727	-0.1025199	-0.002429184	-0.002709212
	-0.002143294	-0.002115512	-0.03541013	0.03288123	-0.002429184	-0.002709212	-0.09952067	-0.01154711
4.7e+08	0.04216708	-0.11375	-0.002977338	-0.001826002	0.06491457	-0.02847516	-0.002467773	-0.001790024
	-0.002977338	-0.001826002	-0.1002614	-0.0009196149	-0.003369719	-0.003183746	-0.02662949	0.04684223
	0.06491457	-0.02847516	-0.003369719	-0.003183746	0.04346648	-0.1141507	-0.002869063	-0.00235993
	-0.002467773	-0.001790024	-0.02662949	0.04684223	-0.002869063	-0.00235993	-0.1009674	0.0003078245
4.8e+08	0.03013557	-0.1225505	-0.003245753	-0.001373189	0.06816479	-0.03096743	-0.0027393	-0.001417251
	-0.003245753	-0.001373189	-0.09900596	0.01148403	-0.003836133	-0.002704507	-0.0145918	0.05823715
	0.06816479	-0.03096743	-0.003836133	-0.002704507	0.03145615	-0.1231168	-0.003256535	-0.001935357
	-0.0027393	-0.001417251	-0.0145918	0.05823715	-0.003256535	-0.001935357	-0.099557	0.01289823
4.9e+08	0.01708971	-0.1283392	-0.003440718	-0.0008851826	0.07117621	-0.03476785	-0.002952353	-0.001006669
	-0.003440718	-0.0008851826	-0.09463237	0.02393639	-0.004242256	-0.002162496	-3.421847e-05	0.06632658
