!$
! Info: Touchstone file created by Circ.  Input file=Intel_C2M_200G_11p0in_202208016_staggered.circ
!$
# Hz S RI R 50
0	0.02757832	5.461231e-24	0.0001060056	1.62991e-22	0.0001484136	3.536891e-22	0.0001059414	1.627438e-22
	0.0001060056	1.62991e-22	0.0275912	5.620339e-24	0.0001059895	1.628733e-22	0.0001480351	3.511798e-22
	0.0001484702	3.538137e-22	0.0001059895	1.628751e-22	0.02757326	5.191942e-24	0.0001059551	1.6263e-22
	0.0001059414	1.627456e-22	0.0001480917	3.513038e-22	0.0001059551	1.6263e-22	0.02758918	5.314314e-24
1e+07	0.03386512	-0.006517021	2.067798e-05	8.887509e-06	0.002347638	0.008145635	4.870808e-06	2.684888e-05
	2.067798e-05	8.887509e-06	0.03346644	-0.006840085	6.544463e-05	6.729051e-06	0.002731987	0.008210557
	0.002347638	0.008145635	6.544463e-05	6.729051e-06	0.03431741	-0.006563899	2.837059e-05	3.104556e-05
	4.870808e-06	2.684888e-05	0.002731987	0.008210557	2.837059e-05	3.104556e-05	0.03325004	-0.006805255
2e+07	0.03639812	-0.01929511	1.116456e-05	2.781305e-05	0.006526869	0.01476587	5.596616e-06	7.26382e-06
	1.116456e-05	2.781305e-05	0.03570162	-0.01961891	4.662264e-05	2.59044e-05	0.006855656	0.01475492
	0.006526875	0.01476586	4.662264e-05	2.59044e-05	0.03665901	-0.01948988	2.199509e-05	2.465098e-05
	5.596616e-06	7.26382e-06	0.006855662	0.01475491	2.199509e-05	2.465098e-05	0.03554799	-0.0194759
3e+07	0.03387301	-0.03397558	3.353882e-05	2.94802e-05	0.01256323	0.01971789	7.262839e-06	1.919984e-06
	3.353882e-05	2.94802e-05	0.03296267	-0.03417562	3.757723e-05	4.040008e-05	0.01284886	0.01970469
	0.01256322	0.01971793	3.757723e-05	4.040008e-05	0.03400341	-0.03414633	1.907792e-05	2.437753e-05
	7.262842e-06	1.919984e-06	0.01284885	0.01970473	1.907792e-05	2.437753e-05	0.032867	-0.03397685
4e+07	0.02693105	-0.04793779	5.015107e-05	2.194115e-05	0.01987239	0.02239996	9.172881e-06	-3.905498e-07
	5.015107e-05	2.194115e-05	0.02587431	-0.04795333	3.221573e-05	4.780236e-05	0.02012071	0.02240001
	0.0198724	0.02239998	3.221573e-05	4.780235e-05	0.02698242	-0.04804623	1.764675e-05	2.427588e-05
	9.172882e-06	-3.905509e-07	0.02012072	0.02240003	1.764675e-05	2.427588e-05	0.02584149	-0.04772794
5e+07	0.01644252	-0.05979236	6.074801e-05	9.293903e-06	0.02768351	0.02258319	1.13316e-05	-1.59558e-06
	6.074801e-05	9.293902e-06	0.01530392	-0.0595892	4.916858e-05	3.545969e-05	0.02789742	0.02260233
	0.02768352	0.02258319	4.916858e-05	3.545969e-05	0.01645356	-0.05982614	2.360048e-05	1.788052e-05
	1.13316e-05	-1.595581e-06	0.02789742	0.02260234	2.360048e-05	1.788052e-05	0.01533013	-0.05935895
6e+07	0.003333456	-0.0686735	6.581851e-05	-5.584598e-06	0.03520404	0.02024052	1.25639e-05	-3.64676e-06
	6.581851e-05	-5.584598e-06	0.002175527	-0.0682368	5.937815e-05	1.967075e-05	0.03538349	0.02028085
	0.03520404	0.0202405	5.937815e-05	1.967075e-05	0.003335215	-0.0686348	2.738813e-05	1.034627e-05
	1.25639e-05	-3.646759e-06	0.03538349	0.02028083	2.738813e-05	1.034627e-05	0.002252704	-0.0680196
7e+07	-0.01138306	-0.07404029	6.574045e-05	-2.089567e-05	0.04167161	0.01558682	1.289528e-05	-6.091393e-06
	6.574045e-05	-2.089567e-05	-0.01250114	-0.07337108	6.309402e-05	2.588749e-06	0.04181379	0.01564941
	0.0416716	0.01558682	6.309402e-05	2.588748e-06	-0.01136808	-0.07394067	2.868231e-05	2.56781e-06
	1.289528e-05	-6.091394e-06	0.04181379	0.01564941	2.868231e-05	2.56781e-06	-0.01238482	-0.07318153
8e+07	-0.02664658	-0.07567676	6.10513e-05	-3.531985e-05	0.04643117	0.009052227	1.237724e-05	-8.621789e-06
	6.10513e-05	-3.531985e-05	-0.02766993	-0.07478906	6.077792e-05	-1.410637e-05	0.04653067	0.009138834
	0.04643117	0.009052229	6.077792e-05	-1.410637e-05	-0.02660425	-0.07553247	2.765949e-05	-4.897985e-06
	1.237724e-05	-8.62179e-06	0.04653067	0.009138836	2.765949e-05	-4.897986e-06	-0.02752939	-0.0746379
9e+07	-0.04143343	-0.0736737	5.232769e-05	-4.788059e-05	0.04899086	0.001234922	1.111963e-05	-1.095611e-05
	5.232769e-05	-4.788059e-05	-0.04231082	-0.07259193	5.327696e-05	-2.88525e-05	0.04903981	0.001349124
	0.04899087	0.001234922	5.327696e-05	-2.88525e-05	-0.04135663	-0.07350158	2.455504e-05	-1.151715e-05
	1.111962e-05	-1.095611e-05	0.04903982	0.001349124	2.455504e-05	-1.151715e-05	-0.04216387	-0.07248492
1e+08	-0.05479162	-0.06837075	3.906934e-05	-5.81156e-05	0.0490574	-0.00715962	9.198491e-06	-1.28665e-05
	3.906934e-05	-5.81156e-05	-0.0554605	-0.06712405	4.001926e-05	-4.098281e-05	0.04904637	-0.007011952
	0.0490574	-0.00715962	4.001926e-05	-4.098281e-05	-0.05467092	-0.06818341	1.921607e-05	-1.696119e-05
	9.198491e-06	-1.28665e-05	0.04904637	-0.007011952	1.921607e-05	-1.696119e-05	-0.05532688	-0.06706152
1.1e+08	-0.06608167	-0.06055145	2.448398e-05	-5.948753e-05	0.04652937	-0.01538052	7.433552e-06	-1.410694e-05
	2.448398e-05	-5.948753e-05	-0.066517	-0.05926599	2.510832e-05	-4.246777e-05	0.04644382	-0.01518488
	0.04652937	-0.01538052	2.510832e-05	-4.246777e-05	-0.06594728	-0.06045546	1.321203e-05	-1.863136e-05
	7.433552e-06	-1.410694e-05	0.04644381	-0.01518488	1.321203e-05	-1.863136e-05	-0.06643713	-0.05929104
1.2e+08	-0.07488241	-0.05067443	1.315008e-05	-5.87332e-05	0.04157807	-0.0226222	6.080865e-06	-1.537638e-05
	1.315008e-05	-5.873321e-05	-0.07513126	-0.04938959	1.427423e-05	-4.12243e-05	0.04141441	-0.02235613
	0.04157807	-0.0226222	1.427423e-05	-4.12243e-05	-0.07479074	-0.0506109	8.311228e-06	-1.932403e-05
	6.080865e-06	-1.537638e-05	0.0414144	-0.02235613	8.311228e-06	-1.932403e-05	-0.07513018	-0.04942849
1.3e+08	-0.08079835	-0.03949636	5.22408e-06	-5.663054e-05	0.03456946	-0.02823225	3.939709e-06	-1.677792e-05
	5.22408e-06	-5.663054e-05	-0.08088543	-0.03823704	5.300678e-06	-3.861108e-05	0.03433108	-0.02787261
	0.03456946	-0.02823225	5.300678e-06	-3.861108e-05	-0.08075166	-0.03943537	3.807323e-06	-1.933345e-05
	3.939709e-06	-1.677792e-05	0.03433107	-0.0278726	3.807323e-06	-1.933345e-05	-0.08094717	-0.03825625
1.4e+08	-0.08370354	-0.02781173	-1.417418e-07	-5.391205e-05	0.02603308	-0.03167441	9.502284e-07	-1.798762e-05
	-1.417417e-07	-5.391205e-05	-0.08364958	-0.0265978	-2.361877e-06	-3.502807e-05	0.02573069	-0.0311985
	0.02603308	-0.03167441	-2.361877e-06	-3.502807e-05	-0.08370298	-0.02774311	-4.282064e-07	-1.872573e-05
	9.502285e-07	-1.798762e-05	0.02573069	-0.03119849	-4.282063e-07	-1.872573e-05	-0.08376152	-0.02658858
1.5e+08	-0.08368512	-0.0163868	-5.928904e-06	-5.068567e-05	0.01662702	-0.0325728	-2.638338e-06	-1.866e-05
	-5.928904e-06	-5.068567e-05	-0.08350994	-0.01523488	-8.752341e-06	-3.065186e-05	0.01627871	-0.03196061
	0.01662702	-0.03257279	-8.752341e-06	-3.065186e-05	-0.08373763	-0.01630142	-4.449892e-06	-1.753586e-05
	-2.638337e-06	-1.866e-05	0.01627871	-0.0319606	-4.449892e-06	-1.753586e-05	-0.08366889	-0.01519285
1.6e+08	-0.08101831	-0.00590987	-1.193845e-05	-4.668954e-05	0.007092975	-0.03074197	-6.724069e-06	-1.858659e-05
	-1.193845e-05	-4.668954e-05	-0.0807422	-0.004833827	-1.401933e-05	-2.569673e-05	0.006723437	-0.02997853
	0.007092975	-0.03074197	-1.401933e-05	-2.569673e-05	-0.08113192	-0.005793163	-8.254257e-06	-1.57612e-05
	-6.724069e-06	-1.858659e-05	0.006723437	-0.02997853	-8.254257e-06	-1.57612e-05	-0.08094947	-0.004751059
1.7e+08	-0.07613393	0.003051106	-1.804155e-05	-4.163399e-05	-0.001795491	-0.02620437	-1.116047e-05	-1.755608e-05
	-1.804155e-05	-4.163399e-05	-0.07577836	0.004040428	-1.736776e-05	-2.051169e-05	-0.00215644	-0.02528196
	-0.00179549	-0.02620437	-1.736776e-05	-2.051169e-05	-0.07631192	0.003219888	-1.162428e-05	-1.338211e-05
	-1.116047e-05	-1.755608e-05	-0.00215644	-0.02528196	-1.162428e-05	-1.338211e-05	-0.07603368	0.004177194
1.8e+08	-0.06957579	0.0100825	-2.382969e-05	-3.53386e-05	-0.009288521	-0.01919482	-1.570357e-05	-1.539106e-05
	-2.382969e-05	-3.53386e-05	-0.06916338	0.01097789	-1.961153e-05	-1.507538e-05	-0.009608098	-0.01811469
	-0.00928852	-0.01919482	-1.961153e-05	-1.507538e-05	-0.06981319	0.01032726	-1.444206e-05	-1.037689e-05
	-1.570357e-05	-1.539106e-05	-0.009608098	-0.01811469	-1.444206e-05	-1.037689e-05	-0.0694612	0.01118511
1.9e+08	-0.0619512	0.01494512	-2.885036e-05	-2.780976e-05	-0.0147168	-0.01015115	-2.001016e-05	-1.2032e-05
	-2.885036e-05	-2.780976e-05	-0.06150539	0.0157437	-2.133404e-05	-9.280116e-06	-0.01496215	-0.008924589
	-0.0147168	-0.01015115	-2.133404e-05	-9.280116e-06	-0.06223342	0.01528893	-1.690066e-05	-6.701761e-06
	-2.001016e-05	-1.2032e-05	-0.01496215	-0.008924588	-1.690066e-05	-6.701761e-06	-0.06183288	0.01603779
2e+08	-0.05387626	0.01757967	-3.272116e-05	-1.912633e-05	-0.01754591	0.0003113126	-2.375575e-05	-7.477745e-06
	-3.272116e-05	-1.912633e-05	-0.05342015	0.01828328	-2.240129e-05	-3.170937e-06	-0.01768723	0.001662804
	-0.01754591	0.0003113129	-2.240129e-05	-3.170937e-06	-0.05418088	0.01804033	-1.882181e-05	-2.405129e-06
	-2.375575e-05	-7.477745e-06	-0.01768723	0.001662804	-1.882181e-05	-2.405129e-06	-0.05375871	0.01867682
2.1e+08	-0.04592491	0.01809297	-3.508003e-05	-9.478056e-06	-0.01742369	0.0114397	-2.660186e-05	-1.815536e-06
	-3.508003e-05	-9.478056e-06	-0.04548016	0.01870835	-2.270418e-05	3.183046e-06	-0.01743758	0.01288539
	-0.01742369	0.0114397	-2.270418e-05	3.183046e-06	-0.04622244	0.01868128	-2.003317e-05	2.42772e-06
	-2.660186e-05	-1.815536e-06	-0.01743758	0.01288539	-2.003317e-05	2.42772e-06	-0.04580533	0.01920861
2.2e+08	-0.03858317	0.0167327	-3.560035e-05	8.355519e-07	-0.01421596	0.0223973	-2.822241e-05	4.772772e-06
	-3.560035e-05	8.355519e-07	-0.03816856	0.01727084	-2.212602e-05	9.683093e-06	-0.0140883	0.02389917
	-0.01421596	0.0223973	-2.212602e-05	9.683093e-06	-0.03884071	0.01744924	-2.037448e-05	7.672856e-06
	-2.822241e-05	4.772772e-06	-0.0140883	0.02389917	-2.037448e-05	7.672856e-06	-0.0384531	0.01787688
2.3e+08	-0.03221683	0.01384589	-3.402724e-05	1.141619e-05	-0.008026393	0.03232742	-2.832792e-05	1.201414e-05
	-3.402724e-05	1.141619e-05	-0.03184716	0.01432111	-2.055684e-05	1.619745e-05	-0.007754629	0.03384318
	-0.008026393	0.03232742	-2.055684e-05	1.619745e-05	-0.03240194	0.01468104	-1.970186e-05	1.316463e-05
	-2.832792e-05	1.201414e-05	-0.007754629	0.03384318	-1.970186e-05	1.316463e-05	-0.03206427	0.01502368
2.4e+08	-0.02705508	0.009832232	-3.020341e-05	2.178565e-05	0.0008034031	0.04042138	-2.669151e-05	1.954853e-05
	-3.020341e-05	2.178565e-05	-0.0267405	0.01026073	-1.790289e-05	2.255052e-05	0.001209034	0.04190808
	0.0008034032	0.04042138	-1.790289e-05	2.255052e-05	-0.02713824	0.01076651	-1.789731e-05	1.869454e-05
	-2.669151e-05	1.954853e-05	0.001209034	0.04190808	-1.789731e-05	1.869454e-05	-0.02686571	0.01104239
2.5e+08	-0.02319101	0.005096256	-2.409003e-05	3.141099e-05	0.01171393	0.04598547	-2.31715e-05	2.694602e-05
	-2.409003e-05	3.141099e-05	-0.02293686	0.005494468	-1.409908e-05	2.852285e-05	0.01223039	0.04740348
	0.01171393	0.04598547	-1.409908e-05	2.852285e-05	-0.02314944	0.006101928	-1.488246e-05	2.400837e-05
	-2.31715e-05	2.694602e-05	0.01223039	0.04740348	-1.488246e-05	2.400837e-05	-0.02295138	0.006330909
2.6e+08	-0.02059872	5.254318e-06	-1.578038e-05	3.973307e-05	0.02396677	0.04849982	-1.773174e-05	3.372517e-05
	-1.578038e-05	3.973307e-05	-0.02040618	0.0003883869	-9.127871e-06	3.385114e-05	0.02455947	0.04981661
	0.02396677	0.04849982	-9.127871e-06	3.385114e-05	-0.0204177	0.001048456	-1.06346e-05	2.88128e-05
	-1.773174e-05	3.372517e-05	0.02455947	0.04981662	-1.06346e-05	2.88128e-05	-0.02029789	0.001250036
2.7e+08	-0.01916195	-0.005142225	-5.506981e-06	4.619851e-05	0.03669978	0.04766208	-1.045711e-05	3.937828e-05
	-5.506981e-06	4.619851e-05	-0.01902898	-0.004761338	-3.037398e-06	3.823783e-05	0.03732485	0.04885558
	0.03669978	0.04766208	-3.037398e-06	3.823783e-05	-0.01883662	-0.004098806	-5.203623e-06	3.278614e-05
	-1.045711e-05	3.937828e-05	0.03732485	0.04885558	-5.203623e-06	3.278614e-05	-0.01879412	-0.003907092
2.8e+08	-0.01870991	-0.01013469	6.354166e-06	5.029047e-05	0.04899192	0.04341511	-1.566538e-06	4.339927e-05
	6.354166e-06	5.029047e-05	-0.01863263	-0.009746161	4.040383e-06	4.13683e-05	0.04959951	0.04447606
	0.04899192	0.04341511	4.040383e-06	4.13683e-05	-0.01824605	-0.00912865	1.270357e-06	3.559669e-05
	-1.566538e-06	4.339927e-05	0.04959951	0.04447606	1.270357e-06	3.559669e-05	-0.01827657	-0.008932403
2.9e+08	-0.01905464	-0.01485006	1.928956e-05	5.156394e-05	0.05993272	0.03595387	8.581778e-06	4.531893e-05
	1.928956e-05	5.156394e-05	-0.01902872	-0.014447	1.187457e-05	4.293612e-05	0.06047076	0.03688737
	0.05993272	0.03595387	1.187457e-05	4.293612e-05	-0.01846767	-0.01391688	8.549993e-06	3.693023e-05
	8.581778e-06	4.531893e-05	0.06047076	0.03688737	8.549993e-06	3.693023e-05	-0.01856522	-0.0137053
3e+08	-0.02002391	-0.01924631	3.265951e-05	4.968001e-05	0.06868994	0.02571306	1.949398e-05	4.474159e-05
	3.265951e-05	4.968001e-05	-0.02004582	-0.01882431	2.013245e-05	4.267642e-05	0.06910816	0.02653889
	0.06868994	0.02571306	2.013245e-05	4.267642e-05	-0.01933822	-0.01841642	1.629923e-05	3.652039e-05
	1.949398e-05	4.474159e-05	0.06910816	0.02653889	1.629923e-05	3.652039e-05	-0.01949666	-0.01818218
3.1e+08	-0.02148641	-0.0233414	4.571045e-05	4.444394e-05	0.07457126	0.01333806	3.055193e-05	4.138621e-05
	4.571045e-05	4.444394e-05	-0.02155428	-0.02289757	2.838981e-05	4.039794e-05	0.07482519	0.01408986
	0.07457126	0.01333806	2.838981e-05	4.039794e-05	-0.02073367	-0.02263874	2.409282e-05	3.418148e-05
	3.055193e-05	4.138621e-05	0.07482519	0.01408986	2.409282e-05	3.418148e-05	-0.02094804	-0.02237721
3.2e+08	-0.02336694	-0.02718808	5.761164e-05	3.583862e-05	0.07707481	-0.0003594492	4.103759e-05	3.5126e-05
	5.761164e-05	3.583862e-05	-0.02348105	-0.02671995	3.614446e-05	3.601902e-05	0.07712952	0.0003641975
	0.07707481	-0.0003594493	3.614446e-05	3.601902e-05	-0.02258478	-0.02662742	3.143984e-05	2.983615e-05
	4.103759e-05	3.5126e-05	0.07712952	0.0003641975	3.143984e-05	2.983615e-05	-0.02285223	-0.02633559
3.3e+08	-0.02565111	-0.03084538	6.749098e-05	2.405995e-05	0.07592646	-0.01445649	5.017333e-05	2.602279e-05
	6.749098e-05	2.405995e-05	-0.02581383	-0.03034956	4.285291e-05	2.958943e-05	0.07575963	-0.01370562
	0.07592646	-0.01445649	4.285291e-05	2.958943e-05	-0.02488013	-0.03043212	3.781126e-05	2.354059e-05
	5.017333e-05	2.602279e-05	0.07575963	-0.01370562	3.781126e-05	2.354059e-05	-0.02520034	-0.03010714
3.4e+08	-0.02838024	-0.03435247	7.449319e-05	9.538216e-06	0.07110276	-0.02798171	5.717115e-05	1.43564e-05
	7.449319e-05	9.538216e-06	-0.0285955	-0.03382352	4.796415e-05	2.130942e-05	0.07070734	-0.02714212
	0.07110276	-0.02798171	4.796415e-05	2.130942e-05	-0.02766148	-0.03408129	4.268049e-05	1.549454e-05
	5.717115e-05	1.43564e-05	0.07070734	-0.02714212	4.268049e-05	1.549454e-05	-0.02803648	-0.03371898
3.5e+08	-0.03163676	-0.03770627	7.78471e-05	-7.049837e-06	0.06283622	-0.03998152	6.129857e-05	6.27766e-07
	7.78471e-05	-7.049837e-06	-0.03190913	-0.03713565	5.096523e-05	1.153539e-05	0.06222198	-0.0389897
	0.06283622	-0.03998152	5.096523e-05	1.153539e-05	-0.03100962	-0.0375621	4.556335e-05	6.044698e-06
	6.129857e-05	6.277661e-07	0.06222198	-0.0389897	4.556335e-05	6.044698e-06	-0.03144304	-0.03715556
3.6e+08	-0.03552425	-0.04084573	7.693897e-05	-2.48025e-05	0.05160487	-0.04958681	6.194368e-05	-1.444089e-05
	7.693897e-05	-2.48025e-05	-0.03585757	-0.04022124	5.142477e-05	7.64742e-07	0.050799	-0.04838187
	0.05160487	-0.04958681	5.142477e-05	7.64742e-07	-0.03502363	-0.04080329	4.605982e-05	-4.325849e-06
	6.194368e-05	-1.444089e-05	0.050799	-0.04838187	4.605982e-05	-4.325849e-06	-0.03551936	-0.04034185
3.7e+08	-0.04014182	-0.04364287	7.139098e-05	-4.262074e-05	0.03810372	-0.05607586	5.86857e-05	-2.994248e-05
	7.139098e-05	-4.262074e-05	-0.04053762	-0.04294841	4.903459e-05	-1.03745e-05	0.0371502	-0.05460418
	0.03810372	-0.05607586	4.903459e-05	-1.03745e-05	-0.03979575	-0.04366854	4.389079e-05	-1.502489e-05
	5.86857e-05	-2.994248e-05	0.0371502	-0.05460418	4.389079e-05	-1.502489e-05	-0.04035623	-0.04313708
3.8e+08	-0.04555742	-0.04590377	6.111689e-05	-5.928438e-05	0.02320097	-0.05892732	5.135285e-05	-4.483946e-05
	6.111689e-05	-5.928438e-05	-0.04601306	-0.04511973	4.364322e-05	-2.116626e-05	0.0221586	-0.05714735
	0.02320097	-0.05892732	4.364322e-05	-2.116626e-05	-0.04538537	-0.04595741	3.893063e-05	-2.537529e-05
	5.135285e-05	-4.483946e-05	0.0221586	-0.05714735	3.893063e-05	-2.537529e-05	-0.0460094	-0.04533643
3.9e+08	-0.05178081	-0.0473768	4.637161e-05	-7.353141e-05	0.007880641	-0.05786282	4.00593e-05	-5.803929e-05
	4.637161e-05	-7.353141e-05	-0.05228781	-0.04648114	3.528248e-05	-3.084114e-05	0.006819751	-0.05574916
	0.007880641	-0.05786282	3.528248e-05	-3.084114e-05	-0.051791	-0.04741369	3.122408e-05	-3.466342e-05
	4.00593e-05	-5.803929e-05	0.006819751	-0.05574916	3.122408e-05	-3.466342e-05	-0.05247158	-0.04668017
4e+08	-0.05873808	-0.04777225	2.776259e-05	-8.416161e-05	-0.006826079	-0.05287066	2.522996e-05	-6.84744e-05
	2.776259e-05	-8.416161e-05	-0.05928049	-0.04674231	2.418478e-05	-3.862347e-05	-0.007828283	-0.05041748
	-0.006826079	-0.05287066	2.418478e-05	-3.862347e-05	-0.05892785	-0.04774665	2.10049e-05	-4.217591e-05
	2.522996e-05	-6.84744e-05	-0.007828283	-0.05041748	2.10049e-05	-4.217591e-05	-0.0596501	-0.04687588
4.1e+08	-0.06625354	-0.04679024	6.22487e-06	-9.0144e-05	-0.01991347	-0.04421167	7.576691e-06	-7.519806e-05
	6.22487e-06	-9.0144e-05	-0.06680698	-0.04560513	1.078532e-05	-4.378542e-05	-0.02077842	-0.04143446
	-0.01991347	-0.04421167	1.078532e-05	-4.378542e-05	-0.06660853	-0.0466574	8.686635e-06	-4.725402e-05
	7.576691e-06	-7.519806e-05	-0.02077842	-0.04143446	8.686635e-06	-4.725402e-05	-0.06734827	-0.04562566
4.2e+08	-0.07403999	-0.04415345	-1.702697e-05	-9.070616e-05	-0.03047451	-0.03240388	-1.192871e-05	-7.746462e-05
	-1.702697e-05	-9.070616e-05	-0.07457143	-0.04279721	-4.287355e-06	-4.570257e-05	-0.03112837	-0.02933978
	-0.03047451	-0.03240388	-4.287355e-06	-4.570257e-05	-0.07453451	-0.04387319	-5.141129e-06	-4.933553e-05
	-1.192871e-05	-7.746462e-05	-0.03112837	-0.02933978	-5.141129e-06	-4.933553e-05	-0.07525764	-0.04266108
4.3e+08	-0.08169989	-0.03964889	-4.058264e-05	-8.541136e-05	-0.03776619	-0.01818646	-3.212734e-05	-7.479616e-05
	-4.058264e-05	-8.541136e-05	-0.08216865	-0.03811367	-2.023264e-05	-4.389746e-05	-0.03814602	-0.01489262
	-0.03776619	-0.01818646	-2.023264e-05	-4.389746e-05	-0.08229868	-0.03918852	-1.974011e-05	-4.800394e-05
	-3.212734e-05	-7.479616e-05	-0.03814602	-0.01489262	-1.974011e-05	-4.800394e-05	-0.08296196	-0.03778486
4.4e+08	-0.08874121	-0.03316689	-6.293504e-05	-7.420471e-05	-0.04126246	-0.002468198	-5.175331e-05	-6.702502e-05
	-6.293504e-05	-7.420471e-05	-0.08910103	-0.03145609	-3.611678e-05	-3.809627e-05	-0.04132163	0.0009815684
	-0.04126246	-0.002468198	-3.611678e-05	-3.809627e-05	-0.08940112	-0.03250307	-3.425715e-05	-4.302597e-05
	-5.175331e-05	-6.702502e-05	-0.04132163	0.0009815684	-3.425715e-05	-4.302597e-05	-0.08995427	-0.03090852
4.5e+08	-0.09460559	-0.02473651	-8.258894e-05	-5.741942e-05	-0.04069041	0.01373728	-6.951061e-05	-5.43146e-05
	-8.258894e-05	-5.741942e-05	-0.09480802	-0.02286733	-5.092253e-05	-2.826383e-05	-0.04040309	0.01725744
	-0.04069041	0.01373728	-5.092253e-05	-2.826383e-05	-0.09527862	-0.02385756	-4.777511e-05	-3.438144e-05
	-6.951061e-05	-5.43146e-05	-0.04040309	0.01725744	-4.777511e-05	-3.438144e-05	-0.09566782	-0.02208762
4.6e+08	-0.09871128	-0.01455337	-9.815888e-05	-3.576348e-05	-0.03604623	0.02938194	-8.416578e-05	-3.715113e-05
	-9.815888e-05	-3.576348e-05	-0.09871001	-0.01255805	-6.361461e-05	-1.462224e-05	-0.03541013	0.03288123
	-0.03604623	0.02938194	-6.361461e-05	-1.462224e-05	-0.09934806	-0.01346019	-5.936083e-05	-2.22868e-05
	-8.416578e-05	-3.715113e-05	-0.03541013	0.03288123	-5.936083e-05	-2.22868e-05	-0.09952067	-0.01154711
4.7e+08	-0.1005057	-0.002993802	-0.0001084604	-1.027371e-05	-0.02759213	0.04345419	-9.46256e-05	-1.631421e-05
	-0.0001084604	-1.027371e-05	-0.1002614	-0.0009196149	-7.320041e-05	2.331364e-06	-0.02662949	0.04684223
	-0.02759213	0.04345419	-7.320041e-05	2.331364e-06	-0.1010575	-0.001699199	-6.812834e-05	-7.196385e-06
	-9.46256e-05	-1.631421e-05	-0.02662949	0.04684223	-6.812834e-05	-7.196385e-06	-0.1009674	0.0003078245
4.8e+08	-0.09952069	0.009391485	-0.0001125762	1.77398e-05	-0.01583497	0.05504322	-9.99923e-05	7.155425e-06
