!$
! Info: Touchstone file created by Circ.  Input file=Intel_C2M_200G_11p0in_202208016_staggered.circ
!$
# Hz S RI R 50
0	0.02757838	5.188531e-24	0.0001057318	1.627236e-22	0.0001484356	3.53835e-22	0.0001057253	1.624831e-22
	0.0001057318	1.627236e-22	0.0275912	5.620339e-24	0.0001057361	1.628552e-22	0.0001480351	3.511798e-22
	0.0001484922	3.539595e-22	0.000105736	1.62857e-22	0.02757332	5.44606e-24	0.0001057275	1.62602e-22
	0.0001057253	1.624849e-22	0.0001480917	3.513038e-22	0.0001057275	1.62602e-22	0.02758918	5.314314e-24
1e+07	0.03322832	-0.006796047	7.033128e-06	3.26722e-05	0.002724982	0.008151538	1.782878e-05	3.15269e-05
	7.033133e-06	3.26722e-05	0.03346644	-0.006840085	3.657834e-06	8.763432e-06	0.002731987	0.008210557
	0.002724982	0.008151538	3.657834e-06	8.763432e-06	0.03345506	-0.006768716	6.808376e-06	3.117033e-05
	1.782878e-05	3.15269e-05	0.002731987	0.008210557	6.808376e-06	3.117033e-05	0.03325004	-0.006805255
2e+07	0.03553403	-0.01944839	7.910999e-06	1.7466e-05	0.006836904	0.01464195	1.222136e-05	2.121337e-05
	7.911012e-06	1.746602e-05	0.03570162	-0.01961891	2.105005e-05	1.705694e-05	0.006855656	0.01475492
	0.00683691	0.01464194	2.105005e-05	1.705694e-05	0.035731	-0.01948306	5.970738e-06	1.539218e-05
	1.222136e-05	2.121337e-05	0.006855662	0.01475491	5.970738e-06	1.539218e-05	0.03554799	-0.0194759
3e+07	0.03288319	-0.03393976	1.17169e-05	1.18074e-05	0.01281599	0.01954567	9.205999e-06	1.963291e-05
	1.17169e-05	1.18074e-05	0.03296267	-0.03417562	3.759817e-05	1.603826e-05	0.01284886	0.01970469
	0.01281598	0.01954571	3.759817e-05	1.603826e-05	0.03305319	-0.03398394	8.578249e-06	1.013737e-05
	9.206e-06	1.963291e-05	0.01284885	0.01970473	8.578249e-06	1.013737e-05	0.032867	-0.03397685
4e+07	0.02589783	-0.04768629	1.398874e-05	6.919917e-06	0.02007476	0.0222031	1.415952e-05	1.486847e-05
	1.398874e-05	6.919917e-06	0.02587431	-0.04795333	4.860504e-05	7.946621e-06	0.02012071	0.02240001
	0.02007477	0.02220312	4.860504e-05	7.946621e-06	0.02604959	-0.0477347	1.005003e-05	6.020987e-06
	1.415952e-05	1.486847e-05	0.02012072	0.02240003	1.005003e-05	6.020987e-06	0.02584149	-0.04772794
5e+07	0.01543733	-0.05932441	1.480775e-05	2.331074e-06	0.02784301	0.02237502	1.745308e-05	9.545014e-06
	1.480775e-05	2.331073e-06	0.01530392	-0.0595892	5.450799e-05	-3.30643e-06	0.02789742	0.02260233
	0.02784302	0.02237502	5.450799e-05	-3.30643e-06	0.01557288	-0.05937588	1.043432e-05	2.369948e-06
	1.745308e-05	9.545014e-06	0.02789742	0.02260234	1.043432e-05	2.369947e-06	0.01533013	-0.05935895
6e+07	0.002416705	-0.06800698	1.43047e-05	-1.82389e-06	0.0353285	0.02002856	1.896008e-05	4.102254e-06
	1.43047e-05	-1.823889e-06	0.002175527	-0.0682368	5.579287e-05	-1.557647e-05	0.03538349	0.02028085
	0.0353285	0.02002854	5.579286e-05	-1.557647e-05	0.002536106	-0.06806222	9.840303e-06	-7.953584e-07
	1.896008e-05	4.102254e-06	0.03538349	0.02028083	9.840302e-06	-7.953576e-07	0.002252704	-0.0680196
7e+07	-0.01216292	-0.07320617	1.269067e-05	-5.300962e-06	0.04176842	0.01537427	1.885792e-05	-1.088306e-06
	1.269067e-05	-5.300962e-06	-0.01250114	-0.07337108	5.30002e-05	-2.741914e-05	0.04181379	0.01564941
	0.04176841	0.01537427	5.30002e-05	-2.741914e-05	-0.01206208	-0.0732671	8.435547e-06	-3.324092e-06
	1.885792e-05	-1.088306e-06	0.04181379	0.01564941	8.435547e-06	-3.324093e-06	-0.01238482	-0.07318153
8e+07	-0.02725313	-0.07471427	1.02432e-05	-7.881175e-06	0.04650613	0.00883888	1.737039e-05	-5.710679e-06
	1.02432e-05	-7.881176e-06	-0.02766993	-0.07478906	4.677788e-05	-3.78099e-05	0.04653067	0.009138834
	0.04650613	0.008838882	4.677788e-05	-3.78099e-05	-0.02717553	-0.07478247	6.453607e-06	-5.063866e-06
	1.737039e-05	-5.710679e-06	0.04653067	0.009138836	6.453607e-06	-5.063866e-06	-0.02752939	-0.0746379
9e+07	-0.04184032	-0.07262585	7.273941e-06	-9.423688e-06	0.04904671	0.001018074	1.471836e-05	-9.538671e-06
	7.273941e-06	-9.423689e-06	-0.04231082	-0.07259193	3.775378e-05	-4.609929e-05	0.04903981	0.001349124
	0.04904672	0.001018074	3.775378e-05	-4.609929e-05	-0.04179254	-0.07270113	4.168483e-06	-5.918917e-06
	1.471836e-05	-9.538671e-06	0.04903982	0.001349124	4.168482e-06	-5.918917e-06	-0.04216387	-0.07248492
1e+08	-0.05496612	-0.06727731	3.921612e-06	-9.880931e-06	0.0490934	-0.007384426	1.074936e-05	-1.251462e-05
	3.921612e-06	-9.880931e-06	-0.0554605	-0.06712405	2.549359e-05	-5.215383e-05	0.04904637	-0.007011952
	0.0490934	-0.007384426	2.549359e-05	-5.215383e-05	-0.0549553	-0.0673565	1.76255e-06	-5.848396e-06
	1.074936e-05	-1.251462e-05	0.04904637	-0.007011952	1.76255e-06	-5.848396e-06	-0.05532688	-0.06706152
1.1e+08	-0.06602639	-0.05953733	1.242188e-06	-8.423347e-06	0.04653607	-0.01561339	6.480498e-06	-1.24242e-05
	1.242188e-06	-8.423347e-06	-0.066517	-0.05926599	1.267426e-05	-4.991702e-05	0.04644382	-0.01518488
	0.04653607	-0.01561339	1.267426e-05	-4.991702e-05	-0.06608291	-0.05967057	1.00596e-07	-4.508653e-06
	6.480498e-06	-1.24242e-05	0.04644381	-0.01518488	1.005961e-07	-4.508653e-06	-0.06643713	-0.05929104
1.2e+08	-0.07466997	-0.04977399	-2.794286e-07	-6.780515e-06	0.04155161	-0.0228563	3.630745e-06	-1.154991e-05
	-2.794284e-07	-6.780515e-06	-0.07513126	-0.04938959	5.636776e-06	-4.537342e-05	0.04141441	-0.02235613
	0.0415516	-0.0228563	5.636776e-06	-4.537342e-05	-0.07481678	-0.04988879	-7.131333e-07	-3.159921e-06
	3.630745e-06	-1.154991e-05	0.0414144	-0.02235613	-7.131332e-07	-3.159921e-06	-0.07513018	-0.04942849
1.3e+08	-0.08047767	-0.03872252	-1.229575e-06	-5.228688e-06	0.03450809	-0.02846037	1.62206e-06	-1.034073e-05
	-1.229575e-06	-5.228688e-06	-0.08088543	-0.03823704	3.765462e-06	-4.020909e-05	0.03433108	-0.02787261
	0.03450809	-0.02846037	3.765462e-06	-4.020909e-05	-0.08069479	-0.03878582	-1.145926e-06	-1.979417e-06
	1.62206e-06	-1.034073e-05	0.03433107	-0.0278726	-1.145925e-06	-1.979417e-06	-0.08094717	-0.03825625
1.4e+08	-0.0833154	-0.02716612	-1.467186e-06	-3.73957e-06	0.02593723	-0.03188856	2.645474e-07	-9.028101e-06
	-1.467186e-06	-3.73957e-06	-0.08364958	-0.0265978	2.297421e-06	-3.546226e-05	0.02573069	-0.0311985
	0.02593723	-0.03188856	2.297421e-06	-3.546226e-05	-0.08358604	-0.02717014	-1.086745e-06	-8.882963e-07
	2.645474e-07	-9.028101e-06	0.02573069	-0.03119849	-1.086745e-06	-8.882965e-07	-0.08376152	-0.02658858
1.5e+08	-0.08326363	-0.01586294	-5.645575e-07	-2.552778e-06	0.01649957	-0.03276488	-6.402163e-07	-7.746528e-06
	-5.645574e-07	-2.552778e-06	-0.08350994	-0.01523488	1.267197e-06	-3.109925e-05	0.01627871	-0.03196061
	0.01649957	-0.03276488	1.267197e-06	-3.109925e-05	-0.08358047	-0.01580483	-6.378986e-07	-1.267393e-08
	-6.402163e-07	-7.746528e-06	0.01627871	-0.0319606	-6.378985e-07	-1.267402e-08	-0.08366889	-0.01519285
1.6e+08	-0.08059105	-0.005495459	4.426211e-07	-1.729377e-06	0.006939308	-0.0309046	-9.78656e-07	-6.587345e-06
	4.426211e-07	-1.729377e-06	-0.0807422	-0.004833827	6.938277e-07	-2.711701e-05	0.006723437	-0.02997853
	0.006939308	-0.0309046	6.938277e-07	-2.711701e-05	-0.0809516	-0.005369532	4.353312e-07	4.987366e-07
	-9.78656e-07	-6.587345e-06	0.006723437	-0.02997853	4.353312e-07	4.987365e-07	-0.08094947	-0.004751059
1.7e+08	-0.07572194	0.003372378	1.447197e-06	-1.242872e-06	-0.001967779	-0.02633166	-6.431196e-07	-5.681755e-06
	1.447197e-06	-1.242872e-06	-0.07577836	0.004040428	5.777813e-07	-2.354856e-05	-0.00215644	-0.02528196
	-0.001967778	-0.02633166	5.777813e-07	-2.354856e-05	-0.07612275	0.003576381	1.473874e-06	7.024131e-07
	-6.431196e-07	-5.681755e-06	-0.00215644	-0.02528196	1.473874e-06	7.02413e-07	-0.07603368	0.004177194
1.8e+08	-0.06919358	0.01032923	2.437574e-06	-1.099464e-06	-0.009470129	-0.01928319	-2.637967e-07	-4.954207e-06
	2.437574e-06	-1.099464e-06	-0.06916338	0.01097789	8.486825e-07	-2.044207e-05	-0.009608098	-0.01811469
	-0.009470128	-0.01928319	8.486825e-07	-2.044207e-05	-0.06962673	0.01062423	2.468928e-06	5.92242e-07
	-2.637967e-07	-4.954207e-06	-0.009608098	-0.01811469	2.468928e-06	5.922419e-07	-0.0694612	0.01118511
1.9e+08	-0.06160716	0.01513663	3.334204e-06	-1.279073e-06	-0.01489758	-0.01019969	1.341657e-07	-4.400352e-06
	3.334204e-06	-1.279073e-06	-0.06150539	0.0157437	1.415042e-06	-1.783163e-05	-0.01496215	-0.008924589
	-0.01489758	-0.01019969	1.415042e-06	-1.783163e-05	-0.06205851	0.01553519	3.345724e-06	1.876598e-07
	1.341657e-07	-4.400353e-06	-0.01496215	-0.008924588	3.345724e-06	1.876598e-07	-0.06183288	0.01603779
2e+08	-0.05357344	0.01773437	4.061943e-06	-1.742744e-06	-0.0177157	0.0003005958	5.222519e-07	-4.012949e-06
	4.061943e-06	-1.742744e-06	-0.05342015	0.01828328	2.176595e-06	-1.572799e-05	-0.01768723	0.001662804
	-0.0177157	0.0003005958	2.176595e-06	-1.572799e-05	-0.05402325	0.01824548	4.035433e-06	-4.684197e-07
	5.222519e-07	-4.012949e-06	-0.01768723	0.001662804	4.035433e-06	-4.684197e-07	-0.05375871	0.01867682
2.1e+08	-0.04566095	0.0182277	4.557486e-06	-2.430671e-06	-0.01757323	0.011462	8.712947e-07	-3.777393e-06
	4.557486e-06	-2.430671e-06	-0.04548016	0.01870835	3.021744e-06	-1.412189e-05	-0.01743758	0.01288539
	-0.01757323	0.011462	3.021744e-06	-1.412189e-05	-0.04608566	0.01885463	4.479352e-06	-1.317069e-06
	8.712947e-07	-3.777393e-06	-0.01743758	0.01288539	4.479352e-06	-1.317069e-06	-0.04580533	0.01920861
2.2e+08	-0.03835166	0.01686116	4.774528e-06	-3.268901e-06	-0.0143377	0.02244541	1.153948e-06	-3.672954e-06
	4.774528e-06	-3.268901e-06	-0.03816856	0.01727084	3.846654e-06	-1.298049e-05	-0.0140883	0.02389917
	-0.0143377	0.02244541	3.846654e-06	-1.298049e-05	-0.03872602	0.01759969	4.636899e-06	-2.28482e-06
	1.153948e-06	-3.672954e-06	-0.0140883	0.02389917	4.636899e-06	-2.28482e-06	-0.0384531	0.01787688
2.3e+08	-0.03200856	0.01397791	4.687245e-06	-4.17434e-06	-0.008115113	0.03239242	1.346933e-06	-3.672787e-06
	4.687245e-06	-4.17434e-06	-0.03184716	0.01432111	4.556857e-06	-1.224941e-05	-0.007754629	0.03384318
	-0.008115113	0.03239242	4.556857e-06	-1.224941e-05	-0.03230849	0.01481663	4.487978e-06	-3.289933e-06
	1.346933e-06	-3.672787e-06	-0.007754629	0.03384318	4.487978e-06	-3.289933e-06	-0.03206427	0.01502368
2.4e+08	-0.02685944	0.009973414	4.291948e-06	-5.060497e-06	0.0007502205	0.04049334	1.433211e-06	-3.744775e-06
	4.291948e-06	-5.060497e-06	-0.0267405	0.01026073	5.073138e-06	-1.185492e-05	0.001209034	0.04190808
	0.0007502206	0.04049334	5.073138e-06	-1.185492e-05	-0.02706346	0.01089396	4.034479e-06	-4.248245e-06
	1.433211e-06	-3.744775e-06	0.001209034	0.04190808	4.034479e-06	-4.248245e-06	-0.02686571	0.01104239
2.5e+08	-0.02299729	0.005248035	3.607075e-06	-5.843308e-06	0.01169599	0.04605433	1.403824e-06	-3.853112e-06
	3.607075e-06	-5.843308e-06	-0.02293686	0.005494468	5.336528e-06	-1.170777e-05	0.01223039	0.04740348
	0.01169599	0.04605433	5.336528e-06	-1.170777e-05	-0.0230895	0.006226325	3.300038e-06	-5.079165e-06
	1.403824e-06	-3.853113e-06	0.01223039	0.04740348	3.300038e-06	-5.079165e-06	-0.02295138	0.006330909
2.6e+08	-0.0203975	0.0001653555	2.671814e-06	-6.446677e-06	0.02398113	0.04855612	1.259271e-06	-3.960643e-06
	2.671814e-06	-6.446677e-06	-0.02040618	0.0003883869	5.312418e-06	-1.170858e-05	0.02455947	0.04981661
	0.02398113	0.04855612	5.312418e-06	-1.170858e-05	-0.02036808	0.001173067	2.328296e-06	-5.711243e-06
	1.259271e-06	-3.960643e-06	0.02455947	0.04981662	2.328296e-06	-5.711243e-06	-0.02029789	0.001250036
2.7e+08	-0.01894591	-0.00497901	1.543305e-06	-6.80726e-06	0.0367411	0.04769768	1.009977e-06	-4.031673e-06
	1.543305e-06	-6.80726e-06	-0.01902898	-0.004761338	4.992946e-06	-1.175439e-05	0.03732485	0.04885558
	0.0367411	0.04769768	4.992946e-06	-1.175439e-05	-0.01879271	-0.003972556	1.179666e-06	-6.086889e-06
	1.009977e-06	-4.031673e-06	0.03732485	0.04885558	1.179666e-06	-6.086889e-06	-0.01879412	-0.003907092
2.8e+08	-0.01847462	-0.009975485	2.929543e-07	-6.878591e-06	0.04905296	0.04342369	6.757843e-07	-4.034966e-06
	2.929543e-07	-6.878591e-06	-0.01863263	-0.009746161	4.397342e-06	-1.17458e-05	0.04959951	0.04447606
	0.04905296	0.04342369	4.397342e-06	-1.17458e-05	-0.01820366	-0.009000994	-7.282245e-08	-6.166147e-06
	6.757843e-07	-4.034966e-06	0.04959951	0.04447606	-7.282245e-08	-6.166147e-06	-0.01827657	-0.008932403
2.9e+08	-0.01879875	-0.01470282	-9.982224e-07	-6.634097e-06	0.06000497	0.0359314	2.84336e-07	-3.946491e-06
	-9.982224e-07	-6.634097e-06	-0.01902872	-0.014447	3.570174e-06	-1.159414e-05	0.06047076	0.03688737
	0.06000497	0.0359314	3.570174e-06	-1.159414e-05	-0.01842349	-0.01378941	-1.348488e-06	-5.929206e-06
	2.84336e-07	-3.946491e-06	0.06047076	0.03688737	-1.348488e-06	-5.929206e-06	-0.01856522	-0.0137053
3e+08	-0.01974915	-0.01911877	-2.24486e-06	-6.068885e-06	0.06876423	0.025658	-1.314199e-07	-3.751439e-06
	-2.24486e-06	-6.068885e-06	-0.02004582	-0.01882431	2.577527e-06	-1.122782e-05	0.06910816	0.02653889
	0.06876423	0.025658	2.577527e-06	-1.122782e-05	-0.01929016	-0.01829164	-2.564353e-06	-5.37751e-06
	-1.314199e-07	-3.751439e-06	0.06910816	0.02653889	-2.564353e-06	-5.37751e-06	-0.01949666	-0.01818218
3.1e+08	-0.02119723	-0.02324016	-3.362887e-06	-5.200348e-06	0.07463843	0.01325139	-5.362838e-07	-3.445349e-06
	-3.362887e-06	-5.200348e-06	-0.02155428	-0.02289757	1.501545e-06	-1.059727e-05	0.07482519	0.01408986
	0.07463843	0.01325139	1.501545e-06	-1.059727e-05	-0.02068097	-0.02251956	-3.640608e-06	-4.533628e-06
	-5.362838e-07	-3.445349e-06	0.07482519	0.01408986	-3.640608e-06	-4.533628e-06	-0.02094804	-0.02237721
3.2e+08	-0.02306988	-0.02711781	-4.275178e-06	-4.067122e-06	0.07712646	-0.0004742802	-8.959953e-07	-3.034027e-06
	-4.275178e-06	-4.067122e-06	-0.02348105	-0.02671995	4.339344e-07	-9.678155e-06	0.07712952	0.0003641975
	0.07712646	-0.0004742803	4.339343e-07	-9.678155e-06	-0.02252804	-0.02651669	-4.505802e-06	-3.439641e-06
	-8.959953e-07	-3.034027e-06	0.07712952	0.0003641975	-4.505802e-06	-3.439641e-06	-0.02285223	-0.02633559
3.3e+08	-0.02535411	-0.03080833	-4.916833e-06	-2.726671e-06	0.0759555	-0.01459393	-1.180132e-06	-2.532449e-06
	-4.916833e-06	-2.726671e-06	-0.02581383	-0.03034956	-5.310789e-07	-8.472486e-06	0.07575963	-0.01370562
	0.0759555	-0.01459393	-5.310789e-07	-8.472486e-06	-0.02482109	-0.0303322	-5.101411e-06	-2.154286e-06
	-1.180132e-06	-2.532449e-06	0.07575963	-0.01370562	-5.101411e-06	-2.154286e-06	-0.02520034	-0.03010714
3.4e+08	-0.02809177	-0.0343482	-5.239741e-06	-1.251537e-06	0.07110401	-0.02813452	-1.364319e-06	-1.962899e-06
	-5.239741e-06	-1.251537e-06	-0.0285955	-0.03382352	-1.303502e-06	-7.008188e-06	0.07070734	-0.02714212
	0.07110401	-0.02813452	-1.303502e-06	-7.008188e-06	-0.02760279	-0.03399372	-5.385616e-06	-7.491121e-07
	-1.364319e-06	-1.962899e-06	0.07070734	-0.02714212	-5.385616e-06	-7.491121e-07	-0.02803648	-0.03371898
3.5e+08	-0.031365	-0.03773154	-5.21585e-06	2.756317e-07	0.06280674	-0.04014138	-1.431557e-06	-1.352561e-06
	-5.21585e-06	2.756317e-07	-0.03190913	-0.03713565	-1.803838e-06	-5.33664e-06	0.06222198	-0.0389897
	0.06280674	-0.04014138	-1.803838e-06	-5.33664e-06	-0.03095445	-0.03748741	-5.335751e-06	6.962294e-07
	-1.431557e-06	-1.352561e-06	0.06222198	-0.0389897	-5.335751e-06	6.962294e-07	-0.03144304	-0.03715556
3.6e+08	-0.03527618	-0.04089478	-4.839045e-06	1.767645e-06	0.0515442	-0.04974506	-1.372646e-06	-7.311761e-07
	-4.839045e-06	1.767645e-06	-0.03585757	-0.04022124	-1.968366e-06	-3.529304e-06	0.050799	-0.04838187
	0.0515442	-0.04974506	-1.968366e-06	-3.529304e-06	-0.03497532	-0.04074084	-4.949628e-06	2.099051e-06
	-1.372646e-06	-7.311761e-07	0.050799	-0.04838187	-4.949628e-06	2.099051e-06	-0.03551936	-0.04034185
3.7e+08	-0.03992251	-0.04370781	-4.125345e-06	3.138667e-06	0.0380138	-0.0562241	-1.185843e-06	-1.289394e-07
	-4.125345e-06	3.138667e-06	-0.04053762	-0.04294841	-1.753381e-06	-1.673188e-06	0.0371502	-0.05460418
	0.0380138	-0.0562241	-1.753381e-06	-1.673188e-06	-0.03975752	-0.04361662	-4.245371e-06	3.378832e-06
	-1.185843e-06	-1.289394e-07	0.0371502	-0.05460418	-4.245371e-06	3.378832e-06	-0.04035623	-0.04313708
3.8e+08	-0.04536939	-0.04597523	-3.11151e-06	4.309715e-06	0.02308595	-0.05905821	-8.760519e-07	4.250035e-07
	-3.11151e-06	4.309715e-06	-0.04601306	-0.04511973	-1.138318e-06	1.342734e-07	0.0221586	-0.05714735
	0.02308595	-0.05905821	-1.138318e-06	1.342734e-07	-0.04535994	-0.04591324	-3.260031e-06	4.46199e-06
	-8.760519e-07	4.250035e-07	0.0221586	-0.05714735	-3.260031e-06	4.46199e-06	-0.0460094	-0.04533643
3.9e+08	-0.05162363	-0.04744476	-1.852368e-06	5.213501e-06	0.007746465	-0.05797055	-4.539605e-07	9.034662e-07
	-1.852368e-06	5.213501e-06	-0.05228781	-0.04648114	-1.278653e-07	1.790702e-06	0.006819751	-0.05574916
	0.007746465	-0.05797055	-1.278653e-07	1.790702e-06	-0.05178032	-0.04737363	-2.04722e-06	5.286159e-06
	-4.539615e-07	9.034663e-07	0.006819751	-0.05574916	-2.04722e-06	5.286159e-06	-0.05247158	-0.04668017
4e+08	-0.05860821	-0.04782703	-4.17003e-07	5.798198e-06	-0.006972248	-0.05295141	6.466041e-08	1.281777e-06
	-4.17003e-07	5.798198e-06	-0.05928049	-0.04674231	1.247074e-06	3.194961e-06	-0.007828283	-0.05041748
	-0.006972248	-0.05295141	1.247074e-06	3.194961e-06	-0.05893285	-0.04770641	-6.736859e-07	5.803623e-06
	6.466041e-08	1.281777e-06	-0.007828283	-0.05041748	-6.736859e-07	5.803623e-06	-0.0596501	-0.04687588
4.1e+08	-0.06614448	-0.04682341	1.115592e-06	6.030005e-06	-0.02006391	-0.04426377	6.592716e-07	1.538142e-06
	1.115592e-06	6.030005e-06	-0.06680698	-0.04560513	2.929668e-06	4.253445e-06	-0.02077842	-0.04143446
	-0.02006391	-0.04426377	2.929668e-06	4.253445e-06	-0.06662892	-0.04661229	7.845208e-07	5.983781e-06
	6.592716e-07	1.538142e-06	-0.02077842	-0.04143446	7.845208e-07	5.983781e-06	-0.06734827	-0.04562566
4.2e+08	-0.07394277	-0.04415878	2.661099e-06	5.894495e-06	-0.0306215	-0.03242784	1.304579e-06	1.654189e-06
	2.661099e-06	5.894495e-06	-0.07457143	-0.04279721	4.838842e-06	4.886276e-06	-0.03112837	-0.02933978
	-0.0306215	-0.03242784	4.838842e-06	4.886276e-06	-0.07456863	-0.04381849	2.246328e-06	5.814665e-06
	1.304579e-06	1.654189e-06	-0.03112837	-0.02933978	2.246328e-06	5.814665e-06	-0.07525764	-0.04266108
4.3e+08	-0.08160381	-0.03962307	4.134382e-06	5.396831e-06	-0.03790267	-0.01818476	1.970497e-06	1.616038e-06
	4.134382e-06	5.396831e-06	-0.08216865	-0.03811367	6.872666e-06	5.033745e-06	-0.03814602	-0.01489262
	-0.03790267	-0.01818476	6.872666e-06	5.033745e-06	-0.08234347	-0.03911985	3.630046e-06	5.303399e-06
	1.970497e-06	1.616038e-06	-0.03814602	-0.01489262	3.630046e-06	5.303399e-06	-0.08296196	-0.03778486
4.4e+08	-0.08863479	-0.03310997	5.453595e-06	4.561205e-06	-0.04138243	-0.002444965	2.622372e-06	1.415789e-06
	5.453595e-06	4.561205e-06	-0.08910103	-0.03145609	8.913198e-06	4.661618e-06	-0.04132163	0.0009815684
	-0.04138243	-0.002444965	8.913198e-06	4.661618e-06	-0.08945215	-0.03241686	4.857569e-06	4.475792e-06
	2.622372e-06	1.415789e-06	-0.04132163	0.0009815684	4.857569e-06	4.475792e-06	-0.08995427	-0.03090852
4.5e+08	-0.0944776	-0.02465209	6.543992e-06	3.429556e-06	-0.04078932	0.01377662	3.2219e-06	1.053369e-06
	6.543992e-06	3.429556e-06	-0.09480802	-0.02286733	1.083294e-05	3.765403e-06	-0.04040309	0.01725744
	-0.04078932	0.01377662	1.083294e-05	3.765403e-06	-0.09533027	-0.02375141	5.85846e-06	3.375045e-06
	3.2219e-06	1.053369e-06	-0.04040309	0.01725744	5.85846e-06	3.375045e-06	-0.09566782	-0.02208762
4.6e+08	-0.09855193	-0.01444832	7.341379e-06	2.059817e-06	-0.03612118	0.0294312	3.728963e-06	5.38383e-07
	7.341379e-06	2.059817e-06	-0.09871001	-0.01255805	1.25026e-05	2.373077e-06	-0.03541013	0.03288123
	-0.03612118	0.0294312	1.25026e-05	2.373077e-06	-0.09939385	-0.01333337	6.573596e-06	2.059725e-06
	3.728963e-06	5.38383e-07	-0.03541013	0.03288123	6.573596e-06	2.059725e-06	-0.09952067	-0.01154711
4.7e+08	-0.1003074	-0.002877779	7.795315e-06	5.237017e-07	-0.02764186	0.04350676	4.104386e-06	-1.08573e-07
	7.795315e-06	5.237017e-07	-0.1002614	-0.0009196149	1.37995e-05	5.456992e-07	-0.02662949	0.04684223
	-0.02764186	0.04350676	1.37995e-05	5.456992e-07	-0.1010906	-0.001552943	6.958409e-06	6.010362e-07
	4.104386e-06	-1.08573e-07	-0.02662949	0.04684223	6.958409e-06	6.010362e-07	-0.1009674	0.0003078245
4.8e+08	-0.09927897	0.009506764	7.872041e-06	-1.096122e-06	-0.01585997	0.05509259	4.313418e-06	-8.556322e-07
