# GHz S RI R 45
0.000     0.026847700000    0.000000000000    0.000006661589    -0.000000000000    0.000672253820    0.000000000000    0.000000750446    -0.000000000000
            0.000006661630    -0.000000000000    0.025891585000    0.000000000000    0.000003464811    -0.000000000000    0.000629469180    -0.000000000000
            0.000672250330    0.000000000000    0.000003464756    -0.000000000000    0.026808075000    0.000000000000    0.000003188614    -0.000000000000
            0.000000750452    -0.000000000000    0.000629388670    -0.000000000000    0.000003188578    -0.000000000000    0.025852724000    0.000000000000
0.025     0.035151471042    0.007835304931    -0.000001995653    -0.000001802045    0.005142639205    0.012026209767    0.000000098912    0.000001835684
            -0.000001995622    -0.000001802069    0.033790453083    0.007112377810    0.000001815038    0.000000873834    0.004828946035    0.011089319838
            0.005142625047    0.012026262587    0.000001814990    0.000000873862    0.035098030405    0.007832888853    0.000004850576    0.000001385731
            0.000000098873    0.000001835703    0.004828858688    0.011089404774    0.000004850555    0.000001385742    0.033724694638    0.007071290278
0.050     0.045597751393    0.005506004726    0.000000335289    0.000004069217    0.016292918715    0.018430466730    0.000003251910    0.000003888100
            0.000000335313    0.000004069181    0.043961953700    0.004674468483    0.000004660191    0.000002984733    0.015488081690    0.017037402442
            0.016292910484    0.018430483349    0.000004660156    0.000002984779    0.045588120754    0.005519616932    0.000007559530    0.000000531355
            0.000003251887    0.000003888131    0.015488023465    0.017037476995    0.000007559513    0.000000531381    0.043904003231    0.004609655735
0.075     0.054265833827    -0.004997356072    0.000006146042    0.000004201286    0.029362581918    0.016139958409    0.000007620596    0.000002286022
            0.000006146047    0.000004201243    0.052913859202    -0.005534403044    0.000008953222    0.000000880086    0.028336143430    0.014833678441
            0.029362577130    0.016139967121    0.000008953212    0.000000880139    0.054336275219    -0.005007522580    0.000009876930    -0.000002701521
            0.000007620590    0.000002286060    0.028336118662    0.014833758098    0.000009876928    -0.000002701487    0.052885253766    -0.005619896029
0.100     0.056063657244    -0.022140821502    0.000010383237    -0.000000611954    0.038667779160    0.005339610435    0.000010316410    -0.000002573849
            0.000010383224    -0.000000611984    0.055923444431    -0.022453127485    0.000011082726    -0.000004667372    0.038156128391    0.004361863787
            0.038667780862    0.005339612733    0.000011082741    -0.000004667314    0.056227625561    -0.022228108884    0.000010249183    -0.000007900608
            0.000010316421    -0.000002573813    0.038156141250    0.004361945002    0.000010249197    -0.000007900577    0.055956623424    -0.022570505616
0.125     0.047115781266    -0.041283084688    0.000010397302    -0.000007778714    0.039455327728    -0.010544143235    0.000009542948    -0.000009013400
            0.000010397272    -0.000007778737    0.049124630145    -0.042173752453    0.000009161649    -0.000011502829    0.040382224528    -0.011578656851
            0.039455330029    -0.010544142374    0.000009161685    -0.000011502787    0.047356065374    -0.041522155768    0.000007450790    -0.000013721268
            0.000009542970    -0.000009013376    0.040382267807    -0.011578592986    0.000007450811    -0.000013721256    0.049248834742    -0.042372282476
0.150     0.026802517431    -0.055849548627    0.000005635165    -0.000014212360    0.029566770835    -0.025845750445    0.000004785111    -0.000014705439
            0.000005635128    -0.000014212367    0.031368187702    -0.058848189530    0.000002962436    -0.000016888671    0.032582780890    -0.028050080983
            0.029566773243    -0.025845750730    0.000002962490    -0.000016888647    0.027071919776    -0.056285857983    0.000001232092    -0.000018176993
            0.000004785142    -0.000014705429    0.032582841356    -0.028050042934    0.000001232116    -0.000018176993    0.031591291639    -0.059176347645
0.175     -0.001777380389    -0.059426403165    -0.000002644612    -0.000017140669    0.010337206750    -0.034277633386    -0.000003091383    -0.000017367582
            -0.000002644647    -0.000017140658    0.004737540188    -0.066433077187    -0.000006159851    -0.000018411873    0.015305530417    -0.039279594286
            0.010337209122    -0.034277634759    -0.000006159798    -0.000018411875    -0.001562606462    -0.060092688994    -0.000007514403    -0.000019318893
            -0.000003091347    -0.000017367592    0.015305606556    -0.039279585009    -0.000007514381    -0.000019318905    0.005029790425    -0.066959233842
0.200     -0.032039361733    -0.047916684774    -0.000011924774    -0.000015035184    -0.013427462113    -0.030994150406    -0.000012067955    -0.000015507146
            -0.000011924795    -0.000015035162    -0.025453962549    -0.060512402337    -0.000015700525    -0.000014788774    -0.007776717919    -0.040375877865
            -0.013427462908    -0.030994152241    -0.000015700476    -0.000014788801    -0.031986498776    -0.048802953852    -0.000016814319    -0.000015842924
            -0.000012067929    -0.000015507163    -0.007776642105    -0.040375901632    -0.000016814308    -0.000015842941    -0.025167117998    -0.061292460947
0.225     -0.055616043579    -0.021288579550    -0.000019224258    -0.000008003790    -0.034660599344    -0.014413394770    -0.000019520349    -0.000008934592
            -0.000019224272    -0.000008003749    -0.051887868632    -0.039886922926    -0.000022749495    -0.000006293603    -0.030668842113    -0.028927637486
            -0.034660600267    -0.014413395154    -0.000022749463    -0.000006293650    -0.055829717305    -0.022325354526    -0.000024114872    -0.000007658931
            -0.000019520335    -0.000008934618    -0.030668782212    -0.028927692249    -0.000024114871    -0.000007658953    -0.051716241461    -0.040933882701
0.250     -0.064885457640    0.015806896042    -0.000022137422    0.000002236127    -0.046197523746    0.012873291586    -0.000023060065    0.000001064430
            -0.000022137414    0.000002236154    -0.067184653292    -0.007383062503    -0.000024951586    0.000005232300    -0.046661918310    -0.006008490742
            -0.046197526956    0.012873283792    -0.000024951580    0.000005232239    -0.065431732821    0.014746637839    -0.000027017840    0.000003870556
            -0.000023060063    0.000001064401    -0.046661890028    -0.006008561612    -0.000027017846    0.000003870537    -0.067245180831    -0.008647089516
0.275     -0.055533564605    0.055037882954    -0.000019567564    0.000012941614    -0.043159846655    0.044627410232    -0.000021316062    0.000012080335
            -0.000019567544    0.000012941639    -0.066082585369    0.030542251355    -0.000021270113    0.000016927081    -0.050299940304    0.023848319895
            -0.043159845265    0.044627408794    -0.000021270128    0.000016927032    -0.056408114967    0.054114192053    -0.000024130642    0.000016225427
            -0.000021316074    0.000012080307    -0.050299944688    0.023848235954    -0.000024130661    0.000016225410    -0.066462136564    0.029175363952
0.300     -0.028145070091    0.086718581596    -0.000012038691    0.000021306530    -0.024618548048    0.072791683065    -0.000014377429    0.000021362102
            -0.000012038661    0.000021306546    -0.047137498917    0.065332010356    -0.000012321852    0.000025846475    -0.039064882562    0.053758983098
            -0.024618561072    0.072791679715    -0.000012321911    0.000025846401    -0.029257794266    0.086084246640    -0.000015547678    0.000026456007
            -0.000014377450    0.000021362085    -0.039064924139    0.053758902204    -0.000015547694    0.000026456015    -0.047857451313    0.064020001048
0.325     0.011828993416    0.102590915143    -0.000001361076    0.000025282205    0.006110782708    0.089849934560    -0.000003666955    0.000026635718
            -0.000001361045    0.000025282203    -0.013319822093    0.088551962739    -0.000000073006    0.000029829341    -0.014178154738    0.076311446259
            0.006110781208    0.089849935664    -0.000000073046    0.000029829325    0.010644335451    0.102344728243    -0.000002798514    0.000032067604
            -0.000003666985    0.000026635708    -0.014178213478    0.076311391610    -0.000002798526    0.000032067617    -0.014316777878    0.087457271030
0.350     0.055516742194    0.098033240203    0.000010065348    0.000024033972    0.042424714337    0.090823945715    0.000008592850    0.000026635060
            0.000010065381    0.000024033956    0.028601874640    0.094065773566    0.000012861201    0.000027985473    0.019650333411    0.085481625520
            0.042424714337    0.090823945715    0.000012861203    0.000027985482    0.054470413002    0.098183852686    0.000011655920    0.000031592793
            0.000008592816    0.000026635066    0.019650249629    0.085481602710    0.000011655829    0.000031592801    0.027472772625    0.093310049935
0.375     0.092815289688    0.073118037505    0.000019901329    0.000017875657    0.076069877502    0.074383805893    0.000019972029    0.000021200355
            0.000019901324    0.000017875640    0.069629600072    0.079530064472    0.000023909903    0.000020666060    0.055326912569    0.078071742000
            0.076069876203    0.074383807221    0.000023909865    0.000020666078    0.092113594578    0.073566722490    0.000025049675    0.000024780369
            0.000019971976    0.000021200384    0.055326871027    0.078071746926    0.000025049641    0.000024780403    0.068568905104    0.079155010458
0.400     0.114607956819    0.032589707532    0.000026287003    0.000007963133    0.098902573065    0.043138929829    0.000028257333    0.000011119376
            0.000026286992    0.000007963122    0.100513773688    0.046975497907    0.000030999613    0.000009156949    0.084915765460    0.054458702150
            0.098902572312    0.043138931555    0.000030999678    0.000009157016    0.114400742401    0.033135572461    0.000034772720    0.000012480391
            0.000028257276    0.000011119439    0.084915689968    0.054458745767    0.000034772669    0.000012480459    0.099734782059    0.046919286475
0.425     0.114662909189    -0.014973426865    0.000027974309    -0.000004000097    0.104524485184    0.003306481623    0.000031678323    -0.000002050841
            0.000027974305    -0.000004000143    0.113694743110    0.002480561297    0.000032729272    -0.000004631202    0.101260894143    0.018626474596
            0.104524483839    0.003306524129    0.000032729262    -0.000004631162    0.114994412560    -0.014604643928    0.000038686707    -0.000003509266
            0.000031678330    -0.000002050840    0.101260850334    0.018626546931    0.000038686727    -0.000003509259    0.113372145897    0.002573904527
0.450     0.091164015453    -0.058601179015    0.000024393613    -0.000015938877    0.089831789707    -0.036153230441    0.000029097049    -0.000016085713
            0.000024393589    -0.000015938872    0.104947685394    -0.044873624186    0.000028455610    -0.000018343587    0.099519317360    -0.022405917525
            0.089831792490    -0.036153231561    0.000028455624    -0.000018343508    0.091933261307    -0.058705871569    0.000035387317    -0.000020538534
            0.000029097061    -0.000016085631    0.099519305690    -0.022405832774    0.000035387337    -0.000020538539    0.105163135268    -0.044887452707
0.475     0.047723374608    -0.087030944562    0.000015739502    -0.000025505458    0.056321639613    -0.065129309886    0.000020277194    -0.000028199430
            0.000015739466    -0.000025505483    0.074522409118    -0.084657628918    0.000018363390    -0.000029293279    0.078418320970    -0.059761677868
            0.056321639613    -0.065129309886    0.000018363433    -0.000029293209    0.048664536044    -0.087855429731    0.000024542825    -0.000035254956
            0.000020277201    -0.000028199439    0.078418344294    -0.059761596119    0.000024542842    -0.000035254971    0.075216321741    -0.085080783183
0.500     -0.006547803234    -0.091481614604    0.000003176553    -0.000030534853    0.010665389878    -0.074835805643    0.000006253588    -0.000035537163
            0.000003176547    -0.000030534830    0.027573398337    -0.107237666579    0.000003710975    -0.000035062337    0.041012585624    -0.084487983263
            0.010665391607    -0.074835808426    0.000003710976    -0.000035062353    -0.005871612163    -0.093141694558    0.000007335400    -0.000044240852
            0.000006253588    -0.000035537174    0.041012638772    -0.084487916335    0.000007335411    -0.000044240872    0.028496157601    -0.108364446577
0.525     -0.058605797743    -0.068578620714    -0.000010855796    -0.000029490657    -0.036375884666    -0.060750868321    -0.000010344861    -0.000035886093
            -0.000010855794    -0.000029490634    -0.026462611243    -0.106125557507    -0.000012739304    -0.000033909979    -0.005562091908    -0.089806024147
            -0.036375886721    -0.060750871753    -0.000012739264    -0.000033909980    -0.058976306615    -0.071061123868    -0.000013147738    -0.000044832759
            -0.000010344772    -0.000035886090    -0.005562015581    -0.089805985792    -0.000013147738    -0.000044832789    -0.025936111704    -0.108324981792
0.550     -0.094880372055    -0.022251701701    -0.000023233356    -0.000022110348    -0.071254126656    -0.025491304515    -0.000025406687    -0.000028596451
            -0.000023233339    -0.000022110332    -0.075715933461    -0.079983675546    -0.000027039958    -0.000025486568    -0.049725681928    -0.073226451876
            -0.071254126656    -0.025491304515    -0.000027039968    -0.000025486568    -0.094585803366    -0.026553528029    -0.000031546690    -0.000036158394
            -0.000025406693    -0.000028596457    -0.049725591623    -0.073226456387    -0.000031546624    -0.000036158421    -0.073569844158    -0.083644378060
0.575     -0.105455346436    0.037009941008    -0.000031039434    -0.000009811556    -0.086315580957    0.024926491319    -0.000035963438    -0.000014725834
            -0.000031039446    -0.000009811518    -0.108746059338    -0.033348831041    -0.000036530494    -0.000011003957    -0.083689063504    -0.036198740804
            -0.086315580957    0.024926491319    -0.000036530472    -0.000011003985    -0.106764535981    0.033593108673    -0.000045088133    -0.000019044406
            -0.000035963450    -0.000014725838    -0.083689024252    -0.036198758504    -0.000045088182    -0.000019044445    -0.108138225767    -0.037017854092
0.600     -0.087192437925    0.094873991858    -0.000032493383    0.000004578711    -0.076382969346    0.076665930649    -0.000039162460    0.000002232658
            -0.000032493353    0.000004578713    -0.117364622285    0.023968520411    -0.000038635421    0.000006051037    -0.097570349059    0.012494186269
            -0.076382969346    0.076665930649    -0.000038635392    0.000006050970    -0.090075231719    0.092162013566    -0.000049656212    0.000002115237
            -0.000039162473    0.000002232659    -0.097570292317    0.012494109769    -0.000049656199    0.000002115167    -0.118310439069    0.019989261387
0.625     -0.045461670056    0.137862483746    -0.000027862352    0.000017814833    -0.044496580774    0.118311008038    -0.000034849841    0.000018605119
            -0.000027862333    0.000017814861    -0.100035902997    0.079030304168    -0.000033391512    0.000022102508    -0.088607269841    0.062574851724
            -0.044496580774    0.118311008038    -0.000033391523    0.000022102515    -0.048821067985    0.136700678084    -0.000044634536    0.000023107633
            -0.000034849848    0.000018605084    -0.088607234505    0.062574780414    -0.000044634552    0.000023107611    -0.102060038865    0.075913140657
0.650     0.010746554070    0.158202869048    -0.000018387221    0.000027950380    0.002467358808    0.141827129371    -0.000024268524    0.000031633826
            -0.000018387207    0.000027950358    -0.060313432879    0.121555112520    -0.000022159581    0.000034512615    -0.058446765081    0.104269336889
            0.002467358808    0.141827129371    -0.000022159614    0.000034512548    0.007433293219    0.158048085807    -0.000031344459    0.000039981796
            -0.000024268525    0.000031633839    -0.058446790339    0.104269253948    -0.000031344475    0.000039981816    -0.062858607450    0.119055344599
0.675     0.069659723429    0.151723638571    -0.000005839576    0.000033433863    0.054802368746    0.142534388396    -0.000009463178    0.000039282932
            -0.000005839576    0.000033433836    -0.005972295821    0.142425207284    -0.000007065787    0.000041382099    -0.012970522588    0.128840105087
            0.054802366258    0.142534389353    -0.000007065811    0.000041382085    0.066681433768    0.152579635635    -0.000012381078    0.000050029878
            -0.000009463203    0.000039282916    -0.012970543317    0.128840062798    -0.000012381105    0.000050029875    -0.008905561723    0.140754433031
0.700     0.119360334577    0.120352355295    0.000007809127    0.000033766725    0.102241159378    0.120581921093    0.000007224336    0.000040643325
            0.000007809119    0.000033766706    0.051887880057    0.137643931809    0.000009508385    0.000041966489    0.038807562043    0.131472277852
            0.102241159378    0.120581921093    0.000009508389    0.000041966498    0.117144534079    0.122033322460    0.000009212895    0.000051832611
            0.000007224344    0.000040643342    0.038807496869    0.131472234530    0.000009212912    0.000051832638    0.048955523702    0.136951173085
0.725     0.150146208019    0.070449260576    0.000020852731    0.000028981085    0.135615430177    0.079987107288    0.000023579157    0.000035484024
            0.000020852709    0.000028981070    0.101933171701    0.108316908798    0.000025382044    0.000036228703    0.086959715055    0.111554009832
            0.135615430177    0.079987107288    0.000025381973    0.000036228714    0.149024432794    0.072558787308    0.000030343338    0.000044975697
            0.000023579166    0.000035484028    0.086959635333    0.111553995901    0.000030343357    0.000044975711    0.099454673969    0.108542595976
0.750     0.155575675813    0.011679684798    0.000031670015    0.000019352862    0.147832134331    0.028114037142    0.000037371879    0.000024009337
            0.000031670059    0.000019352820    0.134437706829    0.060052846626    0.000038467167    0.000024550324    0.122205212311    0.072532704568
            0.147832144645    0.028114036430    0.000038467180    0.000024550321    0.155685033953    0.013681746315    0.000047885397    0.000029853535
            0.000037371891    0.000024009335    0.122205131599    0.072532723001    0.000047885422    0.000029853539    0.132814580619    0.060931765567
0.775     0.133480411778    -0.044074596044    0.000038486015    0.000005503379    0.135047137666    -0.024859187057    0.000046165146    0.000007024902
            0.000038485991    0.000005503389    0.142777295242    0.001979736346    0.000046576510    0.000007820604    0.137309188580    0.021413526550
            0.135047124504    -0.024859148081    0.000046576521    0.000007820598    0.134704655403    -0.042763339078    0.000058631378    0.000007816912
            0.000046165157    0.000007024896    0.137309120065    0.021413576498    0.000058631403    0.000007816903    0.142271847210    0.003078507435
