# GHz S RI R 45
0.000     0.026847700000    0.000000000000    0.972679700000    -0.000000000000    0.000672253820    0.000000000000    -0.000839783560    0.000000000000
            0.972679700000    -0.000000000000    0.026657423000    0.000000000000    -0.000841081630    0.000000000000    0.000463475750    0.000000000000
            0.000672250330    0.000000000000    -0.000841055490    0.000000000000    0.026808075000    0.000000000000    0.972702510000    -0.000000000000
            -0.000839756410    0.000000000000    0.000463474940    0.000000000000    0.972702510000    -0.000000000000    0.026612993000    0.000000000000
0.025     0.035151471042    0.007835304931    0.932582553108    -0.261016986209    0.005142639205    0.012026209767    -0.001530627788    -0.002035679684
            0.932582553108    -0.261016986209    0.032748727209    0.008442767659    -0.001527093387    -0.002032756331    0.003219898256    0.012766294938
            0.005142625047    0.012026262587    -0.001527068992    -0.002032825812    0.035098030405    0.007832888853    0.932738582699    -0.260685693974
            -0.001530704026    -0.002035752229    0.003219774431    0.012766128156    0.932738582699    -0.260685693974    0.032656269335    0.008456925663
0.050     0.045597751393    0.005506004726    0.827049516580    -0.497279361167    0.016292918715    0.018430466730    -0.003462422640    -0.003296806860
            0.827049516580    -0.497279361167    0.038051038075    0.009958470642    -0.003455324793    -0.003295468431    0.010107889677    0.022593344154
            0.016292910484    0.018430483349    -0.003455302426    -0.003295489710    0.045588120754    0.005519616932    0.827464650810    -0.496727037068
            -0.003462400847    -0.003296829893    0.010107919660    0.022593331835    0.827464650810    -0.496727037068    0.037920725795    0.010039713873
0.075     0.054265833827    -0.004997356072    0.663989288210    -0.696189958789    0.029362581918    0.016139958409    -0.005843243886    -0.003359126805
            0.663989288210    -0.696189958789    0.041290451516    0.008345054521    -0.005831891031    -0.003360368666    0.018812476435    0.028083889948
            0.029362577130    0.016139967121    -0.005831869503    -0.003360388801    0.054336275219    -0.005007522580    0.664773000579    -0.695540159257
            -0.005843222532    -0.003359147094    0.018812481959    0.028083888655    0.664773000579    -0.695540159257    0.041144514907    0.008532614564
0.100     0.056063657244    -0.022140821502    0.455286262671    -0.844342066103    0.038667779160    0.005339610435    -0.008165550767    -0.002448640903
            0.455286262671    -0.844342066103    0.040935894751    0.005130169410    -0.008148928738    -0.002457001461    0.026728002604    0.029287454863
            0.038667780862    0.005339612733    -0.008148913026    -0.002457026203    0.056227625561    -0.022228108884    0.456501965027    -0.843761571174
            -0.008165537283    -0.002448666372    0.026728001418    0.029287454591    0.456501965027    -0.843761571174    0.040825671965    0.005451270209
0.125     0.047115781266    -0.041283084688    0.215694449227    -0.931878068749    0.039455327728    -0.010544143235    -0.010348992110    -0.000785797761
            0.215694449227    -0.931878068749    0.036245448930    0.002901436333    -0.010339320426    -0.000820555108    0.031773004233    0.027653768538
            0.039455330029    -0.010544142374    -0.010339313150    -0.000820583585    0.047356065374    -0.041522155768    0.217343074561    -0.931559906709
            -0.010348985204    -0.000785822669    0.031773003479    0.027653767881    0.217343074561    -0.931559906709    0.036244851522    0.003337684555
0.150     0.026802517431    -0.055849548627    -0.037693582605    -0.953020508633    0.029566770835    -0.025845750445    -0.012427414633    0.001763693148
            -0.037693582605    -0.953020508633    0.028247333957    0.004174946277    -0.012441115962    0.001705590226    0.032955905112    0.025542546941
            0.029566773243    -0.025845750730    -0.012441113888    0.001705561183    0.027071919776    -0.056285857983    -0.035686165184    -0.953156789400
            -0.012427413684    0.001763664249    0.032955903086    0.025542546291    -0.035686165184    -0.953156789400    0.028410463688    0.004679936816
0.175     -0.001777380389    -0.059426403165    -0.286972517074    -0.906470249456    0.010337206750    -0.034277633386    -0.014129095092    0.005594241409
            -0.286972517074    -0.906470249456    0.019153715871    0.010904238195    -0.014182245952    0.005525058546    0.030837587505    0.025513837974
            0.010337209122    -0.034277634759    -0.014182250936    0.005525031978    -0.001562606462    -0.060092688994    -0.284752683170    -0.907228977454
            -0.014129101183    0.005594212442    0.030837594270    0.025513834504    -0.284752683170    -0.907228977454    0.019510476378    0.011394531326
0.200     -0.032039361733    -0.047916684774    -0.514211468519    -0.795684914187    -0.013427462113    -0.030994150406    -0.014629050104    0.010964094801
            -0.514211468519    -0.795684914187    0.012176151594    0.023633908272    -0.014730895580    0.010906266605    0.027395208474    0.029399144428
            -0.013427462908    -0.030994152241    -0.014730908693    0.010906240491    -0.031986498776    -0.048802953852    -0.511991533114    -0.797185548148
            -0.014629062525    0.010964068224    0.027395205058    0.029399144878    -0.511991533114    -0.797185548148    0.012705201233    0.024010102925
0.225     -0.055616043579    -0.021288579550    -0.702823435384    -0.629076180985    -0.034660599344    -0.014413394770    -0.012741926319    0.017443218435
            -0.702823435384    -0.629076180985    0.010614272951    0.040993095314    -0.012887981576    0.017424331549    0.025387898395    0.037575091028
            -0.034660600267    -0.014413395154    -0.012887998701    0.017424310176    -0.055829717305    -0.022325354526    -0.700865505456    -0.631357894325
            -0.012741943501    0.017443197215    0.025387893996    0.037575091586    -0.700865505456    -0.631357894325    0.011236962827    0.041174725881
0.250     -0.064885457640    0.015806896042    -0.839258716051    -0.419623477359    -0.046197523746    0.012873291586    -0.007580644402    0.023663959420
            -0.839258716051    -0.419623477359    0.016695358887    0.059862268863    -0.007750567548    0.023706824122    0.027377328039    0.048740039278
            -0.046197526956    0.012873283792    -0.007750582234    0.023706813008    -0.065431732821    0.014746637839    -0.837839749140    -0.422628617428
            -0.007580659092    0.023663948414    0.027377325487    0.048740040711    -0.837839749140    -0.422628617428    0.017292896833    0.059821131516
0.275     -0.055533564605    0.055037882954    -0.914518260734    -0.183619170619    -0.043159846655    0.044627410232    0.000719389809    0.027685720212
            -0.914518260734    -0.183619170619    0.030680460928    0.076199560343    0.000555732970    0.027799021699    0.034781170914    0.060313587000
            -0.043159845265    0.044627408794    0.000555711442    0.027799013127    -0.056408114967    0.054114192053    -0.913893873321    -0.187194735887
            0.000719363430    0.027685709894    0.034781171967    0.060313586393    -0.913893873321    -0.187194735887    0.031128761085    0.075978069722
0.300     -0.028145070091    0.086718581596    -0.924946525774    0.061220689126    -0.024618548048    0.072791683065    0.010738602958    0.027867736290
            -0.924946525774    0.061220689126    0.050618887577    0.086312837548    0.010609645683    0.028043323636    0.047365822557    0.069328046826
            -0.024618561072    0.072791679715    0.010609618079    0.028043320180    -0.029257794266    0.086084246640    -0.925310564744    0.057317587071
            0.010738575424    0.027867732968    0.047365820056    0.069328050958    -0.925310564744    0.057317587071    0.050831235563    0.086018042248
0.325     0.011828993416    0.102590915143    -0.871990042154    0.297700039123    0.006110782708    0.089849934560    0.020239611363    0.023717427324
            -0.871990042154    0.297700039123    0.072885827078    0.088000117869    0.020161984118    0.023936674159    0.063347696391    0.073387562499
            0.006110781208    0.089849935664    0.020161956490    0.023936677818    0.010644335451    0.102344728243    -0.873455287828    0.293762999962
            0.020239588437    0.023717429799    0.063347695137    0.073387566224    -0.873455287828    0.293762999962    0.072842258135    0.087775690651
0.350     0.055516742194    0.098033240203    -0.761230310284    0.510526979729    0.042424714337    0.090823945715    0.027129010016    0.016187772677
            -0.761230310284    0.510526979729    0.093238197848    0.081193124065    0.027105242537    0.016434512011    0.079982125241    0.071359531415
            0.042424714337    0.090823945715    0.027105224818    0.016434518090    0.054470413002    0.098183852686    -0.763815947673    0.506874754095
            0.027128992366    0.016187778839    0.079982123995    0.071359532811    -0.763815947673    0.506874754095    0.092998159188    0.081178757452
0.375     0.092815289688    0.073118037505    -0.601188536482    0.686895880176    0.076069877502    0.074383805893    0.030363867701    0.007228576867
            -0.601188536482    0.686895880176    0.107962193906    0.067909745668    0.030391047252    0.007500135932    0.094321533141    0.063616052420
            0.076069876203    0.074383807221    0.030391024802    0.007500151775    0.092113594578    0.073566722490    -0.604830015296    0.683841569963
            0.030363844550    0.007228592075    0.094321532031    0.063616054067    -0.604830015296    0.683841569963    0.107652646725    0.068200836108
0.400     0.114607956819    0.032589707532    -0.402458989400    0.816503033118    0.098902573065    0.043138929829    0.030329641605    -0.001153534372
            -0.402458989400    0.816503033118    0.114791183904    0.051713417579    0.030415829721    -0.000843588099    0.103947610831    0.051931436090
            0.098902572312    0.043138931555    0.030415817092    -0.000843574521    0.114400742401    0.033135572461    -0.407013202837    0.814342305904
            0.030329623370    -0.001153513905    0.103947609925    0.051931437904    -0.407013202837    0.814342305904    0.114577634094    0.052331252602
0.425     0.114662909189    -0.014973426865    -0.177332055232    0.891392172605    0.104524485184    0.003306481623    0.028486919126    -0.007856857361
            -0.177332055232    0.891392172605    0.113437187237    0.036853940183    0.028669334219    -0.007488156558    0.107555548379    0.039098854777
            0.104524483839    0.003306524129    0.028669321194    -0.007488131242    0.114994412560    -0.014604643928    -0.182581534103    0.890391714222
            0.028486909466    -0.007856835971    0.107555547696    0.039098856654    -0.182581534103    0.890391714222    0.113483134970    0.037732426948
0.450     0.091164015453    -0.058601179015    0.060201978791    0.906080827260    0.089831789707    -0.036153230441    0.026442404778    -0.013183471966
            0.060201978791    0.906080827260    0.105742730448    0.027293924685    0.026803425742    -0.012748140930    0.105393815160    0.028339760017
            0.089831792490    -0.036153231561    0.026803418610    -0.012748114018    0.091933261307    -0.058705871569    0.054550153972    0.906463734345
            0.026442398103    -0.013183445013    0.105393814665    0.028339761856    0.054550153972    0.906463734345    0.106165038365    0.028287212805
0.475     0.047723374608    -0.087030944562    0.294430774582    0.858197440710    0.056321639613    -0.065129309886    0.024855304538    -0.018554111033
            0.294430774582    0.858197440710    0.095397991323    0.025684486799    0.025545720243    -0.018080218133    0.099415158118    0.022464758678
            0.056321639613    -0.065129309886    0.025545720243    -0.018080218133    0.048664536044    -0.087855429731    0.288748788317    0.860123406140
            0.024855304538    -0.018554111033    0.099415158118    0.022464758678    0.288748788317    0.860123406140    0.096230369590    0.026596810607
0.500     -0.006547803234    -0.091481614604    0.508429041356    0.749608557338    0.010665389878    -0.074835805643    0.022798438108    -0.025449731676
            0.508429041356    0.749608557338    0.087160106347    0.032477782788    0.024147871617    -0.025020888981    0.092968501847    0.022930649415
            0.010665391607    -0.074835808426    0.024147872054    -0.025020888560    -0.005871612163    -0.093141694558    0.503158937283    0.753125202866
            0.022798461601    -0.025449643502    0.092968499505    0.022930650558    0.503158950427    0.753125194084    0.088339427789    0.033107605631
0.525     -0.058605797743    -0.068578620714    0.685539924457    0.587470925353    -0.036375884666    -0.060750868321    0.018110887616    -0.034074281501
            0.685539914204    0.587470937318    0.085492061934    0.045497816424    0.021647158896    -0.033636636452    0.089831575891    0.029117756889
            -0.036375886721    -0.060750871753    0.021647179866    -0.033636596794    -0.058976306615    -0.071061123868    0.681150038894    0.592448495869
            0.018110909656    -0.034074242608    0.089831572972    0.029117759408    0.681150038894    0.592448495869    0.086927467475    0.045661037894
0.550     -0.094880372055    -0.022251701701    0.811743282709    0.384632224732    -0.071254126656    -0.025491304515    0.008740334698    -0.042578205896
            0.811743282709    0.384632224732    0.093305386060    0.059577164088    0.006403831952    -0.036074488401    0.093016380718    0.037825197659
            -0.071254126656    -0.025491304515    0.006403831777    -0.036074487416    -0.094585803366    -0.026553528029    0.808973839836    0.390921527174
            0.008740334698    -0.042578205896    0.093016380718    0.037825197659    0.808973839836    0.390921527174    0.094675879248    0.059874128305
0.575     -0.105455346436    0.037009941008    0.877915847815    0.157479588579    -0.086315580957    0.024926491319    -0.005740769726    -0.047880298583
            0.877915847815    0.157479588579    0.110514075037    0.070683235851    -0.006462811842    -0.045392147379    0.103470929769    0.045864787053
            -0.086315580957    0.024926491319    -0.006462811842    -0.045392147379    -0.106764535981    0.033593108673    0.876772242051    0.164621099594
            -0.005740769726    -0.047880298583    0.103470929769    0.045864787053    0.876772242051    0.164621099594    0.111560131927    0.070418512216
0.600     -0.087192437925    0.094873991858    0.881509997058    -0.075543700215    -0.076382969346    0.076665930649    -0.023976058509    -0.046423892372
            0.881509997190    -0.075543698676    0.133826951609    0.073342535346    -0.022764658627    -0.044448485308    0.119514680670    0.048782537666
            -0.076382969346    0.076665930649    -0.022764575148    -0.044448456157    -0.090075231719    0.092162013566    0.882287523297    -0.068139824504
            -0.023976058509    -0.046423892372    0.119514678116    0.048782543924    0.882287523297    -0.068139824504    0.134565922525    0.072802756687
0.625     -0.045461670056    0.137862483746    0.825521845083    -0.297819187150    -0.044496580774    0.118311008038    -0.039425867436    -0.035132203010
            0.825521845083    -0.297819187150    0.158507119116    0.065524273400    -0.038126807810    -0.035595112332    0.137910896893    0.044432110346
            -0.044496580774    0.118311008038    -0.038126763589    -0.035595108410    -0.048821067985    0.136700678084    0.828227403674    -0.290629378952
            -0.039425867436    -0.035132203010    0.137910895342    0.044432115160    0.828227403674    -0.290629378952    0.158720074562    0.065034746642
0.650     0.010746554070    0.158202869048    0.716660111449    -0.495348718610    0.002467358808    0.141827129371    -0.048746079465    -0.020013039282
            0.716660111449    -0.495348718610    0.179391411943    0.047783264031    -0.048451890050    -0.020618154234    0.155114344556    0.032401048706
            0.002467358808    0.141827129371    -0.048451890050    -0.020618154234    0.007433293219    0.158048085807    0.721259715679    -0.488903575189
            -0.048746079465    -0.020013039282    0.155114345122    0.032401045999    0.721259715679    -0.488903575189    0.179362768666    0.047651282094
0.675     0.069659723429    0.151723638571    0.564161896140    -0.657488539864    0.054802368746    0.142534388396    -0.051387117199    -0.002705873445
            0.564161907616    -0.657488530018    0.192386627955    0.023015444925    -0.051407611024    -0.003125762525    0.167642687432    0.013955127581
            0.054802366258    0.142534389353    -0.051407529987    -0.003125793619    0.066681433768    0.152579635635    0.570413341286    -0.652275568341
            -0.051387117199    -0.002705873445    0.167642696886    0.013955134555    0.570413347869    -0.652275575869    0.192339433956    0.023276497221
0.700     0.119360334577    0.120352355295    0.378013437230    -0.776414729654    0.102241159378    0.120581921093    -0.047079231505    0.013056713099
            0.378013437230    -0.776414729654    0.195276135490    -0.004488340654    -0.047195760347    0.012782982549    0.173117101742    -0.008240549037
            0.102241159378    0.120581921093    -0.047195760347    0.012782982549    0.117144534079    0.122033322460    0.385586735617    -0.772822932404
            -0.047079231505    0.013056713099    0.173117101742    -0.008240549037    0.385586735617    -0.772822932404    0.195418064891    -0.003867408856
0.725     0.150146208019    0.070449260576    0.168710616588    -0.846216765594    0.135615430177    0.079987107288    -0.038122053889    0.024259206259
            0.168710616588    -0.846216765594    0.187961785354    -0.029975416403    -0.038248390144    0.024069556106    0.170502106303    -0.030786295516
            0.135615430177    0.079987107288    -0.038248362999    0.024069520385    0.149024432794    0.072558787308    0.177206870548    -0.844564183527
            -0.038122053889    0.024259206259    0.170502106840    -0.030786292540    0.177206870548    -0.844564183527    0.188470626531    -0.029122174067
0.750     0.155575675813    0.011679684798    -0.052492876784    -0.862477662706    0.147832134331    0.028114037142    -0.028011820283    0.030010896208
            -0.052492876784    -0.862477662706    0.172437949694    -0.049086238190    -0.028128702962    0.029841074200    0.160316105897    -0.050031497204
            0.147832144645    0.028114036430    -0.028128661656    0.029840999074    0.155685033953    0.013681746315    -0.043535340608    -0.863009626905
            -0.028011820965    0.030010896939    0.160316115443    -0.050031500183    -0.043535340608    -0.863009626905    0.173415496159    -0.048205404016
0.775     0.133480411778    -0.044074596044    -0.273017211466    -0.822403704574    0.135047137666    -0.024859187057    -0.019826328520    0.031801766586
            -0.273017211466    -0.822403704574    0.152550852880    -0.058654144398    -0.019965198154    0.031608074301    0.144769148183    -0.062698400745
            0.135047124504    -0.024859148081    -0.019965204204    0.031608071662    0.134704655403    -0.042763339078    -0.264140693552    -0.825283933714
            -0.019826334600    0.031801763974    0.144769148183    -0.062698400745    -0.264140696600    -0.825283943238    0.153986367857    -0.057988786674
