# GHz S RI R 45
0.000     0.026847700000    0.000000000000    -0.000004460241    0.000000000000    0.000672253820    0.000000000000    0.000000048444    -0.000000000000
            -0.000004460153    0.000000000000    0.026550537000    0.000000000000    -0.000007798957    0.000000000000    0.000707558620    -0.000000000000
            0.000672250330    0.000000000000    -0.000007798608    0.000000000000    0.026808075000    0.000000000000    0.000015600817    -0.000000000000
            0.000000048439    -0.000000000000    0.000707558630    -0.000000000000    0.000015600838    -0.000000000000    0.026373635000    0.000000000000
0.025     0.035151471042    0.007835304931    -0.000003464396    -0.000004917075    0.005142639205    0.012026209767    -0.000003633164    -0.000008360738
            -0.000003464315    -0.000004917119    0.034108877755    0.006729677329    -0.000002944042    -0.000004494527    0.004576293980    0.010867457291
            0.005142625047    0.012026262587    -0.000002943927    -0.000004494578    0.035098030405    0.007832888853    -0.000014533009    -0.000019723897
            -0.000003633165    -0.000008360739    0.004576282208    0.010867507820    -0.000014533013    -0.000019723895    0.034068889156    0.006734693539
0.050     0.045597751393    0.005506004726    -0.000013072923    -0.000009065397    0.016292918715    0.018430466730    -0.000015554580    -0.000010596411
            -0.000013072873    -0.000009065460    0.043486136381    0.004231207267    -0.000014050774    -0.000012140975    0.014506086604    0.016967968934
            0.016292910484    0.018430483349    -0.000014050715    -0.000012141049    0.045588120754    0.005519616932    -0.000030278320    -0.000006789327
            -0.000015554581    -0.000010596408    0.014506079192    0.016967981849    -0.000030278319    -0.000006789327    0.043489382380    0.004245859133
0.075     0.054265833827    -0.004997356072    -0.000025088769    -0.000001818901    0.029362581918    0.016139958409    -0.000028120488    -0.000001975609
            -0.000025088750    -0.000001818983    0.051319377165    -0.005493176388    -0.000030206040    -0.000004477642    0.026425790330    0.015447138109
            0.029362577130    0.016139967121    -0.000030206020    -0.000004477730    0.054336275219    -0.005007522580    -0.000036538803    0.000009261489
            -0.000028120488    -0.000001975599    0.026425785692    0.015447144061    -0.000036538803    0.000009261483    0.051400387138    -0.005495880640
0.100     0.056063657244    -0.022140821502    -0.000030333391    0.000014906662    0.038667779160    0.005339610435    -0.000033571508    0.000016132332
            -0.000030333407    0.000014906584    0.053203755950    -0.021189095374    -0.000038335669    0.000016118650    0.035424912581    0.006295841780
            0.038667780862    0.005339612733    -0.000038335687    0.000016118563    0.056227625561    -0.022228108884    -0.000034934363    0.000028628029
            -0.000033571508    0.000016132325    0.035424912581    0.006295841780    -0.000034934368    0.000028628023    0.053384371712    -0.021253556987
0.125     0.047115781266    -0.041283084688    -0.000023395896    0.000034790397    0.039455327728    -0.010544143235    -0.000026357297    0.000037675336
            -0.000023395949    0.000034790330    0.045688979094    -0.038966204874    -0.000031090898    0.000041563781    0.037295197717    -0.007750881064
            0.039455330029    -0.010544142374    -0.000031090949    0.000041563714    0.047356065374    -0.041522155768    -0.000022839256    0.000048209152
            -0.000026357289    0.000037675339    0.037295197717    -0.007750881064    -0.000022839256    0.000048209152    0.045966434742    -0.039140662228
0.150     0.026802517431    -0.055849548627    -0.000003709622    0.000049480117    0.029566770835    -0.025845750445    -0.000005496220    0.000054127100
            -0.000003709705    0.000049480077    0.028015047433    -0.053163416388    -0.000007395811    0.000061187342    0.029906677073    -0.021996748844
            0.029566773243    -0.025845750730    -0.000007395890    0.000061187301    0.027071919776    -0.056285857983    0.000000561132    0.000061962464
            -0.000005496220    0.000054127100    0.029906677073    -0.021996748844    0.000000561127    0.000061962465    0.028362726029    -0.053515364577
0.175     -0.001777380389    -0.059426403165    0.000024156295    0.000051462411    0.010337206750    -0.034277633386    0.000024677308    0.000057391633
            0.000024156203    0.000051462409    0.002549409395    -0.058147590977    0.000027265305    0.000065275635    0.013993077712    -0.031052528541
            0.010337209122    -0.034277634759    0.000027265215    0.000065275631    -0.001562606462    -0.060092688994    0.000032149939    0.000063147389
            0.000024677312    0.000057391631    0.013993077712    -0.031052528541    0.000032149938    0.000063147391    0.002902184941    -0.058728766447
0.200     -0.032039361733    -0.047916684774    0.000051732552    0.000036974500    -0.013427462113    -0.030994150406    0.000055451766    0.000042916569
            0.000051732468    0.000036974537    -0.025308576760    -0.050054743310    0.000062435266    0.000048754332    -0.006771453426    -0.030506355606
            -0.013427462908    -0.030994152241    0.000062435185    0.000048754367    -0.031986498776    -0.048802953852    0.000064447456    0.000046990959
            0.000055451769    0.000042916566    -0.006771453426    -0.030506355606    0.000064447456    0.000046990959    -0.025046320412    -0.050881205266
0.225     -0.055616043579    -0.021288579550    0.000069305819    0.000007782468    -0.034660599344    -0.014413394770    0.000076323040    0.000011865732
            0.000069305761    0.000007782536    -0.048432963369    -0.028292663630    0.000085932169    0.000013373316    -0.026630263266    -0.018442494820
            -0.034660600267    -0.014413395154    0.000085932112    0.000013373386    -0.055829717305    -0.022325354526    0.000087419548    0.000013574084
            0.000076323039    0.000011865730    -0.026630264088    -0.018442495389    0.000087419547    0.000013574081    -0.048367681433    -0.029327422696
0.250     -0.064885457640    0.015806896042    0.000069516273    -0.000028866054    -0.046197523746    0.012873291586    0.000078755222    -0.000028544102
            0.000069516248    -0.000028865970    -0.059962307733    0.003794888693    0.000088255199    -0.000032275845    -0.039378430064    0.003677664181
            -0.046197526956    0.012873283792    0.000088255174    -0.000032275761    -0.065431732821    0.014746637839    0.000091712707    -0.000030894861
            0.000078755218    -0.000028544105    -0.039378430064    0.003677664181    0.000091712731    -0.000030894946    -0.060179760192    0.002647226155
0.275     -0.055533564605    0.055037882954    0.000050195391    -0.000062515046    -0.043159846655    0.044627410232    0.000059468459    -0.000067131253
            0.000050195405    -0.000062514960    -0.055437311809    0.039510884004    0.000066081907    -0.000075378344    -0.040283309548    0.031196429053
            -0.043159845265    0.044627408794    0.000066081925    -0.000075378261    -0.056408114967    0.054114192053    0.000072537647    -0.000075394280
            0.000059468454    -0.000067131255    -0.040283309548    0.031196429053    0.000072537642    -0.000075394327    -0.055970030261    0.038390351953
0.300     -0.028145070091    0.086718581596    0.000015257768    -0.000083163375    -0.024618548048    0.072791683065    0.000021822454    -0.000092534243
            0.000015257770    -0.000083163372    -0.034332738947    0.070499788048    0.000023580284    -0.000103258714    -0.027611893061    0.057500120175
            -0.024618561072    0.072791679715    0.000023580337    -0.000103258640    -0.029257794266    0.086084246640    0.000031788766    -0.000107427918
            0.000021822450    -0.000092534242    -0.027611893061    0.057500120175    0.000031788766    -0.000107427918    -0.035137196114    0.069559885611
0.325     0.011828993416    0.102590915143    -0.000026810145    -0.000084421750    0.006110782708    0.089849934560    -0.000025389869    -0.000096824760
            -0.000026810067    -0.000084421708    -0.000392436459    0.089013135928    -0.000029138073    -0.000107303660    -0.003199072674    0.075859367763
            0.006110781208    0.089849935664    -0.000029138028    -0.000107303641    0.010644335451    0.102344728243    -0.000022326541    -0.000117055478
            -0.000025389869    -0.000096824760    -0.003199072674    0.075859367763    -0.000022326541    -0.000117055478    -0.001346176148    0.088378346139
0.350     0.055516742194    0.098033240203    -0.000065756979    -0.000065026175    0.042424714337    0.090823945715    -0.000070772941    -0.000077550963
            -0.000065756976    -0.000065026172    0.039243287998    0.089955826267    -0.000079271750    -0.000085130596    0.028021580413    0.081207929038
            0.042424714337    0.090823945715    -0.000079271750    -0.000085130596    0.054470413002    0.098183852686    -0.000077626670    -0.000099547418
            -0.000070772948    -0.000077550943    0.028021580413    0.081207929038    -0.000077626753    -0.000099547417    0.038321845656    0.089682881133
0.375     0.092815289688    0.073118037505    -0.000092154875    -0.000028537098    0.076069877502    0.074383805893    -0.000103255718    -0.000037831844
            -0.000092154828    -0.000028537119    0.075740801196    0.072133168741    -0.000114583790    -0.000040567156    0.059216527712    0.071345728851
            0.076069876203    0.074383807221    -0.000114583703    -0.000040567192    0.092113594578    0.073566722490    -0.000120986368    -0.000056353693
            -0.000103255718    -0.000037831844    0.059216527712    0.071345728851    -0.000120986368    -0.000056353693    0.075055249977    0.072184741429
0.400     0.114607956819    0.032589707532    -0.000099132606    0.000017796888    0.098902573065    0.043138929829    -0.000114268283    0.000014638105
            -0.000099132546    0.000017796824    0.100530957871    0.038565817848    -0.000125834589    0.000017554392    0.083143735090    0.047451801736
            0.098902572312    0.043138931555    -0.000125834528    0.000017554317    0.114400742401    0.033135572461    -0.000140911291    0.000005220965
            -0.000114268283    0.000014638105    0.083143735090    0.047451801736    -0.000140911291    0.000005220965    0.100260226452    0.038803905700
0.425     0.114662909189    -0.014973426865    -0.000083371695    0.000064251895    0.104524485184    0.003306481623    -0.000099160681    0.000068888186
            -0.000083371673    0.000064251809    0.107124254108    -0.004029166400    -0.000108301839    0.000076962299    0.093636436096    0.013970385252
            0.104524483839    0.003306524129    -0.000108301839    0.000076962299    0.114994412560    -0.014604643928    -0.000129771696    0.000072977487
            -0.000099160681    0.000068888186    0.093636436096    0.013970385252    -0.000129771696    0.000072977487    0.107374529016    -0.003828190980
0.450     0.091164015453    -0.058601179015    -0.000046031701    0.000099903122    0.089831789707    -0.036153230441    -0.000058465429    0.000112167516
            -0.000046031724    0.000099903034    0.092597129682    -0.046394796240    -0.000063048649    0.000123734282    0.086990605466    -0.022026152939
            0.089831792490    -0.036153231561    -0.000063048649    0.000123734282    0.091933261307    -0.058705871569    -0.000085931734    0.000131340367
            -0.000058465429    0.000112167516    0.086990605466    -0.022026152939    -0.000085931734    0.000131340367    0.093360681694    -0.046503882077
0.475     0.047723374608    -0.087030944562    0.000006368680    0.000114511606    0.056321639613    -0.065129309886    0.000000972418    0.000132180143
            0.000006368656    0.000114511568    0.058583822010    -0.078463715117    0.000002076025    0.000144783077    0.063113609343    -0.052050478065
            0.056321639613    -0.065129309886    0.000002076025    0.000144783077    0.048664536044    -0.087855429731    -0.000015712056    0.000164157538
            0.000000972418    0.000132180143    0.063113609343    -0.052050478065    -0.000015712056    0.000164157538    0.059715127370    -0.079147930887
0.500     -0.006547803234    -0.091481614604    0.000061954719    0.000101546519    0.010665389878    -0.074835805643    0.000065870968    0.000120600795
            0.000061954719    0.000101546519    0.011519558151    -0.091588464190    0.000072570512    0.000131545929    0.026157576460    -0.068049337217
            0.010665391607    -0.074835808426    0.000072570510    0.000131545930    -0.005871612163    -0.093141694558    0.000065990148    0.000159165875
            0.000065870968    0.000120600795    0.026157576460    -0.068049337217    0.000065990148    0.000159165875    0.012739949189    -0.093033567828
0.525     -0.058605797743    -0.068578620714    0.000105769154    0.000061580946    -0.036375884666    -0.060750868321    0.000118955294    0.000077092112
            0.000105769140    0.000061580931    -0.038288804852    -0.080940986607    0.000130131511    0.000084016402    -0.015879648798    -0.064645040087
            -0.036375886721    -0.060750871753    0.000130131506    0.000084016392    -0.058976306615    -0.071061123868    0.000138414096    0.000113254423
            0.000118955297    0.000077092090    -0.015879648798    -0.064645040087    0.000138414092    0.000113254443    -0.037344643173    -0.083185708489
0.550     -0.094880372055    -0.022251701701    0.000124668274    0.000003888438    -0.071254126656    -0.025491304515    0.000144439173    0.000011420914
            0.000124668274    0.000003888437    -0.078964636518    -0.047345487541    0.000157162511    0.000013919444    -0.052911269914    -0.041089628891
            -0.071254126656    -0.025491304515    0.000157162472    0.000013919431    -0.094585803366    -0.026553528029    0.000179761233    0.000036958987
            0.000144439174    0.000011420913    -0.052911269914    -0.041089628891    0.000179761245    0.000036959025    -0.078664212159    -0.050241477278
0.575     -0.105455346436    0.037009941008    0.000112644461    -0.000056111778    -0.086315580957    0.024926491319    0.000134251352    -0.000059077647
            0.000112644461    -0.000056111778    -0.100295048278    0.002420419160    0.000146452546    -0.000062932525    -0.075569420764    -0.001926656204
            -0.086315580957    0.024926491319    0.000146452546    -0.000062932525    -0.106764535981    0.033593108673    0.000178957045    -0.000053211994
            0.000134251352    -0.000059077647    -0.075569420764    -0.001926656204    0.000178957045    -0.000053211994    -0.100903559205    -0.000803712289
0.600     -0.087192437925    0.094873991858    0.000073339388    -0.000102293298    -0.076382969346    0.076665930649    0.000091318274    -0.000115469321
            0.000073339314    -0.000102293278    -0.096722093980    0.057304872479    0.000100680318    -0.000124593399    -0.078001977229    0.044164217625
            -0.076382969346    0.076665930649    0.000100680323    -0.000124593408    -0.090075231719    0.092162013566    0.000135471168    -0.000131839300
            0.000091318201    -0.000115469303    -0.078001977229    0.044164217625    0.000135471171    -0.000131839297    -0.098318800630    0.054182418863
0.625     -0.045461670056    0.137862483746    0.000018433637    -0.000124165345    -0.044496580774    0.118311008038    0.000028349372    -0.000144530106
            0.000018433637    -0.000124165345    -0.068804833908    0.105080590815    0.000032225975    -0.000157146595    -0.059402474329    0.086919401177
            -0.044496580774    0.118311008038    0.000032225975    -0.000157146595    -0.048821067985    0.136700678084    0.000060709428    -0.000180862078
            0.000028349372    -0.000144530106    -0.059402474329    0.086919401177    0.000060709432    -0.000180862077    -0.071251249114    0.102492413905
0.650     0.010746554070    0.158202869048    -0.000039443551    -0.000119060894    0.002467358808    0.141827129371    -0.000040053435    -0.000142075716
            -0.000039443551    -0.000119060894    -0.022693189121    0.135550101221    -0.000042377006    -0.000154982250    -0.023805799644    0.117248148633
            0.002467358808    0.141827129371    -0.000042377006    -0.000154982250    0.007433293219    0.158048085807    -0.000027600059    -0.000190576313
            -0.000040053435    -0.000142075716    -0.023805799644    0.117248148633    -0.000027600059    -0.000190576313    -0.025660963143    0.133824848820
0.675     0.069659723429    0.151723638571    -0.000088398983    -0.000089449371    0.054802368746    0.142534388396    -0.000099617866    -0.000109975896
            -0.000088398983    -0.000089449371    0.031835150713    0.142689531362    -0.000107584245    -0.000120485210    0.021396551407    0.129127438596
            0.054802366258    0.142534389353    -0.000107584245    -0.000120485210    0.066681433768    0.152579635635    -0.000110987810    -0.000160343192
            -0.000099617859    -0.000109975888    0.021396551407    0.129127438596    -0.000110987799    -0.000160343176    0.028792378285    0.141977851443
0.700     0.119360334577    0.120352355295    -0.000119842116    -0.000041980370    0.102241159378    0.120581921093    -0.000139485710    -0.000055474240
            -0.000119842116    -0.000041980370    0.083754103294    0.125405376542    -0.000151476858    -0.000061326687    0.067294256958    0.120365629257
            0.102241159378    0.120581921093    -0.000151476858    -0.000061326687    0.117144534079    0.122033322460    -0.000173579705    -0.000096443858
            -0.000139485710    -0.000055474240    0.067294256958    0.120365629257    -0.000173579705    -0.000096443858    0.081110368310    0.125646490053
0.725     0.150146208019    0.070449260576    -0.000128446580    0.000014994444    0.135615430177    0.079987107288    -0.000152618436    0.000011696325
            -0.000128446170    0.000014994328    0.122846242355    0.087234464933    -0.000166164370    0.000011825870    0.105039126409    0.092545128364
            0.135615430177    0.079987107288    -0.000166164360    0.000011825869    0.149024432794    0.072558787308    -0.000203239566    -0.000010008699
            -0.000152618426    0.000011696324    0.105039126409    0.092545128364    -0.000203239566    -0.000010008699    0.121014465146    0.088163463877
0.750     0.155575675813    0.011679684798    -0.000111603013    0.000071934675    0.147832134331    0.028114037142    -0.000135343972    0.000080107833
            -0.000111602979    0.000071934654    0.141255159774    0.035527476057    -0.000147641267    0.000086310268    0.127088650328    0.050652091601
            0.147832144645    0.028114036430    -0.000147641267    0.000086310268    0.155685033953    0.013681746315    -0.000192185856    0.000083942486
            -0.000135343933    0.000080107841    0.127088650328    0.050652091601    -0.000192185856    0.000083942486    0.140506932899    0.036712163360
0.775     0.133480411778    -0.044074596044    -0.000069886173    0.000117964780    0.135047137666    -0.024859187057    -0.000087917261    0.000136636247
            -0.000069886173    0.000117964780    0.134683346977    -0.019617455945    -0.000096422968    0.000147758198    0.128325578448    0.002542343121
            0.135047124504    -0.024859148081    -0.000096422957    0.000147758181    0.134704655403    -0.042763339078    -0.000138427220    0.000167021374
