# GHz S RI R 45
0.000     0.026847700000    0.000000000000    -0.000001901221    0.000000000000    0.000672253820    0.000000000000    -0.000001994910    0.000000000000
            -0.000001901237    0.000000000000    0.027667779000    0.000000000000    0.000033201530    -0.000000000000    0.000635003860    0.000000000000
            0.000672250330    0.000000000000    0.000033201432    -0.000000000000    0.026808075000    0.000000000000    -0.000002934417    0.000000000000
            -0.000001994912    0.000000000000    0.000634922210    0.000000000000    -0.000002934426    0.000000000000    0.027609620000    0.000000000000
0.025     0.035151471042    0.007835304931    0.000001670190    -0.000000308745    0.005142639205    0.012026209767    0.000000168421    -0.000001180404
            0.000001670180    -0.000000308739    0.033916162985    0.007910776429    -0.000013178685    -0.000026058062    0.003598699972    0.012483864754
            0.005142625047    0.012026262587    -0.000013178708    -0.000026058051    0.035098030405    0.007832888853    0.000003219017    0.000001236682
            0.000000168421    -0.000001180404    0.003598492755    0.012483701773    0.000003219007    0.000001236688    0.033874367200    0.007973601020
0.050     0.045597751393    0.005506004726    0.000000284671    -0.000004431724    0.016292918715    0.018430466730    -0.000001550130    -0.000004592890
            0.000000284656    -0.000004431717    0.039625855467    0.008372931034    -0.000026364980    -0.000004298241    0.011107695264    0.021602853999
            0.016292910484    0.018430483349    -0.000026364981    -0.000004298241    0.045588120754    0.005519616932    0.000003029107    -0.000004003995
            -0.000001550124    -0.000004592894    0.011107644916    0.021602850651    0.000003029099    -0.000004003990    0.039648564584    0.008494666877
0.075     0.054265833827    -0.004997356072    -0.000003437938    -0.000006217906    0.029362581918    0.016139958409    -0.000005374981    -0.000005913855
            -0.000003437950    -0.000006217896    0.043000368355    0.005146451597    -0.000023004539    0.000009553563    0.020335403617    0.025624719576
            0.029362577130    0.016139967121    -0.000023004539    0.000009553563    0.054336275219    -0.005007522580    -0.000000379576    -0.000006907848
            -0.000005374980    -0.000005913857    0.020335329632    0.025624731054    -0.000000379582    -0.000006907841    0.043123578430    0.005274216728
0.100     0.056063657244    -0.022140821502    -0.000007780307    -0.000005632715    0.038667779160    0.005339610435    -0.000009702034    -0.000004956641
            -0.000007780315    -0.000005632704    0.042074520507    -0.000078640806    -0.000015662806    0.000016811103    0.028086302065    0.024731032117
            0.038667780862    0.005339612733    -0.000015662804    0.000016811107    0.056227625561    -0.022228108884    -0.000004825210    -0.000007488006
            -0.000009702036    -0.000004956638    0.028086222989    0.024731047774    -0.000004825210    -0.000007488006    0.042295796615    -0.000010825641
0.125     0.047115781266    -0.041283084688    -0.000011654776    -0.000002897854    0.039455327728    -0.010544143235    -0.000013553564    -0.000001879666
            -0.000011654779    -0.000002897844    0.035814928345    -0.004312980570    -0.000008149929    0.000019217838    0.031869685105    0.020853019887
            0.039455330029    -0.010544142374    -0.000008149926    0.000019217840    0.047356065374    -0.041522155768    -0.000009256795    -0.000005907414
            -0.000013553563    -0.000001879663    0.031869607891    0.020853039269    -0.000009256797    -0.000005907406    0.036090612405    -0.004358225284
0.150     0.026802517431    -0.055849548627    -0.000014298142    0.000001655335    0.029566770835    -0.025845750445    -0.000016176217    0.000003047821
            -0.000014298144    0.000001655353    0.025272922384    -0.004342429097    -0.000002067554    0.000018661831    0.030642106234    0.017036195860
            0.029566773243    -0.025845750730    -0.000002067558    0.000018661927    0.027071919776    -0.056285857983    -0.000012951762    -0.000002290715
            -0.000016176216    0.000003047824    0.030642020825    0.017036221887    -0.000012951764    -0.000002290706    0.025541760803    -0.004533026894
0.175     -0.001777380389    -0.059426403165    -0.000015009196    0.000007490546    0.010337206750    -0.034277633386    -0.000016823724    0.000009359077
            -0.000015009194    0.000007490561    0.013093890268    0.002289321444    0.000002049975    0.000016840463    0.025341814814    0.016490642729
            0.010337209122    -0.034277634759    0.000002049993    0.000016840557    -0.001562606462    -0.060092688994    -0.000015102296    0.000003052726
            -0.000016823724    0.000009359077    0.025341739206    0.016490669079    -0.000015102295    0.000003052731    0.013274985229    0.001958812851
0.200     -0.032039361733    -0.047916684774    -0.000013212384    0.000013835941    -0.013427462113    -0.030994150406    -0.000014823810    0.000016289030
            -0.000013212380    0.000013835956    0.003203318765    0.016342510352    0.000004721882    0.000015009268    0.018689331247    0.021401682540
            -0.013427462908    -0.030994152241    0.000004721923    0.000015009355    -0.031986498776    -0.048802953852    -0.000014899884    0.000009516365
            -0.000014823807    0.000016289033    0.018689258026    0.021401713291    -0.000014899880    0.000009516374    0.003222710308    0.015924410457
0.225     -0.055616043579    -0.021288579550    -0.000008638427    0.000019539884    -0.034660599344    -0.014413394770    -0.000009809140    0.000022620863
            -0.000008638420    0.000019539895    -0.000318198507    0.036210478947    0.000006805231    0.000013701557    0.014324929830    0.032006152703
            -0.034660600267    -0.014413395154    0.000006805261    0.000013701591    -0.055829717305    -0.022325354526    -0.000011787654    0.000015964397
            -0.000009809136    0.000022620865    0.014324857468    0.032006187280    -0.000011787651    0.000015964404    -0.000499822650    0.035796355671
0.250     -0.064885457640    0.015806896042    -0.000001621203    0.000023300226    -0.046197523746    0.012873291586    -0.000002074884    0.000026923052
            -0.000001621206    0.000023300228    0.005304467287    0.058094867179    0.000009070459    0.000012594359    0.015498688055    0.046347644206
            -0.046197526956    0.012873283792    0.000009070531    0.000012594409    -0.065431732821    0.014746637839    -0.000005844371    0.000020965223
            -0.000002074882    0.000026923052    0.015498610619    0.046347686972    -0.000005844371    0.000020965224    0.004937056727    0.057791648562
0.275     -0.055533564605    0.055037882954    0.000006774702    0.000024052382    -0.043159846655    0.044627410232    0.000007272118    0.000027997053
            0.000006774696    0.000024052384    0.020407592268    0.077045031700    0.000011697012    0.000011121999    0.023837041689    0.060877627410
            -0.043159845265    0.044627408794    0.000011697057    0.000011122015    -0.056408114967    0.054114192053    0.000002006400    0.000023234390
            0.000007272120    0.000027997053    0.023836973480    0.060877669153    0.000002006408    0.000023234393    0.019927621013    0.076942598561
0.300     -0.028145070091    0.086718581596    0.000015052472    0.000021454788    -0.024618548048    0.072791683065    0.000016626710    0.000025414507
            0.000015052563    0.000021454805    0.042589343490    0.088551976354    0.000014286274    0.000008807695    0.038737560723    0.071685055693
            -0.024618561072    0.072791679715    0.000014286367    0.000008807707    -0.029257794266    0.086084246640    0.000010286320    0.000022198906
            0.000016626711    0.000025414507    0.038737495714    0.071685099917    0.000010286320    0.000022198907    0.042113823202    0.088692216787
0.325     0.011828993416    0.102590915143    0.000021792482    0.000015994125    0.006110782708    0.089849934560    0.000024448320    0.000019643423
            0.000021792476    0.000015994134    0.067403553868    0.089963355177    0.000016357060    0.000005697376    0.057595441277    0.075767618908
            0.006110781208    0.089849935664    0.000016357103    0.000005697371    0.010644335451    0.102344728243    0.000017505697    0.000018172509
            0.000024448318    0.000019643426    0.057595379125    0.075767666154    0.000017505696    0.000018172507    0.067061329871    0.090321696211
0.350     0.055516742194    0.098033240203    0.000026144461    0.000008718942    0.042424714337    0.090823945715    0.000029789392    0.000011763058
            0.000026144458    0.000008718950    0.089669909865    0.081240979349    0.000017576360    0.000002174824    0.076642352555    0.071886025602
            0.042424714337    0.090823945715    0.000017576358    0.000002174828    0.054470413002    0.098183852686    0.000022716081    0.000012097099
            0.000029789395    0.000011763059    0.076642292566    0.071886074943    0.000022716078    0.000012097096    0.089566952235    0.081726594615
0.375     0.092815289688    0.073118037505    0.000027934292    0.000000767192    0.076069877502    0.074383805893    0.000032415504    0.000002954416
            0.000027934332    0.000000767172    0.104861233562    0.064884992802    0.000018081264    -0.000001385140    0.091965460171    0.060820745295
            0.076069876203    0.074383807221    0.000018081265    -0.000001385138    0.092113594578    0.073566722490    0.000025660252    0.000005051939
            0.000032415502    0.000002954419    0.091965391475    0.060820812913    0.000025660249    0.000005051935    0.105048520889    0.065357270856
0.400     0.114607956819    0.032589707532    0.000027504624    -0.000007036883    0.098902573065    0.043138929829    0.000032625548    -0.000005921811
            0.000027504628    -0.000007036881    0.110189421074    0.045287192617    0.000018184547    -0.000004849604    0.100448316665    0.045192704419
            0.098902572312    0.043138931555    0.000018184543    -0.000004849608    0.114400742401    0.033135572461    0.000026614110    -0.000002192037
            0.000032625546    -0.000005921813    0.100448251445    0.045192776261    0.000026614109    -0.000002192038    0.110641400419    0.045587173032
0.425     0.114662909189    -0.014973426865    0.000025341313    -0.000014340873    0.104524485184    0.003306481623    0.000030856895    -0.000014485505
            0.000025341316    -0.000014340870    0.105268184583    0.027742389179    0.000018162330    -0.000008540169    0.100539055736    0.028953616600
            0.104524483839    0.003306524129    0.000018162350    -0.000008540208    0.114994412560    -0.014604643928    0.000025994192    -0.000009351063
            0.000030856895    -0.000014485508    0.100538993042    0.028953689758    0.000025994191    -0.000009351063    0.105876533540    0.027731761883
0.450     0.091164015453    -0.058601179015    0.000021703517    -0.000021185206    0.089831789707    -0.036153230441    0.000027307353    -0.000022734850
            0.000021703542    -0.000021185293    0.092376327252    0.017290329616    0.000017854704    -0.000012985960    0.092849546809    0.016587325230
            0.089831792490    -0.036153231561    0.000017854728    -0.000012986052    0.091933261307    -0.058705871569    0.000023948921    -0.000016542809
            0.000027307351    -0.000022734850    0.092849484502    0.016587401056    0.000023948919    -0.000016542810    0.092962908716    0.016894785269
0.475     0.047723374608    -0.087030944562    0.000016362548    -0.000027637882    0.056321639613    -0.065129309886    0.000021681464    -0.000030665480
            0.000016362550    -0.000027637882    0.076229037813    0.017402732200    0.000016457404    -0.000018613372    0.080395022087    0.011933827785
            0.056321639613    -0.065129309886    0.000016457402    -0.000018613373    0.048664536044    -0.087855429731    0.000020076959    -0.000023884796
            0.000021681462    -0.000030665479    0.080394991912    0.011933867619    0.000020076958    -0.000023884795    0.076583403610    0.016648731560
0.500     -0.006547803234    -0.091481614604    0.000008714357    -0.000033311111    0.010665389878    -0.074835805643    0.000013329816    -0.000037781864
            0.000008714357    -0.000033311111    0.063056568014    0.028715332979    0.000012711261    -0.000025128110    0.068145882246    0.016802531525
            0.010665391607    -0.074835808426    0.000012711262    -0.000025128112    -0.005871612163    -0.093141694558    0.000013549278    -0.000030972212
            0.000013329816    -0.000037781864    0.068145828302    0.016802616636    0.000013549278    -0.000030972212    0.062994952640    0.027744113094
0.525     -0.058605797743    -0.068578620714    -0.000001604089    -0.000036967230    -0.036375884666    -0.060750868321    0.000001885516    -0.000042710694
            -0.000001604085    -0.000036967230    0.058849025804    0.048292274823    0.000005561374    -0.000031172690    0.061611084473    0.029893340197
            -0.036375886721    -0.060750871753    0.000005561351    -0.000031172725    -0.058976306615    -0.071061123868    0.000003759890    -0.000036475413
            0.000001885512    -0.000042710692    0.061611034115    0.029893423369    0.000003759890    -0.000036475411    0.058280241830    0.047337677754
0.550     -0.094880372055    -0.022251701701    -0.000013930664    -0.000036862171    -0.071254126656    -0.025491304515    -0.000011936118    -0.000043568652
            -0.000013930664    -0.000036862172    0.067204908968    0.070133677498    -0.000004378128    -0.000034473990    0.064803245899    0.046842670225
            -0.071254126656    -0.025491304515    -0.000004378191    -0.000034474057    -0.094585803366    -0.026553528029    -0.000008243401    -0.000038227427
            -0.000011936118    -0.000043568652    0.064803200023    0.046842755882    -0.000008243401    -0.000038227427    0.066176196861    0.069458518397
0.575     -0.105455346436    0.037009941008    -0.000026308659    -0.000031755874    -0.086315580957    0.024926491319    -0.000026076002    -0.000038997670
            -0.000026308698    -0.000031755899    0.087812623455    0.087088797678    -0.000016395560    -0.000033194194    0.078580230914    0.061687197674
            -0.086315580957    0.024926491319    -0.000016395625    -0.000033194240    -0.106764535981    0.033593108673    -0.000021589096    -0.000034774097
            -0.000026076000    -0.000038997668    0.078580187927    0.061687288062    -0.000021589138    -0.000034774124    0.086508278451    0.086902395264
0.600     -0.087192437925    0.094873991858    -0.000036137885    -0.000021912692    -0.076382969346    0.076665930649    -0.000037784725    -0.000029203028
            -0.000036137885    -0.000021912692    0.116534956842    0.093375420263    -0.000027282191    -0.000027173224    0.100394685695    0.069078905096
            -0.076382969346    0.076665930649    -0.000027282181    -0.000027173224    -0.090075231719    0.092162013566    -0.000032790361    -0.000026276827
            -0.000037784725    -0.000029203028    0.100394649123    0.069078993530    -0.000032790363    -0.000026276829    0.115224776406    0.093766248182
0.625     -0.045461670056    0.137862483746    -0.000041521827    -0.000009219234    -0.044496580774    0.118311008038    -0.000045042404    -0.000016073531
            -0.000041521827    -0.000009219234    0.147001535479    0.086372262446    -0.000035033929    -0.000017520151    0.125449472153    0.065978841241
            -0.044496580774    0.118311008038    -0.000035033920    -0.000017520154    -0.048821067985    0.136700678084    -0.000039849050    -0.000014244953
            -0.000045042405    -0.000016073532    0.125449437245    0.065978929097    -0.000039849053    -0.000014244946    0.145965809619    0.087281807140
0.650     0.010746554070    0.158202869048    -0.000042052742    0.000004156411    0.002467358808    0.141827129371    -0.000047309846    -0.000001777976
            -0.000042052745    0.000004156411    0.172725563842    0.066991370911    -0.000038736021    -0.000006198750    0.148401610075    0.052166681680
            0.002467358808    0.141827129371    -0.000038736101    -0.000006198742    0.007433293219    0.158048085807    -0.000041986749    -0.000001000258
            -0.000047309849    -0.000001777976    0.148401610075    0.052166681680    -0.000041986758    -0.000001000244    0.172180783213    0.068232063351
0.675     0.069659723429    0.151723638571    -0.000038282356    0.000016252025    0.054802368746    0.142534388396    -0.000045027958    0.000011657683
            -0.000038282358    0.000016252018    0.188703051469    0.038919027215    -0.000038645448    0.000005007248    0.164670071991    0.029787970824
            0.054802366258    0.142534389353    -0.000038645444    0.000005007247    0.066681433768    0.152579635635    -0.000039710377    0.000011395431
            -0.000045027954    0.000011657691    0.164670063673    0.029788016808    -0.000039710414    0.000011395449    0.188754335042    0.040220420040
0.700     0.119360334577    0.120352355295    -0.000031499857    0.000025908746    0.102241159378    0.120581921093    -0.000039404340    0.000023016351
            -0.000031499857    0.000025908746    0.192223152908    0.007459065459    -0.000035656492    0.000015000290    0.171146554574    0.002612963753
            0.102241159378    0.120581921093    -0.000035656494    0.000015000291    0.117144534079    0.122033322460    -0.000034227442    0.000021695444
            -0.000039404334    0.000023016357    0.171146533160    0.002613056256    -0.000034227436    0.000021695449    0.192839563295    0.008524393564
0.725     0.150146208019    0.070449260576    -0.000023036623    0.000032811653    0.135615430177    0.079987107288    -0.000031684080    0.000031918440
            -0.000023036662    0.000032811685    0.183082761215    -0.021524800189    -0.000030749375    0.000023420811    0.166519729113    -0.024621245880
            0.135615430177    0.079987107288    -0.000030749403    0.000023420841    0.149024432794    0.072558787308    -0.000026849048    0.000029503853
            -0.000031684085    0.000031918433    0.166519712714    -0.024621151687    -0.000026849045    0.000029503850    0.184094719132    -0.020958570859
0.750     0.155575675813    0.011679684798    -0.000013894544    0.000037244129    0.147832134331    0.028114037142    -0.000022784695    0.000038557434
            -0.000013894581    0.000037244209    0.163597288834    -0.042501947414    -0.000024620491    0.000030448549    0.151587726497    -0.046799639919
            0.147832144645    0.028114036430    -0.000024620536    0.000030448626    0.155685033953    0.013681746315    -0.000018574075    0.000035074312
            -0.000022784693    0.000038557431    0.151587726497    -0.046799639919    -0.000018574064    0.000035074307    0.164715028490    -0.042601300557
0.775     0.133480411778    -0.044074596044    -0.000004535428    0.000039781264    0.135047137666    -0.024859187057    -0.000013094906    0.000043382654
            -0.000004535434    0.000039781268    0.138506455722    -0.051213175395    -0.000017431905    0.000036509909    0.129566936960    -0.059263010183
            0.135047124504    -0.024859148081    -0.000017431916    0.000036509949    0.134704655403    -0.042763339078    -0.000009827868    0.000038989952
            -0.000013094907    0.000043382658    0.129566935321    -0.059262965682    -0.000009827866    0.000038989945    0.139366304086    -0.051990477150
