# GHz S RI R 45
0.000     0.026847700000    0.000000000000    0.000017474341    -0.000000000000    0.000672253820    0.000000000000    0.000008569122    -0.000000000000
            0.000017474343    -0.000000000000    0.026319527000    0.000000000000    0.000000500573    -0.000000000000    0.000702990850    -0.000000000000
            0.000672250330    0.000000000000    0.000000500586    -0.000000000000    0.026808075000    0.000000000000    0.000007931163    0.000000000000
            0.000008569132    -0.000000000000    0.000702982790    -0.000000000000    0.000007931135    0.000000000000    0.026196508000    0.000000000000
0.025     0.035151471042    0.007835304931    -0.000017138672    -0.000015816618    0.005142639205    0.012026209767    -0.000008110957    -0.000009932430
            -0.000017138610    -0.000015816643    0.033743530622    0.006513086131    -0.000005587734    -0.000005289251    0.004491366583    0.010550990836
            0.005142625047    0.012026262587    -0.000005587718    -0.000005289256    0.035098030405    0.007832888853    -0.000006573431    -0.000010190556
            -0.000008110949    -0.000009932435    0.004491346595    0.010551046078    -0.000006573459    -0.000010190544    0.033688642185    0.006517036766
0.050     0.045597751393    0.005506004726    -0.000024894867    0.000004390846    0.016292918715    0.018430466730    -0.000015456630    -0.000001786622
            -0.000024894807    0.000004390769    0.043059209362    0.003988643716    -0.000011636675    -0.000003420164    0.014251099008    0.016472507140
            0.016292910484    0.018430483349    -0.000011636664    -0.000003420176    0.045588120754    0.005519616932    -0.000015123619    -0.000004410375
            -0.000015456621    -0.000001786634    0.014251086992    0.016472528114    -0.000015123634    -0.000004410357    0.043021699717    0.004001196177
0.075     0.054265833827    -0.004997356072    -0.000018891931    0.000017562048    0.029362581918    0.016139958409    -0.000016847362    0.000006742414
            -0.000018891931    0.000017562048    0.050995474366    -0.005678234340    -0.000016430645    0.000002473425    0.026054696571    0.014947133793
            0.029362577130    0.016139967121    -0.000016430640    0.000002473412    0.054336275219    -0.005007522580    -0.000019201393    0.000003800596
            -0.000016847359    0.000006742409    0.026054691002    0.014947147520    -0.000019201402    0.000003800625    0.050994327216    -0.005658919643
0.100     0.056063657244    -0.022140821502    -0.000008874102    0.000024705860    0.038667779160    0.005339610435    -0.000014128864    0.000015545936
            -0.000008874102    0.000024705858    0.053224559992    -0.021352109814    -0.000017492233    0.000011973021    0.035134193885    0.005891611843
            0.038667780862    0.005339612733    -0.000017492235    0.000011973004    0.056227625561    -0.022228108884    -0.000018917684    0.000014332838
            -0.000014128860    0.000015545942    0.035134197028    0.005891617288    -0.000018917678    0.000014332865    0.053286846985    -0.021342084047
0.125     0.047115781266    -0.041283084688    0.000002355774    0.000026886431    0.039455327728    -0.010544143235    -0.000006854897    0.000023099470
            0.000002355773    0.000026886430    0.046293239660    -0.039310980719    -0.000012503288    0.000022566456    0.037350480282    -0.008125866862
            0.039455330029    -0.010544142374    -0.000012503296    0.000022566443    0.047356065374    -0.041522155768    -0.000012650529    0.000025115343
            -0.000006854893    0.000023099474    0.037350485042    -0.008125863801    -0.000012650518    0.000025115354    0.046438033870    -0.039358578921
0.150     0.026802517431    -0.055849548627    0.000013555544    0.000024639740    0.029566770835    -0.025845750445    0.000004531177    0.000026922321
            0.000013555540    0.000024639740    0.029306133981    -0.054105710093    -0.000000997214    0.000030340426    0.030521498753    -0.022614174762
            0.029566773243    -0.025845750730    -0.000000997211    0.000030340426    0.027071919776    -0.056285857983    -0.000000130177    0.000032607644
            0.000004531178    0.000026922320    0.030521505139    -0.022614174543    -0.000000130096    0.000032607685    0.029533801860    -0.054255897650
0.175     -0.001777380389    -0.059426403165    0.000023549369    0.000018104083    0.010337206750    -0.034277633386    0.000017992391    0.000024687478
            0.000023549322    0.000018104081    0.004372268280    -0.060193160038    0.000015031952    0.000031408310    0.015187461206    -0.032342138767
            0.010337209122    -0.034277634759    0.000015031905    0.000031408307    -0.001562606462    -0.060092688994    0.000016663029    0.000033160543
            0.000017992394    0.000024687475    0.015187470530    -0.032342141017    0.000016663076    0.000033160546    0.004646966860    -0.060503286803
0.200     -0.032039361733    -0.047916684774    0.000030736661    0.000007439410    -0.013427462113    -0.030994150406    0.000030060932    0.000015326530
            0.000030736662    0.000007439411    -0.023437918516    -0.053632425359    0.000031353670    0.000023407057    -0.005272691861    -0.032917705853
            -0.013427462908    -0.030994152241    0.000031353673    0.000023407054    -0.031986498776    -0.048802953852    0.000033550457    0.000024478862
            0.000030060936    0.000015326525    -0.005272689046    -0.032917710355    0.000033550457    0.000024478861    -0.023190005900    -0.054142975358
0.225     -0.055616043579    -0.021288579550    0.000033189644    -0.000006371023    -0.034660599344    -0.014413394770    0.000036805568    -0.000000111668
            0.000033189614    -0.000006370985    -0.047278855650    -0.033540972876    0.000042689633    0.000006705831    -0.025399994615    -0.022243885371
            -0.034660600267    -0.014413395154    0.000042689630    0.000006705827    -0.055829717305    -0.022325354526    0.000045254146    0.000006923345
            0.000036805568    -0.000000111670    -0.025399993742    -0.022243892440    0.000045254147    0.000006923350    -0.047157557725    -0.034250164538
0.250     -0.064885457640    0.015806896042    0.000029235289    -0.000021096807    -0.046197523746    0.012873291586    0.000035186196    -0.000018317564
            0.000029235268    -0.000021096715    -0.060374818817    -0.002797718035    0.000044490834    -0.000015240457    -0.039149767432    -0.001411883621
            -0.046197526956    0.012873283792    0.000044490831    -0.000015240461    -0.065431732821    0.014746637839    0.000047131281    -0.000016041962
            0.000035186193    -0.000018317571    -0.039149769184    -0.001411890526    0.000047131302    -0.000016042049    -0.060478771414    -0.003647222555
0.275     -0.055533564605    0.055037882954    0.000018489629    -0.000033569374    -0.043159846655    0.044627410232    0.000024354711    -0.000034587708
            0.000018489650    -0.000033569283    -0.058053960282    0.032397169650    0.000034686717    -0.000036775934    -0.041696723315    0.025366839504
            -0.043159845265    0.044627408794    0.000034686712    -0.000036775933    -0.056408114967    0.054114192053    0.000036998981    -0.000038672558
            0.000024354706    -0.000034587711    -0.041696727742    0.025366832226    0.000036998978    -0.000038672556    -0.058447633168    0.031519616895
0.300     -0.028145070091    0.086718581596    0.000002338912    -0.000040480505    -0.024618548048    0.072791683065    0.000006150807    -0.000044297046
            0.000002338968    -0.000040480432    -0.039289192968    0.064017438252    0.000014576053    -0.000051806265    -0.030947414387    0.051823133068
            -0.024618561072    0.072791679715    0.000014576052    -0.000051806262    -0.029257794266    0.086084246640    0.000016081921    -0.000054692672
            0.000006150807    -0.000044297047    -0.030947415412    0.051823134785    0.000016081921    -0.000054692672    -0.039974653707    0.063256183830
0.325     0.011828993416    0.102590915143    -0.000016260710    -0.000039546657    0.006110782708    0.089849934560    -0.000015440334    -0.000044383166
            -0.000016260637    -0.000039546616    -0.007178140784    0.084321093831    -0.000011543378    -0.000055708056    -0.008215102558    0.071321757060
            0.006110781208    0.089849935664    -0.000011543377    -0.000055708051    0.010644335451    0.102344728243    -0.000011303423    -0.000059254056
            -0.000015440299    -0.000044383142    -0.008215106636    0.071321759610    -0.000011303433    -0.000059254053    -0.008080587437    0.083816102134
0.350     0.055516742194    0.098033240203    -0.000033471437    -0.000030084219    0.042424714337    0.090823945715    -0.000035454433    -0.000034121102
            -0.000033471438    -0.000030084220    0.031720969705    0.087864518968    -0.000037637750    -0.000046571000    0.022076490519    0.078594444954
            0.042424714337    0.090823945715    -0.000037637748    -0.000046570996    0.054470413002    0.098183852686    -0.000038986784    -0.000050212962
            -0.000035454432    -0.000034121101    0.022076487215    0.078594448998    -0.000038986783    -0.000050212961    0.030746126460    0.087710940721
0.375     0.092815289688    0.073118037505    -0.000045495019    -0.000013181643    0.076069877502    0.074383805893    -0.000049188902    -0.000015129992
            -0.000045495017    -0.000013181652    0.068917505138    0.072842809015    -0.000057469383    -0.000025517270    0.053444117646    0.071005441720
            0.076069876203    0.074383807221    -0.000057469344    -0.000025517276    0.092113594578    0.073566722490    -0.000060474885    -0.000028514195
            -0.000049188900    -0.000015130000    0.053444116334    0.071005447715    -0.000060474965    -0.000028514168    0.068057694431    0.073057740541
0.400     0.114607956819    0.032589707532    -0.000049164608    0.000008478258    0.098902573065    0.043138929829    -0.000053070219    0.000009066950
            -0.000049164612    0.000008478259    0.095862724148    0.041558746887    -0.000065874878    0.000003614624    0.078761565576    0.049175130348
            0.098902572312    0.043138931555    -0.000065874871    0.000003614635    0.114400742401    0.033135572461    -0.000070236689    0.000002059142
            -0.000053070218    0.000009066949    0.078761566394    0.049175136590    -0.000070236755    0.000002059193    0.095306966029    0.042062680886
0.425     0.114662909189    -0.014973426865    -0.000042542571    0.000030913287    0.104524485184    0.003306481623    -0.000045242114    0.000033610027
            -0.000042542572    0.000030913287    0.105762299296    0.000047583281    -0.000059728644    0.000034909608    0.091726878705    0.016966127773
            0.104524483839    0.003306524129    -0.000059728623    0.000034909568    0.114994412560    -0.014604643928    -0.000064734926    0.000035454833
            -0.000045242114    0.000033610027    0.091726883029    0.016966131884    -0.000064734926    0.000035454833    0.105652378325    0.000666407011
0.450     0.091164015453    -0.058601179015    -0.000025506080    0.000049176971    0.089831789707    -0.036153230441    -0.000026077734    0.000052911140
            -0.000025506091    0.000049176886    0.095093403608    -0.042963962142    -0.000038768224    0.000061218548    0.088245027640    -0.019072925890
            0.089831792490    -0.036153231561    -0.000038768226    0.000061218457    0.091933261307    -0.058705871569    -0.000043361457    0.000064151922
            -0.000026077732    0.000052911137    0.088245032860    -0.019072925406    -0.000043361457    0.000064151922    0.095476150183    -0.042475352381
0.475     0.047723374608    -0.087030944562    -0.000000421611    0.000058200781    0.056321639613    -0.065129309886    0.000001325187    0.000061607551
            -0.000000421655    0.000058200707    0.064638037437    -0.077672690351    -0.000006270250    0.000075440645    0.067564630938    -0.050820071509
            0.056321639613    -0.065129309886    -0.000006270272    0.000075440607    0.048664536044    -0.087855429731    -0.000009259104    0.000080489902
            0.000001325187    0.000061607551    0.067564653552    -0.050820033126    -0.000009259104    0.000080489902    0.065425097200    -0.077584748035
0.500     -0.006547803234    -0.091481614604    0.000027548957    0.000054196593    0.010665389878    -0.074835805643    0.000031062495    0.000056036347
            0.000027548886    0.000054196550    0.019814592412    -0.095279174731    0.000030842266    0.000072410052    0.032934729654    -0.070269468239
            0.010665391607    -0.074835808426    0.000030842270    0.000072410047    -0.005871612163    -0.093141694558    0.000030469815    0.000078679345
            0.000031062497    0.000056036344    0.032934733003    -0.070269472192    0.000030469814    0.000078679343    0.020745583913    -0.095833228240
0.525     -0.058605797743    -0.068578620714    0.000051313238    0.000036491593    -0.036375884666    -0.060750868321    0.000055544170    0.000036019976
            0.000051313242    0.000036491594    -0.030037080847    -0.090242364511    0.000063287784    0.000051081208    -0.008719058368    -0.071647130295
            -0.036375886721    -0.060750871753    0.000063287783    0.000051081200    -0.058976306615    -0.071061123868    0.000066136293    0.000057202455
            0.000055544171    0.000036019974    -0.008719056471    -0.071647135563    0.000066136336    0.000057202465    -0.029560409398    -0.091706160046
0.550     -0.094880372055    -0.022251701701    0.000063995607    0.000008664526    -0.071254126656    -0.025491304515    0.000067141762    0.000006420037
            0.000063995525    0.000008664548    -0.073580839555    -0.062129818742    0.000081454200    0.000016386630    -0.046631435468    -0.053479465934
            -0.071254126656    -0.025491304515    0.000081454198    0.000016386627    -0.094585803366    -0.026553528029    0.000086670694    0.000021559388
            0.000067141755    0.000006420035    -0.046631428763    -0.053479477087    0.000086670694    0.000021559388    -0.071819798323    -0.064991114313
0.575     -0.105455346436    0.037009941008    0.000061627901    -0.000022324740    -0.086315580957    0.024926491319    0.000062884728    -0.000026350862
            0.000061627846    -0.000022324678    -0.100333447961    -0.016112109032    0.000080640505    -0.000024181460    -0.073800566049    -0.017681469906
            -0.086315580957    0.024926491319    0.000080640496    -0.000024181464    -0.106764535981    0.033593108673    0.000087748736    -0.000022201445
            0.000062884661    -0.000026350807    -0.073800566853    -0.017681483719    0.000087748735    -0.000022201445    -0.099962442175    -0.018813120795
0.600     -0.087192437925    0.094873991858    0.000044763120    -0.000048323743    -0.076382969346    0.076665930649    0.000043636096    -0.000052670279
            0.000044763128    -0.000048323744    -0.103387173871    0.037863287794    0.000060717993    -0.000059155906    -0.081949460780    0.026913945638
            -0.076382969346    0.076665930649    0.000060717983    -0.000059155902    -0.090075231719    0.092162013566    0.000068336961    -0.000060771543
            0.000043636094    -0.000052670278    -0.081949463630    0.026913946574    0.000068336999    -0.000060771619    -0.104435563116    0.035079723084
0.625     -0.045461670056    0.137862483746    0.000018544833    -0.000063410802    -0.044496580774    0.118311008038    0.000015035425    -0.000066682159
            0.000018544837    -0.000063410762    -0.082382964908    0.087506513915    0.000027391023    -0.000080586538    -0.069520040791    0.070736871298
            -0.044496580774    0.118311008038    0.000027391019    -0.000080586446    -0.048821067985    0.136700678084    0.000033544408    -0.000085757198
            0.000015035421    -0.000066682158    -0.069520044296    0.070736874864    0.000033544410    -0.000085757197    -0.084311797172    0.085654778636
0.650     0.010746554070    0.158202869048    -0.000011485124    -0.000065436151    0.002467358808    0.141827129371    -0.000016343540    -0.000066417164
            -0.000011485121    -0.000065436157    -0.041598786053    0.123404560107    -0.000011696090    -0.000084727970    -0.038920361462    0.105147723721
            0.002467358808    0.141827129371    -0.000011696094    -0.000084727963    0.007433293219    0.158048085807    -0.000008388521    -0.000092316811
            -0.000016343551    -0.000066417159    -0.038920364933    0.105147733099    -0.000008388522    -0.000092316807    -0.043912268782    0.122223426230
0.675     0.069659723429    0.151723638571    -0.000039206895    -0.000054268455    0.054802368746    0.142534388396    -0.000044030973    -0.000052613169
            -0.000039206909    -0.000054268474    0.010812830112    0.137754122160    -0.000048321240    -0.000071294402    0.003745882102    0.122865891847
            0.054802366258    0.142534389353    -0.000048321243    -0.000071294380    0.066681433768    0.152579635635    -0.000048737450    -0.000079887896
            -0.000044030948    -0.000052613139    0.003745880262    0.122865901908    -0.000048737451    -0.000079887899    0.008273391331    0.137415687106
0.700     0.119360334577    0.120352355295    -0.000059632342    -0.000032397128    0.102241159378    0.120581921093    -0.000063101590    -0.000028471562
            -0.000059632265    -0.000032397113    0.064095740026    0.127833058926    -0.000075587625    -0.000043386922    0.049960164882    0.120437450015
            0.102241159378    0.120581921093    -0.000075587620    -0.000043386919    0.117144534079    0.122033322460    -0.000079962874    -0.000051214997
            -0.000063101589    -0.000028471561    0.049960164510    0.120437460995    -0.000079962870    -0.000051214994    0.061709687485    0.128422004567
0.725     0.150146208019    0.070449260576    -0.000069214270    -0.000003519966    0.135615430177    0.079987107288    -0.000070379814    0.000001725859
            -0.000069214270    -0.000003519966    0.107718354138    0.095707549346    -0.000088544524    -0.000006056171    0.090785719096    0.098233152947
            0.135615430177    0.079987107288    -0.000088544521    -0.000006056171    0.149024432794    0.072558787308    -0.000096281567    -0.000011319327
            -0.000070379811    0.000001725859    0.090785717381    0.098233154532    -0.000096281565    -0.000011319326    0.105898155661    0.097108246521
0.750     0.155575675813    0.011679684798    -0.000065662790    0.000027716793    0.147832134331    0.028114037142    -0.000064155905    0.000033019996
            -0.000065662790    0.000027716793    0.133022956252    0.047539855603    -0.000084222362    0.000034292290    0.118197929325    0.060187337906
            0.147832144645    0.028114036430    -0.000084222361    0.000034292290    0.155685033953    0.013681746315    -0.000093902657    0.000033022538
            -0.000064155905    0.000033019996    0.118197937186    0.060187344507    -0.000093902657    0.000033022538    0.132106976512    0.049450068198
0.775     0.133480411778    -0.044074596044    -0.000048243471    0.000055648082    0.135047137666    -0.024859187057    -0.000044323468    0.000059738063
            -0.000048243470    0.000055648081    0.134560077065    -0.007406164937    -0.000061982759    0.000070121649    0.126282797424    0.013297340982
            0.135047124504    -0.024859148081    -0.000061982746    0.000070121660    0.134704655403    -0.042763339078    -0.000071573825    0.000073516599
