# GHz S RI R 45
0.000     0.026847700000    0.000000000000    0.000000233706    -0.000000000000    0.000672253820    0.000000000000    -0.000016380221    0.000000000000
            0.000000233690    -0.000000000000    0.025458909000    0.000000000000    0.000005437109    -0.000000000000    0.000639460680    -0.000000000000
            0.000672250330    0.000000000000    0.000005437064    -0.000000000000    0.026808075000    0.000000000000    -0.000012076790    0.000000000000
            -0.000016380217    0.000000000000    0.000639480900    -0.000000000000    -0.000012076789    0.000000000000    0.025430909000    0.000000000000
0.025     0.035151471042    0.007835304931    -0.000000255189    -0.000001224610    0.005142639205    0.012026209767    0.000004841058    0.000008224771
            -0.000000255205    -0.000001224602    0.032963946576    0.006123706374    -0.000003436496    -0.000004919783    0.004350072924    0.010025558300
            0.005142625047    0.012026262587    -0.000003436542    -0.000004919760    0.035098030405    0.007832888853    0.000001408311    0.000004569613
            0.000004841067    0.000008224766    0.004350079620    0.010025600088    0.000001408304    0.000004569616    0.032905203984    0.006108377165
0.050     0.045597751393    0.005506004726    -0.000001814496    -0.000001845161    0.016292918715    0.018430466730    0.000004999317    -0.000003977278
            -0.000001814507    -0.000001845149    0.042277693541    0.003398224087    -0.000006357284    -0.000000543117    0.013953626653    0.015585839551
            0.016292910484    0.018430483349    -0.000006357316    -0.000000543075    0.045588120754    0.005519616932    -0.000000239453    -0.000003207054
            0.000004999328    -0.000003977292    0.013953631796    0.015585837632    -0.000000239451    -0.000003207057    0.042227411825    0.003400889374
0.075     0.054265833827    -0.004997356072    -0.000003791949    -0.000001047799    0.029362581918    0.016139958409    -0.000002939820    -0.000007018316
            -0.000003791955    -0.000001047784    0.050467445584    -0.006353987597    -0.000006154451    0.000002846785    0.025722324589    0.013907944041
            0.029362577130    0.016139967121    -0.000006154461    0.000002846837    0.054336275219    -0.005007522580    -0.000006876759    -0.000003356198
            -0.000002939817    -0.000007018327    0.025722325137    0.013907930413    -0.000006876762    -0.000003356193    0.050459388511    -0.006333167033
0.100     0.056063657244    -0.022140821502    -0.000005163753    0.000001217756    0.038667779160    0.005339610435    -0.000009483986    -0.000002429081
            -0.000005163749    0.000001217777    0.053348493066    -0.022202013553    -0.000004776036    0.000005577693    0.035082261841    0.004781742379
            0.038667780862    0.005339612733    -0.000004776024    0.000005577744    0.056227625561    -0.022228108884    -0.000011173884    0.000002685331
            -0.000009483990    -0.000002429096    0.035082259266    0.004781724253    -0.000011173884    0.000002685337    0.053421457513    -0.022178138537
0.125     0.047115781266    -0.041283084688    -0.000005011811    0.000004454010    0.039455327728    -0.010544143235    -0.000010583810    0.000005649975
            -0.000005011802    0.000004454025    0.047443390130    -0.040759302546    -0.000002436798    0.000007737693    0.037971178571    -0.009490341119
            0.039455330029    -0.010544142374    -0.000002436764    0.000007737727    0.047356065374    -0.041522155768    -0.000009835332    0.000011027115
            -0.000010583819    0.000005649963    0.037971168609    -0.009490356232    -0.000009835331    0.000011027121    0.047635614841    -0.040760974662
0.150     0.026802517431    -0.055849548627    -0.000002791845    0.000007630209    0.029566770835    -0.025845750445    -0.000005687418    0.000012826459
            -0.000002791832    0.000007630219    0.031629894364    -0.056833537300    0.000000904479    0.000009018867    0.032089944918    -0.024724748686
            0.029566773243    -0.025845750730    0.000000904526    0.000009018887    0.027071919776    -0.056285857983    -0.000002723202    0.000017432968
            -0.000005687430    0.000012826454    0.032089929377    -0.024724759026    -0.000002723197    0.000017432973    0.031952540927    -0.056932928024
0.175     -0.001777380389    -0.059426403165    0.000001366904    0.000009453113    0.010337206750    -0.034277633386    0.000003132970    0.000015520164
            0.000001366922    0.000009453116    0.007557640103    -0.065050405402    0.000005033354    0.000008843979    0.017647021669    -0.035916093955
            0.010337209122    -0.034277634759    0.000005033405    0.000008843978    -0.001562606462    -0.060092688994    0.000007788786    0.000018554708
            0.000003132961    0.000015520164    0.017647003352    -0.035916096270    0.000007788793    0.000018554711    0.007990116515    -0.065323802438
0.200     -0.032039361733    -0.047916684774    0.000006534041    0.000008797330    -0.013427462113    -0.030994150406    0.000012353423    0.000012267429
            0.000006534058    0.000008797327    -0.020264486055    -0.061326453247    0.000009247112    0.000006633183    -0.002466227609    -0.038671942370
            -0.013427462908    -0.030994152241    0.000009247148    0.000006633164    -0.031986498776    -0.048802953852    0.000017937227    0.000013192218
            0.000012353414    0.000012267434    -0.002466244903    -0.038671937259    0.000017937226    0.000013192221    -0.019785974869    -0.061841030833
0.225     -0.055616043579    -0.021288579550    0.000011166622    0.000005208318    -0.034660599344    -0.014413394770    0.000018320477    0.000003957565
            0.000011166636    0.000005208308    -0.045465520776    -0.044268315331    0.000012432609    0.000002241948    -0.023277521491    -0.030564402518
            -0.034660600267    -0.014413395154    0.000012432636    0.000002241911    -0.055829717305    -0.022325354526    0.000023936302    0.000002547863
            0.000018320468    0.000003957576    -0.023277530949    -0.030564392801    0.000023936304    0.000002547867    -0.045044759435    -0.045055264016
0.250     -0.064885457640    0.015806896042    0.000013596251    -0.000000789116    -0.046197523746    0.012873291586    0.000018707973    -0.000006648524
            0.000013596263    -0.000000789139    -0.061412410632    -0.015938924166    0.000013362385    -0.000003750304    -0.038996743287    -0.012035382036
            -0.046197526956    0.012873283792    0.000013362395    -0.000003750351    -0.065431732821    0.014746637839    0.000023427859    -0.000010265272
            0.000018707973    -0.000006648523    -0.038996749399    -0.012035369014    0.000023427860    -0.000010265271    -0.061170279025    -0.016970964328
0.275     -0.055533564605    0.055037882954    0.000012654165    -0.000007755580    -0.043159846655    0.044627410232    0.000013191901    -0.000016018405
            0.000012654165    -0.000007755599    -0.063055153332    0.018345175038    0.000011238518    -0.000010078461    -0.044617967491    0.013488235162
            -0.043159845265    0.044627408794    0.000011238506    -0.000010078508    -0.056408114967    0.054114192053    0.000016178376    -0.000021370275
            0.000013191901    -0.000016018404    -0.044617967569    0.013488252183    0.000016178378    -0.000021370276    -0.063094903942    0.017161297380
0.300     -0.028145070091    0.086718581596    0.000008123300    -0.000013778864    -0.024618548048    0.072791683065    0.000003426311    -0.000021204197
            0.000008123290    -0.000013778889    -0.048465505793    0.051159307762    0.000006044185    -0.000015106851    -0.037388538190    0.040350654369
            -0.024618561072    0.072791679715    0.000006044152    -0.000015106887    -0.029257794266    0.086084246640    0.000004061524    -0.000027509735
            0.000003426309    -0.000021204197    -0.037388535905    0.040350666029    0.000004061526    -0.000027509737    -0.048837376522    0.049969686682
0.325     0.011828993416    0.102590915143    0.000000827731    -0.000017078568    0.006110782708    0.089849934560    -0.000007722487    -0.000020681686
            0.000000827719    -0.000017078582    -0.019555948254    0.074785919357    -0.000001376546    -0.000017366880    -0.017660500189    0.062080234685
            0.006110781208    0.089849935664    -0.000001376585    -0.000017366897    0.010644335451    0.102344728243    -0.000009727652    -0.000026938988
            -0.000007722487    -0.000020681686    -0.017660491543    0.062080245462    -0.000009727688    -0.000026939014    -0.020231571131    0.073757434903
0.350     0.055516742194    0.098033240203    -0.000007616683    -0.000016507229    0.042424714337    0.090823945715    -0.000017214181    -0.000014646345
            -0.000007616700    -0.000016507235    0.018202158488    0.083143545826    -0.000009519987    -0.000015941561    0.011089330660    0.073021836949
            0.042424714337    0.090823945715    -0.000009519988    -0.000015941556    0.054470413002    0.098183852686    -0.000021731407    -0.000019767383
            -0.000017214181    -0.000014646345    0.011089330660    0.073021836949    -0.000021731489    -0.000019767402    0.017335859305    0.082421747009
0.375     0.092815289688    0.073118037505    -0.000015217994    -0.000011813388    0.076069877502    0.074383805893    -0.000022616995    -0.000004682585
            -0.000015218080    -0.000011813366    0.056965332361    0.073288676512    -0.000016588692    -0.000010697744    0.043022724603    0.069711029601
            0.076069876203    0.074383807221    -0.000016588732    -0.000010697725    0.092113594578    0.073566722490    -0.000029071695    -0.000007660434
            -0.000022616995    -0.000004682585    0.043022723386    0.069711030352    -0.000029071696    -0.000007660439    0.056090210963    0.072956158959
0.400     0.114607956819    0.032589707532    -0.000020034903    -0.000003694243    0.098902573065    0.043138929829    -0.000022601849    0.000006790043
            -0.000020034972    -0.000003694187    0.088220809420    0.046179920588    -0.000020821006    -0.000002332698    0.071207263012    0.051719661381
            0.098902572312    0.043138931555    -0.000020820999    -0.000002332693    0.114400742401    0.033135572461    -0.000030010670    0.000006690396
            -0.000022601849    0.000006790044    0.071207337461    0.051719616736    -0.000030010673    0.000006690386    0.087553008260    0.046225561520
0.425     0.114662909189    -0.014973426865    -0.000020562883    0.000006287889    0.104524485184    0.003306481623    -0.000017058004    0.000017054884
            -0.000020562906    0.000006287928    0.104603838042    0.006591015258    -0.000020836584    0.000007677153    0.089071766495    0.021847427158
            0.104524483839    0.003306524129    -0.000020836594    0.000007677193    0.114994412560    -0.014604643928    -0.000024148817    0.000020127285
            -0.000017057987    0.000017054844    0.089071790596    0.021847391866    -0.000024148823    0.000020127282    0.104346252828    0.006897291564
0.450     0.091164015453    -0.058601179015    -0.000016108513    0.000015909803    0.089831789707    -0.036153230441    -0.000007091461    0.000023621089
            -0.000016108516    0.000015909801    0.101502835718    -0.037719883056    -0.000015977776    0.000017212820    0.091817830293    -0.014289651122
            0.089831792490    -0.036153231561    -0.000015977765    0.000017212820    0.091933261307    -0.058705871569    -0.000012503829    0.000029595953
            -0.000007091465    0.000023621086    0.091817845465    -0.014289735715    -0.000012503837    0.000029595957    0.101793552838    -0.037366951380
0.475     0.047723374608    -0.087030944562    -0.000007146373    0.000022679464    0.056321639613    -0.065129309886    0.000005087506    0.000024692581
            -0.000007146379    0.000022679467    0.078187882320    -0.077453937686    -0.000006684554    0.000023861822    0.077566576577    -0.049233670810
            0.056321639613    -0.065129309886    -0.000006684532    0.000023861855    0.048664536044    -0.087855429731    0.000002551704    0.000032709552
            0.000005087503    0.000024692584    0.077566555549    -0.049233754322    0.000002551698    0.000032709557    0.079054399501    -0.077329568468
0.500     -0.006547803234    -0.091481614604    0.000004509317    0.000024432674    0.010665389878    -0.074835805643    0.000016510887    0.000019666026
            0.000004509315    0.000024432679    0.038273287735    -0.103637768129    0.000005290419    0.000025472107    0.048059006919    -0.075140282406
            0.010665391607    -0.074835808426    0.000005290491    0.000025472149    -0.005871612163    -0.093141694558    0.000017622160    0.000028359725
            0.000016510885    0.000019666026    0.048059006919    -0.075140282406    0.000017622223    0.000028359790    0.039605380679    -0.104022700292
0.525     -0.058605797743    -0.068578620714    0.000016013286    0.000020151014    -0.036375884666    -0.060750868321    0.000024164527    0.000009541508
            0.000016013288    0.000020151019    -0.010700398225    -0.109633419667    0.000017174245    0.000020988752    0.008639513070    -0.085525146766
            -0.036375886721    -0.060750871753    0.000017174243    0.000020988744    -0.058976306615    -0.071061123868    0.000029081579    0.000017247215
            0.000024164529    0.000009541507    0.008639437173    -0.085525186596    0.000029081578    0.000017247219    -0.009147556145    -0.110744525746
0.550     -0.094880372055    -0.022251701701    0.000024232106    0.000010558745    -0.071254126656    -0.025491304515    0.000025908812    -0.000003120637
            0.000024232195    0.000010558733    -0.058649719811    -0.092877150837    0.000025540301    0.000011223372    -0.032644612513    -0.076961564751
            -0.071254126656    -0.025491304515    0.000025540297    0.000011223367    -0.094585803366    -0.026553528029    0.000033878628    0.000002226359
            0.000025908811    -0.000003120635    -0.032644612513    -0.076961564751    0.000033878632    0.000002226361    -0.057215380291    -0.094802122126
0.575     -0.105455346436    0.037009941008    0.000026839886    -0.000002010302    -0.086315580957    0.024926491319    0.000021269551    -0.000014967728
            0.000026839892    -0.000002010299    -0.095142680245    -0.055804076574    0.000028439449    -0.000001953661    -0.066786116912    -0.050182176054
            -0.086315580957    0.024926491319    0.000028439474    -0.000001953691    -0.106764535981    0.033593108673    0.000031020986    -0.000013560172
            0.000021269555    -0.000014967726    -0.066786118511    -0.050182177256    0.000031021030    -0.000013560193    -0.094186024484    -0.058460298854
0.600     -0.087192437925    0.094873991858    0.000023129707    -0.000014333712    -0.076382969346    0.076665930649    0.000011644322    -0.000022940522
            0.000023129714    -0.000014333714    -0.111896109717    -0.005551332092    0.000024836747    -0.000014956962    -0.086002473597    -0.010155594220
            -0.076382969346    0.076665930649    0.000024836779    -0.000014957036    -0.090075231719    0.092162013566    0.000021413669    -0.000025971550
            0.000011644320    -0.000022940523    -0.086002473597    -0.010155594220    0.000021413720    -0.000025971622    -0.111708337867    -0.008685180343
0.625     -0.045461670056    0.137862483746    0.000014240764    -0.000023463056    -0.044496580774    0.118311008038    -0.000000183769    -0.000025359653
            0.000014240771    -0.000023463061    -0.104824025409    0.047613767527    0.000015668057    -0.000024864504    -0.085671177885    0.035015721983
            -0.044496580774    0.118311008038    0.000015668050    -0.000024864499    -0.048821067985    0.136700678084    0.000007530641    -0.000032531811
            -0.000000183771    -0.000025359614    -0.085671177885    0.035015721983    0.000007530646    -0.000032531812    -0.105552732870    0.044379930186
0.650     0.010746554070    0.158202869048    0.000002223856    -0.000027626450    0.002467358808    0.141827129371    -0.000011503090    -0.000022222070
            0.000002223829    -0.000027626534    -0.075008447483    0.092692005373    0.000003051983    -0.000029625637    -0.065421263501    0.076022378704
            0.002467358808    0.141827129371    0.000003051982    -0.000029625633    0.007433293219    0.158048085807    -0.000007474929    -0.000032278886
            -0.000011503087    -0.000022222073    -0.065421263501    0.076022378704    -0.000007474930    -0.000032278891    -0.076613463577    0.089777472481
0.675     0.069659723429    0.151723638571    -0.000010382893    -0.000026051742    0.054802368746    0.142534388396    -0.000019973724    -0.000014568059
            -0.000010382924    -0.000026051779    -0.028340555280    0.120428221154    -0.000010415114    -0.000028409158    -0.029084412396    0.104460576114
            0.054802366258    0.142534389353    -0.000010415117    -0.000028409149    0.066681433768    0.152579635635    -0.000020643553    -0.000025705531
            -0.000019973697    -0.000014568034    -0.029084412396    0.104460576114    -0.000020643551    -0.000025705538    -0.030594392297    0.118201179930
0.700     0.119360334577    0.120352355295    -0.000021133368    -0.000019129600    0.102241159378    0.120581921093    -0.000024162599    -0.000004231551
            -0.000021133374    -0.000019129605    0.025906924102    0.125204102530    -0.000022199981    -0.000021467299    0.016286117447    0.114548297860
            0.102241159378    0.120581921093    -0.000022199975    -0.000021467294    0.117144534079    0.122033322460    -0.000029689179    -0.000014306943
            -0.000024162604    -0.000004231557    0.016286117447    0.114548297860    -0.000029689188    -0.000014306947    0.023377831575    0.123900648641
0.725     0.150146208019    0.070449260576    -0.000027994530    -0.000008067748    0.135615430177    0.079987107288    -0.000023538852    0.000006764025
            -0.000027994572    -0.000008067749    0.077063732692    0.105987582792    -0.000030096523    -0.000009913199    0.061927750976    0.104107495133
            0.135615430177    0.079987107288    -0.000030096599    -0.000009913189    0.149024432794    0.072558787308    -0.000033124167    -0.000000176694
            -0.000023538847    0.000006764028    0.061927750976    0.104107495133    -0.000033124169    -0.000000176694    0.074710145202    0.105659741332
0.750     0.155575675813    0.011679684798    -0.000029462890    0.000005263803    0.147832134331    0.028114037142    -0.000018297784    0.000016467363
            -0.000029462895    0.000005263804    0.115108296826    0.066359727225    -0.000032375824    0.000004393461    0.099008305068    0.074843444820
            0.147832144645    0.028114036430    -0.000032375812    0.000004393465    0.155685033953    0.013681746315    -0.000030281228    0.000014245436
            -0.000018297779    0.000016467363    0.099008305068    0.074843444820    -0.000030281232    0.000014245432    0.113372570711    0.066856328085
0.775     0.133480411778    -0.044074596044    -0.000024760431    0.000018403072    0.135047137666    -0.024859187057    -0.000009274779    0.000023090973
            -0.000024760434    0.000018403074    0.132446299729    0.013785982747    -0.000028021042    0.000018889397    0.120149266565    0.032013674068
            0.135047124504    -0.024859148081    -0.000028021034    0.000018889392    0.134704655403    -0.042763339078    -0.000021398386    0.000026335741
