# GHz S RI R 45
0.000     0.026847700000    0.000000000000    0.000015535115    -0.000000000000    0.000672253820    0.000000000000    0.000000487074    -0.000000000000
            0.000015535019    -0.000000000000    0.026268772000    0.000000000000    0.000008424185    -0.000000000000    0.000673948410    -0.000000000000
            0.000672250330    0.000000000000    0.000008423898    -0.000000000000    0.026808075000    0.000000000000    -0.000001360410    0.000000000000
            0.000000486810    -0.000000000000    0.000673945410    -0.000000000000    -0.000001360373    0.000000000000    0.026186721000    0.000000000000
0.025     0.035151471042    0.007835304931    -0.000003834462    -0.000003845999    0.005142639205    0.012026209767    0.000001656203    0.000005854802
            -0.000003834500    -0.000003845980    0.034177905874    0.007219102710    0.000000226298    0.000000816067    0.004908981493    0.011342430807
            0.005142625047    0.012026262587    0.000000226224    0.000000816392    0.035098030405    0.007832888853    0.000001977023    0.000007889681
            0.000001655962    0.000005854923    0.004908966303    0.011342483146    0.000001977051    0.000007889668    0.034125461950    0.007221306164
0.050     0.045597751393    0.005506004726    0.000002161645    0.000009622921    0.016292918715    0.018430466730    0.000010339772    0.000008968205
            0.000002161617    0.000009622964    0.044350133126    0.004771953895    0.000009032929    0.000008460172    0.015678675862    0.017456434619
            0.016292910484    0.018430483349    0.000009032764    0.000008460409    0.045588120754    0.005519616932    0.000012407976    0.000010622031
            0.000010339622    0.000008968424    0.015678667380    0.017456450303    0.000012407985    0.000010622020    0.044330322324    0.004790419142
0.075     0.054265833827    -0.004997356072    0.000016173863    0.000008702009    0.029362581918    0.016139958409    0.000020432541    0.000003734268
            0.000016173852    0.000008702057    0.053148927759    -0.005516136055    0.000020735966    0.000004049936    0.028579115023    0.015273760147
            0.029362577130    0.016139967121    0.000020735928    0.000004050214    0.054336275219    -0.005007522580    0.000023822168    0.000004243305
            0.000020432511    0.000003734525    0.028579109343    0.015273768654    0.000023822174    0.000004243289    0.053197161891    -0.005497910836
0.100     0.056063657244    -0.022140821502    0.000025454915    -0.000004120168    0.038667779160    0.005339610435    0.000025942044    -0.000008929942
            0.000025454928    -0.000004120117    0.055764842718    -0.022465458751    0.000027165849    -0.000009769099    0.038261507584    0.004753804198
            0.038667780862    0.005339612733    0.000027165941    -0.000009768836    0.056227625561    -0.022228108884    0.000029959449    -0.000010330596
            0.000025942133    -0.000008929697    0.038261509261    0.004753806916    0.000029959445    -0.000010330613    0.055912295859    -0.022481791797
0.125     0.047115781266    -0.041283084688    0.000023688218    -0.000021839265    0.039455327728    -0.010544143235    0.000022733187    -0.000024863638
            0.000023688248    -0.000021839227    0.048341778222    -0.042000630178    0.000023219680    -0.000027217522    0.040104851468    -0.011141654000
            0.039455330029    -0.010544142374    0.000023219883    -0.000027217330    0.047356065374    -0.041522155768    0.000026245108    -0.000028542170
            0.000022733376    -0.000024863463    0.040104853978    -0.011141652435    0.000026245101    -0.000028542183    0.048602911255    -0.042095446310
0.150     0.026802517431    -0.055849548627    0.000010214542    -0.000036480500    0.029566770835    -0.025845750445    0.000009783346    -0.000038356680
            0.000010214585    -0.000036480477    0.029858945441    -0.058055987605    0.000008289019    -0.000041198282    0.031740755221    -0.027281393067
            0.029566773243    -0.025845750730    0.000008289276    -0.000041198203    0.027071919776    -0.056285857983    0.000011497732    -0.000044004794
            0.000009783578    -0.000038356619    0.031740758166    -0.027281392709    0.000011497719    -0.000044004803    0.030223801028    -0.058304858336
0.175     -0.001777380389    -0.059426403165    -0.000010963971    -0.000041366644    0.010337206750    -0.034277633386    -0.000010521041    -0.000043859508
            -0.000010963924    -0.000041366643    0.002672163167    -0.064501597728    -0.000014074153    -0.000045494772    0.013915882147    -0.037748404107
            0.010337209122    -0.034277634759    -0.000014073890    -0.000045494820    -0.001562606462    -0.060092688994    -0.000011650119    -0.000050457748
            -0.000010520797    -0.000043859603    0.013915884815    -0.037748405255    -0.000011650129    -0.000050457752    0.003089145932    -0.064973311975
0.200     -0.032039361733    -0.047916684774    -0.000033006866    -0.000033508962    -0.013427462113    -0.030994150406    -0.000032999771    -0.000037876389
            -0.000033006826    -0.000033508979    -0.027566994631    -0.057003484270    -0.000037454439    -0.000036963690    -0.009400411102    -0.037646945533
            -0.013427462908    -0.030994152241    -0.000037454258    -0.000036963834    -0.031986498776    -0.048802953852    -0.000037401657    -0.000043896884
            -0.000032999579    -0.000037876542    -0.009400411586    -0.037646947474    -0.000037401666    -0.000043896880    -0.027190216921    -0.057738751161
0.225     -0.055616043579    -0.021288579550    -0.000048534103    -0.000014263481    -0.034660599344    -0.014413394770    -0.000051075528    -0.000020219531
            -0.000048534073    -0.000014263518    -0.053250181368    -0.034663608792    -0.000054562317    -0.000016485888    -0.031918604181    -0.024764532495
            -0.034660600267    -0.014413395154    -0.000054562221    -0.000016486098    -0.055829717305    -0.022325354526    -0.000058338729    -0.000023997856
            -0.000051075432    -0.000020219750    -0.031918605762    -0.024764533721    -0.000058338732    -0.000023997857    -0.053031476606    -0.035650870541
0.250     -0.064885457640    0.015806896042    -0.000052316991    0.000011229468    -0.046197523746    0.012873291586    -0.000058909080    0.000005659619
            -0.000052316986    0.000011229467    -0.066908044113    -0.000793312067    -0.000059741994    0.000011215467    -0.046780181728    -0.000564206878
            -0.046197526956    0.012873283792    -0.000059742011    0.000011215233    -0.065431732821    0.014746637839    -0.000067786727    0.000005465398
            -0.000058909094    0.000005659392    -0.046780183728    -0.000564206902    -0.000067786752    0.000005465484    -0.066958592856    -0.001954931829
0.275     -0.055533564605    0.055037882954    -0.000042774872    0.000035900701    -0.043159846655    0.044627410232    -0.000053281995    0.000033620152
            -0.000042774879    0.000035900655    -0.063500253129    0.037628854258    -0.000050691364    0.000039108886    -0.048644173375    0.029957351839
            -0.043159845265    0.044627408794    -0.000050691477    0.000039108692    -0.056408114967    0.054114192053    -0.000061932082    0.000037623517
            -0.000053282111    0.000033619965    -0.048644174227    0.029957352364    -0.000061932087    0.000037623520    -0.063886897797    0.036430572041
0.300     -0.028145070091    0.086718581596    -0.000022261323    0.000053263226    -0.024618548048    0.072791683065    -0.000034583625    0.000056791789
            -0.000022261334    0.000053263226    -0.042109174662    0.071696092315    -0.000029063925    0.000060193695    -0.035387685335    0.059565760773
            -0.024618561072    0.072791679715    -0.000029064102    0.000060193579    -0.029257794266    0.086084246640    -0.000041001890    0.000064649336
            -0.000034583805    0.000056791682    -0.035387685846    0.059565761633    -0.000041001840    0.000064649408    -0.042821902405    0.070631113937
0.325     0.011828993416    0.102590915143    0.000004170109    0.000059164386    0.006110782708    0.089849934560    -0.000006443611    0.000069502039
            0.000004170069    0.000059164363    -0.006388385422    0.092963827657    0.000000421176    0.000069399166    -0.008792506560    0.080769333696
            0.006110781208    0.089849935664    0.000000420932    0.000069399123    0.010644335451    0.102344728243    -0.000008951424    0.000079932598
            -0.000006443816    0.000069502018    -0.008792509487    0.080769334383    -0.000008951347    0.000079932643    -0.007327886321    0.092190402789
0.350     0.055516742194    0.098033240203    0.000030600167    0.000052527857    0.042424714337    0.090823945715    0.000025523298    0.000068503972
            0.000030600079    0.000052527847    0.036276236524    0.095661299895    0.000031601899    0.000064578985    0.025893291939    0.087781262062
            0.042424714337    0.090823945715    0.000031601705    0.000064579058    0.054470413002    0.098183852686    0.000027872133    0.000079547419
            0.000025523104    0.000068504135    0.025893290973    0.087781264432    0.000027872130    0.000079547425    0.035287224523    0.095280243574
0.375     0.092815289688    0.073118037505    0.000051673091    0.000034876550    0.076069877502    0.074383805893    0.000055038647    0.000053240390
            0.000051673095    0.000034876556    0.076521412719    0.078087557341    0.000058314402    0.000046382298    0.061218825113    0.077885885168
            0.076069876203    0.074383807221    0.000058314227    0.000046382446    0.092113594578    0.073566722490    0.000062227258    0.000062659181
            0.000055038519    0.000053240538    0.061218824990    0.077885887809    0.000062227259    0.000062659190    0.075704897205    0.078106097666
0.400     0.114607956819    0.032589707532    0.000063401655    0.000009498306    0.098902573065    0.043138929829    0.000076139334    0.000025630049
            0.000063401672    0.000009498300    0.105071815469    0.043027761444    0.000075331750    0.000017700788    0.089147906597    0.052061550441
            0.098902572312    0.043138931555    0.000075331692    0.000017700945    0.114400742401    0.033135572461    0.000087160386    0.000031350022
            0.000076139286    0.000025630232    0.089147905689    0.052061551997    0.000087160389    0.000031350030    0.104646786645    0.043341791681
0.425     0.114662909189    -0.014973426865    0.000063310717    -0.000019215992    0.104524485184    0.003306481623    0.000083817091    -0.000010163412
            0.000063310699    -0.000019215908    0.114679498720    -0.002725012331    0.000078797711    -0.000016822550    0.102688845174    0.014902864330
            0.104524483839    0.003306524129    0.000078797732    -0.000016822370    0.114994412560    -0.014604643928    0.000096815335    -0.000009648442
            0.000083817126    -0.000010163233    0.102688844940    0.014902865943    0.000096815353    -0.000009648479    0.114807215942    -0.002326199251
0.450     0.091164015453    -0.058601179015    0.000050589900    -0.000046150615    0.089831789707    -0.036153230441    0.000074773297    -0.000047879790
            0.000050589954    -0.000046150543    0.101730238717    -0.049529376573    0.000066703362    -0.000051116699    0.097420752279    -0.026030908066
            0.089831792490    -0.036153231561    0.000066703431    -0.000051116454    0.091933261307    -0.058705871569    0.000087325139    -0.000053185809
            0.000074773410    -0.000047879657    0.097420752279    -0.026030908066    0.000087325152    -0.000053185807    0.102462694707    -0.049333357430
0.475     0.047723374608    -0.087030944562    0.000026479542    -0.000065767345    0.056321639613    -0.065129309886    0.000048524009    -0.000079581659
            0.000026479594    -0.000065767280    0.067343767508    -0.086657559799    0.000039616404    -0.000078118139    0.072759768347    -0.061484135406
            0.056321639613    -0.065129309886    0.000039616549    -0.000078118052    0.048664536044    -0.087855429731    0.000058031647    -0.000090215126
            0.000048524163    -0.000079581589    0.072759773548    -0.061484135448    0.000058031638    -0.000090215167    0.068586290471    -0.086972454609
0.500     -0.006547803234    -0.091481614604    -0.000005190068    -0.000073024263    0.010665389878    -0.074835805643    0.000008615455    -0.000097028404
            -0.000005189964    -0.000073024210    0.017727510305    -0.104585915953    0.000001497460    -0.000090990877    0.032703365832    -0.082438069139
            0.010665391607    -0.074835808426    0.000001497710    -0.000090990810    -0.005871612163    -0.093141694558    0.000012794969    -0.000111346991
            0.000008615604    -0.000097028408    0.032703365832    -0.082438069139    0.000012794904    -0.000111347059    0.019229411126    -0.105664220320
0.525     -0.058605797743    -0.068578620714    -0.000037928243    -0.000064929665    -0.036375884666    -0.060750868321    -0.000036961609    -0.000094127712
            -0.000037928149    -0.000064929633    -0.036642710200    -0.097504693619    -0.000040174122    -0.000085156247    -0.014473035749    -0.082483545896
            -0.036375886721    -0.060750871753    -0.000040173950    -0.000085156306    -0.058976306615    -0.071061123868    -0.000039624988    -0.000109595541
            -0.000036961477    -0.000094127764    -0.014473035921    -0.082483546881    -0.000039624992    -0.000109595550    -0.035252983243    -0.099463294558
0.550     -0.094880372055    -0.022251701701    -0.000063975074    -0.000042230744    -0.071254126656    -0.025491304515    -0.000077368816    -0.000069698608
            -0.000063975033    -0.000042230734    -0.083249400580    -0.065344688849    -0.000074925914    -0.000060713161    -0.057917773659    -0.059983110272
            -0.071254126656    -0.025491304515    -0.000074925775    -0.000060713330    -0.094585803366    -0.026553528029    -0.000085862993    -0.000083532963
            -0.000077368691    -0.000069698716    -0.057917778521    -0.059983115307    -0.000085862979    -0.000083532920    -0.082383228515    -0.068106434707
0.575     -0.105455346436    0.037009941008    -0.000076847970    -0.000009809336    -0.086315580957    0.024926491319    -0.000102393489    -0.000028584596
            -0.000076847902    -0.000009809355    -0.110807760912    -0.014337416435    -0.000095621840    -0.000021631610    -0.087076927390    -0.018993370971
            -0.086315580957    0.024926491319    -0.000095621840    -0.000021631750    -0.106764535981    0.033593108673    -0.000116487396    -0.000037187945
            -0.000102393406    -0.000028584746    -0.087076927390    -0.018993370971    -0.000116487376    -0.000037187939    -0.110806367364    -0.017624433385
0.600     -0.087192437925    0.094873991858    -0.000073653986    0.000024671598    -0.076382969346    0.076665930649    -0.000105915658    0.000019596752
            -0.000073654020    0.000024671624    -0.112474349703    0.044429410725    -0.000096684636    0.000022355269    -0.094732919077    0.031663881116
            -0.076382969346    0.076665930649    -0.000096684644    0.000022355129    -0.090075231719    0.092162013566    -0.000122950234    0.000017877156
            -0.000105915702    0.000019596626    -0.094732921922    0.031663882067    -0.000122950234    0.000017877156    -0.113509394677    0.041042935215
0.625     -0.045461670056    0.137862483746    -0.000056250651    0.000053599467    -0.044496580774    0.118311008038    -0.000088141997    0.000063946655
            -0.000056250640    0.000053599438    -0.087657519902    0.098050449050    -0.000078575410    0.000062123287    -0.078901195387    0.080910898150
            -0.044496580774    0.118311008038    -0.000078575450    0.000062123140    -0.048821067985    0.136700678084    -0.000104569322    0.000070022566
            -0.000088142108    0.000063946570    -0.078901195387    0.080910898150    -0.000104569384    0.000070022582    -0.089677655328    0.095038017031
0.650     0.010746554070    0.158202869048    -0.000028853930    0.000072391401    0.002467358808    0.141827129371    -0.000053330298    0.000096560022
            -0.000028853999    0.000072391355    -0.041819137828    0.135174392627    -0.000045656477    0.000090286826    -0.042965036529    0.118363476114
            0.002467358808    0.141827129371    -0.000045656612    0.000090286780    0.007433293219    0.158048085807    -0.000065872698    0.000109184503
            -0.000053330428    0.000096560019    -0.042965039941    0.118363485514    -0.000065872662    0.000109184571    -0.044557255457    0.132944018350
0.675     0.069659723429    0.151723638571    0.000003348656    0.000078448257    0.054802368746    0.142534388396    -0.000008114692    0.000111820810
            0.000003348611    0.000078448233    0.015338185334    0.148463527422    -0.000004257509    0.000102536818    0.005661908675    0.136568823888
            0.054802366258    0.142534389353    -0.000004257867    0.000102537184    0.066681433768    0.152579635635    -0.000014426639    0.000128887582
            -0.000008114810    0.000111820842    0.005661876548    0.136568855246    -0.000014426612    0.000128887585    0.012308438985    0.147267031307
0.700     0.119360334577    0.120352355295    0.000035338465    0.000071535766    0.102241159378    0.120581921093    0.000039929716    0.000107512816
            0.000035338350    0.000071535723    0.072300366835    0.135656567903    0.000038964967    0.000097303355    0.057437088072    0.132103913322
            0.102241159378    0.120581921093    0.000038964776    0.000097303356    0.117144534079    0.122033322460    0.000041247531    0.000126160294
            0.000039929561    0.000107512841    0.057437087448    0.132103924497    0.000041247654    0.000126160380    0.069479425454    0.135535943896
0.725     0.150146208019    0.070449260576    0.000062817099    0.000052612245    0.135615430177    0.079987107288    0.000083416851    0.000083801172
            0.000062817090    0.000052612288    0.117969942113    0.099455164303    0.000077619815    0.000075000857    0.102468137014    0.105721907094
            0.135615430177    0.079987107288    0.000077619703    0.000075000944    0.149024432794    0.072558787308    0.000092573649    0.000100798314
            0.000083416474    0.000083801293    0.102468137014    0.105721907094    0.000092573620    0.000100798300    0.115840845612    0.100230426051
0.750     0.155575675813    0.011679684798    0.000081743629    0.000023413914    0.147832134331    0.028114037142    0.000115084255    0.000042911376
            0.000081743594    0.000023413972    0.143397878839    0.046773817998    0.000105492600    0.000037723595    0.131970134469    0.062053595797
            0.147832144645    0.028114036430    0.000105492583    0.000037723701    0.155685033953    0.013681746315    0.000131014946    0.000055072078
            0.000115084413    0.000042911380    0.131970134469    0.062053595797    0.000131014937    0.000055072075    0.142336273240    0.048062804068
0.775     0.133480411778    -0.044074596044    0.000087992547    -0.000013063254    0.135047137666    -0.024859187057    0.000127868464    -0.000010338370
            0.000087992492    -0.000013063232    0.143107996636    -0.012328218083    0.000116540471    -0.000010295913    0.139544515617    0.009059553599
            0.135047124504    -0.024859148081    0.000116540595    -0.000010295989    0.134704655403    -0.042763339078    0.000148240888    -0.000005696815
            0.000127868542    -0.000010338395    0.139544525596    0.009059554247    0.000148240887    -0.000005696828    0.143301423164    -0.011057989339
