# GHz S RI R 45
0.000     0.026847700000    0.000000000000    -0.000055502808    0.000000000000    0.000672253820    0.000000000000    -0.000067591548    0.000000000000
            -0.000055502667    0.000000000000    0.027019580000    0.000000000000    -0.000045078424    0.000000000000    0.000585008900    0.000000000000
            0.000672250330    0.000000000000    -0.000045078037    0.000000000000    0.026808075000    0.000000000000    -0.000070563038    0.000000000000
            -0.000067591212    0.000000000000    0.000585009900    0.000000000000    -0.000070563224    0.000000000000    0.026992521000    0.000000000000
0.025     0.035151471042    0.007835304931    -0.000108967943    -0.000190640687    0.005142639205    0.012026209767    -0.000140871042    -0.000247647675
            -0.000108967866    -0.000190640708    0.033284300237    0.008457924989    -0.000091210284    -0.000152336650    0.003425512989    0.012913882714
            0.005142625047    0.012026262587    -0.000091209955    -0.000152336765    0.035098030405    0.007832888853    -0.000107197875    -0.000184352354
            -0.000140871229    -0.000247647902    0.003425389773    0.012913714689    -0.000107198070    -0.000184352171    0.033186375958    0.008394500724
0.050     0.045597751393    0.005506004726    -0.000281417588    -0.000332953214    0.016292918715    0.018430466730    -0.000360249711    -0.000430585277
            -0.000281417523    -0.000332953256    0.038774021961    0.009814435841    -0.000229340420    -0.000262527283    0.010612489351    0.022742074520
            0.016292910484    0.018430483349    -0.000229340053    -0.000262527510    0.045588120754    0.005519616932    -0.000276693811    -0.000340526421
            -0.000360249454    -0.000430585427    0.010612519569    0.022742062626    -0.000276693930    -0.000340526325    0.038575313085    0.009747529370
0.075     0.054265833827    -0.004997356072    -0.000527306794    -0.000365917536    0.029362581918    0.016139958409    -0.000675144847    -0.000479818026
            -0.000527306786    -0.000365917530    0.042141982731    0.007827953676    -0.000424912838    -0.000286210421    0.019626888433    0.027918457087
            0.029362577130    0.016139967121    -0.000424912522    -0.000286210747    0.054336275219    -0.005007522580    -0.000532692219    -0.000383090262
            -0.000675144531    -0.000479818334    0.019626894056    0.027918456801    -0.000532692286    -0.000383090169    0.041839231968    0.007847636792
0.100     0.056063657244    -0.022140821502    -0.000790576505    -0.000280292040    0.038667779160    0.005339610435    -0.001020001828    -0.000377770016
            -0.000790576495    -0.000280292037    0.041676225837    0.004084384382    -0.000634367956    -0.000214882637    0.027610329325    0.028542697404
            0.038667780862    0.005339612733    -0.000634367448    -0.000214883452    0.056227625561    -0.022228108884    -0.000812970505    -0.000297658618
            -0.001020001828    -0.000377770016    0.027610330020    0.028542698123    -0.000812971004    -0.000297657836    0.041329167995    0.004265872530
0.125     0.047115781266    -0.041283084688    -0.001031444527    -0.000079758844    0.039455327728    -0.010544143235    -0.001342153695    -0.000121701294
            -0.001031444527    -0.000079758844    0.036540020422    0.001351885771    -0.000824920719    -0.000050216446    0.032313556664    0.026271533454
            0.039455330029    -0.010544142374    -0.000824920583    -0.000050216871    0.047356065374    -0.041522155768    -0.001070286764    -0.000083848845
            -0.001342153695    -0.000121701294    0.032313558216    0.026271534716    -0.001070286893    -0.000083848479    0.036253700652    0.001720968906
0.150     0.026802517431    -0.055849548627    -0.001217026490    0.000229898605    0.029566770835    -0.025845750445    -0.001591952153    0.000283835613
            -0.001217026454    0.000229897718    0.027761288510    0.002399408071    -0.000967975908    0.000202774049    0.032741007215    0.023755615422
            0.029566773243    -0.025845750730    -0.000967975918    0.000202774051    0.027071919776    -0.056285857983    -0.001261635342    0.000250706973
            -0.001591952153    0.000283835613    0.032741009248    0.023755616025    -0.001261635342    0.000250706973    0.027643035394    0.002911373629
0.175     -0.001777380389    -0.059426403165    -0.001307021455    0.000643083568    0.010337206750    -0.034277633386    -0.001710800546    0.000827102552
            -0.001307021500    0.000643083024    0.017775153446    0.009386793406    -0.001029489658    0.000536901004    0.029642225970    0.023811984784
            0.010337209122    -0.034277634759    -0.001029489668    0.000536900552    -0.001562606462    -0.060092688994    -0.001339462822    0.000690733811
            -0.001710800600    0.000827102210    0.029642229140    0.023811985628    -0.001339462822    0.000690733811    0.017892593967    0.009930355469
0.200     -0.032039361733    -0.047916684774    -0.001246920088    0.001137737160    -0.013427462113    -0.030994150406    -0.001628637616    0.001471025863
            -0.001246920088    0.001137737160    0.010117966203    0.022894160345    -0.000966633640    0.000930258805    0.025330411087    0.028376632003
            -0.013427462908    -0.030994152241    -0.000966633640    0.000930258805    -0.031986498776    -0.048802953852    -0.001250966552    0.001200820461
            -0.001628637616    0.001471025863    0.025330405469    0.028376635678    -0.001250966552    0.001200820461    0.010459201194    0.023327414150
0.225     -0.055616043579    -0.021288579550    -0.000980774775    0.001653761203    -0.034660599344    -0.014413394770    -0.001281416422    0.002133232955
            -0.000980774775    0.001653761203    0.008400885703    0.041369485562    -0.000738844766    0.001331380781    0.022928636288    0.037700138080
            -0.034660600267    -0.014413395154    -0.000738845133    0.001331380348    -0.055829717305    -0.022325354526    -0.000951740904    0.001711699456
            -0.001281416692    0.002133232560    0.022928639439    0.037700137334    -0.000951740904    0.001711699456    0.008865970254    0.041576284460
0.250     -0.064885457640    0.015806896042    -0.000485282653    0.002090252569    -0.046197523746    0.012873291586    -0.000648910422    0.002688089021
            -0.000485282288    0.002090252654    0.015006622302    0.061333281468    -0.000333958152    0.001659704094    0.025235375163    0.050140584266
            -0.046197526956    0.012873283792    -0.000333958652    0.001659703586    -0.065431732821    0.014746637839    -0.000433980244    0.002124434725
            -0.000648911290    0.002688088502    0.025235379539    0.050140582064    -0.000433980244    0.002124434725    0.015436873044    0.061274643951
0.275     -0.055533564605    0.055037882954    0.000199865976    0.002332394272    -0.043159846655    0.044627410232    0.000215068288    0.002999882317
            0.000199865976    0.002332394272    0.030104454756    0.078336923413    0.000210709940    0.001828380919    0.033662312263    0.062680997219
            -0.043159845265    0.044627408794    0.000210709502    0.001828380768    -0.056408114967    0.054114192053    0.000252894673    0.002337228860
            0.000215067855    0.002999882147    0.033662315072    0.062680994575    0.000252894673    0.002337228860    0.030338652232    0.078076126755
0.300     -0.028145070091    0.086718581596    0.000970870981    0.002299407376    -0.024618548048    0.072791683065    0.001185601372    0.002975926129
            0.000970870981    0.002299407376    0.051422369894    0.088399209795    0.000811141674    0.001780989178    0.047715755513    0.071987526840
            -0.024618561072    0.072791679715    0.000811141674    0.001780989178    -0.029257794266    0.086084246640    0.001008149065    0.002285737022
            0.001185601372    0.002975926129    0.047715758730    0.071987523508    0.001008149945    0.002285737071    0.051359091536    0.088086904558
0.325     0.011828993416    0.102590915143    0.001694221586    0.001979668577    0.006110782708    0.089849934560    0.002106996191    0.002602881414
            0.001694221651    0.001979668653    0.074901987437    0.089257941974    0.001365619604    0.001515387319    0.065189506622    0.075498024025
            0.006110781208    0.089849935664    0.001365619537    0.001515387245    0.010644335451    0.102344728243    0.001712881882    0.001967418672
            0.002106996191    0.002602881414    0.065189509268    0.075498019098    0.001712881847    0.001967418702    0.074539717106    0.089084858181
0.350     0.055516742194    0.098033240203    0.002256672511    0.001433191913    0.042424714337    0.090823945715    0.002847853631    0.001946864103
            0.002256672536    0.001433191874    0.095902002036    0.081024537887    0.001792427698    0.001081304397    0.082889314135    0.072157566542
            0.042424714337    0.090823945715    0.001792427698    0.001081304397    0.054470413002    0.098183852686    0.002271286124    0.001437282262
            0.002847853631    0.001946864103    0.082889315394    0.072157565095    0.002271286124    0.001437282262    0.095347771237    0.081160089669
0.375     0.092815289688    0.073118037505    0.002601091482    0.000760971295    0.076069877502    0.074383805893    0.003338451626    0.001118075971
            0.002601091495    0.000760971249    0.110454848848    0.066071746079    0.002053344672    0.000554336269    0.097510064826    0.062630490621
            0.076069876203    0.074383807221    0.002053344672    0.000554336269    0.092113594578    0.073566722490    0.002635047615    0.000778739629
            0.003338447839    0.001118078461    0.097510065919    0.062630488919    0.002635047615    0.000778739629    0.109898129726    0.066608901050
0.400     0.114607956819    0.032589707532    0.002734804477    0.000061362301    0.098902573065    0.043138929829    0.003577553573    0.000223711348
            0.002734804477    0.000061362277    0.116237554282    0.048403688515    0.002155511577    0.000004059511    0.106448930426    0.049133379859
            0.098902572312    0.043138931555    0.002155511577    0.000004059515    0.114400742401    0.033135572461    0.002804187083    0.000069305710
            0.003577553573    0.000223711342    0.106448931283    0.049133378001    0.002804187083    0.000069305701    0.115901301137    0.049323217294
0.425     0.114662909189    -0.014973426865    0.002708511297    -0.000607633713    0.104524485184    0.003306481623    0.003607759831    -0.000670685363
            0.002708511297    -0.000607633713    0.113122263893    0.032708167749    0.002133143765    -0.000530420704    0.108447662549    0.034970707322
            0.104524483839    0.003306524129    0.002133143756    -0.000530420741    0.114994412560    -0.014604643928    0.002806549108    -0.000644176242
            0.003607759820    -0.000670685426    0.108447663160    0.034970705429    0.002806549108    -0.000644176242    0.113200874365    0.033872939071
0.450     0.091164015453    -0.058601179015    0.002576057805    -0.001244981545    0.089831789707    -0.036153230441    0.003472762169    -0.001555372562
            0.002576057805    -0.001244981545    0.103329247712    0.023291688568    0.002018692965    -0.001048321832    0.104070480043    0.023834767423
            0.089831792490    -0.036153231561    0.002018692947    -0.001048321868    0.091933261307    -0.058705871569    0.002667679146    -0.001351920239
            0.003472762169    -0.001555372562    0.104070480043    0.023834767423    0.002667679146    -0.001351920239    0.103927776453    0.024470586607
0.475     0.047723374608    -0.087030944562    0.002348298698    -0.001890634709    0.056321639613    -0.065129309886    0.003171753209    -0.002456156578
            0.002348298698    -0.001890634709    0.091109973621    0.022934453458    0.001812440343    -0.001572776631    0.095845948650    0.018812722653
            0.056321639613    -0.065129309886    0.001812440343    -0.001572776631    0.048664536044    -0.087855429731    0.002381004771    -0.002064115168
            0.003171753209    -0.002456156578    0.095845948650    0.018812722653    0.002381004771    -0.002064115168    0.092201637742    0.023858906175
0.500     -0.006547803234    -0.091481614604    0.001968303861    -0.002574645700    0.010665389878    -0.074835805643    0.002639144177    -0.003380522407
            0.001968303711    -0.002574645689    0.081848461994    0.031874381235    0.001469021664    -0.002113929211    0.087841633323    0.021271315405
            0.010665391607    -0.074835808426    0.001469023922    -0.002113920335    -0.005871612163    -0.093141694558    0.001897790903    -0.002772590466
            0.002639144177    -0.003380522407    0.087841633323    0.021271315405    0.001897790895    -0.002772590350    0.083267411686    0.032312577878
0.525     -0.058605797743    -0.068578620714    0.001336604199    -0.003252739403    -0.036375884666    -0.060750868321    0.001776703488    -0.004254368396
            0.001336604199    -0.003252739403    0.080515953232    0.047310900036    0.000920103740    -0.002628788548    0.084465781250    0.030029817110
            -0.036375886721    -0.060750871753    0.000920103694    -0.002628788564    -0.058976306615    -0.071061123868    0.001154388268    -0.003413331534
            0.001776703413    -0.004254368427    0.084465784707    0.030029813358    0.001154388328    -0.003413331514    0.081989311576    0.047128754229
0.550     -0.094880372055    -0.022251701701    0.000391684241    -0.003780967741    -0.071254126656    -0.025491304515    0.000539647590    -0.004903564595
            0.000391684241    -0.003780967741    0.089898601697    0.063963297065    0.000173194600    -0.002971688855    0.088812095690    0.041481557759
            -0.071254126656    -0.025491304515    0.000173194600    -0.002971688855    -0.094585803366    -0.026553528029    0.000185536658    -0.003810808466
            0.000539647590    -0.004903564595    0.088812095690    0.041481557759    0.000185536658    -0.003810808466    0.091075150630    0.063175168034
0.575     -0.105455346436    0.037009941008    -0.000813109948    -0.003966114212    -0.086315580957    0.024926491319    -0.000988819645    -0.005114108024
            -0.000813109908    -0.003966114016    0.109414855685    0.075739606467    -0.000792823720    -0.003040572855    0.101409382305    0.050860429459
            -0.086315580957    0.024926491319    -0.000792823215    -0.003040573090    -0.106764535981    0.033593108673    -0.001029021864    -0.003863375536
            -0.000988819645    -0.005114108024    0.101409373366    0.050860424976    -0.001029021864    -0.003863375536    0.109972421961    0.074602935004
0.600     -0.087192437925    0.094873991858    -0.002090748598    -0.003671930985    -0.076382969346    0.076665930649    -0.002584839677    -0.004744707821
            -0.002090748598    -0.003671930985    0.135265216855    0.077846273630    -0.001759309475    -0.002742538814    0.120123951957    0.053931240114
            -0.076382969346    0.076665930649    -0.001759309475    -0.002742538814    -0.090075231719    0.092162013566    -0.002223146570    -0.003475533063
            -0.002584839677    -0.004744707821    0.120123954781    0.053931233825    -0.002223146570    -0.003475533063    0.135118986233    0.076767366678
0.625     -0.045461670056    0.137862483746    -0.003199912147    -0.002908142177    -0.044496580774    0.118311008038    -0.003973736762    -0.003818635298
            -0.003199912147    -0.002908142177    0.161815131346    0.068284285917    -0.002562341912    -0.002098928940    0.140995640529    0.048311772021
            -0.044496580774    0.118311008038    -0.002562342278    -0.002098928493    -0.048821067985    0.136700678084    -0.003214058574    -0.002680563248
            -0.003973736762    -0.003818635298    0.140995633598    0.048311761397    -0.003214058574    -0.002680563248    0.161112196584    0.067617575592
0.650     0.010746554070    0.158202869048    -0.003958188831    -0.001793890842    0.002467358808    0.141827129371    -0.004953731431    -0.002473508650
            -0.003958188831    -0.001793890842    0.183435444408    0.048144970511    -0.003073759387    -0.001225573156    0.159627029916    0.033956443538
            0.002467358808    0.141827129371    -0.003073759387    -0.001225573156    0.007433293219    0.158048085807    -0.003859961949    -0.001613466663
            -0.004953731431    -0.002473508650    0.159627029916    0.033956443538    -0.003859961949    -0.001613466663    0.182464135567    0.048114339456
0.675     0.069659723429    0.151723638571    -0.004263293477    -0.000527544971    0.054802368746    0.142534388396    -0.005409060825    -0.000931172885
            -0.004263293477    -0.000527544971    0.195903921645    0.020929437062    -0.003249984148    -0.000274672829    0.172295308026    0.012790324803
            0.054802366258    0.142534389353    -0.003249984148    -0.000274672829    0.066681433768    0.152579635635    -0.004113086100    -0.000445838520
            -0.005409060825    -0.000931172885    0.172295308026    0.012790324803    -0.004113086100    -0.000445838520    0.195018950646    0.021594495677
0.700     0.119360334577    0.120352355295    -0.004135284276    0.000687863151    0.102241159378    0.120581921093    -0.005358092055    0.000584031886
            -0.004135283860    0.000687863824    0.197133441110    -0.008509106013    -0.003124615989    0.000619103216    0.176574021723    -0.011930734201
            0.102241159378    0.120581921093    -0.003124616479    0.000619103313    0.117144534079    0.122033322460    -0.004008984242    0.000672616855
            -0.005358092055    0.000584031886    0.176574021723    -0.011930734201    -0.004008984242    0.000672616855    0.196679959649    -0.007260071753
0.725     0.150146208019    0.070449260576    -0.003680954943    0.001704537526    0.135615430177    0.079987107288    -0.004909815369    0.001909542770
            -0.003680955033    0.001704537568    0.187345135453    -0.034966644341    -0.002779250908    0.001368090641    0.171604173264    -0.036214237394
            0.135615430177    0.079987107288    -0.002779250908    0.001368090641    0.149024432794    0.072558787308    -0.003632713375    0.001644216684
            -0.004909812734    0.001909538786    0.171604162848    -0.036214238324    -0.003632713375    0.001644216684    0.187585713452    -0.033400681310
0.750     0.155575675813    0.011679684798    -0.003051587663    0.002460878119    0.147832134331    0.028114037142    -0.004216246407    0.002973434640
            -0.003051587663    0.002460878119    0.169007319426    -0.053758479533    -0.002312530252    0.001942906867    0.158329222368    -0.055887077407
            0.147832144645    0.028114036430    -0.002312530252    0.001942906867    0.155685033953    0.013681746315    -0.003084485110    0.002432405570
            -0.004216246407    0.002973434640    0.158329222368    -0.055887077407    -0.003084485110    0.002432405570    0.170057762489    -0.052251736857
0.775     0.133480411778    -0.044074596044    -0.002388220276    0.002993501654    0.135047137666    -0.024859187057    -0.003415186963    0.003801560250
            -0.002388220276    0.002993501654    0.146602833156    -0.061576835949    -0.001807502953    0.002372267601    0.139655546421    -0.067334590000
            0.135047124504    -0.024859148081    -0.001807502953    0.002372267601    0.134704655403    -0.042763339078    -0.002446109498    0.003057584170
            -0.003415186963    0.003801560250    0.139655546421    -0.067334590000    -0.002446110032    0.003057583743    0.148382214185    -0.060543681648
