# GHz S RI R 45
0.000     0.026847700000    0.000000000000    -0.000025616618    0.000000000000    0.000672253820    0.000000000000    -0.000024898817    0.000000000000
            -0.000025616525    0.000000000000    0.027374954000    0.000000000000    -0.000003140810    0.000000000000    0.000417896840    0.000000000000
            0.000672250330    0.000000000000    -0.000003140784    0.000000000000    0.026808075000    0.000000000000    -0.000004613325    0.000000000000
            -0.000024898624    0.000000000000    0.000417872120    0.000000000000    -0.000004613408    0.000000000000    0.027290030000    0.000000000000
0.025     0.035151471042    0.007835304931    -0.000010301983    -0.000010451396    0.005142639205    0.012026209767    -0.000015392838    -0.000016493894
            -0.000010301942    -0.000010451412    0.033894433645    0.008722176883    -0.000007606964    -0.000019329358    0.003411940883    0.013346004697
            0.005142625047    0.012026262587    -0.000007606937    -0.000019329367    0.035098030405    0.007832888853    -0.000010998777    -0.000021716275
            -0.000015392738    -0.000016493925    0.003411791216    0.013345838591    -0.000010998860    -0.000021716250    0.033782993678    0.008695424019
0.050     0.045597751393    0.005506004726    -0.000023054918    -0.000041184226    0.016292918715    0.018430466730    -0.000034046148    -0.000045863475
            -0.000023054868    -0.000041184255    0.039928826659    0.009843143592    -0.000024968774    -0.000034595986    0.011257724123    0.023272453230
            0.016292910484    0.018430483349    -0.000024968749    -0.000034596003    0.045588120754    0.005519616932    -0.000030260343    -0.000037827267
            -0.000034046052    -0.000045863531    0.011257728821    0.023272444292    -0.000030260410    -0.000037827229    0.039759229605    0.009831574184
0.075     0.054265833827    -0.004997356072    -0.000057905461    -0.000052739170    0.029362581918    0.016139958409    -0.000072390569    -0.000055227465
            -0.000057905420    -0.000052739207    0.043605737362    0.007060137811    -0.000050204585    -0.000038875557    0.020900997268    0.027883084329
            0.029362577130    0.016139967121    -0.000050204563    -0.000038875581    0.054336275219    -0.005007522580    -0.000058057469    -0.000042078060
            -0.000072390502    -0.000055227533    0.020900976184    0.027883087636    -0.000058057526    -0.000042078008    0.043388523770    0.007130377434
0.100     0.056063657244    -0.022140821502    -0.000097466268    -0.000043972120    0.038667779160    0.005339610435    -0.000114913912    -0.000042950561
            -0.000097466276    -0.000043972103    0.042806744699    0.002223516354    -0.000077751454    -0.000030828803    0.028989367192    0.027446387524
            0.038667780862    0.005339612733    -0.000077751454    -0.000030828803    0.056227625561    -0.022228108884    -0.000088433330    -0.000032779052
            -0.000114913863    -0.000042950635    0.028989340970    0.027446393402    -0.000088433377    -0.000032778982    0.042607527168    0.002421907736
0.125     0.047115781266    -0.041283084688    -0.000133216054    -0.000016148681    0.039455327728    -0.010544143235    -0.000152597981    -0.000010125408
            -0.000133216038    -0.000016148727    0.036507170519    -0.001390555498    -0.000103297356    -0.000010457409    0.032980359054    0.024071763929
            0.039455330029    -0.010544142374    -0.000103297343    -0.000010457444    0.047356065374    -0.041522155768    -0.000116568538    -0.000009755507
            -0.000152597942    -0.000010125539    0.032980331878    0.024071772327    -0.000116568575    -0.000009755428    0.036424468309    -0.001081415984
0.150     0.026802517431    -0.055849548627    -0.000158768976    0.000028377448    0.029566770835    -0.025845750445    -0.000178386880    0.000040507420
            -0.000158768962    0.000028377359    0.025962965971    -0.000460187019    -0.000122914811    0.000021876424    0.031934097126    0.020984002285
            0.029566773243    -0.025845750730    -0.000122914811    0.000021876424    0.027071919776    -0.056285857983    -0.000137949844    0.000026545627
            -0.000178386874    0.000040507222    0.031934070466    0.020984011899    -0.000137949846    0.000026545727    0.026070418724    -0.000109098811
0.175     -0.001777380389    -0.059426403165    -0.000167862454    0.000086173165    0.010337206750    -0.034277633386    -0.000185526033    0.000104901385
            -0.000167862452    0.000086173126    0.014133569718    0.007540422327    -0.000131779574    0.000065237504    0.027023659469    0.021471759612
            0.010337209122    -0.034277634759    -0.000131779574    0.000065237504    -0.001562606462    -0.060092688994    -0.000147195992    0.000074906898
            -0.000185526071    0.000104901236    0.027023642304    0.021471766748    -0.000147195979    0.000074906989    0.014460545637    0.007814194694
0.200     -0.032039361733    -0.047916684774    -0.000154303158    0.000151675383    -0.013427462113    -0.030994150406    -0.000167610515    0.000176637472
            -0.000154303209    0.000151675274    0.005292991269    0.023177884438    -0.000123987716    0.000116471886    0.021253656489    0.027606491028
            -0.013427462908    -0.030994152241    -0.000123987755    0.000116471800    -0.031986498776    -0.048802953852    -0.000137952205    0.000131637390
            -0.000167610590    0.000176637304    0.021253631147    0.027606502967    -0.000137952158    0.000131637483    0.005790600505    0.023240365843
0.225     -0.055616043579    -0.021288579550    -0.000113360833    0.000215258410    -0.034660599344    -0.014413394770    -0.000120031990    0.000245167280
            -0.000113360861    0.000215258372    0.003708841976    0.044402044998    -0.000094304285    0.000168316059    0.018442269403    0.039304337849
            -0.034660600267    -0.014413395154    -0.000094304339    0.000168316018    -0.055829717305    -0.022325354526    -0.000104750752    0.000188752631
            -0.000120032058    0.000245167202    0.018442245132    0.039304350342    -0.000104750706    0.000188752702    0.004248000007    0.044157937455
0.250     -0.064885457640    0.015806896042    -0.000045252671    0.000264142874    -0.046197523746    0.012873291586    -0.000043535265    0.000296870131
            -0.000045252671    0.000264142874    0.012023176802    0.066868606021    -0.000041698127    0.000209890429    0.021773226527    0.054185126635
            -0.046197526956    0.012873283792    -0.000041698127    0.000209890429    -0.065431732821    0.014746637839    -0.000046660969    0.000234559135
            -0.000043535264    0.000296870121    0.021773201165    0.054185140059    -0.000046660894    0.000234559190    0.012427566358    0.066307490112
0.275     -0.055533564605    0.055037882954    0.000042386028    0.000285768409    -0.043159846655    0.044627410232    0.000053405610    0.000318614466
            0.000042386033    0.000285768409    0.030087299092    0.085223426329    0.000028146726    0.000230086665    0.032523788419    0.068370266365
            -0.043159845265    0.044627408794    0.000028146718    0.000230086666    -0.056408114967    0.054114192053    0.000030200383    0.000257235802
            0.000053405615    0.000318614465    0.032523773336    0.068370274648    0.000030200431    0.000257235816    0.030191313089    0.084438695595
0.300     -0.028145070091    0.086718581596    0.000135753150    0.000273151265    -0.024618548048    0.072791683065    0.000156004332    0.000303254048
            0.000135753155    0.000273151262    0.054824959058    0.094909857480    0.000103814120    0.000222442847    0.049583007169    0.077886934801
            -0.024618561072    0.072791679715    0.000103814120    0.000222442847    -0.029257794266    0.086084246640    0.000113737392    0.000249854158
            0.000156004341    0.000303254078    0.049583007454    0.077886932249    0.000113737361    0.000249854194    0.054532840836    0.094076970630
0.325     0.011828993416    0.102590915143    0.000219430218    0.000227629680    0.006110782708    0.089849934560    0.000247931832    0.000252350490
            0.000219430218    0.000227629680    0.081182631924    0.093632624919    0.000172385484    0.000187784343    0.069879421473    0.079981642088
            0.006110781208    0.089849935664    0.000172385487    0.000187784340    0.010644335451    0.102344728243    0.000190281078    0.000213073609
            0.000247931832    0.000252350490    0.069879385178    0.079981673798    0.000190281078    0.000213073609    0.080504023374    0.092960093610
0.350     0.055516742194    0.098033240203    0.000281926316    0.000157877060    0.042424714337    0.090823945715    0.000317024194    0.000175060841
            0.000281926316    0.000157877060    0.103662259331    0.081993515056    0.000224311667    0.000133225433    0.089389400236    0.073879539583
            0.042424714337    0.090823945715    0.000224311669    0.000133225429    0.054470413002    0.098183852686    0.000249593877    0.000154091552
            0.000317024198    0.000175060835    0.089389400236    0.073879539583    0.000249593877    0.000154091552    0.102715993721    0.081661841082
0.375     0.092815289688    0.073118037505    0.000318567711    0.000075702485    0.076069877502    0.074383805893    0.000358190319    0.000083756711
            0.000318567711    0.000075702485    0.117793926379    0.063211385449    0.000255948294    0.000068387611    0.104214874182    0.060891633558
            0.076069876203    0.074383807221    0.000255948294    0.000068387611    0.092113594578    0.073566722490    0.000287460152    0.000082743764
            0.000358190329    0.000083756713    0.104214875244    0.060891631739    0.000287460152    0.000082743764    0.116780826594    0.063319929823
0.400     0.114607956819    0.032589707532    0.000331404589    -0.000008707416    0.098902573065    0.043138929829    0.000373237757    -0.000010861075
            0.000331404589    -0.000008707416    0.121202249564    0.042290683337    0.000269198688    0.000001254335    0.111512940393    0.044110788526
            0.098902572312    0.043138931555    0.000269198688    0.000001254333    0.114400742401    0.033135572461    0.000305280774    0.000007281893
            0.000373237757    -0.000010861074    0.111512940393    0.044110788526    0.000305280774    0.000007281894    0.120355772464    0.042824196324
0.425     0.114662909189    -0.014973426865    0.000326079004    -0.000090201079    0.104524485184    0.003306481623    0.000367599362    -0.000103194015
            0.000326078985    -0.000090201073    0.114189242108    0.024892205933    0.000268666847    -0.000064647771    0.110224209473    0.027806472732
            0.104524483839    0.003306524129    0.000268666871    -0.000064647757    0.114994412560    -0.014604643928    0.000307146594    -0.000068444538
            0.000367599360    -0.000103194021    0.110224169708    0.027806507717    0.000307146594    -0.000068444538    0.113714238986    0.025713207741
0.450     0.091164015453    -0.058601179015    0.000307255039    -0.000169598221    0.089831789707    -0.036153230441    0.000345675211    -0.000193565855
            0.000307255000    -0.000169598249    0.099895231451    0.016055171538    0.000257626337    -0.000130744006    0.101627495790    0.016522425259
            0.089831792490    -0.036153231561    0.000257626364    -0.000130744020    0.091933261307    -0.058705871569    0.000295770409    -0.000145377855
            0.000345674994    -0.000193564973    0.101627495732    0.016522425614    0.000295770421    -0.000145377855    0.099905273298    0.016926268196
0.475     0.047723374608    -0.087030944562    0.000273900887    -0.000250839097    0.056321639613    -0.065129309886    0.000306163937    -0.000285216652
            0.000273900895    -0.000250838630    0.083893247845    0.018767251098    0.000234105137    -0.000200712997    0.089457182202    0.013766602913
            0.056321639613    -0.065129309886    0.000234105133    -0.000200713001    0.048664536044    -0.087855429731    0.000268652289    -0.000226422857
            0.000306163932    -0.000285216658    0.089457182202    0.013766602913    0.000268652289    -0.000226422857    0.084363781923    0.019407211553
0.500     -0.006547803234    -0.091481614604    0.000217762360    -0.000334596159    0.010665389878    -0.074835805643    0.000240737532    -0.000377821329
            0.000217762360    -0.000334596159    0.072961104894    0.032663742808    0.000189881332    -0.000274807624    0.079190927030    0.020550867240
            0.010665391607    -0.074835808426    0.000189881327    -0.000274807627    -0.005871612163    -0.093141694558    0.000217284732    -0.000310710120
            0.000240737504    -0.000377821359    0.079190930651    0.020550865229    0.000217284764    -0.000310710097    0.073724512618    0.032822792333
0.525     -0.058605797743    -0.068578620714    0.000128286154    -0.000411461461    -0.036375884666    -0.060750868321    0.000139194872    -0.000460768344
            0.000128286154    -0.000411461461    0.072883832134    0.053556617185    0.000115069227    -0.000344546790    0.076238536389    0.034498919029
            -0.036375886721    -0.060750871753    0.000115069227    -0.000344546790    -0.058976306615    -0.071061123868    0.000131967387    -0.000388451524
            0.000139195088    -0.000460767955    0.076238513477    0.034498959960    0.000131967393    -0.000388451521    0.073747738620    0.053037627044
0.550     -0.094880372055    -0.022251701701    0.000002966361    -0.000460725911    -0.071254126656    -0.025491304515    0.000000083627    -0.000512841533
            0.000002966329    -0.000460725881    0.086330355518    0.073294054387    0.000012386842    -0.000387899625    0.083790215168    0.049687524742
            -0.071254126656    -0.025491304515    0.000012386837    -0.000387899665    -0.094585803366    -0.026553528029    0.000016909472    -0.000436525916
            0.000000083627    -0.000512841533    0.083790215168    0.049687524742    0.000016909464    -0.000436525916    0.086979446762    0.073107288396
0.575     -0.105455346436    0.037009941008    -0.000145560022    -0.000462439385    -0.086315580957    0.024926491319    -0.000162417030    -0.000512577839
            -0.000145560022    -0.000462439385    0.111781045239    0.086402910791    -0.000116968260    -0.000390865972    0.101655603447    0.060973774154
            -0.086315580957    0.024926491319    -0.000116967889    -0.000390865728    -0.106764535981    0.033593108673    -0.000126412860    -0.000439697290
            -0.000162417030    -0.000512577839    0.101655590739    0.060973814783    -0.000126412857    -0.000439697280    0.111721882045    0.085648803401
0.600     -0.087192437925    0.094873991858    -0.000290410738    -0.000405924404    -0.076382969346    0.076665930649    -0.000320101502    -0.000450130681
            -0.000290410743    -0.000405924412    0.143004896573    0.086461217675    -0.000241348545    -0.000344040771    0.125596426413    0.062814169070
            -0.076382969346    0.076665930649    -0.000241348545    -0.000344040771    -0.090075231719    0.092162013566    -0.000264104345    -0.000389081349
            -0.000320101502    -0.000450130681    0.125596429702    0.062814162494    -0.000264104345    -0.000389081349    0.142397605631    0.085574194459
0.625     -0.045461670056    0.137862483746    -0.000404801409    -0.000300667905    -0.044496580774    0.118311008038    -0.000444873565    -0.000336114212
            -0.000404801417    -0.000300667911    0.173086497799    0.072443124517    -0.000339385466    -0.000254477024    0.150180041967    0.053655029073
            -0.044496580774    0.118311008038    -0.000339385466    -0.000254477024    -0.048821067985    0.136700678084    -0.000373644963    -0.000292380232
            -0.000444873118    -0.000336114240    0.150180041967    0.053655029073    -0.000373644927    -0.000292380309    0.171764628925    0.071931272164
0.650     0.010746554070    0.158202869048    -0.000473698892    -0.000165105983    0.002467358808    0.141827129371    -0.000521637404    -0.000189635031
            -0.000473698844    -0.000165106059    0.195580864943    0.046745184546    -0.000397293589    -0.000139820625    0.170451685382    0.034444511011
            0.002467358808    0.141827129371    -0.000397293589    -0.000139820625    0.007433293219    0.158048085807    -0.000440743597    -0.000167904630
            -0.000521637451    -0.000189635049    0.170451685382    0.034444511011    -0.000440743626    -0.000167904641    0.194073273318    0.046930198442
0.675     0.069659723429    0.151723638571    -0.000492169536    -0.000022228781    0.054802368746    0.142534388396    -0.000545021920    -0.000034501794
            -0.000492169536    -0.000022228781    0.206196451986    0.014256438197    -0.000412848448    -0.000019980902    0.182271718634    0.008178716299
            0.054802366258    0.142534389353    -0.000412848452    -0.000019980830    0.066681433768    0.152579635635    -0.000462682192    -0.000036384465
            -0.000545021920    -0.000034501794    0.182271718634    0.008178716299    -0.000462682192    -0.000036384465    0.204844273774    0.015077341434
0.700     0.119360334577    0.120352355295    -0.000467642181    0.000108576670    0.102241159378    0.120581921093    -0.000522583173    0.000109187211
            -0.000467642219    0.000108576593    0.203305141367    -0.019023314747    -0.000393006003    0.000089444305    0.183369443585    -0.020761387768
            0.102241159378    0.120581921093    -0.000393006003    0.000089444305    0.117144534079    0.122033322460    -0.000446328891    0.000085887596
            -0.000522583213    0.000109187219    0.183369432634    -0.020761395604    -0.000446328891    0.000085887596    0.202383236895    -0.017717388091
0.725     0.150146208019    0.070449260576    -0.000413881358    0.000216174322    0.135615430177    0.079987107288    -0.000468206463    0.000229940913
            -0.000413881340    0.000216174313    0.187931497834    -0.047011876258    -0.000349365571    0.000179960630    0.173411848550    -0.047399159159
            0.135615430177    0.079987107288    -0.000349365589    0.000179960639    0.149024432794    0.072558787308    -0.000403211109    0.000189953573
            -0.000468206185    0.000229940574    0.173411840012    -0.047399114539    -0.000403211109    0.000189953573    0.187628242232    -0.045486085700
0.750     0.155575675813    0.011679684798    -0.000345989229    0.000298915230    0.147832134331    0.028114037142    -0.000396891198    0.000325867325
            -0.000345989229    0.000298915230    0.163669542209    -0.064437082355    -0.000294002254    0.000250845288    0.154276823699    -0.066738085890
            0.147832144645    0.028114036430    -0.000294002254    0.000250845288    0.155685033953    0.013681746315    -0.000345184085    0.000274672854
            -0.000396891191    0.000325867318    0.154276800080    -0.066737989367    -0.000345184085    0.000274672854    0.164029081085    -0.063032197238
0.775     0.133480411778    -0.044074596044    -0.000274851298    0.000364153183    0.135047137666    -0.024859187057    -0.000319175773    0.000403917716
            -0.000274851292    0.000364153175    0.136481088581    -0.067865836723    -0.000235070125    0.000308365818    0.130300693681    -0.074728647553
            0.135047124504    -0.024859148081    -0.000235070125    0.000308365818    0.134704655403    -0.042763339078    -0.000280025287    0.000345710879
            -0.000319175773    0.000403917716    0.130300693681    -0.074728647553    -0.000280025287    0.000345710879    0.137363021319    -0.066925483507
