# GHz S RI R 45
0.000     0.026847700000    0.000000000000    -0.000023527988    0.000000000000    0.000672253820    0.000000000000    -0.000029268781    0.000000000000
            -0.000023527385    0.000000000000    0.027236109000    0.000000000000    -0.000019050902    0.000000000000    0.000523619430    0.000000000000
            0.000672250330    0.000000000000    -0.000019050569    0.000000000000    0.026808075000    0.000000000000    -0.000028587388    0.000000000000
            -0.000029268394    0.000000000000    0.000523594400    0.000000000000    -0.000028587745    0.000000000000    0.027188801000    0.000000000000
0.025     0.035151471042    0.007835304931    -0.000044211877    -0.000055069823    0.005142639205    0.012026209767    -0.000049358761    -0.000063231865
            -0.000044211496    -0.000055069920    0.033452375838    0.008373981558    -0.000055407706    -0.000057375357    0.003304461903    0.013020947317
            0.005142625047    0.012026262587    -0.000055407053    -0.000057375543    0.035098030405    0.007832888853    -0.000061437969    -0.000061460792
            -0.000049358347    -0.000063231972    0.003304312431    0.013020775814    -0.000061438305    -0.000061460698    0.033376986730    0.008384719755
0.050     0.045597751393    0.005506004726    -0.000095244437    -0.000090745042    0.016292918715    0.018430466730    -0.000108339780    -0.000108594858
            -0.000095244019    -0.000090745278    0.039043887375    0.009605381288    -0.000106667293    -0.000078524470    0.010755776570    0.022938212918
            0.016292910484    0.018430483349    -0.000106666706    -0.000078524813    0.045588120754    0.005519616932    -0.000117957693    -0.000091109872
            -0.000108339366    -0.000108595088    0.010755781229    0.022938204106    -0.000117958034    -0.000091109675    0.038933830442    0.009680389678
0.075     0.054265833827    -0.004997356072    -0.000165102554    -0.000094972347    0.029362581918    0.016139958409    -0.000192177169    -0.000116095858
            -0.000165102276    -0.000094972609    0.042447858758    0.007285990674    -0.000167493140    -0.000073974567    0.020072641286    0.027871972212
            0.029362577130    0.016139967121    -0.000167492733    -0.000073974946    0.054336275219    -0.005007522580    -0.000189833948    -0.000089344899
            -0.000192176852    -0.000116096170    0.020072620946    0.027871975769    -0.000189834249    -0.000089344636    0.042335794233    0.007466157203
0.100     0.056063657244    -0.022140821502    -0.000238427613    -0.000065067612    0.038667779160    0.005339610435    -0.000281282150    -0.000081903665
            -0.000238427376    -0.000065067950    0.041757205182    0.003096620980    -0.000228945692    -0.000041009832    0.028124166318    0.027990154606
            0.038667780862    0.005339612733    -0.000228945402    -0.000041010316    0.056227625561    -0.022228108884    -0.000263866855    -0.000052800756
            -0.000281281930    -0.000081904027    0.028124140762    0.027990160438    -0.000263867066    -0.000052800463    0.041706879578    0.003401004912
0.125     0.047115781266    -0.041283084688    -0.000303307100    -0.000002004015    0.039455327728    -0.010544143235    -0.000360477955    -0.000006824543
            -0.000303306977    -0.000002004385    0.036041625416    0.000018178368    -0.000281330638    0.000019953130    0.032496524393    0.025167969222
            0.039455330029    -0.010544142374    -0.000281330451    0.000019952525    0.047356065374    -0.041522155768    -0.000327579248    0.000018182215
            -0.000360477817    -0.000006824981    0.032496501464    0.025167975963    -0.000327579402    0.000018182682    0.036127356338    0.000423885863
0.150     0.026802517431    -0.055849548627    -0.000349518975    0.000091742837    0.029566770835    -0.025845750445    -0.000416504702    0.000105787773
            -0.000349518965    0.000091742834    0.026419899950    0.001079069085    -0.000315784917    0.000106472385    0.032206387716    0.022342881547
            0.029566773243    -0.025845750730    -0.000315784945    0.000106472333    0.027071919776    -0.056285857983    -0.000369525282    0.000120417808
            -0.000416504652    0.000105786831    0.032206360879    0.022342890407    -0.000369525291    0.000120417811    0.026714189067    0.001503040395
0.175     -0.001777380389    -0.059426403165    -0.000365019290    0.000212887728    0.010337206750    -0.034277633386    -0.000434582986    0.000250783845
            -0.000365019442    0.000212886792    0.015570641109    0.008605093398    -0.000321958623    0.000215281723    0.028199942002    0.022576421294
            0.010337209122    -0.034277634759    -0.000321958736    0.000215281230    -0.001562606462    -0.060092688994    -0.000376946076    0.000249008206
            -0.000434583128    0.000250783320    0.028199921981    0.022576430302    -0.000376946093    0.000249008217    0.016082346866    0.008922003958
0.200     -0.032039361733    -0.047916684774    -0.000335027451    0.000352765997    -0.013427462113    -0.030994150406    -0.000397901153    0.000416607244
            -0.000335027819    0.000352765151    0.007370674736    0.023167133178    -0.000287407449    0.000338148017    0.023129010034    0.027887683291
            -0.013427462908    -0.030994152241    -0.000287407840    0.000338147160    -0.031986498776    -0.048802953852    -0.000335652030    0.000393121532
            -0.000397901233    0.000416607182    0.023128986735    0.027887694820    -0.000335651679    0.000393122371    0.008028051918    0.023253461456
0.225     -0.055616043579    -0.021288579550    -0.000246089443    0.000492212200    -0.034660599344    -0.014413394770    -0.000292139692    0.000580242937
            -0.000246089438    0.000492212191    0.005733827803    0.042981521060    -0.000201213983    0.000457908267    0.020466787907    0.038379306935
            -0.034660600267    -0.014413395154    -0.000201214294    0.000457907890    -0.055829717305    -0.022325354526    -0.000234095801    0.000532104296
            -0.000292140336    0.000580242198    0.020466768481    0.038379317294    -0.000234095817    0.000532104333    0.006393950158    0.042765789190
0.250     -0.064885457640    0.015806896042    -0.000095546140    0.000602301230    -0.046197523746    0.012873291586    -0.000115556702    0.000708642917
            -0.000095546142    0.000602301240    0.013164253040    0.064166359869    -0.000062231113    0.000549280120    0.023220495825    0.052055063982
            -0.046197526956    0.012873283792    -0.000062231121    0.000549280109    -0.065431732821    0.014746637839    -0.000072199164    0.000637040730
            -0.000115557460    0.000708642348    0.023220481194    0.052055072698    -0.000072199166    0.000637040740    0.013653503080    0.063667857895
0.275     -0.055533564605    0.055037882954    0.000101473851    0.000652917761    -0.043159846655    0.044627410232    0.000113945278    0.000768208674
            0.000101473849    0.000652917751    0.029684926193    0.081849333314    0.000115288535    0.000586647700    0.032758228765    0.065469191086
            -0.043159845265    0.044627408794    0.000115287666    0.000586647341    -0.056408114967    0.054114192053    0.000133023340    0.000679394506
            0.000113944799    0.000768208493    0.032758207502    0.065469202843    0.000133023760    0.000679394699    0.029856075246    0.081186556566
0.300     -0.028145070091    0.086718581596    0.000313898050    0.000625940097    -0.024618548048    0.072791683065    0.000361270553    0.000738994245
            0.000313898037    0.000625940070    0.052649893408    0.091775992288    0.000303691427    0.000555349866    0.048298674187    0.074953459088
            -0.024618561072    0.072791679715    0.000303690480    0.000555349769    -0.029257794266    0.086084246640    0.000350137351    0.000643256841
            0.000361270510    0.000738994255    0.048298660563    0.074953466677    0.000350138274    0.000643256987    0.052437293567    0.091138014763
0.325     0.011828993416    0.102590915143    0.000505664870    0.000522971579    0.006110782708    0.089849934560    0.000586145698    0.000622747973
            0.000505664404    0.000522971626    0.077533795640    0.091663468086    0.000471810831    0.000457914218    0.067210010485    0.077825384580
            0.006110781208    0.089849935664    0.000471809904    0.000457914311    0.010644335451    0.102344728243    0.000544202716    0.000531765532
            0.000586144782    0.000622748067    0.067209976527    0.077825413906    0.000544202707    0.000531765541    0.076981156336    0.091256425402
0.350     0.055516742194    0.098033240203    0.000649148864    0.000363617216    0.042424714337    0.090823945715    0.000757643266    0.000440824186
            0.000649148835    0.000363617185    0.099290834755    0.081847828356    0.000596341337    0.000311976047    0.085874706911    0.073146236297
            0.042424714337    0.090823945715    0.000596340459    0.000311976409    0.054470413002    0.098183852686    0.000689190215    0.000364599461
            0.000757642420    0.000440824526    0.085874709464    0.073146233300    0.000689190213    0.000364599507    0.098547834426    0.081835117179
0.375     0.092815289688    0.073118037505    0.000732954350    0.000175610029    0.076069877502    0.074383805893    0.000862413401    0.000223365933
            0.000732953571    0.000175610533    0.113713477493    0.065095080888    0.000668045290    0.000141456680    0.100671865428    0.061889860823
            0.076069876203    0.074383807221    0.000668044526    0.000141457200    0.092113594578    0.073566722490    0.000774529474    0.000168193686
            0.000862413415    0.000223365921    0.100671825706    0.061889887247    0.000774529464    0.000168193684    0.113001943177    0.065546659145
0.400     0.114607956819    0.032589707532    0.000761937901    -0.000016760934    0.098902573065    0.043138929829    0.000904523452    -0.000003176671
            0.000761937880    -0.000016760975    0.118448931999    0.045874026312    0.000691146417    -0.000033124324    0.108857460525    0.046707626865
            0.098902572312    0.043138931555    0.000691146425    -0.000033124355    0.114400742401    0.033135572461    0.000804274202    -0.000034822710
            0.000904523442    -0.000003176670    0.108857461341    0.046707624965    0.000804274242    -0.000034822717    0.118009182935    0.046738544481
0.425     0.114662909189    -0.014973426865    0.000750001820    -0.000201266551    0.104524485184    0.003306481623    0.000897449297    -0.000225083269
            0.000750001589    -0.000201266139    0.113561900663    0.029325249750    0.000676939047    -0.000201478909    0.109252472687    0.031390399845
            0.104524483839    0.003306524129    0.000676938624    -0.000201478089    0.114994412560    -0.014604643928    0.000789903015    -0.000232852846
            0.000897448876    -0.000225082481    0.109252473235    0.031390397939    0.000789903260    -0.000232853218    0.113589274207    0.030428851320
0.450     0.091164015453    -0.058601179015    0.000709077383    -0.000380140814    0.089831789707    -0.036153230441    0.000852300628    -0.000443490765
            0.000709077317    -0.000380140810    0.101688826645    0.020098015162    0.000634628409    -0.000364987760    0.102757445344    0.020066188456
            0.089831792490    -0.036153231561    0.000634628250    -0.000364986873    0.091933261307    -0.058705871569    0.000740416894    -0.000426520894
            0.000852300619    -0.000443490760    0.102757445344    0.020066188456    0.000740416894    -0.000426520894    0.102271710944    0.021175082330
0.475     0.047723374608    -0.087030944562    0.000637782741    -0.000563821733    0.056321639613    -0.065129309886    0.000766166594    -0.000667243938
            0.000637782745    -0.000563821260    0.087682788695    0.021080128293    0.000562270007    -0.000531150604    0.092481791816    0.016054337877
            0.056321639613    -0.065129309886    0.000562269995    -0.000531150166    0.048664536044    -0.087855429731    0.000652923175    -0.000622283818
            0.000766166590    -0.000667243487    0.092481791872    0.016054337554    0.000652923214    -0.000622284747    0.088758534161    0.021837130226
0.500     -0.006547803234    -0.091481614604    0.000517206016    -0.000756119380    0.010665389878    -0.074835805643    0.000618484681    -0.000897128617
            0.000517206222    -0.000756118463    0.077574089644    0.032249484688    0.000443847581    -0.000701237678    0.083187624343    0.020584898895
            0.010665391607    -0.074835808426    0.000443847830    -0.000701236798    -0.005871612163    -0.093141694558    0.000510197325    -0.000819232099
            0.000618484666    -0.000897128628    0.083187624343    0.020584898895    0.000510197334    -0.000819232082    0.078922872688    0.032452880982
0.525     -0.058605797743    -0.068578620714    0.000321126867    -0.000937841354    -0.036375884666    -0.060750868321    0.000382634540    -0.001109246211
            0.000321126844    -0.000937841341    0.076764502922    0.050153313480    0.000258290147    -0.000858103257    0.079827458862    0.031917562842
            -0.036375886721    -0.060750871753    0.000258290597    -0.000858102474    -0.058976306615    -0.071061123868    0.000290887053    -0.000996799703
            0.000382635152    -0.001109245471    0.079827458862    0.031917562842    0.000290886880    -0.000996800274    0.078059880684    0.049716819675
0.550     -0.094880372055    -0.022251701701    0.000039887151    -0.001064132712    -0.071254126656    -0.025491304515    0.000051205692    -0.001253303091
            0.000039887151    -0.001064132712    0.087993495585    0.068664422690    0.000010899627    -0.000955093578    0.085625564590    0.045616997229
            -0.071254126656    -0.025491304515    0.000010899627    -0.000955093578    -0.094585803366    -0.026553528029    0.000004213595    -0.001102500348
            0.000051205666    -0.001253302992    0.085625567861    0.045616993216    0.000004212962    -0.001102500951    0.088901491934    0.067693289064
0.575     -0.105455346436    0.037009941008    -0.000301121440    -0.001083392712    -0.086315580957    0.024926491319    -0.000345331632    -0.001273468936
            -0.000301121440    -0.001083392712    0.110106945129    0.081027230776    -0.000297037775    -0.000958555254    0.100694986756    0.056126527615
            -0.086315580957    0.024926491319    -0.000297037519    -0.000958555020    -0.106764535981    0.033593108673    -0.000348542312    -0.001101415228
            -0.000345330782    -0.001273468441    0.100694949450    0.056126615084    -0.000348542312    -0.001101415228    0.110397008372    0.079794760777
0.600     -0.087192437925    0.094873991858    -0.000642899139    -0.000968057347    -0.076382969346    0.076665930649    -0.000740817815    -0.001140839605
            -0.000642899139    -0.000968057347    0.138468945711    0.082272114644    -0.000595718998    -0.000846409402    0.122085009045    0.058863700940
            -0.076382969346    0.076665930649    -0.000595718151    -0.000846409141    -0.090075231719    0.092162013566    -0.000688125854    -0.000970287345
            -0.000740817815    -0.001140839605    0.122085016236    0.058863686024    -0.000688126597    -0.000970287676    0.138087849596    0.081133459572
0.625     -0.045461670056    0.137862483746    -0.000920984593    -0.000734418668    -0.044496580774    0.118311008038    -0.001064079166    -0.000874670127
            -0.000920984593    -0.000734418668    0.166718899277    0.070719060862    -0.000834886568    -0.000631731790    0.145063052462    0.051633262593
            -0.044496580774    0.118311008038    -0.000834886568    -0.000631731790    -0.048821067985    0.136700678084    -0.000959560211    -0.000724565921
            -0.001064074860    -0.000874670011    0.145063052462    0.051633262593    -0.000959561135    -0.000724566356    0.165800063866    0.070002754134
0.650     0.010746554070    0.158202869048    -0.001095899669    -0.000422921054    0.002467358808    0.141827129371    -0.001272050572    -0.000519652481
            -0.001095898293    -0.000422921841    0.188833289853    0.048054226758    -0.000979849471    -0.000354183036    0.164739634097    0.034875410755
            0.002467358808    0.141827129371    -0.000979849377    -0.000354183002    0.007433293219    0.158048085807    -0.001124863347    -0.000408555000
            -0.001272050944    -0.000519652893    0.164739635923    0.034875402129    -0.001124863486    -0.000408555495    0.187650442121    0.047978157123
0.675     0.069659723429    0.151723638571    -0.001151784036    -0.000087696440    0.054802368746    0.142534388396    -0.001346925338    -0.000135230030
            -0.001151784136    -0.000087696448    0.200541608068    0.018411345166    -0.001022785123    -0.000060472640    0.177193436428    0.011094930062
            0.054802366258    0.142534389353    -0.001022784714    -0.000060472795    0.066681433768    0.152579635635    -0.001175638169    -0.000074093635
            -0.001346921368    -0.000135231531    0.177193423582    0.011094975208    -0.001175638255    -0.000074093846    0.199437062144    0.019034498300
0.700     0.119360334577    0.120352355295    -0.001103204313    0.000223325788    0.102241159378    0.120581921093    -0.001304196037    0.000226076028
            -0.001103204313    0.000223325788    0.199958020938    -0.012822707667    -0.000977834777    0.000211128123    0.180033725782    -0.015884300951
            0.102241159378    0.120581921093    -0.000977834069    0.000211127613    0.117144534079    0.122033322460    -0.001127695715    0.000236554940
            -0.001304196037    0.000226076028    0.180033703383    -0.015884213475    -0.001127695617    0.000236554920    0.199264312325    -0.011607590197
0.725     0.150146208019    0.070449260576    -0.000981631842    0.000480801093    0.135615430177    0.079987107288    -0.001177391591    0.000532371608
            -0.000981631931    0.000480801137    0.187667184334    -0.040038292084    -0.000871257422    0.000438032038    0.172635955015    -0.041545113463
            0.135615430177    0.079987107288    -0.000871257404    0.000438032029    0.149024432794    0.072558787308    -0.001009902402    0.000498768956
            -0.001177391500    0.000532371566    0.172635925981    -0.041545020412    -0.001009902402    0.000498768956    0.187636106540    -0.038488224381
0.750     0.155575675813    0.011679684798    -0.000823612735    0.000677892828    0.147832134331    0.028114037142    -0.001004626536    0.000776039108
            -0.000823612735    0.000677892828    0.166642145700    -0.058279122907    -0.000731942668    0.000615478173    0.156396265946    -0.061267656815
            0.147832144645    0.028114036430    -0.000731942660    0.000615478167    0.155685033953    0.013681746315    -0.000853320482    0.000707608467
            -0.001004626536    0.000776039108    0.156396249332    -0.061267562148    -0.000853320482    0.000707608467    0.167382642132    -0.056753523407
0.775     0.133480411778    -0.044074596044    -0.000657530057    0.000829880286    0.135047137666    -0.024859187057    -0.000814335280    0.000972258030
            -0.000657530057    0.000829880286    0.142025795984    -0.064166703888    -0.000581456737    0.000755375356    0.134923653847    -0.071182007960
            0.135047124504    -0.024859148081    -0.000581456737    0.000755375356    0.134704655403    -0.042763339078    -0.000680147394    0.000875683540
            -0.000814335280    0.000972258030    0.134923645949    -0.071181958638    -0.000680147394    0.000875683540    0.143456599774    -0.063057367819
