# GHz S RI R 45
0.000     0.026847700000    0.000000000000    0.000000518701    -0.000000000000    0.000672253820    0.000000000000    -0.000003117525    0.000000000000
            0.000000518840    -0.000000000000    0.027153432000    0.000000000000    -0.000014517765    0.000000000000    0.000679396530    0.000000000000
            0.000672250330    0.000000000000    -0.000014517676    0.000000000000    0.026808075000    0.000000000000    -0.000004666144    0.000000000000
            -0.000003117476    0.000000000000    0.000679474400    0.000000000000    -0.000004666286    0.000000000000    0.027110893000    0.000000000000
0.025     0.035151471042    0.007835304931    -0.000014100755    -0.000024886988    0.005142639205    0.012026209767    -0.000016591068    -0.000027600551
            -0.000014100610    -0.000024887037    0.033045139560    0.007587432546    -0.000011017996    -0.000013151532    0.003315324942    0.011949789299
            0.005142625047    0.012026262587    -0.000011017951    -0.000013151544    0.035098030405    0.007832888853    -0.000016307004    -0.000025226547
            -0.000016591025    -0.000027600556    0.003315282211    0.011949617468    -0.000016307150    -0.000025226503    0.032997358474    0.007630044995
0.050     0.045597751393    0.005506004726    -0.000034821163    -0.000035158289    0.016292918715    0.018430466730    -0.000040148896    -0.000042101555
            -0.000034821071    -0.000035158343    0.038189279613    0.008376345715    -0.000024704876    -0.000031657194    0.010115728421    0.021028366794
            0.016292910484    0.018430483349    -0.000024704838    -0.000031657213    0.045588120754    0.005519616932    -0.000038049504    -0.000039657035
            -0.000040148911    -0.000042101542    0.010115836417    0.021028347024    -0.000038049683    -0.000039656930    0.038162088527    0.008474663258
0.075     0.054265833827    -0.004997356072    -0.000059622842    -0.000035833686    0.029362581918    0.016139958409    -0.000070417836    -0.000044440347
            -0.000059622737    -0.000035833793    0.041275667288    0.005979375688    -0.000050329860    -0.000037513450    0.018696203159    0.025643390474
            0.029362577130    0.016139967121    -0.000050329818    -0.000037513488    0.054336275219    -0.005007522580    -0.000067163940    -0.000042352989
            -0.000070417809    -0.000044440364    0.018696286556    0.025643377935    -0.000067164081    -0.000042352849    0.041292405510    0.006119424397
0.100     0.056063657244    -0.022140821502    -0.000085624726    -0.000025405193    0.038667779160    0.005339610435    -0.000102746800    -0.000032753365
            -0.000085624673    -0.000025405291    0.040674936260    0.001851784369    -0.000078818637    -0.000029402556    0.026310054857    0.025830264085
            0.038667780862    0.005339612733    -0.000078818640    -0.000029402541    0.056227625561    -0.022228108884    -0.000098619995    -0.000031071888
            -0.000102746748    -0.000032753428    0.026310130623    0.025830248290    -0.000098620102    -0.000031071714    0.040749107923    0.002011974616
0.125     0.047115781266    -0.041283084688    -0.000109176610    -0.000003627579    0.039455327728    -0.010544143235    -0.000132282287    -0.000006715923
            -0.000109176575    -0.000003627731    0.035507675743    -0.001451624363    -0.000104481683    -0.000007714641    0.030753031587    0.023102989300
            0.039455330029    -0.010544142374    -0.000104481647    -0.000007714730    0.047356065374    -0.041522155768    -0.000127144390    -0.000005369721
            -0.000132282254    -0.000006715990    0.030753107457    0.023102969888    -0.000127144414    -0.000005369633    0.035647871607    -0.001307829373
0.150     0.026802517431    -0.055849548627    -0.000126689240    0.000029085439    0.029566770835    -0.025845750445    -0.000154332518    0.000033003709
            -0.000126689246    0.000029085323    0.026682880631    -0.001262383292    -0.000122648674    0.000026040674    0.030956480025    0.019954911705
            0.029566773243    -0.025845750730    -0.000122648653    0.000026040580    0.027071919776    -0.056285857983    -0.000147702587    0.000033719548
            -0.000154332503    0.000033003734    0.030956554789    0.019954888007    -0.000147702583    0.000033719656    0.026865278738    -0.001158363316
0.175     -0.001777380389    -0.059426403165    -0.000133866499    0.000071847879    0.010337206750    -0.034277633386    -0.000163583430    0.000084978377
            -0.000133866531    0.000071847776    0.016348019049    0.004516239998    -0.000128751969    0.000069466934    0.027477722080    0.019122879469
            0.010337209122    -0.034277634759    -0.000128751970    0.000069466848    -0.001562606462    -0.060092688994    -0.000155106829    0.000084104706
            -0.000163583407    0.000084978401    0.027477794908    0.019122851849    -0.000155106803    0.000084104796    0.016545407161    0.004566596691
0.200     -0.032039361733    -0.047916684774    -0.000125449848    0.000121825592    -0.013427462113    -0.030994150406    -0.000153909563    0.000145490093
            -0.000125449911    0.000121825484    0.007742656238    0.016626781550    -0.000118319141    0.000118568740    0.022389047086    0.022616577462
            -0.013427462908    -0.030994152241    -0.000118319134    0.000118568733    -0.031986498776    -0.048802953852    -0.000143970126    0.000141627156
            -0.000153909585    0.000145490012    0.022389118100    0.022616546562    -0.000143970020    0.000141627348    0.007922928827    0.016623054598
0.225     -0.055616043579    -0.021288579550    -0.000096591378    0.000172702143    -0.034660599344    -0.014413394770    -0.000119885096    0.000206966550
            -0.000096591454    0.000172702066    0.004312492077    0.033885366110    -0.000087865273    0.000166598596    0.018641526213    0.030934971075
            -0.034660600267    -0.014413395154    -0.000087865341    0.000166598515    -0.055829717305    -0.022325354526    -0.000109883133    0.000198927957
            -0.000119885153    0.000206966482    0.018641594616    0.030934938028    -0.000109883053    0.000198928058    0.004444931479    0.033844834584
0.250     -0.064885457640    0.015806896042    -0.000045853919    0.000214779769    -0.046197523746    0.012873291586    -0.000060008976    0.000258192456
            -0.000045853986    0.000214779714    0.008534409553    0.053271209996    -0.000037195217    0.000204497774    0.019049486354    0.042787074839
            -0.046197526956    0.012873283792    -0.000037195281    0.000204497722    -0.065431732821    0.014746637839    -0.000052048971    0.000245729762
            -0.000060009003    0.000258192368    0.019049552957    0.042787037524    -0.000052048842    0.000245729789    0.008599664108    0.053227532249
0.275     -0.055533564605    0.055037882954    0.000022456481    0.000237643860    -0.043159846655    0.044627410232    0.000020809185    0.000287232944
            0.000022456380    0.000237643860    0.020962221804    0.070694226417    0.000028822763    0.000223036706    0.025273723435    0.055461595205
            -0.043159845265    0.044627408794    0.000028822733    0.000223036659    -0.056408114967    0.054114192053    0.000024678504    0.000271338062
            0.000020809162    0.000287232906    0.025273791334    0.055461554373    0.000024678566    0.000271338057    0.020961863738    0.070690415987
0.300     -0.028145070091    0.086718581596    0.000098561480    0.000234317277    -0.024618548048    0.072791683065    0.000111579632    0.000285950325
            0.000098561399    0.000234317290    0.039886390531    0.082252836199    0.000100733438    0.000216419569    0.037229018833    0.065734702480
            -0.024618561072    0.072791679715    0.000100733472    0.000216419542    -0.029257794266    0.086084246640    0.000110122188    0.000268545155
            0.000111579632    0.000285950325    0.037229081764    0.065734661092    0.000110122188    0.000268545155    0.039847517677    0.082327658700
0.325     0.011828993416    0.102590915143    0.000170489693    0.000204003090    0.006110782708    0.089849934560    0.000198772299    0.000253002073
            0.000170489693    0.000204003090    0.061784365021    0.085424136580    0.000167349563    0.000184482383    0.053123767265    0.070899316687
            0.006110781208    0.089849935664    0.000167349530    0.000184482399    0.010644335451    0.102344728243    0.000191891554    0.000236228375
            0.000198772293    0.000253002039    0.053123829736    0.070899271128    0.000191891556    0.000236228335    0.061754073193    0.085598011146
0.350     0.055516742194    0.098033240203    0.000228315384    0.000151912432    0.042424714337    0.090823945715    0.000270934716    0.000193694333
            0.000228315381    0.000151912436    0.082329937169    0.079796674084    0.000219559506    0.000132474803    0.070036018294    0.069549445970
            0.042424714337    0.090823945715    0.000219559506    0.000132474803    0.054470413002    0.098183852686    0.000259439200    0.000179233439
            0.000270934716    0.000193694333    0.070036078090    0.069549398527    0.000259439192    0.000179233434    0.082363876715    0.080061925596
0.375     0.092815289688    0.073118037505    0.000266887861    0.000086380906    0.076069877502    0.074383805893    0.000321657705    0.000116900365
            0.000266887885    0.000086380929    0.097552440489    0.067124192827    0.000252641137    0.000068458149    0.084715162095    0.061906225791
            0.076069876203    0.074383807221    0.000252641113    0.000068458124    0.092113594578    0.073566722490    0.000306699843    0.000105673680
            0.000321657695    0.000116900362    0.084715227945    0.061906169578    0.000306699839    0.000105673660    0.097698660484    0.067441852080
0.400     0.114607956819    0.032589707532    0.000286082547    0.000015308524    0.098902573065    0.043138929829    0.000349879365    0.000031260534
            0.000286081899    0.000015309206    0.104808933342    0.050862945779    0.000266556833    0.000000120130    0.094385202797    0.049762928983
            0.098902572312    0.043138931555    0.000266556823    0.000000120128    0.114400742401    0.033135572461    0.000332421242    0.000023588253
            0.000349879332    0.000031260455    0.094385201928    0.049762930631    0.000332421212    0.000023588253    0.105091272222    0.051169481029
0.425     0.114662909189    -0.014973426865    0.000288762375    -0.000056541076    0.104524485184    0.003306481623    0.000357731158    -0.000057670720
            0.000288762374    -0.000056541081    0.103402158597    0.035361373361    0.000264135545    -0.000067657735    0.097414741085    0.036114378581
            0.104524483839    0.003306524129    0.000264135546    -0.000067657731    0.114994412560    -0.014604643928    0.000338310254    -0.000061628668
            0.000357731158    -0.000057670719    0.097414800100    0.036114305699    0.000338310255    -0.000061628662    0.103807860186    0.035582484322
0.450     0.091164015453    -0.058601179015    0.000277629506    -0.000128284753    0.089831789707    -0.036153230441    0.000347252528    -0.000148137066
            0.000277629547    -0.000128284736    0.094831915404    0.024897425893    0.000248308265    -0.000133599109    0.093837412834    0.024547154621
            0.089831792490    -0.036153231561    0.000248308232    -0.000133599086    0.091933261307    -0.058705871569    0.000326151111    -0.000147943372
            0.000347252503    -0.000148137049    0.093837474778    0.024547079833    0.000326151071    -0.000147943388    0.095307599153    0.024969512883
0.475     0.047723374608    -0.087030944562    0.000252011619    -0.000201235908    0.056321639613    -0.065129309886    0.000317124740    -0.000240363486
            0.000252011639    -0.000201235931    0.082628401396    0.022620241538    0.000219125444    -0.000198627572    0.085587726805    0.018348253152
            0.056321639613    -0.065129309886    0.000219125401    -0.000198627575    0.048664536044    -0.087855429731    0.000294828838    -0.000235125261
            0.000317124728    -0.000240363469    0.085587785468    0.018348175107    0.000294828814    -0.000235125259    0.083090560872    0.022512863544
0.500     -0.006547803234    -0.091481614604    0.000206807362    -0.000275065003    0.010665389878    -0.074835805643    0.000261778422    -0.000332608808
            0.000206807357    -0.000275065006    0.071673433776    0.029559915828    0.000172658183    -0.000262543708    0.076257232017    0.019459772689
            0.010665391607    -0.074835808426    0.000172658187    -0.000262543705    -0.005871612163    -0.093141694558    0.000239459414    -0.000321281813
            0.000261778422    -0.000332608808    0.076257285779    0.019459691429    0.000239459414    -0.000321281813    0.072038315696    0.029287988069
0.525     -0.058605797743    -0.068578620714    0.000135227664    -0.000343180808    -0.036375884666    -0.060750868321    0.000174420556    -0.000416449688
            0.000135227668    -0.000343180817    0.066872993603    0.044021119914    0.000103298410    -0.000320135811    0.070133890151    0.027596473316
            -0.036375886721    -0.060750871753    0.000103298635    -0.000320135381    -0.058976306615    -0.071061123868    0.000154080505    -0.000398993649
            0.000174420556    -0.000416449688    0.070133938306    0.027596391899    0.000154080512    -0.000398993646    0.067161512723    0.043615204665
0.550     -0.094880372055    -0.022251701701    0.000034849349    -0.000391224709    -0.071254126656    -0.025491304515    0.000053500919    -0.000475899096
            0.000034849362    -0.000391224778    0.071985849799    0.060935546788    0.000013152284    -0.000355855621    0.070989445424    0.039543639216
            -0.071254126656    -0.025491304515    0.000013152262    -0.000355855552    -0.094585803366    -0.026553528029    0.000042318081    -0.000449685588
            0.000053500909    -0.000475899087    0.070989489918    0.039543555230    0.000042317470    -0.000449686248    0.071956307399    0.061219890312
0.575     -0.105455346436    0.037009941008    -0.000086750923    -0.000404051994    -0.086315580957    0.024926491319    -0.000091850865    -0.000493387784
            -0.000086750923    -0.000404051994    0.087458237688    0.076255365959    -0.000099159191    -0.000360462759    0.080291439196    0.051836478983
            -0.086315580957    0.024926491319    -0.000099159191    -0.000360462759    -0.106764535981    0.033593108673    -0.000097278120    -0.000462293122
            -0.000091850864    -0.000493387774    0.080291479843    0.051836392055    -0.000097278507    -0.000462293358    0.087209100200    0.076428998743
0.600     -0.087192437925    0.094873991858    -0.000211108864    -0.000371146420    -0.076382969346    0.076665930649    -0.000240884154    -0.000457915096
            -0.000211108879    -0.000371146446    0.110634790548    0.083684300925    -0.000210206975    -0.000324248468    0.096784709148    0.059235113611
            -0.076382969346    0.076665930649    -0.000210206953    -0.000324248434    -0.090075231719    0.092162013566    -0.000237202436    -0.000425781407
            -0.000240884154    -0.000457915096    0.096784746108    0.059235034065    -0.000237202436    -0.000425781407    0.110417521230    0.083972355266
0.625     -0.045461670056    0.137862483746    -0.000317267099    -0.000296397945    -0.044496580774    0.118311008038    -0.000369959322    -0.000373946757
            -0.000317266636    -0.000296397927    0.136894295176    0.080435966943    -0.000302764941    -0.000249999167    0.117135768325    0.058837927803
            -0.044496580774    0.118311008038    -0.000302764918    -0.000249999148    -0.048821067985    0.136700678084    -0.000357603988    -0.000342894913
            -0.000369959287    -0.000373946722    0.117135789890    0.058837884870    -0.000357604392    -0.000342894940    0.136588733464    0.080945871873
0.650     0.010746554070    0.158202869048    -0.000391378454    -0.000191148194    0.002467358808    0.141827129371    -0.000464034929    -0.000253532359
            -0.000391378523    -0.000191148144    0.160789138415    0.066322221102    -0.000363325477    -0.000149922386    0.137385842260    0.049655790609
            0.002467358808    0.141827129371    -0.000363325449    -0.000149922375    0.007433293219    0.158048085807    -0.000442761366    -0.000226675225
            -0.000464034885    -0.000253532335    0.137385864922    0.049655698490    -0.000442761330    -0.000226675207    0.160721696175    0.067167524436
0.675     0.069659723429    0.151723638571    -0.000425901641    -0.000072216788    0.054802368746    0.142534388396    -0.000513896356    -0.000114645804
            -0.000425901641    -0.000072216788    0.177641188680    0.043727153992    -0.000386924150    -0.000040109900    0.153420291875    0.032611055063
            0.054802366258    0.142534389353    -0.000386924150    -0.000040109900    0.066681433768    0.152579635635    -0.000485891521    -0.000094660478
            -0.000513896336    -0.000114645800    0.153420311902    0.032611008943    -0.000485891511    -0.000094660476    0.177973017451    0.044708619381
0.700     0.119360334577    0.120352355295    -0.000423285080    0.000044464630    0.102241159378    0.120581921093    -0.000521262411    0.000025318346
            -0.000423285117    0.000044464559    0.184499528900    0.016742781112    -0.000376719081    0.000065094316    0.162165631613    0.010363285493
            0.102241159378    0.120581921093    -0.000376719032    0.000065094307    0.117144534079    0.122033322460    -0.000489110616    0.000037216673
            -0.000521262371    0.000025318344    0.162165641322    0.010363290376    -0.000489110566    0.000037216669    0.185267461808    0.017650421617
0.725     0.150146208019    0.070449260576    -0.000391603494    0.000148243065    0.135615430177    0.079987107288    -0.000493780356    0.000154532907
            -0.000391603529    0.000148243000    0.180510482549    -0.009753586845    -0.000340807336    0.000156256307    0.161968535471    -0.013414844466
            0.135615430177    0.079987107288    -0.000340807309    0.000156256294    0.149024432794    0.072558787308    -0.000459815778    0.000158121460
            -0.000493780356    0.000154532907    0.161968541831    -0.013414888825    -0.000459815778    0.000158121460    0.181654964373    -0.009129260851
0.750     0.155575675813    0.011679684798    -0.000340829867    0.000234830272    0.147832134331    0.028114037142    -0.000440974602    0.000267645245
            -0.000340829553    0.000234829529    0.166999012339    -0.030953577967    -0.000288848117    0.000229890905    0.152870461177    -0.034563507070
            0.147832144645    0.028114036430    -0.000288847661    0.000229890049    0.155685033953    0.013681746315    -0.000407005487    0.000263236654
            -0.000440974551    0.000267645214    0.152870470531    -0.034563601733    -0.000407005854    0.000263237395    0.168363017799    -0.030783106502
0.775     0.133480411778    -0.044074596044    -0.000279132824    0.000305903394    0.135047137666    -0.024859187057    -0.000370445422    0.000365071422
            -0.000279132837    0.000305903409    0.147359752716    -0.042936899409    -0.000228694463    0.000288044759    0.136830336869    -0.049093710066
            0.135047124504    -0.024859148081    -0.000228694451    0.000288044743    0.134704655403    -0.042763339078    -0.000337780299    0.000353046231
            -0.000370445379    0.000365071380    0.136830344530    -0.049093807159    -0.000337780420    0.000353047098    0.148704949090    -0.043308059303
