# GHz S RI R 45
0.000     0.026847700000    0.000000000000    0.000000268418    -0.000000000000    0.000672253820    0.000000000000    -0.000000394589    0.000000000000
            0.000000268472    -0.000000000000    0.026398690000    0.000000000000    -0.000001634182    0.000000000000    0.000669324550    -0.000000000000
            0.000672250330    0.000000000000    -0.000001634209    0.000000000000    0.026808075000    0.000000000000    0.000000150688    -0.000000000000
            -0.000000394749    0.000000000000    0.000669294380    -0.000000000000    0.000000150351    -0.000000000000    0.026373970000    0.000000000000
0.025     0.035151471042    0.007835304931    0.000001254801    0.000011442525    0.005142639205    0.012026209767    0.000006529639    0.000014931738
            0.000001254925    0.000011442464    0.034570785319    0.007485299376    0.000006104753    0.000016452566    0.004984834722    0.011627740973
            0.005142625047    0.012026262587    0.000006104783    0.000016452555    0.035098030405    0.007832888853    0.000010018992    0.000018718401
            0.000006529567    0.000014931774    0.004984794638    0.011627804942    0.000010018957    0.000018718419    0.034497385378    0.007404081340
0.050     0.045597751393    0.005506004726    0.000017247441    0.000019498669    0.016292918715    0.018430466730    0.000026299086    0.000020024194
            0.000017247508    0.000019498576    0.044886917605    0.005099356697    0.000025908354    0.000022268891    0.015911552601    0.017884174095
            0.016292910484    0.018430483349    0.000025908383    0.000022268857    0.045588120754    0.005519616932    0.000034205121    0.000024134458
            0.000026299035    0.000020024261    0.015911526162    0.017884211003    0.000034205098    0.000024134498    0.044800002783    0.004965613708
0.075     0.054265833827    -0.004997356072    0.000037548690    0.000012009352    0.029362581918    0.016139958409    0.000048793092    0.000007893242
            0.000037548708    0.000012009240    0.053697256798    -0.005270804919    0.000048156691    0.000011419928    0.028897312031    0.015674805961
            0.029362577130    0.016139967121    0.000048156700    0.000011419890    0.054336275219    -0.005007522580    0.000061269414    0.000009016864
            0.000048793077    0.000007893325    0.028897299406    0.015674837625    0.000061269414    0.000009016910    0.053608941783    -0.005457884195
0.100     0.056063657244    -0.022140821502    0.000050806730    -0.000010508809    0.038667779160    0.005339610435    0.000062064928    -0.000020778658
            0.000050806695    -0.000010508916    0.056078267395    -0.022326390457    0.000061513189    -0.000015599532    0.038450924558    0.005044777539
            0.038667780862    0.005339612733    0.000061513178    -0.000015599579    0.056227625561    -0.022228108884    0.000077194055    -0.000025974164
            0.000062064950    -0.000020778572    0.038450929373    0.005044802337    0.000077194075    -0.000025974134    0.055998910759    -0.022576359725
0.125     0.047115781266    -0.041283084688    0.000048247927    -0.000041518006    0.039455327728    -0.010544143235    0.000056323816    -0.000058417766
            0.000048247846    -0.000041518089    0.048141854679    -0.041785937001    0.000056400864    -0.000051562182    0.039889889747    -0.010861684088
            0.039455330029    -0.010544142374    0.000056400839    -0.000051562215    0.047356065374    -0.041522155768    0.000070141139    -0.000071969078
            0.000056323875    -0.000058417698    0.039889906789    -0.010861659563    0.000070141171    -0.000071969060    0.048067472574    -0.042121797758
0.150     0.026802517431    -0.055849548627    0.000025984586    -0.000070436215    0.029566770835    -0.025845750445    0.000027372362    -0.000092582018
            0.000025984474    -0.000070436254    0.029011204854    -0.057385148533    0.000028550006    -0.000084403774    0.030919011429    -0.026699383669
            0.029566773243    -0.025845750730    0.000028549975    -0.000084403790    0.027071919776    -0.056285857983    0.000034812395    -0.000114038741
            0.000027372368    -0.000092582021    0.030919032862    -0.026699371089    0.000034812431    -0.000114038751    0.028932881290    -0.057826103922
0.175     -0.001777380389    -0.059426403165    -0.000013266928    -0.000085438938    0.010337206750    -0.034277633386    -0.000021314541    -0.000109502173
            -0.000013267041    -0.000085438925    0.001300262975    -0.062872352069    -0.000018842644    -0.000100606697    0.012506454499    -0.036396649179
            0.010337209122    -0.034277634759    -0.000018842681    -0.000100606701    -0.001562606462    -0.060092688994    -0.000024925415    -0.000135475882
            -0.000021314484    -0.000109502185    0.012506478992    -0.036396646050    -0.000024925395    -0.000135475906    0.001181211263    -0.063441763568
0.200     -0.032039361733    -0.047916684774    -0.000060120576    -0.000077413253    -0.013427462113    -0.030994150406    -0.000078476673    -0.000098620324
            -0.000060120660    -0.000077413194    -0.028996246168    -0.053978646832    -0.000074897593    -0.000089647969    -0.011055908520    -0.035059847822
            -0.013427462908    -0.030994152241    -0.000074897599    -0.000089647977    -0.031986498776    -0.048802953852    -0.000095753315    -0.000123180924
            -0.000078476679    -0.000098620332    -0.011055890163    -0.035059853611    -0.000095753207    -0.000123181007    -0.029216285449    -0.054678463604
0.225     -0.055616043579    -0.021288579550    -0.000100648729    -0.000043678953    -0.034660599344    -0.014413394770    -0.000127625743    -0.000056917899
            -0.000100648776    -0.000043678869    -0.053976623189    -0.030103654459    -0.000123467006    -0.000048322017    -0.033167286956    -0.020699312157
            -0.034660600267    -0.014413395154    -0.000123467060    -0.000048321963    -0.055829717305    -0.022325354526    -0.000157843935    -0.000072904653
            -0.000127625685    -0.000056917980    -0.033167262106    -0.020699336865    -0.000157843919    -0.000072904713    -0.054365798507    -0.030896611407
0.250     -0.064885457640    0.015806896042    -0.000120930021    0.000010011532    -0.046197523746    0.012873291586    -0.000152240132    0.000008753531
            -0.000120930022    0.000010011639    -0.066086751103    0.004958532335    -0.000148202566    0.000016875855    -0.046823559680    0.004800885651
            -0.046197526956    0.012873283792    -0.000148202566    0.000016875855    -0.065431732821    0.014746637839    -0.000190875572    0.000007811843
            -0.000152240106    0.000008753450    -0.046823548110    0.004800851432    -0.000190875592    0.000007811844    -0.066694997541    0.004154865025
0.275     -0.055533564605    0.055037882954    -0.000112093278    0.000070705845    -0.043159846655    0.044627410232    -0.000141637730    0.000083060087
            -0.000112093246    0.000070705933    -0.060521113679    0.043719702481    -0.000138371434    0.000091001358    -0.046823031112    0.035959162053
            -0.043159845265    0.044627408794    -0.000138371435    0.000091001393    -0.056408114967    0.054114192053    -0.000181025230    0.000100966892
            -0.000141637756    0.000083060003    -0.046823031837    0.035959149617    -0.000181025274    0.000100966833    -0.061350902954    0.043021268214
0.300     -0.028145070091    0.086718581596    -0.000073579813    0.000122548535    -0.024618548048    0.072791683065    -0.000094829817    0.000147038782
            -0.000073579738    0.000122548604    -0.036894665133    0.076952399607    -0.000092727255    0.000155376938    -0.031470749267    0.065189954450
            -0.024618561072    0.072791679715    -0.000092727255    0.000155376938    -0.029257794266    0.086084246640    -0.000125800513    0.000183507210
            -0.000094829884    0.000147038715    -0.031470737454    0.065189959042    -0.000125800577    0.000183507167    -0.037882259030    0.076480154410
0.325     0.011828993416    0.102590915143    -0.000012968989    0.000151812793    0.006110782708    0.089849934560    -0.000020514836    0.000183951456
            -0.000012968893    0.000151812821    0.000469599256    0.096238024288    -0.000019624517    0.000193360286    -0.003133280338    0.084940202310
            0.006110781208    0.089849935664    -0.000019624478    0.000193360300    0.010644335451    0.102344728243    -0.000034570391    0.000234195817
            -0.000020514888    0.000183951450    -0.003133277299    0.084940200421    -0.000034570420    0.000234195843    -0.000544625454    0.096079481411
0.350     0.055516742194    0.098033240203    0.000056868487    0.000150396765    0.042424714337    0.090823945715    0.000066026509    0.000183479428
            0.000056868578    0.000150396742    0.043603847955    0.096199313174    0.000065969731    0.000194533683    0.032392376419    0.089686380080
            0.042424714337    0.090823945715    0.000065969731    0.000194533683    0.054470413002    0.098183852686    0.000074588921    0.000238900372
            0.000066026419    0.000183479429    0.032392378870    0.089686377069    0.000074588920    0.000238900414    0.042741817680    0.096373318148
0.375     0.092815289688    0.073118037505    0.000121225554    0.000116807693    0.076069877502    0.074383805893    0.000146908822    0.000143146059
            0.000121225624    0.000116807634    0.082825866661    0.075785284329    0.000146359773    0.000156218161    0.067298420817    0.077220526946
            0.076069876203    0.074383807221    0.000146359810    0.000156218140    0.092113594578    0.073566722490    0.000179416394    0.000192925366
            0.000146908743    0.000143146097    0.067298379374    0.077220536534    0.000179416404    0.000192925397    0.082306243402    0.076219565741
0.400     0.114607956819    0.032589707532    0.000166181726    0.000055657522    0.098902573065    0.043138929829    0.000204800530    0.000067987056
            0.000166181764    0.000055657441    0.108878537036    0.038524941758    0.000204277405    0.000083223389    0.093455154851    0.049148836156
            0.098902572312    0.043138931555    0.000204277471    0.000083223333    0.114400742401    0.033135572461    0.000257452605    0.000101233938
            0.000204800475    0.000067987125    0.093455156567    0.049148832894    0.000257452630    0.000101233958    0.108858603886    0.039051571527
0.425     0.114662909189    -0.014973426865    0.000180287831    -0.000023046275    0.104524485184    0.003306481623    0.000225130997    -0.000030147740
            0.000180287830    -0.000023046364    0.114862545002    -0.008094268314    0.000225136748    -0.000012784451    0.104052913260    0.010708996987
            0.104524483839    0.003306524129    0.000225136748    -0.000012784452    0.114994412560    -0.014604643928    0.000289220415    -0.000022044648
            0.000225130978    -0.000030147657    0.104052913410    0.010708995534    0.000289220455    -0.000022044642    0.115421034236    -0.007724278738
0.450     0.091164015453    -0.058601179015    0.000156407592    -0.000104393220    0.089831789707    -0.036153230441    0.000198468613    -0.000133150099
            0.000156407544    -0.000104393382    0.097812860968    -0.053895976315    0.000199464584    -0.000113848562    0.095135554050    -0.029968620657
            0.089831792490    -0.036153231561    0.000199464584    -0.000113848562    0.091933261307    -0.058705871569    0.000261622692    -0.000154337525
            0.000198468640    -0.000133150022    0.095135556265    -0.029968533745    0.000261622732    -0.000154337537    0.098909442447    -0.053978616814
0.475     0.047723374608    -0.087030944562    0.000094425189    -0.000169755617    0.056321639613    -0.065129309886    0.000123885854    -0.000218121478
            0.000094425120    -0.000169755667    0.059767347397    -0.087895104847    0.000126259906    -0.000197228885    0.066881733812    -0.063243250008
            0.056321639613    -0.065129309886    0.000126259920    -0.000197228900    0.048664536044    -0.087855429731    0.000172303414    -0.000266699654
            0.000123885864    -0.000218121495    0.066881729802    -0.063243248427    0.000172303440    -0.000266699674    0.061213582278    -0.088719333339
0.500     -0.006547803234    -0.091481614604    0.000004158967    -0.000200368192    0.010665389878    -0.074835805643    0.000012504993    -0.000261634118
            0.000004158883    -0.000200368213    0.008044661182    -0.100758944613    0.000016484682    -0.000239680189    0.024312283004    -0.080090528444
            0.010665391607    -0.074835808426    0.000016484664    -0.000239680170    -0.005871612163    -0.093141694558    0.000033927622    -0.000329193107
            0.000012504981    -0.000261634148    0.024312283004    -0.080090528444    0.000033927635    -0.000329193176    0.009489330343    -0.102533815564
0.525     -0.058605797743    -0.068578620714    -0.000094183438    -0.000183752726    -0.036375884666    -0.060750868321    -0.000111802353    -0.000247322602
            -0.000094183429    -0.000183752709    -0.045798957076    -0.087528885286    -0.000106449627    -0.000225117212    -0.023215074466    -0.074709365961
            -0.036375886721    -0.060750871753    -0.000106449618    -0.000225117194    -0.058976306615    -0.071061123868    -0.000125176698    -0.000320206278
            -0.000111802357    -0.000247322611    -0.023214995916    -0.074709343247    -0.000125176719    -0.000320206334    -0.044859308638    -0.090262298426
0.550     -0.094880372055    -0.022251701701    -0.000174954848    -0.000120478598    -0.071254126656    -0.025491304515    -0.000217772065    -0.000173926629
            -0.000174954861    -0.000120478562    -0.088732182479    -0.049722217742    -0.000209207820    -0.000153222925    -0.064189086015    -0.046773500467
            -0.071254126656    -0.025491304515    -0.000209207820    -0.000153222925    -0.094585803366    -0.026553528029    -0.000263333059    -0.000236658631
            -0.000217772096    -0.000173926654    -0.064189083590    -0.046773498701    -0.000263333081    -0.000236658651    -0.088777584431    -0.053040491447
0.575     -0.105455346436    0.037009941008    -0.000216529330    -0.000025323104    -0.086315580957    0.024926491319    -0.000277584384    -0.000057699577
            -0.000216529330    -0.000025323104    -0.110094940693    0.004753445492    -0.000269126450    -0.000037307278    -0.088324891077    -0.001884704528
            -0.086315580957    0.024926491319    -0.000269126430    -0.000037307275    -0.106764535981    0.033593108673    -0.000350665699    -0.000092965731
            -0.000277584404    -0.000057699581    -0.088324886407    -0.001884689006    -0.000350665738    -0.000092965741    -0.111207888407    0.001436048269
0.600     -0.087192437925    0.094873991858    -0.000208926626    0.000077672220    -0.076382969346    0.076665930649    -0.000276715881    0.000072601557
            -0.000208926617    0.000077672216    -0.104378836068    0.063806795673    -0.000269518594    0.000092416130    -0.089437929499    0.049988324104
            -0.076382969346    0.076665930649    -0.000269518885    0.000092416913    -0.090075231719    0.092162013566    -0.000363066740    0.000074207730
            -0.000276715907    0.000072601615    -0.089437877115    0.049988253854    -0.000363066837    0.000074207750    -0.106385610018    0.060899851697
0.625     -0.045461670056    0.137862483746    -0.000157390005    0.000164343916    -0.044496580774    0.118311008038    -0.000219307266    0.000186719310
            -0.000157389977    0.000164343887    -0.072660588746    0.114229083094    -0.000212801091    0.000207639162    -0.067050565956    0.097263809716
            -0.044496580774    0.118311008038    -0.000212801105    0.000207639176    -0.048821067985    0.136700678084    -0.000300356022    0.000228834495
            -0.000219307296    0.000186719336    -0.067050560177    0.097263728678    -0.000300356069    0.000228834531    -0.075325797733    0.112042957782
0.650     0.010746554070    0.158202869048    -0.000075123131    0.000219912191    0.002467358808    0.141827129371    -0.000119777939    0.000264913124
            -0.000075123138    0.000219912210    -0.022065764824    0.145277614656    -0.000113539353    0.000286389954    -0.026110669208    0.129923944190
            0.002467358808    0.141827129371    -0.000113538923    0.000286390619    0.007433293219    0.158048085807    -0.000178060556    0.000340959539
            -0.000119777955    0.000264913161    -0.026110667238    0.129923934386    -0.000178060603    0.000340959628    -0.025041231975    0.144039131618
0.675     0.069659723429    0.151723638571    0.000021469000    0.000236245248    0.054802368746    0.142534388396    0.000002457051    0.000294616454
            0.000021468987    0.000236245240    0.036603907488    0.150966283266    0.000008316212    0.000316859066    0.024857916505    0.141582069371
            0.054802366258    0.142534389353    0.000008316217    0.000316859066    0.066681433768    0.152579635635    -0.000020228575    0.000392114206
            0.000002456720    0.000294616207    0.024857884877    0.141582034312    -0.000020228576    0.000392114226    0.033758398083    0.150743359492
0.700     0.119360334577    0.120352355295    0.000116504514    0.000212694813    0.102241159378    0.120581921093    0.000127093493    0.000272576063
            0.000116504518    0.000212694811    0.091533997014    0.130653670243    0.000132628809    0.000295678254    0.075862675856    0.130170375142
            0.102241159378    0.120581921093    0.000132628809    0.000295678254    0.117144534079    0.122033322460    0.000146729626    0.000374523050
            0.000127093505    0.000272576102    0.075862675856    0.130170375142    0.000146729663    0.000374523067    0.089270017954    0.131316111749
0.725     0.150146208019    0.070449260576    0.000196207384    0.000152545523    0.135615430177    0.079987107288    0.000235422247    0.000201182154
            0.000196207371    0.000152545507    0.132028812648    0.088529391394    0.000240530812    0.000225215524    0.117143520451    0.097757190338
            0.135615430177    0.079987107288    0.000240530827    0.000225215523    0.149024432794    0.072558787308    0.000296432707    0.000288833605
            0.000235422310    0.000201182172    0.117143520451    0.097757190338    0.000296432760    0.000288833636    0.130722586016    0.089755008809
0.750     0.155575675813    0.011679684798    0.000247615425    0.000062055296    0.147832134331    0.028114037142    0.000309322854    0.000087501475
            0.000247615341    0.000062055302    0.150031433078    0.032665741793    0.000313819653    0.000112773516    0.140472872435    0.050102562967
            0.147832144645    0.028114036430    0.000313819685    0.000112773515    0.155685033953    0.013681746315    0.000402773091    0.000143579986
            0.000309322809    0.000087501486    0.140472804353    0.050102605011    0.000402773100    0.000143579990    0.149904461309    0.033979479070
0.775     0.133480411778    -0.044074596044    0.000258047790    -0.000047905604    0.135047137666    -0.024859187057    0.000331090882    -0.000054781136
            0.000258047770    -0.000047905600    0.141288151771    -0.026095150657    0.000335013157    -0.000027658581    0.140351273025    -0.003913009327
            0.135047124504    -0.024859148081    0.000335013156    -0.000027658594    0.134704655403    -0.042763339078    0.000440918129    -0.000042804237
            0.000331090899    -0.000054781156    0.140351273032    -0.003913009082    0.000440918167    -0.000042804258    0.142344448510    -0.025254068788
