# GHz S RI R 45
0.000     0.026847700000    0.000000000000    -0.000002443399    0.000000000000    0.000672253820    0.000000000000    -0.000007284283    0.000000000000
            -0.000002443436    0.000000000000    0.025480956000    0.000000000000    0.000023951492    0.000000000000    0.000591342140    -0.000000000000
            0.000672250330    0.000000000000    0.000023951473    0.000000000000    0.026808075000    0.000000000000    -0.000007917150    0.000000000000
            -0.000007284439    0.000000000000    0.000591337690    -0.000000000000    -0.000007917123    0.000000000000    0.025448533000    0.000000000000
0.025     0.035151471042    0.007835304931    -0.000002723627    0.000003622972    0.005142639205    0.012026209767    0.000003348518    0.000005934218
            -0.000002723658    0.000003622989    0.033414565776    0.006909913182    0.000071125853    0.000180884151    0.004759937130    0.010820897843
            0.005142625047    0.012026262587    0.000071125837    0.000180884157    0.035098030405    0.007832888853    0.000005034414    0.000008133791
            0.000003348381    0.000005934287    0.004759921179    0.010820950743    0.000005034444    0.000008133778    0.033331989845    0.006796511725
0.050     0.045597751393    0.005506004726    0.000000715319    0.000007355129    0.016292918715    0.018430466730    0.000006661499    0.000000736199
            0.000000715295    0.000007355165    0.043662023699    0.004356304651    0.000196012487    0.000321446420    0.015364931767    0.016576212255
            0.016292910484    0.018430483349    0.000196012475    0.000321446439    0.045588120754    0.005519616932    0.000009372400    0.000002987812
            0.000006661401    0.000000736331    0.015364921569    0.016576228526    0.000009372420    0.000002987793    0.043523652612    0.004180053043
0.075     0.054265833827    -0.004997356072    0.000005263873    0.000008292428    0.029362581918    0.016139958409    0.000005966965    -0.000003059418
            0.000005263874    0.000008292469    0.052857523542    -0.005963114129    0.000366197132    0.000391057620    0.028232550975    0.014271959383
            0.029362577130    0.016139967121    0.000366197126    0.000391057640    0.054336275219    -0.005007522580    0.000009023592    -0.000000321301
            0.000005966937    -0.000003059263    0.028232545993    0.014271969238    0.000009023604    -0.000000321329    0.052669194381    -0.006165596275
0.100     0.056063657244    -0.022140821502    0.000009591700    0.000007211172    0.038667779160    0.005339610435    0.000003923232    -0.000005378643
            0.000009591713    0.000007211204    0.056321321697    -0.023099384719    0.000548864047    0.000382995994    0.038238736377    0.003721789714
            0.038667780862    0.005339612733    0.000548864056    0.000382996015    0.056227625561    -0.022228108884    0.000007741900    -0.000001558290
            0.000003923276    -0.000005378488    0.038238738082    0.003721792844    0.000007741900    -0.000001558322    0.056112626416    -0.023299806593
0.125     0.047115781266    -0.041283084688    0.000013473978    0.000004387201    0.039455327728    -0.010544143235    0.000001615821    -0.000006473799
            0.000013474006    0.000004387225    0.050135613990    -0.043321879939    0.000713368092    0.000303178029    0.040847648450    -0.012413697090
            0.039455330029    -0.010544142374    0.000713368105    0.000303178049    0.047356065374    -0.041522155768    0.000007330140    -0.000001655565
            0.000001615920    -0.000006473690    0.040847651230    -0.012413694820    0.000007330123    -0.000001655599    0.049953090419    -0.043519156892
0.150     0.026802517431    -0.055849548627    0.000016201524    -0.000000470164    0.029566770835    -0.025845750445    -0.000000588179    -0.000006893712
            0.000016201557    -0.000000470156    0.033032847237    -0.060881981869    0.000833334629    0.000162500328    0.033557650323    -0.029353188425
            0.029566773243    -0.025845750730    0.000833334648    0.000162500332    0.027071919776    -0.056285857983    0.000007934960    -0.000002232998
            -0.000000588046    -0.000006893658    0.033557654118    -0.029353188643    0.000007934937    -0.000002233019    0.032909260739    -0.061101350067
0.175     -0.001777380389    -0.059426403165    0.000016289824    -0.000007056776    0.010337206750    -0.034277633386    -0.000002966688    -0.000007034721
            0.000016289842    -0.000007056792    0.006833431781    -0.069811299366    0.000887615863    -0.000015976826    0.016735507958    -0.041435248148
            0.010337209122    -0.034277634759    0.000887615883    -0.000015976826    -0.001562606462    -0.060092688994    0.000008293971    -0.000004305787
            -0.000002966537    -0.000007034734    0.016735510502    -0.041435248199    0.000008293936    -0.000004305799    0.006783351668    -0.070105866432
0.200     -0.032039361733    -0.047916684774    0.000012308641    -0.000013540705    -0.013427462113    -0.030994150406    -0.000006029053    -0.000006508684
            0.000012308665    -0.000013540727    -0.023448497017    -0.065594029681    0.000865907834    -0.000201554620    -0.006208603403    -0.043759475511
            -0.013427462908    -0.030994152241    0.000865907854    -0.000201554624    -0.031986498776    -0.048802953852    0.000006682830    -0.000007177681
            -0.000006028923    -0.000006508758    -0.006208601393    -0.043759477816    0.000006682798    -0.000007177679    -0.023451428098    -0.066026519915
0.225     -0.055616043579    -0.021288579550    0.000004603635    -0.000016886347    -0.034660599344    -0.014413394770    -0.000009559504    -0.000004255912
            0.000004603650    -0.000016886383    -0.050738189633    -0.046735386052    0.000772307752    -0.000361219605    -0.029541169905    -0.033724803359
            -0.034660600267    -0.014413395154    0.000772307764    -0.000361219627    -0.055829717305    -0.022325354526    0.000002601708    -0.000008704715
            -0.000009559428    -0.000004256038    -0.029541171223    -0.033724804863    0.000002601675    -0.000008704699    -0.050764553631    -0.047346415260
0.250     -0.064885457640    0.015806896042    -0.000003988956    -0.000014843102    -0.046197523746    0.012873291586    -0.000012114199    0.000000416195
            -0.000003988961    -0.000014843131    -0.067713562753    -0.015604964154    0.000625450692    -0.000467133450    -0.046683507531    -0.012038367732
            -0.046197526956    0.012873283792    0.000625450692    -0.000467133467    -0.065431732821    0.014746637839    -0.000002276442    -0.000006944628
            -0.000012114180    0.000000416051    -0.046683506398    -0.012038376129    -0.000002276468    -0.000006944596    -0.067858706027    -0.016386149660
0.275     -0.055533564605    0.055037882954    -0.000009515733    -0.000007952808    -0.043159846655    0.044627410232    -0.000011798878    0.000006719231
            -0.000009515754    -0.000007952836    -0.068877933421    0.021826334276    0.000453994487    -0.000503290773    -0.052060825369    0.017204842327
            -0.043159845265    0.044627408794    0.000453994485    -0.000503290788    -0.056408114967    0.054114192053    -0.000005150605    -0.000001960602
            -0.000011798921    0.000006719106    -0.052060827268    0.017204842954    -0.000005150613    -0.000001960562    -0.069228907720    0.020944374396
0.300     -0.028145070091    0.086718581596    -0.000009601364    0.000000472006    -0.024618548048    0.072791683065    -0.000007763832    0.000012420329
            -0.000009601393    0.000000471990    -0.052262405550    0.057315184565    0.000289181696    -0.000468179813    -0.042765062796    0.047451093659
            -0.024618561072    0.072791679715    0.000289181680    -0.000468179823    -0.029257794266    0.086084246640    -0.000004187164    0.000003958042
            -0.000007763930    0.000012420229    -0.042765063466    0.047451094402    -0.000004187157    0.000003958085    -0.052861975504    0.056453919907
0.325     0.011828993416    0.102590915143    -0.000005036194    0.000006603580    0.006110782708    0.089849934560    -0.000001063327    0.000015239296
            -0.000005036228    0.000006603579    -0.020169413464    0.082403848544    0.000158075704    -0.000372793833    -0.019467069445    0.071350009478
            0.006110781208    0.089849935664    0.000158075685    -0.000372793842    0.010644335451    0.102344728243    0.000000103854    0.000008035069
            -0.000001063452    0.000015239250    -0.019467069971    0.071350011407    0.000000103880    0.000008035105    -0.020988642800    0.081707534718
0.350     0.055516742194    0.098033240203    0.000001172908    0.000008741553    0.042424714337    0.090823945715    0.000006029405    0.000014353385
            0.000001172876    0.000008741563    0.021216936616    0.090560111697    0.000079989814    -0.000236283971    0.013642056758    0.082622644931
            0.042424714337    0.090823945715    0.000079989798    -0.000236283977    0.054470413002    0.098183852686    0.000005533128    0.000009003762
            0.000006029274    0.000014353395    0.013642054037    0.082622646394    0.000005533167    0.000009003785    0.020287488350    0.090154568782
0.375     0.092815289688    0.073118037505    0.000006448735    0.000008018574    0.076069877502    0.074383805893    0.000011672071    0.000010723464
            0.000006448718    0.000008018596    0.063210208779    0.078786777275    0.000065815101    -0.000082147134    0.049791390854    0.077582682824
            0.076069876203    0.074383807221    0.000065815089    -0.000082147131    0.092113594578    0.073566722490    0.000010257910    0.000007681750
            0.000011671960    0.000010723529    0.049791390580    0.077582685376    0.000010257950    0.000007681755    0.062346689244    0.078737777821
0.400     0.114607956819    0.032589707532    0.000010792424    0.000006690505    0.098902573065    0.043138929829    0.000015678931    0.000005957112
            0.000010792414    0.000006690538    0.096524256368    0.048387264430    0.000118165066    0.000063968235    0.081104253920    0.056028900344
            0.098902572312    0.043138931555    0.000118165057    0.000063968251    0.114400742401    0.033135572461    0.000014350034    0.000005627687
            0.000015678862    0.000005957215    0.081104254588    0.056028902897    0.000014350080    0.000005627673    0.095937088178    0.048668329973
0.425     0.114662909189    -0.014973426865    0.000016746956    0.000005532229    0.104524485184    0.003306481623    0.000019465611    0.000000787162
            0.000016746966    0.000005532247    0.113251597278    0.004797825559    0.000230801585    0.000176029744    0.100242914934    0.021393594969
            0.104524483839    0.003306524129    0.000230801592    0.000176029769    0.114994412560    -0.014604643928    0.000019739287    0.000003245551
            0.000019465635    0.000000787298    0.100242914187    0.021393598469    0.000019739319    0.000003245520    0.113139263125    0.005274204361
0.450     0.091164015453    -0.058601179015    0.000027216545    0.000003331706    0.089831789707    -0.036153230441    0.000024783865    -0.000004888815
            0.000027216562    0.000003331729    0.108580397760    -0.043367556680    0.000387573648    0.000231481908    0.101980503686    -0.019770675347
            0.089831792490    -0.036153231561    0.000387573653    0.000231481920    0.091933261307    -0.058705871569    0.000028556729    -0.000000171658
            0.000024783901    -0.000004888706    0.101980513848    -0.019770675470    0.000028556744    -0.000000171705    0.109076411900    -0.042933133361
0.475     0.047723374608    -0.087030944562    0.000039070044    -0.000000052167    0.056321639613    -0.065129309886    0.000029261930    -0.000009623547
            0.000039070066    -0.000000052162    0.081987079631    -0.085912701645    0.000559380537    0.000218149483    0.084464247756    -0.058922698428
            0.056321639613    -0.065129309886    0.000559380543    0.000218149496    0.048664536044    -0.087855429731    0.000037474474    -0.000003582384
            0.000029262011    -0.000009623463    0.084464256986    -0.058922702675    0.000037474468    -0.000003582435    0.083107961405    -0.085832820534
0.500     -0.006547803234    -0.091481614604    0.000041924042    -0.000010333820    0.010665389878    -0.074835805643    0.000025633065    -0.000016688830
            0.000041924069    -0.000010333823    0.037719715374    -0.113109177579    0.000707320384    0.000131059136    0.049981751967    -0.087203569259
            0.010665391607    -0.074835808426    0.000707320401    0.000131059152    -0.005871612163    -0.093141694558    0.000037238348    -0.000011950483
            0.000025633173    -0.000016688787    0.049981746994    -0.087203560583    0.000037238323    -0.000011950533    0.039314671706    -0.113720232820
0.525     -0.058605797743    -0.068578620714    0.000034779509    -0.000027214150    -0.036375884666    -0.060750868321    0.000015055657    -0.000025721123
            0.000034779525    -0.000027214161    -0.015673105801    -0.117941335803    0.000803593243    -0.000016923701    0.004906577475    -0.097454192157
            -0.036375886721    -0.060750871753    0.000803593253    -0.000016923701    -0.058976306615    -0.071061123868    0.000028760703    -0.000025104620
            0.000015055767    -0.000025721126    0.004906617392    -0.097454172125    0.000028760659    -0.000025104650    -0.013972903109    -0.119495863097
0.550     -0.094880372055    -0.022251701701    0.000017517430    -0.000040389967    -0.071254126656    -0.025491304515    -0.000000878278    -0.000029951010
            0.000017517449    -0.000040389985    -0.067004712062    -0.098120871737    0.000829678967    -0.000193139205    -0.041445445889    -0.086198343290
            -0.071254126656    -0.025491304515    0.000829678977    -0.000193139207    -0.094585803366    -0.026553528029    0.000013243288    -0.000034203531
            -0.000000878189    -0.000029951065    -0.041445447189    -0.086198345994    0.000013243242    -0.000034203545    -0.065713699216    -0.100562235750
0.575     -0.105455346436    0.037009941008    -0.000004989985    -0.000041858628    -0.086315580957    0.024926491319    -0.000017491703    -0.000025006769
            -0.000004989983    -0.000041858651    -0.105185536156    -0.056834656035    0.000782333282    -0.000362455749    -0.079005546383    -0.054709685671
            -0.086315580957    0.024926491319    0.000782333301    -0.000362455757    -0.106764535981    0.033593108673    -0.000005524580    -0.000033442823
            -0.000017491648    -0.000025006849    -0.079005548849    -0.054709687379    -0.000005524632    -0.000033442812    -0.104596912191    -0.059803036056
0.600     -0.087192437925    0.094873991858    -0.000023375042    -0.000029974465    -0.076382969346    0.076665930649    -0.000028431033    -0.000011549270
            -0.000023375129    -0.000029974523    -0.121600008793    -0.002005159136    0.000675760572    -0.000495430393    -0.099232837572    -0.008846239471
            -0.076382969346    0.076665930649    0.000675760571    -0.000495430411    -0.090075231719    0.092162013566    -0.000019927969    -0.000022495230
            -0.000028431015    -0.000011549361    -0.099232840560    -0.008846239738    -0.000019928008    -0.000022495203    -0.121794087432    -0.005191696321
0.625     -0.045461670056    0.137862483746    -0.000030150059    -0.000011696708    -0.044496580774    0.118311008038    -0.000029804845    0.000005035746
            -0.000030150077    -0.000011696714    -0.112140881824    0.055116352214    0.000532272139    -0.000574700692    -0.097201514295    0.042064382102
            -0.044496580774    0.118311008038    0.000532272136    -0.000574700709    -0.048821067985    0.136700678084    -0.000024941125    -0.000006422370
            -0.000029804875    0.000005035660    -0.097201514295    0.042064382102    -0.000024941151    -0.000006422316    -0.113163191135    0.052015372874
0.650     0.010746554070    0.158202869048    -0.000025990006    0.000004965461    0.002467358808    0.141827129371    -0.000022376752    0.000018640081
            -0.000025990023    0.000004965455    -0.078429058510    0.102627493915    0.000375678465    -0.000594059830    -0.072891075713    0.087487735144
            0.002467358808    0.141827129371    0.000375678455    -0.000594059837    0.007433293219    0.158048085807    -0.000020487857    0.000007915229
            -0.000022376812    0.000018640011    -0.072891090983    0.087487722422    -0.000020487857    0.000007915283    -0.080207664176    0.099960764891
0.675     0.069659723429    0.151723638571    -0.000015126386    0.000014370363    0.054802368746    0.142534388396    -0.000010366413    0.000025454883
            -0.000015126399    0.000014370371    -0.027257166030    0.130789454148    0.000227678664    -0.000555085153    -0.030987883324    0.118138610523
            0.054802366258    0.142534389353    0.000227678644    -0.000555085161    0.066681433768    0.152579635635    -0.000010738322    0.000016119555
            -0.000010366491    0.000025454846    -0.030987885861    0.118138620196    -0.000010738296    0.000016119606    -0.029552873672    0.128870274260
0.700     0.119360334577    0.120352355295    -0.000004237860    0.000015906600    0.102241159378    0.120581921093    0.000001370188    0.000025640040
            -0.000004237863    0.000015906613    0.031137586462    0.133993017444    0.000107737059    -0.000464666455    0.020350029730    0.127843531101
            0.102241159378    0.120581921093    0.000107737043    -0.000464666459    0.117144534079    0.122033322460    -0.000000718157    0.000018066577
            0.000001370138    0.000025640055    0.020350029071    0.127843541332    -0.000000718067    0.000018066632    0.028701847631    0.133010387529
0.725     0.150146208019    0.070449260576    0.000002737650    0.000013557571    0.135615430177    0.079987107288    0.000010231426    0.000022000458
            0.000002737644    0.000013557622    0.085283298596    0.111619166572    0.000033430642    -0.000335140827    0.071238463026    0.114524584026
            0.135615430177    0.079987107288    0.000033430606    -0.000335140820    0.149024432794    0.072558787308    0.000006877208    0.000016630371
            0.000010231386    0.000022000487    0.071238463026    0.114524584026    0.000006877269    0.000016630387    0.083153365313    0.111582133701
0.750     0.155575675813    0.011679684798    0.000006662728    0.000011918813    0.147832134331    0.028114037142    0.000016618197    0.000017292473
            0.000006662730    0.000011918826    0.124639760086    0.067922253090    0.000018846772    -0.000185616741    0.111880525697    0.080416457337
            0.147832144645    0.028114036430    0.000018846782    -0.000185616740    0.155685033953    0.013681746315    0.000012704701    0.000014698272
            0.000016618176    0.000017292518    0.111880524294    0.080416459290    0.000012704806    0.000014698239    0.123244270119    0.068640872592
0.775     0.133480411778    -0.044074596044    0.000011651071    0.000012220068    0.135047137666    -0.024859187057    0.000022480838    0.000012012134
            0.000011651081    0.000012220076    0.141417678494    0.011158834482    0.000070628646    -0.000042075320    0.134218434944    0.031641196608
            0.135047124504    -0.024859148081    0.000070628658    -0.000042075324    0.134704655403    -0.042763339078    0.000019219143    0.000012573362
            0.000022480808    0.000012012208    0.134218434392    0.031641198951    0.000019219186    0.000012573325    0.141082121825    0.012261439711
