# GHz S RI R 45
0.000     0.026847700000    0.000000000000    0.000001450348    -0.000000000000    0.000672253820    0.000000000000    -0.000003060762    0.000000000000
            0.000001450243    -0.000000000000    0.027474881000    0.000000000000    -0.000003152479    0.000000000000    0.000736067860    0.000000000000
            0.000672250330    0.000000000000    -0.000003152521    0.000000000000    0.026808075000    0.000000000000    0.000027903922    -0.000000000000
            -0.000003060781    0.000000000000    0.000736180160    0.000000000000    0.000027904032    -0.000000000000    0.027485945000    0.000000000000
0.025     0.035151471042    0.007835304931    0.000000712252    -0.000006188811    0.005142639205    0.012026209767    -0.000000770072    -0.000005805397
            0.000000712149    -0.000006188781    0.033585793207    0.007733686243    0.000001295739    -0.000003253679    0.003481869577    0.012157246140
            0.005142625047    0.012026262587    0.000001295704    -0.000003253687    0.035098030405    0.007832888853    -0.000015660662    -0.000029013854
            -0.000000770100    -0.000005805395    0.003481862299    0.012157072430    -0.000015660565    -0.000029013878    0.033479465878    0.007667883407
0.050     0.045597751393    0.005506004726    -0.000004687019    -0.000011701180    0.016292918715    0.018430466730    -0.000006475982    -0.000014337446
            -0.000004687113    -0.000011701124    0.039052589826    0.008400599668    -0.000002714020    -0.000011110659    0.010617486744    0.021257511658
            0.016292910484    0.018430483349    -0.000002714045    -0.000011110651    0.045588120754    0.005519616932    -0.000032793353    -0.000012997010
            -0.000006476008    -0.000014337436    0.010617629135    0.021257488603    -0.000032793259    -0.000012997066    0.038852545867    0.008325215691
0.075     0.054265833827    -0.004997356072    -0.000012686105    -0.000013774385    0.029362581918    0.016139958409    -0.000017267925    -0.000017784327
            -0.000012686175    -0.000013774311    0.042393145214    0.005559255895    -0.000011221048    -0.000014544617    0.019530536547    0.025561635990
            0.029362577130    0.016139967121    -0.000011221071    -0.000014544605    0.054336275219    -0.005007522580    -0.000036562028    -0.000001288045
            -0.000017267942    -0.000017784319    0.019530653688    0.025561618221    -0.000036561953    -0.000001288125    0.042093786536    0.005554676016
0.100     0.056063657244    -0.022140821502    -0.000021589213    -0.000011976176    0.038667779160    0.005339610435    -0.000029598235    -0.000015451772
            -0.000021589265    -0.000011976081    0.041731092529    0.000752746101    -0.000021051461    -0.000013248502    0.027220913765    0.025167603654
            0.038667780862    0.005339612733    -0.000021051482    -0.000013248484    0.056227625561    -0.022228108884    -0.000037372326    0.000007787202
            -0.000029598250    -0.000015451760    0.027221025040    0.025167580521    -0.000037372272    0.000007787109    0.041382566783    0.000887525532
0.125     0.047115781266    -0.041283084688    -0.000030066036    -0.000006325462    0.039455327728    -0.010544143235    -0.000041182648    -0.000007404489
            -0.000030066058    -0.000006325368    0.036049172573    -0.003225963029    -0.000030368240    -0.000007445208    0.031318374366    0.021804621004
            0.039455330029    -0.010544142374    -0.000030368256    -0.000007445184    0.047356065374    -0.041522155768    -0.000037465327    0.000015852141
            -0.000041182663    -0.000007404469    0.031318482548    0.021804591631    -0.000037465302    0.000015852038    0.035744344200    -0.002923975504
0.150     0.026802517431    -0.055849548627    -0.000036931731    0.000003177854    0.029566770835    -0.025845750445    -0.000050065289    0.000006039753
            -0.000036931729    0.000003177964    0.026263180404    -0.003375385732    -0.000037736098    0.000002629499    0.030753420150    0.018262080335
            0.029566773243    -0.025845750730    -0.000037736107    0.000002629520    0.027071919776    -0.056285857983    -0.000037144780    0.000024518737
            -0.000050065301    0.000006039834    0.030753531298    0.018262043969    -0.000037144782    0.000024518636    0.026094493566    -0.002942237234
0.175     -0.001777380389    -0.059426403165    -0.000040639502    0.000016345445    0.010337206750    -0.034277633386    -0.000054089112    0.000024101664
            -0.000040639472    0.000016345541    0.014781609705    0.002670157103    -0.000041479125    0.000016495463    0.026275830911    0.017539299393
            0.010337209122    -0.034277634759    -0.000041479130    0.000016495474    -0.001562606462    -0.060092688994    -0.000035536039    0.000035017906
            -0.000054089123    0.000024101658    0.026275933514    0.017539259159    -0.000035536070    0.000035017802    0.014810398641    0.003140585031
0.200     -0.032039361733    -0.047916684774    -0.000039227365    0.000032270653    -0.013427462113    -0.030994150406    -0.000051006249    0.000045107381
            -0.000039227311    0.000032270734    0.005246394833    0.015728084326    -0.000039682936    0.000032976261    0.020300599043    0.021754834871
            -0.013427462908    -0.030994152241    -0.000039682911    0.000032976345    -0.031986498776    -0.048802953852    -0.000030659409    0.000047475110
            -0.000051006225    0.000045107455    0.020300702883    0.021754788579    -0.000030659462    0.000047475027    0.005466415647    0.016113400035
0.225     -0.055616043579    -0.021288579550    -0.000030940818    0.000048669455    -0.034660599344    -0.014413394770    -0.000039110467    0.000065943052
            -0.000030940742    0.000048669523    0.001510775056    0.034423646719    -0.000030769514    0.000049584533    0.016153504905    0.031283914661
            -0.034660600267    -0.014413395154    -0.000030769468    0.000049584613    -0.055829717305    -0.022325354526    -0.000020447107    0.000060437481
            -0.000039110445    0.000065943094    0.016153600915    0.031283866211    -0.000020447154    0.000060437445    0.001838891784    0.034621170337
0.250     -0.064885457640    0.015806896042    -0.000015377552    0.000062078004    -0.046197523746    0.012873291586    -0.000018384853    0.000082459391
            -0.000015377470    0.000062078046    0.006290592395    0.055310064692    -0.000014574598    0.000062813431    0.016898695917    0.044490278190
            -0.046197526956    0.012873283792    -0.000014574611    0.000062813439    -0.065431732821    0.014746637839    -0.000004079137    0.000070831179
            -0.000018384792    0.000082459454    0.016898784902    0.044490229414    -0.000004079226    0.000070831129    0.006590034250    0.055282790095
0.275     -0.055533564605    0.055037882954    0.000005698932    0.000068957335    -0.043159846655    0.044627410232    0.000008808171    0.000090654288
            0.000005699022    0.000068957356    0.020086038784    0.073781167043    0.000006934464    0.000069209884    0.024200263883    0.058212947714
            -0.043159845265    0.044627408794    0.000006934486    0.000069209913    -0.056408114967    0.054114192053    0.000017198243    0.000075372520
            0.000008808160    0.000090654301    0.024200355661    0.058212893315    0.000017198149    0.000075372498    0.020214774400    0.073581167038
0.300     -0.028145070091    0.086718581596    0.000028711039    0.000067260567    -0.024618548048    0.072791683065    0.000038232427    0.000088317775
            0.000028711131    0.000067260567    0.040837551721    0.085526053817    0.000030090309    0.000066896412    0.037713587000    0.068844855565
            -0.024618561072    0.072791679715    0.000030090386    0.000066896445    -0.029257794266    0.086084246640    0.000040219674    0.000071991643
            0.000038232420    0.000088317792    0.037713672553    0.068844800717    0.000040219583    0.000071991642    0.040704092574    0.085283859522
0.325     0.011828993416    0.102590915143    0.000049624046    0.000057252576    0.006110782708    0.089849934560    0.000065242899    0.000075768349
            0.000049624136    0.000057252551    0.064498060501    0.087868663878    0.000050872253    0.000056292978    0.055216859119    0.073497803866
            0.006110781208    0.089849935664    0.000050872252    0.000056292999    0.010644335451    0.102344728243    0.000061384976    0.000060772993
            0.000065242945    0.000075768362    0.055216946185    0.073497743459    0.000061384888    0.000060773014    0.064097321268    0.087752753928
0.350     0.055516742194    0.098033240203    0.000065497345    0.000041160820    0.042424714337    0.090823945715    0.000086415445    0.000055433635
            0.000065497424    0.000041160777    0.086211780491    0.080542796141    0.000066424244    0.000039715815    0.073326194798    0.070833218791
            0.042424714337    0.090823945715    0.000066424246    0.000039715839    0.054470413002    0.098183852686    0.000077965071    0.000043591254
            0.000086415455    0.000055433656    0.073326279875    0.070833145112    0.000077964986    0.000043591300    0.085635133701    0.080705703252
0.375     0.092815289688    0.073118037505    0.000075248297    0.000021959146    0.076069877502    0.074383805893    0.000100269908    0.000030541063
            0.000075248365    0.000021959082    0.101618766598    0.065692372523    0.000075742854    0.000020152994    0.088418562966    0.061358273425
            0.076069876203    0.074383807221    0.000075742941    0.000020152962    0.092113594578    0.073566722490    0.000088938275    0.000022943128
            0.000100269924    0.000030541080    0.088418645441    0.061358207196    0.000088938208    0.000022943190    0.101032512673    0.066221166703
0.400     0.114607956819    0.032589707532    0.000079502671    0.000002071742    0.098902573065    0.043138929829    0.000107089730    0.000003796929
            0.000079502722    0.000002071662    0.107912647957    0.047313318929    0.000079487871    -0.000000003416    0.097514302365    0.047305582991
            0.098902572312    0.043138931555    0.000079487953    -0.000000003472    0.114400742401    0.033135572461    0.000094668160    0.000000810465
            0.000107089749    0.000003796946    0.097514377158    0.047305520458    0.000094668112    0.000000810542    0.107515731042    0.048197160080
0.425     0.114662909189    -0.014973426865    0.000079679564    -0.000017459779    0.104524485184    0.003306481623    0.000107941616    -0.000023406474
            0.000079679591    -0.000017459866    0.104504465197    0.030338170236    0.000079047435    -0.000019727123    0.099003005072    0.032187243648
            0.104524483839    0.003306524129    0.000079047496    -0.000019727196    0.114994412560    -0.014604643928    0.000096065791    -0.000022090045
            0.000107941659    -0.000023406511    0.099003070639    0.032187171347    0.000096065765    -0.000022089958    0.104473624242    0.031460498213
0.450     0.091164015453    -0.058601179015    0.000076771407    -0.000037078402    0.089831789707    -0.036153230441    0.000103483068    -0.000051019678
            0.000076771409    -0.000037078492    0.093294755659    0.019553638990    0.000075354461    -0.000039407643    0.093207853519    0.020084555201
            0.089831792490    -0.036153231561    0.000075354483    -0.000039407641    0.091933261307    -0.058705871569    0.000093415603    -0.000046163416
            0.000103483104    -0.000051019763    0.093207916715    0.020084480298    0.000093415602    -0.000046163326    0.093730700721    0.020713442111
0.475     0.047723374608    -0.087030944562    0.000070175797    -0.000057883238    0.056321639613    -0.065129309886    0.000092883561    -0.000079431668
            0.000070175774    -0.000057883327    0.078484279343    0.018386957487    0.000067796146    -0.000059998056    0.082628522625    0.014606725986
            0.056321639613    -0.065129309886    0.000067796167    -0.000059998064    0.048664536044    -0.087855429731    0.000085433082    -0.000072068114
            0.000092883582    -0.000079431674    0.082628580010    0.014606648385    0.000085433104    -0.000072068026    0.079373146617    0.019346639441
0.500     -0.006547803234    -0.091481614604    0.000057440438    -0.000080002538    0.010665389878    -0.074835805643    0.000073752951    -0.000107887726
            0.000057440391    -0.000080002614    0.065771808305    0.027739031598    0.000054046015    -0.000081472468    0.071600824801    0.017659033207
            0.010665391607    -0.074835808426    0.000054046033    -0.000081472483    -0.005871612163    -0.093141694558    0.000069310867    -0.000099113173
            0.000073752944    -0.000107887828    0.071600875503    0.017658952914    0.000069310908    -0.000099113095    0.066978789290    0.028288453337
0.525     -0.058605797743    -0.068578620714    0.000035629022    -0.000100789540    -0.036375884666    -0.060750868321    0.000043656097    -0.000132846356
            0.000035628962    -0.000100789593    0.060817110926    0.045263483518    0.000031424075    -0.000101256759    0.065115054025    0.028425547298
            -0.036375886721    -0.060750871753    0.000031424068    -0.000101256813    -0.058976306615    -0.071061123868    0.000042255842    -0.000123899935
            0.000043656064    -0.000132846451    0.065115124750    0.028425425278    0.000042255903    -0.000123899872    0.062112516837    0.045269070185
0.550     -0.094880372055    -0.022251701701    0.000004008811    -0.000114783077    -0.071254126656    -0.025491304515    0.000002792678    -0.000148242847
            0.000004008744    -0.000114783120    0.067310232060    0.065700411125    0.000000657824    -0.000113247409    0.067022428474    0.043292854628
            -0.071254126656    -0.025491304515    0.000000657901    -0.000113247489    -0.094585803366    -0.026553528029    0.000005736397    -0.000139289668
            0.000002792692    -0.000148242867    0.067022470784    0.043292772541    0.000005736465    -0.000139289616    0.068379525286    0.065144973218
0.575     -0.105455346436    0.037009941008    -0.000033998617    -0.000116146094    -0.086315580957    0.024926491319    -0.000044337420    -0.000148144977
            -0.000033998689    -0.000116146114    0.085492437621    0.082459303363    -0.000037229775    -0.000113000249    0.078522718201    0.057053174383
            -0.086315580957    0.024926491319    -0.000037229842    -0.000113000322    -0.106764535981    0.033593108673    -0.000039361042    -0.000140583150
            -0.000044337426    -0.000148144996    0.078522772659    0.057053056901    -0.000039361050    -0.000140583179    0.086016246762    0.081555480179
0.600     -0.087192437925    0.094873991858    -0.000071301532    -0.000102197136    -0.076382969346    0.076665930649    -0.000089706577    -0.000130265133
            -0.000071301609    -0.000102197131    0.112002117766    0.089863357325    -0.000073393627    -0.000098065638    0.097820677980    0.064723569854
            -0.076382969346    0.076665930649    -0.000073393721    -0.000098065692    -0.090075231719    0.092162013566    -0.000082877491    -0.000125185840
            -0.000089706588    -0.000130265150    0.097820699275    0.064723483301    -0.000082877480    -0.000125185871    0.111877780976    0.088988455462
0.625     -0.045461670056    0.137862483746    -0.000100649587    -0.000075437390    -0.044496580774    0.118311008038    -0.000125478530    -0.000097850955
            -0.000100649629    -0.000075437367    0.141119134906    0.084939902521    -0.000101366313    -0.000070615875    0.120854236231    0.063113793418
            -0.044496580774    0.118311008038    -0.000101366318    -0.000070615904    -0.048821067985    0.136700678084    -0.000117899909    -0.000095344438
            -0.000125478553    -0.000097850974    0.120854267023    0.063113712854    -0.000117899916    -0.000095344477    0.140470468901    0.084430603825
0.650     0.010746554070    0.158202869048    -0.000118069879    -0.000040848625    0.002467358808    0.141827129371    -0.000147645299    -0.000056488233
            -0.000118069794    -0.000040848688    0.166674002153    0.068004314458    -0.000117070522    -0.000036091006    0.142752561656    0.051558359060
            0.002467358808    0.141827129371    -0.000117070535    -0.000036091033    0.007433293219    0.158048085807    -0.000139955769    -0.000056724549
            -0.000147645308    -0.000056488266    0.142752592252    0.051558274349    -0.000139955777    -0.000056724581    0.165760326281    0.068077887702
0.675     0.069659723429    0.151723638571    -0.000122397587    -0.000004548162    0.054802368746    0.142534388396    -0.000155035514    -0.000012724773
            -0.000122397567    -0.000004548161    0.183640681886    0.042136929681    -0.000120037052    -0.000000518149    0.159127664981    0.031668704198
            0.054802366258    0.142534389353    -0.000120037072    -0.000000518170    0.066681433768    0.152579635635    -0.000148308580    -0.000015550070
            -0.000155035534    -0.000012724775    0.159127711679    0.031668572014    -0.000148308600    -0.000015550073    0.182786474925    0.042862302347
0.700     0.119360334577    0.120352355295    -0.000115723629    0.000028476325    0.102241159378    0.120581921093    -0.000149844648    0.000028197039
            -0.000115723551    0.000028476391    0.189048135055    0.012161548177    -0.000112520204    0.000031488384    0.166847564480    0.006695904395
            0.102241159378    0.120581921093    -0.000112520233    0.000031488392    0.117144534079    0.122033322460    -0.000144957866    0.000023430125
            -0.000149844658    0.000028197040    0.166847588227    0.006695811429    -0.000144957876    0.000023430126    0.188574930409    0.013451001547
0.725     0.150146208019    0.070449260576    -0.000101615902    0.000055486081    0.135615430177    0.079987107288    -0.000135620756    0.000063444795
            -0.000101615875    0.000055486089    0.182295498653    -0.016382297111    -0.000098045809    0.000057511634    0.164404134921    -0.019100539003
            0.135615430177    0.079987107288    -0.000098045827    0.000057511644    0.149024432794    0.072558787308    -0.000133084526    0.000057689874
            -0.000135620776    0.000063444775    0.164404169219    -0.019100677052    -0.000133084545    0.000057689882    0.182456529765    -0.014759893924
0.750     0.155575675813    0.011679684798    -0.000083819811    0.000076086029    0.147832134331    0.028114037142    -0.000115881896    0.000092510713
            -0.000083819789    0.000076086009    0.165201479104    -0.038136580863    -0.000080138957    0.000077371886    0.152210796367    -0.041023957216
            0.147832144645    0.028114036430    -0.000080138992    0.000077371892    0.155685033953    0.013681746315    -0.000115739911    0.000086834298
            -0.000115881935    0.000092510744    0.152210818131    -0.041024145453    -0.000115739959    0.000086834302    0.166123745801    -0.036517710761
0.775     0.133480411778    -0.044074596044    -0.000065014131    0.000091943966    0.135047137666    -0.024859187057    -0.000092922168    0.000116718036
            -0.000065014211    0.000091944387    0.141911367116    -0.048823329794    -0.000061163436    0.000092741396    0.132866487144    -0.054684880181
            0.135047124504    -0.024859148081    -0.000061163468    0.000092741410    0.134704655403    -0.042763339078    -0.000094721428    0.000112067636
            -0.000092922187    0.000116718059    0.132866500930    -0.054684978056    -0.000094721352    0.000112067229    0.143546685582    -0.047589580749
