# GHz S RI R 45
0.000     0.026847700000    0.000000000000    -0.000000033315    -0.000000000000    0.000672253820    0.000000000000    -0.000002338784    0.000000000000
            -0.000000033307    -0.000000000000    0.025950209000    0.000000000000    -0.000002271844    0.000000000000    0.000675216510    -0.000000000000
            0.000672250330    0.000000000000    -0.000002271836    0.000000000000    0.026808075000    0.000000000000    0.000000200817    -0.000000000000
            -0.000002338770    0.000000000000    0.000675218550    -0.000000000000    0.000000200809    -0.000000000000    0.025881073000    0.000000000000
0.025     0.035151471042    0.007835304931    -0.000001918100    -0.000002153365    0.005142639205    0.012026209767    -0.000000848390    -0.000001012823
            -0.000001918092    -0.000002153369    0.033372416792    0.006461752525    -0.000002137865    -0.000001554745    0.004414414064    0.010305255024
            0.005142625047    0.012026262587    -0.000002137866    -0.000001554745    0.035098030405    0.007832888853    -0.000002307673    -0.000003234854
            -0.000000848382    -0.000001012827    0.004414403948    0.010305303961    -0.000002307685    -0.000003234848    0.033293881448    0.006363795945
0.050     0.045597751393    0.005506004726    -0.000004687559    -0.000001920069    0.016292918715    0.018430466730    -0.000003663688    -0.000003067019
            -0.000004687553    -0.000001920078    0.042711731253    0.003984445746    -0.000005384937    -0.000002758130    0.014072164529    0.016075822505
            0.016292910484    0.018430483349    -0.000005384937    -0.000002758131    0.045588120754    0.005519616932    -0.000006463567    -0.000003179458
            -0.000003663685    -0.000003067022    0.014072159125    0.016075833881    -0.000006463576    -0.000003179445    0.042599364875    0.003812728980
0.075     0.054265833827    -0.004997356072    -0.000007204840    0.000000489311    0.029362581918    0.016139958409    -0.000007825310    -0.000001209688
            -0.000007204840    0.000000489308    0.050820990049    -0.005589371062    -0.000009452960    -0.000000069719    0.025830827425    0.014521482103
            0.029362577130    0.016139967121    -0.000009452959    -0.000000069722    0.054336275219    -0.005007522580    -0.000010370279    0.000000168735
            -0.000007825309    -0.000001209695    0.025830822022    0.014521485592    -0.000010370280    0.000000168741    0.050675864286    -0.005811370472
0.100     0.056063657244    -0.022140821502    -0.000008041881    0.000004791146    0.038667779160    0.005339610435    -0.000010037256    0.000003994847
            -0.000008041882    0.000004791145    0.053439390778    -0.021236196265    -0.000011217008    0.000005881154    0.035031153791    0.005493975473
            0.038667780862    0.005339612733    -0.000011217009    0.000005881154    0.056227625561    -0.022228108884    -0.000011855143    0.000006424234
            -0.000010037257    0.000003994837    0.035031152966    0.005493974279    -0.000011855139    0.000006424248    0.053279777259    -0.021492708311
0.125     0.047115781266    -0.041283084688    -0.000006047369    0.000009742458    0.039455327728    -0.010544143235    -0.000008400175    0.000010557830
            -0.000006047378    0.000009742450    0.047095146420    -0.039418049032    -0.000008772965    0.000013019730    0.037580641634    -0.008580228341
            0.039455330029    -0.010544142374    -0.000008772965    0.000013019730    0.047356065374    -0.041522155768    -0.000009195813    0.000013715569
            -0.000008400183    0.000010557822    0.037580640509    -0.008580228774    -0.000009195805    0.000013715578    0.046939264669    -0.039711435892
0.150     0.026802517431    -0.055849548627    -0.000000986080    0.000013491051    0.029566770835    -0.025845750445    -0.000002543549    0.000015819913
            -0.000000986083    0.000013491053    0.030753620423    -0.054807652664    -0.000001814873    0.000018491755    0.031239313437    -0.023375502249
            0.029566773243    -0.025845750730    -0.000001814872    0.000018491754    0.027071919776    -0.056285857983    -0.000002040679    0.000019340280
            -0.000002543560    0.000015819909    0.031239311821    -0.023375502741    -0.000002040679    0.000019340280    0.030625430378    -0.055157120696
0.175     -0.001777380389    -0.059426403165    0.000006232132    0.000014219331    0.010337206750    -0.034277633386    0.000006273124    0.000017297035
            0.000006232125    0.000014219333    0.006283046648    -0.061942367969    0.000008229021    0.000019645796    0.016374572216    -0.033782395133
            0.010337209122    -0.034277634759    0.000008229016    0.000019645795    -0.001562606462    -0.060092688994    0.000008290894    0.000020671417
            0.000006273114    0.000017297036    0.016374571191    -0.033782394519    0.000008290906    0.000020671416    0.006178510174    -0.062386526160
0.200     -0.032039361733    -0.047916684774    0.000013672302    0.000010820597    -0.013427462113    -0.030994150406    0.000015511962    0.000013580383
            0.000013672305    0.000010820601    -0.021539721539    -0.056797284421    0.000018539551    0.000015006244    -0.003888535257    -0.035410649733
            -0.013427462908    -0.030994152241    0.000018539550    0.000015006246    -0.031986498776    -0.048802953852    0.000019055910    0.000016122734
            0.000015511961    0.000013580384    -0.003888535766    -0.035410648671    0.000019055921    0.000016122726    -0.021656733430    -0.057370623328
0.225     -0.055616043579    -0.021288579550    0.000018918256    0.000003449080    -0.034660599344    -0.014413394770    0.000022115527    0.000004918510
            0.000018918254    0.000003449085    -0.046110839739    -0.038213338997    0.000025747468    0.000004905638    -0.024341612623    -0.025993057622
            -0.034660600267    -0.014413395154    0.000025747468    0.000004905638    -0.055829717305    -0.022325354526    0.000026850196    0.000005874912
            0.000022115522    0.000004918519    -0.024341611940    -0.025993056892    0.000026850196    0.000005874912    -0.046302705112    -0.038924179318
0.250     -0.064885457640    0.015806896042    0.000019902086    -0.000006331141    -0.046197523746    0.012873291586    0.000023569052    -0.000006716975
            0.000019902085    -0.000006331132    -0.060717089344    -0.008641451210    0.000027087838    -0.000008427332    -0.039068547941    -0.006289844676
            -0.046197526956    0.012873283792    0.000027087840    -0.000008427333    -0.065431732821    0.014746637839    0.000028743211    -0.000007950212
            0.000023569027    -0.000006716888    -0.039068546954    -0.006289844517    0.000028743210    -0.000007950216    -0.061052966039    -0.009455633861
0.275     -0.055533564605    0.055037882954    0.000015702086    -0.000015967050    -0.043159846655    0.044627410232    0.000018802246    -0.000018207345
            0.000015702089    -0.000015967049    -0.060479998003    0.026170565935    0.000021384668    -0.000021498335    -0.043151821735    0.019882505774
            -0.043159845265    0.044627408794    0.000021384669    -0.000021498336    -0.056408114967    0.054114192053    0.000023341648    -0.000021844070
            0.000018802249    -0.000018207344    -0.043151820827    0.019882505355    0.000023341645    -0.000021844072    -0.061008069470    0.025332229608
0.300     -0.028145070091    0.086718581596    0.000006918131    -0.000022749660    -0.024618548048    0.072791683065    0.000008581268    -0.000026318394
            0.000006918133    -0.000022749664    -0.043904691980    0.058497096710    0.000009505568    -0.000030667435    -0.034167833480    0.046561389224
            -0.024618561072    0.072791679715    0.000009505563    -0.000030667434    -0.029257794266    0.086084246640    0.000011320976    -0.000032007247
            0.000008581273    -0.000026318393    -0.034167827129    0.046561397606    0.000011320976    -0.000032007247    -0.044625473880    0.057744302406
0.325     0.011828993416    0.102590915143    -0.000004540428    -0.000024663657    0.006110782708    0.089849934560    -0.000004787939    -0.000028686143
            -0.000004540424    -0.000024663662    -0.013483653020    0.080602303333    -0.000005944204    -0.000033240478    -0.012952105174    0.067195092832
            0.006110781208    0.089849935664    -0.000005944204    -0.000033240478    0.010644335451    0.102344728243    -0.000004797775    -0.000035495096
            -0.000004787934    -0.000028686144    -0.012952105174    0.067195092832    -0.000004797778    -0.000035495095    -0.014334273396    0.080045557592
0.350     0.055516742194    0.098033240203    -0.000016054655    -0.000020894496    0.042424714337    0.090823945715    -0.000018201155    -0.000024400267
            -0.000016054656    -0.000020894497    0.024777480565    0.086716442984    -0.000021416481    -0.000028155218    0.016545054951    0.076328502687
            0.042424714337    0.090823945715    -0.000021416480    -0.000028155216    0.054470413002    0.098183852686    -0.000021403239    -0.000030961819
            -0.000018201155    -0.000024400267    0.016545056283    0.076328502398    -0.000021403239    -0.000030961820    0.023921298559    0.086432185264
0.375     0.092815289688    0.073118037505    -0.000024951960    -0.000011910403    0.076069877502    0.074383805893    -0.000028537705    -0.000014070725
            -0.000024951962    -0.000011910404    0.062721065584    0.074455065269    -0.000033303678    -0.000016097339    0.048170841650    0.070917489800
            0.076069876203    0.074383807221    -0.000033303679    -0.000016097340    0.092113594578    0.073566722490    -0.000034683920    -0.000018861047
            -0.000028537707    -0.000014070726    0.048170842326    0.070917488132    -0.000034683919    -0.000018861047    0.062025188519    0.074454510954
0.400     0.114607956819    0.032589707532    -0.000029005777    0.000000702539    0.098902573065    0.043138929829    -0.000033259277    0.000000404768
            -0.000029005781    0.000000702539    0.091822816324    0.045430062695    -0.000038656113    0.000000725976    0.074909583113    0.051054108903
            0.098902572312    0.043138931555    -0.000038656114    0.000000725976    0.114400742401    0.033135572461    -0.000041370438    -0.000001284023
            -0.000033259278    0.000000404768    0.074909583178    0.051054107033    -0.000041370434    -0.000001284015    0.091460680670    0.045639327812
0.425     0.114662909189    -0.014973426865    -0.000026794434    0.000014479786    0.104524485184    0.003306481623    -0.000030805088    0.000016161937
            -0.000026794438    0.000014479782    0.104995210247    0.005018971331    -0.000035679854    0.000018965588    0.090331037716    0.020051007464
            0.104524483839    0.003306524129    -0.000035679852    0.000018965587    0.114994412560    -0.014604643928    -0.000039301985    0.000018368121
            -0.000030805088    0.000016161937    0.090331036113    0.020051005454    -0.000039301984    0.000018368120    0.105106831285    0.005275870992
0.450     0.091164015453    -0.058601179015    -0.000018048685    0.000026366546    0.089831789707    -0.036153230441    -0.000020944821    0.000029737210
            -0.000018048687    0.000026366550    0.098138620962    -0.038556134261    -0.000024165304    0.000034598273    0.089973828522    -0.016030718517
            0.089831792490    -0.036153231561    -0.000024165304    0.000034598274    0.091933261307    -0.058705871569    -0.000027938956    0.000035824449
            -0.000020944824    0.000029737126    0.089973827258    -0.016030719912    -0.000027938949    0.000035824453    0.098787695016    -0.038487985283
0.475     0.047723374608    -0.087030944562    -0.000004011636    0.000033205659    0.056321639613    -0.065129309886    -0.000005123628    0.000037613326
            -0.000004011676    0.000033205682    0.071230175730    -0.075731498329    -0.000005848106    0.000043601207    0.072489874786    -0.049400921292
            0.056321639613    -0.065129309886    -0.000005848107    0.000043601208    0.048664536044    -0.087855429731    -0.000008829587    0.000046646618
            -0.000005123630    0.000037613326    0.072489873960    -0.049400920729    -0.000008829587    0.000046646616    0.072365381563    -0.076130222294
0.500     -0.006547803234    -0.091481614604    0.000012403116    0.000032550183    0.010665389878    -0.074835805643    0.000013404606    0.000037094235
            0.000012403115    0.000032550191    0.028760624064    -0.097560002175    0.000015506025    0.000042949403    0.040357599079    -0.072092939208
            0.010665391607    -0.074835808426    0.000015506026    0.000042949396    -0.005871612163    -0.093141694558    0.000014212772    0.000047312054
            0.000013404538    0.000037094185    0.040357597821    -0.072092939912    0.000014212771    0.000047312055    0.030181087321    -0.098693793187
0.525     -0.058605797743    -0.068578620714    0.000027071318    0.000023713998    -0.036375884666    -0.060750868321    0.000030075865    0.000027405443
            0.000027071321    0.000023714000    -0.020768975226    -0.097890114122    0.000034754819    0.000031830056    -0.000192029131    -0.077891701292
            -0.036375886721    -0.060750871753    0.000034754819    0.000031830056    -0.058976306615    -0.071061123868    0.000035730765    0.000036562899
            0.000030075865    0.000027405444    -0.000192029129    -0.077891700292    0.000035730763    0.000036562897    -0.019442516327    -0.099917955278
0.550     -0.094880372055    -0.022251701701    0.000035869764    0.000008474034    -0.071254126656    -0.025491304515    0.000040295546    0.000010442939
            0.000035869770    0.000008474045    -0.066568706348    -0.075292028098    0.000046401567    0.000012700430    -0.040361706324    -0.064218783535
            -0.071254126656    -0.025491304515    0.000046401566    0.000012700430    -0.094585803366    -0.026553528029    0.000049617052    0.000016639463
            0.000040295469    0.000010442965    -0.040361705792    -0.064218782689    0.000049617052    0.000016639460    -0.065803338412    -0.078072458619
0.575     -0.105455346436    0.037009941008    0.000036224327    -0.000009366681    -0.086315580957    0.024926491319    0.000041101712    -0.000009609668
            0.000036224300    -0.000009366652    -0.098320450719    -0.033663707116    0.000047659055    -0.000010464479    -0.071000786899    -0.033045321205
            -0.086315580957    0.024926491319    0.000047659058    -0.000010464479    -0.106764535981    0.033593108673    0.000052514979    -0.000008433546
            0.000041101715    -0.000009609665    -0.071000785992    -0.033045320783    0.000052514974    -0.000008433551    -0.098337322165    -0.036796829792
0.600     -0.087192437925    0.094873991858    0.000028015210    -0.000025195078    -0.076382969346    0.076665930649    0.000032276047    -0.000027593672
            0.000028015213    -0.000025195081    -0.108547722773    0.018694510762    0.000037947716    -0.000031414987    -0.084837666472    0.009490851166
            -0.076382969346    0.076665930649    0.000037947718    -0.000031414986    -0.090075231719    0.092162013566    0.000043366803    -0.000031865600
            0.000032276048    -0.000027593671    -0.084837663491    0.009490850833    0.000043366841    -0.000031865674    -0.109354704269    0.015537854055
0.625     -0.045461670056    0.137862483746    0.000013670217    -0.000035277745    -0.044496580774    0.118311008038    0.000016448499    -0.000039299151
            0.000013670222    -0.000035277750    -0.094484127741    0.070763101170    0.000019789602    -0.000045438340    -0.078351886584    0.054438459100
            -0.044496580774    0.118311008038    0.000019789601    -0.000045438339    -0.048821067985    0.136700678084    0.000024560073    -0.000048397839
            0.000016448500    -0.000039299111    -0.078351886584    0.054438459100    0.000024560073    -0.000048397839    -0.096037455078    0.067881988373
0.650     0.010746554070    0.158202869048    -0.000003530483    -0.000037874378    0.002467358808    0.141827129371    -0.000002766742    -0.000042716885
            -0.000003530480    -0.000037874384    -0.058875235351    0.111571740471    -0.000002526131    -0.000049765291    -0.052647503100    0.092352089302
            0.002467358808    0.141827129371    -0.000002526131    -0.000049765287    0.007433293219    0.158048085807    0.000000498965    -0.000054714690
            -0.000002766739    -0.000042716887    -0.052647503100    0.092352089302    0.000000498965    -0.000054714690    -0.061016019361    0.109265168562
0.675     0.069659723429    0.151723638571    -0.000020000221    -0.000032704404    0.054802368746    0.142534388396    -0.000021393390    -0.000037436342
            -0.000020000222    -0.000032704406    -0.009043293912    0.132790042115    -0.000024342732    -0.000043929264    -0.012875551903    0.115502851780
            0.054802366258    0.142534389353    -0.000024342734    -0.000043929268    0.066681433768    0.152579635635    -0.000023828349    -0.000049911856
            -0.000021393391    -0.000037436343    -0.012875551903    0.115502851780    -0.000023828347    -0.000049911854    -0.011475062258    0.131280925565
0.700     0.119360334577    0.120352355295    -0.000032695368    -0.000020986701    0.102241159378    0.120581921093    -0.000036004150    -0.000024723452
            -0.000032695370    -0.000020986711    0.044996924419    0.130285483042    -0.000041586669    -0.000029284565    0.033155582830    0.119306480684
            0.102241159378    0.120581921093    -0.000041586666    -0.000029284563    0.117144534079    0.122033322460    -0.000043868584    -0.000035082377
            -0.000036004153    -0.000024723454    0.033155582830    0.119306480684    -0.000043868584    -0.000035082377    0.042661543455    0.129652336905
0.725     0.150146208019    0.070449260576    -0.000039367408    -0.000004768260    0.135615430177    0.079987107288    -0.000044033193    -0.000006793061
            -0.000039367411    -0.000004768261    0.092628721554    0.104595002486    -0.000051128291    -0.000008431058    0.076587601228    0.102891758104
            0.135615430177    0.079987107288    -0.000051128292    -0.000008431058    0.149024432794    0.072558787308    -0.000055936100    -0.000012775716
            -0.000044033193    -0.000006793061    0.076587595257    0.102891750082    -0.000055936099    -0.000012775716    0.090795952715    0.104739963391
0.750     0.155575675813    0.011679684798    -0.000038526529    0.000013292643    0.147832134331    0.028114037142    -0.000043745854    0.000013442622
            -0.000038526529    0.000013292643    0.124509558325    0.060590862581    -0.000050902184    0.000015117137    0.109005460477    0.069081989026
            0.147832144645    0.028114036430    -0.000050902189    0.000015117139    0.155685033953    0.013681746315    -0.000057406618    0.000013308768
            -0.000043745854    0.000013442622    0.109005460477    0.069081989026    -0.000057406615    0.000013308768    0.123524863776    0.061241352220
0.775     0.133480411778    -0.044074596044    -0.000029594042    0.000029932603    0.135047137666    -0.024859187057    -0.000034397860    0.000032383746
            -0.000029594044    0.000029932606    0.134090461983    0.006612165427    -0.000040138396    0.000037072851    0.123752171496    0.023969606766
            0.135047124504    -0.024859148081    -0.000040138405    0.000037072847    0.134704655403    -0.042763339078    -0.000047038965    0.000038451972
