# GHz S RI R 45
0.000     0.021904447000    0.000000000000    -0.000025633984    0.000000000000    0.000594206720    0.000000000000    -0.000024842073    0.000000000000
            -0.000025633890    0.000000000000    0.022443139000    0.000000000000    -0.000003143994    0.000000000000    0.000342036390    0.000000000000
            0.000594203190    0.000000000000    -0.000003143968    0.000000000000    0.021864818000    0.000000000000    -0.000004530377    0.000000000000
            -0.000024841879    0.000000000000    0.000342011830    0.000000000000    -0.000004530460    0.000000000000    0.022357093000    0.000000000000
0.025     0.029019958829    0.009585563579    -0.000009945767    -0.000011292395    0.004106867456    0.011510145521    -0.000014800667    -0.000017675681
            -0.000009945723    -0.000011292411    0.028237982971    0.010405516991    -0.000006734628    -0.000019964744    0.002708645825    0.012640527095
            0.004106848022    0.011510197048    -0.000006734599    -0.000019964751    0.028962665628    0.009575651188    -0.000010076716    -0.000022604724
            -0.000014800571    -0.000017675703    0.002708496843    0.012640361637    -0.000010076801    -0.000022604701    0.028129405348    0.010365833035
0.050     0.038864495109    0.011450090342    -0.000019620275    -0.000043779323    0.013249426172    0.019304625622    -0.000030250155    -0.000049531345
            -0.000019620214    -0.000043779350    0.034564901053    0.014663264728    -0.000022005046    -0.000037370920    0.009158987570    0.023001328492
            0.013249414176    0.019304639919    -0.000022005026    -0.000037370931    0.038832513318    0.011454820641    -0.000027078364    -0.000041098999
            -0.000030250053    -0.000049531392    0.009158992206    0.023001319111    -0.000027078436    -0.000041098968    0.034396065455    0.014612989744
0.075     0.049479914398    0.006941112211    -0.000051081530    -0.000060781310    0.025393768018    0.021004730920    -0.000065206202    -0.000065303670
            -0.000051081494    -0.000060781333    0.040462177412    0.015434346877    -0.000045264689    -0.000046005803    0.017913389131    0.029589835913
            0.025393760648    0.021004738260    -0.000045264663    -0.000046005825    0.049503637331    0.006939794094    -0.000052663835    -0.000050253672
            -0.000065206123    -0.000065303728    0.017913368978    0.029589838762    -0.000052663900    -0.000050253629    0.040221026797    0.015431159422
0.100     0.057590327470    -0.004188944322    -0.000089038283    -0.000060956358    0.037107222641    0.015736730063    -0.000106482895    -0.000063218154
            -0.000089038283    -0.000060956358    0.044341373424    0.013224778935    -0.000072047153    -0.000044443518    0.026874707171    0.032019536308
            0.037107223658    0.015736732787    -0.000072047154    -0.000044443518    0.057690836392    -0.004225193494    -0.000082200763    -0.000048335925
            -0.000106482833    -0.000063218219    0.026874681489    0.032019540891    -0.000082200823    -0.000048335864    0.044058290135    0.013325310396
0.125     0.059749440382    -0.020425039634    -0.000126569367    -0.000045042991    0.044891114901    0.004336641811    -0.000146902587    -0.000043718363
            -0.000126569342    -0.000045043032    0.044696147859    0.009526122884    -0.000098834356    -0.000032619909    0.034082148065    0.030944348877
            0.044891116702    0.004336643962    -0.000098834329    -0.000032619958    0.059935962796    -0.020548329150    -0.000111889915    -0.000035057526
            -0.000146902510    -0.000043718480    0.034082120757    0.030944356639    -0.000111889968    -0.000035057457    0.044442601731    0.009756706994
0.150     0.053680403525    -0.038588740522    -0.000159013444    -0.000014875608    0.045957153756    -0.010842796492    -0.000181297746    -0.000008770011
            -0.000159013416    -0.000014875690    0.041129031529    0.006350021275    -0.000122943071    -0.000011108563    0.038078727857    0.027843173594
            0.045957156081    -0.010842795347    -0.000122943071    -0.000011108563    0.053949282052    -0.038836587620    -0.000138665473    -0.000010927041
            -0.000181297677    -0.000008770198    0.038078700528    0.027843182168    -0.000138665509    -0.000010926971    0.040975887580    0.006702641401
0.175     0.038524409049    -0.054606924297    -0.000182653073    0.000027383666    0.038814864496    -0.026299138447    -0.000205536782    0.000039205933
            -0.000182653063    0.000027383599    0.034076088690    0.005895451175    -0.000142009695    0.000019531216    0.038323130482    0.024770374691
            0.038814867070    -0.026299138214    -0.000142009695    0.000019531216    0.038847509294    -0.055030874676    -0.000159768609    0.000023468360
            -0.000205536763    0.000039205818    0.038323113030    0.024770381428    -0.000159768612    0.000023468475    0.034094130313    0.006320337497
0.200     0.015443976759    -0.064201598837    -0.000194360427    0.000079674267    0.023702231730    -0.038061693516    -0.000216185356    0.000097716879
            -0.000194360441    0.000079674153    0.025079894168    0.010053339515    -0.000153400208    0.000058788080    0.035370116290    0.023841537560
            0.023702234116    -0.038061694386    -0.000153400221    0.000058787962    0.015765341442    -0.064847750348    -0.000172164224    0.000067443004
            -0.000216185360    0.000097716699    0.035370090120    0.023841549548    -0.000172164228    0.000067443075    0.025312164098    0.010460860114
0.225     -0.012451556566    -0.063816480193    -0.000190550873    0.000139212060    0.002694848213    -0.042493841633    -0.000209467557    0.000163475968
            -0.000190550881    0.000139212015    0.016597327690    0.019834288905    -0.000153597187    0.000105401253    0.030805834001    0.026683147153
            0.002694850565    -0.042493843487    -0.000153597208    0.000105401188    -0.012214296413    -0.064709626176    -0.000171970727    0.000119436256
            -0.000209467590    0.000163475877    0.030805809211    0.026683160500    -0.000171970710    0.000119436333    0.017037650523    0.020112750339
0.250     -0.040526626190    -0.051498490975    -0.000167583959    0.000201780746    -0.020547771458    -0.037135441030    -0.000181724243    0.000231692305
            -0.000167583953    0.000201780738    0.011492377565    0.034960403400    -0.000138636061    0.000156349066    0.026918814212    0.033950852069
            -0.020547771942    -0.037135441905    -0.000138636061    0.000156349066    -0.040472393711    -0.052627380848    -0.000154958873    0.000175972285
            -0.000181724243    0.000231692305    0.026918788589    0.033950866005    -0.000154958838    0.000175972369    0.012075607706    0.035004096484
0.275     -0.063458849009    -0.027516500400    -0.000122863644    0.000260638005    -0.041432346291    -0.021377154959    -0.000130519914    0.000295034285
            -0.000122863644    0.000260638005    0.012338923087    0.053715419581    -0.000105386038    0.000206027315    0.026124069674    0.045048874559
            -0.041432341671    -0.021377161732    -0.000105386038    0.000206027315    -0.063685919786    -0.028824706014    -0.000117892689    0.000230895141
            -0.000130519914    0.000295034285    0.026124055237    0.045048884087    -0.000117892658    0.000230895179    0.012948072580    0.053456584927
0.300     -0.076342275730    0.005434944812    -0.000056713369    0.000307239440    -0.055393281254    0.003222320412    -0.000056548503    0.000344437572
            -0.000056713369    0.000307239440    0.020696681603    0.073225286155    -0.000053419746    0.000246811862    0.030300993203    0.058204017872
            -0.055393282252    0.003222320471    -0.000053419748    0.000246811872    -0.076926864088    0.004050374371    -0.000060456453    0.000275993160
            -0.000056548506    0.000344437592    0.030300996250    0.058204016286    -0.000060456505    0.000275993169    0.021186860974    0.072657492480
0.325     -0.075792468636    0.042631045915    0.000026235210    0.000332870566    -0.058913210676    0.033146608573    0.000035015184    0.000370811131
            0.000026235210    0.000332870566    0.036612985752    0.090076241197    0.000013697611    0.000270803409    0.040246031884    0.070885397320
            -0.058913211547    0.033146609063    0.000013697611    0.000270803409    -0.076766006133    0.041308211627    0.000013464455    0.000302848878
            0.000035015184    0.000370811131    0.040245994513    0.070885426587    0.000013464455    0.000302848878    0.036844525723    0.089264170222
0.350     -0.060757539580    0.078209728301    0.000117361349    0.000331469906    -0.050330397633    0.063620438488    0.000134916640    0.000367938049
            0.000117361349    0.000331469906    0.058535355433    0.101146156062    0.000088664231    0.000272384775    0.055458913413    0.080460915917
            -0.050330398253    0.063620439272    0.000088664233    0.000272384763    -0.062090733841    0.077101134111    0.000096084331    0.000305483578
            0.000134916646    0.000367938046    0.055458914250    0.080460914126    0.000096084331    0.000305483578    0.058408436173    0.100215892013
0.375     -0.032760277390    0.106338293951    0.000205886227    0.000301479969    -0.030165171813    0.089585010901    0.000231750351    0.000334333214
            0.000205886233    0.000301479977    0.083656207313    0.104317546583    0.000162232374    0.000249984869    0.074287372732    0.084820126607
            -0.030165187768    0.089585006584    0.000162232374    0.000249984869    -0.034358420715    0.105582613789    0.000177607056    0.000282160689
            0.000231750351    0.000334333214    0.074287375692    0.084820124014    0.000177607056    0.000282160689    0.083136398025    0.103431448709
0.400     0.004413459969    0.122313520080    0.000281762913    0.000246328137    -0.000958852874    0.106663760288    0.000314948996    0.000273685738
            0.000281762913    0.000246328137    0.108554486716    0.098911106828    0.000225789303    0.000206424787    0.094354741592    0.082807670389
            -0.000958854736    0.106663760271    0.000225789303    0.000206424787    0.002703009021    0.122007581854    0.000248889663    0.000235718545
            0.000314948996    0.000273685738    0.094354743037    0.082807668742    0.000248889655    0.000235718538    0.107681737435    0.098234740410
0.425     0.045452391048    0.123320064484    0.000337877121    0.000173109135    0.033265443038    0.111851403945    0.000377037134    0.000193451599
            0.000337877112    0.000173109130    0.129882772427    0.085728155178    0.000273366417    0.000147673305    0.113050936240    0.074361697824
            0.033265399347    0.111851385640    0.000273366418    0.000147673324    0.043821550725    0.123496440512    0.000303516317    0.000172269578
            0.000377037137    0.000193451593    0.113050901928    0.074361731791    0.000303516317    0.000172269578    0.128765712392    0.085398431501
0.450     0.084408358420    0.108783186439    0.000371283807    0.000090454433    0.067683082110    0.103886949026    0.000414858965    0.000102640658
            0.000371283808    0.000090454385    0.144947642138    0.066824023686    0.000302600221    0.000080901902    0.127982288576    0.060457649167
            0.067683080296    0.103886950207    0.000302600250    0.000080901910    0.083063686486    0.109394443056    0.000338770096    0.000099194652
            0.000414858152    0.000102641072    0.127982288576    0.060457649167    0.000338770113    0.000099194664    0.143745393760    0.066923447636
0.475     0.115539298849    0.080343511308    0.000382952504    0.000006364000    0.097324776562    0.083325351794    0.000429283124    0.000009579740
            0.000382952140    0.000006364289    0.152081538046    0.045113646121    0.000314436086    0.000012565315    0.137295270382    0.042919463422
            0.097324776562    0.083325351794    0.000314436076    0.000012565314    0.114676260150    0.081253605334    0.000355315793    0.000023167309
            0.000429283124    0.000009579735    0.137295270382    0.042919463422    0.000355315793    0.000023167309    0.150978728060    0.045657481324
0.500     0.134020298006    0.041611879960    0.000376761369    -0.000073500207    0.117664660980    0.052452023664    0.000424126660    -0.000079816611
            0.000376761367    -0.000073500214    0.150855779125    0.023935391499    0.000312142748    -0.000053019346    0.139937874107    0.024195192712
            0.117664660064    0.052452025718    0.000312142749    -0.000053019343    0.133809876912    0.042578703568    0.000356169570    -0.000051292920
            0.000424126661    -0.000079816658    0.139937864591    0.024195189055    0.000356169565    -0.000051292882    0.150036413695    0.024877649746
0.525     0.136513940149    -0.002220623554    0.000357719292    -0.000146722970    0.125217990566    0.015012408024    0.000404346115    -0.000162956301
            0.000357719298    -0.000146722980    0.142145301957    0.006515090144    0.000300026846    -0.000114657501    0.135854550371    0.007021717148
            0.125217990383    0.015012409554    0.000300026844    -0.000114657506    0.137240703286    -0.001681178938    0.000345439564    -0.000122838000
            0.000404345883    -0.000162955913    0.135854518205    0.007021758279    0.000345439576    -0.000122837998    0.141781338658    0.007855648266
0.550     0.121657647979    -0.044882008556    0.000330068793    -0.000215202584    0.117860662442    -0.022358158426    0.000373940208    -0.000240962803
            0.000330068749    -0.000215202596    0.129041730081    -0.003673245677    0.000281281183    -0.000169295206    0.126707956501    -0.005510382894
            0.117860662442    -0.022358158426    0.000281281215    -0.000169295231    0.123288391261    -0.042917504186    0.000325931763    -0.000187000425
            0.000373940208    -0.000240962803    0.126707956501    -0.005510382894    0.000325931759    -0.000187000431    0.128369392784    -0.002637734005
0.575     0.090469161206    -0.079663320719    0.000295310407    -0.000280911051    0.094764976869    -0.056556634099    0.000334109404    -0.000316521608
            0.000295310400    -0.000280911045    0.112961778164    -0.005584811906    0.000253928189    -0.000228124608    0.113754590209    -0.011562390885
            0.094764976869    -0.056556634099    0.000253928135    -0.000228124144    0.092176886524    -0.079119013525    0.000294970029    -0.000256662314
            0.000334109411    -0.000316521615    0.113754564479    -0.011562347349    0.000294970033    -0.000256662309    0.113114912018    -0.004714815334
0.600     0.046664496263    -0.100114466153    0.000249567215    -0.000347868294    0.059285847214    -0.079587685000    0.000281015712    -0.000392413721
            0.000249567215    -0.000347868294    0.099536139743    0.001219661868    0.000217588627    -0.000288373609    0.101305991643    -0.010050473637
            0.059285849604    -0.079587688208    0.000217588622    -0.000288373613    0.048770846174    -0.100912236159    0.000252561161    -0.000327021471
            0.000281015719    -0.000392413716    0.101305991713    -0.010050472929    0.000252561160    -0.000327021459    0.100141292992    0.001888053878
0.625     -0.002762827466    -0.102226181881    0.000187192370    -0.000415415748    0.016402488456    -0.087219167008    0.000208986770    -0.000467185823
            0.000187192374    -0.000415415757    0.092513428617    0.015075581780    0.000164679549    -0.000349669020    0.092875208542    -0.001909987354
            0.016402488826    -0.087219168974    0.000164679549    -0.000349669020    -0.001332940224    -0.104205295208    0.000190766681    -0.000396918739
            0.000208986896    -0.000467185405    0.092875208542    -0.001909987354    0.000190766715    -0.000396918756    0.093407201468    0.015072440779
0.650     -0.051141252295    -0.084621334830    0.000099501707    -0.000477692121    -0.027815747271    -0.077120124126    0.000109849560    -0.000534492479
            0.000099501697    -0.000477692072    0.094861504605    0.032319647878    0.000088841986    -0.000405269195    0.091350268219    0.010519339207
            -0.027815747271    -0.077120124126    0.000088841986    -0.000405269195    -0.050290817382    -0.087238237301    0.000103872782    -0.000458846645
            0.000109849521    -0.000534492527    0.091350268201    0.010519339366    0.000103872807    -0.000458846680    0.095482078425    0.031741627847
0.675     -0.089902124374    -0.048553863043    -0.000016063035    -0.000520141179    -0.065574931321    -0.049628141082    -0.000018457855    -0.000579133085
            -0.000016063044    -0.000520141179    0.107470214797    0.048084618675    -0.000011637871    -0.000442846256    0.098365574592    0.023261885292
            -0.065574934511    -0.049628143496    -0.000011637879    -0.000442846256    -0.089839083067    -0.051754469365    -0.000009282338    -0.000499858691
            -0.000018457855    -0.000579133085    0.098365574592    0.023261885292    -0.000009282338    -0.000499858691    0.107624293847    0.047156879971
0.700     -0.112157579238    0.000487797245    -0.000152391945    -0.000527560591    -0.090172129532    -0.008847429023    -0.000167895043    -0.000585536568
            -0.000152391837    -0.000527560560    0.128747741405    0.057593282104    -0.000129994255    -0.000449032296    0.113202762923    0.032079360486
            -0.090172129532    -0.008847429023    -0.000129994255    -0.000449032296    -0.113119725396    -0.003009066824    -0.000140987009    -0.000506132423
            -0.000167895034    -0.000585536539    0.113202767402    0.032079344680    -0.000140987009    -0.000506132423    0.128319664476    0.056561256133
0.725     -0.114154111321    0.054686504466    -0.000293674939    -0.000489968975    -0.097434952623    0.038700324574    -0.000321674847    -0.000543777975
            -0.000293674934    -0.000489968966    0.155030160865    0.057440290578    -0.000251813935    -0.000415536396    0.133227039021    0.033712301445
            -0.097434952623    0.038700324574    -0.000251813945    -0.000415536413    -0.116230897008    0.051294227050    -0.000275786474    -0.000469357494
            -0.000321674364    -0.000543777807    0.133227028430    0.033712343300    -0.000275786479    -0.000469357502    0.154017863434    0.056578483633
0.750     -0.095859192854    0.105602267728    -0.000420459265    -0.000407195466    -0.086443350891    0.085580668226    -0.000459506590    -0.000454104186
            -0.000420459272    -0.000407195473    0.181648329100    0.046357245042    -0.000359943290    -0.000342986731    0.154768447805    0.026597057477
            -0.086443350891    0.085580668226    -0.000359943290    -0.000342986731    -0.098962516283    0.102729271277    -0.000395605324    -0.000390526850
            -0.000459506583    -0.000454104179    0.154768433368    0.026597141485    -0.000395605324    -0.000390526850    0.180169416347    0.045913061674
0.775     -0.060611743640    0.145897369227    -0.000516137469    -0.000288652447    -0.059331824814    0.125018300320    -0.000564231454    -0.000326567983
            -0.000516137478    -0.000288652452    0.204089605567    0.025237773594    -0.000440272859    -0.000240328035    0.174088407369    0.010944584511
            -0.059331829484    0.125018253828    -0.000440272850    -0.000240328030    -0.064494258457    0.143892811872    -0.000485681817    -0.000279193600
            -0.000564231454    -0.000326567983    0.174088407923    0.010944575700    -0.000485681817    -0.000279193600    0.202355188344    0.025381881159
