# GHz S RI R 45
0.000     0.021904447000    0.000000000000    0.000001455314    -0.000000000000    0.000594206720    0.000000000000    -0.000003089182    0.000000000000
            0.000001455210    -0.000000000000    0.022539204000    0.000000000000    -0.000003196805    0.000000000000    0.000659960910    0.000000000000
            0.000594203190    0.000000000000    -0.000003196847    0.000000000000    0.021864818000    0.000000000000    0.000028057791    -0.000000000000
            -0.000003089201    0.000000000000    0.000660072780    0.000000000000    0.000028057902    -0.000000000000    0.022551662000    0.000000000000
0.025     0.029019958829    0.009585563579    0.000000977578    -0.000006236696    0.004106867456    0.011510145521    -0.000000531665    -0.000005922984
            0.000000977473    -0.000006236671    0.027934527229    0.009312925254    0.000001425715    -0.000003242999    0.002811179980    0.011429092899
            0.004106848022    0.011510197048    0.000001425681    -0.000003243009    0.028962665628    0.009575651188    -0.000014357404    -0.000029985149
            -0.000000531693    -0.000005922983    0.002811172727    0.011428920645    -0.000014357304    -0.000029985169    0.027836736886    0.009253436931
0.050     0.038864495109    0.011450090342    -0.000003695021    -0.000012243336    0.013249426172    0.019304625622    -0.000005241167    -0.000015060297
            -0.000003695117    -0.000012243290    0.033611010918    0.012943936195    -0.000001766732    -0.000011462153    0.008575656728    0.020847877706
            0.013249414176    0.019304639919    -0.000001766756    -0.000011462147    0.038832513318    0.011454820641    -0.000031740415    -0.000016278688
            -0.000005241191    -0.000015060291    0.008575798453    0.020847855090    -0.000031740316    -0.000016278735    0.033436114633    0.012864638439
0.075     0.049479914398    0.006941112211    -0.000010929723    -0.000015523078    0.025393768018    0.021004730920    -0.000014925806    -0.000020166814
            -0.000010929802    -0.000015523016    0.038901748225    0.013509250056    -0.000009356371    -0.000016081735    0.016492334263    0.026944679192
            0.025393760648    0.021004738260    -0.000009356395    -0.000016081726    0.049503637331    0.006939794094    -0.000036542779    -0.000006534867
            -0.000014925827    -0.000020166806    0.016492451391    0.026944661432    -0.000036542693    -0.000006534931    0.038632298953    0.013469170563
0.100     0.057590327470    -0.004188944322    -0.000019380084    -0.000015633959    0.037107222641    0.015736730063    -0.000026614624    -0.000020579878
            -0.000019380153    -0.000015633876    0.042454459541    0.011380703512    -0.000018599700    -0.000016788796    0.024738449327    0.029297706204
            0.037107223658    0.015736732787    -0.000018599723    -0.000016788782    0.057690836392    -0.004225193494    -0.000038777702    0.000000880876
            -0.000026614642    -0.000020579870    0.024738560489    0.029297684326    -0.000038777632    0.000000880793    0.042109918991    0.011441298255
0.125     0.059749440382    -0.020425039634    -0.000027949308    -0.000012601026    0.044891114901    0.004336641811    -0.000038510465    -0.000016307979
            -0.000027949355    -0.000012600936    0.042915227902    0.007754244637    -0.000027966064    -0.000013777492    0.031572926935    0.028375227733
            0.044891116702    0.004336643962    -0.000027966086    -0.000013777473    0.059935962796    -0.020548329150    -0.000040465987    0.000007314277
            -0.000038510484    -0.000016307963    0.031573035944    0.028375199192    -0.000040465936    0.000007314188    0.042551857497    0.007964492107
0.150     0.053680403525    -0.038588740522    -0.000035863795    -0.000006545526    0.045957153756    -0.010842796492    -0.000049292884    -0.000007593110
            -0.000035863825    -0.000006545422    0.039837092894    0.004380903781    -0.000036480580    -0.000007334243    0.035617383711    0.025371802192
            0.045957156081    -0.010842795347    -0.000036480598    -0.000007334221    0.053949282052    -0.038836587620    -0.000042147523    0.000013938740
            -0.000049292921    -0.000007593027    0.035617494749    0.025371766965    -0.000042147493    0.000013938641    0.039527312920    0.004752649111
0.175     0.038524409049    -0.054606924297    -0.000042406407    0.000002421532    0.038814864496    -0.026299138447    -0.000057746957    0.000005195393
            -0.000042406411    0.000002421636    0.033454183405    0.003160926013    -0.000043286827    0.000002244749    0.036236541149    0.022036952988
            0.038814867070    -0.026299138214    -0.000043286837    0.000002244750    0.038847509294    -0.055030874676    -0.000043796426    0.000021758525
            -0.000057746966    0.000005195383    0.036236644633    0.022036913692    -0.000043796419    0.000021758417    0.033276957966    0.003664357506
0.200     0.015443976759    -0.064201598837    -0.000046723375    0.000014234466    0.023702231730    -0.038061693516    -0.000062666665    0.000021607352
            -0.000046723355    0.000014234567    0.024937933862    0.005826675289    -0.000047497136    0.000014708924    0.033712143938    0.020259095425
            0.023702234116    -0.038061694386    -0.000047497145    0.000014709009    0.015765341442    -0.064847750348    -0.000044623385    0.000031573468
            -0.000062666669    0.000021607439    0.033712249304    0.020259048223    -0.000044623405    0.000031573365    0.024951922558    0.006390349047
0.225     -0.012451556566    -0.063816480193    -0.000047649602    0.000028549165    0.002694848213    -0.042493841633    -0.000062659868    0.000040806045
            -0.000047649564    0.000028549255    0.016288983202    0.013453831863    -0.000047982884    0.000029525028    0.029234751447    0.021610956426
            0.002694850565    -0.042493843487    -0.000047982879    0.000029525117    -0.012214296413    -0.064709626176    -0.000043284463    0.000043780150
            -0.000062659867    0.000040806091    0.029234848509    0.021610905872    -0.000043284489    0.000043780100    0.016510733508    0.013979369777
0.250     -0.040526626190    -0.051498490975    -0.000043862966    0.000044434888    -0.020547771458    -0.037135441030    -0.000056373147    0.000061342608
            -0.000043862908    0.000044434968    0.009956264057    0.026096273035    -0.000043539746    0.000045630732    0.024678492381    0.026935299843
            -0.020547771942    -0.037135441905    -0.000043539763    0.000045630733    -0.040472393711    -0.052627380848    -0.000038102240    0.000057777070
            -0.000056373114    0.000061342701    0.024678582666    0.026935248317    -0.000038102298    0.000057776983    0.010348817202    0.026483461867
0.275     -0.063458849009    -0.027516500400    -0.000034324739    0.000060112884    -0.041432346291    -0.021377154959    -0.000042909143    0.000080922924
            -0.000034324676    0.000060112944    0.008300942368    0.042601116529    -0.000033294364    0.000061175760    0.022175407432    0.036060568346
            -0.041432341671    -0.021377161732    -0.000033294355    0.000061175795    -0.063685919786    -0.028824706014    -0.000027648496    0.000072010604
            -0.000042909148    0.000080922934    0.022175498273    0.036060510136    -0.000027648571    0.000072010536    0.008777216766    0.042776417003
0.300     -0.076342275730    0.005434944812    -0.000018865176    0.000073163322    -0.055393281254    0.003222320412    -0.000022404442    0.000096722462
            -0.000018865093    0.000073163370    0.012993598268    0.060753858344    -0.000017246281    0.000073767874    0.023583418187    0.047775615034
            -0.055393282252    0.003222320471    -0.000017246229    0.000073767941    -0.076926864088    0.004050374371    -0.000011470233    0.000084016796
            -0.000022404444    0.000096722474    0.023583501602    0.047775557130    -0.000011470314    0.000084016749    0.013436296812    0.060694636456
0.325     -0.075792468636    0.042631045915    0.000001411785    0.000081082460    -0.058913210676    0.033146608573    0.000003620564    0.000105958501
            0.000001411876    0.000081082491    0.024548325951    0.077697617521    0.000003366479    0.000081001083    0.029994261057    0.060077344987
            -0.058913211547    0.033146609063    0.000003366465    0.000081001097    -0.076766006133    0.041308211627    0.000009592765    0.000091236209
            0.000003620595    0.000105958540    0.029994344842    0.060077281919    0.000009592678    0.000091236178    0.024837316358    0.077442297859
0.350     -0.060757539580    0.078209728301    0.000024226702    0.000082093247    -0.050330397633    0.063620438488    0.000032438753    0.000106753964
            0.000024226789    0.000082093258    0.042129447984    0.090574362090    0.000026207310    0.000081243209    0.041450571291    0.070651045381
            -0.050330398253    0.063620439272    0.000026207295    0.000081243225    -0.062090733841    0.077101134111    0.000033385373    0.000091743589
            0.000032438744    0.000106753977    0.041450656910    0.070650976598    0.000033385279    0.000091743574    0.042173691614    0.090217716223
0.375     -0.032760277390    0.106338293951    0.000046688017    0.000075693283    -0.030165171813    0.089585010901    0.000060733739    0.000098643269
            0.000046688113    0.000075693278    0.063705811354    0.097145437306    0.000048399407    0.000074132241    0.056939048088    0.077396538537
            -0.030165187768    0.089585006584    0.000048399492    0.000074132272    -0.034358420715    0.105582613789    0.000057155483    0.000084885291
            0.000060733740    0.000098643293    0.056939124397    0.077396472467    0.000057155397    0.000084885301    0.063466746809    0.096818501110
0.400     0.004413459969    0.122313520080    0.000066110726    0.000062760343    -0.000958852874    0.106663760288    0.000085480814    0.000082651326
            0.000066110815    0.000062760320    0.086484265793    0.096259588590    0.000067335384    0.000060647483    0.074644842417    0.078871745330
            -0.000958854736    0.106663760271    0.000067335479    0.000060647498    0.002703009021    0.122007581854    0.000078249825    0.000071354581
            0.000085480806    0.000082651348    0.074644915366    0.078871690059    0.000078249746    0.000071354609    0.085987869827    0.096101382344
0.425     0.045452391048    0.123320064484    0.000080640518    0.000045155097    0.033265443038    0.111851403945    0.000104565717    0.000060832644
            0.000080640597    0.000045155062    0.107465997866    0.088024683152    0.000081260960    0.000042695091    0.092329855631    0.074523318827
            0.033265399347    0.111851385640    0.000081261056    0.000042695085    0.043821550725    0.123496440512    0.000094836762    0.000052788760
            0.000104565771    0.000060832651    0.092329920642    0.074523254204    0.000094836680    0.000052788803    0.106798891603    0.088152148691
0.450     0.084408358420    0.108783186439    0.000089546464    0.000025112338    0.067683082110    0.103886949026    0.000117077938    0.000035624148
            0.000089546532    0.000025112279    0.123980438348    0.073735565380    0.000089541333    0.000022497575    0.107736726656    0.064741758535
            0.067683080296    0.103886950207    0.000089541347    0.000022497592    0.083063686486    0.109394443056    0.000106090483    0.000031196709
            0.000117078029    0.000035624123    0.107736781556    0.064741686591    0.000106090413    0.000031196767    0.123273986186    0.074220071772
0.475     0.115539298849    0.080343511308    0.000093096532    0.000004625979    0.097324776562    0.083325351794    0.000123136501    0.000009204880
            0.000093096589    0.000004625913    0.134085954212    0.055609142023    0.000092505063    0.000001995399    0.118922031619    0.050763165372
            0.097324776562    0.083325351794    0.000092505086    0.000001995417    0.114676260150    0.081253605334    0.000112103631    0.000008322439
            0.000123136530    0.000009204897    0.118922085453    0.050763090201    0.000112103566    0.000008322500    0.133492540988    0.056462738317
0.500     0.134020298006    0.041611879960    0.000092298894    -0.000014987736    0.117664660980    0.052452023664    0.000123615657    -0.000016940166
            0.000092298939    -0.000014987810    0.136836546823    0.036444166728    0.000091187164    -0.000017579768    0.124535922892    0.034511846946
            0.117664660064    0.052452025718    0.000091187191    -0.000017579760    0.133809876912    0.042578703568    0.000113595920    -0.000014719813
            0.000123615750    -0.000016940225    0.124535984931    0.034511772859    0.000113595869    -0.000014719738    0.136504448863    0.037620247230
0.525     0.136513940149    -0.002220623554    0.000088402605    -0.000033202696    0.125217990566    0.015012408024    0.000119607078    -0.000042089814
            0.000088402631    -0.000033202776    0.132414894492    0.019235214030    0.000086885183    -0.000035845589    0.124046829498    0.018366092570
            0.125217990383    0.015012409554    0.000086885232    -0.000035845625    0.137240703286    -0.001681178938    0.000111517721    -0.000037616174
            0.000119607146    -0.000042089892    0.124046908052    0.018365971673    0.000111517696    -0.000037616090    0.132480124559    0.020638900715
0.550     0.121657647979    -0.044882008556    0.000082325510    -0.000050328208    0.117860662442    -0.022358158426    0.000111835506    -0.000066294294
            0.000082325519    -0.000050328289    0.122176436295    0.006771065801    0.000080451059    -0.000051898111    0.117928233858    0.004837963568
            0.117860662442    -0.022358158426    0.000080451167    -0.000051898083    0.123288391261    -0.042917504186    0.000106251567    -0.000058922167
            0.000111835529    -0.000066294294    0.117928277363    0.004837878968    0.000106251556    -0.000058922083    0.122768239433    0.008233782007
0.575     0.090469161206    -0.079663320719    0.000074250462    -0.000067206333    0.094764976869    -0.056556634099    0.000100326341    -0.000090011419
            0.000074250454    -0.000067206416    0.108568782250    0.001189659925    0.000071440868    -0.000068853020    0.107680831373    -0.003843964774
            0.094764976869    -0.056556634099    0.000071440902    -0.000068853119    0.092176886524    -0.079119013525    0.000096777102    -0.000082278700
            0.000100326368    -0.000090011434    0.107680896766    -0.003844095070    0.000096777121    -0.000082278708    0.109715122103    0.002432304404
0.600     0.046664496263    -0.100114466153    0.000063245333    -0.000084462236    0.059285847214    -0.079587685000    0.000084098370    -0.000113325274
            0.000063245303    -0.000084462309    0.094891296077    0.003509572542    0.000059775651    -0.000085782689    0.095770291858    -0.006133149376
            0.059285849604    -0.079587688208    0.000059775666    -0.000085782800    0.048770846174    -0.100912236159    0.000082957216    -0.000105713088
            0.000084098392    -0.000113325295    0.095770330127    -0.006133240277    0.000082957234    -0.000105713099    0.096440933798    0.004282137654
0.625     -0.002762827466    -0.102226181881    0.000047899450    -0.000101937115    0.016402488456    -0.087219167008    0.000062025683    -0.000135506859
            0.000047899420    -0.000101937140    0.084787083960    0.013225009700    0.000043488123    -0.000102592292    0.085342393151    -0.001710448640
            0.016402488826    -0.087219168974    0.000043488140    -0.000102592318    -0.001332940224    -0.104205295208    0.000062616795    -0.000128609585
            0.000062025696    -0.000135506875    0.085342425338    -0.001710539436    0.000062616815    -0.000128609609    0.086500255160    0.013394186282
0.650     -0.051141252295    -0.084621334830    0.000025908714    -0.000118104008    -0.027815747271    -0.077120124126    0.000032117266    -0.000154641660
            0.000025908697    -0.000118103950    0.081498612831    0.028150279315    0.000020877304    -0.000117407107    0.079533300225    0.008173603893
            -0.027815747271    -0.077120124126    0.000020877318    -0.000117407125    -0.050290817382    -0.087238237301    0.000034202552    -0.000148456186
            0.000032117232    -0.000154641697    0.079533325642    0.008173513080    0.000034202559    -0.000148456205    0.083105614607    0.027698248925
0.675     -0.089902124374    -0.048553863043    -0.000003337981    -0.000129159224    -0.065574931321    -0.049628141082    -0.000005629238    -0.000166504380
            -0.000003337984    -0.000129159194    0.087011864943    0.044694423640    -0.000008435675    -0.000126820323    0.080609427964    0.020815947786
            -0.065574934511    -0.049628143496    -0.000008435675    -0.000126820353    -0.089839083067    -0.051754469365    -0.000002261393    -0.000161298078
            -0.000005629232    -0.000166504400    0.080609461995    0.020815808002    -0.000002261388    -0.000161298099    0.088256238944    0.043720577309
0.700     -0.112157579238    0.000487797245    -0.000038006248    -0.000131157076    -0.090172129532    -0.008847429023    -0.000048638870    -0.000167111114
            -0.000038006295    -0.000131156979    0.101432668434    0.058625998651    -0.000042514436    -0.000127119322    0.089297941538    0.032677761030
            -0.090172129532    -0.008847429023    -0.000042514424    -0.000127119358    -0.113119725396    -0.003009066824    -0.000044249050    -0.000163100141
            -0.000048638873    -0.000167111123    0.089297960531    0.032677665480    -0.000044249024    -0.000163100159    0.102122064739    0.057333938023
0.725     -0.114154111321    0.054686504466    -0.000073968359    -0.000121448242    -0.097434952623    0.038700324574    -0.000092131285    -0.000154075362
            -0.000073968348    -0.000121448225    0.122871911772    0.066110709009    -0.000077233102    -0.000115964106    0.104554852857    0.040296861955
            -0.097434952623    0.038700324574    -0.000077233099    -0.000115964145    -0.116230897008    0.051294227050    -0.000087019705    -0.000151459851
            -0.000092131295    -0.000154075379    0.104554872690    0.040296727078    -0.000087019720    -0.000151459877    0.122920703112    0.064768707855
0.750     -0.095859192854    0.105602267728    -0.000106076029    -0.000099977108    -0.086443350891    0.085580668226    -0.000130521989    -0.000127810104
            -0.000106076024    -0.000099977069    0.147946320938    0.064628744595    -0.000107607977    -0.000093571637    0.123916939670    0.041148486198
            -0.086443350891    0.085580668226    -0.000107608007    -0.000093571663    -0.098962516283    0.102729271277    -0.000125065382    -0.000126754792
            -0.000130522032    -0.000127810146    0.123916957725    0.041148304898    -0.000125065417    -0.000126754828    0.147392178305    0.063515785420
0.775     -0.060611743640    0.145897369227    -0.000129918670    -0.000069277909    -0.059331824814    0.125018300320    -0.000159226002    -0.000091374357
            -0.000129919090    -0.000069277929    0.172634629420    0.053439546063    -0.000129504536    -0.000062629173    0.144190628464    0.034111729823
            -0.059331829484    0.125018253828    -0.000129504552    -0.000062629208    -0.064494258457    0.143892811872    -0.000153888200    -0.000091940665
            -0.000159226012    -0.000091374400    0.144190637188    0.034111649506    -0.000153887786    -0.000091940636    0.171627014928    0.052789894519
