# GHz S RI R 45
0.000     0.021904447000    0.000000000000    0.000000235195    -0.000000000000    0.000594206720    0.000000000000    -0.000016549029    0.000000000000
            0.000000235179    -0.000000000000    0.020502382000    0.000000000000    0.000005491794    -0.000000000000    0.000560917280    -0.000000000000
            0.000594203190    0.000000000000    0.000005491749    -0.000000000000    0.021864818000    0.000000000000    -0.000012201407    0.000000000000
            -0.000016549026    0.000000000000    0.000560937710    -0.000000000000    -0.000012201406    0.000000000000    0.020473078000    0.000000000000
0.025     0.029019958829    0.009585563579    -0.000000135602    -0.000001257709    0.004106867456    0.011510145521    0.000004060486    0.000008758786
            -0.000000135622    -0.000001257708    0.026849876425    0.007698373240    -0.000002972644    -0.000005291780    0.003399639900    0.009431216544
            0.004106848022    0.011510197048    -0.000002972684    -0.000005291747    0.028962665628    0.009575651188    0.000000966453    0.000004740025
            0.000004060496    0.000008758783    0.003399641942    0.009431258328    0.000000966445    0.000004740026    0.026787163762    0.007670584761
0.050     0.038864495109    0.011450090342    -0.000001441982    -0.000002187844    0.013249426172    0.019304625622    0.000005744207    -0.000002973051
            -0.000001441996    -0.000002187833    0.035445142390    0.008795375799    -0.000006209750    -0.000001782324    0.011057482065    0.016032862034
            0.013249414176    0.019304639919    -0.000006209790    -0.000001782291    0.038832513318    0.011454820641    0.000000389372    -0.000003232274
            0.000005744221    -0.000002973063    0.011057487966    0.016032861609    0.000000389373    -0.000003232277    0.035376669366    0.008772805165
0.075     0.049479914398    0.006941112211    -0.000003377003    -0.000002117019    0.025393768018    0.021004730920    -0.000000815578    -0.000007665010
            -0.000003377010    -0.000002117005    0.045002788347    0.004599508263    -0.000006801670    0.000000979073    0.021563679070    0.017757460020
            0.025393760648    0.021004738260    -0.000006801697    0.000000979120    0.049503637331    0.006939794094    -0.000005700984    -0.000005252973
            -0.000000815573    -0.000007665019    0.021563683578    0.017757446680    -0.000005700989    -0.000005252968    0.044948673163    0.004590534687
0.100     0.057590327470    -0.004188944322    -0.000005311446    -0.000000830261    0.037107222641    0.015736730063    -0.000007971168    -0.000005906679
            -0.000005311448    -0.000000830238    0.052982488702    -0.005290030247    -0.000006614534    0.000003414093    0.032295110609    0.013724861684
            0.037107223658    0.015736732787    -0.000006614545    0.000003414144    0.057690836392    -0.004225193494    -0.000011515048    -0.000001750472
            -0.000007971164    -0.000005906698    0.032295115715    0.013724844556    -0.000011515051    -0.000001750466    0.052970438659    -0.005281453774
0.125     0.059749440382    -0.020425039634    -0.000006595077    0.000001634901    0.044891114901    0.004336641811    -0.000012161120    0.000000080606
            -0.000006595074    0.000001634920    0.056559782008    -0.019996986397    -0.000005827189    0.000005800092    0.040490898749    0.004289993246
            0.044891116702    0.004336643962    -0.000005827176    0.000005800137    0.059935962796    -0.020548329150    -0.000014024547    0.000005265291
            -0.000012161123    0.000000080591    0.040490897690    0.004289974768    -0.000014024548    0.000005265300    0.056627378216    -0.019969416819
0.150     0.053680403525    -0.038588740522    -0.000006612751    0.000004912381    0.045957153756    -0.010842796492    -0.000011961734    0.000007708044
            -0.000006612746    0.000004912396    0.053682650993    -0.037248735911    -0.000004242432    0.000008146401    0.043784066822    -0.009055960126
            0.045957156081    -0.010842795347    -0.000004242403    0.000008146446    0.053949282052    -0.038836587620    -0.000012006725    0.000013272130
            -0.000011961740    0.000007708033    0.043784059270    -0.009055976892    -0.000012006726    0.000013272135    0.053860913927    -0.037238362005
0.175     0.038524409049    -0.054606924297    -0.000004949534    0.000008340328    0.038814864496    -0.026299138447    -0.000007419655    0.000014264723
            -0.000004949521    0.000008340342    0.043184244893    -0.054048269754    -0.000001655064    0.000010186018    0.040618913900    -0.023866933752
            0.038814867070    -0.026299138214    -0.000001655023    0.000010186050    0.038847509294    -0.055030874676    -0.000005658666    0.000019636007
            -0.000007419661    0.000014264717    0.040618901287    -0.023866947322    -0.000005658661    0.000019636015    0.043498579054    -0.054103537181
0.200     0.015443976759    -0.064201598837    -0.000001539133    0.000011052983    0.023702231730    -0.038061693516    0.000000215552    0.000017723561
            -0.000001539119    0.000011052993    0.025348638892    -0.067003066093    0.000001972936    0.000011399916    0.030603415953    -0.037174079348
            0.023702234116    -0.038061694386    0.000001972976    0.000011399927    0.015765341442    -0.064847750348    0.000003631972    0.000022369428
            0.000000215542    0.000017723558    0.030603399136    -0.037174088011    0.000003631969    0.000022369429    0.025804153135    -0.067188778577
0.225     -0.012451556566    -0.063816480193    0.000003241520    0.000012179813    0.002694848213    -0.042493841633    0.000008915662    0.000016958317
            0.000003241536    0.000012179818    0.001930573042    -0.072980522486    0.000006380459    0.000011211769    0.014650627927    -0.046001003564
            0.002694850565    -0.042493843487    0.000006380505    0.000011211765    -0.012214296413    -0.064709626176    0.000013718902    0.000020404646
            0.000008915647    0.000016958317    0.014650609354    -0.046001006330    0.000013718901    0.000020404649    0.002500556684    -0.073367564643
0.250     -0.040526626190    -0.051498490975    0.000008580897    0.000011072815    -0.020547771458    -0.037135441030    0.000016505566    0.000011992393
            0.000008580923    0.000011072811    -0.024025319261    -0.069731140660    0.000010929655    0.000009153799    -0.005090978035    -0.047920695203
            -0.020547771942    -0.037135441905    0.000010929700    0.000009153779    -0.040472393711    -0.052627380848    0.000022301039    0.000013845796
            0.000016505566    0.000011992393    -0.005090996224    -0.047920691259    0.000022301039    0.000013845798    -0.023401884763    -0.070380567228
0.275     -0.063458849009    -0.027516500400    0.000013381151    0.000007526732    -0.041432346291    -0.021377154959    0.000021095460    0.000003869908
            0.000013381168    0.000007526723    -0.048635790939    -0.056381383230    0.000014749729    0.000005097398    -0.025539676761    -0.041545632909
            -0.041432341671    -0.021377161732    0.000014749765    0.000005097365    -0.063685919786    -0.028824706014    0.000027379761    0.000003844141
            0.000021095460    0.000003869909    -0.025539691787    -0.041545624845    0.000027379761    0.000003844143    -0.048049445416    -0.057327645573
0.300     -0.076342275730    0.005434944812    0.000016511410    0.000001895006    -0.055393281254    0.003222320412    0.000021583404    -0.000005659291
            0.000016511430    0.000001894987    -0.067809052309    -0.033735025574    0.000016898547    -0.000000617388    -0.043184201009    -0.026872018225
            -0.055393282252    0.003222320471    0.000016898565    -0.000000617436    -0.076926864088    0.004050374371    0.000027764539    -0.000007700111
            0.000021583404    -0.000005659292    -0.043184212937    -0.026872004736    0.000027764541    -0.000007700110    -0.067367583368    -0.034972727378
0.325     -0.075792468636    0.042631045915    0.000017098179    -0.000004950234    -0.058913210676    0.033146608573    0.000017807454    -0.000014561284
            0.000017098189    -0.000004950250    -0.077966658864    -0.004257421225    0.000016658260    -0.000007213471    -0.054697598123    -0.005371474012
            -0.058913211547    0.033146609063    0.000016658264    -0.000007213516    -0.076766006133    0.041308211627    0.000023243125    -0.000018574308
            0.000017807453    -0.000014561285    -0.054697605969    -0.005371455505    0.000023243140    -0.000018574351    -0.077776167456    -0.005733811885
0.350     -0.060757539580    0.078209728301    0.000014751794    -0.000011807840    -0.050330397633    0.063620438488    0.000010540579    -0.000021054271
            0.000014751797    -0.000011807859    -0.076721727248    0.028238072992    0.000013721963    -0.000013608407    -0.057557440585    0.020190326089
            -0.050330398253    0.063620439272    0.000013721957    -0.000013608407    -0.062090733841    0.077101134111    0.000014597020    -0.000026789984
            0.000010540578    -0.000021054273    -0.057557440585    0.020190326089    0.000014597017    -0.000026790073    -0.076865420344    0.026621485507
0.375     -0.032760277390    0.106338293951    0.000009653879    -0.000017419431    -0.030165171813    0.089585010901    0.000001219386    -0.000023931056
            0.000009653846    -0.000017419515    -0.063346768875    0.059181009338    0.000008288214    -0.000018680275    -0.050514956287    0.046187676939
            -0.030165187768    0.089585006584    0.000008288189    -0.000018680315    -0.034358420715    0.105582613789    0.000003335312    -0.000030930417
            0.000001219384    -0.000023931056    -0.050514956287    0.046187676939    0.000003335315    -0.000030930418    -0.063865534890    0.057557001724
0.400     0.004413459969    0.122313520080    0.000002497947    -0.000020729765    -0.000958852874    0.106663760288    -0.000008450208    -0.000022774797
            0.000002497888    -0.000020729832    -0.038965507370    0.083977694163    0.000001015495    -0.000021476666    -0.033845694709    0.068729595707
            -0.000958854736    0.106663760271    0.000001015491    -0.000021476660    0.002703009021    0.122007581854    -0.000008685856    -0.000030388280
            -0.000008450212    -0.000022774796    -0.033845642175    0.068729670624    -0.000008685851    -0.000030388282    -0.039844468180    0.082494467822
0.425     0.045452391048    0.123320064484    -0.000005670866    -0.000021059921    0.033265443038    0.111851403945    -0.000016833710    -0.000017893497
            -0.000005670905    -0.000021059946    -0.006408606898    0.098740014937    -0.000007126215    -0.000021386084    -0.009317184635    0.084275786399
            0.033265399347    0.111851385640    -0.000007126256    -0.000021386096    0.043821550725    0.123496440512    -0.000019616399    -0.000025326848
            -0.000016833673    -0.000017893476    -0.009317150390    0.084275813325    -0.000019616397    -0.000025326854    -0.007572540966    0.097537305505
0.450     0.084408358420    0.108783186439    -0.000013649844    -0.000018182628    0.067683082110    0.103886949026    -0.000022662404    -0.000010156998
            -0.000013649841    -0.000018182631    0.030191930357    0.100889461586    -0.000015012475    -0.000018196966    0.020070462741    0.090181544338
            0.067683080296    0.103886950207    -0.000015012477    -0.000018196955    0.083063686486    0.109394443056    -0.000027916056    -0.000016546826
            -0.000022662400    -0.000010157002    0.020070546711    0.090181572776    -0.000027916058    -0.000016546834    0.028873553861    0.100074485820
0.475     0.115539298849    0.080343511308    -0.000020249609    -0.000012336652    0.097324776562    0.083325351794    -0.000025132808    -0.000000794160
            -0.000020249611    -0.000012336658    0.065991210867    0.089529449289    -0.000021524471    -0.000012120562    0.050512560334    0.085067841813
            0.097324776562    0.083325351794    -0.000021524509    -0.000012120549    0.114676260150    0.081253605334    -0.000032484162    -0.000005299589
            -0.000025132810    -0.000000794164    0.050512648637    0.085067841715    -0.000032484165    -0.000005299596    0.064689522423    0.089155878384
0.500     0.134020298006    0.041611879960    -0.000024380550    -0.000004180750    0.117664660980    0.052452023664    -0.000023908391    0.000008824547
            -0.000024380555    -0.000004180755    0.096091004248    0.065582632771    -0.000025605643    -0.000003759758    0.077910777520    0.069020859185
            0.117664660064    0.052452025718    -0.000025605709    -0.000003759703    0.133809876912    0.042578703568    -0.000032690182    0.000006916323
            -0.000023908389    0.000008824547    0.077910777520    0.069020859185    -0.000032690266    0.000006916365    0.094997347967    0.065636678285
0.525     0.136513940149    -0.002220623554    -0.000025218063    0.000005311549    0.125217990566    0.015012408024    -0.000019130759    0.000017366801
            -0.000025218069    0.000005311546    0.116179421912    0.031686641692    -0.000026447855    0.000006001481    0.098392120693    0.043597065806
            0.125217990383    0.015012409554    -0.000026447847    0.000006001479    0.137240703286    -0.001681178938    -0.000028434538    0.000018570417
            -0.000019130759    0.000017366801    0.098392188461    0.043597011603    -0.000028434539    0.000018570418    0.115479269045    0.032081497791
0.550     0.121657647979    -0.044882008556    -0.000022323018    0.000014851255    0.117860662442    -0.022358158426    -0.000011392748    0.000023607196
            -0.000022323055    0.000014851336    0.123098105465    -0.008102704724    -0.000023559644    0.000015594569    0.108812353442    0.011678331471
            0.117860662442    -0.022358158426    -0.000023559636    0.000015594569    0.123288391261    -0.042917504186    -0.000020302053    0.000027833685
            -0.000011392748    0.000023607195    0.108812353442    0.011678331471    -0.000020302055    0.000027833689    0.122943171565    -0.007523065832
0.575     0.090469161206    -0.079663320719    -0.000015751520    0.000022960706    0.094764976869    -0.056556634099    -0.000001699142    0.000026545605
            -0.000015751524    0.000022960712    0.115280012021    -0.048774188125    -0.000016790137    0.000024174737    0.107180954374    -0.022826700601
            0.094764976869    -0.056556634099    -0.000016790128    0.000024174777    0.092176886524    -0.079119013525    -0.000008827143    0.000033785193
            -0.000001699146    0.000026545607    0.107180954374    -0.022826700601    -0.000008827156    0.000033785242    0.115760385694    -0.048220168767
0.600     0.046664496263    -0.100114466153    -0.000006167706    0.000028132063    0.059285847214    -0.079587685000    0.000008578453    0.000025526480
            -0.000006167707    0.000028132067    0.093034214221    -0.084954508078    -0.000006932669    0.000029819447    0.093006225227    -0.055419208838
            0.059285849604    -0.079587688208    -0.000006932632    0.000029819524    0.048770846174    -0.100912236159    0.000004164654    0.000035156392
            0.000008578454    0.000025526479    0.093006225227    -0.055419208838    0.000004164674    0.000035156481    0.094154928785    -0.084668337341
0.625     -0.002762827466    -0.102226181881    0.000005015372    0.000029267782    0.016402488456    -0.087219167008    0.000017761483    0.000020614837
            0.000005015371    0.000029267791    0.058617833169    -0.111588767269    0.000004827228    0.000031340639    0.067473446757    -0.081564096323
            0.016402488826    -0.087219168974    0.000004827230    0.000031340630    -0.001332940224    -0.104205295208    0.000016930214    0.000031544575
            0.000017761457    0.000020614804    0.067473446757    -0.081564096323    0.000016930211    0.000031544578    0.060287261020    -0.111814119584
0.650     -0.051141252295    -0.084621334830    0.000016170531    0.000025860140    -0.027815747271    -0.077120124126    0.000024484114    0.000012404715
            0.000016170607    0.000025860194    0.016064555750    -0.124660954625    0.000016689130    0.000028091271    0.033428209327    -0.097336328231
            -0.027815747271    -0.077120124126    0.000016689127    0.000028091264    -0.050290817382    -0.087238237301    0.000027528946    0.000023310422
            0.000024484113    0.000012404719    0.033428209327    -0.097336328231    0.000027528949    0.000023310426    0.018096058989    -0.125604752329
0.675     -0.089902124374    -0.048553863043    0.000025285896    0.000018138420    -0.065574931321    -0.049628141082    0.000027443463    0.000002122857
            0.000025285944    0.000018138436    -0.029265846107    -0.121835446044    0.000026624377    0.000020280629    -0.004908666949    -0.100044050379
            -0.065574934511    -0.049628143496    0.000026624372    0.000020280620    -0.089839083067    -0.051754469365    0.000034264418    0.000011633633
            0.000027443425    0.000002122849    -0.004908666949    -0.100044050379    0.000034264420    0.000011633640    -0.027135994571    -0.123630523825
0.700     -0.112157579238    0.000487797245    0.000030688103    0.000007320407    -0.090172129532    -0.008847429023    0.000026100470    -0.000008460168
            0.000030688111    0.000007320411    -0.071397934412    -0.102915248142    0.000032855835    0.000009041316    -0.042489221950    -0.088742773024
            -0.090172129532    -0.008847429023    0.000032855826    0.000009041316    -0.113119725396    -0.003009066824    0.000036092829    -0.000001668254
            0.000026100477    -0.000008460164    -0.042489221950    -0.088742773024    0.000036092840    -0.000001668252    -0.069477136497    -0.105589783708
0.725     -0.114154111321    0.054686504466    0.000031445670    -0.000004768907    -0.097434952623    0.038700324574    0.000020778875    -0.000017537461
            0.000031445712    -0.000004768923    -0.104613700008    -0.069975854653    0.000034299046    -0.000003816495    -0.074179969640    -0.064469913278
            -0.097434952623    0.038700324574    0.000034299116    -0.000003816533    -0.116230897008    0.051294227050    0.000032859756    -0.000014528284
            0.000020778870    -0.000017537461    -0.074179969640    -0.064469913278    0.000032859759    -0.000014528282    -0.103210373309    -0.073438437828
0.750     -0.095859192854    0.105602267728    0.000027541067    -0.000016146936    -0.086443350891    0.085580668226    0.000012547164    -0.000023693698
            0.000027541072    -0.000016146939    -0.124345849927    -0.027119827775    0.000030783821    -0.000016247529    -0.095577443611    -0.030153261078
            -0.086443350891    0.085580668226    0.000030783808    -0.000016247525    -0.098962516283    0.102729271277    0.000025276745    -0.000025092117
            0.000012547158    -0.000023693695    -0.095577443611    -0.030153261078    0.000025276749    -0.000025092117    -0.123720184847    -0.031164894322
0.775     -0.060611743640    0.145897369227    0.000019763790    -0.000025122156    -0.059331824814    0.125018300320    0.000002903247    -0.000026180979
            0.000019763792    -0.000025122159    -0.127884871335    0.020131279875    0.000022982916    -0.000026431684    -0.103690417240    0.009834406314
            -0.059331829484    0.125018253828    0.000022982908    -0.000026431678    -0.064494258457    0.143892811872    0.000014666958    -0.000032057218
