# GHz S RI R 45
0.000     0.021904447000    0.000000000000    0.977647190000    -0.000000000000    0.000594206720    0.000000000000    -0.000762878700    0.000000000000
            0.977647190000    -0.000000000000    0.021717670000    0.000000000000    -0.000764179850    0.000000000000    0.000387193020    0.000000000000
            0.000594203190    0.000000000000    -0.000764153550    0.000000000000    0.021864818000    0.000000000000    0.977670580000    -0.000000000000
            -0.000762851400    0.000000000000    0.000387191930    0.000000000000    0.977670580000    -0.000000000000    0.021672146000    0.000000000000
0.025     0.029019958829    0.009585563579    0.949663809999    -0.216309120988    0.004106867456    0.011510145521    -0.001389298150    -0.002209415505
            0.949663809999    -0.216309120988    0.027117510535    0.009986366352    -0.001385903874    -0.002206383090    0.002581201178    0.012009816924
            0.004106848022    0.011510197048    -0.001385875741    -0.002206452012    0.028962665628    0.009575651188    0.949802866955    -0.215970598538
            -0.001389370811    -0.002209492550    0.002581077621    0.012009651186    0.949802866955    -0.215970598538    0.027026440580    0.009988775416
0.050     0.038864495109    0.011450090342    0.876851651808    -0.417251510236    0.013249426172    0.019304625622    -0.003192187604    -0.003805033330
            0.876851651808    -0.417251510236    0.032674081550    0.014353405583    -0.003185514558    -0.003803280393    0.008155364619    0.022035942846
            0.013249414176    0.019304639919    -0.003185490019    -0.003803299642    0.038832513318    0.011454820641    0.877211110686    -0.416660057550
            -0.003192163482    -0.003805054480    0.008155394618    0.022035931744    0.877211110686    -0.416660057550    0.032541701413    0.014402530307
0.075     0.049479914398    0.006941112211    0.762860834393    -0.596591643416    0.025393768018    0.021004730920    -0.005579825785    -0.004348139657
            0.762860834393    -0.596591643416    0.037822208220    0.015924557304    -0.005569558234    -0.004347775757    0.015824862903    0.029078851866
            0.025393760648    0.021004738260    -0.005569533844    -0.004347792699    0.049503637331    0.006939794094    0.763543484763    -0.595833221988
            -0.005579802384    -0.004348155857    0.015824867919    0.029078851414    0.763543484763    -0.595833221988    0.037654207437    0.016054402796
0.100     0.057590327470    -0.004188944322    0.613393298323    -0.746147727059    0.037107222641    0.015736730063    -0.008046906821    -0.003910480405
            0.613393298323    -0.746147727059    0.041433308057    0.015129617677    -0.008031064962    -0.003913927522    0.024034112008    0.032753381755
            0.037107223658    0.015736732787    -0.008031044666    -0.003913948853    0.057690836392    -0.004225193494    0.614477045152    -0.745343131691
            -0.008046888690    -0.003910502844    0.024034110273    0.032753381788    0.614477045152    -0.745343131691    0.041255962430    0.015375014269
0.125     0.059749440382    -0.020425039634    0.435682388997    -0.859255655228    0.044891114901    0.004336641811    -0.010345157741    -0.002717668340
            0.435682388997    -0.859255655228    0.042372530769    0.013125430252    -0.010328748273    -0.002744617476    0.031281800670    0.033432291308
            0.044891116702    0.004336643962    -0.010328733356    -0.002744642462    0.059935962796    -0.020548329150    0.437208620918    -0.858551709933
            -0.010345144804    -0.002717690034    0.031281799403    0.033432291124    0.437208620918    -0.858551709933    0.042241195834    0.013499729801
0.150     0.053680403525    -0.038588740522    0.238437701028    -0.930941681363    0.045957153756    -0.010842796492    -0.012443494308    -0.000907908741
            0.238437701028    -0.930941681363    0.040388192563    0.011404234488    -0.012437285382    -0.000960204679    0.036359691702    0.032096575058
            0.045957156081    -0.010842795347    -0.012437275395    -0.000960230111    0.053949282052    -0.038836587620    0.240399969379    -0.930496804781
            -0.012443483430    -0.000907934147    0.036359690392    0.032096575031    0.240399969379    -0.930496804781    0.040352301177    0.011902142621
0.175     0.038524409049    -0.054606924297    0.030927751934    -0.958155350285    0.038814864496    -0.026299138447    -0.014382979990    0.001545207108
            0.030927751934    -0.958155350285    0.035762682185    0.011599125264    -0.014399981015    0.001468897732    0.038690401043    0.030206140174
            0.038814867070    -0.026299138214    -0.014399976871    0.001468869375    0.038847509294    -0.055030874676    0.033272285320    -0.958127951573
            -0.014382975003    0.001545178640    0.038690408941    0.030206136558    0.033272285320    -0.958127951573    0.035876564007    0.012188004095
0.200     0.015443976759    -0.064201598837    -0.177109357464    -0.939724919585    0.023702231730    -0.038061693516    -0.016090908704    0.004859909163
            -0.177109357464    -0.939724919585    0.029579167372    0.015147738060    -0.016145664720    0.004766852635    0.038468232757    0.029340265948
            0.023702234116    -0.038061694386    -0.016145665494    0.004766825291    0.015765341442    -0.064847750348    -0.174483586464    -0.940263253420
            -0.016090910485    0.004859879055    0.038468230655    0.029340265407    -0.174483586464    -0.940263253420    0.029881981882    0.015766180327
0.225     -0.012451556566    -0.063816480193    -0.375732491371    -0.876509311355    0.002694848213    -0.042493841633    -0.017205757215    0.009300130144
            -0.375732491371    -0.876509311355    0.023607136644    0.022877628397    -0.017311101474    0.009205530099    0.036647876570    0.030814464983
            0.002694850565    -0.042493843487    -0.017311108146    0.009205502642    -0.012214296413    -0.064709626176    -0.372977163188    -0.877733417166
            -0.017205764043    0.009300102791    0.036647873963    0.030814464975    -0.372977163188    -0.877733417166    0.024107128298    0.023445297106
0.250     -0.040526626190    -0.051498490975    -0.555221206631    -0.771590820852    -0.020547771458    -0.037135441030    -0.017054948680    0.014915862889
            -0.555221206631    -0.771590820852    0.019952688602    0.034715359749    -0.017217061281    0.014842417198    0.034751071742    0.035339271252
            -0.020547771942    -0.037135441905    -0.017217070446    0.014842398909    -0.040472393711    -0.052627380848    -0.552527528301    -0.773578154844
            -0.017054957933    0.014915844715    0.034751069106    0.035339271040    -0.552527528301    -0.773578154844    0.020618599054    0.035150213443
0.275     -0.063458849009    -0.027516500400    -0.706661179140    -0.630333095573    -0.041432346291    -0.021377154959    -0.014831896618    0.021296516077
            -0.706661179140    -0.630333095573    0.020589128938    0.049552219043    -0.015046202724    0.021270761967    0.034511467875    0.042787991232
            -0.041432341671    -0.021377161732    -0.015046217244    0.021270743122    -0.063685919786    -0.028824706014    -0.704248425064    -0.633109518916
            -0.014831913776    0.021296493160    0.034511468622    0.042787990630    -0.704248425064    -0.633109518916    0.021350982440    0.049790893005
0.300     -0.076342275730    0.005434944812    -0.822650473503    -0.460208598179    -0.055393281254    0.003222320412    -0.009939559066    0.027493856433
            -0.822650473503    -0.460208598179    0.026848405469    0.065401370175    -0.010189315706    0.027539966733    0.037437084202    0.052183503664
            -0.055393282252    0.003222320471    -0.010189336269    0.027539948462    -0.076926864088    0.004050374371    -0.820749748042    -0.463726474886
            -0.009939579659    0.027493838355    0.037437081469    0.052183505624    -0.820749748042    -0.463726474886    0.027610569976    0.065417483234
0.325     -0.075792468636    0.042631045915    -0.897923977385    -0.270282557336    -0.058913210676    0.033146608573    -0.002341973022    0.032194247894
            -0.897923977385    -0.270282557336    0.039040815375    0.079772796463    -0.002600722055    0.032327781601    0.044408734014    0.061902078042
            -0.058913211547    0.033146609063    -0.002600746483    0.032327767597    -0.076766006133    0.041308211627    -0.896753901114    -0.274429618342
            -0.002341993649    0.032194236367    0.044408730275    0.061902081955    -0.896753901114    -0.274429618342    0.039700576471    0.079586963981
0.350     -0.060757539580    0.078209728301    -0.929753922105    -0.070454280261    -0.050330397633    0.063620438488    0.007252815538    0.034113950487
            -0.929753922105    -0.070454280261    0.056316955351    0.090232648102    0.007014712130    0.034338902915    0.055454940557    0.070070307580
            -0.050330398253    0.063620439272    0.007014694147    0.034338897403    -0.062090733841    0.077101134111    -0.929497242220    -0.075052048312
            0.007252797383    0.034113944123    0.055454938731    0.070070310300    -0.929497242220    -0.075052048312    0.056789138643    0.089912011479
0.375     -0.032760277390    0.106338293951    -0.917944009824    0.129387017466    -0.030165171813    0.089585010901    0.017493882831    0.032442384224
            -0.917944009824    0.129387017466    0.076820037047    0.094926541128    0.017302404433    0.032753052076    0.069745206845    0.074989413746
            -0.030165187768    0.089585006584    0.017302376951    0.032753048498    -0.034358420715    0.105582613789    -0.918731327419    0.124560580865
            0.017493854853    0.032442381133    0.069745211037    0.074989423503    -0.918731327419    0.124560580865    0.077056094526    0.094572304805
0.400     0.004413459969    0.122313520080    -0.864516195254    0.320070104845    -0.000958852874    0.106663760288    0.026749624855    0.027153389136
            -0.864516195254    0.320070104845    0.098077724440    0.092972001648    0.026622638952    0.027541695117    0.085803040820    0.075498927159
            -0.000958854736    0.106663760271    0.026622620517    0.027541696246    0.002703009021    0.122007581854    -0.866416700437    0.315267006602
            0.026749597058    0.027153391253    0.085803038184    0.075498930154    -0.866416700437    0.315267006602    0.098078105521    0.092700183464
0.425     0.045452391048    0.123320064484    -0.773185995558    0.493566213979    0.033265443038    0.111851403945    0.033581888273    0.019040956478
            -0.773185995558    0.493566213979    0.117487764506    0.084587839515    0.033530764618    0.019508008767    0.101811301682    0.071160279131
            0.033265399347    0.111851385640    0.033530736278    0.019508019695    0.043821550725    0.123496440512    -0.776206025810    0.489047878012
            0.033581864717    0.019040965583    0.101811300440    0.071160280908    -0.776206025810    0.489047878012    0.117304123796    0.084506624350
0.450     0.084408358420    0.108783186439    -0.648840447779    0.643134107630    0.067683082110    0.103886949026    0.037160358436    0.009485361493
            -0.648840447779    0.643134107630    0.132788621667    0.071015037941    0.037200819303    0.010057956748    0.115948000018    0.062301342444
            0.067683080296    0.103886950207    0.037200794116    0.010057969446    0.083063686486    0.109394443056    -0.652927731189    0.639155251481
            0.037160333453    0.009485374459    0.115947998930    0.062301344468    -0.652927731189    0.639155251481    0.132515505342    0.071204496680
0.475     0.115539298849    0.080343511308    -0.497147131221    0.763238736114    0.097324776562    0.083325351794    0.037470179562    0.000032893908
            -0.497147131221    0.763238736114    0.142403170646    0.054260524582    0.037650349278    0.000794019253    0.126655357353    0.049927271434
            0.097324776562    0.083325351794    0.037650349278    0.000794019253    0.114676260150    0.081253605334    -0.502200388466    0.760040622864
            0.037470179562    0.000032893908    0.126655357353    0.049927271434    -0.502200388466    0.760040622864    0.142164077396    0.054759998956
0.500     0.134020298006    0.041611879960    -0.324364914401    0.849407727292    0.117664660980    0.052452023664    0.035268274816    -0.008066529916
            -0.324364914401    0.849407727292    0.145660080014    0.036771209935    0.035753481212    -0.006867243345    0.132867534112    0.035579474609
            0.117664660064    0.052452025718    0.035753481212    -0.006867243345    0.133809876912    0.042578703568    -0.330230970986    0.847204853918
            0.035268215761    -0.008066460702    0.132867543150    0.035579479514    -0.330230970986    0.847204853918    0.145589068455    0.037577760320
0.525     0.136513940149    -0.002220623554    -0.137322912646    0.898114049249    0.125217990566    0.015012408024    0.031792635650    -0.014230206313
            -0.137322912646    0.898114049249    0.142876494958    0.021010864256    0.033228792225    -0.011168110120    0.134170413039    0.021097417518
            0.125217990383    0.015012409554    0.033228769548    -0.011168070870    0.137240703286    -0.001681178938    -0.143780897191    0.897066924109
            0.031792613719    -0.014230167190    0.134170422623    0.021097420944    -0.143780897191    0.897066924109    0.143099777282    0.022149754234
0.550     0.121657647979    -0.044882008556    0.056518606413    0.906752602820    0.117860662442    -0.022358158426    0.028342129752    -0.018793306569
            0.056518606413    0.906752602820    0.135888456194    0.009743450830    0.021329144002    -0.017917298599    0.131278385513    0.008756523914
            0.117860662442    -0.022358158426    0.021329143549    -0.017917297583    0.123288391261    -0.042917504186    0.049774585312    0.907361838756
            0.028342129247    -0.018793305522    0.131278385513    0.008756523914    0.049774585312    0.907361838756    0.135979319270    0.010673289319
0.575     0.090469161206    -0.079663320719    0.248900661423    0.874105953782    0.094764976869    -0.056556634099    0.025731988190    -0.022777768493
            0.248900661423    0.874105953782    0.125632616570    0.003883346005    0.022916399197    -0.022402240821    0.124630908616    -0.000088447050
            0.094764976869    -0.056556634099    0.022916399197    -0.022402240821    0.092176886524    -0.079119013525    0.241983163826    0.876138759596
            0.025731988190    -0.022777768493    0.124630908616    -0.000088447050    0.241983163826    0.876138759596    0.126358586103    0.004807834870
0.600     0.046664496263    -0.100114466153    0.430850840529    0.800400620922    0.059285847214    -0.079587685000    0.023122238233    -0.028194307201
            0.430850840529    0.800400620922    0.115874879086    0.004322432157    0.021510543709    -0.026155063063    0.116853307561    -0.004135120527
            0.059285849604    -0.079587688208    0.021510550631    -0.026154971917    0.048770846174    -0.100912236159    0.424219947736    0.803970937289
            0.023122238233    -0.028194307201    0.116853307575    -0.004135120119    0.424219947736    0.803970937289    0.117011968936    0.005171186235
0.625     -0.002762827466    -0.102226181881    0.593139460057    0.688137045207    0.016402488456    -0.087219167008    0.018517134269    -0.032718907488
            0.593139460057    0.688137045207    0.109311758026    0.010431887073    0.019331077268    -0.031395192723    0.110212465701    -0.003390992168
            0.016402488826    -0.087219168974    0.019331090604    -0.031395148107    -0.001332940224    -0.104205295208    0.587099541343    0.693246386761
            0.018517134269    -0.032718907488    0.110212465713    -0.003390991783    0.587099541343    0.693246386761    0.110825363175    0.010853963727
0.650     -0.051141252295    -0.084621334830    0.726769461604    0.542269264167    -0.027815747271    -0.077120124126    0.014406469245    -0.038452879494
            0.726769461604    0.542269264167    0.108405319658    0.020235008809    0.015149935861    -0.038105539871    0.106853874830    0.001285739359
            -0.027815747271    -0.077120124126    0.015149936526    -0.038105539606    -0.050290817382    -0.087238237301    0.721770318262    0.548870065900
            0.014406469245    -0.038452879494    0.106853874830    0.001285739340    0.721770318262    0.548870065900    0.109924861976    0.020194700903
0.675     -0.089902124374    -0.048553863043    0.824183140912    0.370508583449    -0.065574931321    -0.049628141082    0.006957123520    -0.045164263273
            0.824183140912    0.370508583449    0.114515060169    0.030712819692    0.007567542427    -0.045121739775    0.108544131838    0.007818177102
            -0.065574934511    -0.049628143496    0.007567600065    -0.045121668257    -0.089839083067    -0.051754469365    0.820627813927    0.378345916460
            0.006957123520    -0.045164263273    0.108544131565    0.007818180891    0.820627813927    0.378345916460    0.115881110107    0.030293451536
0.700     -0.112157579238    0.000487797245    0.880319995886    0.182522747050    -0.090172129532    -0.008847429023    -0.004460897439    -0.050194591264
            0.880319995886    0.182522747050    0.127470851059    0.038456689303    -0.003935910471    -0.050345028122    0.115742330207    0.013497499053
            -0.090172129532    -0.008847429023    -0.003935910471    -0.050345028122    -0.113119725396    -0.003009066824    0.878521681765    0.191239516337
            -0.004460897439    -0.050194591264    0.115742330207    0.013497499053    0.878521681765    0.191239516337    0.128551105132    0.037767719767
0.725     -0.114154111321    0.054686504466    0.893197722567    -0.011099903852    -0.097434952623    0.038700324574    -0.018927153502    -0.051192471908
            0.893197722584    -0.011099902449    0.145525527730    0.040474381497    -0.018506022914    -0.051499789296    0.127569209018    0.015730006677
            -0.097434952623    0.038700324574    -0.018505984789    -0.051499767930    -0.116230897008    0.051294227050    0.893363915446    -0.001943742845
            -0.018927153502    -0.051192471908    0.127569208607    0.015730010016    0.893363915446    -0.001943742845    0.146242118198    0.039673234387
0.750     -0.095859192854    0.105602267728    0.863911284021    -0.200135910627    -0.086443350891    0.085580668226    -0.034305162188    -0.046609607231
            0.863911287514    -0.200135895548    0.165780627780    0.034893866286    -0.034023213631    -0.047028835160    0.142089186700    0.012654271745
            -0.086443350891    0.085580668226    -0.034023122767    -0.047028813265    -0.098962516283    0.102729271277    0.866120468778    -0.191012424028
            -0.034305162188    -0.046609607231    0.142089186037    0.012654279184    0.866120468778    -0.191012424028    0.166132114580    0.034157771097
0.775     -0.060611743640    0.145897369227    0.796002159396    -0.375703769323    -0.059331824814    0.125018300320    -0.047861128042    -0.036245012887
            0.796002159396    -0.375703769323    0.184872144233    0.021323173534    -0.047739333491    -0.036715095415    0.156816523607    0.003491154348
            -0.059331829484    0.125018253828    -0.047739331906    -0.036715094196    -0.064494258457    0.143892811872    0.800209973207    -0.367080273673
            -0.047861120121    -0.036245020033    0.156816523601    0.003491154622    0.800209973207    -0.367080273673    0.184934714820    0.020811369548
