# GHz S RI R 45
0.000     0.021904447000    0.000000000000    0.000017654324    -0.000000000000    0.000594206720    0.000000000000    0.000008659183    -0.000000000000
            0.000017654327    -0.000000000000    0.021369265000    0.000000000000    0.000000507823    -0.000000000000    0.000625146740    -0.000000000000
            0.000594203190    0.000000000000    0.000000507836    -0.000000000000    0.021864818000    0.000000000000    0.000008013303    0.000000000000
            0.000008659193    -0.000000000000    0.000625138600    -0.000000000000    0.000008013274    0.000000000000    0.021245975000    0.000000000000
0.025     0.029019958829    0.009585563579    -0.000015691451    -0.000017617548    0.004106867456    0.011510145521    -0.000007186738    -0.000010801370
            -0.000015691385    -0.000017617567    0.027654489104    0.008131966674    -0.000005105668    -0.000005877418    0.003540162052    0.009967248436
            0.004106848022    0.011510197048    -0.000005105651    -0.000005877420    0.028962665628    0.009575651188    -0.000005611939    -0.000010908822
            -0.000007186730    -0.000010801375    0.003540136620    0.009967302039    -0.000005611970    -0.000010908812    0.027597256271    0.008128111572
0.050     0.038864495109    0.011450090342    -0.000025594402    -0.000000504401    0.013249426172    0.019304625622    -0.000015009339    -0.000004792409
            -0.000025594327    -0.000000504467    0.036340131990    0.009477884347    -0.000010894096    -0.000005667899    0.011381816728    0.016969707503
            0.013249414176    0.019304639919    -0.000010894083    -0.000005667909    0.038832513318    0.011454820641    -0.000014164660    -0.000007335912
            -0.000015009328    -0.000004792417    0.011381800818    0.016969725398    -0.000014164681    -0.000007335895    0.036288638988    0.009475406782
0.075     0.049479914398    0.006941112211    -0.000023440365    0.000011571413    0.025393768018    0.021004730920    -0.000018308589    0.000001663161
            -0.000023440365    0.000011571412    0.045845457035    0.005358600475    -0.000016662989    -0.000002361268    0.022037780315    0.018886368500
            0.025393760648    0.021004738260    -0.000016662983    -0.000002361279    0.049503637331    0.006939794094    -0.000019741957    -0.000001878479
            -0.000018308584    0.000001663157    0.022037770426    0.018886380039    -0.000019741973    -0.000001878449    0.045808777243    0.005363887521
0.100     0.057590327470    -0.004188944322    -0.000017771309    0.000019810878    0.037107222641    0.015736730063    -0.000019195091    0.000009195185
            -0.000017771311    0.000019810873    0.053473023897    -0.004542307055    -0.000020986476    0.000004550785    0.032718212795    0.014869625491
            0.037107223658    0.015736732787    -0.000020986472    0.000004550768    0.057690836392    -0.004225193494    -0.000023231630    0.000006225348
            -0.000019195090    0.000009195189    0.032718214360    0.014869631714    -0.000023231634    0.000006225376    0.053471994527    -0.004527949847
0.125     0.059749440382    -0.020425039634    -0.000010535027    0.000025249730    0.044891114901    0.004336641811    -0.000017023314    0.000017495930
            -0.000010535027    0.000025249729    0.056303564644    -0.019138683111    -0.000021849261    0.000014352239    0.040528321935    0.005411551697
            0.044891116702    0.004336643962    -0.000021849265    0.000014352219    0.059935962796    -0.020548329150    -0.000023181264    0.000016579301
            -0.000017023312    0.000017495935    0.040528325267    0.005411556965    -0.000023181262    0.000016579312    0.056363342471    -0.019137950619
0.150     0.053680403525    -0.038588740522    -0.000002189760    0.000028417096    0.045957153756    -0.010842796492    -0.000011131750    0.000025327000
            -0.000002189764    0.000028417093    0.052283447333    -0.035953627111    -0.000017732526    0.000025156478    0.043051392063    -0.007785998106
            0.045957156081    -0.010842795347    -0.000017732521    0.000025156480    0.053949282052    -0.038836587620    -0.000018249417    0.000027565788
            -0.000011131746    0.000025327002    0.043051397798    -0.007785994488    -0.000018249373    0.000027565867    0.052427969337    -0.035986077648
0.175     0.038524409049    -0.054606924297    0.000007077284    0.000029274916    0.038814864496    -0.026299138447    -0.000001529604    0.000030954195
            0.000007077248    0.000029274886    0.040405309666    -0.051718518105    -0.000008153697    0.000034401261    0.038800527652    -0.022035013217
            0.038814867070    -0.026299138214    -0.000008153727    0.000034401230    0.038847509294    -0.055030874676    -0.000007970917    0.000036819656
            -0.000001529602    0.000030954194    0.038800537099    -0.022035008730    -0.000007970877    0.000036819690    0.040643807807    -0.051828299941
0.200     0.015443976759    -0.064201598837    0.000016962893    0.000027291971    0.023702231730    -0.038061693516    0.000010849393    0.000032565698
            0.000016962893    0.000027291972    0.021245794159    -0.062857343942    0.000006048855    0.000039375439    0.027585741900    -0.034154855674
            0.023702234116    -0.038061694386    0.000006048860    0.000039375438    0.015765341442    -0.064847750348    0.000006880404    0.000041707391
            0.000010849399    0.000032565697    0.027585747426    -0.034154857638    0.000006880405    0.000041707389    0.021564033821    -0.063099495913
0.225     -0.012451556566    -0.063816480193    0.000026686725    0.000021854682    0.002694848213    -0.042493841633    0.000024181401    0.000028809503
            0.000026686676    0.000021854684    -0.003041670876    -0.066196125403    0.000022743119    0.000037882889    0.010644312508    -0.041056047214
            0.002694850565    -0.042493843487    0.000022743119    0.000037882884    -0.012214296413    -0.064709626176    0.000024244823    0.000040025394
            0.000024181402    0.000028809502    0.010644321645    -0.041056050010    0.000024244820    0.000040025397    -0.002687236820    -0.066622988204
0.250     -0.040526626190    -0.051498490975    0.000034826404    0.000012611443    -0.020547771458    -0.037135441030    0.000035960048    0.000019253107
            0.000034826315    0.000012611479    -0.028972032652    -0.059647661462    0.000038787446    0.000028869369    -0.009476436945    -0.040366834614
            -0.020547771942    -0.037135441905    0.000038787448    0.000028869363    -0.040472393711    -0.052627380848    0.000040988076    0.000030640786
            0.000035960053    0.000019253099    -0.009476431043    -0.040366841135    0.000040988162    0.000030640754    -0.028652292001    -0.060293481889
0.275     -0.063458849009    -0.027516500400    0.000039672527    -0.000000053103    -0.041432346291    -0.021377154959    0.000043544198    0.000004696008
            0.000039672456    -0.000000053039    -0.052284611823    -0.042734680422    0.000050677410    0.000012851880    -0.029310967249    -0.030969818696
            -0.041432341671    -0.021377161732    0.000050677407    0.000012851875    -0.063685919786    -0.028824706014    0.000053544741    0.000013991979
            0.000043544198    0.000004696002    -0.029310963905    -0.030969825991    0.000053544739    0.000013991979    -0.052089429083    -0.043601539179
0.300     -0.076342275730    0.005434944812    0.000039588251    -0.000014781011    -0.055393281254    0.003222320412    0.000044790590    -0.000012792359
            0.000039588206    -0.000014780927    -0.068703598759    -0.016863576409    0.000055362287    -0.000007978334    -0.045100878782    -0.013340722580
            -0.055393282252    0.003222320471    0.000055362284    -0.000007978335    -0.076926864088    0.004050374371    0.000058733251    -0.000007761470
            0.000044790592    -0.000012792359    -0.045100881659    -0.013340723431    0.000058733252    -0.000007761470    -0.068726820878    -0.017912397192
0.325     -0.075792468636    0.042631045915    0.000033670711    -0.000029452231    -0.058913210676    0.033146608573    0.000038681792    -0.000030265160
            0.000033670699    -0.000029452140    -0.074772551784    0.014796833677    0.000051042670    -0.000030152180    -0.053524648347    0.010439644399
            -0.058913211547    0.033146609063    0.000051042664    -0.000030152183    -0.076766006133    0.041308211627    0.000054609291    -0.000031109773
            0.000038681781    -0.000030265117    -0.053524653113    0.010439635632    0.000054609288    -0.000031109774    -0.075091767892    0.013648287729
0.350     -0.060757539580    0.078209728301    0.000022077938    -0.000041550049    -0.050330397633    0.063620438488    0.000025653490    -0.000044536365
            0.000022077940    -0.000041550052    -0.068579467343    0.047799467419    0.000037672339    -0.000049668693    -0.052377165751    0.037013930360
            -0.050330398253    0.063620439272    0.000037672332    -0.000049668693    -0.062090733841    0.077101134111    0.000040999289    -0.000051930963
            0.000025653486    -0.000044536367    -0.052377168201    0.037013932091    0.000040999291    -0.000051930960    -0.069236362984    0.046668348754
0.375     -0.032760277390    0.106338293951    0.000006079651    -0.000048849051    -0.030165171813    0.089585010901    0.000007501177    -0.000052930197
            0.000006079656    -0.000048849052    -0.050166535766    0.077191071570    0.000016962276    -0.000062891384    -0.041006871895    0.062347311378
            -0.030165187768    0.089585006584    0.000016962297    -0.000062891343    -0.034358420715    0.105582613789    0.000019543274    -0.000066416218
            0.000007501176    -0.000052930195    -0.041006873543    0.062347313884    0.000019543229    -0.000066416297    -0.051152099333    0.076212600847
0.400     0.004413459969    0.122313520080    -0.000012194508    -0.000049820981    -0.000958852874    0.106663760288    -0.000013045199    -0.000053805889
            -0.000012194509    -0.000049820984    -0.021569996796    0.098376676636    -0.000008028170    -0.000067274865    -0.020442633587    0.082447786032
            -0.000958854736    0.106663760271    -0.000008028177    -0.000067274856    0.002703009021    0.122007581854    -0.000006696427    -0.000071812977
            -0.000013045199    -0.000053805887    -0.020442634309    0.082447788943    -0.000006696490    -0.000071813041    -0.022817414121    0.097681607479
0.425     0.045452391048    0.123320064484    -0.000030238881    -0.000043915432    0.033265443038    0.111851403945    -0.000032920903    -0.000046767997
            -0.000030238881    -0.000043915432    0.013522713525    0.107875716777    -0.000033553824    -0.000061733100    0.006805290009    0.094017138394
            0.033265399347    0.111851385640    -0.000033553784    -0.000061733078    0.043821550725    0.123496440512    -0.000033891808    -0.000066828856
            -0.000032920902    -0.000046767996    0.006805286944    0.094017141624    -0.000033891807    -0.000066828856    0.012135009985    0.107565920838
0.450     0.084408358420    0.108783186439    -0.000045530022    -0.000031528986    0.067683082110    0.103886949026    -0.000049232163    -0.000032577038
            -0.000045529934    -0.000031528984    0.050356120786    0.103850748504    -0.000055825624    -0.000046673477    0.037158051110    0.094942212830
            0.067683080296    0.103886950207    -0.000055825539    -0.000046673456    0.083063686486    0.109394443056    -0.000058084138    -0.000051691063
            -0.000049232160    -0.000032577036    0.037158051440    0.094942223439    -0.000058084137    -0.000051691062    0.048993873849    0.103977237837
0.475     0.115539298849    0.080343511308    -0.000055859933    -0.000013876487    0.097324776562    0.083325351794    -0.000059602411    -0.000012910803
            -0.000055859847    -0.000013876517    0.083801116937    0.086339189715    -0.000071501478    -0.000023802911    0.066486383846    0.084552156464
            0.097324776562    0.083325351794    -0.000071501434    -0.000023802924    0.114676260150    0.081253605334    -0.000075689097    -0.000027989312
            -0.000059602411    -0.000012910803    0.066486339017    0.084552166271    -0.000075689096    -0.000027989311    0.082658161803    0.086883108418
0.500     0.134020298006    0.041611879960    -0.000059451459    0.000007136971    0.117664660980    0.052452023664    -0.000062312686    0.000009887031
            -0.000059451395    0.000007136911    0.109038881738    0.057238795835    -0.000077984873    0.000004136832    0.090653176592    0.063693849837
            0.117664660064    0.052452025718    -0.000077984868    0.000004136845    0.133809876912    0.042578703568    -0.000083806641    0.000001565770
            -0.000062312686    0.000009887031    0.090653182551    0.063693858750    -0.000083806638    0.000001565770    0.108332381908    0.058088421163
0.525     0.136513940149    -0.002220623554    -0.000055149588    0.000029064804    0.125217990566    0.015012408024    -0.000056473754    0.000033081158
            -0.000055149591    0.000029064805    0.122164716627    0.020083047665    -0.000073715817    0.000033701364    0.106107940668    0.034600393029
            0.125217990383    0.015012409554    -0.000073715807    0.000033701374    0.137240703286    -0.001681178938    -0.000080612792    0.000033526718
            -0.000056473753    0.000033081157    0.106107949571    0.034600397981    -0.000080612823    0.000033526747    0.122285474420    0.020953981386
0.550     0.121657647979    -0.044882008556    -0.000042605016    0.000048955457    0.117860662442    -0.022358158426    -0.000042274892    0.000052748708
            -0.000042604989    0.000048955374    0.120698095097    -0.020335535417    -0.000058515244    0.000060047634    0.109711532800    0.002138363057
            0.117860662442    -0.022358158426    -0.000058515230    0.000060047642    0.123288391261    -0.042917504186    -0.000065894478    0.000061786858
            -0.000042274887    0.000052748702    0.109711542764    0.002138364975    -0.000065894479    0.000061786858    0.121167945185    -0.017889238530
0.575     0.090469161206    -0.079663320719    -0.000022586175    0.000063594343    0.094764976869    -0.056556634099    -0.000020143637    0.000066984497
            -0.000022586195    0.000063594257    0.103954310598    -0.058458435597    -0.000032824873    0.000080258978    0.100249115017    -0.031885905959
            0.094764976869    -0.056556634099    -0.000032824870    0.000080258971    0.092176886524    -0.079119013525    -0.000038993183    0.000084909010
            -0.000020143648    0.000066984406    0.100249124546    -0.031885908990    -0.000038993182    0.000084909008    0.104902742652    -0.056986571622
0.600     0.046664496263    -0.100114466153    0.000002689234    0.000069757598    0.059285847214    -0.079587685000    0.000006624319    0.000071911848
            0.000002689229    0.000069757604    0.073320923795    -0.088434569394    -0.000000331408    0.000089486272    0.078446479334    -0.060500456639
            0.059285849604    -0.079587688208    -0.000000331402    0.000089486262    0.048770846174    -0.100912236159    -0.000004529788    0.000096590642
            0.000006624320    0.000071911847    0.078446484349    -0.060500458324    -0.000004529756    0.000096590725    0.075067456320    -0.087781444939
0.625     -0.002762827466    -0.102226181881    0.000029202272    0.000065857833    0.016402488456    -0.087219167008    0.000034069994    0.000066052993
            0.000029202240    0.000065857805    0.033145182358    -0.105524826196    0.000034243289    0.000085477508    0.046882277234    -0.079539963793
            0.016402488826    -0.087219168974    0.000034243228    0.000085477436    -0.001332940224    -0.104205295208    0.000033148380    0.000094002955
            0.000034069997    0.000066052989    0.046882282177    -0.079539969005    0.000033148378    0.000094002956    0.034843751622    -0.105894353906
0.650     -0.051141252295    -0.084621334830    0.000053349968    0.000051439405    -0.027815747271    -0.077120124126    0.000058048641    0.000049390284
            0.000053349970    0.000051439413    -0.012116224526    -0.106990670937    0.000065713601    0.000067777080    0.009087369701    -0.085822642869
            -0.027815747271    -0.077120124126    0.000065713600    0.000067777071    -0.050290817382    -0.087238237301    0.000067931145    0.000076376849
            0.000058048642    0.000049390279    0.009087372041    -0.085822650665    0.000067931145    0.000076376849    -0.010486061777    -0.107973055516
0.675     -0.089902124374    -0.048553863043    0.000070218867    0.000027939997    -0.065574931321    -0.049628141082    0.000073782957    0.000023908044
            0.000070218888    0.000027940013    -0.055899792424    -0.091176300958    0.000088127646    0.000038377994    -0.029454242195    -0.077253212157
            -0.065574934511    -0.049628143496    0.000088127637    0.000038377969    -0.089839083067    -0.051754469365    0.000093558575    0.000045812396
            0.000073782916    0.000023908039    -0.029454244332    -0.077253217763    0.000093558575    0.000045812398    -0.054488439569    -0.092873148199
0.700     -0.112157579238    0.000487797245    0.000076443337    -0.000000663895    -0.090172129532    -0.008847429023    0.000078082279    -0.000006057226
            0.000076443256    -0.000000663869    -0.091527540427    -0.059765349657    0.000097188600    0.000002110368    -0.062849382123    -0.054475586109
            -0.090172129532    -0.008847429023    0.000097188595    0.000002110364    -0.113119725396    -0.003009066824    0.000105249434    0.000007182863
            0.000078082276    -0.000006057228    -0.062849388924    -0.054475592004    0.000105249434    0.000007182861    -0.090617827238    -0.062115155560
0.725     -0.114154111321    0.054686504466    0.000070937504    -0.000029370987    -0.097434952623    0.038700324574    0.000070183054    -0.000035200617
            0.000070937505    -0.000029370986    -0.113556061709    -0.016960510801    0.000091304332    -0.000034797494    -0.085945559122    -0.020453690047
            -0.097434952623    0.038700324574    0.000091304330    -0.000034797495    -0.116230897008    0.051294227050    0.000100962554    -0.000032989543
            0.000070183050    -0.000035200619    -0.085945564959    -0.020453691436    0.000100962554    -0.000032989543    -0.113392095173    -0.019761029213
0.750     -0.095859192854    0.105602267728    0.000055010230    -0.000053432046    -0.086443350891    0.085580668226    0.000051834063    -0.000058637495
            0.000055010230    -0.000053432045    -0.118678754670    0.031227612736    0.000071842983    -0.000066267101    -0.095240204616    0.020044514483
            -0.086443350891    0.085580668226    0.000071842982    -0.000066267102    -0.098962516283    0.102729271277    0.000081780124    -0.000068171213
            0.000051834063    -0.000058637497    -0.095240212028    0.020044498684    0.000081780124    -0.000068171213    -0.119407175726    0.028272456692
0.775     -0.060611743640    0.145897369227    0.000031727419    -0.000069447516    -0.059331824814    0.125018300320    0.000026567981    -0.000073043881
            0.000031727422    -0.000069447513    -0.106246978075    0.078068235507    0.000042476214    -0.000087730764    -0.089435065233    0.061357981375
            -0.059331829484    0.125018253828    0.000042476211    -0.000087730766    -0.064494258457    0.143892811872    0.000051287217    -0.000093273663
