# GHz S RI R 45
0.000     0.021904447000    0.000000000000    -0.000002579980    0.000000000000    0.000594206720    0.000000000000    -0.000007361731    0.000000000000
            -0.000002580017    0.000000000000    0.020523895000    0.000000000000    0.000017875596    0.000000000000    0.000512254180    -0.000000000000
            0.000594203190    0.000000000000    0.000017875577    0.000000000000    0.021864818000    0.000000000000    -0.000008110359    0.000000000000
            -0.000007361888    0.000000000000    0.000512249680    -0.000000000000    -0.000008110332    0.000000000000    0.020491243000    0.000000000000
0.025     0.029019958829    0.009585563579    -0.000003203708    0.000002939700    0.004106867456    0.011510145521    0.000002777385    0.000006304453
            -0.000003203740    0.000002939715    0.027225802066    0.008508494166    0.000048502413    0.000143011612    0.003734580491    0.010274158868
            0.004106848022    0.011510197048    0.000048502398    0.000143011617    0.028962665628    0.009575651188    0.000004168171    0.000008242076
            0.000002777241    0.000006304509    0.003734558992    0.010274210307    0.000004168202    0.000008242066    0.027148575467    0.008404740020
0.050     0.038864495109    0.011450090342    -0.000000784372    0.000006548527    0.013249426172    0.019304625622    0.000006482352    0.000002049398
            -0.000000784403    0.000006548558    0.036632799927    0.009965018569    0.000129287504    0.000264745726    0.012269660470    0.017296143185
            0.013249414176    0.019304639919    0.000129287486    0.000264745735    0.038832513318    0.011454820641    0.000008702282    0.000003898848
            0.000006482229    0.000002049510    0.012269647389    0.017296157369    0.000008702306    0.000003898833    0.036509763451    0.009799410818
0.075     0.049479914398    0.006941112211    0.000002819147    0.000008141912    0.025393768018    0.021004730920    0.000006749995    -0.000001246668
            0.000002819136    0.000008141952    0.047208070518    0.005594761440    0.000244600423    0.000347987496    0.023903060658    0.018844496496
            0.025393760648    0.021004738260    0.000244600411    0.000347987504    0.049503637331    0.006939794094    0.000009049651    0.000000893538
            0.000006749923    -0.000001246525    0.023903052180    0.018844504019    0.000009049671    0.000000893515    0.047039187476    0.005394619873
0.100     0.057590327470    -0.004188944322    0.000006466632    0.000008227084    0.037107222641    0.015736730063    0.000005830581    -0.000003682911
            0.000006466633    0.000008227119    0.056112888927    -0.005096417086    0.000379716069    0.000387700109    0.035677704341    0.013943100868
            0.037107223658    0.015736732787    0.000379716069    0.000387700123    0.057690836392    -0.004225193494    0.000008267223    -0.000000639039
            0.000005830563    -0.000003682748    0.035677704299    0.013943103723    0.000008267235    -0.000000639069    0.055914204894    -0.005303108266
0.125     0.059749440382    -0.020425039634    0.000010026257    0.000007245968    0.044891114901    0.004336641811    0.000004432317    -0.000005333168
            0.000010026271    0.000007246003    0.060178567778    -0.021145164903    0.000520952893    0.000384155207    0.044471519189    0.003028367858
            0.044891116702    0.004336643962    0.000520952902    0.000384155228    0.059935962796    -0.020548329150    0.000007725416    -0.000000964962
            0.000004432354    -0.000005333023    0.044471520968    0.003028371176    0.000007725417    -0.000000965001    0.059984354600    -0.021343620342
0.150     0.053680403525    -0.038588740522    0.000013465256    0.000005106494    0.045957153756    -0.010842796492    0.000002937187    -0.000006396972
            0.000013465279    0.000005106518    0.057113551709    -0.040031847566    0.000655637363    0.000335344854    0.047630223339    -0.012156424945
            0.045957156081    -0.010842795347    0.000655637372    0.000335344858    0.053949282052    -0.038836587620    0.000008040364    -0.000000928253
            0.000002937269    -0.000006396853    0.047630225914    -0.012156422946    0.000008040356    -0.000000928284    0.056957436077    -0.040220089979
0.175     0.038524409049    -0.054606924297    0.000016501908    0.000001461026    0.038814864496    -0.026299138447    0.000001513683    -0.000007245864
            0.000016501941    0.000001461039    0.045625619308    -0.058409105949    0.000770138562    0.000245220006    0.043444884208    -0.028798401244
            0.038814867070    -0.026299138214    0.000770138581    0.000245220012    0.038847509294    -0.055030874676    0.000009220396    -0.000001566110
            0.000001513811    -0.000007245778    0.043444887383    -0.028798400074    0.000009220376    -0.000001566141    0.045546991888    -0.058612191152
0.200     0.015443976759    -0.064201598837    0.000018254477    -0.000003951235    0.023702231730    -0.038061693516    -0.000000086310    -0.000008208096
            0.000018254508    -0.000003951234    0.026054198214    -0.072501269206    0.000852029413    0.000121812643    0.031548123429    -0.043512201300
            0.023702234116    -0.038061694386    0.000852029432    0.000121812647    0.015765341442    -0.064847750348    0.000010434228    -0.000003647052
            -0.000000086164    -0.000008208057    0.031548126122    -0.043512201818    0.000010434202    -0.000003647073    0.026076020702    -0.072770380382
0.225     -0.012451556566    -0.063816480193    0.000017445364    -0.000010632686    0.002694848213    -0.042493841633    -0.000002412107    -0.000009232695
            0.000017445403    -0.000010632698    0.000382950596    -0.078840955961    0.000891602577    -0.000022756182    0.013066036475    -0.052935007893
            0.002694850565    -0.042493843487    0.000891602597    -0.000022756182    -0.012214296413    -0.064709626176    0.000010337762    -0.000007162597
            -0.000002411960    -0.000009232718    0.013066039726    -0.052935009150    0.000010337728    -0.000007162612    0.000497279938    -0.079240370653
0.250     -0.040526626190    -0.051498490975    0.000013098610    -0.000017050610    -0.020547771458    -0.037135441030    -0.000005892342    -0.000009668445
            0.000013098633    -0.000017050630    -0.027973178481    -0.074968763595    0.000883658888    -0.000173117139    -0.009474566280    -0.054367803822
            -0.020547771942    -0.037135441905    0.000883658908    -0.000173117143    -0.040472393711    -0.052627380848    0.000007818851    -0.000011000471
            -0.000005892208    -0.000009668514    -0.009474564726    -0.054367806123    0.000007818810    -0.000011000473    -0.027809286455    -0.075558521260
0.275     -0.063458849009    -0.027516500400    0.000005408645    -0.000020987298    -0.041432346291    -0.021377154959    -0.000010348323    -0.000008481532
            0.000005408661    -0.000020987329    -0.054683697830    -0.059980199009    0.000828928772    -0.000312576161    -0.032507909111    -0.046332862544
            -0.041432341671    -0.021377161732    0.000828928791    -0.000312576168    -0.063685919786    -0.028824706014    0.000002728266    -0.000013347255
            -0.000010348230    -0.000008481634    -0.032507909686    -0.046332863362    0.000002728226    -0.000013347243    -0.054544949525    -0.060798063763
0.300     -0.076342275730    0.005434944812    -0.000003916209    -0.000020533867    -0.055393281254    0.003222320412    -0.000014748565    -0.000004831930
            -0.000003916204    -0.000020533901    -0.075222267691    -0.034854129415    0.000734394202    -0.000425796487    -0.052023765794    -0.028957008009
            -0.055393282252    0.003222320471    0.000734394210    -0.000425796492    -0.076926864088    0.004050374371    -0.000003719520    -0.000012546659
            -0.000014748512    -0.000004832064    -0.052023767541    -0.028957008981    -0.000003719558    -0.000012546634    -0.075203861746    -0.035900342163
0.325     -0.075792468636    0.042631045915    -0.000012115050    -0.000015159778    -0.058913210676    0.033146608573    -0.000017534974    0.000001297365
            -0.000012115060    -0.000015159812    -0.085680995805    -0.002414553498    0.000612109744    -0.000501403470    -0.064281312755    -0.004053924202
            -0.058913211547    0.033146609063    0.000612109751    -0.000501403493    -0.076766006133    0.041308211627    -0.000009392738    -0.000008019290
            -0.000017534970    0.000001297230    -0.064281313753    -0.004053924265    -0.000009392764    -0.000008019256    -0.085879634353    -0.003642637663
0.350     -0.060757539580    0.078209728301    -0.000016572758    -0.000006139349    -0.050330397633    0.063620438488    -0.000017334847    0.000008865490
            -0.000016572775    -0.000006139382    -0.083527251393    0.033046901904    0.000476839012    -0.000533566387    -0.066519616001    0.025112930252
            -0.050330398253    0.063620439272    0.000476839009    -0.000533566403    -0.062090733841    0.077101134111    -0.000012183898    -0.000000667893
            -0.000017334889    0.000008865359    -0.066519621319    0.025112918995    -0.000012183913    -0.000000667849    -0.084018719174    0.031730014984
0.375     -0.032760277390    0.106338293951    -0.000016009647    0.000003986415    -0.030165171813    0.089585010901    -0.000013688381    0.000016180785
            -0.000016009672    0.000003986401    -0.068104850482    0.066456562881    0.000343409430    -0.000522050085    -0.057476059181    0.054355751760
            -0.030165187768    0.089585006584    0.000343409418    -0.000522050106    -0.034358420715    0.105582613789    -0.000011020129    0.000007584105
            -0.000013688466    0.000016180679    -0.057476069394    0.054355742416    -0.000011020131    0.000007584148    -0.068923596368    0.065179810332
0.400     0.004413459969    0.122313520080    -0.000011001874    0.000012728097    -0.000958852874    0.106663760288    -0.000007307437    0.000021730522
            -0.000011001909    0.000012728088    -0.040814183239    0.092791288882    0.000224737826    -0.000471005150    -0.037642347808    0.079260283388
            -0.000958854736    0.106663760271    0.000224737810    -0.000471005157    0.002703009021    0.122007581854    -0.000006285223    0.000014829375
            -0.000007307550    0.000021730455    -0.037642348237    0.079260284291    -0.000006285209    0.000014829421    -0.041938433122    0.091701172517
0.425     0.045452391048    0.123320064484    -0.000003677762    0.000019051178    0.033265443038    0.111851403945    0.000000147229    0.000025051341
            -0.000003677785    0.000019051188    -0.004911447276    0.107883069444    0.000130852135    -0.000387257864    -0.009188854558    0.095887492329
            0.033265399347    0.111851385640    0.000130852112    -0.000387257861    0.043821550725    0.123496440512    0.000000381583    0.000020363934
            0.000000147086    0.000025051359    -0.009188856422    0.095887494160    0.000000381614    0.000020363970    -0.006256522627    0.107120424950
0.450     0.084408358420    0.108783186439    0.000002328649    0.000023982367    0.067683082110    0.103886949026    0.000006010445    0.000026885082
            0.000002328623    0.000023982382    0.034974583108    0.109064091435    0.000068092883    -0.000279195957    0.024362074876    0.101377492245
            0.067683080296    0.103886950207    0.000068092866    -0.000279195951    0.083063686486    0.109394443056    0.000005849409    0.000025123985
            0.000006010330    0.000026885104    0.024362073106    0.101377492670    0.000005849455    0.000025124006    0.033553683566    0.108739875134
0.475     0.115539298849    0.080343511308    0.000002276022    0.000025888204    0.097324776562    0.083325351794    0.000007309993    0.000025663207
            0.000002276012    0.000025888224    0.073507016154    0.095541053249    0.000039342972    -0.000159768993    0.058639650625    0.094339434760
            0.097324776562    0.083325351794    0.000039342955    -0.000159768987    0.114676260150    0.081253605334    0.000005697135    0.000026893607
            0.000007309890    0.000025663267    0.058639650625    0.094339434760    0.000005697188    0.000026893614    0.072208250967    0.095713965458
0.500     0.134020298006    0.041611879960    0.000002411388    0.000021951459    0.117664660980    0.052452023664    0.000008965484    0.000019998690
            0.000002411383    0.000021951484    0.105361063558    0.068518043921    0.000052739721    -0.000043059322    0.089005125521    0.075054794586
            0.117664660064    0.052452025718    0.000052739701    -0.000043059304    0.133809876912    0.042578703568    0.000006349911    0.000022352301
            0.000008965405    0.000019998779    0.089005125521    0.075054794586    0.000006349968    0.000022352293    0.104426186853    0.069167780959
0.525     0.136513940149    -0.002220623554    0.000006316530    0.000019300901    0.125217990566    0.015012408024    0.000012429201    0.000015043883
            0.000006316534    0.000019300920    0.125923985869    0.031084543810    0.000108971026    0.000063723181    0.111140123099    0.045475656018
            0.125217990383    0.015012409554    0.000108971018    0.000063723194    0.137240703286    -0.001681178938    0.000010772347    0.000018417763
            0.000012429159    0.000015043985    0.111140080253    0.045475681513    0.000010772398    0.000018417734    0.125609317482    0.032056605000
0.550     0.121657647979    -0.044882008556    0.000012729175    0.000018028599    0.117860662442    -0.022358158426    0.000016602747    0.000010543078
            0.000012729181    0.000018028625    0.132002993976    -0.012135282736    0.000201212932    0.000147730376    0.121667408253    0.009033841625
            0.117860662442    -0.022358158426    0.000201212935    0.000147730389    0.123288391261    -0.042917504186    0.000016730371    0.000015314903
            0.000016602748    0.000010543186    0.121667408095    0.009033843749    0.000016730407    0.000015314869    0.132437250962    -0.011169460533
0.575     0.090469161206    -0.079663320719    0.000021630249    0.000015254064    0.094764976869    -0.056556634099    0.000021018829    0.000004989308
            0.000021630265    0.000015254079    0.122250941248    -0.055744012171    0.000320595032    0.000196346696    0.118584947757    -0.029854563785
            0.094764976869    -0.056556634099    0.000320595042    0.000196346717    0.092176886524    -0.079119013525    0.000023822744    0.000010476311
            0.000021018860    0.000004989405    0.118584948278    -0.029854561716    0.000023822764    0.000010476262    0.123322484226    -0.055070013226
0.600     0.046664496263    -0.100114466153    0.000031629521    0.000007421092    0.059285847214    -0.079587685000    0.000024372739    -0.000003025943
            0.000031629625    0.000007421066    0.097112192903    -0.094093082243    0.000453134067    0.000200532280    0.101445438094    -0.066189906783
            0.059285849604    -0.079587688208    0.000453134069    0.000200532300    0.048770846174    -0.100912236159    0.000030345783    0.000002304350
            0.000024372797    -0.000003025864    0.101445447624    -0.066189910477    0.000030345788    0.000002304301    0.098707259033    -0.093854156884
0.625     -0.002762827466    -0.102226181881    0.000037116400    -0.000006308019    0.016402488456    -0.087219167008    0.000024568696    -0.000013570092
            0.000037116421    -0.000006308020    0.059101446932    -0.121746811730    0.000581800597    0.000157137888    0.071689850085    -0.094864450992
            0.016402488826    -0.087219168974    0.000581800606    0.000157137891    -0.001332940224    -0.104205295208    0.000033611117    -0.000009679483
            0.000024568780    -0.000013570046    0.071689859426    -0.094864456467    0.000033611100    -0.000009679542    0.061129748907    -0.122109222261
0.650     -0.051141252295    -0.084621334830    0.000036579774    -0.000022667916    -0.027815747271    -0.077120124126    0.000019477546    -0.000025061357
            0.000036579795    -0.000022667921    0.012736489899    -0.134438731330    0.000689086945    0.000070465022    0.032682157198    -0.111511371855
            -0.027815747271    -0.077120124126    0.000689086955    0.000070465022    -0.050290817382    -0.087238237301    0.000030848233    -0.000023709072
            0.000019477637    -0.000025061338    0.032682163037    -0.111511370144    0.000030848200    -0.000023709116    0.015031105135    -0.135576479914
0.675     -0.089902124374    -0.048553863043    0.000027351171    -0.000038967296    -0.065574931321    -0.049628141082    0.000008306302    -0.000034160128
            0.000027351179    -0.000038967310    -0.036052641344    -0.129820971938    0.000760678595    -0.000048120255    -0.010686695751    -0.113237965863
            -0.065574934511    -0.049628143496    0.000760678604    -0.000048120261    -0.089839083067    -0.051754469365    0.000020822512    -0.000036092741
            0.000008306394    -0.000034160140    -0.010686693775    -0.113237966049    0.000020822462    -0.000036092773    -0.033745078896    -0.131846851646
0.700     -0.112157579238    0.000487797245    0.000009948581    -0.000049546287    -0.090172129532    -0.008847429023    -0.000007281087    -0.000037315191
            0.000009948579    -0.000049546302    -0.080755210201    -0.107928983496    0.000788633878    -0.000182642466    -0.052662129109    -0.099183291690
            -0.090172129532    -0.008847429023    0.000788633888    -0.000182642469    -0.113119725396    -0.003009066824    0.000004968809    -0.000042672171
            -0.000007281047    -0.000037315229    -0.052662133798    -0.099183300522    0.000004968697    -0.000042672180    -0.078737025316    -0.110850127085
0.725     -0.114154111321    0.054686504466    -0.000011304772    -0.000050238206    -0.097434952623    0.038700324574    -0.000023524376    -0.000032505868
            -0.000011304784    -0.000050238259    -0.115256398405    -0.071276067875    0.000772416257    -0.000316394211    -0.087488038179    -0.070742035128
            -0.097434952623    0.038700324574    0.000772416294    -0.000316394226    -0.116230897008    0.051294227050    -0.000012814907    -0.000040792395
            -0.000023524348    -0.000032505913    -0.087488045955    -0.070742041415    -0.000012814974    -0.000040792387    -0.113828671486    -0.074977047908
0.750     -0.095859192854    0.105602267728    -0.000030327794    -0.000040363140    -0.086443350891    0.085580668226    -0.000036025623    -0.000020338771
            -0.000030327804    -0.000040363153    -0.134810797056    -0.024529341698    0.000717552820    -0.000435359902    -0.110332449904    -0.031414764447
            -0.086443350891    0.085580668226    0.000717552820    -0.000435359902    -0.098962516283    0.102729271277    -0.000027708393    -0.000030613234
            -0.000036025613    -0.000020338824    -0.110332449904    -0.031414764447    -0.000027708489    -0.000030613168    -0.134220148589    -0.028780554808
0.775     -0.060611743640    0.145897369227    -0.000041921336    -0.000022946335    -0.059331824814    0.125018300320    -0.000041579507    -0.000003838748
            -0.000041921343    -0.000022946349    -0.136781040489    0.026211676955    0.000632929604    -0.000529883745    -0.118036079058    0.013744054096
            -0.059331829484    0.125018253828    0.000632929596    -0.000529883739    -0.064494258457    0.143892811872    -0.000035970502    -0.000015008163
            -0.000041579489    -0.000003838834    -0.118036088990    0.013744055253    -0.000035970539    -0.000015008120    -0.137176918073    0.021724799627
