# GHz S RI R 45
0.000     0.021904447000    0.000000000000    -0.000000034028    -0.000000000000    0.000594206720    0.000000000000    -0.000002362714    0.000000000000
            -0.000000034020    -0.000000000000    0.020996761000    0.000000000000    -0.000002295086    0.000000000000    0.000597044370    -0.000000000000
            0.000594203190    0.000000000000    -0.000002295078    0.000000000000    0.021864818000    0.000000000000    0.000000202495    -0.000000000000
            -0.000002362700    0.000000000000    0.000597046420    -0.000000000000    0.000000202487    -0.000000000000    0.020927182000    0.000000000000
0.025     0.029019958829    0.009585563579    -0.000001718394    -0.000002357416    0.004106867456    0.011510145521    -0.000000754646    -0.000001103593
            -0.000001718386    -0.000002357419    0.027266109309    0.008040379304    -0.000001998937    -0.000001776466    0.003465410449    0.009716599878
            0.004106848022    0.011510197048    -0.000001998939    -0.000001776466    0.028962665628    0.009575651188    -0.000002003676    -0.000003484506
            -0.000000754637    -0.000001103594    0.003465395396    0.009716647715    -0.000002003686    -0.000003484492    0.027190913125    0.007953460577
0.050     0.038864495109    0.011450090342    -0.000004282817    -0.000002823542    0.013249426172    0.019304625622    -0.000003041242    -0.000003762239
            -0.000004282808    -0.000002823550    0.035914021378    0.009394507113    -0.000004811204    -0.000003791897    0.011194981897    0.016545062266
            0.013249414176    0.019304639919    -0.000004811203    -0.000003791899    0.038832513318    0.011454820641    -0.000005800931    -0.000004421886
            -0.000003041239    -0.000003762242    0.011194973743    0.016545072612    -0.000005800942    -0.000004421877    0.035813693246    0.009239983958
0.075     0.049479914398    0.006941112211    -0.000007137019    -0.000001613119    0.025393768018    0.021004730920    -0.000007245075    -0.000003442716
            -0.000007137019    -0.000001613120    0.045465057131    0.005368232476    -0.000009155670    -0.000002808698    0.021749982903    0.018404783853
            0.025393760648    0.021004738260    -0.000009155667    -0.000002808703    0.049503637331    0.006939794094    -0.000010117247    -0.000002843757
            -0.000007245072    -0.000003442722    0.021749977401    0.018404785711    -0.000010117251    -0.000002843751    0.045338477284    0.005163501297
0.100     0.057590327470    -0.004188944322    -0.000009377221    0.000001427574    0.037107222641    0.015736730063    -0.000010945546    -0.000000084879
            -0.000009377221    0.000001427573    0.053300841769    -0.004401627740    -0.000012774492    0.000001235100    0.032431309802    0.014432913430
            0.037107223658    0.015736732787    -0.000012774493    0.000001235102    0.057690836392    -0.004225193494    -0.000013583753    0.000001501602
            -0.000010945545    -0.000000084887    0.032431310305    0.014432912298    -0.000013583753    0.000001501614    0.053159900654    -0.004640345783
0.125     0.059749440382    -0.020425039634    -0.000010009505    0.000005895479    0.044891114901    0.004336641811    -0.000012508462    0.000005516819
            -0.000010009508    0.000005895467    0.056552455001    -0.018946380483    -0.000014003535    0.000007553645    0.040418082644    0.005049695923
            0.044891116702    0.004336643962    -0.000014003533    0.000007553647    0.059935962796    -0.020548329150    -0.000014713316    0.000007979750
            -0.000012508466    0.000005516808    0.040418081828    0.005049694388    -0.000014713314    0.000007979762    0.056411846353    -0.019213027909
0.150     0.053680403525    -0.038588740522    -0.000008333343    0.000010880059    0.045957153756    -0.010842796492    -0.000010954170    0.000011990710
            -0.000008333344    0.000010880059    0.053150658451    -0.035888285406    -0.000011820089    0.000014667782    0.043322578429    -0.008154737066
            0.045957156081    -0.010842795347    -0.000011820089    0.000014667781    0.053949282052    -0.038836587620    -0.000012486508    0.000015260677
            -0.000010954176    0.000011990700    0.043322577162    -0.008154738394    -0.000012486508    0.000015260677    0.053041444950    -0.036185632897
0.175     0.038524409049    -0.054606924297    -0.000004140153    0.000015191881    0.038814864496    -0.026299138447    -0.000006069351    0.000017657975
            -0.000004140161    0.000015191878    0.042007766971    -0.052098829296    -0.000006009820    0.000020767601    0.039623196001    -0.022621105477
            0.038814867070    -0.026299138214    -0.000006009824    0.000020767598    0.038847509294    -0.055030874676    -0.000006620395    0.000021614932
            -0.000006069359    0.000017657969    0.039623194738    -0.022621105673    -0.000006620389    0.000021614938    0.041950475066    -0.052453982993
0.200     0.015443976759    -0.064201598837    0.000002183661    0.000017597829    0.023702231730    -0.038061693516    0.000001558879    0.000020919337
            0.000002183660    0.000017597835    0.023545044470    -0.064096486432    0.000002758623    0.000024113309    0.029024188525    -0.035280997457
            0.023702234116    -0.038061694386    0.000002758621    0.000024113311    0.015765341442    -0.064847750348    0.000002326995    0.000025290288
            0.000001558878    0.000020919337    0.029024187890    -0.035280996684    0.000002327009    0.000025290289    0.023542065095    -0.064550372739
0.225     -0.012451556566    -0.063816480193    0.000009672566    0.000017104401    0.002694848213    -0.042493841633    0.000010629820    0.000020568858
            0.000009672560    0.000017104401    -0.000295715715    -0.068723210771    0.000013040396    0.000023390095    0.012593097722    -0.043103278103
            0.002694850565    -0.042493843487    0.000013040396    0.000023390095    -0.012214296413    -0.064709626176    0.000012992195    0.000024891240
            0.000010629809    0.000020568859    0.012593096689    -0.043103277363    0.000012992195    0.000024891239    -0.000266433226    -0.069320231982
0.250     -0.040526626190    -0.051498490975    0.000016916608    0.000013232014    -0.020547771458    -0.037135441030    0.000019377185    0.000016099005
            0.000016916600    0.000013232018    -0.026258075207    -0.063798595634    0.000022872498    0.000018056714    -0.007329153133    -0.043684990308
            -0.020547771942    -0.037135441905    0.000022872499    0.000018056715    -0.040472393711    -0.052627380848    0.000023420478    0.000019739222
            0.000019377097    0.000016099034    -0.007329153133    -0.043684990308    0.000023420480    0.000019739219    -0.026244259543    -0.064573128451
0.275     -0.063458849009    -0.027516500400    0.000022343035    0.000006209026    -0.041432346291    -0.021377154959    0.000025909346    0.000007868486
            0.000022343036    0.000006209029    -0.050270453273    -0.048631363871    0.000030151539    0.000008522518    -0.027471537941    -0.035766797575
            -0.041432341671    -0.021377161732    0.000030151540    0.000008522519    -0.063685919786    -0.028824706014    0.000031439993    0.000010114439
            0.000025909346    0.000007868488    -0.027471537332    -0.035766796782    0.000031439993    0.000010114434    -0.050340212133    -0.049594123908
0.300     -0.076342275730    0.005434944812    0.000024588858    -0.000002990475    -0.055393281254    0.003222320412    0.000028651894    -0.000002908956
            0.000024588863    -0.000002990475    -0.068140682717    -0.024312836781    0.000033123312    -0.000003852123    -0.044196100319    -0.019577652030
            -0.055393282252    0.003222320471    0.000033123311    -0.000003852128    -0.076926864088    0.004050374371    0.000035148953    -0.000002701542
            0.000028651895    -0.000002908952    -0.044196104650    -0.019577644721    0.000035148953    -0.000002701542    -0.068370819743    -0.025440192490
0.325     -0.075792468636    0.042631045915    0.000022855921    -0.000012824812    -0.058913210676    0.033146608573    0.000026721543    -0.000014393883
            0.000022855924    -0.000012824812    -0.076336521709    0.006346952825    0.000030788838    -0.000017008096    -0.054171822646    0.003108330993
            -0.058913211547    0.033146609063    0.000030788838    -0.000017008095    -0.076766006133    0.041308211627    0.000033375465    -0.000016649452
            0.000026721547    -0.000014393880    -0.054171821648    0.003108330935    0.000033375463    -0.000016649453    -0.076794890063    0.005116919886
0.350     -0.060757539580    0.078209728301    0.000017126597    -0.000021530558    -0.050330397633    0.063620438488    0.000020147240    -0.000024536227
            0.000017126601    -0.000021530557    -0.072693212875    0.039215414243    0.000023163261    -0.000028635326    -0.055028611705    0.029226383650
            -0.050330398253    0.063620439272    0.000023163259    -0.000028635324    -0.062090733841    0.077101134111    0.000025970800    -0.000029327067
            0.000020147240    -0.000024536227    -0.055028611705    0.029226383650    0.000025970800    -0.000029327067    -0.073420594028    0.037978645094
0.375     -0.032760277390    0.106338293951    0.000008153401    -0.000027519396    -0.030165171813    0.089585010901    0.000009836730    -0.000031514855
            0.000008153404    -0.000027519397    -0.056857533440    0.069521173055    0.000011247030    -0.000036655295    -0.045814421863    0.054939278333
            -0.030165187768    0.089585006584    0.000011247031    -0.000036655296    -0.034358420715    0.105582613789    0.000013826149    -0.000038499224
            0.000009836733    -0.000031514857    -0.045814421223    0.054939277565    0.000013826147    -0.000038499223    -0.057852366085    0.068394936667
0.400     0.004413459969    0.122313520080    -0.000002739400    -0.000029689403    -0.000958852874    0.106663760288    -0.000002664814    -0.000034088873
            -0.000002739396    -0.000029689408    -0.030406006924    0.092658100172    -0.000003218851    -0.000039621477    -0.027185377372    0.076299852872
            -0.000958854736    0.106663760271    -0.000003218847    -0.000039621480    0.002703009021    0.122007581854    -0.000001349314    -0.000042520812
            -0.000002664810    -0.000034088875    -0.027185377036    0.076299851930    -0.000001349319    -0.000042520807    -0.031615526947    0.091761808541
0.425     0.045452391048    0.123320064484    -0.000013948874    -0.000027567231    0.033265443038    0.111851403945    -0.000015510098    -0.000031745539
            -0.000013948870    -0.000027567236    0.003400303958    0.104931531068    -0.000018117783    -0.000036901435    -0.001286691732    0.089887783347
            0.033265399347    0.111851385640    -0.000018117782    -0.000036901433    0.043821550725    0.123496440512    -0.000017388699    -0.000040561508
            -0.000015510098    -0.000031745539    -0.001286690149    0.089887782370    -0.000017388699    -0.000040561508    0.002080178190    0.104366331516
0.450     0.084408358420    0.108783186439    -0.000023864892    -0.000021301794    0.067683082110    0.103886949026    -0.000026865751    -0.000024684930
            -0.000023864895    -0.000021301797    0.040113021760    0.104125253625    -0.000031313987    -0.000028690614    0.028586842218    0.093327409591
            0.067683080296    0.103886950207    -0.000031313993    -0.000028690610    0.083063686486    0.109394443056    -0.000032025806    -0.000032646727
            -0.000026865662    -0.000024684925    0.028586843554    0.093327408136    -0.000032025806    -0.000032646727    0.038831034193    0.103954575786
0.475     0.115539298849    0.080343511308    -0.000031059317    -0.000011577175    0.097324776562    0.083325351794    -0.000035124928    -0.000013708093
            -0.000031059331    -0.000011577217    0.074736025741    0.089802195328    -0.000040911311    -0.000015905750    0.058463863006    0.085599212179
            0.097324776562    0.083325351794    -0.000040911313    -0.000015905750    0.114676260150    0.081253605334    -0.000043174774    -0.000019577169
            -0.000035124929    -0.000013708093    0.058463863006    0.085599212179    -0.000043174776    -0.000019577161    0.073674744046    0.090035493857
0.500     0.134020298006    0.041611879960    -0.000034380614    0.000000488364    0.117664660980    0.052452023664    -0.000039018401    -0.000000087835
            -0.000034380622    0.000000488358    0.102391583648    0.063371695870    -0.000045404761    -0.000000042143    0.084214373679    0.067182028825
            0.117664660064    0.052452025718    -0.000045404755    -0.000000042135    0.133809876912    0.042578703568    -0.000049102228    -0.000002805646
            -0.000039018329    -0.000000087883    0.084214374851    0.067182027355    -0.000049102230    -0.000002805646    0.101756502321    0.063944672547
0.525     0.136513940149    -0.002220623554    -0.000033064387    0.000013439650    0.125217990566    0.015012408024    -0.000037711758    0.000014548490
            -0.000033064391    0.000013439651    0.118950341836    0.027954764840    -0.000043856761    0.000017006197    0.102060449632    0.040032308202
            0.125217990383    0.015012409554    -0.000043856761    0.000017006197    0.137240703286    -0.001681178938    -0.000048623763    0.000015734958
            -0.000037711759    0.000014548490    0.102060450331    0.040032306421    -0.000048623761    0.000015734958    0.118941010298    0.028686594908
0.550     0.121657647979    -0.044882008556    -0.000026855741    0.000025539890    0.117860662442    -0.022358158426    -0.000030908531    0.000028278637
            -0.000026855758    0.000025539888    0.121661813700    -0.011958610948    -0.000036065668    0.000032536724    0.109118474138    0.007404192787
            0.117860662442    -0.022358158426    -0.000036065668    0.000032536724    0.123288391261    -0.042917504186    -0.000041275521    0.000033131502
            -0.000030908514    0.000028278552    0.109118464174    0.007404191919    -0.000041275520    0.000033131501    0.122345683437    -0.011388098262
0.575     0.090469161206    -0.079663320719    -0.000016126100    0.000034935637    0.094764976869    -0.056556634099    -0.000019008471    0.000039018311
            -0.000016126110    0.000034935595    0.109532544274    -0.051202302047    -0.000022234885    0.000045017311    0.103781895568    -0.026590102203
            0.094764976869    -0.056556634099    -0.000022234886    0.000045017315    0.092176886524    -0.079119013525    -0.000027055457    0.000047665512
            -0.000019008472    0.000039018313    0.103781895568    -0.026590102203    -0.000027055447    0.000047665513    0.110760270720    -0.051052785974
0.600     0.046664496263    -0.100114466153    -0.000001989639    0.000039766142    0.059285847214    -0.079587685000    -0.000003262173    0.000044702434
            -0.000001989641    0.000039766147    0.083307811902    -0.084418088509    -0.000004165598    0.000051706620    0.085902022468    -0.057333587993
            0.059285849604    -0.079587688208    -0.000004165599    0.000051706619    0.048770846174    -0.100912236159    -0.000007798989    0.000056175737
            -0.000003262176    0.000044702435    0.085902021467    -0.057333589492    -0.000007798958    0.000056175818    0.084930593774    -0.084813162715
0.625     -0.002762827466    -0.102226181881    0.000013444188    0.000038822291    0.016402488456    -0.087219167008    0.000014009654    0.000043994439
            0.000013444188    0.000038822298    0.045746246211    -0.106551940776    0.000015829961    0.000051010384    0.057125874128    -0.080176482355
            0.016402488826    -0.087219168974    0.000015829963    0.000051010382    -0.001332940224    -0.104205295208    0.000014079657    0.000056765466
            0.000014009626    0.000043994407    0.057125874128    -0.080176482355    0.000014079658    0.000056765465    0.047631055073    -0.107622903959
0.650     -0.051141252295    -0.084621334830    0.000027909707    0.000031697153    -0.027815747271    -0.077120124126    0.000030337573    0.000036430635
            0.000027909708    0.000031697161    0.001516910327    -0.113802760778    0.000034607751    0.000042398942    0.020910769031    -0.091276365692
            -0.027815747271    -0.077120124126    0.000034607747    0.000042398938    -0.050290817382    -0.087238237301    0.000035195729    0.000048633426
            0.000030337572    0.000036430639    0.020910769031    -0.091276365692    0.000035195730    0.000048633425    0.003464719973    -0.115667400244
0.675     -0.089902124374    -0.048553863043    0.000038639598    0.000019077536    -0.065574931321    -0.049628141082    0.000042684577    0.000022691782
            0.000038639599    0.000019077537    -0.043422268747    -0.104374292184    0.000048888810    0.000026811687    -0.017898818035    -0.088330704788
            -0.065574934511    -0.049628143496    0.000048888814    0.000026811689    -0.089839083067    -0.051754469365    0.000051909856    0.000032559320
            0.000042684578    0.000022691784    -0.017898817836    -0.088330703808    0.000051909856    0.000032559316    -0.041674208824    -0.107074586082
0.700     -0.112157579238    0.000487797245    0.000043545362    0.000003025594    -0.090172129532    -0.008847429023    0.000048700812    0.000004972011
            0.000043545370    0.000003025598    -0.082723022665    -0.078917396380    0.000056069522    0.000006640724    -0.053796910588    -0.071105410097
            -0.090172129532    -0.008847429023    0.000056069518    0.000006640722    -0.113119725396    -0.003009066824    0.000061206796    0.000010950479
            0.000048700816    0.000004972012    -0.053796910588    -0.071105410097    0.000061206796    0.000010950479    -0.081458133519    -0.082386090511
0.725     -0.114154111321    0.054686504466    0.000041739197    -0.000013677200    -0.097434952623    0.038700324574    0.000047315165    -0.000013710470
            0.000041739199    -0.000013677201    -0.110693101873    -0.040545979313    0.000054894256    -0.000014786512    -0.081537085311    -0.041578297982
            -0.097434952623    0.038700324574    0.000054894257    -0.000014786513    -0.116230897008    0.051294227050    0.000061461087    -0.000012670137
            0.000047315165    -0.000013710470    -0.081537082639    -0.041578296619    0.000061461086    -0.000012670138    -0.110164376010    -0.044601426701
0.750     -0.095859192854    0.105602267728    0.000033696451    -0.000028241997    -0.086443350891    0.085580668226    0.000038939135    -0.000030275560
            0.000033696451    -0.000028241997    -0.123286009365    0.005630598694    0.000045716458    -0.000034022586    -0.097064595095    -0.003645664184
            -0.086443350891    0.085580668226    0.000045716462    -0.000034022589    -0.098962516283    0.102729271277    0.000052778008    -0.000034522649
            0.000038939135    -0.000030275560    -0.097064594096    -0.003645664146    0.000052778003    -0.000034522650    -0.123666221854    0.001263863432
0.775     -0.060611743640    0.145897369227    0.000020983003    -0.000038523315    -0.059331824814    0.125018300320    0.000025200059    -0.000042296682
            0.000020983007    -0.000038523319    -0.118760892240    0.053376998419    0.000030248086    -0.000048269773    -0.098177742232    0.037575178821
            -0.059331829484    0.125018253828    0.000030248091    -0.000048269776    -0.064494258457    0.143892811872    0.000036781429    -0.000051415801
