# GHz S RI R 45
0.000     0.021904447000    0.000000000000    0.000000270811    -0.000000000000    0.000594206720    0.000000000000    -0.000000398698    0.000000000000
            0.000000270866    -0.000000000000    0.021451521000    0.000000000000    -0.000001650976    0.000000000000    0.000591191920    -0.000000000000
            0.000594203190    0.000000000000    -0.000001651005    0.000000000000    0.021864818000    0.000000000000    0.000000152004    -0.000000000000
            -0.000000398857    0.000000000000    0.000591161440    -0.000000000000    0.000000151668    -0.000000000000    0.021426517000    0.000000000000
0.025     0.029019958829    0.009585563579    0.000000182450    0.000011624321    0.004106867456    0.011510145521    0.000005103624    0.000015676493
            0.000000182580    0.000011624271    0.028423492299    0.009174597490    0.000004635699    0.000017132377    0.003955741634    0.011099250660
            0.004106848022    0.011510197048    0.000004635731    0.000017132368    0.028962665628    0.009575651188    0.000008264306    0.000019825898
            0.000005103548    0.000015676522    0.003955694957    0.011099310821    0.000008264269    0.000019825914    0.028352100138    0.009104520174
0.050     0.038864495109    0.011450090342    0.000013512822    0.000022697699    0.013249426172    0.019304625622    0.000022234896    0.000025027356
            0.000013512907    0.000022697621    0.038055002095    0.010900040897    0.000021823291    0.000027121556    0.012852800422    0.018696792761
            0.013249414176    0.019304639919    0.000021823326    0.000027121527    0.038832513318    0.011454820641    0.000029373048    0.000030646085
            0.000022234833    0.000025027413    0.012852767187    0.018696824102    0.000029373017    0.000030646120    0.037974064023    0.010787725183
0.075     0.049479914398    0.006941112211    0.000033365804    0.000022483573    0.025393768018    0.021004730920    0.000045110895    0.000021798938
            0.000033365854    0.000022483469    0.048600630449    0.006485696621    0.000044376300    0.000024989502    0.024800625113    0.020424605118
            0.025393760648    0.021004738260    0.000044376320    0.000024989467    0.049503637331    0.006939794094    0.000057092106    0.000026509423
            0.000045110856    0.000021799014    0.024800603783    0.020424632591    0.000057092093    0.000026509468    0.048522679310    0.006331655650
0.100     0.057590327470    -0.004188944322    0.000052375539    0.000009488413    0.037107222641    0.015736730063    0.000066235885    0.000004189269
            0.000052375549    0.000009488300    0.056958544878    -0.004419791521    0.000065314678    0.000008865524    0.036530672379    0.015367716776
            0.037107223658    0.015736732787    0.000065314685    0.000008865475    0.057690836392    -0.004225193494    0.000082775085    0.000005118127
            0.000066235875    0.000004189360    0.036530667332    0.015367741668    0.000082775093    0.000005118164    0.056896958374    -0.004619519719
0.125     0.059749440382    -0.020425039634    0.000063870239    -0.000014530849    0.044891114901    0.004336641811    0.000078106431    -0.000025897715
            0.000063870205    -0.000014530962    0.059790470370    -0.020521967994    0.000077362715    -0.000019522784    0.044676720182    0.004212213968
            0.044891116702    0.004336643962    0.000077362708    -0.000019522825    0.059935962796    -0.020548329150    0.000097444131    -0.000031497022
            0.000078106452    -0.000025897627    0.044676723384    0.004212243928    0.000097444160    -0.000031496996    0.059751894685    -0.020783078303
0.150     0.053680403525    -0.038588740522    0.000062679637    -0.000045113862    0.045957153756    -0.010842796492    0.000074783443    -0.000063196030
            0.000062679564    -0.000045113957    0.054801889359    -0.038889537967    0.000074650951    -0.000055156363    0.046492046299    -0.010914377615
            0.045957156081    -0.010842795347    0.000074650933    -0.000055156394    0.053949282052    -0.038836587620    0.000093803566    -0.000077158268
            0.000074783449    -0.000063196028    0.046492057855    -0.010914354643    0.000093803602    -0.000077158256    0.054799136981    -0.039226922907
0.175     0.038524409049    -0.054606924297    0.000046053657    -0.000075664019    0.038814864496    -0.026299138447    0.000053139767    -0.000099991006
            0.000046053560    -0.000075664079    0.040968453898    -0.055721115464    0.000053993119    -0.000090547007    0.040394528178    -0.026761329015
            0.038814867070    -0.026299138214    0.000053993084    -0.000090547039    0.038847509294    -0.055030874676    0.000067836343    -0.000122665016
            0.000053139816    -0.000099990980    0.040394545891    -0.026761311331    0.000067836374    -0.000122665021    0.040997466149    -0.056168730850
0.200     0.015443976759    -0.064201598837    0.000014426084    -0.000098695692    0.023702231730    -0.038061693516    0.000013781091    -0.000127487965
            0.000014425976    -0.000098695710    0.019135304348    -0.066922742137    0.000015830360    -0.000117056788    0.026385778191    -0.039563518145
            0.023702234116    -0.038061694386    0.000015830366    -0.000117056797    0.015765341442    -0.064847750348    0.000019978181    -0.000157350525
            0.000013781096    -0.000127487964    0.026385801126    -0.039563507657    0.000019978296    -0.000157350510    0.019170056968    -0.067518214476
0.225     -0.012451556566    -0.063816480193    -0.000028204325    -0.000107206564    0.002694848213    -0.042493841633    -0.000038563309    -0.000137476987
            -0.000028204421    -0.000107206549    -0.008017781267    -0.068955642272    -0.000035320065    -0.000126539006    0.006181488244    -0.045763534238
            0.002694850565    -0.042493843487    -0.000035320159    -0.000126539001    -0.012214296413    -0.064709626176    -0.000044366717    -0.000171108423
            -0.000038563208    -0.000137476995    0.006181522857    -0.045763531581    -0.000044366660    -0.000171108448    -0.008027185476    -0.069727299782
0.250     -0.040526626190    -0.051498490975    -0.000074684338    -0.000096419617    -0.020547771458    -0.037135441030    -0.000095457586    -0.000124313820
            -0.000074684428    -0.000096419560    -0.036307726731    -0.059649915114    -0.000091238388    -0.000113300763    -0.016974077047    -0.042779890323
            -0.020547771942    -0.037135441905    -0.000091238388    -0.000113300763    -0.040472393711    -0.052627380848    -0.000115237573    -0.000156740214
            -0.000095457487    -0.000124313870    -0.016974037870    -0.042779900488    -0.000115237585    -0.000156740230    -0.036430955048    -0.060603327420
0.275     -0.063458849009    -0.027516500400    -0.000115883876    -0.000065259295    -0.041432346291    -0.021377154959    -0.000146143518    -0.000086632698
            -0.000115883942    -0.000065259198    -0.060756629264    -0.038806690906    -0.000141338970    -0.000075840277    -0.038840550135    -0.029645485626
            -0.041432341671    -0.021377161732    -0.000141339000    -0.000075840262    -0.063685919786    -0.028824706014    -0.000179706445    -0.000112048540
            -0.000146143456    -0.000086632764    -0.038840540987    -0.029645489372    -0.000179706423    -0.000112048613    -0.061071455346    -0.039912696851
0.300     -0.076342275730    0.005434944812    -0.000142787608    -0.000017102551    -0.055393281254    0.003222320412    -0.000179884943    -0.000028251806
            -0.000142787640    -0.000017102454    -0.076548007288    -0.008465421529    -0.000174972658    -0.000017771069    -0.055002717299    -0.007367256524
            -0.055393282252    0.003222320471    -0.000174972658    -0.000017771069    -0.076926864088    0.004050374371    -0.000224563808    -0.000041004129
            -0.000179884908    -0.000028251897    -0.055002715317    -0.007367256258    -0.000224563787    -0.000041004246    -0.077123623421    -0.009655072488
0.325     -0.075792468636    0.042631045915    -0.000148719217    0.000040692088    -0.058913210676    0.033146608573    -0.000188549657    0.000042313072
            -0.000148719208    0.000040692197    -0.080035606886    0.027336502220    -0.000183996358    0.000052608265    -0.061787771679    0.021155092237
            -0.058913211547    0.033146609063    -0.000183996368    0.000052608303    -0.076766006133    0.041308211627    -0.000239369726    0.000046665739
            -0.000188549662    0.000042313004    -0.061787769787    0.021155091589    -0.000239369765    0.000046665747    -0.080911948872    0.026168113939
0.350     -0.060757539580    0.078209728301    -0.000131046413    0.000098502811    -0.050330397633    0.063620438488    -0.000168612830    0.000113724581
            -0.000131046360    0.000098502915    -0.069561639365    0.063255975098    -0.000164766717    0.000124143991    -0.057062899696    0.051645592528
            -0.050330398253    0.063620439272    -0.000164766725    0.000124143997    -0.062090733841    0.077101134111    -0.000218905914    0.000137490490
            -0.000168612845    0.000113724506    -0.057062889199    0.051645601145    -0.000218905972    0.000137490473    -0.070731983773    0.062236025490
0.375     -0.032760277390    0.106338293951    -0.000091597561    0.000146686644    -0.030165171813    0.089585010901    -0.000121754494    0.000174379874
            -0.000091597495    0.000146686709    -0.045826100189    0.093643420737    -0.000118790027    0.000185333892    -0.040663682481    0.079271866532
            -0.030165187768    0.089585006584    -0.000118790006    0.000185333929    -0.034358420715    0.105582613789    -0.000164120099    0.000217154050
            -0.000121754538    0.000174379807    -0.040663696916    0.079271826534    -0.000164120117    0.000217154074    -0.047227495857    0.092899759382
0.400     0.004413459969    0.122313520080    -0.000035848385    0.000177574627    -0.000958852874    0.106663760288    -0.000054070007    0.000214726317
            -0.000035848294    0.000177574656    -0.011774411947    0.113576718918    -0.000051969317    0.000226626026    -0.014404549964    0.099541748504
            -0.000958854736    0.106663760271    -0.000051969249    0.000226626093    0.002703009021    0.122007581854    -0.000081483075    0.000273242444
            -0.000054070075    0.000214726269    -0.014404548226    0.099541748755    -0.000081483086    0.000273242482    -0.013288254522    0.113213694998
0.425     0.045452391048    0.123320064484    0.000028583865    0.000186495312    0.033265443038    0.111851403945    0.000025573647    0.000228564969
            0.000028583956    0.000186495318    0.027950073461    0.119672213154    0.000026975823    0.000241739545    0.018296571198    0.109031646765
            0.033265399347    0.111851385640    0.000026975824    0.000241739555    0.043821550725    0.123496440512    0.000018692534    0.000296989958
            0.000025573558    0.000228564939    0.018296573101    0.109031646446    0.000018692526    0.000296989998    0.026487868977    0.119748847799
0.450     0.084408358420    0.108783186439    0.000093429553    0.000171885011    0.067683082110    0.103886949026    0.000107212131    0.000213319148
            0.000093429718    0.000171884978    0.067772324255    0.110566064028    0.000108154508    0.000227973443    0.052994479623    0.105864900104
            0.067683080296    0.103886950207    0.000108154508    0.000227973443    0.083063686486    0.109394443056    0.000124121238    0.000283902197
            0.000107212047    0.000213319156    0.052994392573    0.105864887766    0.000124121249    0.000283902247    0.066554962544    0.111079680004
0.475     0.115539298849    0.080343511308    0.000150720662    0.000134813147    0.097324776562    0.083325351794    0.000180941782    0.000169638180
            0.000150720726    0.000134813091    0.101993721449    0.087034942167    0.000181661595    0.000185852704    0.084843810525    0.089899577184
            0.097324776562    0.083325351794    0.000181661605    0.000185852721    0.114676260150    0.081253605334    0.000221992008    0.000233614184
            0.000180941792    0.000169638183    0.084843805230    0.089899568431    0.000221992013    0.000233614207    0.101224437103    0.087910203859
0.500     0.134020298006    0.041611879960    0.000193235106    0.000078509709    0.117664660980    0.052452023664    0.000237516873    0.000100930341
            0.000193235156    0.000078509639    0.125522702399    0.051874260165    0.000238217748    0.000118708191    0.109196066661    0.062741899683
            0.117664660064    0.052452025718    0.000238217739    0.000118708166    0.133809876912    0.042578703568    0.000299902649    0.000149549754
            0.000237516906    0.000100930340    0.109196066661    0.062741899683    0.000299902709    0.000149549791    0.125397352660    0.052948468970
0.525     0.136513940149    -0.002220623554    0.000214680108    0.000008234622    0.125217990566    0.015012408024    0.000268654271    0.000013220192
            0.000214680098    0.000008234614    0.134509879090    0.009605181717    0.000269736013    0.000032476748    0.122145468072    0.027618690767
            0.125217990383    0.015012409554    0.000269735983    0.000032476742    0.137240703286    -0.001681178938    0.000346763528    0.000038712334
            0.000268654281    0.000013220185    0.122145411703    0.027618758691    0.000346763577    0.000038712350    0.135173485223    0.010591652995
0.550     0.121657647979    -0.044882008556    0.000210159132    -0.000068653086    0.117860662442    -0.022358158426    0.000267481973    -0.000084701568
            0.000210159130    -0.000068653093    0.126970620460    -0.034016115024    0.000268925381    -0.000061343296    0.121113369623    -0.010903109124
            0.117860662442    -0.022358158426    0.000268925390    -0.000061343303    0.123288391261    -0.042917504186    0.000352040016    -0.000084581985
            0.000267482007    -0.000084701594    0.121113359549    -0.010903109496    0.000352040059    -0.000084581976    0.128368783027    -0.033515497816
0.575     0.090469161206    -0.079663320719    0.000177009470    -0.000142812131    0.094764976869    -0.056556634099    0.000229878548    -0.000181063420
            0.000177009470    -0.000142812131    0.103089352836    -0.072829176010    0.000232019515    -0.000156545070    0.105254738633    -0.047464476100
            0.094764976869    -0.056556634099    0.000232019515    -0.000156545052    0.092176886524    -0.079119013525    0.000310169421    -0.000212017721
            0.000229878557    -0.000181063441    0.105254737805    -0.047464477937    0.000310169465    -0.000212017727    0.104930567815    -0.073069377292
0.600     0.046664496263    -0.100114466153    0.000115710416    -0.000202735567    0.059285847214    -0.079587685000    0.000155901592    -0.000261174333
            0.000115710391    -0.000202735547    0.065183883738    -0.100821322362    0.000159964422    -0.000235620472    0.075710792574    -0.076401341702
            0.059285849604    -0.079587688208    0.000159964000    -0.000235621267    0.048770846174    -0.100912236159    0.000221642659    -0.000320647479
            0.000155901594    -0.000261174379    0.075710819090    -0.076401259112    0.000221642705    -0.000320647557    0.067210758401    -0.101883400517
0.625     -0.002762827466    -0.102226181881    0.000033201372    -0.000237134375    0.016402488456    -0.087219167008    0.000053725904    -0.000310686727
            0.000033201367    -0.000237134336    0.017980440988    -0.112878020399    0.000058605904    -0.000284622414    0.035964199803    -0.092519008584
            0.016402488826    -0.087219168974    0.000058605898    -0.000284622436    -0.001332940224    -0.104205295208    0.000093417621    -0.000392418197
            0.000053725911    -0.000310686767    0.035964254548    -0.092518939023    0.000093417621    -0.000392418259    0.019954762352    -0.114832832571
0.650     -0.051141252295    -0.084621334830    -0.000060634503    -0.000237904308    -0.027815747271    -0.077120124126    -0.000065090806    -0.000319056385
            -0.000060634506    -0.000237904318    -0.031770296449    -0.106029493969    -0.000058811439    -0.000291912300    -0.008382332668    -0.092275801706
            -0.027815747271    -0.077120124126    -0.000058812190    -0.000291912608    -0.050290817382    -0.087238237301    -0.000058431020    -0.000411855711
            -0.000065090814    -0.000319056424    -0.008382333465    -0.092275792597    -0.000058431040    -0.000411855799    -0.030144111444    -0.108889558687
0.675     -0.089902124374    -0.048553863043    -0.000150181344    -0.000200974061    -0.065574931321    -0.049628141082    -0.000181656428    -0.000280017733
            -0.000150181332    -0.000200974045    -0.076385386713    -0.080303943919    -0.000173810575    -0.000252519523    -0.050479241784    -0.074704998110
            -0.065574934511    -0.049628143496    -0.000173810569    -0.000252519515    -0.089839083067    -0.051754469365    -0.000211014655    -0.000371352153
            -0.000181655933    -0.000280017720    -0.050479196671    -0.074704987559    -0.000211014660    -0.000371352162    -0.075426038159    -0.083958746498
0.700     -0.112157579238    0.000487797245    -0.000219451855    -0.000131110128    -0.090172129532    -0.008847429023    -0.000275929426    -0.000198010591
            -0.000219451855    -0.000131110128    -0.108695670510    -0.038986310209    -0.000266886017    -0.000170665240    -0.083532943760    -0.041850899500
            -0.090172129532    -0.008847429023    -0.000266886017    -0.000170665240    -0.113119725396    -0.003009066824    -0.000339486439    -0.000274489393
            -0.000275929467    -0.000198010620    -0.083532943760    -0.041850899500    -0.000339486518    -0.000274489359    -0.108676011023    -0.043189685344
0.725     -0.114154111321    0.054686504466    -0.000256708867    -0.000039974412    -0.097434952623    0.038700324574    -0.000332342421    -0.000086139110
            -0.000256708838    -0.000039974408    -0.123501584470    0.011894656413    -0.000322631934    -0.000059122661    -0.102199544914    0.001545495874
            -0.097434952623    0.038700324574    -0.000322631953    -0.000059122664    -0.116230897008    0.051294227050    -0.000423200302    -0.000135679398
            -0.000332342479    -0.000086139125    -0.102199534915    0.001545495723    -0.000423200359    -0.000135679416    -0.124585921335    0.007495755251
0.750     -0.095859192854    0.105602267728    -0.000257231551    0.000057291350    -0.086443350891    0.085580668226    -0.000343337644    0.000037575875
            -0.000257231483    0.000057291287    -0.118603738354    0.064770028654    -0.000333424890    0.000064396917    -0.103649206934    0.049038208467
            -0.086443350891    0.085580668226    -0.000333424929    0.000064396924    -0.098962516283    0.102729271277    -0.000450414498    0.000023768558
            -0.000343337611    0.000037575811    -0.103649151737    0.049038138073    -0.000450414508    0.000023768559    -0.120806720690    0.060577617843
0.775     -0.060611743640    0.145897369227    -0.000223434084    0.000146310939    -0.059331824814    0.125018300320    -0.000309959333    0.000155117227
            -0.000223434067    0.000146310928    -0.095055899113    0.112046141651    -0.000300083117    0.000182046467    -0.087918653161    0.093817332645
            -0.059331829484    0.125018253828    -0.000300083117    0.000182046467    -0.064494258457    0.143892811872    -0.000419613529    0.000181203052
