# GHz S RI R 45
0.000     0.021904447000    0.000000000000    -0.000055494190    0.000000000000    0.000594206720    0.000000000000    -0.000067881363    0.000000000000
            -0.000055494049    0.000000000000    0.022083216000    0.000000000000    -0.000045224011    0.000000000000    0.000509792300    0.000000000000
            0.000594203190    0.000000000000    -0.000045223623    0.000000000000    0.021864818000    0.000000000000    -0.000070647174    0.000000000000
            -0.000067881028    0.000000000000    0.000509793600    0.000000000000    -0.000070647360    0.000000000000    0.022057022000    0.000000000000
0.025     0.029019958829    0.009585563579    -0.000100784442    -0.000198940026    0.004106867456    0.011510145521    -0.000130387203    -0.000258241604
            -0.000100784328    -0.000198940061    0.027652825361    0.010039395167    -0.000084551892    -0.000158970250    0.002769874495    0.012176485543
            0.004106848022    0.011510197048    -0.000084551582    -0.000158970336    0.028962665628    0.009575651188    -0.000099450120    -0.000192373774
            -0.000130387429    -0.000258241826    0.002769752232    0.012176318501    -0.000099450293    -0.000192373617    0.027564314255    0.009981937393
0.050     0.038864495109    0.011450090342    -0.000253385089    -0.000364362180    0.013249426172    0.019304625622    -0.000324284663    -0.000470296507
            -0.000253385020    -0.000364362216    0.033403176182    0.014318878321    -0.000207022712    -0.000287880722    0.008615851263    0.022279031733
            0.013249414176    0.019304639919    -0.000207022364    -0.000287880874    0.038832513318    0.011454820641    -0.000247860883    -0.000370651382
            -0.000324284388    -0.000470296636    0.008615881981    0.022279019853    -0.000247860953    -0.000370651347    0.033231580066    0.014245037658
0.075     0.049479914398    0.006941112211    -0.000482193080    -0.000442294803    0.025393768018    0.021004730920    -0.000615249257    -0.000576212971
            -0.000482192995    -0.000442294880    0.038754547938    0.015621693565    -0.000389152584    -0.000347580484    0.016638408821    0.029149595821
            0.025393760648    0.021004738260    -0.000389152281    -0.000347580703    0.049503637331    0.006939794094    -0.000483598472    -0.000458865042
            -0.000615248889    -0.000576213232    0.016638414391    0.029149594944    -0.000483598480    -0.000458865049    0.038482208806    0.015598126713
0.100     0.057590327470    -0.004188944322    -0.000741963102    -0.000420469500    0.037107222641    0.015736730063    -0.000951428180    -0.000557670486
            -0.000741963094    -0.000420469495    0.042445870493    0.014371202013    -0.000596041993    -0.000327741616    0.025102925943    0.032384954736
            0.037107223658    0.015736732787    -0.000596041268    -0.000327742437    0.057690836392    -0.004225193494    -0.000757028195    -0.000442032736
            -0.000951428180    -0.000557670486    0.025102927686    0.032384954651    -0.000757028848    -0.000442032055    0.042097162936    0.014466332233
0.125     0.059749440382    -0.020425039634    -0.000998420531    -0.000300129620    0.044891114901    0.004336641811    -0.001290693906    -0.000410950113
            -0.000998420531    -0.000300129620    0.043236474168    0.011805786523    -0.000800291207    -0.000228311177    0.032349419978    0.032438421112
            0.044891116702    0.004336643962    -0.000800290932    -0.000228311703    0.059935962796    -0.020548329150    -0.001030913215    -0.000317740101
            -0.001290693906    -0.000410950113    0.032349421250    0.032438421256    -0.001030913477    -0.000317739591    0.042875633709    0.012071204742
0.150     0.053680403525    -0.038588740522    -0.001226676040    -0.000089923250    0.045957153756    -0.010842796492    -0.001598442520    -0.000142045036
            -0.001226675777    -0.000089924092    0.040777637745    0.009559030215    -0.000980909699    -0.000055501889    0.037072638423    0.030452761014
            0.045957156081    -0.010842795347    -0.000980909709    -0.000055501889    0.053949282052    -0.038836587620    -0.001274844930    -0.000092218719
            -0.001598442520    -0.000142045036    0.037072639195    0.030452761649    -0.001274844930    -0.000092218719    0.040490456158    0.010005627900
0.175     0.038524409049    -0.054606924297    -0.001407464542    0.000203274874    0.038814864496    -0.026299138447    -0.001844329617    0.000242166485
            -0.001407464415    0.000203274354    0.035391210815    0.009454315609    -0.001120720080    0.000184946841    0.038694514152    0.028088151412
            0.038814867070    -0.026299138214    -0.001120719979    0.000184946221    0.038847509294    -0.055030874676    -0.001462311788    0.000226301254
            -0.001844329560    0.000242166150    0.038694515771    0.028088152587    -0.001462311788    0.000226301254    0.035267792823    0.010044085016
0.200     0.015443976759    -0.064201598837    -0.001519918738    0.000575462291    0.023702231730    -0.038061693516    -0.001995934640    0.000733857907
            -0.001519918645    0.000575462256    0.028292653155    0.013081198087    -0.001201423623    0.000488106726    0.037517436321    0.027111905999
            0.023702234116    -0.038061694386    -0.001201423623    0.000488106726    0.015765341442    -0.064847750348    -0.001566554459    0.000627825748
            -0.001995934640    0.000733857907    0.037517429631    0.027111910135    -0.001566554459    0.000627825748    0.028397480649    0.013728738847
0.225     -0.012451556566    -0.063816480193    -0.001533903052    0.001019149764    0.002694848213    -0.042493841633    -0.002012298342    0.001317364980
            -0.001533903052    0.001019149764    0.021458629331    0.021339252232    -0.001198445664    0.000845017344    0.034699483431    0.028957816152
            0.002694850565    -0.042493843487    -0.001198445877    0.000845016868    -0.012214296413    -0.064709626176    -0.001555869679    0.001095381174
            -0.002012298488    0.001317364574    0.034699485978    0.028957816222    -0.001555869679    0.001095381174    0.021806387279    0.021930073967
0.250     -0.040526626190    -0.051498490975    -0.001411643234    0.001512540305    -0.020547771458    -0.037135441030    -0.001847738008    0.001958407978
            -0.001411643234    0.001512540305    0.017230282131    0.034110178694    -0.001083118816    0.001234850731    0.032017582219    0.034338025939
            -0.020547771942    -0.037135441905    -0.001083119480    0.001234849749    -0.040472393711    -0.052627380848    -0.001397191171    0.001597717277
            -0.001847738417    0.001958407042    0.032017585980    0.034338025167    -0.001397191171    0.001597717277    0.017774544333    0.034529800891
0.275     -0.063458849009    -0.027516500400    -0.001117898180    0.002009445331    -0.041432346291    -0.021377154959    -0.001463957173    0.002595173139
            -0.001117898180    0.002009445331    0.017777415681    0.050115184064    -0.000831037642    0.001618253130    0.031443687357    0.042990373805
            -0.041432341671    -0.021377161732    -0.000831038116    0.001618252662    -0.063685919786    -0.028824706014    -0.001065483131    0.002083270673
            -0.001463957527    0.002595172710    0.031443691539    0.042990373224    -0.001065483131    0.002083270673    0.018415660809    0.050281881341
0.300     -0.076342275730    0.005434944812    -0.000638065888    0.002440448602    -0.055393281254    0.003222320412    -0.000849500602    0.003141928037
            -0.000638065888    0.002440448602    0.024521943711    0.067104352641    -0.000435752266    0.001939686890    0.034633318466    0.053687606016
            -0.055393282252    0.003222320471    -0.000435752266    0.001939686890    -0.076926864088    0.004050374371    -0.000558229949    0.002484480798
            -0.000849500602    0.003141928037    0.034633322214    0.053687603598    -0.000558229603    0.002484481286    0.025118693545    0.066995236560
0.325     -0.075792468636    0.042631045915    0.000006522371    0.002725992797    -0.058913210676    0.033146608573    -0.000034962433    0.003504836821
            0.000006522371    0.002725992797    0.037716922849    0.082301918896    0.000080639633    0.002138714993    0.042471669150    0.064503853733
            -0.058913211547    0.033146609063    0.000080639633    0.002138714993    -0.076766006133    0.041308211627    0.000094167828    0.002730869801
            -0.000034962433    0.003504836821    0.042471673653    0.064503850768    0.000094167781    0.002730869802    0.038136183435    0.081963920299
0.350     -0.060757539580    0.078209728301    0.000755129571    0.002799950755    -0.050330397633    0.063620438488    0.000905183203    0.003608273216
            0.000755129571    0.002799950755    0.056316672526    0.093048297726    0.000666802932    0.002168490141    0.054841203691    0.073294150304
            -0.050330398253    0.063620439272    0.000666802932    0.002168490141    -0.062090733841    0.077101134111    0.000829153569    0.002769441358
            0.000905183203    0.003608273216    0.054841206331    0.073294145831    0.000829153569    0.002769441358    0.056457492980    0.092591208815
0.375     -0.032760277390    0.106338293951    0.001519510986    0.002630169713    -0.030165171813    0.089585010901    0.001867130810    0.003416315312
            0.001519511036    0.002630169800    0.078181764316    0.097385663054    0.001253281207    0.002010344999    0.070654261319    0.078188384557
            -0.030165187768    0.089585006584    0.001253281207    0.002010344999    -0.034358420715    0.105582613789    0.001565057516    0.002579878890
            0.001867126236    0.003416314735    0.070654265413    0.078188380858    0.001565057471    0.002579878918    0.078003816404    0.096958610165
0.400     0.004413459969    0.122313520080    0.002206724393    0.002228580156    -0.000958852874    0.106663760288    0.002743328993    0.002942765277
            0.002206724463    0.002228580227    0.100544292727    0.094472109525    0.001770895943    0.001679355327    0.088130055802    0.077989625934
            -0.000958854736    0.106663760271    0.001770895943    0.001679355327    0.002703009021    0.122007581854    0.002221641353    0.002179693121
            0.002743328993    0.002942765277    0.088130058525    0.077989622857    0.002221641353    0.002179693121    0.100080621571    0.094230282930
0.425     0.045452391048    0.123320064484    0.002741755944    0.001645625114    0.033265443038    0.111851403945    0.003447004827    0.002243784686
            0.002741756030    0.001645625165    0.120560596364    0.084689101384    0.002167258730    0.001217465017    0.105164710061    0.072354892649
            0.033265399347    0.111851385640    0.002167258751    0.001217464979    0.043821550725    0.123496440512    0.002737751800    0.001616031904
            0.003447004827    0.002243784686    0.105164704349    0.072354883310    0.002737751685    0.001616031901    0.119911916212    0.084761852805
0.450     0.084408358420    0.108783186439    0.003082998442    0.000954676352    0.067683082110    0.103886949026    0.003928338246    0.001400232426
            0.003082998442    0.000954676352    0.135820381305    0.069522029490    0.002416335905    0.000680198379    0.119712582762    0.061813892090
            0.067683080296    0.103886950207    0.002416335905    0.000680198379    0.083063686486    0.109394443056    0.003081379000    0.000950789108
            0.003928338246    0.001400232426    0.119712576035    0.061813883323    0.003081378984    0.000950789162    0.135136623687    0.069984661041
0.475     0.115539298849    0.080343511308    0.003226050919    0.000232092705    0.097324776562    0.083325351794    0.004177599456    0.000495906898
            0.003226050921    0.000232092683    0.144704294235    0.051259813786    0.002518678092    0.000121664998    0.130084410514    0.047649292501
            0.097324776562    0.083325351794    0.002518678092    0.000121665011    0.114676260150    0.081253605334    0.003249196798    0.000244316724
            0.004177599456    0.000495906898    0.130084411346    0.047649290230    0.003249196798    0.000244316724    0.144158125301    0.052119830026
0.500     0.134020298006    0.041611879960    0.003198552529    -0.000460631086    0.117664660980    0.052452023664    0.004218607566    -0.000401341737
            0.003198552325    -0.000460631102    0.146607049839    0.032639462531    0.002495733394    -0.000417451564    0.135195925001    0.031729585007
            0.117664660064    0.052452025718    0.002495727448    -0.000417444681    0.133809876912    0.042578703568    0.003260072489    -0.000457208852
            0.004218607562    -0.000401341781    0.135195925001    0.031729585007    0.003260072401    -0.000457208758    0.146364651736    0.033835664865
0.525     0.136513940149    -0.002220623554    0.003046803398    -0.001089745253    0.125217990566    0.015012408024    0.004093758419    -0.001252260733
            0.003046803398    -0.001089745253    0.142019960385    0.016454449026    0.002381697815    -0.000919297850    0.134755665555    0.016270435934
            0.125217990383    0.015012409554    0.002381697815    -0.000919297850    0.137240703286    -0.001681178938    0.003146730320    -0.001131687780
            0.004093758515    -0.001252260763    0.134755655826    0.016270433089    0.003146730320    -0.001131687780    0.142228492272    0.017866504296
0.550     0.121657647979    -0.044882008556    0.002817230751    -0.001654717993    0.117860662442    -0.022358158426    0.003843999517    -0.002050370669
            0.002817230751    -0.001654717993    0.132525697364    0.005162471998    0.002204190458    -0.001343052465    0.129413544747    0.003518630175
            0.117860662442    -0.022358158426    0.002204190481    -0.001343052427    0.123288391261    -0.042917504186    0.002930808337    -0.001719229431
            0.003843999482    -0.002050370736    0.129413544747    0.003518630175    0.002930808250    -0.001719229380    0.133306049761    0.006589006088
0.575     0.090469161206    -0.079663320719    0.002537070323    -0.002182994646    0.094764976869    -0.056556634099    0.003490452948    -0.002814178861
            0.002537070589    -0.002182994643    0.120657856535    0.000464336116    0.001958952931    -0.001785734591    0.120738169133    -0.004643007844
            0.094764976869    -0.056556634099    0.001958952795    -0.001785734592    0.092176886524    -0.079119013525    0.002603174297    -0.002335930012
            0.003490452948    -0.002814178861    0.120738178274    -0.004643030354    0.002603174297    -0.002335930012    0.122010376898    0.001607808744
0.600     0.046664496263    -0.100114466153    0.002196071136    -0.002709266802    0.059285847214    -0.079587685000    0.003017922797    -0.003564479384
            0.002196071136    -0.002709266802    0.109604115803    0.002891122843    0.001661291239    -0.002214693685    0.111114901733    -0.007064503056
            0.059285849604    -0.079587688208    0.001661291201    -0.002214693714    0.048770846174    -0.100912236159    0.002183151713    -0.002919924779
            0.003017922797    -0.003564479384    0.111114901733    -0.007064503056    0.002183151764    -0.002919924741    0.111352159296    0.003498363981
0.625     -0.002762827466    -0.102226181881    0.001755756930    -0.003253979808    0.016402488456    -0.087219167008    0.002390481360    -0.004305958435
            0.001755756930    -0.003253979808    0.102660011120    0.011494703873    0.001266001578    -0.002642126879    0.103407366114    -0.003801265937
            0.016402488826    -0.087219168974    0.001266001532    -0.002642126902    -0.001332940224    -0.104205295208    0.001624664448    -0.003474066464
            0.002390481360    -0.004305958435    0.103407366088    -0.003801266659    0.001624664448    -0.003474066464    0.104539215496    0.011434601054
0.650     -0.051141252295    -0.084621334830    0.001135755688    -0.003797705176    -0.027815747271    -0.077120124126    0.001529439210    -0.005003839004
            0.001135755688    -0.003797705176    0.102504443679    0.023817641173    0.000727216995    -0.003037449730    0.100277565898    0.003662020736
            -0.027815747271    -0.077120124126    0.000727216995    -0.003037449730    -0.050290817382    -0.087238237301    0.000888279472    -0.003954948692
            0.001529439210    -0.005003839004    0.100277575891    0.003662021100    0.000888279472    -0.003954948692    0.104220173943    0.023084583992
0.675     -0.089902124374    -0.048553863043    0.000285606848    -0.004243773558    -0.065574931321    -0.049628141082    0.000397201250    -0.005541795182
            0.000285606774    -0.004243773563    0.110439103695    0.036285234020    0.000020512892    -0.003327794779    0.103409526468    0.012636525914
            -0.065574934511    -0.049628143496    0.000020512892    -0.003327794779    -0.089839083067    -0.051754469365    -0.000038108268    -0.004278353884
            0.000397201250    -0.005541795182    0.103409526468    0.012636525914    -0.000038108193    -0.004278353885    0.111716330485    0.035002287816
0.700     -0.112157579238    0.000487797245    -0.000781172531    -0.004466103181    -0.090172129532    -0.008847429023    -0.000972631364    -0.005782076919
            -0.000781172618    -0.004466102760    0.125934846159    0.045015949143    -0.000828149718    -0.003420436175    0.112991807227    0.019887722697
            -0.090172129532    -0.008847429023    -0.000828149836    -0.003420436661    -0.113119725396    -0.003009066824    -0.001111574403    -0.004345381865
            -0.000972631364    -0.005782076919    0.112991807227    0.019887722697    -0.001111574403    -0.004345381865    0.126574769742    0.043418076200
0.725     -0.114154111321    0.054686504466    -0.001973144641    -0.004349746985    -0.097434952623    0.038700324574    -0.002465521451    -0.005606158240
            -0.001973144683    -0.004349747076    0.146686924487    0.046797662167    -0.001735353399    -0.003241198844    0.127636236706    0.022490553712
            -0.097434952623    0.038700324574    -0.001735353399    -0.003241198844    -0.116230897008    0.051294227050    -0.002230175446    -0.004082793102
            -0.002465517066    -0.005606156235    0.127636238001    0.022490546361    -0.002230175493    -0.004082793190    0.146612180032    0.045184425213
0.750     -0.095859192854    0.105602267728    -0.003141159498    -0.003840203669    -0.086443350891    0.085580668226    -0.003909968659    -0.004964722604
            -0.003141159498    -0.003840203669    0.169222439230    0.039850270386    -0.002582949342    -0.002769234442    0.144821709240    0.018548921138
            -0.086443350891    0.085580668226    -0.002582949342    -0.002769234442    -0.098962516283    0.102729271277    -0.003259399884    -0.003477683251
            -0.003909968659    -0.004964722604    0.144821709240    0.018548921138    -0.003259399884    -0.003477683251    0.168491789630    0.038525088283
0.775     -0.060611743640    0.145897369227    -0.004124842769    -0.002964792823    -0.059331824814    0.125018300320    -0.005127737190    -0.003897287254
            -0.004124842769    -0.002964792823    0.189750692725    0.024119631350    -0.003256879068    -0.002046163418    0.161568569087    0.007510988032
            -0.059331829484    0.125018253828    -0.003256879068    -0.002046163418    -0.064494258457    0.143892811872    -0.004073787119    -0.002584512083
            -0.005127737190    -0.003897287254    0.161568569087    0.007510988032    -0.004073787119    -0.002584512083    0.188543163527    0.023330594550
