# GHz S RI R 45
0.000     0.021904447000    0.000000000000    0.000006730094    -0.000000000000    0.000594206720    0.000000000000    0.000000758931    -0.000000000000
            0.000006730136    -0.000000000000    0.020937073000    0.000000000000    0.000003500654    -0.000000000000    0.000550801700    -0.000000000000
            0.000594203190    0.000000000000    0.000003500597    -0.000000000000    0.021864818000    0.000000000000    0.000003221499    -0.000000000000
            0.000000758938    -0.000000000000    0.000550720380    -0.000000000000    0.000003221462    -0.000000000000    0.020897911000    0.000000000000
0.025     0.029019958829    0.009585563579    -0.000001828314    -0.000002012470    0.004106867456    0.011510145521    -0.000000081933    0.000001857545
            -0.000001828281    -0.000002012492    0.027622371738    0.008749006874    0.000001749104    0.000001058954    0.003805207442    0.010546114348
            0.004106848022    0.011510197048    0.000001749054    0.000001058977    0.028962665628    0.009575651188    0.000004744977    0.000001877067
            -0.000000081975    0.000001857560    0.003805111315    0.010546191556    0.000004744955    0.000001877076    0.027555020297    0.008699526253
0.050     0.038864495109    0.011450090342    -0.000000451982    0.000004105101    0.013249426172    0.019304625622    0.000002470770    0.000004497893
            -0.000000451951    0.000004105070    0.037023986007    0.010350648171    0.000004079360    0.000003876211    0.012413577767    0.017775529672
            0.013249414176    0.019304639919    0.000004079317    0.000003876250    0.038832513318    0.011454820641    0.000007403755    0.000002010868
            0.000002470741    0.000004497919    0.012413504738    0.017775591648    0.000007403734    0.000002010891    0.036953051508    0.010267969125
0.075     0.049479914398    0.006941112211    0.000004767997    0.000005854581    0.025393768018    0.021004730920    0.000006733391    0.000004427179
            0.000004768014    0.000005854541    0.047489114070    0.006068443057    0.000008508533    0.000003449118    0.024091077365    0.019432226937
            0.025393760648    0.021004738260    0.000008508507    0.000003449168    0.049503637331    0.006939794094    0.000010366465    0.000000245676
            0.000006733375    0.000004427214    0.024091029905    0.019432296925    0.000010366452    0.000000245709    0.047424332203    0.005962716456
0.100     0.057590327470    -0.004188944322    0.000010010690    0.000003383468    0.037107222641    0.015736730063    0.000010660675    0.000001520590
            0.000010010688    0.000003383435    0.056113655449    -0.004542463689    0.000012305329    -0.000000153917    0.035796635489    0.014560805239
            0.037107223658    0.015736732787    0.000012305321    -0.000000153856    0.057690836392    -0.004225193494    0.000012622774    -0.000003505647
            0.000010660672    0.000001520628    0.035796617453    0.014560886736    0.000012622775    -0.000003505613    0.056077810975    -0.004664850321
0.125     0.059749440382    -0.020425039634    0.000013034919    -0.000002090742    0.044891114901    0.004336641811    0.000012793729    -0.000003598495
            0.000013034904    -0.000002090777    0.059704552951    -0.020399424997    0.000013805459    -0.000006013713    0.044343435401    0.003672490623
            0.044891116702    0.004336643962    0.000013805472    -0.000006013659    0.059935962796    -0.020548329150    0.000013107385    -0.000008817843
            0.000012793739    -0.000003598463    0.044343443972    0.003672568868    0.000013107397    -0.000008817822    0.059729286394    -0.020558456544
0.150     0.053680403525    -0.038588740522    0.000012735808    -0.000008905085    0.045957153756    -0.010842796492    0.000012211410    -0.000009797389
            0.000012735781    -0.000008905112    0.055964158084    -0.038895651173    0.000012121480    -0.000012648751    0.047057134034    -0.011378738501
            0.045957156081    -0.010842795347    0.000012121512    -0.000012648700    0.053949282052    -0.038836587620    0.000011079599    -0.000014727944
            0.000012211431    -0.000009797363    0.047057164324    -0.011378672803    0.000011079619    -0.000014727930    0.056079197669    -0.039108772937
0.175     0.038524409049    -0.054606924297    0.000008917884    -0.000015193647    0.038814864496    -0.026299138447    0.000008605100    -0.000015668343
            0.000008917850    -0.000015193661    0.043705521812    -0.056542077731    0.000007158650    -0.000018398846    0.042270453271    -0.027654857517
            0.038814867070    -0.026299138214    0.000007158694    -0.000018398813    0.038847509294    -0.055030874676    0.000006277213    -0.000020032965
            0.000008605131    -0.000015668323    0.042270506496    -0.027654801734    0.000006277237    -0.000020032961    0.043928236230    -0.056856206662
0.200     0.015443976759    -0.064201598837    0.000002215483    -0.000019362114    0.023702231730    -0.038061693516    0.000002309629    -0.000019831462
            0.000002215453    -0.000019362113    0.023429004990    -0.069478132534    -0.000000428369    -0.000021796663    0.029726251501    -0.041661135949
            0.023702234116    -0.038061694386    -0.000000428312    -0.000021796646    0.015765341442    -0.064847750348    -0.000000988982    -0.000023452569
            0.000002309661    -0.000019831456    0.029726325947    -0.041661098799    -0.000000988959    -0.000023452574    0.023752399732    -0.069955898623
0.225     -0.012451556566    -0.063816480193    -0.000006109959    -0.000020269784    0.002694848213    -0.042493841633    -0.000005757846    -0.000021150270
            -0.000006109997    -0.000020269770    -0.002669779573    -0.074225534564    -0.000009404399    -0.000021790452    0.010726372301    -0.049977132992
            0.002694850565    -0.042493843487    -0.000009404339    -0.000021790460    -0.012214296413    -0.064709626176    -0.000009867871    -0.000023899387
            -0.000005757812    -0.000021150276    0.010726449447    -0.049977122571    -0.000009867852    -0.000023899400    -0.002285596277    -0.074930917661
0.250     -0.040526626190    -0.051498490975    -0.000014478065    -0.000017469539    -0.020547771458    -0.037135441030    -0.000014254999    -0.000018975638
            -0.000014478087    -0.000017469516    -0.030942430263    -0.068419947159    -0.000018199547    -0.000017965169    -0.011984741472    -0.049936857875
            -0.020547771942    -0.037135441905    -0.000018199493    -0.000017965197    -0.040472393711    -0.052627380848    -0.000019028099    -0.000020694823
            -0.000014254971    -0.000018975655    -0.011984671047    -0.049936871691    -0.000019028088    -0.000020694840    -0.030570455052    -0.069401122754
0.275     -0.063458849009    -0.027516500400    -0.000021251089    -0.000011243397    -0.041432346291    -0.021377154959    -0.000021630196    -0.000013294676
            -0.000021251102    -0.000011243366    -0.056858183956    -0.051378412095    -0.000025170371    -0.000010616869    -0.034630314379    -0.040214822231
            -0.041432341671    -0.021377161732    -0.000025170334    -0.000010616910    -0.063685919786    -0.028824706014    -0.000026891502    -0.000013782974
            -0.000021630180    -0.000013294697    -0.034630242074    -0.040214866019    -0.000026891495    -0.000013783000    -0.056597168849    -0.052651073195
0.300     -0.076342275730    0.005434944812    -0.000025104444    -0.000002548383    -0.055393281254    0.003222320412    -0.000026447295    -0.000004782021
            -0.000025104446    -0.000002548348    -0.075797143513    -0.024414902807    -0.000028947493    -0.000000729311    -0.053065199110    -0.021208613273
            -0.055393282252    0.003222320471    -0.000028947448    -0.000000729396    -0.076926864088    0.004050374371    -0.000031915022    -0.000003826218
            -0.000026447287    -0.000004782048    -0.053065138867    -0.021208685864    -0.000031915035    -0.000003826237    -0.075755581603    -0.025949149658
0.325     -0.075792468636    0.042631045915    -0.000025259828    0.000007177895    -0.058913210676    0.033146608573    -0.000027686733    0.000005308350
            -0.000025259815    0.000007177925    -0.083928962647    0.009256161891    -0.000028702996    0.000010202555    -0.063557782357    0.004923066904
            -0.058913211547    0.033146609063    -0.000028702993    0.000010202509    -0.076766006133    0.041308211627    -0.000032956291    0.000007875468
            -0.000027686733    0.000005308320    -0.063557748491    0.004922986165    -0.000032956307    0.000007875459    -0.084203388045    0.007539854024
0.350     -0.060757539580    0.078209728301    -0.000021646955    0.000016357463    -0.050330397633    0.063620438488    -0.000024971405    0.000015417892
            -0.000021646930    0.000016357492    -0.078997866557    0.044995871723    -0.000024330901    0.000020497472    -0.063536853383    0.034584312996
            -0.050330398253    0.063620439272    -0.000024330913    0.000020497474    -0.062090733841    0.077101134111    -0.000029520035    0.000019627274
            -0.000024971419    0.000015417859    -0.063536850075    0.034584224947    -0.000029520062    0.000019627189    -0.079649678223    0.043219880918
0.375     -0.032760277390    0.106338293951    -0.000014851630    0.000023585240    -0.030165171813    0.089585010901    -0.000018609794    0.000024012347
            -0.000014851614    0.000023585231    -0.060788711142    0.077531259481    -0.000016426229    0.000028625841    -0.052089487267    0.063365361227
            -0.030165187768    0.089585006584    -0.000016426255    0.000028625805    -0.034358420715    0.105582613789    -0.000021858612    0.000029703977
            -0.000018609830    0.000024012298    -0.052089493510    0.063365323732    -0.000021858653    0.000029703946    -0.061825571876    0.075844064657
0.400     0.004413459969    0.122313520080    -0.000005911302    0.000027896929    -0.000958852874    0.106663760288    -0.000009459443    0.000029874748
            -0.000005911294    0.000027896915    -0.031214363832    0.101862968415    -0.000006093416    0.000033495109    -0.030139956187    0.086814210132
            -0.000958854736    0.106663760271    -0.000006093483    0.000033495179    0.002703009021    0.122007581854    -0.000010862469    0.000036657290
            -0.000009459511    0.000029874693    -0.030140015220    0.086814135651    -0.000010862545    0.000036657240    -0.032580618398    0.100414680402
0.425     0.045452391048    0.123320064484    0.000003939269    0.000028851749    0.033265443038    0.111851403945    0.000001298733    0.000032259014
            0.000003939316    0.000028851748    0.006003609398    0.114078953878    0.000005314362    0.000034570687    -0.000271931728    0.101153704483
            0.033265399347    0.111851385640    0.000005314322    0.000034570676    0.043821550725    0.123496440512    0.000002160124    0.000039530479
            0.000001298732    0.000032259022    -0.000272003978    0.101153654289    0.000002160116    0.000039530499    0.004426960080    0.112994942665
0.450     0.084408358420    0.108783186439    0.000013494426    0.000026484304    0.067683082110    0.103886949026    0.000012381105    0.000030896582
            0.000013494425    0.000026484280    0.045921538758    0.111947288212    0.000016422231    0.000031841008    0.033689833836    0.103845140776
            0.067683080296    0.103886950207    0.000016422150    0.000031841011    0.083063686486    0.109394443056    0.000015700593    0.000037893557
            0.000012381021    0.000030896583    0.033689749534    0.103845115560    0.000015700595    0.000037893578    0.044306499012    0.111302119983
0.475     0.115539298849    0.080343511308    0.000021685006    0.000021107938    0.097324776562    0.083325351794    0.000022537561    0.000025871486
            0.000021685038    0.000021107910    0.083095034610    0.095197254136    0.000025965684    0.000025580675    0.067233746065    0.093901144308
            0.097324776562    0.083325351794    0.000025965605    0.000025580700    0.114676260150    0.081253605334    0.000028218117    0.000031727702
            0.000022537568    0.000025871495    0.067233656318    0.093901147072    0.000028218128    0.000031727722    0.081652459286    0.094993223961
0.500     0.134020298006    0.041611879960    0.000027800367    0.000013204730    0.117664660980    0.052452023664    0.000030746253    0.000017529884
            0.000027800348    0.000013204717    0.112305189007    0.065540134728    0.000033157877    0.000016282760    0.095756131391    0.072000558313
            0.117664660064    0.052452025718    0.000033157891    0.000016282766    0.133809876912    0.042578703568    0.000038431852    0.000021370174
            0.000030746262    0.000017529888    0.095756047445    0.072000586759    0.000038431866    0.000021370191    0.111282878958    0.065680882716
0.525     0.136513940149    -0.002220623554    0.000031257926    0.000003563346    0.125217990566    0.015012408024    0.000036119868    0.000006576551
            0.000031257904    0.000003563340    0.129205805180    0.026457484251    0.000037330779    0.000004897701    0.115222132908    0.040371977393
            0.125217990383    0.015012409554    0.000037330761    0.000004897735    0.137240703286    -0.001681178938    0.000045221795    0.000007672624
            0.000036119829    0.000006576623    0.115222061059    0.040372031245    0.000045221825    0.000007672632    0.129071434154    0.026669048540
0.550     0.121657647979    -0.044882008556    0.000031532760    -0.000006989638    0.117860662442    -0.022358158426    0.000037656925    -0.000005697175
            0.000031532737    -0.000006989630    0.130873204962    -0.017174960978    0.000037660372    -0.000007234247    0.121860167865    0.004108293108
            0.117860662442    -0.022358158426    0.000037660379    -0.000007234255    0.123288391261    -0.042917504186    0.000047081083    -0.000007344187
            0.000037656933    -0.000005697177    0.121860125292    0.004108368752    0.000047081073    -0.000007344109    0.130938116013    -0.015125129166
0.575     0.090469161206    -0.079663320719    0.000028296565    -0.000017478155    0.094764976869    -0.056556634099    0.000034837523    -0.000018843770
            0.000028296543    -0.000017478189    0.116204869711    -0.059587958833    0.000033847471    -0.000019752060    0.114270879503    -0.034916829758
            0.094764976869    -0.056556634099    0.000033847479    -0.000019752025    0.092176886524    -0.079119013525    0.000043525189    -0.000023961874
            0.000034837533    -0.000018843778    0.114270862391    -0.034916783098    0.000043525255    -0.000023961888    0.116854560923    -0.058599208821
0.600     0.046664496263    -0.100114466153    0.000021452103    -0.000026650814    0.059285847214    -0.079587685000    0.000027450779    -0.000030715123
            0.000021452085    -0.000026650792    0.086204024617    -0.094568620794    0.000025860727    -0.000030674393    0.092690039723    -0.069106183160
            0.059285849604    -0.079587688208    0.000025860760    -0.000030674321    0.048770846174    -0.100912236159    0.000034356878    -0.000038927440
            0.000027450785    -0.000030715133    0.092690044264    -0.069106093418    0.000034356925    -0.000038927379    0.087814939515    -0.094408481862
0.625     -0.002762827466    -0.102226181881    0.000011717718    -0.000033265553    0.016402488456    -0.087219167008    0.000016019070    -0.000039702333
            0.000011717683    -0.000033265561    0.045079251102    -0.116855254808    0.000014297053    -0.000038621830    0.059537016611    -0.093773291788
            0.016402488826    -0.087219168974    0.000014297054    -0.000038621844    -0.001332940224    -0.104205295208    0.000019915758    -0.000050342660
            0.000016019100    -0.000039702311    0.059537053641    -0.093773209052    0.000019915791    -0.000050342650    0.046739401441    -0.117837261069
0.650     -0.051141252295    -0.084621334830    -0.000000333308    -0.000036414337    -0.027815747271    -0.077120124126    0.000001444237    -0.000044373348
            -0.000000333304    -0.000036414311    -0.002880995671    -0.123322092323    0.000000009457    -0.000042385748    0.018286659168    -0.105201477185
            -0.027815747271    -0.077120124126    0.000000009530    -0.000042385711    -0.050290817382    -0.087238237301    0.000001585244    -0.000056213409
            0.000001444232    -0.000044373359    0.018286722214    -0.105201415476    0.000001585240    -0.000056213437    -0.001215918716    -0.124987105697
0.675     -0.089902124374    -0.048553863043    -0.000013214560    -0.000035028253    -0.065574931321    -0.049628141082    -0.000014411400    -0.000043437989
            -0.000013214543    -0.000035028227    -0.051088339438    -0.111589184118    -0.000015291629    -0.000040835646    -0.025442524107    -0.100592096671
            -0.065574934511    -0.049628143496    -0.000015291597    -0.000040835649    -0.089839083067    -0.051754469365    -0.000018357053    -0.000055135428
            -0.000014411366    -0.000043437989    -0.025442481638    -0.100592076468    -0.000018357025    -0.000055135442    -0.049554503483    -0.114081064656
0.700     -0.112157579238    0.000487797245    -0.000025061115    -0.000029003265    -0.090172129532    -0.008847429023    -0.000029211911    -0.000036679260
            -0.000025061101    -0.000029003249    -0.092508456846    -0.082703390973    -0.000029467145    -0.000033796453    -0.065320471089    -0.079954813966
            -0.090172129532    -0.008847429023    -0.000029467151    -0.000033796460    -0.113119725396    -0.003009066824    -0.000037092487    -0.000046776728
            -0.000029211930    -0.000036679271    -0.065320384938    -0.079954793959    -0.000037092515    -0.000046776747    -0.091416318422    -0.086006742827
0.725     -0.114154111321    0.054686504466    -0.000034150776    -0.000019051219    -0.097434952623    0.038700324574    -0.000040758492    -0.000024928357
            -0.000034150749    -0.000019051212    -0.121095487128    -0.040369838411    -0.000040482994    -0.000022031832    -0.095503282256    -0.045784849113
            -0.097434952623    0.038700324574    -0.000040482926    -0.000022031878    -0.116230897008    0.051294227050    -0.000051881255    -0.000032063648
            -0.000040758505    -0.000024928355    -0.095503195161    -0.045784868858    -0.000051881276    -0.000032063660    -0.120738023260    -0.044312033811
0.750     -0.095859192854    0.105602267728    -0.000039256374    -0.000006525715    -0.086443350891    0.085580668226    -0.000047468614    -0.000009843109
            -0.000039256404    -0.000006525657    -0.132744067712    0.009639994585    -0.000046834399    -0.000007072486    -0.111611886769    -0.002673413355
            -0.086443350891    0.085580668226    -0.000046834414    -0.000007072479    -0.098962516283    0.102729271277    -0.000060661574    -0.000012964034
            -0.000047468625    -0.000009843102    -0.111611815390    -0.002673470118    -0.000060661598    -0.000012964039    -0.133327044142    0.005346996117
0.775     -0.060611743640    0.145897369227    -0.000039870412    0.000006939314    -0.059331824814    0.125018300320    -0.000048653602    0.000006550151
            -0.000039870390    0.000006939295    -0.125940677533    0.060491406016    -0.000047824688    0.000009174979    -0.111426649661    0.043528748860
            -0.059331829484    0.125018253828    -0.000047824699    0.000009174990    -0.064494258457    0.143892811872    -0.000062414032    0.000008018220
