# GHz S RI R 45
0.000     0.021904447000    0.000000000000    -0.000001917077    0.000000000000    0.000594206720    0.000000000000    -0.000002010862    0.000000000000
            -0.000001917094    0.000000000000    0.022736300000    0.000000000000    0.000033369656    -0.000000000000    0.000558192170    0.000000000000
            0.000594203190    0.000000000000    0.000033369558    -0.000000000000    0.021864818000    0.000000000000    -0.000002960169    0.000000000000
            -0.000002010864    0.000000000000    0.000558110460    0.000000000000    -0.000002960178    0.000000000000    0.022676918000    0.000000000000
0.025     0.029019958829    0.009585563579    0.000001662888    -0.000000243668    0.004106867456    0.011510145521    0.000000203698    -0.000001198606
            0.000001662878    -0.000000243663    0.028257696611    0.009550168762    -0.000011997498    -0.000026846056    0.002902318627    0.011767840624
            0.004106848022    0.011510197048    -0.000011997521    -0.000026846045    0.028962665628    0.009575651188    0.000003159868    0.000001383208
            0.000000203698    -0.000001198606    0.002902111735    0.011767678446    0.000003159858    0.000001383214    0.028207153176    0.009602236168
0.050     0.038864495109    0.011450090342    0.000000655882    -0.000004411156    0.013249426172    0.019304625622    -0.000001169604    -0.000004768943
            0.000000655867    -0.000004411151    0.034214524299    0.013081122065    -0.000026059096    -0.000006871532    0.009011991202    0.021280862557
            0.013249414176    0.019304639919    -0.000026059096    -0.000006871532    0.038832513318    0.011454820641    0.000003367205    -0.000003742477
            -0.000001169597    -0.000004768946    0.009011940634    0.021280858994    0.000003367197    -0.000003742473    0.034208591644    0.013193102919
0.075     0.049479914398    0.006941112211    -0.000002608826    -0.000006640684    0.025393768018    0.021004730920    -0.000004607549    -0.000006635306
            -0.000002608840    -0.000006640676    0.039674488325    0.013361749056    -0.000024402605    0.000006230262    0.017289201749    0.027229088166
            0.025393760648    0.021004738260    -0.000024402605    0.000006230262    0.049503637331    0.006939794094    0.000000508618    -0.000006909877
            -0.000004607549    -0.000006635307    0.017289127689    0.027229099654    0.000000508611    -0.000006909871    0.039748160690    0.013501783801
0.100     0.057590327470    -0.004188944322    -0.000006668711    -0.000006916281    0.037107222641    0.015736730063    -0.000008740373    -0.000006611197
            -0.000006668721    -0.000006916272    0.043206216465    0.010830751690    -0.000018801283    0.000013753879    0.025775191898    0.029203764271
            0.037107223658    0.015736732787    -0.000018801283    0.000013753879    0.057690836392    -0.004225193494    -0.000003444917    -0.000008172282
            -0.000008740374    -0.000006611194    0.025775112930    0.029203780617    -0.000003444916    -0.000008172282    0.043373136773    0.010953491409
0.125     0.059749440382    -0.020425039634    -0.000010640948    -0.000005386396    0.044891114901    0.004336641811    -0.000012777115    -0.000004801853
            -0.000010640956    -0.000005386386    0.043390291821    0.006788106819    -0.000012533306    0.000017106736    0.032605147016    0.027761010800
            0.044891116702    0.004336643962    -0.000012533306    0.000017106736    0.059935962796    -0.020548329150    -0.000007617051    -0.000007694629
            -0.000012777116    -0.000004801852    0.032605069838    0.027761030487    -0.000007617055    -0.000007694622    0.043635769037    0.006847486086
0.150     0.053680403525    -0.038588740522    -0.000013979702    -0.000002278332    0.045957153756    -0.010842796492    -0.000016187595    -0.000001402402
            -0.000013979710    -0.000002278316    0.039784552334    0.003146368981    -0.000007045344    0.000017682650    0.036334434835    0.024243365319
            0.045957156081    -0.010842795347    -0.000007045377    0.000017682741    0.053949282052    -0.038836587620    -0.000011536700    -0.000005606495
            -0.000016187596    -0.000001402399    0.036334350171    0.024243391312    -0.000011536704    -0.000005606487    0.040085864110    0.003100815458
0.175     0.038524409049    -0.054606924297    -0.000016232240    0.000002096813    0.038814864496    -0.026299138447    -0.000018519552    0.000003327689
            -0.000016232242    0.000002096830    0.032702338400    0.001930891258    -0.000003098183    0.000016700648    0.036344208945    0.020573086966
            0.038814867070    -0.026299138214    -0.000003098197    0.000016700744    0.038847509294    -0.055030874676    -0.000014752371    -0.000002072604
            -0.000018519551    0.000003327692    0.036344133890    0.020573113999    -0.000014752372    -0.000002072597    0.033012270139    0.001748963234
0.200     0.015443976759    -0.064201598837    -0.000017039670    0.000007422399    0.023702231730    -0.038061693516    -0.000019376158    0.000009107069
            -0.000017039671    0.000007422417    0.023457704569    0.004963000964    -0.000000680677    0.000015319994    0.033023679008    0.018793873940
            0.023702234116    -0.038061694386    -0.000000680672    0.000015320091    0.015765341442    -0.064847750348    -0.000016831729    0.000002752932
            -0.000019376155    0.000009107072    0.033023605588    0.018793903883    -0.000016831729    0.000002752941    0.023713049334    0.004636242376
0.225     -0.012451556566    -0.063816480193    -0.000016054065    0.000013258826    0.002694848213    -0.042493841633    -0.000018345379    0.000015511891
            -0.000016054063    0.000013258838    0.014239077839    0.013332266033    0.000000611123    0.000014425534    0.027749625365    0.020568769391
            0.002694850565    -0.042493843487    0.000000611137    0.000014425579    -0.012214296413    -0.064709626176    -0.000017283097    0.000008543832
            -0.000018345376    0.000015511894    0.027749553194    0.020568802944    -0.000017283097    0.000008543839    0.014372645030    0.012882510346
0.250     -0.040526626190    -0.051498490975    -0.000013006236    0.000019027155    -0.020547771458    -0.037135441030    -0.000015087535    0.000021934173
            -0.000013006241    0.000019027154    0.007686167687    0.027006715282    0.000001592024    0.000014374020    0.022621738208    0.026725468600
            -0.020547771942    -0.037135441905    0.000001592068    0.000014374099    -0.040472393711    -0.052627380848    -0.000015647783    0.000014764748
            -0.000015087535    0.000021934173    0.022621659697    0.026725510163    -0.000015647787    0.000014764746    0.007641683054    0.026487333742
0.275     -0.063458849009    -0.027516500400    -0.000007834885    0.000023937525    -0.041432346291    -0.021377154959    -0.000009486502    0.000027518455
            -0.000007834889    0.000023937522    0.006297786195    0.044648646457    0.000003023559    0.000015082641    0.019975514850    0.036956041489
            -0.041432341671    -0.021377161732    0.000003023589    0.000015082676    -0.063685919786    -0.028824706014    -0.000011678485    0.000020583456
            -0.000009486502    0.000027518454    0.019975447092    0.036956082661    -0.000011678479    0.000020583463    0.006044881954    0.044138540180
0.300     -0.076342275730    0.005434944812    -0.000000830988    0.000027138684    -0.055393281254    0.003222320412    -0.000001818249    0.000031322770
            -0.000000830920    0.000027138749    0.011776418885    0.063795996178    0.000005396526    0.000015938151    0.021783240783    0.049815150929
            -0.055393282252    0.003222320471    0.000005396599    0.000015938213    -0.076926864088    0.004050374371    -0.000005515828    0.000025031634
            -0.000001818247    0.000031322770    0.021783175499    0.049815195848    -0.000005515828    0.000025031634    0.011322975153    0.063386315460
0.325     -0.075792468636    0.042631045915    0.000007288500    0.000027907349    -0.058913210676    0.033146608573    0.000007173384    0.000032535013
            0.000007288490    0.000027907347    0.024535453110    0.081347228175    0.000008780053    0.000016260321    0.029117851827    0.063028461925
            -0.058913211547    0.033146609063    0.000008780092    0.000016260342    -0.076766006133    0.041308211627    0.000002203336    0.000027228142
            0.000007173381    0.000032535009    0.029117789654    0.063028509375    0.000002203336    0.000027228142    0.023930575288    0.081121915306
0.350     -0.060757539580    0.078209728301    0.000015515378    0.000025913347    -0.050330397633    0.063620438488    0.000016417096    0.000030759091
            0.000015515368    0.000025913348    0.043524560146    0.094274543462    0.000012739240    0.000015454028    0.041869800924    0.074050189951
            -0.050330398253    0.063620439272    0.000012739233    0.000015454025    -0.062090733841    0.077101134111    0.000010479632    0.000026676723
            0.000016417096    0.000030759090    0.041869740609    0.074050240137    0.000010479633    0.000026676721    0.042853478351    0.094291866455
0.375     -0.032760277390    0.106338293951    0.000022782285    0.000021322689    -0.030165171813    0.089585010901    0.000024769502    0.000026129198
            0.000022782323    0.000021322698    0.066439801426    0.100293834926    0.000016704530    0.000013307427    0.058782672220    0.080649447972
            -0.030165187768    0.089585006584    0.000016704526    0.000013307428    -0.034358420715    0.105582613789    0.000018194502    0.000023408261
            0.000024769499    0.000026129199    0.058782600463    0.080649515123    0.000018194506    0.000023408258    0.065809964444    0.100570952140
0.400     0.004413459969    0.122313520080    0.000028259972    0.000014742538    -0.000958852874    0.106663760288    0.000031327838    0.000019251924
            0.000028259974    0.000014742543    0.090228724430    0.098338583524    0.000020065530    0.000009975375    0.077771027992    0.081377798355
            -0.000958854736    0.106663760271    0.000020065531    0.000009975370    0.002703009021    0.122007581854    0.000024434000    0.000017936538
            0.000031327839    0.000019251922    0.077770958397    0.081377864866    0.000024433999    0.000017936536    0.089749835570    0.098845467775
0.425     0.045452391048    0.123320064484    0.000031502587    0.000007015664    0.033265443038    0.111851403945    0.000035589474    0.000010986351
            0.000031502586    0.000007015671    0.111701007854    0.088702834836    0.000022503671    0.000005826205    0.096355735515    0.075788262409
            0.033265399347    0.111851385640    0.000022503714    0.000005826192    0.043821550725    0.123496440512    0.000028663917    0.000011057708
            0.000035589474    0.000010986350    0.096355668131    0.075788331904    0.000028663915    0.000011057707    0.111465403763    0.089363610296
0.450     0.084408358420    0.108783186439    0.000032479135    -0.000001018097    0.067683082110    0.103886949026    0.000037480204    0.000002195430
            0.000032479220    -0.000001018136    0.128091770180    0.072923706560    0.000023924178    0.000001295562    0.112103205065    0.064459811956
            0.067683080296    0.103886950207    0.000023924262    0.000001295523    0.083063686486    0.109394443056    0.000030776073    0.000003594267
            0.000037480202    0.000002195428    0.112103149145    0.064459889148    0.000030776074    0.000003594259    0.128155929936    0.073625841948
0.475     0.115539298849    0.080343511308    0.000031449556    -0.000008704081    0.097324776562    0.083325351794    0.000037223122    -0.000006447566
            0.000031449558    -0.000008704079    0.137464987192    0.053472669631    0.000024455265    -0.000003342192    0.122975611895    0.048868251816
            0.097324776562    0.083325351794    0.000024455265    -0.000003342192    0.114676260150    0.081253605334    0.000030970014    -0.000003804615
            0.000037223122    -0.000006447568    0.122975576251    0.048868287357    0.000030970011    -0.000003804618    0.137836846199    0.054084256861
0.500     0.134020298006    0.041611879960    0.000028846055    -0.000015681426    0.117664660980    0.052452023664    0.000035213858    -0.000014563889
            0.000028846055    -0.000015681427    0.138972658896    0.033386977213    0.000024308725    -0.000008006591    0.127618152563    0.031201460669
            0.117664660064    0.052452025718    0.000024308725    -0.000008006591    0.133809876912    0.042578703568    0.000029635486    -0.000010795122
            0.000035213858    -0.000014563889    0.127618102728    0.031201538184    0.000029635486    -0.000010795123    0.139603654051    0.033774565587
0.525     0.136513940149    -0.002220623554    0.000025091954    -0.000021827266    0.125217990566    0.015012408024    0.000031832930    -0.000022005824
            0.000025091960    -0.000021827263    0.132980649007    0.015858187118    0.000023649656    -0.000012846742    0.125585094851    0.014102948154
            0.125217990383    0.015012409554    0.000023649675    -0.000012846780    0.137240703286    -0.001681178938    0.000027173333    -0.000017313094
            0.000031832930    -0.000022005827    0.125585045329    0.014103030708    0.000027173331    -0.000017313094    0.133765669243    0.015911533347
0.550     0.121657647979    -0.044882008556    0.000020421808    -0.000027224488    0.117860662442    -0.022358158426    0.000027268404    -0.000028816315
            0.000020421809    -0.000027224488    0.121109590699    0.003805688760    0.000022555223    -0.000017676864    0.117538108293    0.000343423292
            0.117860662442    -0.022358158426    0.000022555252    -0.000017676952    0.123288391261    -0.042917504186    0.000023883576    -0.000022978231
            0.000027268404    -0.000028816315    0.117538058045    0.000343508157    0.000023883575    -0.000022978232    0.121894394171    0.003461031584
0.575     0.090469161206    -0.079663320719    0.000014827184    -0.000032018916    0.094764976869    -0.056556634099    0.000021470763    -0.000035083558
            0.000014827191    -0.000032018961    0.106140662852    -0.000610747811    0.000020181509    -0.000023391977    0.105332653425    -0.007647148228
            0.094764976869    -0.056556634099    0.000020181520    -0.000023392072    0.092176886524    -0.079119013525    0.000019205068    -0.000028810082
            0.000021470760    -0.000035083558    0.105332609616    -0.007647061145    0.000019205071    -0.000028810121    0.106742140730    -0.001349421304
0.600     0.046664496263    -0.100114466153    0.000008021062    -0.000036146012    0.059285847214    -0.079587685000    0.000014133442    -0.000040664353
            0.000008021063    -0.000036146012    0.091730410185    0.003493866516    0.000016360377    -0.000029510718    0.091909811993    -0.008347004137
            0.059285849604    -0.079587688208    0.000016360375    -0.000029510718    0.048770846174    -0.100912236159    0.000013238389    -0.000034239932
            0.000014133442    -0.000040664353    0.091909773873    -0.008346915278    0.000013238391    -0.000034239926    0.091968481812    0.002447426857
0.625     -0.002762827466    -0.102226181881    -0.000000230871    -0.000039229590    0.016402488456    -0.087219167008    0.000005022013    -0.000045122783
            -0.000000230871    -0.000039229590    0.081818548728    0.015290812722    0.000010263188    -0.000035512588    0.080833129607    -0.001711330652
            0.016402488826    -0.087219168974    0.000010263184    -0.000035512586    -0.001332940224    -0.104205295208    0.000005376414    -0.000038870819
            0.000005022012    -0.000045122783    0.080833095532    -0.001711239316    0.000005376419    -0.000038870815    0.081557159359    0.014102812133
0.650     -0.051141252295    -0.084621334830    -0.000010196094    -0.000040514203    -0.027815747271    -0.077120124126    -0.000006136160    -0.000047602062
            -0.000010196094    -0.000040514202    0.079761192763    0.032109588466    0.000001483560    -0.000040278924    0.075490822598    0.010537550343
            -0.027815747271    -0.077120124126    0.000001483511    -0.000040279003    -0.050290817382    -0.087238237301    -0.000004609693    -0.000041748964
            -0.000006136159    -0.000047602062    0.075490822525    0.010537550870    -0.000004609687    -0.000041748968    0.078947548166    0.031003851880
0.675     -0.089902124374    -0.048553863043    -0.000021358530    -0.000038812294    -0.065574931321    -0.049628141082    -0.000018764544    -0.000046832500
            -0.000021358530    -0.000038812293    0.087377830933    0.049835544122    -0.000009654791    -0.000042356464    0.078127256141    0.025123471927
            -0.065574934511    -0.049628143496    -0.000009654790    -0.000042356459    -0.089839083067    -0.051754469365    -0.000016266384    -0.000041629207
            -0.000018764543    -0.000046832498    0.078127244527    0.025123517844    -0.000016266406    -0.000041629241    0.086066516755    0.049049563702
0.700     -0.112157579238    0.000487797245    -0.000032436972    -0.000033329485    -0.090172129532    -0.008847429023    -0.000031518191    -0.000041962194
            -0.000032436973    -0.000033329486    0.104332508283    0.063857927220    -0.000021925684    -0.000040540287    0.089139939824    0.038016706429
            -0.090172129532    -0.008847429023    -0.000021925683    -0.000040540285    -0.113119725396    -0.003009066824    -0.000028315745    -0.000037534429
            -0.000031518196    -0.000041962186    0.089139920808    0.038016799451    -0.000028315745    -0.000037534430    0.102683409212    0.063589457405
0.725     -0.114154111321    0.054686504466    -0.000041728898    -0.000024069618    -0.097434952623    0.038700324574    -0.000042618220    -0.000032950024
            -0.000041728935    -0.000024069639    0.128150855630    0.070254029184    -0.000033521316    -0.000034435138    0.106952987887    0.045513312116
            -0.097434952623    0.038700324574    -0.000033521348    -0.000034435159    -0.116230897008    0.051294227050    -0.000038962906    -0.000029305401
            -0.000042618210    -0.000032950017    0.106952978951    0.045513409731    -0.000038962905    -0.000029305401    0.126399641593    0.070613996321
0.750     -0.095859192854    0.105602267728    -0.000047711303    -0.000011976204    -0.086443350891    0.085580668226    -0.000050457623    -0.000020719142
            -0.000047711388    -0.000011976234    0.154917419750    0.066728495144    -0.000042681444    -0.000024666503    0.128553643072    0.045150779420
            -0.086443350891    0.085580668226    -0.000042681522    -0.000024666529    -0.098962516283    0.102729271277    -0.000046532777    -0.000017778995
            -0.000050457619    -0.000020719140    0.128553643072    0.045150779420    -0.000046532776    -0.000017778995    0.153326499501    0.067717715321
0.775     -0.060611743640    0.145897369227    -0.000049565575    0.000001390145    -0.059331824814    0.125018300320    -0.000054134748    -0.000006828548
            -0.000049565572    0.000001390137    0.180283402232    0.052974738832    -0.000048267960    -0.000012583307    0.150338947683    0.036101677282
            -0.059331829484    0.125018253828    -0.000048267998    -0.000012583308    -0.064494258457    0.143892811872    -0.000050031485    -0.000004485753
            -0.000054134742    -0.000006828547    0.150338946695    0.036101724223    -0.000050031483    -0.000004485752    0.179091968810    0.054485616730
