# GHz S RI R 45
0.000     0.021904447000    0.000000000000    -0.000004506576    0.000000000000    0.000594206720    0.000000000000    0.000000049878    -0.000000000000
            -0.000004506487    0.000000000000    0.021604052000    0.000000000000    -0.000007877900    0.000000000000    0.000629871460    -0.000000000000
            0.000594203190    0.000000000000    -0.000007877551    0.000000000000    0.021864818000    0.000000000000    0.000015759976    -0.000000000000
            0.000000049874    -0.000000000000    0.000629871470    -0.000000000000    0.000015759997    -0.000000000000    0.021425718000    0.000000000000
0.025     0.029019958829    0.009585563579    -0.000003002430    -0.000005293216    0.004106867456    0.011510145521    -0.000002833761    -0.000008776461
            -0.000003002345    -0.000005293252    0.028035160097    0.008393669849    -0.000002520503    -0.000004817772    0.003619390633    0.010291678277
            0.004106848022    0.011510197048    -0.000002520382    -0.000004817812    0.028962665628    0.009575651188    -0.000012680993    -0.000021293548
            -0.000002833761    -0.000008776463    0.003619373700    0.010291727694    -0.000012680998    -0.000021293547    0.027988326395    0.008388804971
0.050     0.038864495109    0.011450090342    -0.000011218310    -0.000011561057    0.013249426172    0.019304625622    -0.000013384640    -0.000013564259
            -0.000011218246    -0.000011561112    0.036841649742    0.009815818750    -0.000011582789    -0.000014808105    0.011634815595    0.017508450473
            0.013249414176    0.019304639919    -0.000011582719    -0.000014808166    0.038832513318    0.011454820641    -0.000028756464    -0.000012665969
            -0.000013384640    -0.000013564259    0.011634806140    0.017508462760    -0.000028756463    -0.000012665969    0.036819826880    0.009817075793
0.075     0.049479914398    0.006941112211    -0.000023826966    -0.000009038636    0.025393768018    0.021004730920    -0.000026721666    -0.000010069901
            -0.000023826924    -0.000009038710    0.046376671086    0.005657082693    -0.000028008058    -0.000013109426    0.022465972562    0.019481866875
            0.025393760648    0.021004738260    -0.000028008013    -0.000013109506    0.049503637331    0.006939794094    -0.000038161742    -0.000001608025
            -0.000026721668    -0.000010069892    0.022465966291    0.019481871054    -0.000038161740    -0.000001608031    0.046406576258    0.005653889596
0.100     0.057590327470    -0.004188944322    -0.000034156850    0.000002408028    0.037107222641    0.015736730063    -0.000037665211    0.000002315191
            -0.000034156836    0.000002407949    0.053861356840    -0.004350774309    -0.000042113451    0.000000474923    0.033209902122    0.015379981133
            0.037107223658    0.015736732787    -0.000042113435    0.000000474834    0.057690836392    -0.004225193494    -0.000043728872    0.000013531714
            -0.000037665210    0.000002315184    0.033209903030    0.015379981553    -0.000043728871    0.000013531714    0.053967676713    -0.004379336001
0.125     0.059749440382    -0.020425039634    -0.000037358299    0.000020197947    0.044891114901    0.004336641811    -0.000041386860    0.000021386285
            -0.000037358311    0.000020197870    0.056314847750    -0.019029464944    -0.000047440812    0.000022644096    0.040879608321    0.005775679477
            0.044891116702    0.004336643962    -0.000047440827    0.000022644012    0.059935962796    -0.020548329150    -0.000043187078    0.000032516365
            -0.000041386854    0.000021386291    0.040879608321    0.005775679477    -0.000043187078    0.000032516365    0.056513564268    -0.019107034697
0.150     0.053680403525    -0.038588740522    -0.000030644965    0.000039848804    0.045957153756    -0.010842796492    -0.000034764125    0.000042801570
            -0.000030645014    0.000039848723    0.051686304399    -0.035733423053    -0.000040259523    0.000047738449    0.043014323167    -0.007497480287
            0.045957156081    -0.010842795347    -0.000040259568    0.000047738367    0.053949282052    -0.038836587620    -0.000033963645    0.000052829065
            -0.000034764125    0.000042801571    0.043014323167    -0.007497480287    -0.000033963654    0.000052829060    0.051988773912    -0.035910695941
0.175     0.038524409049    -0.054606924297    -0.000013722663    0.000056006729    0.038814864496    -0.026299138447    -0.000017099291    0.000061047544
            -0.000013722742    0.000056006667    0.039046551448    -0.051050976220    -0.000020006290    0.000068941589    0.038159501005    -0.021598309167
            0.038814867070    -0.026299138214    -0.000020006364    0.000068941528    0.038847509294    -0.055030874676    -0.000014826534    0.000070358529
            -0.000017099291    0.000061047544    0.038159501005    -0.021598309167    -0.000014826534    0.000070358530    0.039441758000    -0.051384840994
0.200     0.015443976759    -0.064201598837    0.000011096871    0.000063724935    0.023702231730    -0.038061693516    0.000009572410    0.000070712907
            0.000011096782    0.000063724902    0.019138165565    -0.061297390232    0.000010582905    0.000079936346    0.026241704413    -0.033210326465
            0.023702234116    -0.038061694386    0.000010582821    0.000079936314    0.015765341442    -0.064847750348    0.000013232360    0.000080072135
            0.000009572415    0.000070712907    0.026241704413    -0.033210326465    0.000013232360    0.000080072136    0.019588467188    -0.061843018715
0.225     -0.012451556566    -0.063816480193    0.000039257391    0.000059511106    0.002694848213    -0.042493841633    0.000040688434    0.000067680512
            0.000039257298    0.000059511106    -0.005653760233    -0.063271066594    0.000045929619    0.000076177890    0.008690595835    -0.039168986583
            0.002694850565    -0.042493843487    0.000045929527    0.000076177891    -0.012214296413    -0.064709626176    0.000046658300    0.000077466650
            0.000040688435    0.000067680509    0.008690595835    -0.039168986583    0.000046658301    0.000077466648    -0.005214043490    -0.064070398905
0.250     -0.040526626190    -0.051498490975    0.000064861370    0.000042337858    -0.020547771458    -0.037135441030    0.000069965539    0.000050307549
            0.000064861284    0.000042337886    -0.031589249333    -0.054977768735    0.000078749519    0.000056149609    -0.011710069891    -0.037130580461
            -0.020547771942    -0.037135441905    0.000078749433    0.000056149637    -0.040472393711    -0.052627380848    0.000079500974    0.000059872422
            0.000069965539    0.000050307544    -0.011710069891    -0.037130580461    0.000079501060    0.000059872393    -0.031248267630    -0.056045406764
0.275     -0.063458849009    -0.027516500400    0.000081892628    0.000014112247    -0.041432346291    -0.021377154959    0.000090677768    0.000020111976
            0.000081892557    0.000014112303    -0.054193449509    -0.036169424177    0.000101511167    0.000021928661    -0.031271112566    -0.026134803626
            -0.041432341671    -0.021377161732    0.000101511104    0.000021928718    -0.063685919786    -0.028824706014    0.000104678168    0.000027706266
            0.000090677767    0.000020111971    -0.031271112566    -0.026134803626    0.000104678207    0.000027706237    -0.054049502698    -0.037481334959
0.300     -0.076342275730    0.005434944812    0.000085761810    -0.000020519209    -0.055393281254    0.003222320412    0.000097334844    -0.000018242468
            0.000085761808    -0.000020519206    -0.069095100649    -0.008596905837    0.000108308536    -0.000021011062    -0.046096574048    -0.006933485605
            -0.055393282252    0.003222320471    0.000108308490    -0.000021010983    -0.076926864088    0.004050374371    0.000115581163    -0.000015060631
            0.000097334842    -0.000018242473    -0.046096574048    -0.006933485605    0.000115581163    -0.000015060632    -0.069238690380    -0.010084418765
0.325     -0.075792468636    0.042631045915    0.000074494995    -0.000055141524    -0.058913210676    0.033146608573    0.000087118541    -0.000057858844
            0.000074494982    -0.000055141433    -0.072920792445    0.024180010714    0.000096302567    -0.000064893906    -0.052877203410    0.018050149690
            -0.058913211547    0.033146609063    0.000096302549    -0.000064893861    -0.076766006133    0.041308211627    0.000107977411    -0.000061544896
            0.000087118540    -0.000057858845    -0.052877203410    0.018050149690    0.000107977413    -0.000061544893    -0.073413012909    0.022626103795
0.350     -0.060757539580    0.078209728301    0.000049288874    -0.000083135568    -0.050330397633    0.063620438488    0.000060684808    -0.000091232209
            0.000049288868    -0.000083135567    -0.064037138725    0.057376752715    0.000066489488    -0.000101471044    -0.049595975216    0.045138628994
            -0.050330398253    0.063620439272    0.000066489488    -0.000101471044    -0.062090733841    0.077101134111    0.000081186014    -0.000103400581
            0.000060684798    -0.000091232203    -0.049595975216    0.045138628994    0.000081185989    -0.000103400664    -0.064891875823    0.055892081729
0.375     -0.032760277390    0.106338293951    0.000014118311    -0.000099173723    -0.030165171813    0.089585010901    0.000021940570    -0.000111958562
            0.000014118330    -0.000099173680    -0.042916998016    0.085854902810    0.000023361680    -0.000123816637    -0.035935906794    0.070090056434
            -0.030165187768    0.089585006584    0.000023361723    -0.000123816557    -0.034358420715    0.105582613789    0.000038285683    -0.000132774305
            0.000021940562    -0.000111958554    -0.035935906794    0.070090056434    0.000038285688    -0.000132774304    -0.044089860895    0.084579565388
0.400     0.004413459969    0.122313520080    -0.000025331207    -0.000100260774    -0.000958852874    0.106663760288    -0.000022983658    -0.000116028550
            -0.000025331138    -0.000100260719    -0.012086343089    0.105047402312    -0.000026249108    -0.000127693507    -0.013331720756    0.088878610084
            -0.000958854736    0.106663760271    -0.000026249027    -0.000127693452    0.002703009021    0.122007581854    -0.000014634627    -0.000143852610
            -0.000022983660    -0.000116028559    -0.013331720756    0.088878610084    -0.000014634627    -0.000143852610    -0.013474790619    0.104100704456
0.425     0.045452391048    0.123320064484    -0.000062910950    -0.000085973504    0.033265443038    0.111851403945    -0.000067087233    -0.000102297465
            -0.000062910858    -0.000085973473    0.024325430348    0.111716692195    -0.000074633622    -0.000112004121    0.015319653513    0.098354235550
            0.033265399347    0.111851385640    -0.000074633642    -0.000112004108    0.043821550725    0.123496440512    -0.000069796050    -0.000133775544
            -0.000067087227    -0.000102297456    0.015319653513    0.098354235550    -0.000069796050    -0.000133775544    0.022871118284    0.111173666720
0.450     0.084408358420    0.108783186439    -0.000093040898    -0.000058150034    0.067683082110    0.103886949026    -0.000103711381    -0.000072311318
            -0.000093040810    -0.000058150024    0.061256340746    0.104433976953    -0.000114519803    -0.000078588181    0.046145569380    0.096697874214
            0.067683080296    0.103886950207    -0.000114519795    -0.000078588176    0.083063686486    0.109394443056    -0.000119010239    -0.000102801575
            -0.000103711373    -0.000072311312    0.046145569380    0.096697874214    -0.000119010239    -0.000102801575    0.059914037080    0.104307570418
0.475     0.115539298849    0.080343511308    -0.000111277928    -0.000020319667    0.097324776562    0.083325351794    -0.000127310970    -0.000029760601
            -0.000111277885    -0.000020319679    0.093451268629    0.083734751268    -0.000139904178    -0.000031618763    0.074852513294    0.083623324833
            0.097324776562    0.083325351794    -0.000139904178    -0.000031618763    0.114676260150    0.081253605334    -0.000154727894    -0.000054040429
            -0.000127310970    -0.000029760601    0.074852513294    0.083623324833    -0.000154727894    -0.000054040429    0.092402579530    0.083967013811
0.500     0.134020298006    0.041611879960    -0.000114577850    0.000022806668    0.117664660980    0.052452023664    -0.000133878823    0.000020071561
            -0.000114577850    0.000022806668    0.116154454765    0.052031182027    -0.000146534383    0.000023035585    0.097269528921    0.060407510825
            0.117664660064    0.052452025718    -0.000146534374    0.000023035583    0.133809876912    0.042578703568    -0.000170755011    0.000006946798
            -0.000133878823    0.000020071561    0.097269528921    0.060407510825    -0.000170755011    0.000006946798    0.115558016507    0.052492405146
0.525     0.136513940149    -0.002220623554    -0.000101454393    0.000065679213    0.125217990566    0.015012408024    -0.000121228310    0.000070737849
            -0.000101454376    0.000065679202    0.125698788096    0.013330603465    -0.000132271350    0.000078427079    0.109837898720    0.029774865054
            0.125217990383    0.015012409554    -0.000132271342    0.000078427074    0.137240703286    -0.001681178938    -0.000162987196    0.000072690920
            -0.000121228289    0.000070737865    0.109837898720    0.029774865054    -0.000162987227    0.000072690900    0.125664351818    0.013829432256
0.550     0.121657647979    -0.044882008556    -0.000072240958    0.000102178668    0.117860662442    -0.022358158426    -0.000089341825    0.000114981787
            -0.000072240958    0.000102178668    0.120003300777    -0.027180603207    -0.000097832708    0.000125277563    0.110087835081    -0.004324234376
            0.117860662442    -0.022358158426    -0.000097832683    0.000125277532    0.123288391261    -0.042917504186    -0.000130477088    0.000132249711
            -0.000089341825    0.000114981787    0.110087835081    -0.004324234376    -0.000130477148    0.000132249680    0.120567593727    -0.026878782573
0.575     0.090469161206    -0.079663320719    -0.000029568005    0.000126108084    0.094764976869    -0.056556634099    -0.000040940616    0.000145337288
            -0.000029568005    0.000126108084    0.098958538339    -0.063693492592    -0.000044732949    0.000158159171    0.097071312443    -0.037079971866
            0.094764976869    -0.056556634099    -0.000044732949    0.000158159171    0.092176886524    -0.079119013525    -0.000073603855    0.000178585008
            -0.000040940616    0.000145337288    0.097071312443    -0.037079971866    -0.000073603855    0.000178585008    0.100065844230    -0.063836915665
0.600     0.046664496263    -0.100114466153    0.000021207983    0.000131913411    0.059285847214    -0.079587685000    0.000018024826    0.000154972117
            0.000021208020    0.000131913334    0.064668347834    -0.090496749387    0.000019014348    0.000168742164    0.071731720297    -0.063388576403
            0.059285849604    -0.079587688208    0.000019014351    0.000168742164    0.048770846174    -0.100912236159    -0.000000534626    0.000200562817
            0.000018024865    0.000154972052    0.071731720297    -0.063388576403    -0.000000534630    0.000200562817    0.066160744917    -0.091311116631
0.625     -0.002762827466    -0.102226181881    0.000071854619    0.000117111670    0.016402488456    -0.087219167008    0.000078019523    0.000140471517
            0.000071854619    0.000117111670    0.021430113999    -0.102843330637    0.000084275286    0.000153087367    0.037055157805    -0.078619267802
            0.016402488826    -0.087219168974    0.000084275286    0.000153087367    -0.001332940224    -0.104205295208    0.000078551744    0.000191894224
            0.000078019523    0.000140471517    0.037055157805    -0.078619267802    0.000078551744    0.000191894224    0.023053837600    -0.104491240731
0.650     -0.051141252295    -0.084621334830    0.000114178200    0.000082237034    -0.027815747271    -0.077120124126    0.000129471257    0.000102055705
            0.000114178200    0.000082237034    -0.024674855102    -0.097880716784    0.000139759625    0.000111611278    -0.002133718643    -0.079526519017
            -0.027815747271    -0.077120124126    0.000139759625    0.000111611278    -0.050290817382    -0.087238237301    0.000150215158    0.000151239467
            0.000129471257    0.000102055705    -0.002133718643    -0.079526519017    0.000150215158    0.000151239467    -0.023240574719    -0.100420791845
0.675     -0.089902124374    -0.048553863043    0.000139309564    0.000032060873    -0.065574931321    -0.049628141082    0.000161770641    0.000044695514
            0.000139309564    0.000032060873    -0.066652378961    -0.075399048864    0.000174803662    0.000050099246    -0.039850178127    -0.065052795399
            -0.065574934511    -0.049628143496    0.000174803663    0.000050099243    -0.089839083067    -0.051754469365    0.000200962820    0.000083716899
            0.000161770636    0.000044695495    -0.039850178127    -0.065052795399    0.000200962802    0.000083716892    -0.065748041764    -0.078758780110
0.700     -0.112157579238    0.000487797245    0.000141981814    -0.000024449755    -0.090172129532    -0.008847429023    0.000168174998    -0.000021510875
            0.000141981814    -0.000024449755    -0.097844873608    -0.038127683284    0.000182378269    -0.000021005123    -0.070044139565    -0.036762097499
            -0.090172129532    -0.008847429023    0.000182378269    -0.000021005123    -0.113119725396    -0.003009066824    0.000220867677    0.000000452110
            0.000168174998    -0.000021510875    -0.070044139565    -0.036762097499    0.000220867677    0.000000452110    -0.097770028246    -0.042097687734
0.725     -0.114154111321    0.054686504466    0.000121865901    -0.000076987344    -0.097434952623    0.038700324574    0.000147567348    -0.000084557145
            0.000121865539    -0.000076987055    -0.113241614122    0.008642772405    0.000161138602    -0.000089141211    -0.087816705809    0.001362180767
            -0.097434952623    0.038700324574    0.000161138595    -0.000089141222    -0.116230897008    0.051294227050    0.000206259355    -0.000084107019
            0.000147567336    -0.000084557145    -0.087816705809    0.001362180767    0.000206259355    -0.000084107019    -0.114197681915    0.004384237930
0.750     -0.095859192854    0.105602267728    0.000083383154    -0.000116678108    -0.086443350891    0.085580668226    0.000104444876    -0.000133721109
            0.000083383113    -0.000116678076    -0.110462183119    0.058066242093    0.000115561854    -0.000142930429    -0.090396937595    0.043717300917
            -0.086443350891    0.085580668226    0.000115561849    -0.000142930433    -0.098962516283    0.102729271277    0.000160348837    -0.000155906035
            0.000104444836    -0.000133721115    -0.090396937595    0.043717300917    0.000160348840    -0.000155906032    -0.112510395861    0.053903317793
0.775     -0.060611743640    0.145897369227    0.000033955864    -0.000138091280    -0.059331824814    0.125018300320    0.000047092429    -0.000162014561
            0.000033955864    -0.000138091290    -0.090088195132    0.103074606719    0.000054173632    -0.000174719807    -0.077533497641    0.084229491391
            -0.059331829484    0.125018253828    0.000054173623    -0.000174719789    -0.064494258457    0.143892811872    0.000091611456    -0.000204408785
