# GHz S RI R 45
0.000     0.021904447000    0.000000000000    -0.000023646229    0.000000000000    0.000594206720    0.000000000000    -0.000029298888    0.000000000000
            -0.000023645626    0.000000000000    0.022304647000    0.000000000000    -0.000019070945    0.000000000000    0.000448407580    0.000000000000
            0.000594203190    0.000000000000    -0.000019070605    0.000000000000    0.021864818000    0.000000000000    -0.000028723975    0.000000000000
            -0.000029298499    0.000000000000    0.000448382810    0.000000000000    -0.000028724335    0.000000000000    0.022255578000    0.000000000000
0.025     0.029019958829    0.009585563579    -0.000041823305    -0.000057963317    0.004106867456    0.011510145521    -0.000046742450    -0.000066573629
            -0.000041822916    -0.000057963397    0.027826393132    0.010026113620    -0.000052995754    -0.000060804974    0.002628066657    0.012299234780
            0.004106848022    0.011510197048    -0.000052995087    -0.000060805129    0.028962665628    0.009575651188    -0.000058864317    -0.000065230605
            -0.000046742038    -0.000066573710    0.002627918168    0.012299064039    -0.000058864671    -0.000065230517    0.027749210104    0.010021662555
0.050     0.038864495109    0.011450090342    -0.000087540589    -0.000101043120    0.013249426172    0.019304625622    -0.000099217068    -0.000120169392
            -0.000087540138    -0.000101043312    0.033718539742    0.014282609327    -0.000100076379    -0.000089726393    0.008710571412    0.022565866501
            0.013249414176    0.019304639919    -0.000100075764    -0.000089726660    0.038832513318    0.011454820641    -0.000110294249    -0.000103515574
            -0.000099216629    -0.000120169586    0.008710576374    0.022565857082    -0.000110294611    -0.000103515408    0.033597989280    0.014319682067
0.075     0.049479914398    0.006941112211    -0.000153247871    -0.000118759290    0.025393768018    0.021004730920    -0.000177443519    -0.000143465650
            -0.000153247556    -0.000118759517    0.039237725569    0.015361977789    -0.000158260702    -0.000098078495    0.017080631077    0.029332488896
            0.025393760648    0.021004738260    -0.000158260241    -0.000098078822    0.049503637331    0.006939794094    -0.000178575780    -0.000116564969
            -0.000177443183    -0.000143465890    0.017080611172    0.029332492387    -0.000178576129    -0.000116564708    0.039085420819    0.015479968635
0.100     0.057590327470    -0.004188944322    -0.000226629929    -0.000107663721    0.037107222641    0.015736730063    -0.000265841276    -0.000132038036
            -0.000226629624    -0.000107664013    0.042958466101    0.013705403763    -0.000221247909    -0.000082413341    0.025800035081    0.032193058803
            0.037107223658    0.015736732787    -0.000221247526    -0.000082413770    0.057690836392    -0.004225193494    -0.000253739107    -0.000100403000
            -0.000265840993    -0.000132038358    0.025800009597    0.032193063849    -0.000253739396    -0.000100402704    0.042810582650    0.013939371678
0.125     0.059749440382    -0.020425039634    -0.000297679915    -0.000068016405    0.044891114901    0.004336641811    -0.000352117995    -0.000085799483
            -0.000297679705    -0.000068016739    0.043512818392    0.010653520561    -0.000281062493    -0.000042354984    0.033046796747    0.031694938518
            0.044891116702    0.004336643962    -0.000281062167    -0.000042355536    0.059935962796    -0.020548329150    -0.000325744409    -0.000054523719
            -0.000352117754    -0.000085799880    0.033046773704    0.031694945208    -0.000325744663    -0.000054523352    0.043421800057    0.011019651664
0.150     0.053680403525    -0.038588740522    -0.000358891996    -0.000002616017    0.045957153756    -0.010842796492    -0.000426709095    -0.000007837193
            -0.000358891976    -0.000002616017    0.040512499763    0.008015230082    -0.000331150225    0.000019677255    0.037430539512    0.029145176737
            0.045957156081    -0.010842795347    -0.000331150238    0.000019677197    0.053949282052    -0.038836587620    -0.000386288329    0.000018290750
            -0.000426708778    -0.000007838081    0.037430512925    0.029145186467    -0.000386288342    0.000018290683    0.040559970459    0.008493508542
0.175     0.038524409049    -0.054606924297    -0.000404265937    0.000086041477    0.038814864496    -0.026299138447    -0.000481739761    0.000098617650
            -0.000404265765    0.000086040556    0.034332080158    0.007788725656    -0.000366237466    0.000101463804    0.038380247108    0.026402106873
            0.038814867070    -0.026299138214    -0.000366237406    0.000101463306    0.038847509294    -0.055030874676    -0.000428495433    0.000115116525
            -0.000481739708    0.000098617114    0.038380225338    0.026402115582    -0.000428495452    0.000115116530    0.034581299505    0.008313871481
0.200     0.015443976759    -0.064201598837    -0.000427568400    0.000195813691    0.023702231730    -0.038061693516    -0.000509371481    0.000230280788
            -0.000427568449    0.000195812720    0.026337757520    0.011702520857    -0.000380830893    0.000200766078    0.036315914189    0.025411867694
            0.023702234116    -0.038061694386    -0.000380830951    0.000200765089    0.015765341442    -0.064847750348    -0.000445539283    0.000232664933
            -0.000509371490    0.000230280792    0.036315889789    0.025411879890    -0.000445539249    0.000232665905    0.026814966608    0.012176293661
0.225     -0.012451556566    -0.063816480193    -0.000420315375    0.000323158271    0.002694848213    -0.042493841633    -0.000499712102    0.000381974457
            -0.000420315367    0.000323158265    0.018726552904    0.020708545212    -0.000367611337    0.000314084828    0.032602414224    0.027713835424
            0.002694850565    -0.042493843487    -0.000367611451    0.000314084371    -0.012214296413    -0.064709626176    -0.000428943551    0.000365938796
            -0.000499712349    0.000381973540    0.032602394585    0.027713846175    -0.000428943581    0.000365938822    0.019405808200    0.021020337450
0.250     -0.040526626190    -0.051498490975    -0.000372726915    0.000460309632    -0.020547771458    -0.037135441030    -0.000442044220    0.000543817956
            -0.000372726921    0.000460309640    0.014081621504    0.034616351680    -0.000318398060    0.000434105254    0.029270565594    0.034004342641
            -0.020547771942    -0.037135441905    -0.000318398060    0.000434105254    -0.040472393711    -0.052627380848    -0.000369839685    0.000505731401
            -0.000442044626    0.000543817097    0.029270549986    0.034004352117    -0.000369839691    0.000505731409    0.014881610460    0.034671719736
0.275     -0.063458849009    -0.027516500400    -0.000276754659    0.000592902396    -0.041432346291    -0.021377154959    -0.000328074260    0.000698869008
            -0.000276754654    0.000592902387    0.014761370387    0.051946983908    -0.000226788690    0.000547929321    0.028518349805    0.043868580746
            -0.041432341671    -0.021377161732    -0.000226789272    0.000547928560    -0.063685919786    -0.028824706014    -0.000261783192    0.000636865643
            -0.000328074529    0.000698868628    0.028518328366    0.043868594683    -0.000261782958    0.000636866020    0.015555774616    0.051695707249
0.300     -0.076342275730    0.005434944812    -0.000131076527    0.000701121965    -0.055393281254    0.003222320412    -0.000157206623    0.000824646293
            -0.000131076521    0.000701121936    0.022255646640    0.070162209733    -0.000092508144    0.000638181729    0.032126320018    0.055817026790
            -0.055393282252    0.003222320471    -0.000092508897    0.000638181115    -0.076926864088    0.004050374371    -0.000105340484    0.000739695943
            -0.000157206623    0.000824646293    0.032126307852    0.055817034946    -0.000105339771    0.000739696580    0.022899925162    0.069618091327
0.325     -0.075792468636    0.042631045915    0.000055341019    0.000763921309    -0.058913210676    0.033146608573    0.000059822679    0.000897742412
            0.000055340614    0.000763921077    0.036726700343    0.086188915641    0.000075766119    0.000686888293    0.040953861959    0.067624094270
            -0.058913211547    0.033146609063    0.000075765301    0.000686887810    -0.076766006133    0.041308211627    0.000089051724    0.000794321866
            0.000059821862    0.000897741955    0.040953825082    0.067624121280    0.000089051724    0.000794321866    0.037090511502    0.085434261512
0.350     -0.060757539580    0.078209728301    0.000263399245    0.000765744580    -0.050330397633    0.063620438488    0.000301346695    0.000901088520
            0.000263399246    0.000765744537    0.056897637972    0.097147738010    0.000260766196    0.000681275890    0.054710766058    0.076892366075
            -0.050330398253    0.063620439272    0.000260765263    0.000681275626    -0.062090733841    0.077101134111    0.000301716472    0.000786893656
            0.000301345819    0.000901088254    0.054710769505    0.076892362396    0.000301716442    0.000786893700    0.056897352907    0.096321387219
0.375     -0.032760277390    0.106338293951    0.000468187202    0.000701444508    -0.030165171813    0.089585010901    0.000539524879    0.000829114939
            0.000468186265    0.000701444376    0.080319336520    0.101000744425    0.000440692369    0.000617841236    0.072038086168    0.081613886703
            -0.030165187768    0.089585006584    0.000440691426    0.000617841123    -0.034358420715    0.105582613789    0.000508214577    0.000713850521
            0.000539524885    0.000829114947    0.072038053406    0.081613915621    0.000508214571    0.000713850513    0.079940097092    0.100270154420
0.400     0.004413459969    0.122313520080    0.000645680880    0.000577824684    -0.000958852874    0.106663760288    0.000747638326    0.000689320839
            0.000645680896    0.000577824636    0.103918381300    0.096975259583    0.000595039039    0.000503342340    0.090857454764    0.080591464318
            -0.000958854736    0.106663760271    0.000595039114    0.000503342314    0.002703009021    0.122007581854    0.000685729666    0.000582906055
            0.000747638326    0.000689320839    0.090857457577    0.080591461146    0.000685729661    0.000582906092    0.103220785713    0.096503925535
0.425     0.045452391048    0.123320064484    0.000778414953    0.000410831115    0.033265443038    0.111851403945    0.000906158608    0.000499138709
            0.000778414500    0.000410831223    0.124613027141    0.085645156647    0.000709363132    0.000352024878    0.108802146402    0.073605456482
            0.033265399347    0.111851385640    0.000709362247    0.000352025132    0.043821550725    0.123496440512    0.000818180524    0.000409931908
            0.000906157777    0.000499138973    0.108802147686    0.073605454583    0.000818180966    0.000409931808    0.123724884564    0.085559893873
0.450     0.084408358420    0.108783186439    0.000858614718    0.000220624118    0.067683082110    0.103886949026    0.001006111352    0.000280560030
            0.000858614672    0.000220624058    0.139857482075    0.068758577507    0.000777613503    0.000181240817    0.123637359289    0.061398609050
            0.067683080296    0.103886950207    0.000777612724    0.000181241294    0.083063686486    0.109394443056    0.000898751105    0.000214140166
            0.001006111256    0.000280560003    0.123637360361    0.061398606893    0.000898751095    0.000214140163    0.138953129847    0.069124649853
0.475     0.115539298849    0.080343511308    0.000887985130    0.000026255162    0.097324776562    0.083325351794    0.001048754083    0.000054351175
            0.000887984772    0.000026255443    0.148007371680    0.048895959427    0.000801623513    0.000006928044    0.133576258625    0.045522145774
            0.097324776562    0.083325351794    0.000801623160    0.000006928337    0.114676260150    0.081253605334    0.000929235545    0.000013126252
            0.001048753767    0.000054351467    0.133576259419    0.045522143443    0.000929236293    0.000013125687    0.147280420511    0.049702189121
0.500     0.134020298006    0.041611879960    0.000875408049    -0.000158487648    0.117664660980    0.052452023664    0.001042969751    -0.000164411066
            0.000875407413    -0.000158486949    0.148539250157    0.029078607112    0.000788954093    -0.000159727106    0.137538353617    0.028138607765
            0.117664660064    0.052452025718    0.000788953505    -0.000159726385    0.133809876912    0.042578703568    0.000917612821    -0.000180777974
            0.001042969748    -0.000164411086    0.137538353126    0.028138610166    0.000917612815    -0.000180777956    0.148169385816    0.030233266331
0.525     0.136513940149    -0.002220623554    0.000832942532    -0.000327565355    0.125217990566    0.015012408024    0.001000856880    -0.000368863039
            0.000832942498    -0.000327565359    0.142129842130    0.012351229347    0.000750120179    -0.000314761156    0.135341553795    0.011757530696
            0.125217990383    0.015012409554    0.000750119744    -0.000314760357    0.137240703286    -0.001681178938    0.000875017397    -0.000363123214
            0.001000856668    -0.000368862167    0.135341553795    0.011757530696    0.000875017813    -0.000363123673    0.142252066695    0.013690052870
0.550     0.121657647979    -0.044882008556    0.000770920061    -0.000483177614    0.117860662442    -0.022358158426    0.000932438981    -0.000560668532
            0.000770920061    -0.000483177614    0.130652721372    0.001353307681    0.000693231285    -0.000448391525    0.127864691489    -0.001098491718
            0.117860662442    -0.022358158426    0.000693231277    -0.000448391537    0.123288391261    -0.042917504186    0.000809338751    -0.000521509804
            0.000932438981    -0.000560668532    0.127864691490    -0.001098491652    0.000809339056    -0.000521510660    0.131324808197    0.002659271683
0.575     0.090469161206    -0.079663320719    0.000693213540    -0.000633570353    0.094764976869    -0.056556634099    0.000840856214    -0.000747284990
            0.000693213503    -0.000633570320    0.117024158759    -0.002153411258    0.000615219326    -0.000588623823    0.117080140849    -0.008355359190
            0.094764976869    -0.056556634099    0.000615219310    -0.000588623377    0.092176886524    -0.079119013525    0.000716652725    -0.000688184630
            0.000840856157    -0.000747284152    0.117080096940    -0.008355272054    0.000716652740    -0.000688184644    0.118204838544    -0.001116356111
0.600     0.046664496263    -0.100114466153    0.000593001129    -0.000786340950    0.059285847214    -0.079587685000    0.000718136567    -0.000934776503
            0.000593001117    -0.000786340934    0.104855597163    0.002241372757    0.000518081011    -0.000726997344    0.105883455307    -0.008921103705
            0.059285849604    -0.079587688208    0.000518081062    -0.000726996448    0.048770846174    -0.100912236159    0.000599374272    -0.000850687847
            0.000718136567    -0.000934776503    0.105883455354    -0.008921103151    0.000599374215    -0.000850688743    0.106397623500    0.002800378134
0.625     -0.002762827466    -0.102226181881    0.000457690787    -0.000942658120    0.016402488456    -0.087219167008    0.000551562471    -0.001122009984
            0.000457690771    -0.000942658128    0.097806083056    0.013245496438    0.000386201502    -0.000864757830    0.097574580427    -0.003172300342
            0.016402488826    -0.087219168974    0.000386201510    -0.000864757848    -0.001332940224    -0.104205295208    0.000440812739    -0.001009112129
            0.000551563840    -0.001122005745    0.097574580427    -0.003172300342    0.000440812730    -0.001009113115    0.099473117760    0.013193914982
0.650     -0.051141252295    -0.084621334830    0.000265540268    -0.001091351953    -0.027815747271    -0.077120124126    0.000318894351    -0.001295232650
            0.000265540636    -0.001091350731    0.098715960093    0.027865502473    0.000205322077    -0.000988917894    0.095059128945    0.006879941753
            -0.027815747271    -0.077120124126    0.000205322060    -0.000988917897    -0.050290817382    -0.087238237301    0.000226831688    -0.001148137387
            0.000318893906    -0.001295233274    0.095059132129    0.006879939315    0.000226831966    -0.001148137740    0.100225653510    0.027189388884
0.675     -0.089902124374    -0.048553863043    0.000008120711    -0.001200273829    -0.065574931321    -0.049628141082    0.000013350545    -0.001418372970
            0.000008120669    -0.001200273829    0.108735726215    0.041939506960    -0.000029529577    -0.001073676597    0.099960100821    0.017932682451
            -0.065574934511    -0.049628143496    -0.000029529304    -0.001073676205    -0.089839083067    -0.051754469365    -0.000046166504    -0.001239288091
            0.000013353408    -0.001418369443    0.099960092370    0.017932729556    -0.000046166396    -0.001239288095    0.109822584468    0.040757692940
0.700     -0.112157579238    0.000487797245    -0.000302090602    -0.001233922996    -0.090172129532    -0.008847429023    -0.000349135434    -0.001453159852
            -0.000302090602    -0.001233922996    0.126879849043    0.051150522268    -0.000305639275    -0.001089439416    0.112083300345    0.026248056550
            -0.090172129532    -0.008847429023    -0.000305638489    -0.001089438806    -0.113119725396    -0.003009066824    -0.000362666165    -0.001250852827
            -0.000349135434    -0.001453159852    0.112083280187    0.026248142624    -0.000362666165    -0.001250852827    0.127357720810    0.049693524637
0.725     -0.114154111321    0.054686504466    -0.000631728222    -0.001165984594    -0.097434952623    0.038700324574    -0.000730732090    -0.001372091419
            -0.000631728222    -0.001165984594    0.150227521678    0.052159838156    -0.000592702011    -0.001015839266    0.129463274237    0.028676312686
            -0.097434952623    0.038700324574    -0.000592701961    -0.001015839179    -0.116230897008    0.051294227050    -0.000688581361    -0.001161676744
            -0.000730732090    -0.001372091419    0.129463255218    0.028676398549    -0.000688581361    -0.001161676744    0.150034028634    0.050716951330
0.750     -0.095859192854    0.105602267728    -0.000936342272    -0.000991345421    -0.086443350891    0.085580668226    -0.001082298176    -0.001170819061
            -0.000936342272    -0.000991345421    0.174739064821    0.043390119972    -0.000852348073    -0.000851433673    0.149003745947    0.023414703014
            -0.086443350891    0.085580668226    -0.000852348073    -0.000851433673    -0.098962516283    0.102729271277    -0.000981642647    -0.000971302766
            -0.001082298176    -0.001170819061    0.149003731276    0.023414796375    -0.000981642647    -0.000971302766    0.173944151645    0.042246437357
0.775     -0.060611743640    0.145897369227    -0.001175121421    -0.000727731044    -0.059331824814    0.125018300320    -0.001359146455    -0.000869637301
            -0.001175121506    -0.000727731097    0.196262404773    0.025209851403    -0.001051010115    -0.000614013826    0.167304182436    0.010236339074
            -0.059331829484    0.125018253828    -0.001051010115    -0.000614013826    -0.064494258457    0.143892811872    -0.001205181989    -0.000700060848
            -0.001359146455    -0.000869637301    0.167304180114    0.010236377034    -0.001205181989    -0.000700060848    0.195047468275    0.024589030552
