!$
! Info: Touchstone file created by Circ.  Input file=Intel_C2M_200G_5p5in_202208016_staggered.circ
!$
# Hz S RI R 50
0	0.01926142	3.415083e-24	0.9805385	-5.931169e-24	0.0001046205	2.738392e-22	-0.0002355476	2.884626e-20
	0.9805385	-5.928856e-24	0.01981587	6.401259e-24	-0.0002356031	2.885306e-20	0.0003285583	6.115094e-22
	0.0001046781	2.739643e-22	-0.0002357398	2.88698e-20	0.01925937	3.236068e-24	0.9805388	-6.018818e-24
	-0.0002356843	2.8863e-20	0.0003286263	6.119376e-22	0.9805388	-6.021141e-24	0.01981729	6.529146e-24
1e+07	0.02329906	0.003522657	0.9722987	-0.09433266	0.001539479	0.005745838	-0.001010364	-0.0006696097
	0.9722987	-0.09433266	0.02347092	0.003502179	-0.001011418	-0.0006698615	0.001431218	0.005775731
	0.001539479	0.005745838	-0.001011418	-0.0006698615	0.02336194	0.003118585	0.9722518	-0.09390748
	-0.001010364	-0.0006696097	0.001431218	0.005775731	0.9722518	-0.09390748	0.02350593	0.003087829
2e+07	0.02756527	0.003279979	0.9551064	-0.1839185	0.003403775	0.01073702	-0.001310116	-0.0008425151
	0.9551064	-0.1839185	0.02836122	0.003181775	-0.001313027	-0.0008403714	0.002939118	0.0109337
	0.003403785	0.01073701	-0.001313027	-0.0008404819	0.02718657	0.002622063	0.9555447	-0.1832522
	-0.001310116	-0.0008426193	0.002939206	0.01093359	0.9555447	-0.1832522	0.02788075	0.002572248
3e+07	0.03058097	0.00101967	0.9310278	-0.2696847	0.006154376	0.01535487	-0.001581901	-0.0009648019
	0.9310278	-0.2696847	0.03183199	0.0003814392	-0.001585266	-0.0009585562	0.005257938	0.01571178
	0.006154351	0.01535491	-0.001585308	-0.0009585535	0.02986496	0.0003705493	0.9318342	-0.2690568
	-0.001581914	-0.0009648067	0.005257914	0.01571175	0.9318342	-0.2690568	0.03097843	-0.000126211
4e+07	0.03247287	-0.002096015	0.8999418	-0.3521342	0.009765006	0.01930737	-0.001830594	-0.001039085
	0.8999418	-0.3521342	0.03440389	-0.003314692	-0.001832187	-0.001028044	0.00824152	0.02004754
	0.009765004	0.0193074	-0.001832192	-0.00102804	0.03149313	-0.002649258	0.9010387	-0.3516518
	-0.001830595	-0.001039072	0.00824152	0.02004755	0.9010387	-0.3516518	0.03327381	-0.003601558
5e+07	0.03342781	-0.005566354	0.8620213	-0.4309296	0.01408249	0.02249016	-0.002057483	-0.001079333
	0.8620213	-0.4309296	0.03613775	-0.007626439	-0.002054928	-0.001063966	0.01183304	0.02382165
	0.0140825	0.02249017	-0.002054925	-0.001063967	0.03223864	-0.005970216	0.8633421	-0.4306617
	-0.00205748	-0.001079335	0.01183304	0.02382166	0.8633421	-0.4306617	0.03482499	-0.007621347
6e+07	0.03355968	-0.009139677	0.8175602	-0.5056129	0.01896263	0.02479104	-0.002265255	-0.001102633
	0.8175602	-0.5056129	0.03703532	-0.01228254	-0.00225639	-0.001084334	0.015926	0.02695086
	0.01896264	0.02479102	-0.002256388	-0.001084335	0.03220915	-0.009355809	0.8190399	-0.5056087
	-0.002265252	-0.001102633	0.015926	0.02695086	0.8190399	-0.5056087	0.03563308	-0.01194358
7e+07	0.03296168	-0.0126174	0.7669219	-0.5757073	0.02423879	0.02612315	-0.00246278	-0.001122317
	0.7669219	-0.5757073	0.03714218	-0.01706853	-0.002445879	-0.001103471	0.0204043	0.02937368
	0.02423879	0.02612315	-0.002445835	-0.001103526	0.03149547	-0.01261644	0.7684936	-0.5760033
	-0.002462777	-0.001122319	0.0204043	0.02937368	0.7684936	-0.5760033	0.03574281	-0.01637651
8e+07	0.03174786	-0.01584044	0.7105225	-0.6407479	0.02973233	0.02642966	-0.002661991	-0.001146041
	0.7105225	-0.6407479	0.03651686	-0.02182079	-0.002636279	-0.001129773	0.0251437	0.03104921
	0.02973233	0.02642966	-0.00263628	-0.00112977	0.03021196	-0.01559748	0.7121176	-0.6413719
	-0.002661993	-0.001146039	0.0251437	0.03104921	0.7121176	-0.6413719	0.03521258	-0.02077548
9e+07	0.03005216	-0.01869495	0.6488221	-0.7002972	0.03525862	0.02568457	-0.002876512	-0.001175679
	0.6488221	-0.7002972	0.03522322	-0.02640252	-0.002842331	-0.001165679	0.03001691	0.03195898
	0.03525862	0.02568458	-0.002842329	-0.00116567	0.02849624	-0.01818403	0.6503607	-0.7012708
	-0.002876513	-0.00117567	0.03001691	0.03195898	0.6503607	-0.7012708	0.0341097	-0.02501883
1e+08	0.02803501	-0.02110556	0.5822994	-0.7539687	0.04063369	0.02389219	-0.003121929	-0.001206889
	0.5822994	-0.7539687	0.03334525	-0.03067643	-0.003081376	-0.001207916	0.03490026	0.03210596
	0.04063369	0.02389219	-0.003081375	-0.001207917	0.0265362	-0.02026826	0.583661	-0.7553317
	-0.003121929	-0.00120689	0.03490026	0.03210596	0.583661	-0.7553317	0.03255651	-0.02897508
1.1e+08	0.02576964	-0.02316729	0.5114817	-0.8012672	0.04568073	0.02107203	-0.003399763	-0.00122015
	0.5114817	-0.8012672	0.03105302	-0.03462481	-0.003358908	-0.001231531	0.03965913	0.0315034
	0.04568073	0.02107203	-0.003358908	-0.001231532	0.02454767	-0.02216551	0.5125124	-0.8028324
	-0.003399763	-0.001220151	0.03965913	0.0315034	0.5125124	-0.8028324	0.03067366	-0.03282961
1.2e+08	0.02332312	-0.02471721	0.4370544	-0.8419368	0.05018371	0.01732258	-0.003714612	-0.001225659
	0.4370544	-0.8419368	0.02831031	-0.03817955	-0.00367557	-0.00124714	0.04417181	0.03021134
	0.05018371	0.01732257	-0.00367557	-0.001247141	0.02227872	-0.0236318	0.4378019	-0.8436191
	-0.003714612	-0.00122566	0.04417181	0.03021134	0.4378019	-0.8436191	0.0282651	-0.03638298
1.3e+08	0.0208574	-0.02576978	0.3595945	-0.8757453	0.05399967	0.01274218	-0.004078408	-0.001207114
	0.3595945	-0.8757453	0.0252347	-0.04125206	-0.004043971	-0.001238254	0.04833818	0.02829704
	0.05399966	0.01274218	-0.004043972	-0.001238255	0.01996102	-0.02461649	0.3600739	-0.8774982
	-0.004078409	-0.001207116	0.04833818	0.02829704	0.3600739	-0.8774982	0.02548016	-0.03951065
1.4e+08	0.01848932	-0.02636901	0.2797117	-0.9024945	0.05699516	0.007454711	-0.004494609	-0.001147199
	0.2797117	-0.9024945	0.0219387	-0.04379979	-0.004467211	-0.001186133	0.05207001	0.02584293
	0.05699516	0.00745471	-0.004467212	-0.001186134	0.01773532	-0.02516321	0.2799341	-0.9042774
	-0.004494609	-0.0011472	0.05207001	0.02584293	0.2799341	-0.9042774	0.02243451	-0.04215328
1.5e+08	0.01631468	-0.02657699	0.1980285	-0.9220346	0.05905588	0.001605135	-0.004960815	-0.001027385
	0.1980285	-0.9220346	0.01853329	-0.04580666	-0.004942037	-0.001072108	0.05529608	0.02294368
	0.05905588	0.001605134	-0.004942037	-0.001072109	0.01570104	-0.02533892	0.1980056	-0.9238142
	-0.004960815	-0.001027385	0.05529608	0.02294368	0.1980056	-0.9238142	0.01924107	-0.04428325
1.6e+08	0.0144093	-0.02647114	0.1151766	-0.9342653	0.06009169	-0.004644065	-0.00546905	-0.0008297881
	0.1151766	-0.9342653	0.0151248	-0.04727878	-0.005459785	-0.0008779957	0.05796384	0.01970365
	0.06009169	-0.004644066	-0.005459786	-0.0008779961	0.01393157	-0.02522333	0.1149193	-0.9360126
	-0.005469051	-0.0008297885	0.05796384	0.01970365	0.1149193	-0.9360126	0.01600779	-0.04589771
1.7e+08	0.01282829	-0.02614133	0.03178968	-0.9391413	0.06003954	-0.01111733	-0.006006284	-0.0005385142
	0.03178968	-0.9391413	0.01181216	-0.04824167	-0.006006788	-0.0005878109	0.06004032	0.0162324
	0.06003954	-0.01111733	-0.006006788	-0.0005878111	0.01247765	-0.02490546	0.03131077	-0.9408295
	-0.006006284	-0.0005385145	0.06004032	0.0162324	0.03131077	-0.9408295	0.01283579	-0.04701497
1.8e+08	0.01160375	-0.02568572	-0.05149919	-0.9366686	0.05886561	-0.01763039	-0.006555228	-0.0001408421
	-0.05149919	-0.9366686	0.008684817	-0.0487372	-0.006565222	-0.0001891106	0.06151316	0.01264184
	0.05886561	-0.01763039	-0.006565223	-0.0001891107	0.01136759	-0.02448088	-0.05218536	-0.9382728
	-0.006555228	-0.0001408422	0.06151316	0.01264184	-0.05218536	-0.9382728	0.009816289	-0.04767097
1.9e+08	0.01074429	-0.02520664	-0.1340596	-0.9269033	0.05656682	-0.02399522	-0.007095181	0.0003721339
	-0.1340596	-0.9269033	0.005820035	-0.04882144	-0.007113969	0.0003267746	0.06239015	0.009042839
	0.05656681	-0.02399522	-0.007113969	0.0003267745	0.0106069	-0.02404822	-0.1349364	-0.9284032
	-0.007095181	0.0003721338	0.06239015	0.009042839	-0.1349364	-0.9284032	0.007029419	-0.04791672
2e+08	0.01023392	-0.02480515	-0.2152705	-0.909953	0.05317062	-0.03002501	-0.007603279	0.001004391
	-0.2152705	-0.909953	0.003282564	-0.04856179	-0.007629893	0.0009633698	0.062698	0.005540859
	0.05317062	-0.03002501	-0.007629893	0.0009633697	0.01017837	-0.02370485	-0.2163217	-0.9113272
	-0.007603279	0.001004391	0.062698	0.005540859	-0.2163217	-0.9113272	0.004541888	-0.04781495
2.1e+08	0.01003354	-0.02457556	-0.2945237	-0.8859765	0.0487346	-0.0355389	-0.008055977	0.00175459
	-0.2945237	-0.8859765	0.001121624	-0.0480344	-0.008089099	0.001719347	0.06248233	0.002233646
	0.0487346	-0.0355389	-0.008089099	0.001719347	0.01004164	-0.02354127	-0.2957298	-0.8872078
	-0.008055977	0.00175459	0.06248233	0.002233646	-0.2957298	-0.8872078	0.00240683	-0.0474383
2.2e+08	0.01008207	-0.02460143	-0.3712255	-0.8551797	0.04334516	-0.04036672	-0.008429699	0.002616659
	-0.3712255	-0.8551797	-0.0006278848	-0.04732149	-0.008467985	0.002587976	0.06180435	-0.0007923201
	0.04334516	-0.04036672	-0.008467986	0.002587976	0.01013585	-0.02363713	-0.3725666	-0.8562531
	-0.008429699	0.002616659	0.06180435	-0.00079232	-0.3725666	-0.8562531	0.0006616647	-0.04686565
2.3e+08	0.0102999	-0.02495044	-0.4447989	-0.8178172	0.03711555	-0.04435374	-0.008702813	0.003579083
	-0.4447989	-0.8178172	-0.001947302	-0.04650851	-0.008744732	0.003557753	0.06073932	-0.003464329
	0.03711555	-0.04435374	-0.008744732	0.003557753	0.01038209	-0.0240573	-0.4462553	-0.8187198
	-0.008702813	0.003579083	0.06073932	-0.003464329	-0.4462553	-0.8187198	-0.0006712058	-0.04618001
2.4e+08	0.01059234	-0.02567078	-0.5146939	-0.7741909	0.03018325	-0.04736423	-0.008855979	0.004626934
	-0.5146939	-0.7741909	-0.002833717	-0.04568139	-0.008900141	0.004613006	0.059374	-0.005725294
	0.03018325	-0.04736423	-0.008900141	0.004613006	0.01068614	-0.02484685	-0.5162433	-0.7749142
	-0.008855979	0.004626934	0.059374	-0.005725294	-0.5162433	-0.7749142	-0.001585147	-0.04546563
2.5e+08	0.01085373	-0.02678804	-0.5803832	-0.7246503	0.02270656	-0.0492854	-0.008873427	0.005741361
	-0.5803832	-0.7246503	-0.003299147	-0.04492413	-0.008918377	0.005734706	0.05780306	-0.007535783
	0.02270656	-0.0492854	-0.008918377	0.005734706	0.01094395	-0.02602918	-0.5820034	-0.7251847
	-0.008873427	0.005741361	0.05780306	-0.007535783	-0.5820034	-0.7251847	-0.002088422	-0.04480517
2.6e+08	0.01097268	-0.02830356	-0.641371	-0.6695849	0.01486091	-0.05003086	-0.00874362	0.006901079
	-0.641371	-0.6695849	-0.003370624	-0.04431556	-0.008787923	0.006901509	0.05612615	-0.00887504
	0.01486091	-0.05003086	-0.008787922	0.006901509	0.0110451	-0.02760322	-0.6430379	-0.6699265
	-0.00874362	0.006901079	0.05612615	-0.00887504	-0.6430379	-0.6699265	-0.002204314	-0.04427762
2.7e+08	0.010837	-0.03019316	-0.6971933	-0.6094279	0.006834656	-0.04954221	-0.008458977	0.008083578
	-0.6971933	-0.6094279	-0.003087776	-0.04392799	-0.008501734	0.00809032	0.0544444	-0.009741022
	0.006834656	-0.04954221	-0.008501734	0.00809032	0.01087902	-0.02954284	-0.6988858	-0.6095748
	-0.008458977	0.008083578	0.0544444	-0.009741022	-0.6988858	-0.6095748	-0.001968965	-0.04395522
2.8e+08	0.01033912	-0.03240653	-0.7474253	-0.544653	-0.001175748	-0.0477917	-0.008016377	0.009265757
	-0.7474253	-0.544653	-0.002502	-0.04382453	-0.008056562	0.009278225	0.0528572	-0.01015118
	-0.001175748	-0.0477917	-0.008056562	0.009278225	0.0103402	-0.03179623	-0.7491213	-0.5446054
	-0.008016377	0.009265757	0.0528572	-0.01015118	-0.7491213	-0.5446054	-0.001430502	-0.04390187
2.9e+08	0.009381683	-0.03486916	-0.7916832	-0.4757717	-0.008970525	-0.04478322	-0.007416173	0.01042546
	-0.7916832	-0.4757717	-0.001674786	-0.04405714	-0.007453452	0.01044279	0.05145841	-0.01014102
	-0.008970526	-0.04478322	-0.007453452	0.01044279	0.009332768	-0.03428717	-0.7933611	-0.4755322
	-0.007416173	0.01042546	0.05145841	-0.01014102	-0.7933611	-0.4755322	-0.0006472774	-0.04417132
3e+08	0.007882519	-0.03748383	-0.8296272	-0.4033269	-0.01635146	-0.04055198	-0.006662944	0.01154151
	-0.8296272	-0.4033269	-0.0006744342	-0.04466583	-0.006697017	0.01156295	0.05033333	-0.009763499
	-0.01635146	-0.04055198	-0.006697017	0.01156295	0.007776642	-0.03691743	-0.8312657	-0.4028998
	-0.006662944	0.01154151	0.05033333	-0.009763499	-0.8312657	-0.4028998	0.0003148442	-0.04480538
3.1e+08	0.00577938	-0.04013409	-0.8609684	-0.3278928	-0.02312739	-0.03516472	-0.005763808	0.01259485
	-0.8609684	-0.3278928	0.000425487	-0.04567734	-0.005794274	0.01261963	0.04955614	-0.009086335
	-0.02312739	-0.03516472	-0.005794274	0.01261963	0.00561144	-0.03956914	-0.8625457	-0.3272856
	-0.005763808	0.01259485	0.04955614	-0.009086335	-0.8625457	-0.3272856	0.001384013	-0.04583333
3.2e+08	0.003033691	-0.04268772	-0.8854669	-0.2500711	-0.02911893	-0.02871802	-0.004727883	0.0135687
	-0.8854669	-0.2500711	0.001548663	-0.04710488	-0.004754762	0.01359627	0.04918665	-0.008190785
	-0.02911893	-0.02871802	-0.004754762	0.01359627	0.002801746	-0.04210968	-0.8869665	-0.2492912
	-0.004727884	0.0135687	0.04918665	-0.008190785	-0.8869665	-0.2492912	0.002485433	-0.04727085
3.3e+08	-0.0003656383	-0.0450022	-0.9029393	-0.1704809	-0.03416279	-0.02133599	-0.003565304	0.01444861
	-0.9029393	-0.1704809	0.002618855	-0.04894795	-0.003589305	0.01447856	0.04926821	-0.007168061
	-0.03416279	-0.02133599	-0.003589305	0.01447856	-0.0006614044	-0.04439576	-0.9043428	-0.1695403
	-0.003565304	0.01444861	0.04926821	-0.007168061	-0.9043428	-0.1695403	0.003543819	-0.0491202
3.4e+08	-0.004399954	-0.04692962	-0.9132593	-0.08976184	-0.03811694	-0.01316762	-0.00228771	0.0152223
	-0.9132593	-0.08976184	0.00356222	-0.05119274	-0.002308443	0.01525439	0.04982674	-0.006116346
	-0.03811694	-0.01316762	-0.002308443	0.01525439	-0.004756546	-0.04628003	-0.9145526	-0.08867043
	-0.00228771	0.0152223	0.04982674	-0.006116346	-0.9145526	-0.08867043	0.00448521	-0.05137026
3.5e+08	-0.009019903	-0.04832326	-0.916362	-0.008558437	-0.04086332	-0.004383017	-0.000905949	0.01587956
	-0.916362	-0.008558437	0.004309383	-0.05381302	-0.0009235083	0.01591369	0.05086892	-0.005138007
	-0.04086332	-0.004383017	-0.0009235083	0.01591369	-0.009431905	-0.04761559	-0.9175274	-0.007332588
	-0.000905949	0.01587956	0.05086892	-0.005138007	-0.9175274	-0.007332588	0.005239971	-0.05399792
3.6e+08	-0.01414543	-0.04904313	-0.9122401	0.07247607	-0.04231175	0.004830582	0.0005692456	0.01641143
	-0.9122401	0.07247607	0.004797707	-0.0567719	0.0005546081	0.01644785	0.05238207	-0.004335157
	-0.04231175	0.004830582	0.0005546081	0.01644785	-0.01460437	-0.04826376	-0.9132649	0.0738224
	0.0005692456	0.01641143	0.05238207	-0.004335157	-0.9132649	0.0738224	0.005744577	-0.0569681
3.7e+08	-0.01966673	-0.04896309	-0.9009476	0.1526939	-0.04240203	0.01427386	0.002127345	0.01680996
	-0.9009476	0.1526939	0.004973032	-0.06002242	0.002116119	0.01684873	0.05433457	-0.003806616
	-0.04240203	0.01427386	0.002116119	0.01684873	-0.02016169	-0.04809973	-0.9018215	0.1541457
	0.002127345	0.01680996	0.05433457	-0.003806616	-0.9018215	0.1541457	0.005943268	-0.06023649
3.8e+08	-0.02544711	-0.04797578	-0.8826002	0.231456	-0.04110495	0.02373996	0.003759321	0.01706714
	-0.8826002	0.231456	0.004791074	-0.06351006	0.003751261	0.01710863	0.05667646	-0.003644554
	-0.04110495	0.02373996	0.003751261	0.01710863	-0.02596481	-0.04701763	-0.8833115	0.2329946
	0.003759321	0.01706714	0.05667646	-0.003644554	-0.8833115	0.2329946	0.005790015	-0.06375055
3.9e+08	-0.03132547	-0.04599836	-0.8573719	0.3081343	-0.03842409	0.03301947	0.005454796	0.01717528
	-0.8573719	0.3081343	0.004217907	-0.06717523	0.005451349	0.01721917	0.0593412	-0.003931089
	-0.03842409	0.03301947	0.005451349	0.01721917	-0.03185063	-0.04493781	-0.8579156	0.3097428
	0.005454796	0.01717528	0.0593412	-0.003931089	-0.8579156	0.3097428	0.005248593	-0.06745116
4e+08	-0.03712244	-0.04297782	-0.8254965	0.3821232	-0.03439443	0.04190607	0.007204622	0.01712532
	-0.8254965	0.3821232	0.003231238	-0.07095419	0.007206146	0.01717187	0.06224759	-0.004735428
	-0.03439443	0.04190607	0.007206146	0.01717187	-0.03763846	-0.04180918	-0.8258636	0.3837836
	0.007204622	0.01712532	0.06224759	-0.004735428	-0.8258636	0.3837836	0.004294516	-0.07127616
4.1e+08	-0.04264582	-0.03889459	-0.7872567	0.4528476	-0.02908206	0.0502006	0.008998264	0.01690763
	-0.7872567	0.4528476	0.001820447	-0.07478225	0.009005581	0.01695662	0.06530276	-0.006110887
	-0.02908206	0.0502006	0.009005581	0.01695662	-0.04313464	-0.03761505	-0.7874437	0.4545419
	0.008998264	0.01690763	0.06530276	-0.006110887	-0.7874437	0.4545419	0.002914362	-0.07516074
4.2e+08	-0.04769516	-0.03376459	-0.7429929	0.5197589	-0.0225827	0.05771659	0.01082331	0.01651229
	-0.7429929	0.5197589	-1.436631e-05	-0.07859532	0.01083765	0.01656289	0.06840436	-0.008094517
	-0.0225827	0.05771659	0.01083765	0.01656289	-0.04813801	-0.03237474	-0.7429978	0.5214662
	0.01082331	0.01651229	0.06840436	-0.008094517	-0.7429978	0.5214662	0.001106107	-0.07904048
4.3e+08	-0.05207088	-0.02764129	-0.693088	0.5823483	-0.01501846	0.06428399	0.01266604	0.01592797
	-0.693088	0.5823483	-0.002262049	-0.08233184	0.01268831	0.01597962	0.0714448	-0.0107037
	-0.01501846	0.06428399	0.01268831	0.01597962	-0.05244901	-0.02614487	-0.6929101	0.5840503
	0.01266604	0.01592797	0.0714448	-0.0107037	-0.6929101	0.5840503	-0.001121904	-0.08285327
4.4e+08	-0.05558013	-0.02061538	-0.637968	0.6401474	-0.006535579	0.06975279	0.01450936	0.01514401
	-0.637968	0.6401474	-0.004901956	-0.08593478	0.01454049	0.01519512	0.07431383	-0.01393723
	-0.006535579	0.06975279	0.01454049	0.01519512	-0.05587479	-0.01901966	-0.6376095	0.6418241
	0.01450936	0.01514401	0.07431383	-0.01393723	-0.6376095	0.6418241	-0.003750638	-0.08654074
4.5e+08	-0.05804284	-0.01281459	-0.5780995	0.6927288	0.002699199	0.07399664	0.01633322	0.01415027
	-0.5780995	0.6927288	-0.007904898	-0.08935308	0.01637395	0.01419926	0.07690273	-0.01777424
	0.002699199	0.07399664	0.01637395	0.01419926	-0.0582364	-0.01113005	-0.577564	0.6943612
	0.01633322	0.01415027	0.07690273	-0.01777424	-0.577564	0.6943612	-0.006752883	-0.09005012
4.6e+08	-0.05929943	-0.004400414	-0.5139803	0.7397133	0.01250267	0.07691512	0.01811433	0.01293775
	-0.5139803	0.7397133	-0.01123455	-0.09254309	0.0181649	0.01298314	0.07910726	-0.02217547
	0.01250267	0.07691512	0.0181649	0.01298314	-0.05937628	-0.00264031	-0.5132722	0.7412835
	0.01811433	0.01293775	0.07910726	-0.02217547	-0.5132722	0.7412835	-0.01009392	-0.09333569
4.7e+08	-0.05921844	0.004435256	-0.4461347	0.7807752	0.02267935	0.078436	0.01982553	0.01150121
	-0.4461347	0.7807752	-0.01484911	-0.09546858	0.01988601	0.01154059	0.0808311	-0.02708353
	0.02267935	0.078436	0.01988601	0.01154059	-0.05916394	0.006254437	-0.4452622	0.7822631
	0.01982553	0.01150121	0.0808311	-0.02708353	-0.4452622	0.7822631	-0.01373271	-0.09635915
4.8e+08	-0.05769842	0.0134752	-0.375109	0.81563	0.03302524	0.07851606	0.02143738	0.009837575
	-0.375109	0.81563	-0.0187026	-0.09810288	0.02150703	0.009869224	0.08198857	-0.03242568
	0.03302524	0.07851606	0.02150703	0.009869224	-0.05750159	0.01533419	-0.374083	0.8170213
	0.02143738	0.009837575	0.08198857	-0.03242568	-0.374083	0.8170213	-0.01762399	-0.09909108
4.9e+08	-0.05467541	0.02248079	-0.3014734	0.8440494	0.04333302	0.07714268	0.02291732	0.007949817
	-0.3014734	0.8440494	-0.02274725	-0.1004277	0.02299533	0.007971103	0.0825072	-0.03811529
	0.04333302	0.07714268	0.02299533	0.007971103	-0.0543278	0.02435878	-0.3003026	0.8453283
	0.02291732	0.007949817	0.0825072	-0.03811529	-0.3003026	0.8453283	-0.02172003	-0.101511
5e+08	-0.0501267	0.03120102	-0.225802	0.8658591	0.05339582	0.07433259	0.02423149	0.005844703
	-0.225802	0.8658591	-0.02693473	-0.1024343	0.02431639	0.005854058	0.08233008	-0.04405452
	0.05339582	0.07433259	0.02431639	0.005854058	-0.04962282	0.03307492	-0.2245023	0.867009
	0.02423149	0.005844703	0.08233008	-0.04405452	-0.2245023	0.867009	-0.02597195	-0.1036074
5.1e+08	-0.04407049	0.03937695	-0.1486843	0.8809282	0.06301115	0.07013247	0.0253457	0.003536629
	-0.1486843	0.8809282	-0.03121773	-0.1041225	0.02543543	0.003532188	0.08141696	-0.05013749
	0.06301115	0.07013247	0.02543543	0.003532188	-0.04340924	0.04122317	-0.1472693	0.8819388
	0.0253457	0.003536629	0.08141696	-0.05013749	-0.1472693	0.8819388	-0.03033146	-0.1053778
5.2e+08	-0.0365705	0.0467503	-0.07071286	0.8891826	0.07198671	0.06461739	0.02622624	0.001044921
