!$
! Info: Touchstone file created by Circ.  Input file=Intel_C2M_200G_5p5in_202208016_staggered.circ
!$
# Hz S RI R 50
0	0.01924832	3.234083e-24	6.187185e-05	8.328034e-23	0.0001050043	2.755261e-22	6.180594e-05	8.313053e-23
	6.187185e-05	8.328034e-23	0.01926142	3.415083e-24	6.18547e-05	8.322869e-23	0.0001046205	2.738392e-22
	0.0001050618	2.756528e-22	6.185469e-05	8.32299e-23	0.01924317	3.095362e-24	6.181902e-05	8.308156e-23
	6.180593e-05	8.313174e-23	0.0001046781	2.739643e-22	6.181902e-05	8.308156e-23	0.01925937	3.236068e-24
1e+07	0.02389322	0.003373441	5.077348e-05	3.799303e-06	0.001275326	0.005616889	2.259775e-06	1.092365e-05
	5.077348e-05	3.799303e-06	0.02329906	0.003522657	5.722775e-05	2.078283e-05	0.001539479	0.005745838
	0.001275326	0.005616889	5.722775e-05	2.078283e-05	0.02408908	0.003166725	2.284811e-05	1.094674e-05
	2.259775e-06	1.092365e-05	0.001539479	0.005745838	2.284811e-05	1.094674e-05	0.02336194	0.003118585
2e+07	0.02787134	0.002821776	3.489688e-05	2.960026e-05	0.003114437	0.01060499	2.124789e-05	2.658582e-05
	3.489688e-05	2.960026e-05	0.02756527	0.003279979	5.139935e-05	4.656214e-06	0.003403775	0.01073702
	0.003114447	0.01060497	5.139935e-05	4.656213e-06	0.02778211	0.002438929	1.404311e-05	1.661742e-05
	2.124789e-05	2.658582e-05	0.003403785	0.01073701	1.404311e-05	1.661742e-05	0.02718657	0.002622063
3e+07	0.03066466	0.0004870433	2.87545e-05	3.996649e-05	0.005843331	0.01520176	3.613337e-05	2.880716e-05
	2.87545e-05	3.996649e-05	0.03058097	0.00101967	4.868494e-05	3.688269e-06	0.006154376	0.01535487
	0.005843306	0.01520179	4.868493e-05	3.688273e-06	0.03035757	0.0001210316	8.716454e-06	2.295084e-05
	3.613337e-05	2.880716e-05	0.006154351	0.01535491	8.716453e-06	2.295084e-05	0.02986496	0.0003705493
4e+07	0.03237042	-0.002635469	2.402696e-05	4.446702e-05	0.009435966	0.01913633	4.854742e-05	2.682528e-05
	2.402696e-05	4.446702e-05	0.03247287	-0.002096015	4.794543e-05	6.990678e-06	0.009765006	0.01930737
	0.009435964	0.01913636	4.794543e-05	6.990678e-06	0.03189825	-0.002924813	1.431709e-05	2.440725e-05
	4.854742e-05	2.682528e-05	0.009765004	0.0193074	1.431709e-05	2.440725e-05	0.03149313	-0.002649258
5e+07	0.03316525	-0.00607272	3.107924e-05	4.256898e-05	0.01373989	0.02230591	5.894981e-05	2.208219e-05
	3.107924e-05	4.256898e-05	0.03342781	-0.005566354	5.083589e-05	5.434318e-06	0.01408249	0.02249016
	0.01373989	0.02230592	5.083589e-05	5.434318e-06	0.03256738	-0.006250262	2.201316e-05	2.232976e-05
	5.894981e-05	2.208219e-05	0.0140825	0.02249017	2.201316e-05	2.232976e-05	0.03223864	-0.005970216
6e+07	0.03315855	-0.009583548	4.290446e-05	3.578782e-05	0.01861191	0.02459825	6.727664e-05	1.510976e-05
	4.290446e-05	3.578782e-05	0.03355968	-0.009139677	5.255573e-05	2.483806e-06	0.01896263	0.02479104
	0.01861193	0.02459823	5.255572e-05	2.483805e-06	0.03247049	-0.009625862	2.832518e-05	1.863134e-05
	6.727663e-05	1.510976e-05	0.01896264	0.02479102	2.832518e-05	1.863134e-05	0.03220915	-0.009355809
7e+07	0.03244162	-0.01297394	5.200331e-05	2.687388e-05	0.02388655	0.025926	7.366465e-05	6.528719e-06
	5.200331e-05	2.687388e-05	0.03296168	-0.0126174	5.308177e-05	-1.167795e-06	0.02423879	0.02612315
	0.02388655	0.025926	5.308177e-05	-1.167796e-06	0.03169717	-0.01286536	3.321693e-05	1.378525e-05
	7.366466e-05	6.528719e-06	0.02423879	0.02612315	3.321693e-05	1.378524e-05	0.03149547	-0.01261644
8e+07	0.03112844	-0.01608602	5.835968e-05	1.637205e-05	0.02938646	0.02623151	7.806887e-05	-3.366028e-06
	5.835968e-05	1.637205e-05	0.03174786	-0.01584044	5.236613e-05	-5.063891e-06	0.02973233	0.02642966
	0.02938646	0.02623151	5.236613e-05	-5.063891e-06	0.03036101	-0.01581546	3.666007e-05	8.066878e-06
	7.806887e-05	-3.366028e-06	0.02973233	0.02642966	3.666007e-05	8.066878e-06	0.03021196	-0.01559748
9e+07	0.02935536	-0.01880312	6.179379e-05	4.550212e-06	0.03492839	0.02548777	8.030778e-05	-1.451257e-05
	6.179379e-05	4.550213e-06	0.03005216	-0.01869495	5.038456e-05	-8.775647e-06	0.03525862	0.02568457
	0.03492839	0.02548778	5.038456e-05	-8.775648e-06	0.02859967	-0.01836085	3.854933e-05	1.623486e-06
	8.030778e-05	-1.451257e-05	0.03525862	0.02568458	3.854933e-05	1.623487e-06	0.02849624	-0.01818403
1e+08	0.02729692	-0.02102632	6.092371e-05	-9.645349e-06	0.04033148	0.02369901	7.92126e-05	-2.806071e-05
	6.092371e-05	-9.64535e-06	0.02803501	-0.02110556	4.67686e-05	-1.174548e-05	0.04063369	0.02389219
	0.04033148	0.02369901	4.67686e-05	-1.174548e-05	0.02660393	-0.0203862	3.814041e-05	-6.01417e-06
	7.92126e-05	-2.806071e-05	0.04063369	0.02389219	3.814041e-05	-6.01417e-06	0.0265362	-0.02026826
1.1e+08	0.02510355	-0.02294679	5.346119e-05	-1.718786e-05	0.04542059	0.02086958	7.168531e-05	-3.64899e-05
	5.346119e-05	-1.718786e-05	0.02576964	-0.02316729	4.340136e-05	-1.205427e-05	0.04568073	0.02107203
	0.04542058	0.02086958	4.340136e-05	-1.205427e-05	0.02461738	-0.02223402	3.418055e-05	-1.017486e-05
	7.168531e-05	-3.64899e-05	0.04568073	0.02107203	3.418055e-05	-1.017486e-05	0.02454767	-0.02216551
1.2e+08	0.02271847	-0.02440152	4.833709e-05	-2.159429e-05	0.0499673	0.01710451	6.744772e-05	-4.0177e-05
	4.833709e-05	-2.159429e-05	0.02332312	-0.02471721	4.106992e-05	-1.219236e-05	0.05018371	0.01732258
	0.0499673	0.01710451	4.106992e-05	-1.219236e-05	0.02234914	-0.02366468	3.143513e-05	-1.277014e-05
	6.744772e-05	-4.0177e-05	0.05018371	0.01732257	3.143513e-05	-1.277014e-05	0.02227872	-0.0236318
1.3e+08	0.02031353	-0.02537705	4.464251e-05	-2.529482e-05	0.05383139	0.01250354	6.726597e-05	-3.92914e-05
	4.464251e-05	-2.529482e-05	0.0208574	-0.02576978	3.923878e-05	-1.222473e-05	0.05399967	0.01274218
	0.05383139	0.01250354	3.923878e-05	-1.222473e-05	0.02003261	-0.02461841	2.913885e-05	-1.499232e-05
	6.726597e-05	-3.92914e-05	0.05399966	0.01274218	2.913885e-05	-1.499232e-05	0.01996102	-0.02461649
1.4e+08	0.01800719	-0.02591159	4.194317e-05	-2.871901e-05	0.05687991	0.007189956	6.697788e-05	-3.928e-05
	4.194317e-05	-2.871901e-05	0.01848932	-0.02636901	3.780657e-05	-1.224044e-05	0.05699516	0.007454711
	0.0568799	0.007189955	3.780657e-05	-1.224044e-05	0.01780875	-0.02513674	2.709291e-05	-1.680962e-05
	6.697788e-05	-3.928e-05	0.05699516	0.00745471	2.709291e-05	-1.680962e-05	0.01773532	-0.02516321
1.5e+08	0.01589583	-0.02606459	3.936758e-05	-3.180236e-05	0.05899847	0.00130772	6.657603e-05	-4.005682e-05
	3.936758e-05	-3.180236e-05	0.01631468	-0.02657699	3.668368e-05	-1.241656e-05	0.05905588	0.001605135
	0.05899847	0.001307719	3.668368e-05	-1.241656e-05	0.01577701	-0.02528546	2.654394e-05	-1.723654e-05
	6.657603e-05	-4.005682e-05	0.05905588	0.001605134	2.654394e-05	-1.723654e-05	0.01570104	-0.02533892
1.6e+08	0.01405539	-0.02591204	3.686322e-05	-3.468755e-05	0.06009647	-0.004981828	6.602746e-05	-4.144846e-05
	3.686322e-05	-3.468755e-05	0.0144093	-0.02647114	3.580542e-05	-1.274615e-05	0.06009169	-0.004644065
	0.06009646	-0.004981829	3.580542e-05	-1.274615e-05	0.01401092	-0.02514348	2.640915e-05	-1.754909e-05
	6.602746e-05	-4.144846e-05	0.06009169	-0.004644066	2.640915e-05	-1.754909e-05	0.01393157	-0.02522333
1.7e+08	0.01254101	-0.02554293	3.556459e-05	-3.665549e-05	0.06011005	-0.01150423	6.524055e-05	-4.344984e-05
	3.556459e-05	-3.665549e-05	0.01282829	-0.02614133	3.525796e-05	-1.372985e-05	0.06003954	-0.01111733
	0.06011005	-0.01150423	3.525796e-05	-1.372985e-05	0.0125615	-0.02479921	2.629145e-05	-1.825465e-05
	6.524055e-05	-4.344984e-05	0.06003954	-0.01111733	2.629145e-05	-1.825465e-05	0.01247765	-0.02490546
1.8e+08	0.01138479	-0.02505484	3.522758e-05	-3.817726e-05	0.05900427	-0.0180763	6.412794e-05	-4.598759e-05
	3.522758e-05	-3.817726e-05	0.01160375	-0.02568572	3.469965e-05	-1.526527e-05	0.05886561	-0.01763039
	0.05900427	-0.0180763	3.469965e-05	-1.526527e-05	0.01145739	-0.02434775	2.610635e-05	-1.93844e-05
	6.412794e-05	-4.598759e-05	0.05886561	-0.01763039	2.610635e-05	-1.93844e-05	0.01136759	-0.02448088
1.9e+08	0.01059528	-0.02454977	3.458791e-05	-4.01432e-05	0.05677463	-0.02451092	6.266539e-05	-4.892034e-05
	3.458791e-05	-4.01432e-05	0.01074429	-0.02520664	3.394857e-05	-1.700237e-05	0.05656682	-0.02399522
	0.05677463	-0.02451092	3.394857e-05	-1.700237e-05	0.01070468	-0.02388739	2.571577e-05	-2.075849e-05
	6.266539e-05	-4.892034e-05	0.05656681	-0.02399522	2.571577e-05	-2.075849e-05	0.0106069	-0.02404822
2e+08	0.01015644	-0.02412864	3.357631e-05	-4.250943e-05	0.05344696	-0.03062203	6.078406e-05	-5.219402e-05
	3.357631e-05	-4.250943e-05	0.01023392	-0.02480515	3.296197e-05	-1.892767e-05	0.05317062	-0.03002501
	0.05344696	-0.03062203	3.296197e-05	-1.892767e-05	0.01028684	-0.02351541	2.508393e-05	-2.234812e-05
	6.078406e-05	-5.219402e-05	0.05317062	-0.03002501	2.508393e-05	-2.234812e-05	0.01017837	-0.02370485
2.1e+08	0.01002915	-0.02388567	3.211283e-05	-4.522436e-05	0.04907696	-0.03622914	5.841303e-05	-5.574562e-05
	3.211283e-05	-4.522436e-05	0.01003354	-0.02457556	3.168859e-05	-2.102167e-05	0.0487346	-0.0355389
	0.04907696	-0.03622914	3.168859e-05	-2.102167e-05	0.01016425	-0.02332236	2.417315e-05	-2.41213e-05
	5.841303e-05	-5.574562e-05	0.0487346	-0.0355389	2.417315e-05	-2.41213e-05	0.01004164	-0.02354127
2.2e+08	0.01015226	-0.02390454	3.011908e-05	-4.822171e-05	0.04374898	-0.04116223	5.548405e-05	-5.950086e-05
	3.011908e-05	-4.822171e-05	0.01008207	-0.02460143	3.007972e-05	-2.325326e-05	0.04334516	-0.04036672
	0.04374898	-0.04116223	3.007972e-05	-2.325326e-05	0.01027688	-0.02338824	2.294531e-05	-2.60411e-05
	5.548405e-05	-5.950086e-05	0.04334516	-0.04036672	2.294531e-05	-2.60411e-05	0.01013585	-0.02363713
2.3e+08	0.01044609	-0.02425313	2.751941e-05	-5.142027e-05	0.03757414	-0.04526633	5.193273e-05	-6.337384e-05
	2.751941e-05	-5.142027e-05	0.0102999	-0.02495044	2.808547e-05	-2.558289e-05	0.03711555	-0.04435374
	0.03757414	-0.04526633	2.808547e-05	-2.558289e-05	0.01054663	-0.02377852	2.136383e-05	-2.806375e-05
	5.193273e-05	-6.337384e-05	0.03711555	-0.04435374	2.136383e-05	-2.806375e-05	0.01038209	-0.0240573
2.4e+08	0.01081582	-0.02498001	2.424544e-05	-5.472261e-05	0.03068773	-0.0484051	4.770546e-05	-6.726404e-05
	2.424544e-05	-5.472261e-05	0.01059234	-0.02567078	2.566121e-05	-2.795901e-05	0.03018325	-0.04736423
	0.03068773	-0.0484051	2.566121e-05	-2.795901e-05	0.01088002	-0.0245392	1.939464e-05	-3.014e-05
	4.770546e-05	-6.726404e-05	0.03018325	-0.04736423	1.939464e-05	-3.014e-05	0.01068614	-0.02484685
2.5e+08	0.01115555	-0.02611128	2.024006e-05	-5.801557e-05	0.02324585	-0.05046467	4.276e-05	-7.105894e-05
	2.024006e-05	-5.801557e-05	0.01085373	-0.02678804	2.276645e-05	-3.032042e-05	0.02270656	-0.0492854
	0.02324585	-0.05046467	2.276645e-05	-3.032042e-05	0.01117357	-0.02569485	1.700903e-05	-3.221257e-05
	4.276e-05	-7.105894e-05	0.02270656	-0.0492854	1.700903e-05	-3.221257e-05	0.01094395	-0.02602918
2.6e+08	0.01135349	-0.02764884	1.546164e-05	-6.117081e-05	0.01542194	-0.05135724	3.706991e-05	-7.463463e-05
	1.546164e-05	-6.117081e-05	0.01097268	-0.02830356	1.936889e-05	-3.259598e-05	0.01486091	-0.05003086
	0.01542194	-0.05135724	1.936889e-05	-3.259598e-05	0.01131719	-0.02724584	1.418351e-05	-3.42182e-05
	3.706991e-05	-7.463463e-05	0.01486091	-0.05003086	1.418351e-05	-3.42182e-05	0.0110451	-0.02760322
2.7e+08	0.01129691	-0.0295692	9.886922e-06	-6.404799e-05	0.007402412	-0.0510225	3.06263e-05	-7.785844e-05
	9.886922e-06	-6.404799e-05	0.010837	-0.03019316	1.544468e-05	-3.470546e-05	0.006834656	-0.04954221
	0.007402412	-0.0510225	1.544468e-05	-3.470546e-05	0.01120038	-0.02916771	1.090097e-05	-3.608744e-05
	3.06263e-05	-7.785844e-05	0.006834656	-0.04954221	1.090097e-05	-3.608744e-05	0.01087902	-0.02954284
2.8e+08	0.01087748	-0.03182274	3.51724e-06	-6.649613e-05	-0.0006178501	-0.04943048	2.344237e-05	-8.05907e-05
	3.51724e-06	-6.649613e-05	0.01033912	-0.03240653	1.098042e-05	-3.656088e-05	-0.001175748	-0.0477917
	-0.0006178502	-0.04943048	1.098042e-05	-3.656088e-05	0.01071727	-0.03141045	7.154786e-06	-3.774441e-05
	2.344237e-05	-8.05907e-05	-0.001175748	-0.0477917	7.154786e-06	-3.774441e-05	0.0103402	-0.03179623
2.9e+08	0.009996778	-0.03433568	-3.621442e-06	-6.835875e-05	-0.008440303	-0.04658239	1.555487e-05	-8.268919e-05
	-3.621442e-06	-6.835875e-05	0.009381683	-0.03486916	5.977172e-06	-3.806706e-05	-0.008970525	-0.04478322
	-0.008440303	-0.04658239	5.977173e-06	-3.806706e-05	0.009771205	-0.03389972	2.947572e-06	-3.910868e-05
	1.555487e-05	-8.268919e-05	-0.008970526	-0.04478322	2.947572e-06	-3.910868e-05	0.009332768	-0.03428717
3e+08	0.0085714	-0.0370114	-1.147793e-05	-6.947804e-05	-0.01586756	-0.04251058	7.023856e-06	-8.401213e-05
	-1.147793e-05	-6.947804e-05	0.007882519	-0.03748383	4.512145e-07	-3.912442e-05	-0.01635146	-0.04055198
	-0.01586756	-0.04251058	4.512145e-07	-3.912442e-05	0.008280831	-0.03653912	-1.706312e-06	-4.009591e-05
	7.023856e-06	-8.401213e-05	-0.01635146	-0.04055198	-1.706312e-06	-4.009591e-05	0.007776642	-0.03691743
3.1e+08	0.006537484	-0.03973394	-1.996762e-05	-6.969981e-05	-0.02270878	-0.03727867	-2.065015e-06	-8.442361e-05
	-1.996762e-05	-6.969981e-05	0.00577938	-0.04013409	-5.568362e-06	-3.962983e-05	-0.02312739	-0.03516472
	-0.02270878	-0.03727867	-5.568362e-06	-3.962983e-05	0.006184036	-0.03921252	-6.778457e-06	-4.061975e-05
	-2.065015e-06	-8.442361e-05	-0.02312739	-0.03516472	-6.778457e-06	-4.061975e-05	0.00561144	-0.03956914
3.2e+08	0.003854658	-0.04237129	-2.89821e-05	-6.887803e-05	-0.02878432	-0.03098	-1.160046e-05	-8.379714e-05
	-2.89821e-05	-6.887803e-05	0.003033691	-0.04268772	-1.203078e-05	-3.948047e-05	-0.02911893	-0.02871802
	-0.02878432	-0.03098	-1.203078e-05	-3.948047e-05	0.003443167	-0.0417887	-1.22284e-05	-4.059286e-05
	-1.160046e-05	-8.379714e-05	-0.02911893	-0.02871802	-1.22284e-05	-4.059286e-05	0.002801746	-0.04210968
3.3e+08	0.0005097092	-0.04478092	-3.838236e-05	-6.688099e-05	-0.03393011	-0.02373544	-2.144909e-05	-8.202018e-05
	-3.838236e-05	-6.688099e-05	-0.0003656383	-0.0450022	-1.8871e-05	-3.857468e-05	-0.03416279	-0.02133599
	-0.03393011	-0.02373544	-1.8871e-05	-3.857468e-05	4.655409e-05	-0.04412544	-1.799814e-05	-3.993026e-05
	-2.144909e-05	-8.202018e-05	-0.03416279	-0.02133599	-1.799814e-05	-3.993026e-05	-0.0006614044	-0.04439576
3.4e+08	-0.003480901	-0.04681442	-4.800478e-05	-6.359546e-05	-0.03800269	-0.01569078	-3.145261e-05	-7.900023e-05
	-4.800478e-05	-6.359546e-05	-0.004399954	-0.04692962	-2.600306e-05	-3.681565e-05	-0.03811694	-0.01316762
	-0.03800269	-0.01569078	-2.600306e-05	-3.681565e-05	-0.003987393	-0.04607589	-2.401578e-05	-3.855036e-05
	-3.145261e-05	-7.900023e-05	-0.03811694	-0.01316762	-2.401578e-05	-3.855036e-05	-0.004756546	-0.04628003
3.5e+08	-0.008070182	-0.04832413	-5.766042e-05	-5.893473e-05	-0.0408821	-0.007013187	-4.143893e-05	-7.466438e-05
	-5.766042e-05	-5.893473e-05	-0.009019903	-0.04832326	-3.332062e-05	-3.41164e-05	-0.04086332	-0.004383017
	-0.0408821	-0.007013187	-3.332062e-05	-3.41164e-05	-0.008610225	-0.04749302	-3.019254e-05	-3.637895e-05
	-4.143893e-05	-7.466438e-05	-0.04086332	-0.004383017	-3.019254e-05	-3.637895e-05	-0.009431905	-0.04761559
3.6e+08	-0.01318042	-0.04916865	-6.714474e-05	-5.283512e-05	-0.04247561	0.002112725	-5.121598e-05	-6.896786e-05
	-6.714474e-05	-5.283512e-05	-0.01414543	-0.04904313	-4.070231e-05	-3.03984e-05	-0.04231175	0.004830582
	-0.04247561	0.002112725	-4.070231e-05	-3.03984e-05	-0.01374227	-0.04823742	-3.642274e-05	-3.335255e-05
	-5.121598e-05	-6.896786e-05	-0.04231175	0.004830582	-3.642274e-05	-3.335255e-05	-0.01460437	-0.04826376
3.7e+08	-0.01870402	-0.04921983	-7.623502e-05	-4.527182e-05	-0.04272009	0.01148993	-6.058119e-05	-6.189456e-05
	-7.623502e-05	-4.527182e-05	-0.01966673	-0.04896309	-4.800376e-05	-2.560313e-05	-0.04240203	0.01427386
	-0.04272009	0.01148993	-4.800376e-05	-2.560313e-05	-0.01927477	-0.04818269	-4.258877e-05	-2.941796e-05
	-6.058119e-05	-6.189456e-05	-0.04240203	0.01427386	-4.258877e-05	-2.941796e-05	-0.02016169	-0.04809973
3.8e+08	-0.02450624	-0.04836783	-8.470143e-05	-3.624711e-05	-0.04158296	0.02091329	-6.932562e-05	-5.345945e-05
	-8.470143e-05	-3.624711e-05	-0.02544711	-0.04797578	-5.506831e-05	-1.968745e-05	-0.04110495	0.02373996
	-0.04158296	0.02091329	-5.506831e-05	-1.968745e-05	-0.0250719	-0.04722062	-4.8556e-05	-2.454244e-05
	-6.932562e-05	-5.345945e-05	-0.04110495	0.02373996	-4.8556e-05	-2.454244e-05	-0.02596481	-0.04701763
3.9e+08	-0.0304276	-0.04652679	-9.230904e-05	-2.580375e-05	-0.03906413	0.03017461	-7.723978e-05	-4.370549e-05
	-9.230904e-05	-2.580375e-05	-0.03132547	-0.04599836	-6.172436e-05	-1.263178e-05	-0.03842409	0.03301947
	-0.03906413	0.03017461	-6.172436e-05	-1.263178e-05	-0.03097347	-0.0452685	-5.41814e-05	-1.870729e-05
	-7.723978e-05	-4.370549e-05	-0.03842409	0.03301947	-5.41814e-05	-1.870729e-05	-0.03185063	-0.04493781
4e+08	-0.03628982	-0.04364025	-9.882362e-05	-1.402254e-05	-0.03519472	0.03906813	-8.411431e-05	-3.271538e-05
	-9.882362e-05	-1.402254e-05	-0.03712244	-0.04297782	-6.778838e-05	-4.444423e-06	-0.03439443	0.04190607
	-0.03519472	0.03906813	-6.778838e-05	-4.444423e-06	-0.03680121	-0.04227152	-5.931066e-05	-1.192183e-05
	-8.411431e-05	-3.271538e-05	-0.03439443	0.04190607	-5.931066e-05	-1.192183e-05	-0.03763846	-0.04180918
4.1e+08	-0.04190123	-0.0396848	-0.0001040189	-1.01625e-06	-0.03003683	0.04739472	-8.9749e-05	-2.05959e-05
	-0.0001040189	-1.01625e-06	-0.04264582	-0.03889459	-7.307287e-05	4.839184e-06	-0.02908206	0.0502006
	-0.03003683	0.04739472	-7.307287e-05	4.839184e-06	-0.04236314	-0.0382086	-6.378685e-05	-4.21349e-06
	-8.9749e-05	-2.05959e-05	-0.02908206	0.0502006	-6.378685e-05	-4.21349e-06	-0.04313464	-0.03761505
4.2e+08	-0.04706111	-0.03467241	-0.0001076826	1.306208e-05	-0.02368222	0.05496722	-9.395662e-05	-7.492664e-06
	-0.0001076826	1.306208e-05	-0.04769516	-0.03376459	-7.7389e-05	1.515183e-05	-0.0225827	0.05771659
	-0.02368222	0.05496722	-7.7389e-05	1.515183e-05	-0.04745904	-0.03309431	-6.744968e-05	4.360688e-06
	-9.395662e-05	-7.492664e-06	-0.0225827	0.05771659	-6.744968e-05	4.360688e-06	-0.04813801	-0.03237474
4.3e+08	-0.051569	-0.02865244	-0.0001096214	2.802626e-05	-0.01624911	0.06161427	-9.656646e-05	6.422464e-06
	-0.0001096214	2.802626e-05	-0.05207088	-0.02764129	-8.054549e-05	2.639217e-05	-0.01501846	0.06428399
	-0.01624911	0.06161427	-8.054549e-05	2.639217e-05	-0.05188934	-0.0269802	-7.014359e-05	1.371749e-05
	-9.656646e-05	6.422464e-06	-0.01501846	0.06428399	-7.014359e-05	1.371749e-05	-0.05244901	-0.02614487
4.4e+08	-0.05523032	-0.02171152	-0.0001096669	4.365768e-05	-0.007880103	0.067184	-9.74296e-05	2.095467e-05
	-0.0001096669	4.365768e-05	-0.05558013	-0.02061538	-8.236613e-05	3.842665e-05	-0.006535579	0.06975279
	-0.007880103	0.067184	-8.236613e-05	3.842665e-05	-0.05546024	-0.01995531	-7.171984e-05	2.374542e-05
	-9.74296e-05	2.095467e-05	-0.006535579	0.06975279	-7.171984e-05	2.374542e-05	-0.05587479	-0.01901966
4.5e+08	-0.0578625	-0.01397358	-0.0001076754	5.97123e-05	0.001261498	0.07154761	-9.64227e-05	3.587754e-05
	-0.0001076754	5.97123e-05	-0.05804284	-0.01281459	-8.269088e-05	5.108814e-05	0.002699199	0.07399664
	0.001261498	0.07154761	-8.269088e-05	5.108814e-05	-0.05799091	-0.01214547	-7.204166e-05	3.431123e-05
	-9.64227e-05	3.587754e-05	0.002699199	0.07399664	-7.204166e-05	3.431123e-05	-0.0582364	-0.01113005
4.6e+08	-0.05930285	-0.005596625	-0.0001035359	7.591976e-05	0.01099545	0.07460167	-9.345073e-05	5.094589e-05
	-0.0001035359	7.591976e-05	-0.05929943	-0.004400414	-8.137739e-05	6.41848e-05	0.01250267	0.07691512
	0.01099545	0.07460167	-8.137739e-05	6.41848e-05	-0.05932089	-0.003710133	-7.099127e-05	4.5252e-05
	-9.345073e-05	5.094589e-05	0.01250267	0.07691512	-7.099127e-05	4.5252e-05	-0.05937628	-0.00264031
4.7e+08	-0.05941603	0.003230371	-9.717315e-05	9.199157e-05	0.02112891	0.07627056	-8.845022e-05	6.590273e-05
	-9.717315e-05	9.199157e-05	-0.05921844	0.004435256	-7.831163e-05	7.748991e-05	0.02267935	0.078436
	0.02112891	0.07627056	-7.831163e-05	7.748991e-05	-0.05931587	0.005160013	-6.847067e-05	5.638162e-05
	-8.845022e-05	6.590273e-05	0.02267935	0.078436	-6.847067e-05	5.638162e-05	-0.05916394	0.006254437
4.8e+08	-0.05809624	0.01229258	-8.855186e-05	0.0001076193	0.03145996	0.07650724	-8.139442e-05	8.046873e-05
