!$
! Info: Touchstone file created by Circ.  Input file=Intel_C2M_200G_5p5in_202208016_staggered.circ
!$
# Hz S RI R 50
0	0.01924838	3.094388e-24	6.159284e-05	8.311761e-23	0.0001050265	2.756298e-22	6.158558e-05	8.29726e-23
	6.159284e-05	8.311761e-23	0.01926142	3.415083e-24	6.159743e-05	8.319071e-23	0.0001046205	2.738392e-22
	0.0001050841	2.757565e-22	6.159742e-05	8.319192e-23	0.01924323	3.225941e-24	6.158808e-05	8.303683e-23
	6.158557e-05	8.297381e-23	0.0001046781	2.739643e-22	6.158808e-05	8.303683e-23	0.01925937	3.236068e-24
1e+07	0.02333344	0.003096876	4.60953e-06	2.50689e-05	0.001533566	0.005686122	8.666412e-06	1.835987e-05
	4.609531e-06	2.506892e-05	0.02329906	0.003522657	3.329867e-06	2.80275e-05	0.001539479	0.005745838
	0.001533566	0.005686122	3.329867e-06	2.80275e-05	0.02327697	0.003574556	4.648076e-06	2.600793e-05
	8.666412e-06	1.835987e-05	0.001539479	0.005745838	4.648076e-06	2.600793e-05	0.02336194	0.003118585
2e+07	0.02714348	0.002588399	9.160982e-06	2.025957e-05	0.003391424	0.01061906	5.905789e-06	1.160498e-05
	9.160987e-06	2.02596e-05	0.02756527	0.003279979	1.921684e-05	3.001341e-05	0.003403775	0.01073702
	0.003391434	0.01061905	1.921684e-05	3.001341e-05	0.02755551	0.003384059	1.010235e-05	2.177308e-05
	5.90579e-06	1.160498e-05	0.003403785	0.01073701	1.010235e-05	2.177308e-05	0.02718657	0.002622063
3e+07	0.02981668	0.0003251354	1.612304e-05	1.771243e-05	0.006131517	0.01518124	4.225414e-06	1.031144e-05
	1.612305e-05	1.771243e-05	0.03058097	0.00101967	3.32488e-05	2.791344e-05	0.006154376	0.01535487
	0.006131492	0.01518127	3.324881e-05	2.791344e-05	0.03058434	0.001180725	1.776209e-05	1.932263e-05
	4.225416e-06	1.031144e-05	0.006154351	0.01535491	1.776209e-05	1.932263e-05	0.02986496	0.0003705493
4e+07	0.03143679	-0.00270137	2.160578e-05	1.441806e-05	0.00972877	0.01908193	5.372456e-06	8.500742e-06
	2.160578e-05	1.441806e-05	0.03247287	-0.002096015	4.41899e-05	2.245416e-05	0.009765006	0.01930737
	0.009728768	0.01908196	4.41899e-05	2.245416e-05	0.03250333	-0.001883447	2.382634e-05	1.595539e-05
	5.372457e-06	8.500741e-06	0.009765004	0.0193074	2.382634e-05	1.595539e-05	0.03149313	-0.002649258
5e+07	0.03217599	-0.006026387	2.580748e-05	1.03621e-05	0.01403113	0.02221755	7.240571e-06	6.217603e-06
	2.580748e-05	1.03621e-05	0.03342781	-0.005566354	5.242454e-05	1.477175e-05	0.01408249	0.02249016
	0.01403113	0.02221756	5.242454e-05	1.477175e-05	0.03349335	-0.005308879	2.853352e-05	1.1715e-05
	7.240572e-06	6.217603e-06	0.0140825	0.02249017	2.853352e-05	1.1715e-05	0.03223864	-0.005970216
6e+07	0.03214159	-0.00941486	2.88242e-05	5.722819e-06	0.01889564	0.02447639	8.414821e-06	3.77359e-06
	2.88242e-05	5.722819e-06	0.03355968	-0.009139677	5.811449e-05	5.577985e-06	0.01896263	0.02479104
	0.01889566	0.02447638	5.811449e-05	5.577985e-06	0.03366677	-0.008844845	3.199594e-05	6.800915e-06
	8.41482e-06	3.77359e-06	0.01896264	0.02479102	3.199594e-05	6.800915e-06	0.03220915	-0.009355809
7e+07	0.03142381	-0.01267736	3.069952e-05	6.648944e-07	0.02415711	0.02577188	8.906135e-06	1.263732e-06
	3.069952e-05	6.648947e-07	0.03296168	-0.0126174	6.135147e-05	-4.59587e-06	0.02423879	0.02612315
	0.02415711	0.02577188	6.135147e-05	-4.59587e-06	0.03311521	-0.01229429	3.426111e-05	1.383867e-06
	8.906135e-06	1.263732e-06	0.02423879	0.02612315	3.426111e-05	1.383867e-06	0.03149547	-0.01261644
8e+07	0.03013622	-0.01565932	3.143583e-05	-4.684734e-06	0.02963835	0.02604701	8.721541e-06	-1.202038e-06
	3.143583e-05	-4.684734e-06	0.03174786	-0.01584044	6.214326e-05	-1.537429e-05	0.02973233	0.02642966
	0.02963835	0.02604702	6.214326e-05	-1.537429e-05	0.03195087	-0.01549904	3.532799e-05	-4.411915e-06
	8.721541e-06	-1.202038e-06	0.02973233	0.02642966	3.532799e-05	-4.411915e-06	0.03021196	-0.01559748
9e+07	0.02841649	-0.01824549	3.097129e-05	-1.027003e-05	0.0351561	0.02527533	7.859926e-06	-3.519606e-06
	3.097129e-05	-1.027004e-05	0.03005216	-0.01869495	6.036922e-05	-2.655168e-05	0.03525862	0.02568457
	0.03515611	0.02527534	6.036922e-05	-2.655168e-05	0.03030497	-0.01834578	3.512274e-05	-1.054625e-05
	7.859926e-06	-3.519606e-06	0.03525862	0.02568458	3.512274e-05	-1.054625e-05	0.02849624	-0.01818403
1e+08	0.02645243	-0.0203274	2.876024e-05	-1.650885e-05	0.0405277	0.0234602	6.110748e-06	-5.664772e-06
	2.876024e-05	-1.650885e-05	0.02803501	-0.02110556	5.489357e-05	-3.881517e-05	0.04063369	0.02389219
	0.0405277	0.0234602	5.489357e-05	-3.881517e-05	0.02833507	-0.02075906	3.304303e-05	-1.753227e-05
	6.110748e-06	-5.664772e-06	0.04063369	0.02389219	3.304303e-05	-1.753227e-05	0.0265362	-0.02026826
1.1e+08	0.02441562	-0.02218334	2.376211e-05	-1.983326e-05	0.04557734	0.0206202	3.762767e-06	-6.203652e-06
	2.376211e-05	-1.983326e-05	0.02576964	-0.02316729	4.409107e-05	-4.485824e-05	0.04568073	0.02107203
	0.04557734	0.0206202	4.409107e-05	-4.485824e-05	0.02616134	-0.02287051	2.773609e-05	-2.144903e-05
	3.762767e-06	-6.203652e-06	0.04568073	0.02107203	2.773609e-05	-2.144903e-05	0.02454767	-0.02216551
1.2e+08	0.02216066	-0.02361581	1.969695e-05	-2.15599e-05	0.05009022	0.01685246	1.981829e-06	-6.180394e-06
	1.969695e-05	-2.15599e-05	0.02332312	-0.02471721	3.571378e-05	-4.78362e-05	0.05018371	0.01732258
	0.05009022	0.01685246	3.571378e-05	-4.78362e-05	0.02373973	-0.02447126	2.340009e-05	-2.359353e-05
	1.981829e-06	-6.180394e-06	0.05018371	0.01732257	2.340009e-05	-2.359353e-05	0.02227872	-0.0236318
1.3e+08	0.01987159	-0.02459158	1.716319e-05	-2.159431e-05	0.05392388	0.01225366	4.861354e-07	-6.036516e-06
	1.716319e-05	-2.159431e-05	0.0208574	-0.02576978	3.295741e-05	-4.553721e-05	0.05399967	0.01274218
	0.05392388	0.01225366	3.295741e-05	-4.553721e-05	0.02127768	-0.02555618	2.097341e-05	-2.356478e-05
	4.861355e-07	-6.036516e-06	0.05399966	0.01274218	2.097341e-05	-2.356478e-05	0.01996102	-0.02461649
1.4e+08	0.01766843	-0.02514287	1.575381e-05	-2.046916e-05	0.05694512	0.006945966	-8.097437e-07	-5.775603e-06
	1.575381e-05	-2.046916e-05	0.01848932	-0.02636901	3.015165e-05	-4.360365e-05	0.05699516	0.007454711
	0.05694512	0.006945965	3.015165e-05	-4.360365e-05	0.01891152	-0.02617851	1.954778e-05	-2.249419e-05
	-8.097436e-07	-5.775603e-06	0.05699516	0.00745471	1.954778e-05	-2.249419e-05	0.01773532	-0.02516321
1.5e+08	0.01564788	-0.02532528	1.458235e-05	-1.956854e-05	0.05903955	0.001072548	-1.925446e-06	-5.30871e-06
	1.458235e-05	-1.956854e-05	0.01631468	-0.02657699	2.733774e-05	-4.178269e-05	0.05905588	0.001605135
	0.05903955	0.001072547	2.733774e-05	-4.178269e-05	0.0167392	-0.02640937	1.816251e-05	-2.151888e-05
	-1.925446e-06	-5.30871e-06	0.05905588	0.001605134	1.816251e-05	-2.151888e-05	0.01570104	-0.02533892
1.6e+08	0.013886	-0.02521178	1.343312e-05	-1.871706e-05	0.06011653	-0.005205894	-2.814419e-06	-4.744828e-06
	1.343312e-05	-1.871706e-05	0.0144093	-0.02647114	2.458297e-05	-3.9986e-05	0.06009169	-0.004644065
	0.06011653	-0.005205895	2.458297e-05	-3.9986e-05	0.01483387	-0.02633058	1.692911e-05	-2.071936e-05
	-2.814419e-06	-4.744828e-06	0.06009169	-0.004644066	1.692911e-05	-2.071936e-05	0.01393157	-0.02522333
1.7e+08	0.01243804	-0.02488878	1.23214e-05	-1.789003e-05	0.06011225	-0.01171549	-3.459357e-06	-4.230975e-06
	1.23214e-05	-1.789003e-05	0.01282829	-0.02614133	2.1926e-05	-3.818084e-05	0.06003954	-0.01111733
	0.06011225	-0.01171549	2.1926e-05	-3.818084e-05	0.01324674	-0.02603233	1.572059e-05	-1.995773e-05
	-3.459357e-06	-4.230975e-06	0.06003954	-0.01111733	1.572059e-05	-1.995773e-05	0.01247765	-0.02490546
1.8e+08	0.01133631	-0.02445157	1.124783e-05	-1.708949e-05	0.05899172	-0.01827358	-3.696583e-06	-3.446335e-06
	1.124783e-05	-1.708949e-05	0.01160375	-0.02568572	1.939721e-05	-3.633912e-05	0.05886561	-0.01763039
	0.05899172	-0.01827358	1.939721e-05	-3.633912e-05	0.01200698	-0.02561093	1.45362e-05	-1.923097e-05
	-3.696583e-06	-3.446335e-06	0.05886561	-0.01763039	1.45362e-05	-1.923097e-05	0.01136759	-0.02448088
1.9e+08	0.01058979	-0.02400008	1.023373e-05	-1.628301e-05	0.05675037	-0.02469354	-3.812348e-06	-2.633951e-06
	1.023373e-05	-1.628301e-05	0.01074429	-0.02520664	1.70343e-05	-3.443105e-05	0.05656682	-0.02399522
	0.05675037	-0.02469354	1.70343e-05	-3.443105e-05	0.01112147	-0.02516561	1.339797e-05	-1.850196e-05
	-3.812348e-06	-2.633951e-06	0.05656681	-0.02399522	1.339797e-05	-1.850196e-05	0.0106069	-0.02404822
2e+08	0.010183	-0.02363343	9.290704e-06	-1.5464e-05	0.0534139	-0.03078974	-3.842768e-06	-1.829557e-06
	9.290704e-06	-1.5464e-05	0.01023392	-0.02480515	1.486045e-05	-3.245724e-05	0.05317062	-0.03002501
	0.0534139	-0.03078974	1.486045e-05	-3.245724e-05	0.01057456	-0.02479441	1.231745e-05	-1.776064e-05
	-3.842768e-06	-1.829558e-06	0.05317062	-0.03002501	1.231745e-05	-1.776064e-05	0.01017837	-0.02370485
2.1e+08	0.01007757	-0.02344412	8.42533e-06	-1.46329e-05	0.04903787	-0.03638216	-3.785474e-06	-1.042295e-06
	8.42533e-06	-1.46329e-05	0.01003354	-0.02457556	1.289242e-05	-3.042573e-05	0.0487346	-0.0355389
	0.04903787	-0.03638216	1.289242e-05	-3.042573e-05	0.01032768	-0.02458867	1.130172e-05	-1.700424e-05
	-3.785474e-06	-1.042295e-06	0.0487346	-0.0355389	1.130172e-05	-1.700424e-05	0.01004164	-0.02354127
2.2e+08	0.01021325	-0.02351437	7.6429e-06	-1.379245e-05	0.04370644	-0.04130109	-3.640254e-06	-2.821102e-07
	7.6429e-06	-1.379245e-05	0.01008207	-0.02460143	1.114326e-05	-2.834942e-05	0.04334516	-0.04036672
	0.04370644	-0.04130109	1.114326e-05	-2.834942e-05	0.01032186	-0.02462926	1.03569e-05	-1.623262e-05
	-3.640254e-06	-2.821102e-07	0.04334516	-0.04036672	1.03569e-05	-1.623262e-05	0.01013585	-0.02363713
2.3e+08	0.01051137	-0.02391082	6.947014e-06	-1.294719e-05	0.0375305	-0.04539197	-3.408929e-06	4.407275e-07
	6.947014e-06	-1.294719e-05	0.0102999	-0.02495044	9.621827e-06	-2.624489e-05	0.03711555	-0.04435374
	0.0375305	-0.04539197	9.621827e-06	-2.624489e-05	0.01048008	-0.02498253	9.487699e-06	-1.544767e-05
	-3.408929e-06	4.407275e-07	0.03711555	-0.04435374	9.487699e-06	-1.544767e-05	0.01038209	-0.0240573
2.4e+08	0.01087828	-0.02468096	6.339845e-06	-1.210301e-05	0.03064506	-0.04851873	-3.095191e-06	1.115994e-06
	6.339845e-06	-1.210301e-05	0.01059234	-0.02567078	8.333203e-06	-2.413132e-05	0.03018325	-0.04736423
	0.03064506	-0.04851873	8.333203e-06	-2.413132e-05	0.0107099	-0.0256955	8.697751e-06	-1.465295e-05
	-3.095191e-06	1.115994e-06	0.03018325	-0.04736423	8.697751e-06	-1.465295e-05	0.01068614	-0.02484685
2.5e+08	0.01120931	-0.02585006	5.822086e-06	-1.12666e-05	0.02320593	-0.05056778	-2.704463e-06	1.733858e-06
	5.822086e-06	-1.12666e-05	0.01085373	-0.02678804	7.278752e-06	-2.202954e-05	0.02270656	-0.0492854
	0.02320593	-0.05056778	7.278752e-06	-2.202954e-05	0.01090881	-0.02679389	7.989473e-06	-1.385318e-05
	-2.704462e-06	1.733858e-06	0.02270656	-0.0492854	7.989473e-06	-1.385318e-05	0.01094395	-0.02602918
2.6e+08	0.01139402	-0.02741941	5.393143e-06	-1.044521e-05	0.01538619	-0.05145148	-2.243748e-06	2.285186e-06
	5.393143e-06	-1.044521e-05	0.01097268	-0.02830356	6.456344e-06	-1.996125e-05	0.01486091	-0.05003086
	0.01538619	-0.05145148	6.456344e-06	-1.996125e-05	0.01096759	-0.02827935	7.364243e-06	-1.305392e-05
	-2.243748e-06	2.285186e-06	0.01486091	-0.05003086	7.364243e-06	-1.305392e-05	0.0110451	-0.02760322
2.7e+08	0.01132097	-0.02936514	5.051164e-06	-9.646304e-06	0.007371934	-0.05110972	-1.721427e-06	2.761737e-06
	5.051164e-06	-9.646304e-06	0.010837	-0.03019316	5.860451e-06	-1.794837e-05	0.006834656	-0.04954221
	0.007371934	-0.05110972	5.860451e-06	-1.794837e-05	0.01077644	-0.03012881	6.822396e-06	-1.226136e-05
	-1.721427e-06	2.761737e-06	0.006834656	-0.04954221	6.822396e-06	-1.226136e-05	0.01087902	-0.02954284
2.8e+08	0.01088321	-0.03163751	4.793171e-06	-8.877407e-06	-0.0006423266	-0.04951259	-1.147084e-06	3.156397e-06
	4.793171e-06	-8.877407e-06	0.01033912	-0.03240653	5.482431e-06	-1.601264e-05	-0.001175748	-0.0477917
	-0.0006423267	-0.04951259	5.482431e-06	-1.601264e-05	0.01023005	-0.0322937	6.363276e-06	-1.148218e-05
	-1.147084e-06	3.156397e-06	-0.001175748	-0.0477917	6.363276e-06	-1.148218e-05	0.0103402	-0.03179623
2.9e+08	0.009983645	-0.03416277	4.615112e-06	-8.145845e-06	-0.008458454	-0.04666136	-5.31293e-07	3.463337e-06
	4.615112e-06	-8.145845e-06	0.009381683	-0.03486916	5.310605e-06	-1.417495e-05	-0.008970525	-0.04478322
	-0.008458454	-0.04666136	5.310605e-06	-1.417495e-05	0.009232107	-0.03470123	5.985284e-06	-1.072322e-05
	-5.312929e-07	3.463337e-06	-0.008970526	-0.04478322	5.985284e-06	-1.072322e-05	0.009332768	-0.03428717
3e+08	0.00854008	-0.03684465	4.511947e-06	-7.458674e-06	-0.01587939	-0.04258833	1.145967e-07	3.678093e-06
	4.511947e-06	-7.458674e-06	0.007882519	-0.03748383	5.330527e-06	-1.245498e-05	-0.01635146	-0.04055198
	-0.01587939	-0.04258833	5.330527e-06	-1.245498e-05	0.007701405	-0.03725659	5.68582e-06	-9.99147e-06
	1.145967e-07	3.678093e-06	-0.01635146	-0.04055198	5.68582e-06	-9.99147e-06	0.007776642	-0.03691743
3.1e+08	0.006489841	-0.03956763	4.477751e-06	-6.822511e-06	-0.02271464	-0.03735705	7.786722e-07	3.797713e-06
	4.477751e-06	-6.822511e-06	0.00577938	-0.04013409	5.525219e-06	-1.087082e-05	-0.02312739	-0.03516472
	-0.02271465	-0.03735705	5.525219e-06	-1.087082e-05	0.00557573	-0.0398452	5.461388e-06	-9.293954e-06
	7.786722e-07	3.797713e-06	-0.02312739	-0.03516472	5.461388e-06	-9.293954e-06	0.00561144	-0.03956914
3.2e+08	0.003793557	-0.04220043	4.505765e-06	-6.243415e-06	-0.02878494	-0.03106071	1.448665e-06	3.820776e-06
	4.505765e-06	-6.243415e-06	0.003033691	-0.04268772	5.875379e-06	-9.438579e-06	-0.02911893	-0.02871802
	-0.02878494	-0.03106071	5.875379e-06	-9.438579e-06	0.002817143	-0.04233736	5.307492e-06	-8.637481e-06
	1.448665e-06	3.820776e-06	-0.02911893	-0.02871802	5.307492e-06	-8.637481e-06	0.002801746	-0.04210968
3.3e+08	0.0004388968	-0.04460131	4.588446e-06	-5.726868e-06	-0.03392647	-0.02381997	2.112147e-06	3.747387e-06
	4.588446e-06	-5.726868e-06	-0.0003656383	-0.0450022	6.35974e-06	-8.172125e-06	-0.03416279	-0.02133599
	-0.03392647	-0.02381997	6.35974e-06	-8.172125e-06	-0.0005865399	-0.04459232	5.218728e-06	-8.028627e-06
	2.112147e-06	3.747387e-06	-0.03416279	-0.02133599	5.218728e-06	-8.028627e-06	-0.0006614044	-0.04439576
3.4e+08	-0.003557018	-0.04662284	4.717546e-06	-5.277577e-06	-0.03799609	-0.01578042	2.756754e-06	3.579263e-06
	4.717546e-06	-5.277577e-06	-0.004399954	-0.04692962	6.955309e-06	-7.082754e-06	-0.03811694	-0.01316762
	-0.03799609	-0.01578042	6.955309e-06	-7.082754e-06	-0.004617623	-0.04646458	5.188741e-06	-7.473544e-06
	2.756754e-06	3.579263e-06	-0.03811694	-0.01316762	5.188741e-06	-7.473544e-06	-0.004756546	-0.04628003
3.5e+08	-0.008146706	-0.04811842	4.884155e-06	-4.899473e-06	-0.04087398	-0.007108873	3.370344e-06	3.319634e-06
	4.884155e-06	-4.899473e-06	-0.009019903	-0.04832326	7.637758e-06	-6.17903e-06	-0.04086332	-0.004383017
	-0.04087398	-0.007108872	7.637758e-06	-6.17903e-06	-0.009228556	-0.04780834	5.210272e-06	-6.977851e-06
	3.370344e-06	3.319634e-06	-0.04086332	-0.004383017	5.210272e-06	-6.977851e-06	-0.009431905	-0.04761559
3.6e+08	-0.01325217	-0.04894774	5.078775e-06	-4.595517e-06	-0.04246764	0.002010344	3.941206e-06	2.973285e-06
	5.078775e-06	-4.595517e-06	-0.01414543	-0.04904313	8.381744e-06	-5.466526e-06	-0.04231175	0.004830582
	-0.04246764	0.002010344	8.381744e-06	-5.466526e-06	-0.01434074	-0.04848519	5.275155e-06	-6.546415e-06
	3.941206e-06	2.973285e-06	-0.04231175	0.004830582	5.275155e-06	-6.546415e-06	-0.01460437	-0.04826376
3.7e+08	-0.01876578	-0.04898377	5.2914e-06	-4.367669e-06	-0.04271397	0.01138053	4.458255e-06	2.546448e-06
	5.2914e-06	-4.367669e-06	-0.01966673	-0.04896309	9.161325e-06	-4.947701e-06	-0.04240203	0.01427386
	-0.04271397	0.01138053	9.161325e-06	-4.947701e-06	-0.01984657	-0.04836958	5.374413e-06	-6.183247e-06
	4.458255e-06	2.546448e-06	-0.04240203	0.01427386	5.374413e-06	-6.183247e-06	-0.02016169	-0.04809973
3.8e+08	-0.02455293	-0.04811776	5.511594e-06	-4.216729e-06	-0.04158048	0.02079693	4.911162e-06	2.046759e-06
	5.511594e-06	-4.216729e-06	-0.02544711	-0.04797578	9.950334e-06	-4.621869e-06	-0.04110495	0.02373996
	-0.04158048	0.02079693	9.950334e-06	-4.621869e-06	-0.02561151	-0.047354	5.498331e-06	-5.891324e-06
	4.911162e-06	2.046759e-06	-0.04110495	0.02373996	5.498331e-06	-5.891324e-06	-0.02596481	-0.04701763
3.9e+08	-0.03045446	-0.04626487	5.728619e-06	-4.142228e-06	-0.03906701	0.03005168	5.290577e-06	1.483229e-06
	5.728619e-06	-4.142228e-06	-0.03132547	-0.04599836	1.072272e-05	-4.48498e-06	-0.03842409	0.03301947
	-0.03906701	0.03005168	1.072272e-05	-4.48498e-06	-0.0314767	-0.04535609	5.636534e-06	-5.672345e-06
	5.290577e-06	1.483229e-06	-0.03842409	0.03301947	5.636534e-06	-5.672345e-06	-0.03185063	-0.04493781
4e+08	-0.03629263	-0.04336957	5.93159e-06	-4.142309e-06	-0.0352046	0.03893936	5.588277e-06	8.660615e-07
	5.93159e-06	-4.142309e-06	-0.03712244	-0.04297782	1.145308e-05	-4.529796e-06	-0.03439443	0.04190607
	-0.0352046	0.03893936	1.145308e-05	-4.529796e-06	-0.0372652	-0.04232127	5.778261e-06	-5.526692e-06
	5.588277e-06	8.660615e-07	-0.03439443	0.04190607	5.778261e-06	-5.526692e-06	-0.03763846	-0.04180918
4.1e+08	-0.04187653	-0.03940914	6.109968e-06	-4.213353e-06	-0.03005523	0.04726114	5.797208e-06	2.06637e-07
	6.109968e-06	-4.213353e-06	-0.04264582	-0.03889459	1.211888e-05	-4.745616e-06	-0.02908206	0.0502006
	-0.03005523	0.04726114	1.211888e-05	-4.745616e-06	-0.04278626	-0.03822858	5.914343e-06	-5.452753e-06
	5.797208e-06	2.06637e-07	-0.02908206	0.0502006	5.914343e-06	-5.452753e-06	-0.04313464	-0.03761505
4.2e+08	-0.04700619	-0.03439618	6.252998e-06	-4.350678e-06	-0.02371042	0.05483019	5.912042e-06	-4.82693e-07
	6.252998e-06	-4.350678e-06	-0.04769516	-0.03376459	1.269705e-05	-5.119456e-06	-0.0225827	0.05771659
	-0.02371042	0.05483019	1.269705e-05	-5.119456e-06	-0.04784098	-0.03309236	6.033603e-06	-5.448476e-06
	5.912042e-06	-4.82693e-07	-0.0225827	0.05771659	6.033603e-06	-5.448476e-06	-0.04813801	-0.03237474
4.3e+08	-0.05148192	-0.02838062	6.350543e-06	-4.54795e-06	-0.01628815	0.06147536	5.929145e-06	-1.188901e-06
	6.350543e-06	-4.54795e-06	-0.05207088	-0.02764129	1.316503e-05	-5.635175e-06	-0.01501846	0.06428399
	-0.01628815	0.06147536	1.316503e-05	-5.635175e-06	-0.05223113	-0.02696364	6.123615e-06	-5.510024e-06
	5.929145e-06	-1.188901e-06	-0.01501846	0.06428399	6.123615e-06	-5.510024e-06	-0.05244901	-0.02614487
4.4e+08	-0.05511006	-0.0214495	6.393409e-06	-4.797103e-06	-0.007930744	0.06704498	5.84655e-06	-1.898326e-06
	6.393409e-06	-4.797103e-06	-0.05558013	-0.02061538	1.350397e-05	-6.273462e-06	-0.006535579	0.06975279
	-0.007930744	0.06704498	1.350397e-05	-6.273462e-06	-0.05576398	-0.01993086	6.174006e-06	-5.631276e-06
	5.84655e-06	-1.898326e-06	-0.006535579	0.06975279	6.174006e-06	-5.631276e-06	-0.05587479	-0.01901966
4.5e+08	-0.05770906	-0.0137269	6.373473e-06	-5.088584e-06	0.001198791	0.07141043	5.664213e-06	-2.596985e-06
	6.373473e-06	-5.088584e-06	-0.05804284	-0.01281459	1.369769e-05	-7.012532e-06	0.002699199	0.07399664
	0.001198791	0.07141043	1.369769e-05	-7.012532e-06	-0.05825956	-0.01211905	6.175248e-06	-5.804474e-06
	5.664213e-06	-2.596985e-06	0.002699199	0.07399664	6.175248e-06	-5.804474e-06	-0.0582364	-0.01113005
4.6e+08	-0.05911718	-0.00537082	6.284016e-06	-5.411506e-06	0.01092061	0.07446836	5.384089e-06	-3.270852e-06
	6.284016e-06	-5.411506e-06	-0.05929943	-0.004400414	1.373316e-05	-7.828498e-06	0.01250267	0.07691512
	0.01092061	0.07446836	1.373316e-05	-7.828498e-06	-0.05955822	-0.003686791	6.119012e-06	-6.020311e-06
	5.384089e-06	-3.270852e-06	0.01250267	0.07691512	6.119012e-06	-6.020311e-06	-0.05937628	-0.00264031
4.7e+08	-0.05920008	0.003429934	6.120057e-06	-5.753821e-06	0.02104221	0.07614314	5.010189e-06	-3.906178e-06
	6.120057e-06	-5.753821e-06	-0.05921844	0.004435256	1.360076e-05	-8.695741e-06	0.02267935	0.078436
	0.02104221	0.07614314	1.360076e-05	-8.695741e-06	-0.05952618	0.00517618	5.99842e-06	-6.268108e-06
	5.010189e-06	-3.906178e-06	0.02267935	0.078436	5.99842e-06	-6.268108e-06	-0.05916394	0.006254437
4.8e+08	-0.05785288	0.01246084	5.878462e-06	-6.102659e-06	0.03136198	0.07638778	4.548546e-06	-4.489773e-06
	5.878462e-06	-6.102659e-06	-0.05769842	0.0134752	1.329453e-05	-9.587441e-06	0.03302524	0.07851606
