!$
! Info: Touchstone file created by Circ.  Input file=Intel_C2M_200G_5p5in_202208016_staggered.circ
!$
# Hz S RI R 50
0	0.01981588	6.400747e-24	-8.359522e-05	1.023746e-20	0.0003285601	6.115042e-22	-7.928405e-05	9.709496e-21
	-8.359532e-05	1.023747e-20	0.01926142	3.415083e-24	-9.074631e-05	1.111322e-20	0.0001046205	2.738392e-22
	0.000328628	6.119337e-22	-9.074639e-05	1.111323e-20	0.0198171	6.530885e-24	-8.362064e-05	1.024058e-20
	-7.928404e-05	9.709495e-21	0.0001046781	2.739643e-22	-8.362055e-05	1.024056e-20	0.01925937	3.236068e-24
1e+07	0.02424592	0.003051166	-0.0005471488	-9.956676e-05	0.001171979	0.00571882	-5.259669e-05	-0.0001017378
	-0.0005471488	-9.956676e-05	0.02329906	0.003522657	-0.0004281203	9.678427e-05	0.001539479	0.005745838
	0.001171979	0.00571882	-0.0004281203	9.678427e-05	0.02407436	0.00336378	-0.000434435	-6.908534e-05
	-5.259669e-05	-0.0001017378	0.001539479	0.005745838	-0.000434435	-6.908534e-05	0.02336194	0.003118585
2e+07	0.02845127	0.002239143	-0.0005179609	-0.0002503541	0.002667223	0.01094382	-7.914882e-05	-0.0001575191
	-0.0005179608	-0.0002503541	0.02756527	0.003279979	-0.0005067476	2.252952e-06	0.003403775	0.01073702
	0.002667311	0.01094371	-0.0005067476	2.252988e-06	0.02862514	0.002796431	-0.0004085429	-0.0002961989
	-7.914881e-05	-0.0001575191	0.003403785	0.01073701	-0.000408543	-0.0002961989	0.02718657	0.002622063
3e+07	0.0313933	-0.0005706364	-0.0005315537	-0.0003633705	0.004981901	0.01576632	-0.0001199508	-0.0002192652
	-0.0005315537	-0.0003633705	0.03058097	0.00101967	-0.0005812879	-4.426524e-05	0.006154376	0.01535487
	0.004981877	0.01576629	-0.0005812879	-4.426524e-05	0.03185016	1.231851e-05	-0.0004204462	-0.0004158123
	-0.0001199508	-0.0002192652	0.006154351	0.01535491	-0.0004204462	-0.0004158123	0.02986496	0.0003705493
4e+07	0.03354841	-0.004100822	-0.0005711601	-0.0004428521	0.007969841	0.02014458	-0.000176228	-0.0002728132
	-0.0005711601	-0.0004428521	0.03247287	-0.002096015	-0.0006590452	-7.658554e-05	0.009765006	0.01930737
	0.007969841	0.02014458	-0.0006590452	-7.658554e-05	0.03423491	-0.003578005	-0.0004595604	-0.0005023658
	-0.000176228	-0.0002728132	0.009765004	0.0193074	-0.0004595604	-0.0005023658	0.03149313	-0.002649258
5e+07	0.03497192	-0.008138833	-0.0006298005	-0.0004987596	0.01157395	0.02395971	-0.0002422384	-0.0003154025
	-0.0006298005	-0.0004987596	0.03342781	-0.005566354	-0.0007411311	-9.769648e-05	0.01408249	0.02249016
	0.01157396	0.02395972	-0.0007411311	-9.769647e-05	0.03584044	-0.00773223	-0.0005183225	-0.0005650091
	-0.0002422384	-0.0003154025	0.0140825	0.02249017	-0.0005183225	-0.0005650091	0.03223864	-0.005970216
6e+07	0.03566631	-0.01245154	-0.0007021717	-0.0005335974	0.01568738	0.02712745	-0.0003162043	-0.000346382
	-0.0007021717	-0.0005335974	0.03355968	-0.009139677	-0.0008280361	-0.0001086629	0.01896263	0.02479104
	0.01568738	0.02712745	-0.0008280361	-0.0001086629	0.0366688	-0.01220065	-0.0005909111	-0.0006060737
	-0.0003162043	-0.000346382	0.01896264	0.02479102	-0.0005909111	-0.0006060736	0.03220915	-0.009355809
7e+07	0.03567913	-0.01685295	-0.0007936326	-0.0005407131	0.02019354	0.02958506	-0.000396422	-0.0003650102
	-0.0007936326	-0.0005407131	0.03296168	-0.0126174	-0.0009200458	-0.0001098604	0.02423879	0.02612315
	0.02019354	0.02958506	-0.0009200458	-0.0001098604	0.03676512	-0.01678516	-0.0006722155	-0.0006263013
	-0.000396422	-0.0003650102	0.02423879	0.02612315	-0.0006722155	-0.0006263013	0.03149547	-0.01261644
8e+07	0.03507159	-0.02120336	-0.0008989877	-0.0005166738	0.02496766	0.03129035	-0.0004806603	-0.000370454
	-0.0008989877	-0.0005166738	0.03174786	-0.01584044	-0.001016903	-0.0001014748	0.02973233	0.02642966
	0.02496766	0.03129035	-0.001016903	-0.0001014748	0.03618767	-0.02133569	-0.0007859546	-0.0006006405
	-0.0004806603	-0.0003704539	0.02973233	0.02642966	-0.0007859546	-0.0006006405	0.03021196	-0.01559748
9e+07	0.03391398	-0.02538674	-0.0009996674	-0.0004702723	0.02988208	0.03222374	-0.0005670455	-0.0003625578
	-0.0009996674	-0.0004702723	0.03005216	-0.01869495	-0.001121581	-8.512901e-05	0.03525862	0.02568457
	0.02988208	0.03222374	-0.001121581	-8.512901e-05	0.03500218	-0.0257265	-0.0009116589	-0.0005304668
	-0.0005670455	-0.0003625578	0.03525862	0.02568458	-0.0009116589	-0.0005304668	0.02849624	-0.01818403
1e+08	0.03233803	-0.02927656	-0.001086188	-0.0003983159	0.03481503	0.03238725	-0.0006534876	-0.0003415116
	-0.001086188	-0.0003983159	0.02803501	-0.02110556	-0.001246408	-6.82026e-05	0.04063369	0.02389219
	0.03481503	0.03238725	-0.001246408	-6.82026e-05	0.03331593	-0.02982955	-0.001019563	-0.0004234818
	-0.0006534876	-0.0003415116	0.04063369	0.02389219	-0.001019563	-0.0004234818	0.0265362	-0.02026826
1.1e+08	0.0304489	-0.033116	-0.001168067	-0.0003094648	0.03962496	0.03177999	-0.0007388699	-0.0003084492
	-0.001168067	-0.0003094648	0.02576964	-0.02316729	-0.001346402	-7.374539e-05	0.04568073	0.02107203
	0.03962496	0.03177999	-0.001346402	-7.374539e-05	0.03125004	-0.03373889	-0.001093669	-0.0003305711
	-0.0007388699	-0.0003084492	0.04568073	0.02107203	-0.001093669	-0.0003305711	0.02454767	-0.02216551
1.2e+08	0.02802027	-0.03664499	-0.001250783	-0.0002148756	0.04418014	0.03047534	-0.0008233311	-0.0002627429
	-0.001250783	-0.0002148756	0.02332312	-0.02471721	-0.001436855	-5.031364e-05	0.05018371	0.01732258
	0.04418014	0.03047534	-0.001436855	-5.031364e-05	0.02868895	-0.03730724	-0.001169227	-0.0002361512
	-0.0008233311	-0.0002627429	0.05018371	0.01732257	-0.001169227	-0.0002361512	0.02227872	-0.0236318
1.3e+08	0.02521761	-0.03974175	-0.001327032	-0.000109781	0.04838307	0.02854278	-0.0009058023	-0.0002048549
	-0.001327032	-0.000109781	0.0208574	-0.02576978	-0.001526971	-7.218468e-06	0.05399967	0.01274218
	0.04838307	0.02854278	-0.001526971	-7.218468e-06	0.02576705	-0.04042671	-0.001238055	-0.0001340231
	-0.0009058023	-0.0002048549	0.05399966	0.01274218	-0.001238055	-0.0001340232	0.01996102	-0.02461649
1.4e+08	0.02216046	-0.0423514	-0.001394371	5.767798e-06	0.05214567	0.02606602	-0.0009834727	-0.0001343732
	-0.001394371	5.767798e-06	0.01848932	-0.02636901	-0.001617106	5.426297e-05	0.05699516	0.007454711
	0.05214567	0.02606602	-0.001617106	5.426297e-05	0.02259787	-0.04304347	-0.001297945	-2.422721e-05
	-0.0009834727	-0.0001343732	0.05699516	0.00745471	-0.001297945	-2.422724e-05	0.01773532	-0.02516321
1.5e+08	0.01896199	-0.04444934	-0.001451226	0.0001310142	0.05539672	0.02314095	-0.001054928	-5.179434e-05
	-0.001451226	0.0001310142	0.01631468	-0.02657699	-0.001706167	0.0001341956	0.05905588	0.001605135
	0.05539672	0.02314095	-0.001706167	0.0001341956	0.0192937	-0.04513347	-0.001347744	9.239943e-05
	-0.001054928	-5.179434e-05	0.05905588	0.001605134	-0.001347744	9.239943e-05	0.01570104	-0.02533892
1.6e+08	0.01572951	-0.04603471	-0.001496447	0.0002648898	0.05808367	0.01987297	-0.001118806	4.219702e-05
	-0.001496447	0.0002648898	0.0144093	-0.02647114	-0.001792252	0.0002328985	0.06009169	-0.004644065
	0.05808367	0.01987297	-0.001792252	0.0002328985	0.01596226	-0.04669657	-0.001386897	0.0002147783
	-0.001118806	4.219702e-05	0.06009169	-0.004644066	-0.001386897	0.0002147783	0.01393157	-0.02522333
1.7e+08	0.01256266	-0.04712712	-0.001529171	0.0004063088	0.06017367	0.01637265	-0.001173822	0.0001468819
	-0.001529171	0.0004063088	0.01282829	-0.02614133	-0.001872953	0.0003505774	0.06003954	-0.01111733
	0.06017367	0.01637265	-0.001872953	0.0003505774	0.01270458	-0.04775342	-0.001415172	0.0003418806
	-0.001173822	0.0001468819	0.06003954	-0.01111733	-0.001415172	0.0003418806	0.01247765	-0.02490546
1.8e+08	0.009551853	-0.04776309	-0.001548743	0.0005541407	0.06165457	0.01275285	-0.001218734	0.0002614404
	-0.001548743	0.0005541407	0.01160375	-0.02568572	-0.001945481	0.0004872946	0.05886561	-0.01763039
	0.06165457	0.01275285	-0.001945481	0.0004872947	0.009611669	-0.04834196	-0.001432667	0.000472787
	-0.001218734	0.0002614404	0.05886561	-0.01763039	-0.001432667	0.000472787	0.01136759	-0.02448088
1.9e+08	0.006775533	-0.04799392	-0.001554603	0.0007073548	0.06253445	0.009125312	-0.001252376	0.0003849881
	-0.001554603	0.0007073548	0.01074429	-0.02520664	-0.002006797	0.0006426011	0.05656682	-0.02399522
	0.06253445	0.009125312	-0.002006797	0.0006426011	0.006763531	-0.04851502	-0.001439487	0.0006068184
	-0.001252376	0.0003849881	0.05656681	-0.02399522	-0.001439487	0.0006068184	0.0106069	-0.02404822
2e+08	0.004300079	-0.04788284	-0.001546173	0.000864425	0.06284047	0.005596298	-0.0012736	0.0005164914
	-0.001546173	0.000864425	0.01023392	-0.02480515	-0.002052134	0.0008240803	0.05317062	-0.03002501
	0.06284047	0.005596298	-0.002052134	0.0008240803	0.004226503	-0.04833684	-0.00143566	0.0007434985
	-0.0012736	0.0005164914	0.05317062	-0.03002501	-0.00143566	0.0007434985	0.01017837	-0.02370485
2.1e+08	0.002176518	-0.04750224	-0.001523155	0.001024914	0.06261876	0.002264166	-0.001281326	0.0006548687
	-0.001523155	0.001024914	0.01003354	-0.02457556	-0.002078599	0.001020935	0.0487346	-0.0355389
	0.06261876	0.002264166	-0.002078599	0.001020935	0.002053485	-0.04788159	-0.001421404	0.0008825941
	-0.001281326	0.0006548687	0.0487346	-0.0355389	-0.001421404	0.0008825941	0.01004164	-0.02354127
2.2e+08	0.0004419083	-0.04693105	-0.001484969	0.001187907	0.06193113	-0.0007840094	-0.001274502	0.0007989107
	-0.001484969	0.001187907	0.01008207	-0.02460143	-0.002083374	0.001230956	0.04334516	-0.04036672
	0.06193113	-0.0007840093	-0.002083374	0.001230956	0.0002814715	-0.04722951	-0.001396589	0.001024036
	-0.001274502	0.0007989107	0.04334516	-0.04036672	-0.001396589	0.001024036	0.01013585	-0.02363713
2.3e+08	-0.0008826657	-0.04625205	-0.001430999	0.001352373	0.06085353	-0.003475069	-0.001252164	0.0009472677
	-0.001430999	0.001352373	0.0102999	-0.02495044	-0.002064024	0.001451304	0.03711555	-0.04435374
	0.06085353	-0.003475069	-0.002064024	0.001451304	-0.001067587	-0.04646486	-0.001360883	0.001167814
	-0.001252164	0.0009472677	0.03711555	-0.04435374	-0.001360883	0.001167814	0.01038209	-0.0240573
2.4e+08	-0.001791704	-0.04554895	-0.001360487	0.001517296	0.05947338	-0.005751637	-0.001213418	0.001098445
	-0.001360487	0.001517295	0.01059234	-0.02567078	-0.002018527	0.001678784	0.03018325	-0.04736423
	0.05947338	-0.005751637	-0.002018527	0.001678784	-0.001987615	-0.04567302	-0.001313632	0.001313924
	-0.001213418	0.001098445	0.03018325	-0.04736423	-0.001313632	0.001313924	0.01068614	-0.02484685
2.5e+08	-0.002294539	-0.04490402	-0.001272711	0.001681383	0.05788609	-0.007574101	-0.001157408	0.001250829
	-0.001272711	0.001681383	0.01085373	-0.02678804	-0.001945343	0.001909841	0.02270656	-0.0492854
	0.05788609	-0.007574101	-0.001945343	0.001909841	-0.002487471	-0.04493774	-0.00125395	0.001462259
	-0.001157408	0.001250829	0.02270656	-0.0492854	-0.00125395	0.001462259	0.01094395	-0.02602918
2.6e+08	-0.002415457	-0.04439493	-0.001166874	0.001843165	0.056192	-0.008921649	-0.001083496	0.001402605
	-0.001166874	0.001843165	0.01097268	-0.02830356	-0.001843557	0.002140719	0.01486091	-0.05003086
	0.056192	-0.008921649	-0.001843557	0.002140719	-0.002591136	-0.04433891	-0.001180635	0.001612508
	-0.001083496	0.001402605	0.01486091	-0.05003086	-0.001180635	0.001612508	0.0110451	-0.02760322
2.7e+08	-0.002191334	-0.04409319	-0.001042234	0.002000929	0.05449294	-0.009792318	-0.0009910716	0.001551846
	-0.001042234	0.002000929	0.010837	-0.03019316	-0.001712922	0.002367493	0.006834656	-0.04954221
	0.05449294	-0.009792318	-0.001712922	0.002367493	-0.002335488	-0.04394968	-0.001092262	0.001764055
	-0.0009910716	0.001551846	0.006834656	-0.04954221	-0.001092262	0.001764055	0.01087902	-0.02954284
2.8e+08	-0.001670979	-0.04406165	-0.0008981612	0.002152685	0.05288894	-0.01020375	-0.000879818	0.001696403
	-0.0008981612	0.002152685	0.01033912	-0.03240653	-0.00155367	0.002586345	-0.001175748	-0.0477917
	0.05288894	-0.01020375	-0.00155367	0.002586345	-0.001769451	-0.04383473	-0.0009872928	0.001915883
	-0.000879818	0.001696403	-0.001175748	-0.0477917	-0.0009872929	0.001915883	0.0103402	-0.03179623
2.9e+08	-0.0009133586	-0.04435234	-0.0007342445	0.002296123	0.05147443	-0.01019173	-0.0007496108	0.001834023
	-0.0007342445	0.002296123	0.009381683	-0.03486916	-0.001366653	0.002793568	-0.008970525	-0.04478322
	0.05147443	-0.01019173	-0.001366653	0.002793568	-0.0009522472	-0.04404849	-0.000864057	0.002066541
	-0.0007496108	0.001834023	-0.008970526	-0.04478322	-0.000864057	0.002066541	0.009332768	-0.03428717
3e+08	1.553961e-05	-0.04500579	-0.0005503144	0.002428685	0.05033523	-0.00980961	-0.0006005907	0.001962338
	-0.0005503144	0.002428685	0.007882519	-0.03748383	-0.001153269	0.002985667	-0.01635146	-0.04055198
	0.05033523	-0.00980961	-0.001153269	0.002985667	4.934012e-05	-0.04463337	-0.0007209925	0.002214037
	-0.0006005907	0.001962338	-0.01635146	-0.04055198	-0.0007209925	0.002214037	0.007776642	-0.03691743
3.1e+08	0.001044193	-0.04604948	-0.0003465832	0.00254761	0.0495459	-0.009125561	-0.0004331412	0.002078873
	-0.0003465832	0.00254761	0.00577938	-0.04013409	-0.0009152404	0.003159455	-0.02312739	-0.03516472
	0.0495459	-0.009125561	-0.0009152404	0.003159455	0.001162484	-0.04561908	-0.0005568072	0.002355874
	-0.0004331412	0.002078873	-0.02312739	-0.03516472	-0.0005568072	0.002355874	0.00561144	-0.03956914
3.2e+08	0.002098122	-0.04749772	-0.0001236587	0.002649932	0.04916658	-0.008221361	-0.0002481046	0.002181091
	-0.0001236587	0.002649932	0.003033691	-0.04268772	-0.0006548058	0.003312097	-0.02911893	-0.02871802
	0.04916658	-0.008221361	-0.0006548058	0.003312097	0.002311391	-0.04702168	-0.0003704446	0.002489044
	-0.0002481046	0.002181091	-0.02911893	-0.02871802	-0.0003704446	0.002489044	0.002801746	-0.04210968
3.3e+08	0.003102576	-0.04935119	0.0001173453	0.00273261	0.04924078	-0.007188749	-4.658275e-05	0.002266466
	0.0001173453	0.00273261	-0.0003656383	-0.0450022	-0.0003742274	0.003441146	-0.03416279	-0.02133599
	0.04924078	-0.007188749	-0.0003742274	0.003441146	0.003419718	-0.04884363	-0.0001613388	0.002610106
	-4.658275e-05	0.002266466	-0.03416279	-0.02133599	-0.0001613388	0.002610106	-0.0006614044	-0.04439576
3.4e+08	0.003984923	-0.05159752	0.0003747575	0.002792615	0.04979455	-0.006126457	0.0001699226	0.002332556
	0.0003747575	0.002792615	-0.004399954	-0.04692962	-7.61517e-05	0.003544508	-0.03811694	-0.01316762
	0.04979455	-0.006126457	-7.61517e-05	0.003544508	0.004412465	-0.05107392	7.04857e-05	0.002715269
	0.0001699226	0.002332556	-0.03811694	-0.01316762	7.04857e-05	0.002715269	-0.004756546	-0.04628003
3.5e+08	0.004676672	-0.05421196	0.0006463285	0.002827021	0.05083452	-0.0051374	0.0003994871	0.002376993
	0.0006463285	0.002827021	-0.009019903	-0.04832326	0.000236777	0.003620486	-0.04086332	-0.004383017
	0.05083452	-0.0051374	0.000236777	0.003620486	0.005218975	-0.05368943	0.0003242414	0.002800478
	0.0003994871	0.002376993	-0.04086332	-0.004383017	0.0003242414	0.002800478	-0.009431905	-0.04761559
3.6e+08	0.005115799	-0.05715911	0.000929296	0.002833183	0.05234789	-0.004324214	0.0006398217	0.002397651
	0.000929296	0.002833183	-0.01414543	-0.04904313	0.0005619898	0.003667602	-0.04231175	0.004830582
	0.05234789	-0.004324214	0.0005619898	0.003667602	0.005774632	-0.05665484	0.0005984049	0.002861623
	0.0006398217	0.002397651	-0.04231175	0.004830582	0.0005984049	0.002861623	-0.01460437	-0.04826376
3.7e+08	0.005248408	-0.06039354	0.001220411	0.002808741	0.05430282	-0.003786161	0.0008883681	0.00239261
	0.001220411	0.002808741	-0.01966673	-0.04896309	0.000896835	0.003684663	-0.04240203	0.01427386
	0.05430282	-0.003786161	0.000896835	0.003684663	0.006022729	-0.05992556	0.0008907212	0.002894616
	0.0008883681	0.00239261	-0.04240203	0.01427386	0.0008907212	0.002894616	-0.02016169	-0.04809973
3.8e+08	0.005030231	-0.06386212	0.001515888	0.002751862	0.05664904	-0.003615854	0.001142102	0.002360318
	0.001515888	0.002751862	-0.02544711	-0.04797578	0.001238597	0.003670688	-0.04110495	0.02373996
	0.05664904	-0.003615854	0.001238597	0.003670688	0.005916324	-0.06344862	0.001197978	0.002895654
	0.001142102	0.002360318	-0.04110495	0.02373996	0.001197978	0.002895654	-0.02596481	-0.04701763
3.9e+08	0.004427108	-0.06750657	0.001811611	0.002661251	0.05931966	-0.00389569	0.001397818	0.00229956
	0.001811611	0.002661251	-0.03132547	-0.04599836	0.001584653	0.003624831	-0.03842409	0.03301947
	0.05931966	-0.00389569	0.001584653	0.003624831	0.00541829	-0.06716431	0.00151625	0.002861358
	0.001397818	0.00229956	-0.03842409	0.03301947	0.00151625	0.002861358	-0.03185063	-0.04493781
4e+08	0.003416307	-0.07126433	0.002103187	0.002536248	0.06223305	-0.00469513	0.001652035	0.002209571
	0.002103187	0.002536248	-0.03712244	-0.04297782	0.001932386	0.003546268	-0.03439443	0.04190607
	0.06223305	-0.00469513	0.001932386	0.003546268	0.004503407	-0.0710098	0.001840932	0.002788879
	0.001652035	0.002209571	-0.03439443	0.04190607	0.001840932	0.002788879	-0.03763846	-0.04180918
4.1e+08	0.001986533	-0.07507153	0.002385399	0.002376658	0.06529589	-0.006067643	0.001901168	0.002090031
	0.002385399	0.002376658	-0.04264582	-0.03889459	0.002295878	0.003425277	-0.02908206	0.0502006
	0.06529589	-0.006067643	0.002295878	0.003425277	0.003157704	-0.07491966	0.002166473	0.00267689
	0.001901168	0.002090031	-0.02908206	0.0502006	0.002166473	0.00267689	-0.04313464	-0.03761505
4.2e+08	0.0001372446	-0.07886494	0.002654021	0.002183481	0.0684054	-0.008050311	0.002141469	0.00194122
	0.002654021	0.002183481	-0.04769516	-0.03376459	0.002661105	0.003262528	-0.0225827	0.05771659
	0.0684054	-0.008050311	0.002661105	0.003262528	0.00137851	-0.07882855	0.002487535	0.002523757
	0.002141469	0.00194122	-0.0225827	0.05771659	0.002487535	0.002523757	-0.04813801	-0.03237474
4.3e+08	-0.002121127	-0.08258365	0.002904968	0.001958263	0.07145352	-0.01066049	0.002369275	0.001763795
	0.002904968	0.001958263	-0.05207088	-0.02764129	0.003015935	0.003061773	-0.01501846	0.06428399
	0.07145352	-0.01066049	0.003015935	0.003061773	-0.0008263066	-0.08267338	0.002798286	0.002328826
	0.002369275	0.001763795	-0.01501846	0.06428399	0.002798286	0.002328826	-0.05244901	-0.02614487
4.4e+08	-0.004768805	-0.086171	0.003134042	0.001703119	0.07432958	-0.01389679	0.002580945	0.001559072
	0.003134042	0.001703119	-0.05558013	-0.02061538	0.003356721	0.002823121	-0.006535579	0.06975279
	0.07432958	-0.01389679	0.003356721	0.002823121	-0.003437971	-0.08639477	0.003092515	0.002092944
	0.002580945	0.001559072	-0.006535579	0.06975279	0.003092515	0.002092944	-0.05587479	-0.01901966
4.5e+08	-0.007777397	-0.08957616	0.003337452	0.001420779	0.07692452	-0.01773818	0.002773038	0.001328863
	0.003337452	0.001420779	-0.05804284	-0.01281459	0.003679616	0.002546981	0.002699199	0.07399664
	0.07692452	-0.01773818	0.003679616	0.002546981	-0.006429375	-0.08993899	0.003364235	0.00181791
	0.002773038	0.001328863	0.002699199	0.07399664	0.003364235	0.00181791	-0.0582364	-0.01113005
4.6e+08	-0.01111146	-0.09275545	0.003511798	0.001114579	0.07913375	-0.02214505	0.002942397	0.001075359
	0.003511798	0.001114579	-0.05929943	-0.004400414	0.003980451	0.002234321	0.01250267	0.07691512
	0.07913375	-0.02214505	0.003980451	0.002234321	-0.009765726	-0.09325926	0.003607759	0.001506369
	0.002942397	0.001075359	0.01250267	0.07691512	0.003607759	0.001506369	-0.05937628	-0.00264031
4.7e+08	-0.01472984	-0.09567251	0.003654313	0.0007881504	0.08086072	-0.02705972	0.003086161	0.0008012711
	0.003654313	0.0007881504	-0.05921844	0.004435256	0.004254983	0.001886446	0.02267935	0.078436
	0.08086072	-0.02705972	0.004254983	0.001886446	-0.01340582	-0.09631637	0.003817831	0.001162184
	0.003086161	0.0008012711	0.02267935	0.078436	0.003817831	0.001162184	-0.05916394	0.006254437
4.8e+08	-0.01858721	-0.09830034	0.003762812	0.0004455287	0.08201962	-0.03240902	0.003201882	0.0005095669
	0.003762812	0.0004455287	-0.05769842	0.0134752	0.004498961	0.001505053	0.03302524	0.07851606
	0.08201962	-0.03240902	0.004498961	0.001505053	-0.01730398	-0.0990799	0.003989884	0.0007898082
	0.003201882	0.0005095669	0.03302524	0.07851606	0.003989884	0.0007898082	-0.05750159	0.01533419
4.9e+08	-0.02263632	-0.1006203	0.003835716	9.102186e-05	0.08253784	-0.03810595	0.003287556	0.0002035501
