!$
! Info: Touchstone file created by Circ.  Input file=Intel_C2M_200G_10p5in_202208016_staggered.circ
!$
# Hz S RI R 50
0	0.02984886	5.17584e-24	0.0001005497	1.529531e-22	0.0001427593	3.434445e-22	0.0001004857	1.527106e-22
	0.0001005497	1.529531e-22	0.02986168	5.336324e-24	0.0001005336	1.528493e-22	0.0001423827	3.407171e-22
	0.0001428156	3.435685e-22	0.0001005336	1.52851e-22	0.02984382	4.923089e-24	0.0001004992	1.526109e-22
	0.0001004857	1.527124e-22	0.000142439	3.408415e-22	0.0001004992	1.526109e-22	0.02985967	5.046696e-24
1e+07	0.03735749	0.003773431	9.078267e-05	-1.400213e-06	0.002295242	0.007744574	4.062155e-06	1.488933e-05
	9.078267e-05	-1.400213e-06	0.03631172	0.004154055	9.827635e-05	2.975443e-05	0.002737044	0.007907832
	0.002295242	0.007744574	9.827635e-05	2.975443e-05	0.03763374	0.003346818	3.887091e-05	1.226449e-05
	4.062155e-06	1.488933e-05	0.002737044	0.007907832	3.887091e-05	1.226449e-05	0.03641055	0.003366441
2e+07	0.04362279	0.0006737857	6.658403e-05	3.966015e-05	0.006052428	0.01408783	4.257291e-05	4.081348e-05
	6.658403e-05	3.966015e-05	0.04323319	0.001610697	8.680235e-05	-8.769834e-06	0.006537194	0.01419502
	0.006052435	0.01408782	8.680235e-05	-8.769834e-06	0.04333229	-3.628179e-05	2.474667e-05	2.164929e-05
	4.257291e-05	4.081348e-05	0.0065372	0.01419501	2.474667e-05	2.164929e-05	0.04241231	0.0004145629
3e+07	0.04703956	-0.005534334	5.570498e-05	5.429852e-05	0.0115389	0.0190393	7.093648e-05	3.743487e-05
	5.570498e-05	5.429852e-05	0.04714571	-0.004534528	8.059035e-05	-1.798314e-05	0.01204775	0.019114
	0.01153888	0.01903934	8.059035e-05	-1.798313e-05	0.04633841	-0.006163061	1.761044e-05	3.169655e-05
	7.093649e-05	3.743487e-05	0.01204774	0.01911405	1.761044e-05	3.169655e-05	0.04565778	-0.005595192
4e+07	0.0478888	-0.01272698	4.732211e-05	5.983718e-05	0.01829042	0.0220257	9.197293e-05	2.448893e-05
	4.732211e-05	5.983719e-05	0.04838674	-0.01182388	7.816821e-05	-1.865892e-05	0.01880237	0.02206328
	0.01829043	0.02202572	7.816821e-05	-1.865893e-05	0.04689783	-0.01315433	2.863382e-05	2.956634e-05
	9.197293e-05	2.448893e-05	0.01880238	0.0220633	2.863382e-05	2.956634e-05	0.04641864	-0.0125589
5e+07	0.04655608	-0.01989934	5.729474e-05	5.048702e-05	0.02567297	0.02280925	0.0001059883	5.915409e-06
	5.729474e-05	5.048702e-05	0.04735586	-0.01918675	7.629964e-05	-2.582761e-05	0.02616556	0.02280793
	0.02567297	0.02280925	7.629964e-05	-2.582761e-05	0.04537806	-0.02006241	3.980848e-05	2.05819e-05
	0.0001059883	5.915408e-06	0.02616557	0.02280793	3.980848e-05	2.05819e-05	0.04506766	-0.01949066
6e+07	0.04340986	-0.02643182	7.167954e-05	3.052938e-05	0.0330226	0.02129794	0.0001129068	-1.5786e-05
	7.167954e-05	3.052938e-05	0.04442642	-0.02597106	7.139651e-05	-3.365885e-05	0.03347291	0.02126137
	0.0330226	0.02129792	7.13965e-05	-3.365885e-05	0.04213917	-0.02630148	4.659308e-05	9.215853e-06
	0.0001129068	-1.5786e-05	0.03347292	0.02126135	4.659309e-05	9.215852e-06	0.04196674	-0.02578755
7e+07	0.0388715	-0.03187916	7.837322e-05	8.68218e-06	0.03967182	0.01759188	0.0001132909	-3.8552e-05
	7.837322e-05	8.68218e-06	0.04002108	-0.03171025	6.396951e-05	-4.061777e-05	0.04005789	0.01752977
	0.03967182	0.01759187	6.396951e-05	-4.061777e-05	0.0375943	-0.03145094	4.91839e-05	-3.079137e-06
	0.0001132909	-3.8552e-05	0.04005788	0.01752977	4.91839e-05	-3.079138e-06	0.03752989	-0.0310187
8e+07	0.03341857	-0.03597096	7.79432e-05	-1.310179e-05	0.04500884	0.01197491	0.0001074663	-6.08877e-05
	7.79432e-05	-1.310179e-05	0.0346165	-0.03611802	5.45841e-05	-4.570049e-05	0.04531091	0.01190298
	0.04500884	0.01197492	5.45841e-05	-4.570049e-05	0.03221321	-0.03525857	4.785613e-05	-1.523054e-05
	0.0001074663	-6.08877e-05	0.04531091	0.01190298	4.785613e-05	-1.523054e-05	0.03222682	-0.03492502
9e+07	0.02753901	-0.03860867	7.087595e-05	-3.339714e-05	0.04852593	0.004890382	9.567745e-05	-8.170276e-05
	7.087595e-05	-3.339714e-05	0.02869508	-0.03908404	4.404751e-05	-4.816151e-05	0.04872822	0.004829846
	0.04852594	0.004890383	4.404751e-05	-4.816151e-05	0.0264782	-0.03763798	4.289493e-05	-2.643651e-05
	9.567745e-05	-8.170276e-05	0.04872823	0.004829847	4.289493e-05	-2.643651e-05	0.0265384	-0.03741552
1e+08	0.02172717	-0.03983162	5.549596e-05	-5.193589e-05	0.04986047	-0.003096677	7.619011e-05	-0.0001009163
	5.549596e-05	-5.193589e-05	0.02271329	-0.04065418	3.333278e-05	-4.703687e-05	0.04995016	-0.003120255
	0.04986047	-0.003096678	3.333278e-05	-4.703687e-05	0.02090791	-0.03862577	3.355607e-05	-3.637041e-05
	7.619011e-05	-0.0001009163	0.04995016	-0.003120255	3.355607e-05	-3.637041e-05	0.02097175	-0.03852942
1.1e+08	0.0162338	-0.04005638	3.614687e-05	-5.594233e-05	0.04878805	-0.01135738	5.157047e-05	-0.000105886
	3.614687e-05	-5.594233e-05	0.01691287	-0.04102214	2.599765e-05	-4.371065e-05	0.04876911	-0.01130282
	0.04878805	-0.01135738	2.599765e-05	-4.371065e-05	0.01570213	-0.03888037	2.206368e-05	-3.83151e-05
	5.157047e-05	-0.000105886	0.0487691	-0.01130282	2.206368e-05	-3.83151e-05	0.01571699	-0.03885418
1.2e+08	0.01120574	-0.03924964	2.220879e-05	-5.61223e-05	0.04531578	-0.01913182	3.522512e-05	-0.0001050844
	2.220879e-05	-5.61223e-05	0.01163863	-0.04027105	1.989687e-05	-4.073878e-05	0.04520459	-0.01897801
	0.04531578	-0.01913182	1.989687e-05	-4.073878e-05	0.01084323	-0.03810928	1.338193e-05	-3.819875e-05
	3.522512e-05	-0.0001050844	0.04520459	-0.01897801	1.338193e-05	-3.819875e-05	0.01082242	-0.0381291
1.3e+08	0.006898662	-0.03767465	1.021118e-05	-5.510541e-05	0.03965317	-0.02577432	2.788951e-05	-0.0001008132
	1.021118e-05	-5.510541e-05	0.007112793	-0.03870208	1.462697e-05	-3.773947e-05	0.03946537	-0.02550294
	0.03965316	-0.02577432	1.462697e-05	-3.773947e-05	0.006670218	-0.0365737	5.636108e-06	-3.710482e-05
	2.788952e-05	-0.0001008132	0.03946537	-0.02550294	5.636108e-06	-3.710482e-05	0.006616755	-0.03662789
1.4e+08	0.003407349	-0.03562319	-4.236637e-07	-5.298205e-05	0.03217278	-0.03070675	1.996221e-05	-9.667801e-05
	-4.236638e-07	-5.298205e-05	0.003426835	-0.03661839	9.963307e-06	-3.475321e-05	0.03192697	-0.03030235
	0.03217278	-0.03070675	9.963307e-06	-3.475321e-05	0.003285517	-0.03457644	-1.063962e-06	-3.49521e-05
	1.996221e-05	-9.667801e-05	0.03192697	-0.03030234	-1.063962e-06	-3.49521e-05	0.00320087	-0.03465651
1.5e+08	0.0007239732	-0.03337292	-9.809195e-06	-4.934667e-05	0.02339162	-0.03346602	1.150165e-05	-9.22769e-05
	-9.809195e-06	-4.934667e-05	0.000573351	-0.03430514	5.534569e-06	-3.179177e-05	0.02310959	-0.03291699
	0.02339162	-0.03346602	5.534569e-06	-3.179177e-05	0.0006767215	-0.03239136	-4.654262e-06	-3.200875e-05
	1.150165e-05	-9.22769e-05	0.02310959	-0.03291699	-4.654262e-06	-3.200875e-05	0.0005618546	-0.0324904
1.6e+08	-0.001243181	-0.0311609	-1.800606e-05	-4.446586e-05	0.01393737	-0.03374076	2.834879e-06	-8.721255e-05
	-1.800606e-05	-4.446586e-05	-0.001538162	-0.0320056	1.333942e-06	-2.871634e-05	0.01364372	-0.03304038
	0.01393737	-0.03374076	1.333942e-06	-2.871634e-05	-0.001249782	-0.03024562	-7.447322e-06	-2.887829e-05
	2.834879e-06	-8.721255e-05	0.01364372	-0.03304037	-7.447322e-06	-2.887829e-05	-0.001394166	-0.03035753
1.7e+08	-0.002649022	-0.02916312	-2.345214e-05	-3.885343e-05	0.0045054	-0.03139675	-5.911761e-06	-8.11736e-05
	-2.345214e-05	-3.885343e-05	-0.003061379	-0.02990145	-3.202747e-06	-2.547414e-05	0.004226496	-0.03054411
	0.0045054	-0.03139675	-3.202747e-06	-2.547414e-05	-0.002645388	-0.02830401	-1.027267e-05	-2.557404e-05
	-5.911761e-06	-8.11736e-05	0.004226496	-0.03054411	-1.027267e-05	-2.557404e-05	-0.002818618	-0.02842295
1.8e+08	-0.003685934	-0.02747937	-2.693586e-05	-3.290836e-05	-0.00419002	-0.02649046	-1.440027e-05	-7.391039e-05
	-2.693586e-05	-3.290836e-05	-0.004187796	-0.0280979	-7.867274e-06	-2.157584e-05	-0.004427347	-0.02549122
	-0.00419002	-0.02649046	-7.867274e-06	-2.157584e-05	-0.003694988	-0.02665754	-1.309535e-05	-2.193476e-05
	-1.440027e-05	-7.391039e-05	-0.004427347	-0.02549122	-1.309535e-05	-2.193476e-05	-0.003896198	-0.02677757
1.9e+08	-0.004555859	-0.02612767	-3.004412e-05	-2.634336e-05	-0.01146696	-0.0192696	-2.214506e-05	-6.540241e-05
	-3.004412e-05	-2.634336e-05	-0.005118918	-0.0266182	-1.208474e-05	-1.68998e-05	-0.01163718	-0.01813636
	-0.01146696	-0.0192696	-1.208474e-05	-1.68998e-05	-0.004590539	-0.02531899	-1.563576e-05	-1.784197e-05
	-2.214506e-05	-6.540241e-05	-0.01163718	-0.01813636	-1.563576e-05	-1.784197e-05	-0.004818251	-0.02543374
2e+08	-0.005440627	-0.02504692	-3.254512e-05	-1.912352e-05	-0.01672617	-0.01015922	-2.880737e-05	-5.568233e-05
	-3.254512e-05	-1.912352e-05	-0.006036662	-0.0254064	-1.568052e-05	-1.147788e-05	-0.01680688	-0.00891134
	-0.01672617	-0.01015922	-1.568052e-05	-1.147788e-05	-0.005503969	-0.0242265	-1.775822e-05	-1.329678e-05
	-2.880737e-05	-5.568233e-05	-0.01680688	-0.00891134	-1.775822e-05	-1.329678e-05	-0.005755564	-0.02432919
2.1e+08	-0.006475365	-0.02411079	-3.419123e-05	-1.127255e-05	-0.01949608	0.0002646514	-3.404947e-05	-4.487611e-05
	-3.419123e-05	-1.127255e-05	-0.007076865	-0.02434114	-1.847627e-05	-5.379679e-06	-0.01947002	0.001601767
	-0.01949608	0.0002646517	-1.847627e-05	-5.379679e-06	-0.006560844	-0.02325552	-1.932649e-05	-8.333739e-06
	-3.404947e-05	-4.487611e-05	-0.01947002	0.001601767	-1.932649e-05	-8.333739e-06	-0.006832027	-0.02333917
2.2e+08	-0.007728297	-0.02314787	-3.473403e-05	-2.896329e-06	-0.0194702	0.01131324	-3.755857e-05	-3.32053e-05
	-3.473403e-05	-2.896329e-06	-0.008309037	-0.02325586	-2.030017e-05	1.275566e-06	-0.01932694	0.01270947
	-0.0194702	0.01131325	-2.030017e-05	1.275566e-06	-0.007821675	-0.02224002	-2.020867e-05	-3.021511e-06
	-3.755857e-05	-3.32053e-05	-0.01932694	0.01270947	-2.020867e-05	-3.021511e-06	-0.008105957	-0.02229795
2.3e+08	-0.009187993	-0.02196983	-3.394637e-05	5.822879e-06	-0.01653302	0.02223228	-3.907058e-05	-2.09779e-05
	-3.394637e-05	5.822879e-06	-0.009723715	-0.02196697	-2.099872e-05	8.327029e-06	-0.01627034	0.02365465
	-0.01653302	0.02223228	-2.099872e-05	8.327029e-06	-0.009270184	-0.02099835	-2.028286e-05	2.536257e-06
	-3.907058e-05	-2.09779e-05	-0.01627034	0.02365465	-2.028286e-05	2.536257e-06	-0.009558684	-0.02102504
2.4e+08	-0.0107612	-0.02040157	-3.164198e-05	1.463176e-05	-0.01077199	0.03225454	-3.839202e-05	-8.579036e-06
	-3.164198e-05	1.463176e-05	-0.01123042	-0.02030381	-2.044686e-05	1.557073e-05	-0.01039667	0.03366957
	-0.01077199	0.03225454	-2.044686e-05	1.557073e-05	-0.01080997	-0.01936296	-1.944486e-05	8.203236e-06
	-3.839202e-05	-8.579036e-06	-0.01039667	0.03366957	-1.944486e-05	8.203236e-06	-0.01109142	-0.019355
2.5e+08	-0.0122808	-0.01831081	-2.769386e-05	2.321705e-05	-0.002475085	0.0406546	-3.541796e-05	3.550891e-06
	-2.769386e-05	2.321705e-05	-0.01266561	-0.01813826	-1.855681e-05	2.27683e-05	-0.002003071	0.04203073
	-0.002475085	0.0406546	-1.855681e-05	2.27683e-05	-0.01227418	-0.01720951	-1.761507e-05	1.380984e-05
	-3.541796e-05	3.550891e-06	-0.002003071	0.04203073	-1.761507e-05	1.380984e-05	-0.01253545	-0.01716659
2.6e+08	-0.01352461	-0.01563369	-2.204806e-05	3.121993e-05	0.0078859	0.04680093	-3.014414e-05	1.493695e-05
	-2.204806e-05	3.121993e-05	-0.01381155	-0.01540998	-1.528703e-05	2.96516e-05	0.008430131	0.04811111
	0.0078859	0.04680093	-1.528703e-05	2.96516e-05	-0.01344231	-0.01448142	-1.474656e-05	1.915891e-05
	-3.014414e-05	1.493695e-05	0.008430131	0.04811111	-1.474656e-05	1.915891e-05	-0.01366922	-0.01440724
2.7e+08	-0.01424115	-0.01239289	-1.47341e-05	3.825406e-05	0.01968631	0.05020061	-2.267299e-05	2.509394e-05
	-1.47341e-05	3.825406e-05	-0.01442208	-0.01214441	-1.064879e-05	3.59313e-05	0.02027103	0.05142453
	0.01968631	0.05020061	-1.064879e-05	3.59313e-05	-0.01406701	-0.01120779	-1.083259e-05	2.403043e-05
	-2.267299e-05	2.509394e-05	0.02027103	0.05142453	-1.083259e-05	2.403043e-05	-0.01424566	-0.01111062
2.8e+08	-0.01418103	-0.008706911	-5.873594e-06	4.392136e-05	0.03218942	0.05053569	-1.321636e-05	3.354797e-05
	-5.873594e-06	4.392136e-05	-0.0142538	-0.008461617	-4.71342e-06	4.130591e-05	0.03277759	0.05166166
	0.03218942	0.05053569	-4.71342e-06	4.130591e-05	-0.0139049	-0.0075119	-5.916421e-06	2.81876e-05
	-1.321636e-05	3.354797e-05	0.03277759	0.05166166	-5.916421e-06	2.81876e-05	-0.01402306	-0.007404763
2.9e+08	-0.01313053	-0.004787087	4.317127e-06	4.783309e-05	0.04459538	0.04768619	-2.093445e-06	3.986024e-05
	4.317127e-06	4.783309e-05	-0.01309946	-0.004573315	2.379124e-06	4.547198e-05	0.04514699	0.04871245
	0.04459538	0.04768619	2.379124e-06	4.547198e-05	-0.01274865	-0.003608289	-9.646308e-08	3.138901e-05
	-2.093445e-06	3.986024e-05	0.04514699	0.04871245	-9.646308e-08	3.138901e-05	-0.01279738	-0.003508645
3e+08	-0.0109427	-0.00092508	1.55266e-05	4.962923e-05	0.05609393	0.04173955	1.027624e-05	4.364852e-05
	1.55266e-05	4.962923e-05	-0.01081867	-0.0007700158	1.041569e-05	4.81403e-05	0.05656857	0.04267491
	0.05609393	0.04173955	1.041569e-05	4.81403e-05	-0.01045873	0.0002103871	6.468151e-06	3.34008e-05
	1.027624e-05	4.364852e-05	0.05656857	0.04267491	6.468151e-06	3.34008e-05	-0.01043384	0.0002814505
3.1e+08	-0.007563463	0.00253021	2.734253e-05	4.899921e-05	0.06591763	0.03298724	2.337978e-05	4.460907e-05
	2.734253e-05	4.899921e-05	-0.007363794	0.002602003	1.911133e-05	4.905201e-05	0.06627726	0.03385104
	0.06591763	0.03298724	1.911133e-05	4.905201e-05	-0.006988306	0.003595628	1.355474e-05	3.401209e-05
	2.337978e-05	4.460907e-05	0.06627726	0.03385104	1.355474e-05	3.401209e-05	-0.006891614	0.003614683
3.2e+08	-0.003049665	0.005202362	3.926436e-05	4.570606e-05	0.07339169	0.02190731	3.662256e-05	4.253798e-05
	3.926436e-05	4.570606e-05	-0.002797524	0.005170411	2.810427e-05	4.799923e-05	0.07360327	0.0227288
	0.07339169	0.02190731	2.810427e-05	4.799923e-05	-0.002402146	0.006174089	2.088194e-05	3.305086e-05
	3.662256e-05	4.253798e-05	0.07360327	0.0227288	2.088194e-05	3.305086e-05	-0.002242412	0.006117029
3.3e+08	0.002422057	0.006723275	5.070567e-05	3.961317e-05	0.07797746	0.009135759	4.934698e-05	3.735266e-05
	5.070567e-05	3.961317e-05	0.002698465	0.006572538	3.697067e-05	4.48441e-05	0.07801535	0.009952759
	0.07797746	0.009135759	3.697067e-05	4.48441e-05	0.003117013	0.007581965	2.811171e-05	3.040213e-05
	4.934698e-05	3.735266e-05	0.07801535	0.009952759	2.811171e-05	3.040213e-05	0.003323602	0.007425974
3.4e+08	0.008557482	0.006769803	6.101421e-05	3.071105e-05	0.07930849	-0.004571713	6.085128e-05	2.911479e-05
	6.101421e-05	3.071105e-05	0.008826128	0.006491879	4.523207e-05	3.953978e-05	0.07915668	-0.003714672
	0.07930849	-0.004571713	4.523207e-05	3.953978e-05	0.009269808	0.007502856	3.48639e-05	2.60224e-05
	6.085128e-05	2.911479e-05	0.07915668	-0.003714672	3.48639e-05	2.60224e-05	0.009499695	0.007228564
3.5e+08	0.01495865	0.005100081	6.949622e-05	1.914811e-05	0.07721477	-0.01838518	7.042532e-05	1.804271e-05
	6.949622e-05	1.914811e-05	0.01518499	0.004694183	5.237611e-05	3.215067e-05	0.07686844	-0.01743918
	0.07721477	-0.01838518	5.237611e-05	3.215067e-05	0.01565477	0.00570183	4.072927e-05	1.995567e-05
	7.042532e-05	1.804271e-05	0.07686844	-0.01743918	4.072927e-05	1.995567e-05	0.01587765	0.005295583
3.6e+08	0.02114731	0.001584615	7.545573e-05	5.244863e-06	0.0717368	-0.03145087	7.738078e-05	4.530711e-06
	7.545573e-05	5.244863e-06	0.02129593	0.001058302	5.788408e-05	2.286046e-05	0.0712036	-0.03036545
	0.0717368	-0.03145087	5.788408e-05	2.286046e-05	0.02179187	0.002058309	4.528949e-05	1.234512e-05
	7.738078e-05	4.530711e-06	0.0712036	-0.03036545	4.528949e-05	1.234512e-05	0.02197201	0.001514339
3.7e+08	0.02659789	-0.003768476	7.824102e-05	-1.048003e-05	0.06312615	-0.0429441	8.109957e-05	-1.085047e-05
	7.824102e-05	-1.048003e-05	0.02663433	-0.004398716	6.125684e-05	1.19903e-05	0.06242665	-0.04167031
	0.06312615	-0.0429441	6.125684e-05	1.19903e-05	0.0271562	-0.003410823	4.814199e-05	3.435676e-06
	8.109957e-05	-1.085047e-05	0.06242665	-0.04167031	4.814199e-05	3.435676e-06	0.02725432	-0.004088418
3.8e+08	0.03077715	-0.01079927	7.729858e-05	-2.732342e-05	0.05183355	-0.0521199	8.108223e-05	-2.736173e-05
	7.729858e-05	-2.732342e-05	0.03067008	-0.01150789	6.205229e-05	-1.037236e-08	0.05100096	-0.05061362
	0.05183355	-0.0521199	6.205229e-05	-1.037236e-08	0.03121709	-0.01053725	4.892476e-05	-6.415891e-06
	8.108223e-05	-2.736173e-05	0.05100096	-0.05061362	4.892476e-05	-6.415891e-06	0.03119309	-0.01133295
3.9e+08	0.03318775	-0.01919153	7.223507e-05	-4.440472e-05	0.03848547	-0.05836148	7.699542e-05	-4.412225e-05
	7.223507e-05	-4.440472e-05	0.0329112	-0.01994421	5.991888e-05	-1.256561e-05	0.03756454	-0.05658679
	0.03848547	-0.05836148	5.991888e-05	-1.256561e-05	0.03348275	-0.01899613	4.734443e-05	-1.675571e-05
	7.699542e-05	-4.412225e-05	0.03756454	-0.05658679	4.734443e-05	-1.675571e-05	0.03329902	-0.01988217
4e+08	0.03341524	-0.02848206	6.287374e-05	-6.07059e-05	0.0238475	-0.06122076	6.872208e-05	-6.013847e-05
	6.287374e-05	-6.07059e-05	0.03295124	-0.02923655	5.463269e-05	-2.498905e-05	0.0228925	-0.05915289
	0.0238475	-0.06122076	5.463269e-05	-2.498905e-05	0.03354547	-0.02831838	4.32083e-05	-2.70338e-05
	6.872208e-05	-6.013847e-05	0.0228925	-0.05915289	4.32083e-05	-2.70338e-05	0.03317058	-0.02925478
4.1e+08	0.03117114	-0.03808345	4.929877e-05	-7.513212e-05	0.008780063	-0.06044948	5.639034e-05	-7.437138e-05
	4.929877e-05	-7.513212e-05	0.03051219	-0.03879111	4.613235e-05	-3.651875e-05	0.007851894	-0.05807747
	0.008780063	-0.06044948	4.613235e-05	-3.651875e-05	0.03112505	-0.03791151	3.644766e-05	-3.66353e-05
	5.639034e-05	-7.437138e-05	0.007851894	-0.05807747	3.644766e-05	-3.66353e-05	0.03053781	-0.03884747
4.2e+08	0.02632872	-0.0473183	3.189138e-05	-8.658154e-05	-0.005814339	-0.05601915	4.040377e-05	-8.579358e-05
	3.189138e-05	-8.658154e-05	0.02548004	-0.04792691	3.454051e-05	-4.634633e-05	-0.006651734	-0.05334762
	-0.005814339	-0.05601915	3.454051e-05	-4.634633e-05	0.02610473	-0.04709516	2.714649e-05	-4.490027e-05
	4.040377e-05	-8.579358e-05	-0.006651734	-0.05334762	2.714649e-05	-4.490027e-05	0.02529787	-0.04797159
4.3e+08	0.01895144	-0.05546706	1.133379e-05	-9.403368e-05	-0.01904732	-0.04812556	2.143407e-05	-9.34705e-05
	1.133379e-05	-9.403368e-05	0.01793267	-0.055924	2.018928e-05	-5.36605e-05	-0.01973105	-0.04517555
	-0.01904732	-0.04812556	2.018928e-05	-5.36605e-05	0.01855853	-0.05514943	1.555868e-05	-5.116701e-05
	2.143407e-05	-9.34705e-05	-0.01973105	-0.04517555	1.555868e-05	-5.116701e-05	0.01754187	-0.05590299
4.4e+08	0.00930552	-0.06182159	-1.140875e-05	-9.66368e-05	-0.03010032	-0.03718016	3.969904e-07	-9.663682e-05
	-1.140875e-05	-9.66368e-05	0.00815147	-0.06207803	3.630402e-06	-5.771597e-05	-0.03057291	-0.03398878
	-0.03010032	-0.03718016	3.630402e-06	-5.771597e-05	0.008763502	-0.06136801	2.117158e-06	-5.481498e-05
	3.969904e-07	-9.663682e-05	-0.03057291	-0.03398878	2.117158e-06	-5.481498e-05	0.007565708	-0.06193627
4.5e+08	-0.002141866	-0.06574277	-3.513986e-05	-9.378574e-05	-0.03827744	-0.02378664	-2.158441e-05	-9.476246e-05
	-3.513986e-05	-9.378574e-05	-0.003381864	-0.06575837	-1.437532e-05	-5.788935e-05	-0.03849103	-0.02040557
	-0.03827744	-0.02378664	-1.437532e-05	-5.788935e-05	-0.002802994	-0.06511701	-1.257507e-05	-5.531686e-05
	-2.158441e-05	-9.476246e-05	-0.03849103	-0.02040557	-1.257507e-05	-5.531686e-05	-0.004134174	-0.06544421
4.6e+08	-0.01474299	-0.06671955	-5.849794e-05	-8.518988e-05	-0.0430498	-0.008704555	-4.325489e-05	-8.760901e-05
	-5.849794e-05	-8.518988e-05	-0.01600719	-0.06646685	-3.289115e-05	-5.373682e-05	-0.04296986	-0.005197445
	-0.0430498	-0.008704555	-3.289115e-05	-5.373682e-05	-0.01548462	-0.06589336	-2.775634e-05	-5.229052e-05
	-4.325489e-05	-8.760901e-05	-0.04296986	-0.005197445	-2.775634e-05	-5.229052e-05	-0.01688409	-0.06593655
4.7e+08	-0.0277066	-0.0644215	-8.004983e-05	-7.091409e-05	-0.04408985	0.007197272	-6.331153e-05	-7.526092e-05
	-8.004983e-05	-7.091409e-05	-0.02892453	-0.06389004	-5.08377e-05	-4.505288e-05	-0.04369812	0.01075841
	-0.04408985	0.007197272	-5.08377e-05	-4.505288e-05	-0.02848291	-0.06337546	-4.254731e-05	-4.554499e-05
	-6.331153e-05	-7.526092e-05	-0.04369812	0.01075841	-4.254731e-05	-4.554499e-05	-0.02987202	-0.06310992
4.8e+08	-0.04015021	-0.05873567	-9.838419e-05	-5.139435e-05	-0.0412917	0.02299357	-8.04786e-05	-5.813559e-05
