!$
! Info: Touchstone file created by Circ.  Input file=Intel_C2M_200G_10p5in_202208016_staggered.circ
!$
# Hz S RI R 50
0	0.02986168	5.336324e-24	0.9699404	-9.059292e-24	0.0001423827	3.407171e-22	-0.0002718862	3.329646e-20
	0.9699404	-9.055638e-24	0.0304118	9.502152e-24	-0.0002719421	3.330331e-20	0.0003634743	1.121661e-21
	0.000142439	3.408415e-22	-0.0002720768	3.331979e-20	0.02985967	5.046696e-24	0.9699407	-9.260618e-24
	-0.0002720209	3.331295e-20	0.0003635394	1.122454e-21	0.9699407	-9.26428e-24	0.03041322	9.739942e-24
1e+07	0.03631172	0.004154055	0.9529913	-0.1465745	0.002737044	0.007907832	-0.001530346	-0.0005651383
	0.9529913	-0.1465745	0.03657957	0.00416433	-0.001532381	-0.0005653036	0.002488561	0.007989016
	0.002737044	0.007907832	-0.001532381	-0.0005653036	0.03641055	0.003366441	0.9529219	-0.1457693
	-0.001530346	-0.0005651383	0.002488561	0.007989016	0.9529219	-0.1457693	0.03662362	0.003361713
2e+07	0.04323319	0.001610697	0.9146175	-0.2830242	0.006537194	0.01419502	-0.001854801	-0.0003207919
	0.9146175	-0.2830242	0.04430545	0.001337441	-0.001859108	-0.0003154381	0.005571201	0.01466657
	0.0065372	0.01419501	-0.00185912	-0.0003155464	0.04241231	0.0004145629	0.9155425	-0.2818576
	-0.001854812	-0.0003208941	0.00557129	0.01466646	0.9155425	-0.2818576	0.04330845	0.0002512729
3e+07	0.04714571	-0.004534528	0.8595334	-0.4094785	0.01204775	0.019114	-0.002001312	-3.887131e-05
	0.8595334	-0.4094785	0.04874307	-0.005676426	-0.002003109	-2.572316e-05	0.0101457	0.02024197
	0.01204774	0.01911405	-0.00200315	-2.571305e-05	0.04565778	-0.005595192	0.8611814	-0.408532
	-0.002001326	-3.887329e-05	0.01014568	0.02024195	0.8611814	-0.408532	0.04703723	-0.006430693
4e+07	0.04838674	-0.01182388	0.7883851	-0.5255586	0.01880237	0.02206328	-0.001990569	0.0002253275
	0.7883851	-0.5255586	0.05057615	-0.01400819	-0.001984059	0.0002449028	0.01577903	0.02442611
	0.01880238	0.0220633	-0.001984062	0.0002449082	0.04641864	-0.0125589	0.7905521	-0.5250629
	-0.001990567	0.0002253409	0.01577903	0.02442611	0.7905521	-0.5250629	0.04842788	-0.0141952
5e+07	0.04735586	-0.01918675	0.7025441	-0.6295909	0.02616556	0.02280793	-0.001869914	0.0004061312
	0.7025441	-0.6295909	0.04999436	-0.02272976	-0.001850705	0.0004272887	0.02207521	0.02699153
	0.02616557	0.02280793	-0.001850702	0.0004272873	0.04506766	-0.01949066	0.7050369	-0.629684
	-0.001869912	0.0004061294	0.02207521	0.02699154	0.7050369	-0.629684	0.04766252	-0.02224231
6e+07	0.04442642	-0.02597106	0.6037585	-0.7198987	0.03347291	0.02126137	-0.001706568	0.0004607811
	0.6037585	-0.7198987	0.04722042	-0.0310758	-0.001673125	0.0004765049	0.02856775	0.02785748
	0.03347292	0.02126135	-0.001673123	0.000476503	0.04196674	-0.02578755	0.6063839	-0.720661
	-0.001706566	0.0004607797	0.02856775	0.02785749	0.6063839	-0.720661	0.04494946	-0.02989606
7e+07	0.04002108	-0.03171025	0.4940394	-0.7949977	0.04005789	0.01752977	-0.001578631	0.0003834348
	0.4940394	-0.7949977	0.04261159	-0.03845585	-0.001533108	0.0003859415	0.03479365	0.02707703
	0.04005788	0.01752977	-0.001533087	0.0003858758	0.03752989	-0.0310187	0.496601	-0.7964629
	-0.001578629	0.000383432	0.03479366	0.02707703	0.496601	-0.7964629	0.0406212	-0.0366369
8e+07	0.0346165	-0.03611802	0.3755948	-0.8536692	0.04531091	0.01190298	-0.001556483	0.0002048176
	0.3755948	-0.8536692	0.03660729	-0.04444974	-0.001505039	0.0001876139	0.04032792	0.02482743
	0.04531091	0.01190298	-0.001505039	0.0001876165	0.03222682	-0.03492502	0.3778938	-0.8558309
	-0.001556484	0.0002048203	0.04032792	0.02482743	0.3778938	-0.8558309	0.03508459	-0.04210133
9e+07	0.02869508	-0.03908404	0.2507731	-0.8949972	0.04872822	0.004829846	-0.001689561	-1.544867e-05
	0.2507731	-0.8949972	0.02969256	-0.04878888	-0.001641654	-5.593579e-05	0.04481786	0.02139375
	0.04872823	0.004829847	-0.001641648	-5.592885e-05	0.0265384	-0.03741552	0.2525981	-0.8978067
	-0.001689557	-1.544023e-05	0.04481786	0.02139375	0.2525981	-0.8978067	0.02879107	-0.04606465
1e+08	0.02271329	-0.04065418	0.1219804	-0.9183898	0.04995016	-0.003120255	-0.001997964	-0.0001993127
	0.1219804	-0.9183898	0.02238418	-0.05133425	-0.001966601	-0.0002623616	0.04801081	0.01713979
	0.04995016	-0.003120255	-0.001966601	-0.0002623625	0.02097175	-0.03852942	0.1230413	-0.9217628
	-0.001997964	-0.0001993136	0.04801081	0.01713979	0.1230413	-0.9217628	0.02227232	-0.04843513
1.1e+08	0.01691287	-0.04102214	-0.008214689	-0.9234145	0.04876911	-0.01130282	-0.002455843	-0.0002695447
	-0.008214689	-0.9234145	0.01521709	-0.05218956	-0.002447637	-0.0003416476	0.0497447	0.01248533
	0.0487691	-0.01130282	-0.002447638	-0.0003416488	0.01571699	-0.03885418	-0.008032448	-0.9268384
	-0.002455844	-0.0002695459	0.0497447	0.01248533	-0.008032448	-0.9268384	0.01578541	-0.04955109
1.2e+08	0.01163863	-0.04027105	-0.1372079	-0.9103016	0.04520459	-0.01897801	-0.003032073	-0.0001723909
	-0.1372079	-0.9103016	0.00852727	-0.05145103	-0.003047742	-0.0002452929	0.0500195	0.007884863
	0.04520459	-0.01897801	-0.003047743	-0.0002452939	0.01082242	-0.0381291	-0.1377414	-0.913617
	-0.003032074	-0.0001723919	0.0500195	0.007884863	-0.1377414	-0.913617	0.009551702	-0.04915241
1.3e+08	0.007112793	-0.03870208	-0.2625913	-0.879485	0.03946537	-0.02550294	-0.003662741	0.000147737
	-0.2625913	-0.879485	0.002724994	-0.0493332	-0.003700846	8.212586e-05	0.04895112	0.003749805
	0.03946537	-0.02550294	-0.003700847	8.212518e-05	0.006616755	-0.03662789	-0.2637526	-0.8825781
	-0.003662742	0.0001477363	0.04895112	0.003749806	-0.2637526	-0.8825781	0.004057512	-0.04741162
1.4e+08	0.003426835	-0.03661839	-0.3820125	-0.831702	0.03192697	-0.03030235	-0.00426609	0.0007146934
	-0.3820125	-0.831702	-0.001884937	-0.04615398	-0.004322178	0.0006632165	0.04676156	0.0004402773
	0.03192697	-0.03030234	-0.004322179	0.0006632162	0.00320087	-0.03465651	-0.3837167	-0.8344773
	-0.004266091	0.0007146931	0.04676156	0.0004402777	-0.3837167	-0.8344773	-0.0003681466	-0.04461236
1.5e+08	0.000573351	-0.03430514	-0.4932383	-0.7679875	0.02310959	-0.03291699	-0.004756024	0.001520606
	-0.4932383	-0.7679875	-0.005105141	-0.04229088	-0.004824209	0.001487379	0.04376153	-0.001764173
	0.02310959	-0.03291699	-0.004824209	0.001487379	0.0005618546	-0.0324904	-0.4953982	-0.7703695
	-0.004756024	0.001520606	0.04376153	-0.001764173	-0.4953982	-0.7703695	-0.003506221	-0.04110678
1.6e+08	-0.001538162	-0.0320056	-0.5941899	-0.6896613	0.01364372	-0.03304038	-0.005054565	0.002527496
	-0.5941899	-0.6896613	-0.006851384	-0.03814794	-0.005128446	0.002514311	0.0403241	-0.002684031
	0.01364372	-0.03304037	-0.005128447	0.002514311	-0.001394166	-0.03035753	-0.5967167	-0.6915905
	-0.005054565	0.002527496	0.0403241	-0.002684031	-0.5967167	-0.6915905	-0.005250877	-0.03728089
1.7e+08	-0.003061379	-0.02990145	-0.6829857	-0.5983104	0.004226496	-0.03054411	-0.005101905	0.003673454
	-0.6829857	-0.5983104	-0.007151248	-0.03412432	-0.005175355	0.003680047	0.03685422	-0.0022532
	0.004226496	-0.03054411	-0.005175356	0.003680047	-0.002818618	-0.02842295	-0.6857858	-0.5997436
	-0.005101905	0.003673454	0.03685422	-0.0022532	-0.6857858	-0.5997436	-0.005607624	-0.03352295
1.8e+08	-0.004187796	-0.0280979	-0.7579727	-0.4957643	-0.004427347	-0.02549122	-0.0048629	0.00488181
	-0.7579727	-0.4957643	-0.006134557	-0.03058502	-0.004930797	0.004906182	0.03375694	-0.0005216919
	-0.004427347	-0.02549122	-0.004930798	0.004906182	-0.003896198	-0.02677757	-0.7609505	-0.4966743
	-0.0048629	0.00488181	0.03375694	-0.0005216917	-0.7609505	-0.4966743	-0.004685915	-0.03019323
1.9e+08	-0.005118918	-0.0266182	-0.817759	-0.3840664	-0.01163718	-0.01813636	-0.004328992	0.006071495
	-0.817759	-0.3840664	-0.004018397	-0.02783674	-0.004387458	0.006110569	0.03140549	0.002349617
	-0.01163718	-0.01813636	-0.004387459	0.006110569	-0.004818251	-0.02543374	-0.820821	-0.3844443
	-0.004328993	0.006071496	0.03140549	0.002349617	-0.820821	-0.3844443	-0.002683583	-0.02759883
2e+08	-0.006036662	-0.0254064	-0.861249	-0.2654384	-0.01680688	-0.00891134	-0.003516663	0.0071666
	-0.861249	-0.2654384	-0.001084498	-0.02610819	-0.003563337	0.007216708	0.03011179	0.006101975
	-0.01680688	-0.00891134	-0.003563338	0.007216708	-0.005755564	-0.02432919	-0.8643025	-0.2652867
	-0.003516663	0.0071666	0.03011179	0.006101975	-0.8643025	-0.2652867	0.0001331647	-0.02597296
2.1e+08	-0.007076865	-0.02434114	-0.8876706	-0.1422369	-0.01947002	0.001601767	-0.002462319	0.008104124
	-0.8876706	-0.1422369	0.002344036	-0.02553799	-0.002495752	0.008161637	0.03010319	0.01040024
	-0.01947002	0.001601767	-0.002495752	0.008161637	-0.006832027	-0.02333917	-0.8906281	-0.1415754
	-0.002462319	0.008104124	0.03010319	0.01040024	-0.8906281	-0.1415754	0.003454847	-0.02546228
2.2e+08	-0.008309037	-0.02325586	-0.8965924	-0.01690679	-0.01932694	0.01270947	-0.001214187	0.008838235
	-0.8965924	-0.01690679	0.005931811	-0.02617003	-0.001234274	0.008899767	0.03150389	0.01485929
	-0.01932694	0.01270947	-0.001234274	0.008899767	-0.008105957	-0.02229795	-0.8993731	-0.01576722
	-0.001214187	0.008838235	0.03150389	0.01485929	-0.8993731	-0.01576722	0.006954556	-0.02612045
2.3e+08	-0.009723715	-0.02196697	-0.8879376	0.10807	-0.01627034	0.02365465	0.0001742179	0.009341361
	-0.8879376	0.10807	0.009356095	-0.02795637	0.0001672229	0.009404103	0.03432596	0.01907436
	-0.01627034	0.02365465	0.0001672229	0.009404103	-0.009558684	-0.02102504	-0.890469	0.1096459
	0.0001742178	0.009341361	0.03432596	0.01907436	-0.890469	0.1096459	0.01031508	-0.02791048
2.4e+08	-0.01123042	-0.02030381	-0.8619901	0.2302355	-0.01039667	0.03366957	0.001652382	0.009601974
	-0.8619901	0.2302355	0.01233154	-0.03076732	0.001657442	0.00966365	0.0384688	0.02265376
	-0.01039667	0.03366957	0.001657442	0.00966365	-0.01109142	-0.019355	-0.8642099	0.2321943
	0.001652382	0.009601974	0.0384688	0.02265376	-0.8642099	0.2321943	0.01325281	-0.03071358
2.5e+08	-0.01266561	-0.01813826	-0.8193837	0.3472046	-0.002003071	0.04203073	0.003176001	0.009619969
	-0.8193837	0.3472046	0.01462971	-0.03440786	0.003192096	0.009678742	0.04372714	0.02524883
	-0.002003071	0.04203073	0.003192095	0.009678742	-0.01253545	-0.01716659	-0.8212366	0.3494867
	0.003176001	0.009619969	0.04372714	0.02524883	-0.8212366	0.3494867	0.01553777	-0.03434444
2.6e+08	-0.01381155	-0.01540998	-0.7610812	0.4567241	0.008430131	0.04811111	0.004709231	0.009401654
	-0.7610812	0.4567241	0.01609186	-0.03863758	0.004735607	0.00945595	0.04980798	0.02658146
	0.008430131	0.04811111	0.004735607	0.00945595	-0.01366922	-0.01440724	-0.7625257	0.459261
	0.004709231	0.009401654	0.04980798	0.02658146	-0.7625257	0.459261	0.0170071	-0.03857096
2.7e+08	-0.01442208	-0.01214441	-0.6883502	0.5567162	0.02027103	0.05142453	0.006224092	0.008954266
	-0.6883502	0.5567162	0.01663678	-0.04319377	0.006259638	0.009002881	0.05635413	0.02646564
	0.02027103	0.05142453	0.006259638	0.009002881	-0.01424566	-0.01111062	-0.6893559	0.559438
	0.006224092	0.008954266	0.05635413	0.02646564	-0.6893559	0.559438	0.01757376	-0.04313595
2.8e+08	-0.0142538	-0.008461617	-0.602728	0.6453226	0.03277759	0.05166166	0.007697	0.008282886
	-0.602728	0.6453226	0.01626032	-0.04781385	0.007740981	0.008324347	0.06297258	0.02482024
	0.03277759	0.05166166	0.007740981	0.008324347	-0.01402306	-0.007404763	-0.6032758	0.6481555
	0.007697	0.008282886	0.06297258	0.02482024	-0.6032758	0.6481555	0.0172267	-0.04777979
2.9e+08	-0.01309946	-0.004573315	-0.5059804	0.7209355	0.04514699	0.04871245	0.009105427	0.007388636
	-0.5059804	0.7209355	0.01502895	-0.05225588	0.00915672	0.007421749	0.06926503	0.02167469
	0.04514699	0.04871245	0.00915672	0.007421749	-0.01279738	-0.003508645	-0.5060628	0.7238045
	0.009105427	0.007388636	0.06926503	0.02167469	-0.5060628	0.7238045	0.01602563	-0.05226146
3e+08	-0.01081867	-0.0007700158	-0.400056	0.7822203	0.05656857	0.04267491	0.01042316	0.006270801
	-0.400056	0.7822203	0.01306949	-0.05631678	0.01048046	0.006294142	0.07485854	0.01716424
	0.05656857	0.04267491	0.01048046	0.006294142	-0.01043384	0.0002814505	-0.3996765	0.7850507
	0.01042316	0.006270801	0.07485854	0.01716424	-0.3996765	0.7850507	0.01409107	-0.056376
3.1e+08	-0.007363794	0.002602003	-0.2870452	0.8281343	0.06627726	0.03385104	0.01161833	0.004928871
	-0.2870452	0.8281343	0.01055329	-0.05984516	0.01167976	0.004940787	0.07943381	0.01151918
	0.06627726	0.03385104	0.01167976	0.004940787	-0.006891614	0.003614683	-0.2862204	0.8308521
	0.01161833	0.004928871	0.07943381	0.01151918	-0.2862204	0.8308521	0.01158926	-0.05996853
3.2e+08	-0.002797524	0.005170411	-0.1691402	0.8579292	0.07360327	0.0227288	0.01265229	0.003366745
	-0.1691402	0.8579292	0.007678904	-0.06274951	0.01271557	0.003366175	0.08274765	0.005044462
	0.07360327	0.0227288	0.01271557	0.003366175	-0.002242412	0.006117029	-0.1678948	0.8604683
	0.01265229	0.003366745	0.08274765	0.005044462	-0.1678948	0.8604683	0.008715646	-0.06294272
3.3e+08	0.002698465	0.006572538	-0.04858882	0.8711585	0.07801535	0.009952759	0.01348097	0.001596665
	-0.04858882	0.8711585	0.004653953	-0.06500116	0.01354337	0.00158366	0.08464954	-0.001903793
	0.07801535	0.009952759	0.01354337	0.00158366	0.003323602	0.007425974	-0.04696079	0.8734557
	0.01348097	0.001596665	0.08464954	-0.001903793	-0.04696079	0.8734557	0.005676826	-0.06526432
3.4e+08	0.008826128	0.006491879	0.07233324	0.8676748	0.07915668	-0.003714672	0.0140582	-0.0003564441
	0.07233324	0.8676748	0.001677472	-0.06663212	0.01411669	-0.0003821142	0.08509216	-0.008945666
	0.07915668	-0.003714672	0.01411669	-0.0003821142	0.009499695	0.007228564	0.07430087	0.8696757
	0.0140582	-0.0003564441	0.08509216	-0.008945666	0.07430087	0.8696757	0.002672327	-0.06695986
3.5e+08	0.01518499	0.004694183	0.1913663	0.8476273	0.07686844	-0.01743918	0.01434041	-0.002455153
	0.1913663	0.8476273	-0.001076542	-0.06772845	0.01439196	-0.002492293	0.0841318	-0.01570701
	0.07686844	-0.01743918	0.01439196	-0.002492293	0.01587765	0.005295583	0.1936172	0.8492819
	0.01434041	-0.002455153	0.0841318	-0.01570701	0.1936172	0.8492819	-0.0001209272	-0.06811103
3.6e+08	0.02129593	0.001058302	0.3062894	0.8114534	0.0712036	-0.03036545	0.01429137	-0.004649073
	0.3062894	0.8114534	-0.003471856	-0.06842026	0.01433366	-0.004695386	0.0819229	-0.02184617
	0.0712036	-0.03036545	0.01433366	-0.004695386	0.02197201	0.001514339	0.3087645	0.812724
	0.01429137	-0.004649073	0.0819229	-0.02184617	0.3087645	0.812724	-0.002562652	-0.06884378
3.7e+08	0.02663433	-0.004398716	0.4149593	0.7598743	0.06242665	-0.04167031	0.01388705	-0.006877559
	0.4149593	0.7598743	-0.005419898	-0.06886729	0.01391813	-0.006930503	0.07870496	-0.02707966
	0.06242665	-0.04167031	0.01391813	-0.006930503	0.02725432	-0.004088418	0.4175954	0.7607333
	0.01388705	-0.006877559	0.07870496	-0.02707966	0.4175954	0.7607333	-0.004559272	-0.06931646
3.8e+08	0.03067008	-0.01150789	0.5153406	0.6938882	0.05100096	-0.05061362	0.01311785	-0.009075181
	0.5153406	0.6938882	-0.006885054	-0.06924433	0.0131373	-0.009131045	0.07478298	-0.03120252
	0.05100096	-0.05061362	0.0131373	-0.009131045	0.03119309	-0.01133295	0.5180681	0.6943169
	0.01311785	-0.009075181	0.07478298	-0.03120252	0.5180681	0.6943169	-0.006069455	-0.06970398
3.9e+08	0.0329112	-0.01994421	0.6055352	0.6147593	0.03756454	-0.05658679	0.0119911	-0.01117492
	0.6055352	0.6147593	-0.007886084	-0.06972585	0.01199857	-0.01123111	0.07050406	-0.03410312
	0.03756454	-0.05658679	0.01199857	-0.01123111	0.03329902	-0.01988217	0.6082872	0.6147533
	0.0119911	-0.01117492	0.07050406	-0.03410312	0.6082872	0.6147533	-0.00710684	-0.07018194
4e+08	0.03295124	-0.02923655	0.6838242	0.5240058	0.0228925	-0.05915289	0.01052773	-0.01311566
	0.6838242	0.5240058	-0.008491968	-0.0704694	0.01052502	-0.01316914	0.06622968	-0.03577071
	0.0228925	-0.05915289	0.01052502	-0.01316914	0.03317058	-0.02925478	0.686531	0.5235666
	0.01052773	-0.01311566	0.06622968	-0.03577071	0.686531	0.5235666	-0.007735556	-0.0709121
4.1e+08	0.03051219	-0.03879111	0.7487016	0.4233722	0.007851894	-0.05807747	0.008760563	-0.01484474
	0.7487016	0.4233722	-0.008814117	-0.07160265	0.00874997	-0.01489356	0.06230764	-0.03629523
	0.007851894	-0.05807747	0.00874997	-0.01489356	0.03053781	-0.03884747	0.7512977	0.4225144
	0.008760563	-0.01484474	0.06230764	-0.03629523	0.7512977	0.4225144	-0.008064249	-0.07202715
4.2e+08	0.02548004	-0.04792691	0.7989086	0.3148167	-0.006651734	-0.05334762	0.006730067	-0.0163207
	0.7989086	0.3148167	-0.00899604	-0.07321356	0.006713817	-0.01636409	0.05904462	-0.03586106
	-0.006651734	-0.05334762	0.006713817	-0.01636409	0.02529787	-0.04797159	0.8013295	0.313566
	0.006730067	-0.0163207	0.05904462	-0.03586106	0.8013295	0.313566	-0.008234768	-0.07362081
4.3e+08	0.01793267	-0.055924	0.8334692	0.2004652	-0.01973105	-0.04517555	0.004477612	-0.01751345
	0.8334692	0.2004652	-0.009198893	-0.07534286	0.004458421	-0.01755187	0.05668149	-0.03472982
	-0.01973105	-0.04517555	0.004458421	-0.01755187	0.01754187	-0.05590299	0.8356572	0.1988546
	0.004477612	-0.01751345	0.05668149	-0.03472982	0.8356572	0.1988546	-0.008409251	-0.07574
4.4e+08	0.00815147	-0.06207803	0.8517196	0.0825751	-0.03057291	-0.03398878	0.002043432	-0.01840171
	0.8517196	0.0825751	-0.009587385	-0.07798196	0.0020228	-0.0184363	0.0553739	-0.03322061
	-0.03057291	-0.03398878	0.0020228	-0.0184363	0.007565708	-0.06193627	0.8536224	0.08064739
	0.002043432	-0.01840171	0.0553739	-0.03322061	0.8536224	0.08064739	-0.008754435	-0.07838201
4.5e+08	-0.003381864	-0.06575837	0.8533293	-0.0365107	-0.03849103	-0.02040557	-0.0005369014	-0.01896932
	0.8533293	-0.0365107	-0.01031513	-0.08107512	-0.0005582256	-0.01900209	0.0551801	-0.03168295
	-0.03849103	-0.02040557	-0.0005582256	-0.01900209	-0.004134174	-0.06544421	0.8549023	-0.038706
	-0.0005369014	-0.01896932	0.0551801	-0.03168295	0.8549023	-0.038706	-0.00942846	-0.08149607
4.6e+08	-0.01600719	-0.06646685	0.8383164	-0.1544229	-0.04296986	-0.005197445	-0.003232625	-0.01920055
	0.8383164	-0.1544229	-0.01151161	-0.08452591	-0.003254785	-0.01923373	0.05605564	-0.0304683
	-0.04296986	-0.005197445	-0.003254785	-0.01923373	-0.01688409	-0.06593655	0.8395227	-0.1568312
	-0.003232625	-0.01920055	0.05605564	-0.0304683	0.8395227	-0.1568312	-0.01056678	-0.08498912
4.7e+08	-0.02892453	-0.06389004	0.8070507	-0.2688257	-0.04369812	0.01075841	-0.006013886	-0.01907676
	0.8070507	-0.2688257	-0.01327208	-0.08820573	-0.006038859	-0.01911187	0.05785743	-0.02990008
	-0.04369812	0.01075841	-0.006038859	-0.01911187	-0.02987202	-0.06310992	0.8078619	-0.2713849
	-0.006013886	-0.01907676	0.05785743	-0.02990008	0.8078619	-0.2713849	-0.01227131	-0.08873431
4.8e+08	-0.04124765	-0.05793465	0.7602358	-0.377464	-0.04058817	0.02653264	-0.008849817	-0.01857344
	0.7602358	-0.377464	-0.01565058	-0.09196732	-0.008879832	-0.01861129	0.06035613	-0.03024814
	-0.04058817	0.02653264	-0.008879832	-0.01861129	-0.0422028	-0.05688646	0.7606374	-0.3801112
	-0.008849817	-0.01857344	0.06035613	-0.03024814	0.7606374	-0.3801112	-0.01460334	-0.09258338
4.9e+08	-0.05206617	-0.04875297	0.6989034	-0.4782226	-0.03378215	0.04120162	-0.01170043	-0.01766157
	0.6989034	-0.4782226	-0.01865778	-0.09565594	-0.01173903	-0.01770118	0.06325479	-0.0317061
	-0.03378215	0.04120162	-0.01173903	-0.01770118	-0.05296188	-0.04743456	0.6988861	-0.4808938
	-0.01170043	-0.01766157	0.06325479	-0.0317061	0.6988861	-0.4808938	-0.01758028	-0.09637911
5e+08	-0.06051743	-0.03674615	0.6243685	-0.569182	-0.02364202	0.05390274	-0.01451396	-0.01630931
	0.6243685	-0.569182	-0.02226126	-0.09912345	-0.0145639	-0.01634873	0.06621379	-0.03437566
	-0.02364202	0.05390274	-0.0145639	-0.01634873	-0.06128565	-0.03517298	0.6239368	-0.5718082
	-0.01451396	-0.01630931	0.06621379	-0.03437566	0.6239368	-0.5718082	-0.02117538	-0.09996847
5.1e+08	-0.06585179	-0.02254595	0.5381982	-0.6486407	-0.01072845	0.06388606	-0.01722161	-0.01449017
	0.5381982	-0.6486407	-0.02639024	-0.1022392	-0.01728505	-0.01452548	0.06887825	-0.03825977
	-0.01072845	0.06388606	-0.01728505	-0.01452548	-0.06642978	-0.02075156	0.5373666	-0.6511603
	-0.01722161	-0.01449017	0.06887825	-0.03825977	0.5373666	-0.6511603	-0.02532189	-0.1032143
5.2e+08	-0.0674967	-0.00698219	0.4421693	-0.7151609	0.004234241	0.07055974	-0.01973812	-0.01218786
