!$
! Info: Touchstone file created by Circ.  Input file=Intel_C2M_200G_10p5in_202208016_staggered.circ
!$
# Hz S RI R 50
0	0.0304118	9.501379e-24	-0.0001217923	1.491526e-20	0.0003634761	1.121655e-21	-0.0001175747	1.439875e-20
	-0.0001217924	1.491527e-20	0.02986168	5.336324e-24	-0.0001287899	1.577222e-20	0.0001423827	3.407171e-22
	0.0003635411	1.122449e-21	-0.00012879	1.577223e-20	0.03041303	9.742508e-24	-0.0001218175	1.491834e-20
	-0.0001175747	1.439875e-20	0.000142439	3.408415e-22	-0.0001218174	1.491833e-20	0.02985967	5.046696e-24
1e+07	0.03784525	0.00321278	-0.0008836474	-4.73827e-05	0.002052526	0.007909261	-7.037584e-05	-0.000102011
	-0.0008836474	-4.73827e-05	0.03631172	0.004154055	-0.0005856484	0.000300118	0.002737044	0.007907832
	0.002052526	0.007909261	-0.0005856484	0.000300118	0.03761445	0.003762765	-0.0007004085	2.517254e-06
	-7.037584e-05	-0.000102011	0.002737044	0.007907832	-0.0007004085	2.517254e-06	0.03641055	0.003366441
2e+07	0.044144	-0.0004089689	-0.0008300532	-0.0001664035	0.005115412	0.01472068	-0.0001025226	-0.0001339611
	-0.0008300531	-0.0001664034	0.04323319	0.001610697	-0.0006857962	0.0003061821	0.006537194	0.01419502
	0.005115501	0.01472057	-0.0006857962	0.0003061822	0.04458356	0.0004679194	-0.0006615411	-0.0002861641
	-0.0001025226	-0.000133961	0.0065372	0.01419501	-0.0006615411	-0.0002861641	0.04241231	0.0004145629
3e+07	0.04753614	-0.007241639	-0.0008456179	-0.0002469486	0.009696175	0.0203953	-0.000155072	-0.0001775889
	-0.0008456178	-0.0002469486	0.04714571	-0.004534528	-0.0007477504	0.0003640662	0.01204775	0.019114
	0.009696151	0.02039527	-0.0007477504	0.0003640662	0.04848252	-0.006459349	-0.0006777261	-0.000391765
	-0.000155072	-0.0001775888	0.01204774	0.01911405	-0.0006777262	-0.000391765	0.04565778	-0.005595192
4e+07	0.04863688	-0.01502931	-0.0008911679	-0.0002726657	0.01536157	0.02467126	-0.0002249641	-0.0002070675
	-0.0008911679	-0.0002726657	0.04838674	-0.01182388	-0.0007884038	0.0004302806	0.01880237	0.02206328
	0.01536157	0.02467126	-0.0007884038	0.0004302806	0.04994241	-0.01451044	-0.0007285036	-0.0004408341
	-0.0002249641	-0.0002070675	0.01880238	0.0220633	-0.0007285036	-0.0004408341	0.04641864	-0.0125589
5e+07	0.04763253	-0.02301775	-0.0009520168	-0.0002600563	0.02171309	0.02731728	-0.0003033496	-0.0002177478
	-0.0009520168	-0.0002600563	0.04735586	-0.01918675	-0.0008154081	0.0004974077	0.02616556	0.02280793
	0.02171309	0.02731729	-0.0008154081	0.0004974077	0.049152	-0.02285517	-0.0007969913	-0.0004498172
	-0.0003033496	-0.0002177478	0.02616557	0.02280793	-0.0007969913	-0.0004498172	0.04506766	-0.01949066
6e+07	0.04473809	-0.03055844	-0.001016962	-0.0002157046	0.0282803	0.02824745	-0.000386434	-0.0002092441
	-0.001016962	-0.0002157046	0.04442642	-0.02597106	-0.0008364331	0.0005622354	0.03347291	0.02126137
	0.0282803	0.02824745	-0.0008364331	0.0005622354	0.04632751	-0.03079211	-0.0008705851	-0.0004261447
	-0.000386434	-0.0002092441	0.03347292	0.02126135	-0.000870585	-0.0004261448	0.04196674	-0.02578755
7e+07	0.04029076	-0.03715428	-0.001083823	-0.0001347064	0.0345951	0.02751045	-0.0004706706	-0.0001813161
	-0.001083823	-0.0001347063	0.04002108	-0.03171025	-0.0008590652	0.0006251046	0.04005789	0.01752977
	0.0345951	0.02751045	-0.0008590652	0.0006251046	0.04181213	-0.03778047	-0.0009397921	-0.0003761388
	-0.0004706706	-0.0001813161	0.04005788	0.01752977	-0.0009397921	-0.0003761389	0.03752989	-0.0310187
8e+07	0.03469853	-0.04246231	-0.001142152	-1.816628e-05	0.04022681	0.0252804	-0.000551234	-0.0001342788
	-0.001142152	-1.816628e-05	0.0346165	-0.03611802	-0.0008889276	0.0006885074	0.04531091	0.01190298
	0.04022681	0.0252804	-0.0008889276	0.0006885074	0.03602563	-0.04343972	-0.001027427	-0.0002425726
	-0.0005512339	-0.0001342788	0.04531091	0.01190298	-0.001027427	-0.0002425726	0.03222682	-0.03492502
9e+07	0.02841074	-0.04627818	-0.001175473	0.0001158272	0.04481673	0.02184059	-0.00062525	-6.943687e-05
	-0.001175473	0.0001158272	0.02869508	-0.03908404	-0.0009365204	0.0007584871	0.04872822	0.004829846
	0.04481673	0.02184059	-0.0009365204	0.0007584871	0.02943231	-0.04753221	-0.001093192	-4.491615e-05
	-0.0006252499	-6.943687e-05	0.04872823	0.004829847	-0.001093192	-4.491611e-05	0.0265384	-0.03741552
1e+08	0.0219636	-0.04853239	-0.001169971	0.0002623313	0.04810887	0.0175524	-0.000690707	1.173362e-05
	-0.001169971	0.0002623313	0.02271329	-0.04065418	-0.001030183	0.000843223	0.04995016	-0.003120255
	0.04810887	0.0175524	-0.001030183	0.000843223	0.02255812	-0.04995607	-0.001093604	0.0001716368
	-0.000690707	1.173362e-05	0.04995016	-0.003120255	-0.001093604	0.0001716368	0.02097175	-0.03852942
1.1e+08	0.01554786	-0.04963466	-0.001147598	0.0004267927	0.04991385	0.01282855	-0.0007459895	0.0001086018
	-0.001147598	0.0004267927	0.01691287	-0.04102214	-0.001117971	0.0008731199	0.04876911	-0.01130282
	0.04991385	0.01282855	-0.001117971	0.0008731199	0.01574386	-0.05094797	-0.001055601	0.0003225112
	-0.0007459895	0.0001086018	0.0487691	-0.01130282	-0.001055601	0.0003225112	0.01571699	-0.03885418
1.2e+08	0.009360722	-0.04922384	-0.001122213	0.000588815	0.05023141	0.00815527	-0.0007883841	0.0002219155
	-0.001122213	0.000588815	0.01163863	-0.04027105	-0.001175966	0.0009483196	0.04520459	-0.01897801
	0.05023141	0.00815527	-0.001175966	0.0009483196	0.009277185	-0.05038133	-0.001027332	0.0004630145
	-0.0007883841	0.0002219155	0.04520459	-0.01897801	-0.001027332	0.0004630145	0.01082242	-0.0381291
1.3e+08	0.003908335	-0.04747894	-0.001082239	0.0007519191	0.04918399	0.003947929	-0.000815108	0.0003503187
	-0.001082239	0.0007519191	0.007112793	-0.03870208	-0.001219543	0.001063871	0.03946537	-0.02550294
	0.04918399	0.00394793	-0.001219543	0.001063871	0.003615087	-0.04844925	-0.000994291	0.0006009632
	-0.000815108	0.0003503187	0.03946537	-0.02550294	-0.000994291	0.0006009632	0.006616755	-0.03662789
1.4e+08	-0.0004787997	-0.04468745	-0.001024547	0.0009166787	0.04699685	0.0005709244	-0.0008210713	0.000491676
	-0.001024547	0.0009166787	0.003426835	-0.03661839	-0.001241789	0.001217687	0.03192697	-0.03030235
	0.04699685	0.0005709248	-0.001241789	0.001217687	-0.0009215744	-0.0454491	-0.0009535722	0.0007402579
	-0.0008210713	0.000491676	0.03192697	-0.03030234	-0.0009535722	0.0007402579	0.00320087	-0.03465651
1.5e+08	-0.003584259	-0.0412026	-0.0009462208	0.001082849	0.04398416	-0.001692736	-0.0008026623	0.000643059
	-0.0009462208	0.001082849	0.000573351	-0.03430514	-0.00123267	0.001405331	0.02310959	-0.03291699
	0.04398416	-0.001692736	-0.00123267	0.001405331	-0.004120142	-0.04174393	-0.0009019208	0.0008840461
	-0.0008026623	0.000643059	0.02310959	-0.03291699	-0.0009019208	0.0008840461	0.0005618546	-0.0324904
1.6e+08	-0.005305569	-0.03740963	-0.0008439177	0.001249027	0.04052277	-0.002661111	-0.0007565513	0.0008004819
	-0.0008439177	0.001249027	-0.001538162	-0.0320056	-0.001182237	0.001619078	0.01364372	-0.03304038
	0.04052277	-0.002661111	-0.001182237	0.001619078	-0.005881131	-0.03772859	-0.0008347218	0.001034256
	-0.0007565513	0.0008004819	0.01364372	-0.03304037	-0.0008347218	0.001034256	-0.001394166	-0.03035753
1.7e+08	-0.005651953	-0.03369419	-0.0007139861	0.001412342	0.03702151	-0.002266738	-0.0006799184	0.000958947
	-0.0007139861	0.001412342	-0.003061379	-0.02990145	-0.001082431	0.001848214	0.004226496	-0.03054411
	0.03702151	-0.002266738	-0.001082431	0.001848214	-0.006216817	-0.03379835	-0.0007460116	0.00119081
	-0.0006799184	0.000958947	0.004226496	-0.03054411	-0.0007460116	0.00119081	-0.002818618	-0.02842295
1.8e+08	-0.004734973	-0.03041268	-0.0005530914	0.001568115	0.03388923	-0.0005593158	-0.0005708639	0.001112423
	-0.0005530914	0.001568115	-0.004187796	-0.0280979	-0.0009280647	0.002079946	-0.004427347	-0.02549122
	0.03388923	-0.0005593156	-0.0009280647	0.002079946	-0.005243738	-0.03031875	-0.0006292967	0.001351036
	-0.0005708639	0.001112423	-0.004427347	-0.02549122	-0.0006292967	0.001351036	-0.003896198	-0.02677757
1.9e+08	-0.002754154	-0.02786766	-0.0003588252	0.001709881	0.03150268	0.00229964	-0.0004287782	0.00125409
	-0.0003588252	0.001709881	-0.005118918	-0.0266182	-0.0007176019	0.002300344	-0.01163718	-0.01813636
	0.03150268	0.00229964	-0.0007176019	0.002300344	-0.00316704	-0.02760054	-0.0004784016	0.001509223
	-0.0004287782	0.00125409	-0.01163718	-0.01813636	-0.0004784016	0.001509223	-0.004818251	-0.02543374
2e+08	2.491701e-05	-0.02628783	-0.0001307331	0.001829501	0.03017674	0.00604992	-0.0002546897	0.001376595
	-0.0001307331	0.001829501	-0.006036662	-0.0254064	-0.0004451672	0.002498309	-0.01680688	-0.00891134
	0.03017674	0.00604992	-0.0004451672	0.002498309	-0.0002602135	-0.0258789	-0.0002887175	0.001656706
	-0.0002546897	0.001376595	-0.01680688	-0.00891134	-0.0002887175	0.001656706	-0.005755564	-0.02432919
2.1e+08	0.003293337	-0.025815	0.0001297022	0.001918184	0.03014105	0.0103543	-5.141583e-05	0.001472619
	0.0001297022	0.001918184	-0.007076865	-0.02434114	-0.0001242277	0.002656073	-0.01947002	0.001601767
	0.03014105	0.0103543	-0.0001242277	0.002656073	0.00316013	-0.02530115	-5.847939e-05	0.001782801
	-5.141583e-05	0.001472619	-0.01947002	0.001601767	-5.847939e-05	0.001782801	-0.006832027	-0.02333917
2.2e+08	0.006727446	-0.02649894	0.0004180244	0.001966863	0.0315213	0.0148252	0.0001763834	0.001535327
	0.0004180244	0.001966863	-0.008309037	-0.02325586	0.0002364299	0.002763159	-0.01932694	0.01270947
	0.0315213	0.0148252	0.0002364299	0.002763159	0.006760393	-0.02592009	0.0002106172	0.001875421
	0.0001763834	0.001535327	-0.01932694	0.01270947	0.0002106172	0.001875421	-0.008105957	-0.02229795
2.3e+08	0.01001351	-0.0282995	0.0007268841	0.001967363	0.03433023	0.01905527	0.0004223162	0.001558948
	0.0007268841	0.001967363	-0.009723715	-0.02196697	0.0006260326	0.002811715	-0.01627034	0.02365465
	0.03433023	0.01905527	0.0006260326	0.002811715	0.01021735	-0.02769658	0.0005128051	0.001922557
	0.0004223162	0.001558948	-0.01627034	0.02365465	0.0005128051	0.001922557	-0.009558684	-0.02102504
2.4e+08	0.01287227	-0.03109577	0.001046562	0.001913344	0.03846709	0.0226503	0.0006785972	0.001539221
	0.001046562	0.001913344	-0.01123042	-0.02030381	0.001032919	0.002796675	-0.01039667	0.03366957
	0.03846709	0.0226503	0.001032919	0.002796675	0.01324222	-0.03050864	0.0008383835	0.00191367
	0.0006785972	0.001539221	-0.01039667	0.03366957	0.0008383835	0.00191367	-0.01109142	-0.019355
2.5e+08	0.01507865	-0.03470182	0.001365366	0.001801145	0.04372584	0.02525946	0.0009365416	0.001473716
	0.001365366	0.001801145	-0.01266561	-0.01813826	0.001445194	0.002715537	-0.002003071	0.04203073
	0.04372584	0.02525946	0.001445194	0.002715537	0.01560093	-0.03416692	0.001174277	0.001841149
	0.0009365416	0.001473716	-0.002003071	0.04203073	0.001174277	0.001841149	-0.01253545	-0.01716659
2.6e+08	0.01647467	-0.03888591	0.001670721	0.001630227	0.04981208	0.02660292	0.001187004	0.001362147
	0.001670721	0.001630227	-0.01381155	-0.01540998	0.0018513	0.002568118	0.008430131	0.04811111
	0.04981208	0.02660292	0.0018513	0.002568118	0.01712767	-0.03843464	0.001505163	0.001701296
	0.001187004	0.001362147	0.008430131	0.04811111	0.001505163	0.001701296	-0.01366922	-0.01440724
2.7e+08	0.01697777	-0.04339309	0.001950172	0.001403392	0.05636695	0.02649353	0.00142109	0.001206201
	0.001950172	0.001403392	-0.01442208	-0.01214441	0.002240263	0.00235615	0.02027103	0.05142453
	0.05636695	0.02649353	0.002240263	0.00235615	0.01773367	-0.04304964	0.001814883	0.001494974
	0.00142109	0.001206201	0.02027103	0.05142453	0.001814883	0.001494974	-0.01424566	-0.01111062
2.8e+08	0.01658072	-0.04796717	0.002192409	0.001126548	0.06299558	0.02484964	0.001630536	0.001009568
	0.002192409	0.001126548	-0.0142538	-0.008461617	0.002602003	0.002082768	0.03277759	0.05166166
	0.06299558	0.02484964	0.002602003	0.002082768	0.01740734	-0.04774732	0.002087983	0.00122771
	0.001630536	0.001009568	0.03277759	0.05166166	0.002087983	0.00122771	-0.01402306	-0.007404763
2.9e+08	0.01534582	-0.05237094	0.002388099	0.0008081577	0.06929783	0.0217008	0.001808302	0.000777512
	0.002388099	0.0008081577	-0.01309946	-0.004573315	0.002927196	0.001752387	0.04514699	0.04871245
	0.06929783	0.0217008	0.002927196	0.001752387	0.01620907	-0.05228188	0.002311257	0.0009090826
	0.001808302	0.000777512	0.04514699	0.04871245	0.002311257	0.0009090826	-0.01279738	-0.003508645
3e+08	0.01339506	-0.05640447	0.002530547	0.0004583801	0.07489919	0.01718289	0.001948846	0.0005164598
	0.002530547	0.0004583801	-0.01081867	-0.0007700158	0.003207246	0.001370568	0.05656857	0.04267491
	0.07489919	0.01718289	0.003207246	0.001370568	0.01426103	-0.05644402	0.002474845	0.0005518236
	0.001948846	0.0005164598	0.05656857	0.04267491	0.002474845	0.0005518236	-0.01043384	0.0002814505
3.1e+08	0.01089485	-0.05991777	0.002615947	8.816933e-05	0.07947907	0.01152725	0.002048252	0.0002334486
	0.002615947	8.816933e-05	-0.007363794	0.002602003	0.003434326	0.0009438514	0.06627726	0.03385104
	0.07947907	0.01152725	0.003434326	0.0009438514	0.01173204	-0.06007521	0.00257305	0.0001705208
	0.002048252	0.0002334486	0.06627726	0.03385104	0.00257305	0.0001705208	-0.006891614	0.003614683
3.2e+08	0.008039137	-0.06281934	0.002643225	-0.0002917149	0.08279348	0.005040214	0.002104215	-6.418685e-05
	0.002643225	-0.0002917149	-0.002797524	0.005170411	0.003601446	0.000480062	0.07360327	0.0227288
	0.08279348	0.005040214	0.003601446	0.000480062	0.00882077	-0.06307628	0.002604518	-0.0002200475
	0.002104215	-6.418685e-05	0.07360327	0.0227288	0.002604518	-0.0002200475	-0.002242412	0.006117029
3.3e+08	0.005031579	-0.06507924	0.00261366	-0.0006714535	0.08469157	-0.001920583	0.002115884	-0.0003694538
	0.00261366	-0.0006714535	0.002698465	0.006572538	0.003702654	-1.205094e-05	0.07801535	0.009952759
	0.08469157	-0.001920583	0.003702654	-1.205094e-05	0.005737571	-0.06541102	0.002571911	-0.0006062316
	0.002115884	-0.0003694538	0.07801535	0.009952759	0.002571911	-0.0006062316	0.003323602	0.007425974
3.4e+08	0.002068125	-0.06672741	0.002530242	-0.001042703	0.08512619	-0.008973767	0.002083581	-0.0006759037
	0.002530242	-0.001042703	0.008826128	0.006491879	0.00373331	-0.0005224647	0.07915668	-0.003714672
	0.08512619	-0.008973767	0.00373331	-0.0005224647	0.002685942	-0.06710508	0.002481085	-0.0009767259
	0.002083581	-0.0006759037	0.07915668	-0.003714672	0.002481085	-0.0009767259	0.009499695	0.007228564
3.5e+08	-0.0006793279	-0.06784725	0.002396879	-0.001398831	0.08415424	-0.01574384	0.002008365	-0.0009777647
	0.002396879	-0.001398831	0.01518499	0.004694183	0.003690439	-0.001040356	0.07686844	-0.01743918
	0.08415424	-0.01574384	0.003690439	-0.001040356	-0.0001531365	-0.06824018	0.002339903	-0.001323273
	0.002008365	-0.0009777647	0.07686844	-0.01743918	0.002339903	-0.001323273	0.01587765	0.005295583
3.6e+08	-0.003075595	-0.06856601	0.002217709	-0.001734899	0.08193117	-0.02188811	0.001891768	-0.00127001
	0.002217709	-0.001734899	0.02129593	0.001058302	0.003572856	-0.001554439	0.0712036	-0.03036545
	0.08193117	-0.02188811	0.003572856	-0.001554439	-0.00263562	-0.06894333	0.002156928	-0.001641059
	0.001891768	-0.00127001	0.0712036	-0.03036545	0.002156928	-0.001641059	0.02197201	0.001514339
3.7e+08	-0.005032264	-0.06904067	0.001996373	-0.002047264	0.07869768	-0.02712239	0.00173535	-0.001548254
	0.001996373	-0.002047264	0.02663433	-0.004398716	0.003381477	-0.002053232	0.06242665	-0.04167031
	0.07869768	-0.02712239	0.003381477	-0.002053232	-0.004664529	-0.06937482	0.001939996	-0.001928478
	0.00173535	-0.001548254	0.06242665	-0.04167031	0.001939996	-0.001928478	0.02725432	-0.004088418
3.8e+08	-0.006513038	-0.0694436	0.001735784	-0.002332935	0.07476021	-0.03124148	0.001540666	-0.001808309
	0.001735784	-0.002332935	0.03067008	-0.01150789	0.00311932	-0.002525601	0.05100096	-0.05061362
	0.07476021	-0.03124148	0.00311932	-0.002525601	-0.006195753	-0.0697123	0.00169525	-0.00218621
	0.001540666	-0.001808309	0.05100096	-0.05061362	0.00169525	-0.00218621	0.03119309	-0.01133295
3.9e+08	-0.007535416	-0.06994731	0.001437939	-0.002589002	0.07046724	-0.0341339	0.001309077	-0.002046061
	0.001437939	-0.002589002	0.0329112	-0.01994421	0.00279125	-0.002961411	0.03756454	-0.05658679
	0.07046724	-0.0341339	0.00279125	-0.002961411	-0.007240991	-0.07013466	0.001426326	-0.002416315
	0.001309077	-0.002046061	0.03756454	-0.05658679	0.001426326	-0.002416315	0.03329902	-0.01988217
4e+08	-0.008166713	-0.07070811	0.001104183	-0.002811953	0.06618155	-0.03578951	0.001041968	-0.002257047
	0.001104183	-0.002811953	0.03295124	-0.02923655	0.002403551	-0.003351864	0.0228925	-0.05915289
	0.06618155	-0.03578951	0.002403551	-0.003351864	-0.007863327	-0.07080737	0.001134092	-0.002620835
	0.001041968	-0.002257047	0.0228925	-0.05915289	0.001134092	-0.002620835	0.03317058	-0.02925478
4.1e+08	-0.00851662	-0.07185314	0.0007359318	-0.00299602	0.06225199	-0.03629921	0.0007409731	-0.002436388
	0.0007359318	-0.00299602	0.03051219	-0.03879111	0.001933478	-0.00370755	0.007851894	-0.05807747
	0.06225199	-0.03629921	0.001933478	-0.00370755	-0.008171219	-0.07186674	0.0008184351	-0.002800062
	0.0007409731	-0.002436388	0.007851894	-0.05807747	0.0008184351	-0.002800062	0.03053781	-0.03884747
4.2e+08	-0.008726898	-0.07347023	0.0003352353	-0.003136061	0.05898591	-0.03584865	0.0004083542	-0.002578452
	0.0003352353	-0.003136061	0.02548004	-0.04792691	0.001399668	-0.0040025	-0.006651734	-0.05334762
	0.05898591	-0.03584865	0.001399668	-0.0040025	-0.008307449	-0.07341042	0.0004758007	-0.002953186
	0.0004083542	-0.002578452	-0.006651734	-0.05334762	0.0004758007	-0.002953186	0.02529787	-0.04797159
4.3e+08	-0.008957071	-0.07560045	-9.492957e-05	-0.003225753	0.05662451	-0.03470085	4.734001e-05	-0.002677018
	-9.492957e-05	-0.003225753	0.01793267	-0.055924	0.0008259897	-0.004221089	-0.01973105	-0.04517555
	0.05662451	-0.03470085	0.0008259897	-0.004221089	-0.008436144	-0.07548881	0.0001021082	-0.003075838
	4.734001e-05	-0.002677018	-0.01973105	-0.04517555	0.0001021082	-0.003075838	0.01754187	-0.05590299
4.4e+08	-0.009370586	-0.07823609	-0.0005495319	-0.003257474	0.05532327	-0.03317628	-0.0003371885	-0.002725669
	-0.0005495319	-0.003257474	0.00815147	-0.06207803	0.0002225284	-0.00435974	-0.03057291	-0.03398878
	0.05532327	-0.03317628	0.0002225284	-0.00435974	-0.008726862	-0.07810192	-0.0003047648	-0.003160111
	-0.0003371885	-0.002725669	-0.03057291	-0.03398878	-0.0003047648	-0.003160111	0.007565708	-0.06193627
4.5e+08	-0.0101202	-0.08132266	-0.001021085	-0.00322367	0.05513988	-0.03162589	-0.0007385995	-0.002718221
	-0.001021085	-0.00322367	-0.003381864	-0.06575837	-0.0004011197	-0.00441581	-0.03849103	-0.02040557
	0.05513988	-0.03162589	-0.0004011197	-0.00441581	-0.009341149	-0.08120087	-0.0007443691	-0.003195477
	-0.0007385995	-0.002718221	-0.03849103	-0.02040557	-0.0007443691	-0.003195477	-0.004134174	-0.06544421
4.6e+08	-0.01133511	-0.08476495	-0.001499346	-0.003117773	0.0560289	-0.03040215	-0.001148457	-0.002649253
	-0.001499346	-0.003117773	-0.01600719	-0.06646685	-0.001035531	-0.00438711	-0.04296986	-0.005197445
	0.0560289	-0.03040215	-0.001035531	-0.00438711	-0.01041827	-0.08469349	-0.001212454	-0.003169742
	-0.001148457	-0.002649253	-0.04296986	-0.005197445	-0.001212454	-0.003169742	-0.01688409	-0.06593655
4.7e+08	-0.01311061	-0.08843561	-0.001971771	-0.002935172	0.05784601	-0.02982929	-0.001556436	-0.002514832
	-0.001971771	-0.002935172	-0.02892453	-0.06389004	-0.001671398	-0.004271501	-0.04369812	0.01075841
	0.05784601	-0.02982929	-0.001671398	-0.004271501	-0.01206407	-0.08845281	-0.001699924	-0.003070868
	-0.001556436	-0.002514832	-0.04369812	0.01075841	-0.001699924	-0.003070868	-0.02987202	-0.06310992
4.8e+08	-0.01550126	-0.09218836	-0.00242389	-0.002674175	0.06036044	-0.03017743	-0.001950838	-0.00231304
	-0.00242389	-0.002674175	-0.04124765	-0.05793465	-0.002298973	-0.004066758	-0.04058817	0.02653264
	0.06036044	-0.03017743	-0.002298973	-0.004066758	-0.01434349	-0.09232928	-0.0021932	-0.002888491
	-0.001950838	-0.00231304	-0.04058817	0.02653264	-0.0021932	-0.002888491	-0.0422028	-0.05688646
4.9e+08	-0.01851853	-0.0958692	-0.002840221	-0.002336669	0.06327373	-0.03164011	-0.002319025	-0.002044575
