!$
! Info: Touchstone file created by Circ.  Input file=Intel_C2M_200G_10p5in_202208016_staggered.circ
!$
# Hz S RI R 50
0	0.02984892	4.919992e-24	0.0001002771	1.526826e-22	0.0001427811	3.436038e-22	0.0001002706	1.524474e-22
	0.0001002771	1.526826e-22	0.02986168	5.336324e-24	0.0001002814	1.528108e-22	0.0001423827	3.407171e-22
	0.0001428374	3.437278e-22	0.0001002813	1.528125e-22	0.02984388	5.161554e-24	0.0001002728	1.525617e-22
	0.0001002705	1.524492e-22	0.000142439	3.408415e-22	0.0001002728	1.525617e-22	0.02985967	5.046696e-24
1e+07	0.03638208	0.003357674	1.016745e-05	4.129805e-05	0.002730478	0.007849311	1.552401e-05	2.864471e-05
	1.016745e-05	4.129804e-05	0.03631172	0.004154055	8.599175e-06	5.022638e-05	0.002737044	0.007907832
	0.002730478	0.007849311	8.599175e-06	5.022638e-05	0.03629318	0.00421284	1.037629e-05	4.3253e-05
	1.552401e-05	2.864471e-05	0.002737044	0.007907832	1.037629e-05	4.3253e-05	0.03641055	0.003366441
2e+07	0.04237066	0.0004109103	1.963142e-05	3.246569e-05	0.006523454	0.01408022	1.136117e-05	1.686809e-05
	1.963143e-05	3.24657e-05	0.04323319	0.001610697	3.805617e-05	4.833003e-05	0.006537194	0.01419502
	0.006523461	0.0140802	3.805617e-05	4.833003e-05	0.04323699	0.001725848	2.194513e-05	3.532301e-05
	1.136117e-05	1.686809e-05	0.0065372	0.01419501	2.194512e-05	3.532301e-05	0.04241231	0.0004145629
3e+07	0.04561534	-0.005593214	3.217137e-05	2.50574e-05	0.01202236	0.01894746	9.035174e-06	1.415938e-05
	3.217137e-05	2.50574e-05	0.04714571	-0.004534528	6.197047e-05	3.791052e-05	0.01204775	0.019114
	0.01202235	0.0189475	6.197048e-05	3.791052e-05	0.04718079	-0.004363446	3.604452e-05	2.76828e-05
	9.035177e-06	1.415938e-05	0.01204774	0.01911405	3.604452e-05	2.76828e-05	0.04565778	-0.005595192
4e+07	0.0463781	-0.01254503	4.074912e-05	1.580586e-05	0.01876405	0.02185168	1.005446e-05	1.040403e-05
	4.074912e-05	1.580585e-05	0.04838674	-0.01182388	7.806279e-05	2.166222e-05	0.01880237	0.02206328
	0.01876406	0.0218517	7.806279e-05	2.166221e-05	0.0484699	-0.01161301	4.579935e-05	1.776564e-05
	1.005446e-05	1.040403e-05	0.01880238	0.0220633	4.579935e-05	1.776563e-05	0.04641864	-0.0125589
5e+07	0.0450361	-0.01946339	4.564215e-05	5.366976e-06	0.02611617	0.02255828	1.17598e-05	5.699142e-06
	4.564215e-05	5.366975e-06	0.04735586	-0.01918675	8.687138e-05	2.374269e-06	0.02616556	0.02280793
	0.02611618	0.02255829	8.687138e-05	2.374268e-06	0.04749409	-0.01895411	5.155275e-05	6.391924e-06
	1.17598e-05	5.699141e-06	0.02616557	0.02280793	5.155275e-05	6.391923e-06	0.04506766	-0.01949066
6e+07	0.04195048	-0.02574788	4.715388e-05	-5.396282e-06	0.03341741	0.02097976	1.184701e-05	1.269065e-06
	4.715388e-05	-5.396281e-06	0.04442642	-0.02597106	8.892841e-05	-1.782013e-05	0.03347291	0.02126137
	0.03341741	0.02097974	8.892841e-05	-1.782013e-05	0.04462064	-0.02573586	5.362458e-05	-5.48852e-06
	1.184701e-05	1.269066e-06	0.03347292	0.02126135	5.362458e-05	-5.488519e-06	0.04196674	-0.02578755
7e+07	0.03753438	-0.03096858	4.561634e-05	-1.574126e-05	0.04000383	0.0172202	1.05576e-05	-2.516038e-06
	4.561634e-05	-1.574126e-05	0.04002108	-0.03171025	8.496071e-05	-3.720847e-05	0.04005789	0.01752977
	0.04000382	0.0172202	8.496071e-05	-3.720847e-05	0.04026575	-0.03149173	5.234594e-05	-1.707079e-05
	1.05576e-05	-2.516038e-06	0.04005788	0.01752977	5.234594e-05	-1.707079e-05	0.03752989	-0.0310187
8e+07	0.03225663	-0.03486699	4.13874e-05	-2.506246e-05	0.04526764	0.01156645	8.202349e-06	-5.331572e-06
	4.13874e-05	-2.506246e-05	0.0346165	-0.03611802	7.574022e-05	-5.447001e-05	0.04531091	0.01190298
	0.04526764	0.01156645	7.574022e-05	-5.447001e-05	0.03489993	-0.03593318	4.806402e-05	-2.769888e-05
	8.202349e-06	-5.331573e-06	0.04531091	0.01190298	4.806402e-05	-2.769888e-05	0.03222682	-0.03492502
9e+07	0.02659777	-0.03735275	3.479413e-05	-3.291593e-05	0.04870562	0.004463723	5.155019e-06	-6.953613e-06
	3.479413e-05	-3.291593e-05	0.02869508	-0.03908404	6.198461e-05	-6.865571e-05	0.04872822	0.004829846
	0.04870562	0.004463724	6.198461e-05	-6.865571e-05	0.02899994	-0.03894541	4.10802e-05	-3.689135e-05
	5.155018e-06	-6.953614e-06	0.04872823	0.004829847	4.108019e-05	-3.689135e-05	0.0265384	-0.03741552
1e+08	0.02106465	-0.03846553	2.533775e-05	-3.924161e-05	0.04995726	-0.003522602	1.614497e-06	-7.223679e-06
	2.533775e-05	-3.924161e-05	0.02271329	-0.04065418	4.284385e-05	-7.948747e-05	0.04995016	-0.003120255
	0.04995725	-0.003522603	4.284385e-05	-7.948747e-05	0.02301822	-0.04056814	3.074221e-05	-4.46208e-05
	1.614497e-06	-7.223679e-06	0.04995016	-0.003120255	3.074221e-05	-4.46208e-05	0.02097175	-0.03852942
1.1e+08	0.01586436	-0.03873967	1.475616e-05	-3.890632e-05	0.04881292	-0.01175086	-9.230424e-07	-5.340178e-06
	1.475616e-05	-3.890632e-05	0.01691287	-0.04102214	2.219855e-05	-7.736061e-05	0.04876911	-0.01130282
	0.04881291	-0.01175086	2.219855e-05	-7.736061e-05	0.01718264	-0.04104376	1.87175e-05	-4.487805e-05
	-9.23042e-07	-5.340178e-06	0.0487691	-0.01130282	1.87175e-05	-4.487805e-05	0.01571699	-0.03885418
1.2e+08	0.01104891	-0.03803211	7.204452e-06	-3.655587e-05	0.04528958	-0.01948452	-2.0764e-06	-3.289067e-06
	7.204452e-06	-3.655587e-05	0.01163863	-0.04027105	7.625968e-06	-7.190376e-05	0.04520459	-0.01897801
	0.04528958	-0.01948452	7.625968e-06	-7.190376e-05	0.01183029	-0.04033304	9.962303e-06	-4.27517e-05
	-2.076399e-06	-3.289067e-06	0.04520459	-0.01897801	9.962303e-06	-4.27517e-05	0.01082242	-0.0381291
1.3e+08	0.006901604	-0.03658008	3.243902e-06	-3.304012e-05	0.03959156	-0.02608268	-2.645168e-06	-1.475323e-06
	3.243902e-06	-3.304012e-05	0.007112793	-0.03870208	4.159241e-06	-6.390756e-05	0.03946537	-0.02550294
	0.03959155	-0.02608268	4.159241e-06	-6.390756e-05	0.007230242	-0.03876707	5.673048e-06	-3.907995e-05
	-2.645167e-06	-1.475323e-06	0.03946537	-0.02550294	5.673048e-06	-3.907995e-05	0.006616755	-0.03662789
1.4e+08	0.003524785	-0.03466215	2.000451e-06	-2.914786e-05	0.03208945	-0.03097063	-2.740041e-06	1.447505e-07
	2.000451e-06	-2.914786e-05	0.003426835	-0.03661839	1.208913e-06	-5.639261e-05	0.03192697	-0.03030235
	0.03208945	-0.03097062	1.208913e-06	-5.639261e-05	0.003476192	-0.03667151	3.910806e-06	-3.501554e-05
	-2.74004e-06	1.447503e-07	0.03192697	-0.03030234	3.910807e-06	-3.501554e-05	0.00320087	-0.03465651
1.5e+08	0.000916646	-0.03254618	1.042809e-06	-2.57292e-05	0.02329833	-0.03368807	-2.249606e-06	1.585305e-06
	1.042809e-06	-2.57292e-05	0.000573351	-0.03430514	-9.215896e-07	-4.921522e-05	0.02310959	-0.03291699
	0.02329833	-0.03368807	-9.215895e-07	-4.921522e-05	0.0005545051	-0.03433599	2.559948e-06	-3.121353e-05
	-2.249606e-06	1.585305e-06	0.02310959	-0.03291699	2.559948e-06	-3.121353e-05	0.0005618546	-0.0324904
1.6e+08	-0.001008607	-0.03046183	4.640297e-07	-2.255929e-05	0.01384376	-0.03392583	-1.358745e-06	2.675332e-06
	4.640298e-07	-2.255929e-05	-0.001538162	-0.0320056	-2.175984e-06	-4.245713e-05	0.01364372	-0.03304038
	0.01384376	-0.03392582	-2.175984e-06	-4.245713e-05	-0.001627905	-0.03200096	1.509181e-06	-2.776524e-05
	-1.358745e-06	2.675332e-06	0.01364372	-0.03304037	1.509181e-06	-2.776524e-05	-0.001394166	-0.03035753
1.7e+08	-0.002399687	-0.02857965	2.452152e-07	-1.967154e-05	0.004418773	-0.03155121	-3.142338e-07	3.343663e-06
	2.452152e-07	-1.967154e-05	-0.003061379	-0.02990145	-2.607797e-06	-3.621753e-05	0.004226496	-0.03054411
	0.004418774	-0.0315512	-2.607797e-06	-3.621753e-05	-0.003222013	-0.02984348	8.415227e-07	-2.455595e-05
	-3.142338e-07	3.343663e-06	0.004226496	-0.03054411	8.415227e-07	-2.455595e-05	-0.002818618	-0.02842295
1.8e+08	-0.003442673	-0.02699579	3.169833e-07	-1.708205e-05	-0.004264766	-0.02662158	1.279548e-06	3.551068e-06
	3.169833e-07	-1.708205e-05	-0.004187796	-0.0280979	-2.287065e-06	-3.058922e-05	-0.004427347	-0.02549122
	-0.004264765	-0.02662158	-2.287065e-06	-3.058922e-05	-0.004413246	-0.02796628	5.00892e-07	-2.15996e-05
	1.279548e-06	3.551068e-06	-0.004427347	-0.02549122	5.00892e-07	-2.15996e-05	-0.003896198	-0.02677757
1.9e+08	-0.004333332	-0.02572625	6.661646e-07	-1.483752e-05	-0.0115274	-0.01938495	2.875348e-06	3.329791e-06
	6.661646e-07	-1.483752e-05	-0.005118918	-0.0266182	-1.293436e-06	-2.56758e-05	-0.01163718	-0.01813636
	-0.0115274	-0.01938494	-1.293436e-06	-2.56758e-05	-0.005395485	-0.02639331	4.874553e-07	-1.894773e-05
	2.875348e-06	3.329791e-06	-0.01163718	-0.01813636	4.874553e-07	-1.894773e-05	-0.004818251	-0.02543374
2e+08	-0.005247675	-0.02470946	1.226792e-06	-1.296886e-05	-0.01677212	-0.01026596	4.327676e-06	2.710912e-06
	1.226792e-06	-1.296886e-05	-0.006036662	-0.0254064	2.248473e-07	-2.155331e-05	-0.01680688	-0.00891134
	-0.01677212	-0.01026596	2.248473e-07	-2.155331e-05	-0.006344128	-0.02507319	7.45901e-07	-1.663816e-05
	4.327676e-06	2.710912e-06	-0.01680688	-0.00891134	7.45901e-07	-1.663816e-05	-0.005755564	-0.02432919
2.1e+08	-0.006315521	-0.02381986	1.919421e-06	-1.148647e-05	-0.01952936	0.0001602414	5.548571e-06	1.736785e-06
	1.919421e-06	-1.148647e-05	-0.007076865	-0.02434114	2.100909e-06	-1.826356e-05	-0.01947002	0.001601767
	-0.01952936	0.0001602414	2.100909e-06	-1.826356e-05	-0.007389967	-0.02389079	1.205135e-06	-1.469148e-05
	5.548571e-06	1.736785e-06	-0.01947002	0.001601767	1.205135e-06	-1.469148e-05	-0.006832027	-0.02333917
2.2e+08	-0.007600603	-0.02288786	2.662118e-06	-1.038428e-05	-0.01949415	0.01120626	6.460198e-06	4.71313e-07
	2.662118e-06	-1.038428e-05	-0.008309037	-0.02325586	4.159331e-06	-1.581355e-05	-0.01932694	0.01270947
	-0.01949415	0.01120626	4.159331e-06	-1.581355e-05	-0.008600266	-0.02268814	1.788789e-06	-1.311388e-05
	6.460198e-06	4.713129e-07	-0.01932694	0.01270947	1.788789e-06	-1.311388e-05	-0.008105957	-0.02229795
2.3e+08	-0.009087913	-0.02172788	3.375428e-06	-9.638201e-06	-0.01655204	0.02211947	7.000896e-06	-1.00292e-06
	3.375428e-06	-9.638201e-06	-0.009723715	-0.02196697	6.226234e-06	-1.41729e-05	-0.01627034	0.02365465
	-0.01655204	0.02211947	6.226234e-06	-1.41729e-05	-0.009966839	-0.02128989	2.419883e-06	-1.189504e-05
	7.000896e-06	-1.00292e-06	-0.01627034	0.02365465	2.419883e-06	-1.189504e-05	-0.009558684	-0.02102504
2.4e+08	-0.01068167	-0.02016803	3.987354e-06	-9.207149e-06	-0.01079094	0.03213446	7.130126e-06	-2.589116e-06
	3.987354e-06	-9.207149e-06	-0.01123042	-0.02030381	8.139002e-06	-1.32751e-05	-0.01039667	0.03366957
	-0.01079094	0.03213446	8.139002e-06	-1.32751e-05	-0.01140228	-0.0195328	3.025372e-06	-1.10083e-05
	7.130126e-06	-2.589116e-06	-0.01039667	0.03366957	3.025372e-06	-1.10083e-05	-0.01109142	-0.019355
2.5e+08	-0.01221331	-0.01807959	4.437665e-06	-9.035246e-06	-0.00249875	0.04052761	6.832022e-06	-4.182111e-06
	4.437665e-06	-9.035246e-06	-0.01266561	-0.01813826	9.754992e-06	-1.302101e-05	-0.002003071	0.04203073
	-0.00249875	0.04052761	9.754992e-06	-1.302101e-05	-0.01274922	-0.01729455	3.540572e-06	-1.041184e-05
	6.832022e-06	-4.182111e-06	-0.002003071	0.04203073	3.540572e-06	-1.041184e-05	-0.01253545	-0.01716659
2.6e+08	-0.01346025	-0.01540223	4.681647e-06	-9.055145e-06	0.007853346	0.04666897	6.117299e-06	-5.675073e-06
	4.681647e-06	-9.055146e-06	-0.01381155	-0.01540998	1.095918e-05	-1.328447e-05	0.008430131	0.04811111
	0.007853347	0.04666897	1.095918e-05	-1.328447e-05	-0.0137965	-0.01451837	3.912926e-06	-1.00513e-05
	6.117299e-06	-5.675073e-06	0.008430131	0.04811111	3.912926e-06	-1.00513e-05	-0.01366922	-0.01440724
2.7e+08	-0.0141716	-0.01216193	4.692526e-06	-9.192144e-06	0.0196417	0.05006694	5.023038e-06	-6.966476e-06
	4.692526e-06	-9.192144e-06	-0.01442208	-0.01214441	1.166986e-05	-1.391957e-05	0.02027103	0.05142453
	0.0196417	0.05006694	1.166986e-05	-1.391957e-05	-0.01430556	-0.01123098	4.104932e-06	-9.862921e-06
	5.023038e-06	-6.966476e-06	0.02027103	0.05142453	4.104932e-06	-9.862921e-06	-0.01424566	-0.01111062
2.8e+08	-0.01409944	-0.008479998	4.46295e-06	-9.368953e-06	0.03213094	0.05040441	3.610727e-06	-7.966941e-06
	4.46295e-06	-9.368953e-06	-0.0142538	-0.008461617	1.184244e-05	-1.476916e-05	0.03277759	0.05166166
	0.03213094	0.05040441	1.184244e-05	-1.476916e-05	-0.0140406	-0.00755133	4.09614e-06	-9.777668e-06
	3.610727e-06	-7.966941e-06	0.03277759	0.05166166	4.09614e-06	-9.777668e-06	-0.01402306	-0.007404763
2.9e+08	-0.01303217	-0.004569935	4.005047e-06	-9.510706e-06	0.0445227	0.04756188	1.962335e-06	-8.605239e-06
	4.005047e-06	-9.510706e-06	-0.01309946	-0.004573315	1.147087e-05	-1.567405e-05	0.04514699	0.04871245
	0.0445227	0.04756188	1.147087e-05	-1.567405e-05	-0.01280033	-0.003688146	3.883883e-06	-9.725731e-06
	1.962335e-06	-8.605239e-06	0.04514699	0.04871245	3.883883e-06	-9.725731e-06	-0.01279738	-0.003508645
3e+08	-0.01082544	-0.000724784	3.349051e-06	-9.549684e-06	0.05600824	0.04162676	1.748801e-07	-8.832882e-06
	3.349051e-06	-9.549684e-06	-0.01081867	-0.0007700158	1.058667e-05	-1.648211e-05	0.05656857	0.04267491
	0.05600824	0.04162676	1.058667e-05	-1.648211e-05	-0.01044941	7.283708e-05	3.482873e-06	-9.640865e-06
	1.748801e-07	-8.832882e-06	0.05656857	0.04267491	3.482873e-06	-9.640865e-06	-0.01043384	0.0002814505
3.1e+08	-0.007428008	0.002706047	2.540786e-06	-9.429749e-06	0.06582154	0.03289001	-1.645943e-06	-8.627274e-06
	2.540786e-06	-9.429749e-06	-0.007363794	0.002602003	9.255859e-06	-1.705695e-05	0.06627726	0.03385104
	0.06582154	0.03289001	9.255859e-06	-1.705695e-05	-0.006943108	0.003390564	2.923491e-06	-9.464675e-06
	-1.645943e-06	-8.627274e-06	0.06627726	0.03385104	2.923491e-06	-9.464675e-06	-0.006891614	0.003614683
3.2e+08	-0.002899586	0.005346536	1.63799e-06	-9.109611e-06	0.07328905	0.02182885	-3.392752e-06	-7.992752e-06
	1.63799e-06	-9.109611e-06	-0.002797524	0.005170411	7.573782e-06	-1.728524e-05	0.07360327	0.0227288
	0.07328905	0.02182885	7.573782e-06	-1.728524e-05	-0.002346305	0.005899087	2.249242e-06	-9.150064e-06
	-3.392752e-06	-7.992752e-06	0.07360327	0.0227288	2.249242e-06	-9.150064e-06	-0.002242412	0.006117029
3.3e+08	0.002580589	0.006829817	7.060585e-07	-8.565097e-06	0.07787301	0.009078086	-4.963293e-06	-6.959771e-06
	7.060585e-07	-8.565097e-06	0.002698465	0.006572538	5.658424e-06	-1.70825e-05	0.07801535	0.009952759
	0.07787301	0.009078086	5.658424e-06	-1.70825e-05	0.003160083	0.007241453	1.51314e-06	-8.663842e-06
	-4.963293e-06	-6.959771e-06	0.07801535	0.009952759	1.51314e-06	-8.663842e-06	0.003323602	0.007425974
3.4e+08	0.008716171	0.006834772	-1.866624e-07	-7.790205e-06	0.07920758	-0.004607913	-6.266803e-06	-5.582515e-06
	-1.866624e-07	-7.790205e-06	0.008826128	0.006491879	3.642805e-06	-1.639733e-05	0.07915668	-0.003714672
	0.07920758	-0.004607913	3.642805e-06	-1.639733e-05	0.009280137	0.007107087	7.739857e-07	-7.988422e-06
	-6.266803e-06	-5.582515e-06	0.07915668	-0.003714672	7.739857e-07	-7.988422e-06	0.009499695	0.007228564
3.5e+08	0.01510775	0.005122192	-9.734595e-07	-6.796744e-06	0.07712289	-0.01840079	-7.229151e-06	-3.93474e-06
	-9.734595e-07	-6.796744e-06	0.01518499	0.004694183	1.666643e-06	-1.521316e-05	0.07686844	-0.01743918
	0.07712289	-0.01840079	1.666643e-06	-1.521316e-05	0.01561712	0.00526553	9.224975e-08	-7.122159e-06
	-7.229151e-06	-3.93474e-06	0.07686844	-0.01743918	9.224973e-08	-7.122159e-06	0.01587765	0.005295583
3.6e+08	0.02127648	0.001565634	-1.59348e-06	-5.612955e-06	0.07165924	-0.03144829	-7.796821e-06	-2.104827e-06
	-1.59348e-06	-5.612955e-06	0.02129593	0.001058302	-1.318894e-07	-1.354854e-05	0.0712036	-0.03036545
	0.07165924	-0.03144829	-1.318894e-07	-1.354854e-05	0.02169652	0.001599038	-4.736671e-07	-6.079099e-06
	-7.796821e-06	-2.104827e-06	0.0712036	-0.03036545	-4.736671e-07	-6.079099e-06	0.02197201	0.001514339
3.7e+08	0.02669714	-0.003823584	-1.995212e-06	-4.281136e-06	0.06306752	-0.04292712	-7.939203e-06	-1.899549e-07
	-1.995212e-06	-4.281136e-06	0.02663433	-0.004398716	-1.624048e-06	-1.145521e-05	0.06242665	-0.04167031
	0.06306752	-0.04292712	-1.624048e-06	-1.145521e-05	0.02699927	-0.003874423	-8.709327e-07	-4.887514e-06
	-7.939203e-06	-1.899549e-07	0.06242665	-0.04167031	-8.709327e-07	-4.887514e-06	0.02725432	-0.004088418
3.8e+08	0.03083786	-0.01088247	-2.139093e-06	-2.854715e-06	0.0517974	-0.05209357	-7.64932e-06	1.709644e-06
	-2.139093e-06	-2.854715e-06	0.03067008	-0.01150789	-2.697639e-06	-9.014836e-06	0.05100096	-0.05061362
	0.0517974	-0.05209357	-2.697639e-06	-9.014836e-06	0.03100038	-0.01098708	-1.055072e-06	-3.588063e-06
	-7.64932e-06	1.709644e-06	0.05100096	-0.05061362	-1.055072e-06	-3.588063e-06	0.03119309	-0.01133295
3.9e+08	0.0332036	-0.01929216	-1.99927e-06	-1.395055e-06	0.03847401	-0.05833181	-6.943248e-06	3.49625e-06
	-1.99927e-06	-1.395055e-06	0.0329112	-0.01994421	-3.263092e-06	-6.33444e-06	0.03756454	-0.05658679
	0.03847401	-0.05833181	-3.263092e-06	-6.33444e-06	0.0332131	-0.0194163	-9.922916e-07	-2.231657e-06
	-6.943248e-06	3.49625e-06	0.03756454	-0.05658679	-9.922916e-07	-2.231657e-06	0.03329902	-0.01988217
4e+08	0.03338301	-0.02858762	-1.564562e-06	3.175641e-08	0.02386133	-0.0611943	-5.858117e-06	5.07962e-06
	-1.564562e-06	3.175641e-08	0.03295124	-0.02923655	-3.258573e-06	-3.540524e-06	0.0228925	-0.05915289
	0.02386133	-0.0611943	-3.258573e-06	-3.540524e-06	0.03323377	-0.02869631	-6.612522e-07	-8.767235e-07
	-5.858117e-06	5.07962e-06	0.0228925	-0.05915289	-6.612522e-07	-8.767235e-07	0.03317058	-0.02925478
4.1e+08	0.03109109	-0.03818077	-8.389773e-07	1.35805e-06	0.00881803	-0.06043294	-4.44926e-06	6.380651e-06
	-8.389773e-07	1.35805e-06	0.03051219	-0.03879111	-2.655077e-06	-7.704351e-07	0.007851894	-0.05807747
	0.00881803	-0.06043294	-2.655077e-06	-7.704351e-07	0.03078505	-0.03823861	-5.625072e-08	4.155515e-07
	-4.44926e-06	6.380651e-06	0.007851894	-0.05807747	-5.625072e-08	4.155515e-07	0.03053781	-0.03884747
4.2e+08	0.02620479	-0.04739425	1.589831e-07	2.517185e-06	-0.005755165	-0.05601888	-2.787422e-06	7.335293e-06
	1.589831e-07	2.517185e-06	0.02548004	-0.04792691	-1.454438e-06	1.831158e-06	-0.006651734	-0.05334762
	-0.005755165	-0.05601888	-1.454438e-06	1.831158e-06	0.02575164	-0.04736773	8.175004e-07	1.580151e-06
	-2.787422e-06	7.335293e-06	-0.006651734	-0.05334762	8.175004e-07	1.580151e-06	0.02529787	-0.04797159
4.3e+08	0.01879141	-0.05550954	1.396134e-06	3.446398e-06	-0.01897154	-0.04814708	-9.545871e-07	7.896655e-06
	1.396134e-06	3.446398e-06	0.01793267	-0.055924	3.072848e-07	4.118358e-06	-0.01973105	-0.04517555
	-0.01897154	-0.04814708	3.072848e-07	4.118358e-06	0.01820727	-0.05536889	1.940012e-06	2.549498e-06
	-9.545871e-07	7.896655e-06	-0.01973105	-0.04517555	1.940012e-06	2.549498e-06	0.01754187	-0.05590299
4.4e+08	0.009120529	-0.06182081	2.825213e-06	4.089394e-06	-0.03001395	-0.0372277	9.596337e-07	8.035937e-06
	2.825213e-06	4.089394e-06	0.00815147	-0.06207803	2.557936e-06	5.956215e-06	-0.03057291	-0.03398878
	-0.03001395	-0.0372277	2.557936e-06	5.956215e-06	0.008427284	-0.06154014	3.273398e-06	3.261154e-06
	9.596337e-07	8.035937e-06	-0.03057291	-0.03398878	3.273398e-06	3.261154e-06	0.007565708	-0.06193627
4.5e+08	-0.002338122	-0.06569228	4.385762e-06	4.399063e-06	-0.0381876	-0.02386282	2.861456e-06	7.743611e-06
	4.385762e-06	4.399063e-06	-0.003381864	-0.06575837	5.192951e-06	7.226978e-06	-0.03849103	-0.02040557
	-0.0381876	-0.02386282	5.192951e-06	7.226978e-06	-0.00311381	-0.06525109	4.764006e-06	3.659855e-06
	2.861456e-06	7.743611e-06	-0.03849103	-0.02040557	4.764006e-06	3.659855e-06	-0.004134174	-0.06544421
4.6e+08	-0.0149353	-0.06661681	6.005301e-06	4.340611e-06	-0.0429642	-0.008810038	4.656467e-06	7.029914e-06
	6.005301e-06	4.340611e-06	-0.01600719	-0.06646685	8.07919e-06	7.837845e-06	-0.04296986	-0.005197445
	-0.0429642	-0.008810038	8.07919e-06	7.837845e-06	-0.0157634	-0.06600108	6.34329e-06	3.701574e-06
	4.656467e-06	7.029914e-06	-0.04296986	-0.005197445	6.34329e-06	3.701574e-06	-0.01688409	-0.06593655
4.7e+08	-0.02787937	-0.06426823	7.601265e-06	3.894942e-06	-0.04401625	0.007063844	6.253307e-06	5.925018e-06
	7.601265e-06	3.894942e-06	-0.02892453	-0.06389004	1.106052e-05	7.72799e-06	-0.04369812	0.01075841
	-0.04401625	0.007063844	1.106052e-05	7.72799e-06	-0.02872715	-0.06346963	7.929824e-06	3.3576e-06
	6.253307e-06	5.925018e-06	-0.04369812	0.01075841	7.929824e-06	3.3576e-06	-0.02987202	-0.06310992
4.8e+08	-0.04028867	-0.05853777	9.084211e-06	3.061745e-06	-0.04123743	0.0228356	7.567564e-06	4.478728e-06
