!$
! Info: Touchstone file created by Circ.  Input file=Intel_C2M_200G_13p0in_202208016_staggered.circ
!$
# Hz S RI R 50
0	0.03173602	1.12206e-23	-0.0001425291	1.745478e-20	0.0003838027	1.186385e-21	-0.0001383232	1.693971e-20
	-0.0001425292	1.745479e-20	0.03118645	6.361527e-24	-0.0001495077	1.830941e-20	0.0001630716	3.775071e-22
	0.0003838674	1.187225e-21	-0.0001495077	1.830942e-20	0.03173726	1.152163e-23	-0.0001425542	1.745786e-20
	-0.0001383232	1.69397e-20	0.0001631277	3.776299e-22	-0.0001425542	1.745785e-20	0.03118445	6.012068e-24
1e+07	0.03811759	-0.008029221	-0.0008863483	3.345013e-05	0.002487603	0.009151661	-7.723122e-05	-0.00011344
	-0.0008863483	3.345013e-05	0.0375764	-0.008869174	-0.001235755	0.0003416947	0.003256646	0.009039272
	0.002487603	0.009151661	-0.001235755	0.0003416947	0.03762546	-0.00783265	-0.0006479225	-9.722194e-06
	-7.723122e-05	-0.00011344	0.003256646	0.009039272	-0.0006479225	-9.722194e-06	0.03732929	-0.008829603
2e+07	0.03855256	-0.02267084	-0.0008249582	-0.0003292058	0.006725268	0.01673845	-0.000111133	-0.0001691016
	-0.0008249581	-0.0003292057	0.03904027	-0.02443635	-0.001115255	8.025595e-05	0.008323689	0.01592336
	0.006725352	0.01673834	-0.001115255	8.025601e-05	0.03835536	-0.02220192	-0.0006326088	-0.0002127713
	-0.000111133	-0.0001691016	0.008323693	0.01592335	-0.0006326088	-0.0002127713	0.03886852	-0.02427676
3e+07	0.03153062	-0.03796521	-0.0008345465	-0.0004465727	0.01285014	0.02245185	-0.0001675493	-0.0002130814
	-0.0008345464	-0.0004465727	0.03396939	-0.04146603	-0.00100068	3.63984e-05	0.01553674	0.02055986
	0.01285012	0.02245182	-0.00100068	3.639842e-05	0.03157677	-0.03745268	-0.0006732326	-0.0002896883
	-0.0001675493	-0.0002130814	0.01553673	0.0205599	-0.0006732327	-0.0002896883	0.0338678	-0.04125051
4e+07	0.01909284	-0.05000742	-0.000889706	-0.0004941592	0.02007639	0.02592925	-0.0002606939	-0.0002240821
	-0.000889706	-0.0004941592	0.02341619	-0.05662376	-0.0009097911	-9.46636e-06	0.02393138	0.02217646
	0.02007639	0.02592926	-0.0009097911	-9.46636e-06	0.01932921	-0.04953729	-0.0007427745	-0.0003087371
	-0.0002606939	-0.0002240821	0.02393139	0.02217648	-0.0007427745	-0.0003087371	0.02338658	-0.05638833
5e+07	0.00313745	-0.05717992	-0.0009692533	-0.0004933735	0.02762286	0.02698477	-0.0003602869	-0.0002084846
	-0.0009692533	-0.0004933735	0.008802446	-0.06815242	-0.0008623811	-7.973341e-05	0.03235419	0.02060453
	0.02762287	0.02698478	-0.0008623811	-7.973341e-05	0.003509773	-0.05680321	-0.0008240727	-0.0002850112
	-0.000360287	-0.0002084846	0.0323542	0.02060454	-0.0008240727	-0.0002850111	0.008835952	-0.06792324
6e+07	-0.01427991	-0.05863749	-0.001058139	-0.0004525475	0.03468578	0.02573667	-0.0004598036	-0.0001654254
	-0.001058139	-0.0004525475	-0.008327485	-0.07505679	-0.000878068	-0.000164046	0.03968039	0.01604793
	0.03468577	0.02573667	-0.000878068	-0.000164046	-0.0138279	-0.05838114	-0.0009045507	-0.0002263861
	-0.0004598036	-0.0001654254	0.03968039	0.01604791	-0.0009045506	-0.0002263861	-0.008245357	-0.0748536
7e+07	-0.03106457	-0.05432149	-0.001184222	-0.0002929228	0.04057587	0.02255918	-0.0005508219	-9.525008e-05
	-0.001184222	-0.0002929228	-0.02634353	-0.07690256	-0.0009646605	-0.0002363059	0.04493449	0.009085766
	0.04057586	0.02255918	-0.0009646605	-0.0002363059	-0.03058822	-0.05419218	-0.0009754471	-0.0001397069
	-0.000550822	-9.525008e-05	0.04493448	0.009085764	-0.0009754471	-0.000139707	-0.02623161	-0.07673897
8e+07	-0.04532806	-0.04487665	-0.001298779	1.173392e-05	0.04478998	0.01801392	-0.0006267369	-8.222348e-07
	-0.001298779	1.173392e-05	-0.04365116	-0.07379426	-0.001116543	-0.0002654664	0.0474095	0.0005858159
	0.04478999	0.01801392	-0.001116543	-0.0002654664	-0.04487818	-0.04486407	-0.001030706	-3.11391e-05
	-0.0006267369	-8.222348e-07	0.0474095	0.0005858174	-0.001030706	-3.113908e-05	-0.0435309	-0.07367712
9e+07	-0.05556989	-0.03150021	-0.001321988	0.0003411409	0.04705153	0.01276946	-0.0006837522	0.0001163027
	-0.001321988	0.0003411409	-0.0588385	-0.06630636	-0.00131508	-0.0002225528	0.04673749	-0.008410359
	0.04705153	0.01276946	-0.00131508	-0.0002225528	-0.05518962	-0.03157855	-0.00106807	0.0001239672
	-0.0006837522	0.0001163027	0.0467375	-0.008410363	-0.00106807	0.0001239673	-0.05873267	-0.06623474
1e+08	-0.06074899	-0.01576899	-0.001225974	0.0006688284	0.04731781	0.00751533	-0.000713786	0.0002509495
	-0.001225974	0.0006688284	-0.07073325	-0.05536597	-0.001523165	-9.040034e-05	0.04291371	-0.01681272
	0.04731781	0.00751533	-0.001523165	-9.040034e-05	-0.06047986	-0.01590055	-0.001054599	0.0003629262
	-0.000713786	0.0002509495	0.04291371	-0.01681272	-0.001054599	0.0003629261	-0.07066387	-0.05533128
1.1e+08	-0.06064353	0.0003115937	-0.001078575	0.0008769745	0.04573471	0.002914811	-0.0007192303	0.0003945499
	-0.001078575	0.0008769745	-0.07877224	-0.0424372	-0.001709384	0.0001568656	0.03626317	-0.02357639
	0.04573471	0.002914811	-0.001709384	0.0001568656	-0.06048203	0.0002273553	-0.001004198	0.0005471077
	-0.0007192303	0.0003945499	0.03626317	-0.02357639	-0.001004198	0.0005471077	-0.07879812	-0.04245644
1.2e+08	-0.055552	0.01536518	-0.0009332361	0.001069656	0.04269578	-0.0004649885	-0.0006978049	0.000550668
	-0.0009332361	0.001069656	-0.08274702	-0.02844705	-0.001841414	0.0004911988	0.02752069	-0.02780443
	0.04269578	-0.000464988	-0.001841414	0.0004911988	-0.05545727	0.01534243	-0.0009439611	0.0007325643
	-0.0006978049	0.000550668	0.02752069	-0.02780443	-0.0009439611	0.0007325643	-0.08285952	-0.02843749
1.3e+08	-0.04605823	0.02786341	-0.0007639501	0.001245488	0.03871578	-0.002238227	-0.0006491739	0.000716397
	-0.0007639501	0.001245488	-0.08259532	-0.01464306	-0.001882589	0.0008883183	0.01760633	-0.02893276
	0.03871578	-0.002238227	-0.001882589	0.0008883183	-0.04600512	0.02791413	-0.0008570978	0.0009184917
	-0.0006491739	0.000716397	0.01760633	-0.02893276	-0.0008570978	0.0009184917	-0.08276272	-0.01457823
1.4e+08	-0.03326142	0.03658889	-0.0005665349	0.001399747	0.03439432	-0.002195248	-0.0005595933	0.0008789111
	-0.0005665349	0.001399747	-0.0786881	-0.002174338	-0.001812702	0.00131372	0.007579186	-0.02670232
	0.03439432	-0.002195248	-0.001812702	0.00131372	-0.03322499	0.03672192	-0.0007377411	0.001101017
	-0.0005595933	0.0008789111	0.007579186	-0.02670232	-0.0007377411	0.001101017	-0.07889229	-0.00204992
1.5e+08	-0.01858698	0.04076374	-0.000340493	0.001526343	0.03036388	-0.0003231019	-0.0004297883	0.001028005
	-0.000340493	0.001526343	-0.07170605	0.00801294	-0.001626894	0.001728988	-0.001461057	-0.02119593
	0.03036388	-0.0003231013	-0.001626894	0.001728988	-0.01854085	0.04098291	-0.000581508	0.00127403
	-0.0004297883	0.001028005	-0.001461056	-0.02119593	-0.000581508	0.00127403	-0.07193862	0.008201409
1.6e+08	-0.003619051	0.04012525	-8.802724e-05	0.001618552	0.02723127	0.003191534	-0.0002631386	0.001153889
	-8.802724e-05	0.001618552	-0.06255139	0.0152493	-0.001334983	0.002098186	-0.008479376	-0.01284177
	0.02723127	0.003191535	-0.001334983	0.002098186	-0.00353605	0.04042749	-0.0003858205	0.001429194
	-0.0002631386	0.001153889	-0.008479375	-0.01284177	-0.0003858205	0.001429194	-0.06280473	0.01551102
1.7e+08	0.01007888	0.03494618	0.0001864074	0.001669759	0.02551639	0.007974248	-6.534311e-05	0.001248046
	0.0001864074	0.001669759	-0.05224669	0.01918725	-0.0009583211	0.00239338	-0.01261059	-0.0023846
	0.02551639	0.007974249	-0.0009583211	0.00239338	0.01022456	0.03532043	-0.0001505428	0.001556309
	-6.534311e-05	0.001248046	-0.01261059	-0.0023846	-0.0001505428	0.001556309	-0.05250743	0.01953361
1.8e+08	0.02114013	0.02599529	0.0004761924	0.001674097	0.02559465	0.01349618	0.0001560726	0.001303806
	0.0004761924	0.001674097	-0.04182427	0.01981224	-0.0005245774	0.002597988	-0.01325535	0.00917516
	0.02559465	0.01349618	-0.0005245774	0.002597988	0.02136975	0.02642258	0.0001211624	0.00164421
	0.0001560726	0.001303806	-0.01325535	0.00917516	0.0001211624	0.00164421	-0.04207171	0.02025181
1.9e+08	0.02854722	0.0144402	0.0007729251	0.001627033	0.02764884	0.0191268	0.0003925134	0.001316719
	0.0007729251	0.001627033	-0.03222081	0.01741615	-6.140266e-05	0.002707285	-0.01015655	0.02067313
	0.02764884	0.0191268	-6.140266e-05	0.002707285	0.02887573	0.01489587	0.000422387	0.001681778
	0.0003925134	0.001316719	-0.01015655	0.02067313	0.000422387	0.001681778	-0.03242833	0.01794998
2e+08	0.03174569	0.001704761	0.001064841	0.001525315	0.03164066	0.02420346	0.0006350628	0.001284445
	0.001064841	0.001525315	-0.02418809	0.01253582	0.0004730257	0.002711763	-0.003443452	0.0308974
	0.03164066	0.02420346	0.0004730257	0.002711763	0.03217936	0.002159969	0.000740808	0.001660123
	0.0006350628	0.001284445	-0.003443451	0.0308974	0.000740808	0.001660123	-0.02432807	0.01315504
2.1e+08	0.03069778	-0.01070478	0.001343313	0.001369991	0.03731036	0.02811107	0.0008749094	0.001206666
	0.001343313	0.001369991	-0.01823713	0.005866967	0.0009858369	0.00261561	0.006364121	0.03871764
	0.03731036	0.02811107	0.0009858369	0.00261561	0.03123345	-0.01027966	0.001064665	0.001572612
	0.0008749094	0.001206666	0.006364121	0.03871764	0.001064665	0.001572612	-0.01828354	0.006551911
2.2e+08	0.0258756	-0.02138127	0.001597941	0.001163145	0.04420482	0.03035743	0.001103994	0.001084551
	0.001597941	0.001163145	-0.01461487	-0.001831719	0.001463736	0.002434384	0.01839683	0.0432116
	0.04420482	0.03035743	0.001463736	0.002434384	0.02650002	-0.02101306	0.001378021	0.001416708
	0.001103994	0.001084551	0.01839683	0.0432116	0.001378021	0.001416708	-0.01454902	-0.001110479
2.3e+08	0.018189	-0.02918119	0.001818968	0.0009092034	0.05173406	0.03063314	0.001315001	0.0009203179
	0.001818968	0.0009092034	-0.01332099	-0.009830867	0.001900637	0.002181523	0.03151856	0.04377253
	0.05173406	0.03063314	0.001900637	0.002181523	0.018881	-0.02889084	0.001664473	0.00119475
	0.001315001	0.0009203179	0.03151856	0.04377253	0.001664473	0.00119475	-0.01313454	-0.009108697
2.4e+08	0.00886477	-0.03335213	0.001998029	0.0006143558	0.05924555	0.02884629	0.001501238	0.0007168435
	0.001998029	0.0006143558	-0.01415301	-0.01750311	0.002294554	0.001865498	0.04444152	0.04018242
	0.05924555	0.02884629	0.002294554	0.001865498	0.009597435	-0.03315222	0.001908967	0.0009136474
	0.001501238	0.0007168435	0.04444152	0.04018242	0.001908967	0.0009136474	-0.01384947	-0.01681813
2.5e+08	-0.0007081112	-0.03360852	0.002128263	0.0002861208	0.06610317	0.02512538	0.001656374	0.0004774595
	0.002128263	0.0002861208	-0.01676929	-0.02436938	0.002643412	0.001489399	0.05585967	0.0326428
	0.06610317	0.02512538	0.002643412	0.001489399	3.587784e-05	-0.0335016	0.002099281	0.000584039
	0.001656374	0.0004774595	0.05585967	0.0326428	0.002099281	0.000584039	-0.01636463	-0.0237574
2.6e+08	-0.0091454	-0.03014916	0.002204353	-6.739484e-05	0.07175984	0.01979486	0.001774172	0.0002061866
	0.002204353	-6.739484e-05	-0.02075726	-0.03011544	0.00294165	0.001052764	0.06458378	0.02176025
	0.07175984	0.01979486	0.00294165	0.001052764	-0.008418366	-0.03012792	0.002226858	0.0002187874
	0.001774172	0.0002061866	0.06458378	0.02176025	0.002226858	0.0002187874	-0.02027839	-0.02960689
2.7e+08	-0.01522458	-0.02362032	0.002222209	-0.0004377804	0.07581341	0.01332891	0.001848333	-9.221252e-05
	0.002222209	-0.0004377804	-0.02569499	-0.03458403	0.003178304	0.0005549269	0.06966253	0.008489052
	0.07581341	0.01332891	0.003178304	0.0005549269	-0.0145383	-0.02366781	0.002286944	-0.0001684884
	0.001848333	-9.221252e-05	0.06966253	0.008489052	0.002286944	-0.0001684884	-0.02517765	-0.03420031
2.8e+08	-0.01801896	-0.01503055	0.002178593	-0.0008163485	0.07804091	0.006291757	0.001872555	-0.0004115853
	0.002178593	-0.0008163485	-0.03119972	-0.03774808	0.003337218	-1.426733e-06	0.07047943	-0.005959246
	0.07804091	0.006291757	0.003337218	-1.426733e-06	-0.01738974	-0.01512233	0.002278121	-0.0005646244
	0.001872555	-0.0004115853	0.07047943	-0.005959246	0.002278121	-0.0005646244	-0.03068539	-0.03749903
2.9e+08	-0.01699427	-0.005630204	0.002070916	-0.001193826	0.07841082	-0.0007243704	0.001840887	-0.0007441529
	0.002070916	-0.001193826	-0.0369582	-0.03967283	0.003399204	-0.0006068748	0.06681589	-0.02023045
	0.07841082	-0.0007243704	0.003399204	-0.0006068748	-0.01642865	-0.005737885	0.002201416	-0.000957819
	0.001840887	-0.0007441529	0.06681589	-0.02023045	0.002201416	-0.000957819	-0.0364906	-0.03955615
3e+08	-0.01205996	0.003229188	0.001897382	-0.001560039	0.07707637	-0.0071596	0.001748286	-0.00108018
	0.001897382	-0.001560039	-0.04274042	-0.04047545	0.003345628	-0.001243557	0.05887671	-0.03295475
	0.07707637	-0.0071596	0.003345628	-0.001243557	-0.01155376	0.003134993	0.002059347	-0.001337759
	0.001748286	-0.00108018	0.05887671	-0.03295475	0.002059347	-0.001337759	-0.04236178	-0.04047596
3.1e+08	-0.003575342	0.01024471	0.00165749	-0.001903592	0.07435384	-0.01253767	0.001591345	-0.001407959
	0.00165749	-0.001903592	-0.04839753	-0.04028643	0.003162456	-0.00188552	0.04727801	-0.04287588
	0.07435384	-0.01253767	0.003162456	-0.00188552	-0.003114408	0.01019025	0.001855179	-0.001695448
	0.001591345	-0.001407959	0.04727801	-0.04287588	0.001855179	-0.001695448	-0.04814549	-0.04037708
3.2e+08	0.007691381	0.01430356	0.001352664	-0.002211882	0.0706877	-0.01651007	0.001369288	-0.001714014
	0.001352664	-0.002211882	-0.05384762	-0.03921749	0.002844065	-0.002500748	0.03299698	-0.04897081
	0.0706877	-0.01651007	0.002844065	-0.002500748	0.00813083	0.01430926	0.001592266	-0.002022793
	0.001369288	-0.001714014	0.03299698	-0.04897081	0.001592266	-0.002022793	-0.0537511	-0.03935986
3.3e+08	0.02064855	0.01460567	0.0009870748	-0.002471489	0.06660631	-0.01888727	0.001084601	-0.001983983
	0.0009870748	-0.002471489	-0.05905047	-0.037338	0.002395249	-0.003055146	0.01728797	-0.05055047
	0.06660631	-0.01888727	0.002395249	-0.003055146	0.02109645	0.01468255	0.001274006	-0.002311878
	0.001084601	-0.001983983	0.01728797	-0.05055047	0.001274006	-0.002311878	-0.05912728	-0.03748572
3.4e+08	0.03399926	0.01075311	0.0005682583	-0.002668982	0.06267126	-0.0196584	0.0007436108	-0.002203616
	0.0005682583	-0.002668982	-0.0639764	-0.03466363	0.001831886	-0.003516705	0.001570944	-0.04733327
	0.06267126	-0.0196584	0.001831886	-0.003516705	0.03448917	0.01090136	0.0009040938	-0.002554378
	0.0007436108	-0.002203616	0.001570944	-0.04733327	0.0009040938	-0.002554378	-0.06423011	-0.0347655
3.5e+08	0.04638622	0.002796204	0.0001073792	-0.002791982	0.0594189	-0.01899587	0.0003565019	-0.002360003
	0.0001073792	-0.002791982	-0.0685716	-0.03115955	0.001179034	-0.003859881	-0.01269893	-0.03948056
	0.0594189	-0.01899587	0.001179034	-0.003859881	0.04695004	0.003003528	0.0004871837	-0.002741112
	0.0003565019	-0.002360003	-0.01269893	-0.03948056	0.0004871837	-0.002741112	-0.068991	-0.03116353
3.6e+08	0.05654266	-0.008770905	-0.0003809542	-0.002830483	0.05730233	-0.01724055	-6.315319e-05	-0.002442949
	-0.0003809542	-0.002830483	-0.07272666	-0.02675842	0.0004674987	-0.00406837	-0.02416928	-0.027592
	0.05730233	-0.01724055	0.0004674987	-0.00406837	0.05720821	-0.008526959	2.970314e-05	-0.002862157
	-6.315319e-05	-0.002442949	-0.02416928	-0.027592	2.970314e-05	-0.002862157	-0.07328459	-0.02661633
3.7e+08	0.06343699	-0.0230648	-0.0008793777	-0.002777897	0.0566379	-0.01486855	-0.0004994853	-0.002445909
	-0.0008793777	-0.002777897	-0.07625312	-0.02139385	-0.0002701589	-0.004136159	-0.03172205	-0.01265614
	0.0566379	-0.01486855	-0.0002701589	-0.004136159	0.06422371	-0.02281614	-0.0004593506	-0.00290728
	-0.0004994853	-0.002445909	-0.03172205	-0.01265614	-0.0004593506	-0.00290728	-0.07690824	-0.02106621
3.8e+08	0.06638943	-0.03891468	-0.00136873	-0.002632066	0.0575642	-0.01243923	-0.0009353856	-0.002366573
	-0.00136873	-0.002632066	-0.07887704	-0.01504426	-0.001003654	-0.004066558	-0.03458302	0.004037826
	0.0575642	-0.01243923	-0.001003654	-0.004066558	0.06730518	-0.03869925	-0.0009675274	-0.002866959
	-0.0009353856	-0.002366573	-0.03458302	0.004037826	-0.0009675274	-0.002866959	-0.07957668	-0.01450427
3.9e+08	0.06514581	-0.05499852	-0.00182961	-0.002395699	0.06002182	-0.01052957	-0.001354133	-0.002206862
	-0.00182961	-0.002395699	-0.08025168	-0.007780975	-0.001708043	-0.003869602	-0.03239983	0.0210189
	0.06002182	-0.01052957	-0.001708043	-0.003869602	0.06618649	-0.05485513	-0.00147899	-0.002733796
	-0.001354133	-0.002206862	-0.03239983	0.0210189	-0.00147899	-0.002733796	-0.08093573	-0.007019018
4e+08	0.05990238	-0.06999511	-0.00224389	-0.002076277	0.06375769	-0.009664126	-0.001740478	-0.001972423
	-0.00224389	-0.002076277	-0.07999511	0.0001876229	-0.002364832	-0.003558504	-0.02527644	0.03677204
	0.06375769	-0.009664126	-0.002364832	-0.003558504	0.06105065	-0.06996103	-0.001974968	-0.002503877
	-0.001740478	-0.001972423	-0.02527644	0.03677204	-0.001974968	-0.002503877	-0.08060195	0.001163441
4.1e+08	0.05127373	-0.08273516	-0.002596178	-0.00168534	0.06835555	-0.01025039	-0.002081573	-0.001671741
	-0.002596178	-0.00168534	-0.07774759	0.008489845	-0.002961064	-0.003146671	-0.01376447	0.04987725
	0.06835555	-0.01025039	-0.002961064	-0.003146671	0.05250113	-0.08284063	-0.002434796	-0.002178145
	-0.002081573	-0.001671741	-0.01376447	0.04987725	-0.002434796	-0.002178145	-0.0782189	0.009652901
4.2e+08	0.04021412	-0.09232757	-0.002874829	-0.001237321	0.07328695	-0.01253194	-0.002367352	-0.001315093
	-0.002874829	-0.001237321	-0.07323926	0.01658825	-0.003487576	-0.002645166	0.001187499	0.05913833
	0.07328695	-0.01253194	-0.003487576	-0.002645166	0.04148378	-0.0925923	-0.002837755	-0.001762832
	-0.002367352	-0.001315093	0.001187499	0.05913833	-0.002837755	-0.001762832	-0.07352611	0.01789484
4.3e+08	0.02790225	-0.09825205	-0.003072436	-0.0007479584	0.07797624	-0.01656065	-0.00259049	-0.000913343
	-0.003072436	-0.0007479584	-0.06636382	0.02380653	-0.003935854	-0.00206258	0.01831943	0.06368746
	0.07797624	-0.01656065	-0.003935854	-0.00206258	0.02917199	-0.09868368	-0.003164733	-0.001269448
	-0.00259049	-0.000913343	0.01831943	0.06368746	-0.003164733	-0.001269448	-0.06643156	0.02519959
4.4e+08	0.01560514	-0.1004053	-0.003185547	-0.0002328534	0.08186724	-0.02219733	-0.002745875	-0.0004774643
	-0.003185547	-0.0002328534	-0.05723802	0.02938641	-0.00429589	-0.00140569	0.03616875	0.06305973
	0.08186724	-0.02219733	-0.00429589	-0.00140569	0.01683288	-0.1009978	-0.003399741	-0.0007142395
	-0.002745875	-0.0004774643	0.03616875	0.06305973	-0.003399741	-0.0007142395	-0.05706949	0.03079964
4.5e+08	0.00453869	-0.09910096	-0.003213895	0.000293738	0.08448481	-0.02913281	-0.002830047	-1.796041e-05
	-0.003213895	0.000293738	-0.04623973	0.03256656	-0.004554635	-0.0006819476	0.05319449	0.05723359
	0.08448481	-0.02913281	-0.004554635	-0.0006819476	0.005686145	-0.09983514	-0.003531258	-0.0001166698
	-0.002830047	-1.796041e-05	0.05319449	0.05723359	-0.003531258	-0.0001166698	-0.04583782	0.03393025
4.6e+08	-0.004262156	-0.09502603	-0.003159142	0.000819388	0.08548183	-0.0369275	-0.002840492	0.000455244
	-0.003159142	0.000819388	-0.03401662	0.0326781	-0.004696138	9.749957e-05	0.0679061	0.04663539
	0.08548183	-0.0369275	-0.004696138	9.749957e-05	-0.003225267	-0.09587159	-0.003552642	0.0005021069
	-0.002840492	0.000455244	0.0679061	0.04663539	-0.003552642	0.0005021069	-0.03340464	0.03392544
4.7e+08	-0.0100502	-0.08915953	-0.003023707	0.001333649	0.08467028	-0.04506086	-0.002775123	0.0009322759
	-0.003023707	0.001333649	-0.02145974	0.02924265	-0.004703405	0.0009156838	0.07898936	0.03210977
	0.08467028	-0.04506086	-0.004703405	0.0009156838	-0.009142547	-0.0900784	-0.003462262	0.001120334
	-0.002775123	0.0009322759	0.07898936	0.03210977	-0.003462262	0.001120334	-0.0206798	0.03031416
4.8e+08	-0.01244184	-0.08266547	-0.002809836	0.001827147	0.0820341	-0.05298607	-0.002632059	0.001402908
	-0.002809836	0.001827147	-0.009639876	0.02205697	-0.004561358	0.00174847	0.08542012	0.01485679
	0.0820341	-0.05298607	-0.004561358	0.00174847	-0.01166866	-0.08361527	-0.003262943	0.00171737
	-0.002632059	0.001402908	0.08542012	0.01485679	-0.003262943	0.00171737	-0.008751246	0.0229075
4.9e+08	-0.01145685	-0.07676563	-0.002519255	0.002290554	0.07772611	-0.06018321	-0.002409895	0.001855769
	-0.002519255	0.002290554	0.000280998	0.0112593	-0.004260518	0.002564381	0.08656075	-0.003662269
