!$
! Info: Touchstone file created by Circ.  Input file=Intel_C2M_200G_13p0in_202208016_staggered.circ
!$
# Hz S RI R 50
0	0.03117372	5.892016e-24	0.0001210793	1.899776e-22	0.0001634695	3.805345e-22	0.000121073	1.897029e-22
	0.0001210793	1.899776e-22	0.03118645	6.361527e-24	0.0001210834	1.901301e-22	0.0001630716	3.775071e-22
	0.0001635256	3.806582e-22	0.0001210833	1.901321e-22	0.0311687	6.192682e-24	0.0001210751	1.89841e-22
	0.000121073	1.897049e-22	0.0001631277	3.776299e-22	0.0001210751	1.89841e-22	0.03118445	6.012068e-24
1e+07	0.03730965	-0.008812559	8.801839e-06	3.709872e-05	0.003249328	0.008980659	2.112126e-05	3.554187e-05
	8.801845e-06	3.709874e-05	0.0375764	-0.008869174	4.38296e-06	9.885651e-06	0.003256646	0.009039272
	0.003249328	0.008980659	4.38296e-06	9.885651e-06	0.03756815	-0.008793295	8.510301e-06	3.538964e-05
	2.112126e-05	3.554187e-05	0.003256646	0.009039272	8.510301e-06	3.538964e-05	0.03732929	-0.008829603
2e+07	0.03886331	-0.02423431	9.767921e-06	1.940927e-05	0.008303837	0.01581228	1.48388e-05	2.350123e-05
	9.767932e-06	1.940929e-05	0.03904027	-0.02443635	2.466112e-05	1.836245e-05	0.008323689	0.01592336
	0.008303842	0.01581226	2.466112e-05	1.836245e-05	0.03908082	-0.02429501	7.473541e-06	1.714168e-05
	1.48388e-05	2.350123e-05	0.008323693	0.01592335	7.473541e-06	1.714168e-05	0.03886852	-0.02427676
3e+07	0.03390273	-0.0411954	1.394031e-05	1.244115e-05	0.01550297	0.0204056	1.163099e-05	2.147744e-05
	1.394031e-05	1.244115e-05	0.03396939	-0.04146603	4.336248e-05	1.556969e-05	0.01553674	0.02055986
	0.01550296	0.02040565	4.336248e-05	1.556969e-05	0.03408298	-0.04127451	1.029855e-05	1.07608e-05
	1.163099e-05	2.147744e-05	0.01553673	0.0205599	1.029855e-05	1.07608e-05	0.0338678	-0.04125051
4e+07	0.02347415	-0.05633043	1.608261e-05	6.419048e-06	0.02388684	0.021988	1.699126e-05	1.536671e-05
	1.608261e-05	6.419047e-06	0.02341619	-0.05662376	5.481459e-05	4.77118e-06	0.02393138	0.02217646
	0.02388686	0.02198802	5.481459e-05	4.77118e-06	0.02362477	-0.05642015	1.161572e-05	5.740103e-06
	1.699126e-05	1.536671e-05	0.02393139	0.02217648	1.161572e-05	5.740102e-06	0.02338658	-0.05638833
5e+07	0.008986811	-0.06788023	1.634236e-05	9.553027e-07	0.03230644	0.02038885	2.012015e-05	8.750378e-06
	1.634236e-05	9.553024e-07	0.008802446	-0.06815242	5.964481e-05	-9.112334e-06	0.03235419	0.02060453
	0.03230645	0.02038885	5.964481e-05	-9.112335e-06	0.009108473	-0.06797719	1.152486e-05	1.429927e-06
	2.012015e-05	8.750378e-06	0.0323542	0.02060454	1.152486e-05	1.429927e-06	0.008835952	-0.06792324
6e+07	-0.008027894	-0.07484602	1.498506e-05	-3.688195e-06	0.03964024	0.01580816	2.097915e-05	2.285914e-06
	1.498506e-05	-3.688194e-06	-0.008327485	-0.07505679	5.871087e-05	-2.330808e-05	0.03968039	0.01604793
	0.03964024	0.01580814	5.871087e-05	-2.330808e-05	-0.007936807	-0.07494864	1.024748e-05	-2.063607e-06
	2.097915e-05	2.285915e-06	0.03968039	0.01604791	1.024748e-05	-2.063606e-06	-0.008245357	-0.0748536
7e+07	-0.02595115	-0.07678673	1.241434e-05	-7.18615e-06	0.04491414	0.00881995	1.991372e-05	-3.519066e-06
	1.241434e-05	-7.186149e-06	-0.02634353	-0.07690256	5.302463e-05	-3.599226e-05	0.04493449	0.009085766
	0.04491414	0.008819948	5.302463e-05	-3.599226e-05	-0.0258951	-0.07689388	8.108996e-06	-4.533461e-06
	1.991372e-05	-3.519066e-06	0.04493448	0.009085764	8.108996e-06	-4.533461e-06	-0.02623161	-0.07673897
8e+07	-0.0431972	-0.07379741	9.129067e-06	-9.319121e-06	0.04742031	0.0002865194	1.734222e-05	-8.284138e-06
	9.129067e-06	-9.319122e-06	-0.04365116	-0.07379426	4.375673e-05	-4.598814e-05	0.0474095	0.0005858159
	0.04742031	0.0002865209	4.375673e-05	-4.598814e-05	-0.04318279	-0.07390642	5.528375e-06	-5.837434e-06
	1.734222e-05	-8.284138e-06	0.0474095	0.0005858174	5.528375e-06	-5.837434e-06	-0.0435309	-0.07367712
9e+07	-0.05836003	-0.06644098	5.655766e-06	-1.003985e-05	0.04678768	-0.008755372	1.367771e-05	-1.178765e-05
	5.655766e-06	-1.003985e-05	-0.0588385	-0.06630636	3.203052e-05	-5.269205e-05	0.04673749	-0.008410359
	0.04678769	-0.008755376	3.203052e-05	-5.269205e-05	-0.05839473	-0.06654602	2.960619e-06	-5.973057e-06
	1.367771e-05	-1.178765e-05	0.0467375	-0.008410363	2.960618e-06	-5.973057e-06	-0.05873267	-0.06623474
1e+08	-0.07026988	-0.05563189	2.323807e-06	-9.464292e-06	0.04300675	-0.01721917	8.928117e-06	-1.398538e-05
	2.323807e-06	-9.464292e-06	-0.07073325	-0.05536597	1.779793e-05	-5.602027e-05	0.04291371	-0.01681272
	0.04300675	-0.01721917	1.779793e-05	-5.602027e-05	-0.07035992	-0.05572311	7.526684e-07	-5.06486e-06
	8.928117e-06	-1.398538e-05	0.04291371	-0.01681272	7.526685e-07	-5.06486e-06	-0.07066387	-0.05533128
1.1e+08	-0.07835686	-0.04281913	2.959175e-07	-7.278011e-06	0.03639618	-0.02406245	4.565997e-06	-1.295158e-05
	2.959177e-07	-7.278011e-06	-0.07877224	-0.0424372	4.96829e-06	-5.066727e-05	0.03626317	-0.02357639
	0.03639617	-0.02406245	4.96829e-06	-5.066727e-05	-0.07855022	-0.04292287	-2.273225e-07	-3.238007e-06
	4.565997e-06	-1.295158e-05	0.03626317	-0.02357639	-2.273223e-07	-3.238007e-06	-0.07879812	-0.04245644
1.2e+08	-0.08240616	-0.02892424	-4.30974e-07	-5.307214e-06	0.02768363	-0.02838626	1.935331e-06	-1.138261e-05
	-4.309739e-07	-5.307214e-06	-0.08274702	-0.02844705	-1.178025e-06	-4.403328e-05	0.02752069	-0.02780443
	0.02768363	-0.02838626	-1.178025e-06	-4.403328e-05	-0.08269065	-0.02896006	-2.902994e-07	-1.75378e-06
	1.935331e-06	-1.138261e-05	0.02752069	-0.02780443	-2.902992e-07	-1.75378e-06	-0.08285952	-0.02843749
1.3e+08	-0.08234865	-0.015187	-5.939479e-07	-3.703506e-06	0.01778339	-0.02962322	3.212581e-07	-9.711903e-06
	-5.939478e-07	-3.703507e-06	-0.08259532	-0.01464306	-1.912928e-06	-3.785636e-05	0.01760633	-0.02893276
	0.01778339	-0.02962322	-1.912928e-06	-3.785636e-05	-0.08268703	-0.01513072	-2.509236e-08	-6.680996e-07
	3.212581e-07	-9.711903e-06	0.01760633	-0.02893276	-2.509228e-08	-6.680998e-07	-0.08276272	-0.01457823
1.4e+08	-0.07854532	-0.002751524	-7.766489e-08	-2.518653e-06	0.00774969	-0.0275089	-5.764853e-07	-8.163493e-06
	-7.766486e-08	-2.518653e-06	-0.0786881	-0.002174338	-2.180624e-06	-3.242728e-05	0.007579186	-0.02670232
	0.00774969	-0.0275089	-2.180624e-06	-3.242728e-05	-0.07891418	-0.002602071	6.79624e-07	2.813016e-08
	-5.764853e-07	-8.163494e-06	0.007579186	-0.02670232	6.79624e-07	2.813002e-08	-0.07889229	-0.00204992
1.5e+08	-0.07166552	0.007437521	1.336336e-06	-2.016205e-06	-0.001320902	-0.022119	-1.02881e-06	-6.811059e-06
	1.336336e-06	-2.016205e-06	-0.07170605	0.00801294	-2.009268e-06	-2.769277e-05	-0.001461057	-0.02119593
	-0.001320901	-0.022119	-2.009268e-06	-2.769277e-05	-0.07205189	0.007680314	1.606378e-06	2.425046e-07
	-1.02881e-06	-6.811059e-06	-0.001461056	-0.02119593	1.606378e-06	2.425045e-07	-0.07193862	0.008201409
1.6e+08	-0.06260009	0.0147083	2.594701e-06	-2.030503e-06	-0.008394046	-0.01387333	-9.865483e-07	-5.744142e-06
	2.594701e-06	-2.030503e-06	-0.06255139	0.0152493	-1.437463e-06	-2.364294e-05	-0.008479376	-0.01284177
	-0.008394045	-0.01387333	-1.437463e-06	-2.364294e-05	-0.06299306	0.01504847	2.843559e-06	-1.155652e-07
	-9.865483e-07	-5.744142e-06	-0.008479375	-0.01284177	2.843559e-06	-1.155653e-07	-0.06280473	0.01551102
1.7e+08	-0.05236156	0.01870717	3.574504e-06	-2.428991e-06	-0.01260232	-0.003507814	-4.326196e-07	-5.073024e-06
	3.574504e-06	-2.428991e-06	-0.05224669	0.01918725	-5.376991e-07	-2.03024e-05	-0.01261059	-0.0023846
	-0.01260232	-0.003507814	-5.376991e-07	-2.03024e-05	-0.0527461	0.01915054	3.774214e-06	-8.08042e-07
	-4.326196e-07	-5.073024e-06	-0.01261059	-0.0023846	3.774214e-06	-8.08042e-07	-0.05250743	0.01953361
1.8e+08	-0.04197492	0.01941036	4.230125e-06	-3.160774e-06	-0.01334094	0.007985329	6.479565e-08	-4.624785e-06
	4.230125e-06	-3.160774e-06	-0.04182427	0.01981224	5.452748e-07	-1.766641e-05	-0.01325535	0.00917516
	-0.01334094	0.00798533	5.452748e-07	-1.766641e-05	-0.04233029	0.01996007	4.357562e-06	-1.786868e-06
	6.479564e-08	-4.624785e-06	-0.01325535	0.00917516	4.357562e-06	-1.786868e-06	-0.04207171	0.02025181
1.9e+08	-0.03237324	0.0170986	4.488383e-06	-4.104107e-06	-0.01034425	0.01944812	4.700269e-07	-4.364383e-06
	4.488383e-06	-4.104107e-06	-0.03222081	0.01741615	1.660881e-06	-1.56948e-05	-0.01015655	0.02067313
	-0.01034425	0.01944812	1.660881e-06	-1.56948e-05	-0.03267431	0.017751	4.526823e-06	-2.932302e-06
	4.700269e-07	-4.364383e-06	-0.01015655	0.02067313	4.526823e-06	-2.932302e-06	-0.03242833	0.01794998
2e+08	-0.02430921	0.01229755	4.312475e-06	-5.120988e-06	-0.003730602	0.02967201	7.517698e-07	-4.248878e-06
	4.312475e-06	-5.120988e-06	-0.02418809	0.01253582	2.674352e-06	-1.431029e-05	-0.003443452	0.0308974
	-0.003730601	0.02967201	2.674352e-06	-1.431029e-05	-0.02453018	0.01303968	4.256851e-06	-4.106379e-06
	7.517698e-07	-4.248878e-06	-0.003443451	0.0308974	4.256851e-06	-4.106379e-06	-0.02432807	0.01315504
2.1e+08	-0.01829758	0.005692615	3.710227e-06	-6.067951e-06	0.005992495	0.03752611	8.905191e-07	-4.226619e-06
	3.710227e-06	-6.067951e-06	-0.01823713	0.005866967	3.467654e-06	-1.340127e-05	0.006364121	0.03871764
	0.005992496	0.03752611	3.467654e-06	-1.340127e-05	-0.01841606	0.006502255	3.562426e-06	-5.169019e-06
	8.905191e-07	-4.226619e-06	0.006364121	0.03871764	3.562426e-06	-5.169019e-06	-0.01828354	0.006551911
2.2e+08	-0.0145926	-0.001965307	2.731205e-06	-6.811555e-06	0.01796765	0.04208309	8.80856e-07	-4.242322e-06
	2.731205e-06	-6.811555e-06	-0.01461487	-0.001831719	3.961352e-06	-1.283475e-05	0.01839683	0.0432116
	0.01796765	0.04208309	3.961352e-06	-1.283475e-05	-0.01459364	-0.001118543	2.50123e-06	-5.992037e-06
	8.80856e-07	-4.242322e-06	0.01839683	0.0432116	2.50123e-06	-5.992037e-06	-0.01454902	-0.001110479
2.3e+08	-0.0132029	-0.009951372	1.461849e-06	-7.240395e-06	0.03106885	0.04272703	7.33328e-07	-4.241773e-06
	1.461849e-06	-7.240395e-06	-0.01332099	-0.009830867	4.116935e-06	-1.246545e-05	0.03151856	0.04377253
	0.03106885	0.04272703	4.116935e-06	-1.246545e-05	-0.01308145	-0.009102424	1.166426e-06	-6.471319e-06
	7.333279e-07	-4.241773e-06	0.03151856	0.04377253	1.166426e-06	-6.471319e-06	-0.01313454	-0.009108697
2.4e+08	-0.01393526	-0.01763933	1.717027e-08	-7.274702e-06	0.04401502	0.03922727	4.741961e-07	-4.177269e-06
	1.717027e-08	-7.274702e-06	-0.01415301	-0.01750311	3.939892e-06	-1.214858e-05	0.04444152	0.04018242
	0.04401502	0.03922727	3.939892e-06	-1.214858e-05	-0.0136973	-0.0168249	-3.225233e-07	-6.536037e-06
	4.741961e-07	-4.177269e-06	0.04444152	0.04018242	-3.225233e-07	-6.536037e-06	-0.01384947	-0.01681813
2.5e+08	-0.0164564	-0.02454831	-1.469883e-06	-6.872988e-06	0.05550243	0.0317707	1.428043e-07	-4.012817e-06
	-1.469883e-06	-6.872988e-06	-0.01676929	-0.02436938	3.477986e-06	-1.17533e-05	0.05585967	0.0326428
	0.05550243	0.0317707	3.477986e-06	-1.17533e-05	-0.01611938	-0.02380218	-1.83121e-06	-6.154511e-06
	1.428043e-07	-4.012817e-06	0.05585967	0.0326428	-1.83121e-06	-6.154511e-06	-0.01636463	-0.0237574
2.6e+08	-0.02036035	-0.03036014	-2.860277e-06	-6.035459e-06	0.06433921	0.02094875	-2.129932e-07	-3.728063e-06
	-2.860277e-06	-6.035459e-06	-0.02075726	-0.03011544	2.814962e-06	-1.117522e-05	0.06458378	0.02176025
	0.06433921	0.02094875	2.814962e-06	-1.117522e-05	-0.01995162	-0.0297105	-3.222467e-06	-5.336435e-06
	-2.129932e-07	-3.728063e-06	0.06458378	0.02176025	-3.222467e-06	-5.336435e-06	-0.02027839	-0.02960689
2.7e+08	-0.02522974	-0.03491244	-4.02115e-06	-4.803764e-06	0.06956658	0.007701678	-5.426904e-07	-3.320115e-06
	-4.02115e-06	-4.803764e-06	-0.02569499	-0.03458403	2.060301e-06	-1.034594e-05	0.06966253	0.008489052
	0.06956658	0.007701678	2.060301e-06	-1.034594e-05	-0.02478456	-0.03437852	-4.368389e-06	-4.131356e-06
	-5.426904e-07	-3.320115e-06	0.06966253	0.008489052	-4.368389e-06	-4.131356e-06	-0.02517765	-0.03420031
2.8e+08	-0.0306844	-0.03817259	-4.837579e-06	-3.257524e-06	0.07055619	-0.006770363	-7.9913e-07	-2.803004e-06
	-4.837579e-06	-3.257524e-06	-0.03119972	-0.03774808	1.336569e-06	-9.238542e-06	0.07047943	-0.005959246
	0.07055619	-0.006770363	1.336569e-06	-9.238542e-06	-0.0302428	-0.03776244	-5.161264e-06	-2.624049e-06
	-7.9913e-07	-2.803004e-06	0.07047943	-0.005959246	-5.161264e-06	-2.624049e-06	-0.03068539	-0.03749903
2.9e+08	-0.03641188	-0.04020062	-5.222886e-06	-1.507453e-06	0.06707417	-0.02112075	-9.43727e-07	-2.204938e-06
	-5.222886e-06	-1.507453e-06	-0.0369582	-0.03967283	7.658262e-07	-7.86873e-06	0.06681589	-0.02023045
	0.06707417	-0.02112075	7.658262e-07	-7.86873e-06	-0.03601535	-0.03991081	-5.522613e-06	-9.270128e-07
	-9.43727e-07	-2.204938e-06	0.06681589	-0.02023045	-5.522613e-06	-9.270128e-07	-0.0364906	-0.03955615
3e+08	-0.04218173	-0.04110912	-5.126444e-06	3.142237e-07	0.0593078	-0.0339825	-9.499275e-07	-1.564081e-06
	-5.126444e-06	3.142237e-07	-0.04274042	-0.04047545	4.570149e-07	-6.291679e-06	0.05887671	-0.03295475
	0.0593078	-0.0339825	4.570149e-07	-6.291679e-06	-0.04186957	-0.04092432	-5.409556e-06	8.291237e-07
	-9.499275e-07	-1.564081e-06	0.05887671	-0.03295475	-5.409556e-06	8.291237e-07	-0.04236178	-0.04047596
3.1e+08	-0.04784372	-0.0410249	-4.538521e-06	2.065221e-06	0.04785477	-0.0440966	-8.047846e-07	-9.238314e-07
	-4.538521e-06	2.065221e-06	-0.04839753	-0.04028643	4.953269e-07	-4.595619e-06	0.04727801	-0.04287588
	0.04785477	-0.0440966	4.953269e-07	-4.595619e-06	-0.04765041	-0.04091923	-4.818395e-06	2.506438e-06
	-8.047846e-07	-9.238314e-07	0.04727801	-0.04287588	-4.818395e-06	2.506438e-06	-0.04814549	-0.04037708
3.2e+08	-0.05331412	-0.04005695	-3.491307e-06	3.605544e-06	0.03367464	-0.05043157	-5.086972e-07	-3.284672e-07
	-3.491307e-06	3.605544e-06	-0.05384762	-0.03921749	9.341178e-07	-2.89319e-06	0.03299698	-0.04897081
	0.03367464	-0.05043157	9.341178e-07	-2.89319e-06	-0.05326568	-0.03999476	-3.78489e-06	3.971005e-06
	-5.086972e-07	-3.284672e-07	0.03299698	-0.04897081	-3.78489e-06	3.971005e-06	-0.0537511	-0.03935986
3.3e+08	-0.05855082	-0.03827293	-2.056403e-06	4.809466e-06	0.01800675	-0.0522842	-7.402211e-08	1.801978e-07
	-2.056403e-06	4.809466e-06	-0.05905047	-0.037338	1.789612e-06	-1.311326e-06	0.01728797	-0.05055047
	0.01800675	-0.0522842	1.789612e-06	-1.311326e-06	-0.05866321	-0.0382121	-2.381491e-06	5.103673e-06
	-7.402211e-08	1.801978e-07	0.01728797	-0.05055047	-2.381491e-06	5.103673e-06	-0.05912728	-0.03748572
3.4e+08	-0.06352265	-0.03568746	-3.390167e-07	5.576245e-06	0.002260545	-0.04935389	4.766459e-07	5.650182e-07
	-3.390167e-07	5.576245e-06	-0.0639764	-0.03466363	3.038006e-06	1.940468e-08	0.001570944	-0.04733327
	0.002260545	-0.04935389	3.038006e-06	1.940468e-08	-0.06379928	-0.03558224	-7.118855e-07	5.809758e-06
	4.76646e-07	5.650183e-07	0.001570944	-0.04733327	-7.118855e-07	5.809758e-06	-0.06423011	-0.0347655
3.5e+08	-0.0681749	-0.03226517	1.530658e-06	5.838446e-06	-0.0121132	-0.04177947	1.112029e-06	7.949267e-07
	1.530658e-06	5.838446e-06	-0.0685716	-0.03115955	4.615263e-06	9.761236e-07	-0.01269893	-0.03948056
	-0.0121132	-0.04177947	4.615263e-06	9.761236e-07	-0.06860685	-0.03206927	1.096951e-06	6.026701e-06
	1.112029e-06	7.949267e-07	-0.01269893	-0.03948056	1.096951e-06	6.026701e-06	-0.068991	-0.03116353
3.6e+08	-0.07239813	-0.02793797	3.40779e-06	5.56752e-06	-0.023759	-0.03013664	1.793123e-06	8.461631e-07
	3.40779e-06	5.56752e-06	-0.07272666	-0.02675842	6.419451e-06	1.454948e-06	-0.02416928	-0.027592
	-0.023759	-0.03013664	6.419451e-06	1.454948e-06	-0.07296299	-0.02760833	2.904396e-06	5.729518e-06
	1.793123e-06	8.461631e-07	-0.02416928	-0.027592	2.904396e-06	5.729518e-06	-0.07328459	-0.02661633
3.7e+08	-0.07600444	-0.02263806	5.144278e-06	4.77618e-06	-0.03154778	-0.01539125	2.473993e-06	7.03947e-07
	5.144278e-06	4.77618e-06	-0.07625312	-0.02139385	8.316137e-06	1.382059e-06	-0.03172205	-0.01265614
	-0.03154778	-0.01539125	8.316137e-06	1.382059e-06	-0.07666794	-0.02213853	4.567087e-06	4.933313e-06
	2.473993e-06	7.03947e-07	-0.03172205	-0.01265614	4.567087e-06	4.933313e-06	-0.07690824	-0.02106621
3.8e+08	-0.07872066	-0.01634116	6.600006e-06	3.517675e-06	-0.03468691	0.001186331	3.102956e-06	3.648191e-07
	6.600006e-06	3.517675e-06	-0.07887704	-0.01504426	1.014708e-05	7.235789e-07	-0.03458302	0.004037826
	-0.03468691	0.001186331	1.014708e-05	7.235789e-07	-0.07943868	-0.01564557	5.950031e-06	3.692797e-06
	3.102956e-06	3.648191e-07	-0.03458302	0.004037826	5.950031e-06	3.692797e-06	-0.07957668	-0.01450427
3.9e+08	-0.08020005	-0.00911449	7.653465e-06	1.882314e-06	-0.0327997	0.01813741	3.624908e-06	-1.604881e-07
	7.653465e-06	1.882314e-06	-0.08025168	-0.007780975	1.174193e-05	-5.067464e-07	-0.03239983	0.0210189
	-0.0327997	0.01813741	1.174193e-05	-5.067464e-07	-0.08092142	-0.008210505	6.9374e-06	2.098887e-06
	3.624908e-06	-1.604881e-07	-0.03239983	0.0210189	6.9374e-06	2.098887e-06	-0.08093573	-0.007019018
4e+08	-0.08005919	-0.001161031	8.211036e-06	-8.602375e-09	-0.02596238	0.03395102	3.985452e-06	-8.445857e-07
	8.211036e-06	-8.602375e-09	-0.07999511	0.0001876229	1.293301e-05	-2.243398e-06	-0.02527644	0.03677204
	-0.02596238	0.03395102	1.293301e-05	-2.243398e-06	-0.08073032	-5.072436e-05	7.442002e-06	2.722861e-07
	3.985452e-06	-8.445857e-07	-0.02527644	0.03677204	7.442002e-06	2.722861e-07	-0.08060195	0.001163441
4.1e+08	-0.07793438	0.007153415	8.214652e-06	-2.010834e-06	-0.01469829	0.04720201	4.136611e-06	-1.642335e-06
	8.214652e-06	-2.010834e-06	-0.07774759	0.008489845	1.357149e-05	-4.369563e-06	-0.01376447	0.04987725
	-0.01469829	0.04720201	1.357149e-05	-4.369563e-06	-0.07850281	0.008452333	7.412828e-06	-1.645171e-06
	4.136611e-06	-1.642335e-06	-0.01376447	0.04987725	7.412828e-06	-1.645171e-06	-0.0782189	0.009652901
4.2e+08	-0.07354901	0.01529672	7.647395e-06	-3.967119e-06	6.963003e-05	0.05668029	4.043459e-06	-2.4922e-06
	7.647395e-06	-3.967119e-06	-0.07323926	0.01658825	1.354328e-05	-6.72293e-06	0.001187499	0.05913833
	6.963003e-05	0.05668029	1.354328e-05	-6.72293e-06	-0.07396866	0.0167515	6.840078e-06	-3.501134e-06
	4.043459e-06	-2.4922e-06	0.001187499	0.05913833	6.840078e-06	-3.501134e-06	-0.07352611	0.01789484
4.3e+08	-0.06678736	0.022596	6.53661e-06	-5.71857e-06	0.01710175	0.06149652	3.690533e-06	-3.320543e-06
	6.53661e-06	-5.71857e-06	-0.06636382	0.02380653	1.278357e-05	-9.106779e-06	0.01831943	0.06368746
	0.01710175	0.06149652	1.278357e-05	-9.106779e-06	-0.06702278	0.02416147	5.757193e-06	-5.144566e-06
	3.690533e-06	-3.320543e-06	0.01831943	0.06368746	5.757193e-06	-5.144566e-06	-0.06643156	0.02519959
4.4e+08	-0.05775473	0.02829334	4.954142e-06	-7.117106e-06	0.03494846	0.06115879	3.086395e-06	-4.04862e-06
	4.954142e-06	-7.117106e-06	-0.05723802	0.02938641	1.128717e-05	-1.130555e-05	0.03616875	0.06305973
	0.03494846	0.06115879	1.128717e-05	-1.130555e-05	-0.05778424	0.02991491	4.239648e-06	-6.437959e-06
	3.086395e-06	-4.04862e-06	0.03616875	0.06305973	4.239648e-06	-6.437959e-06	-0.05706949	0.03079964
4.5e+08	-0.04681673	0.03162401	3.01287e-06	-8.038313e-06	0.05207315	0.05561566	2.265226e-06	-4.601407e-06
	3.01287e-06	-8.038313e-06	-0.04623973	0.03256656	9.113704e-06	-1.310369e-05	0.05319449	0.05723359
	0.05207315	0.05561566	9.113704e-06	-1.310369e-05	-0.04663498	0.03324241	2.400159e-06	-7.269272e-06
	2.265226e-06	-4.601407e-06	0.05319449	0.05723359	2.400159e-06	-7.269272e-06	-0.04583782	0.03393025
4.6e+08	-0.03460917	0.03191161	8.592665e-07	-8.393488e-06	0.06698054	0.04526335	1.284792e-06	-4.916777e-06
	8.592665e-07	-8.393488e-06	-0.03401662	0.0326781	6.386773e-06	-1.430588e-05	0.0679061	0.04663539
	0.06698054	0.04526335	6.386773e-06	-1.430588e-05	-0.03422794	0.03346816	3.804123e-07	-7.562304e-06
	1.284792e-06	-4.916777e-06	0.0679061	0.04663539	3.804123e-07	-7.562304e-06	-0.03340464	0.03392544
4.7e+08	-0.022013	0.02866613	-1.338031e-06	-8.139433e-06	0.07834298	0.03091871	2.208179e-07	-4.953329e-06
	-1.338031e-06	-8.139433e-06	-0.02145974	0.02924265	3.286523e-06	-1.475634e-05	0.07898936	0.03210977
	0.07834298	0.03091871	3.286523e-06	-1.475634e-05	-0.02146009	0.03010621	-1.660408e-06	-7.284462e-06
	2.208179e-07	-4.953329e-06	0.07898936	0.03210977	-1.660408e-06	-7.284462e-06	-0.0206798	0.03031416
4.8e+08	-0.01009186	0.02166921	-3.402981e-06	-7.284269e-06	0.0851153	0.01375886	-8.413447e-07	-4.695415e-06
