!$
! Info: Touchstone file created by Circ.  Input file=Intel_C2M_200G_13p0in_202208016_staggered.circ
!$
# Hz S RI R 50
0	0.03117366	6.210272e-24	0.0001213508	1.902845e-22	0.0001634477	3.8037e-22	0.0001212873	1.900023e-22
	0.0001213508	1.902845e-22	0.03118645	6.361527e-24	0.0001213351	1.901454e-22	0.0001630716	3.775071e-22
	0.0001635039	3.804937e-22	0.0001213351	1.901474e-22	0.03116864	5.896246e-24	0.0001213011	1.898676e-22
	0.0001212873	1.900043e-22	0.0001631277	3.776299e-22	0.0001213011	1.898676e-22	0.03118445	6.012068e-24
1e+07	0.03804278	-0.008509157	2.367483e-05	9.257035e-06	0.002818298	0.008981787	6.125187e-06	3.025402e-05
	2.367483e-05	9.257035e-06	0.0375764	-0.008869174	7.467576e-05	5.731781e-06	0.003256646	0.009039272
	0.002818298	0.008981787	7.467576e-05	5.731781e-06	0.03855765	-0.008579318	3.30025e-05	3.448312e-05
	6.125187e-06	3.025402e-05	0.003256646	0.009039272	3.30025e-05	3.448312e-05	0.03732929	-0.008829603
2e+07	0.03985027	-0.02409951	1.365693e-05	3.034248e-05	0.007956648	0.01596469	6.556424e-06	7.493847e-06
	1.365693e-05	3.034248e-05	0.03904027	-0.02443635	5.379583e-05	2.655749e-05	0.008323689	0.01592336
	0.007956653	0.01596467	5.379583e-05	2.655749e-05	0.04013459	-0.02434329	2.586789e-05	2.649679e-05
	6.556424e-06	7.493847e-06	0.008323693	0.01592335	2.586789e-05	2.649679e-05	0.03886852	-0.02427676
3e+07	0.03501416	-0.04129975	3.922381e-05	3.000789e-05	0.01522706	0.02061282	8.055247e-06	9.396987e-07
	3.922381e-05	3.000789e-05	0.03396939	-0.04146603	4.442609e-05	4.198852e-05	0.01553674	0.02055986
	0.01522705	0.02061286	4.442609e-05	4.198852e-05	0.0351443	-0.04151727	2.273545e-05	2.552586e-05
	8.05525e-06	9.396978e-07	0.01553673	0.0205599	2.273545e-05	2.552586e-05	0.0338678	-0.04125051
4e+07	0.02460435	-0.05669595	5.703374e-05	1.899628e-05	0.02367274	0.02222097	9.738196e-06	-2.1992e-06
	5.703374e-05	1.899628e-05	0.02341619	-0.05662376	3.902932e-05	4.926115e-05	0.02393138	0.02217646
	0.02367276	0.02222099	3.902932e-05	4.926115e-05	0.02464197	-0.05684341	2.119427e-05	2.471005e-05
	9.738197e-06	-2.199201e-06	0.02393139	0.02217648	2.119428e-05	2.471005e-05	0.02338658	-0.05638833
5e+07	0.01004692	-0.06849459	6.67222e-05	2.600902e-06	0.03214366	0.02063176	1.153678e-05	-4.109566e-06
	6.67222e-05	2.600901e-06	0.008802446	-0.06815242	5.637539e-05	3.260669e-05	0.03235419	0.02060453
	0.03214367	0.02063176	5.637539e-05	3.260669e-05	0.01003803	-0.06856016	2.698146e-05	1.625719e-05
	1.153678e-05	-4.109567e-06	0.0323542	0.02060454	2.698146e-05	1.625719e-05	0.008835952	-0.06792324
6e+07	-0.00710834	-0.07567316	6.917223e-05	-1.538661e-05	0.03951841	0.01605314	1.20068e-05	-6.769901e-06
	6.917223e-05	-1.538661e-05	-0.008327485	-0.07505679	6.485517e-05	1.293602e-05	0.03968039	0.01604793
	0.03951841	0.01605312	6.485516e-05	1.293602e-05	-0.00712903	-0.07566264	2.972976e-05	6.875116e-06
	1.20068e-05	-6.769899e-06	0.03968039	0.01604791	2.972976e-05	6.875116e-06	-0.008245357	-0.0748536
7e+07	-0.02522282	-0.07777569	6.524622e-05	-3.255761e-05	0.04482457	0.009064957	1.126145e-05	-9.558291e-06
	6.524622e-05	-3.255761e-05	-0.02634353	-0.07690256	6.518219e-05	-6.817478e-06	0.04493449	0.009085766
	0.04482456	0.009064955	6.518219e-05	-6.817479e-06	-0.02523314	-0.07770481	2.927542e-05	-2.172831e-06
	1.126145e-05	-9.558291e-06	0.04493448	0.009085764	2.927542e-05	-2.172832e-06	-0.02623161	-0.07673897
8e+07	-0.04269152	-0.07488994	5.608153e-05	-4.723834e-05	0.04735776	0.0005333309	9.476356e-06	-1.205051e-05
	5.608153e-05	-4.723834e-05	-0.04365116	-0.07379426	5.846092e-05	-2.444253e-05	0.0474095	0.0005858159
	0.04735776	0.0005333324	5.846092e-05	-2.444253e-05	-0.0426809	-0.07477765	2.606635e-05	-1.011167e-05
	9.476356e-06	-1.205051e-05	0.0474095	0.0005858174	2.606635e-05	-1.011167e-05	-0.0435309	-0.07367712
9e+07	-0.05809237	-0.06757787	4.290133e-05	-5.833966e-05	0.04675213	-0.008503404	6.935824e-06	-1.391294e-05
	4.290133e-05	-5.833966e-05	-0.0588385	-0.06630636	4.643288e-05	-3.814102e-05	0.04673749	-0.008410359
	0.04675214	-0.008503407	4.643288e-05	-3.814102e-05	-0.05805892	-0.06744117	2.068695e-05	-1.629226e-05
	6.935823e-06	-1.391294e-05	0.0467375	-0.008410363	2.068695e-05	-1.629226e-05	-0.05873267	-0.06623474
1e+08	-0.07025822	-0.05675909	2.580804e-05	-6.533793e-05	0.04300348	-0.01695929	3.920115e-06	-1.493975e-05
	2.580804e-05	-6.533793e-05	-0.07073325	-0.05536597	2.929296e-05	-4.713668e-05	0.04291371	-0.01681272
	0.04300348	-0.01695929	2.929296e-05	-4.713668e-05	-0.07019757	-0.05660877	1.335569e-05	-2.034185e-05
	3.920115e-06	-1.493975e-05	0.04291371	-0.01681272	1.335569e-05	-2.034185e-05	-0.07066387	-0.05533128
1.1e+08	-0.0785665	-0.04380748	9.382301e-06	-6.261634e-05	0.0364368	-0.02380221	1.263129e-06	-1.524339e-05
	9.382301e-06	-6.261634e-05	-0.07877224	-0.0424372	1.2927e-05	-4.45836e-05	0.03626317	-0.02357639
	0.0364368	-0.02380221	1.2927e-05	-4.45836e-05	-0.07854024	-0.04372666	6.220113e-06	-2.017177e-05
	1.263129e-06	-1.524339e-05	0.03626317	-0.02357639	6.220114e-06	-2.017177e-05	-0.07879812	-0.04245644
1.2e+08	-0.08274727	-0.02975372	-2.908428e-06	-5.785432e-05	0.02776954	-0.02813845	-9.936093e-07	-1.541257e-05
	-2.908428e-06	-5.785432e-05	-0.08274702	-0.02844705	1.784394e-06	-3.967202e-05	0.02752069	-0.02780443
	0.02776954	-0.02813845	1.784394e-06	-3.967202e-05	-0.08278328	-0.02966708	6.129537e-07	-1.891074e-05
	-9.93609e-07	-1.541258e-05	0.02752069	-0.02780443	6.129538e-07	-1.891074e-05	-0.08285952	-0.02843749
1.3e+08	-0.0827621	-0.01585882	-1.11098e-05	-5.195248e-05	0.01791191	-0.02940034	-4.003624e-06	-1.525771e-05
	-1.11098e-05	-5.195248e-05	-0.08259532	-0.01464306	-6.663529e-06	-3.358396e-05	0.01760633	-0.02893276
	0.01791191	-0.02940034	-6.663529e-06	-3.358396e-05	-0.08284811	-0.01573702	-4.157183e-06	-1.682186e-05
	-4.003624e-06	-1.525771e-05	0.01760633	-0.02893276	-4.157183e-06	-1.682186e-05	-0.08276272	-0.01457823
1.4e+08	-0.07898533	-0.003278778	-1.623233e-05	-4.553336e-05	0.007913736	-0.02732256	-7.622556e-06	-1.435883e-05
	-1.623234e-05	-4.553336e-05	-0.0786881	-0.002174338	-1.305298e-05	-2.673733e-05	0.007579186	-0.02670232
	0.007913736	-0.02732256	-1.305298e-05	-2.673733e-05	-0.07911557	-0.00311013	-8.183012e-06	-1.403029e-05
	-7.622556e-06	-1.435883e-05	0.007579186	-0.02670232	-8.183012e-06	-1.403029e-05	-0.07889229	-0.00204992
1.5e+08	-0.07209778	0.007034043	-2.100389e-05	-3.828719e-05	-0.001132381	-0.02197838	-1.134911e-05	-1.248649e-05
	-2.100389e-05	-3.828719e-05	-0.07170605	0.00801294	-1.7463e-05	-1.949634e-05	-0.001461057	-0.02119593
	-0.00113238	-0.02197837	-1.7463e-05	-1.949634e-05	-0.07227041	0.007263393	-1.149679e-05	-1.063935e-05
	-1.134911e-05	-1.248649e-05	-0.001461056	-0.02119593	-1.149679e-05	-1.063935e-05	-0.07193862	0.008201409
1.6e+08	-0.06300099	0.01440341	-2.50207e-05	-3.011042e-05	-0.008195054	-0.01378371	-1.489057e-05	-9.525658e-06
	-2.50207e-05	-3.011042e-05	-0.06255139	0.0152493	-2.01529e-05	-1.216756e-05	-0.008479376	-0.01284177
	-0.008195053	-0.01378371	-2.01529e-05	-1.216756e-05	-0.06321013	0.01471226	-1.407223e-05	-6.730079e-06
	-1.489057e-05	-9.525658e-06	-0.008479375	-0.01284177	-1.407223e-05	-6.730079e-06	-0.06280473	0.01551102
1.7e+08	-0.05271759	0.01847417	-2.790534e-05	-2.089849e-05	-0.01240823	-0.003469715	-1.790433e-05	-5.421222e-06
	-2.790534e-05	-2.089849e-05	-0.05224669	0.01918725	-2.058307e-05	-5.199406e-06	-0.01261059	-0.0023846
	-0.01240823	-0.003469714	-2.058307e-05	-5.199406e-06	-0.0529477	0.01888234	-1.56584e-05	-2.332227e-06
	-1.790433e-05	-5.421222e-06	-0.01261059	-0.0023846	-1.56584e-05	-2.332227e-06	-0.05250743	0.01953361
1.8e+08	-0.04228159	0.01922357	-2.911338e-05	-1.08861e-05	-0.01316672	0.007976473	-1.998484e-05	-2.508539e-07
	-2.911338e-05	-1.08861e-05	-0.04182427	0.01981224	-1.952923e-05	1.486024e-06	-0.01325535	0.00917516
	-0.01316672	0.007976473	-1.952923e-05	1.486024e-06	-0.04250684	0.01974595	-1.610796e-05	2.424964e-06
	-1.998484e-05	-2.508539e-07	-0.01325535	0.00917516	-1.610796e-05	2.424964e-06	-0.04207171	0.02025181
1.9e+08	-0.03263372	0.01693559	-2.82498e-05	-5.553476e-07	-0.01020269	0.01940146	-2.074872e-05	5.70091e-06
	-2.82498e-05	-5.553476e-07	-0.03222081	0.01741615	-1.753752e-05	7.914207e-06	-0.01015655	0.02067313
	-0.01020269	0.01940146	-1.753752e-05	7.914207e-06	-0.03282054	0.01757675	-1.559937e-05	7.405318e-06
	-2.074872e-05	5.70091e-06	-0.01015655	0.02067313	-1.559937e-05	7.405318e-06	-0.03242833	0.01794998
2e+08	-0.02453196	0.01214053	-2.509619e-05	9.571242e-06	-0.003630838	0.02960032	-1.990652e-05	1.208167e-05
	-2.509619e-05	9.571242e-06	-0.02418809	0.01253582	-1.456065e-05	1.391949e-05	-0.003443452	0.0308974
	-0.003630838	0.02960032	-1.456065e-05	1.391949e-05	-0.0246452	0.01289215	-1.401314e-05	1.238758e-05
	-1.990652e-05	1.208167e-05	-0.003443451	0.0308974	-1.401314e-05	1.238758e-05	-0.02432807	0.01315504
2.1e+08	-0.01849524	0.005529742	-1.959565e-05	1.889088e-05	0.006045871	0.03744423	-1.726432e-05	1.843724e-05
	-1.959565e-05	1.889088e-05	-0.01823713	0.005866967	-1.058948e-05	1.931296e-05	0.006364121	0.03871764
	0.006045871	0.03744423	-1.058948e-05	1.931296e-05	-0.0185018	0.006369911	-1.127431e-05	1.710419e-05
	-1.726432e-05	1.843724e-05	0.006364121	0.03871764	-1.127431e-05	1.710419e-05	-0.01828354	0.006551911
2.2e+08	-0.01477907	-0.002139588	-1.186679e-05	2.676011e-05	0.01797502	0.04200636	-1.275908e-05	2.423921e-05
	-1.186679e-05	2.676011e-05	-0.01461487	-0.001831719	-5.649697e-06	2.386136e-05	0.01839683	0.0432116
	0.01797502	0.04200636	-5.649697e-06	2.386136e-05	-0.01465453	-0.001244881	-7.373037e-06	2.124466e-05
	-1.275908e-05	2.423921e-05	0.01839683	0.0432116	-7.373037e-06	2.124466e-05	-0.01454902	-0.001110479
2.3e+08	-0.01339121	-0.01013682	-2.218735e-06	3.254966e-05	0.03103533	0.04266966	-6.481957e-06	2.892119e-05
	-2.218735e-06	3.254966e-05	-0.01332099	-0.009830867	1.691859e-07	2.729788e-05	0.03151856	0.04377253
	0.03103533	0.04266966	1.691859e-07	2.729788e-05	-0.01312359	-0.009229166	-2.386967e-06	2.446607e-05
	-6.481957e-06	2.892119e-05	0.03151856	0.04377253	-2.386967e-06	2.446607e-05	-0.01313454	-0.009108697
2.4e+08	-0.01413578	-0.01783109	8.851562e-06	3.569708e-05	0.04394978	0.03920095	1.300961e-06	3.192169e-05
	8.851562e-06	3.569708e-05	-0.01415301	-0.01750311	6.684347e-06	2.9339e-05	0.04444152	0.04018242
	0.04394978	0.03920095	6.684347e-06	2.9339e-05	-0.01372729	-0.01695554	3.497616e-06	2.641911e-05
	1.300961e-06	3.192169e-05	0.04444152	0.04018242	3.497616e-06	2.641911e-05	-0.01384947	-0.01681813
2.5e+08	-0.01667569	-0.02473843	2.067344e-05	3.575917e-05	0.0554176	0.03178349	1.014522e-05	3.27373e-05
	2.067344e-05	3.575917e-05	-0.01676929	-0.02436938	1.360402e-05	2.971934e-05	0.05585967	0.0326428
	0.0554176	0.03178349	1.360402e-05	2.971934e-05	-0.01614345	-0.02393761	9.969785e-06	2.678526e-05
	1.014522e-05	3.27373e-05	0.05585967	0.0326428	9.969785e-06	2.678526e-05	-0.01636463	-0.0237574
2.6e+08	-0.02060069	-0.03053944	3.242813e-05	3.246241e-05	0.06424867	0.02100447	1.943569e-05	3.097942e-05
	3.242813e-05	3.246241e-05	-0.02075726	-0.03011544	2.052134e-05	2.823699e-05	0.06458378	0.02176025
	0.06424867	0.02100447	2.052134e-05	2.823699e-05	-0.01997482	-0.0298495	1.659818e-05	2.532495e-05
	1.943569e-05	3.097942e-05	0.06458378	0.02176025	1.659818e-05	2.532495e-05	-0.02027839	-0.02960689
2.7e+08	-0.02548928	-0.03507197	4.318875e-05	2.575197e-05	0.06948448	0.007799596	2.841457e-05	2.643308e-05
	4.318875e-05	2.575197e-05	-0.02569499	-0.03458403	2.693121e-05	2.480209e-05	0.06966253	0.008489052
	0.06948448	0.007799596	2.693121e-05	2.480209e-05	-0.02481029	-0.03451848	2.28529e-05	2.192506e-05
	2.841457e-05	2.643308e-05	0.06966253	0.008489052	2.28529e-05	2.192506e-05	-0.02517765	-0.03420031
2.8e+08	-0.03095781	-0.03830521	5.197408e-05	1.583699e-05	0.07049564	-0.006635311	3.622835e-05	1.911201e-05
	5.197408e-05	1.583699e-05	-0.03119972	-0.03774808	3.226769e-05	1.948016e-05	0.07047943	-0.005959246
	0.07049564	-0.006635311	3.226769e-05	1.948016e-05	-0.03027265	-0.03790017	2.814645e-05	1.664067e-05
	3.622835e-05	1.911201e-05	0.07047943	-0.005959246	2.814645e-05	1.664067e-05	-0.03068539	-0.03749903
2.9e+08	-0.03669131	-0.04030192	5.782649e-05	3.221776e-06	0.06704592	-0.02095745	4.200016e-05	9.300466e-06
	5.782649e-05	3.221776e-06	-0.0369582	-0.03967283	3.595815e-05	1.252173e-05	0.06681589	-0.02023045
	0.06704592	-0.02095745	3.595815e-05	1.252173e-05	-0.03604921	-0.04004321	3.189429e-05	9.716714e-06
	4.200016e-05	9.300466e-06	0.06681589	-0.02023045	3.189429e-05	9.716714e-06	-0.0364906	-0.03955615
3e+08	-0.04245808	-0.04117806	5.990567e-05	-1.128573e-05	0.05931911	-0.03380268	4.491911e-05	-2.430392e-06
	5.990567e-05	-1.128573e-05	-0.04274042	-0.04047545	3.749105e-05	4.367094e-06	0.05887671	-0.03295475
	0.05931911	-0.03380268	3.749105e-05	4.367094e-06	-0.04190594	-0.04104903	3.358016e-05	1.58861e-06
	4.491911e-05	-2.430392e-06	0.05887671	-0.03295475	3.358016e-05	1.58861e-06	-0.04236178	-0.04047596
3.1e+08	-0.04810788	-0.041064	5.75941e-05	-2.65909e-05	0.04790886	-0.04391363	4.434052e-05	-1.52354e-05
	5.75941e-05	-2.65909e-05	-0.04839753	-0.04028643	3.648016e-05	-4.377207e-06	0.04727801	-0.04287588
	0.04790886	-0.04391363	3.648016e-05	-4.377207e-06	-0.04768687	-0.04103487	3.282065e-05	-7.14131e-06
	4.434052e-05	-1.52354e-05	0.04727801	-0.04287588	3.282065e-05	-7.14131e-06	-0.04814549	-0.04037708
3.2e+08	-0.05355828	-0.04007209	5.060041e-05	-4.138451e-05	0.03377027	-0.05025902	3.988258e-05	-2.804698e-05
	5.060041e-05	-4.138451e-05	-0.05384762	-0.03921749	3.272144e-05	-1.297452e-05	0.03299698	-0.04897081
	0.03377027	-0.05025902	3.272144e-05	-1.297452e-05	-0.05329935	-0.04010125	2.94169e-05	-1.575242e-05
	3.988258e-05	-2.804698e-05	0.03299698	-0.04897081	2.94169e-05	-1.575242e-05	-0.0537511	-0.03935986
3.3e+08	-0.05876962	-0.0382727	3.9043e-05	-5.424222e-05	0.01813848	-0.05213449	3.150452e-05	-3.966556e-05
	3.9043e-05	-5.424222e-05	-0.05905047	-0.037338	2.622909e-05	-2.062411e-05	0.01728797	-0.05055047
	0.01813848	-0.05213449	2.622909e-05	-2.062411e-05	-0.05869124	-0.03831064	2.339033e-05	-2.346322e-05
	3.150452e-05	-3.966556e-05	0.01728797	-0.05055047	2.339033e-05	-2.346322e-05	-0.05912728	-0.03748572
3.4e+08	-0.06371405	-0.03568214	2.349266e-05	-6.376667e-05	0.002419294	-0.04923693	1.955431e-05	-4.887357e-05
	2.349266e-05	-6.376667e-05	-0.0639764	-0.03466363	1.725461e-05	-2.652374e-05	0.001570944	-0.04733327
	0.002419294	-0.04923693	1.725461e-05	-2.652374e-05	-0.06381931	-0.03567524	1.499362e-05	-2.950285e-05
	1.955431e-05	-4.887357e-05	0.001570944	-0.04733327	1.499362e-05	-2.950285e-05	-0.06423011	-0.0347655
3.5e+08	-0.06834069	-0.03226545	4.966488e-06	-6.874144e-05	-0.01193902	-0.04170174	4.763243e-06	-5.457118e-05
	4.966488e-06	-6.874144e-05	-0.0685716	-0.03115955	6.285778e-06	-2.994142e-05	-0.01269893	-0.03948056
	-0.01193902	-0.04170174	6.285778e-06	-2.994142e-05	-0.06861741	-0.03216014	4.704446e-06	-3.317721e-05
	4.763243e-06	-5.457118e-05	-0.01269893	-0.03948056	4.704446e-06	-3.317721e-05	-0.068991	-0.03116353
3.6e+08	-0.07254399	-0.02795357	-1.514706e-05	-6.827838e-05	-0.02358227	-0.03010057	-1.179239e-05	-5.589817e-05
	-1.514706e-05	-6.827838e-05	-0.07272666	-0.02675842	-5.981303e-06	-3.028207e-05	-0.02416928	-0.027592
	-0.02358227	-0.03010057	-5.981303e-06	-3.028207e-05	-0.07296391	-0.02770117	-6.799988e-06	-3.393188e-05
	-1.179239e-05	-5.589817e-05	-0.02416928	-0.027592	-6.799988e-06	-3.393188e-05	-0.07328459	-0.02661633
3.7e+08	-0.0761394	-0.02267631	-3.519536e-05	-6.193753e-05	-0.03138134	-0.01539511	-2.878422e-05	-5.234217e-05
	-3.519536e-05	-6.193753e-05	-0.07625312	-0.02139385	-1.867036e-05	-2.714602e-05	-0.03172205	-0.01265614
	-0.03138134	-0.01539511	-1.867036e-05	-2.714602e-05	-0.07666062	-0.02223767	-1.868852e-05	-3.140513e-05
	-2.878422e-05	-5.234217e-05	-0.03172205	-0.01265614	-1.868852e-05	-3.140513e-05	-0.07690824	-0.02106621
3.8e+08	-0.07885614	-0.01640583	-5.342574e-05	-4.978961e-05	-0.0345422	0.001148051	-4.475083e-05	-4.380598e-05
	-5.342574e-05	-4.978961e-05	-0.07887704	-0.01504426	-3.07883e-05	-2.037853e-05	-0.03458302	0.004037826
	-0.0345422	0.001148051	-3.07883e-05	-2.037853e-05	-0.07942624	-0.01575494	-3.002137e-05	-2.547159e-05
	-4.475083e-05	-4.380598e-05	-0.03458302	0.004037826	-3.002137e-05	-2.547159e-05	-0.07957668	-0.01450427
3.9e+08	-0.08034851	-0.009205048	-6.814285e-05	-3.243448e-05	-0.03268579	0.01807339	-5.82318e-05	-3.062809e-05
	-6.814285e-05	-3.243448e-05	-0.08025168	-0.007780975	-4.128586e-05	-1.010663e-05	-0.03239983	0.0210189
	-0.03268579	0.01807339	-4.128586e-05	-1.010663e-05	-0.08090859	-0.008333012	-3.982238e-05	-1.626781e-05
	-5.82318e-05	-3.062809e-05	-0.03239983	0.0210189	-3.982238e-05	-1.626781e-05	-0.08093573	-0.007019018
4e+08	-0.08023249	-0.001272436	-7.786707e-05	-1.095774e-05	-0.02588511	0.03387206	-6.789068e-05	-1.357332e-05
	-7.786707e-05	-1.095774e-05	-0.07999511	0.0001876229	-4.913621e-05	3.238589e-06	-0.02527644	0.03677204
	-0.02588511	0.03387206	-4.913621e-05	3.238589e-06	-0.08072307	-0.0001874988	-4.714398e-05	-4.213009e-06
	-6.789068e-05	-1.357332e-05	-0.02527644	0.03677204	-4.714398e-05	-4.213009e-06	-0.08060195	0.001163441
4.1e+08	-0.07814219	0.007030312	-8.146679e-05	1.315848e-05	-0.01465992	0.04712004	-7.263381e-05	6.231046e-06
	-8.146679e-05	1.315848e-05	-0.07774759	0.008489845	-5.342497e-05	1.892453e-05	-0.01376447	0.04987725
	-0.01465992	0.04712004	-5.342497e-05	1.892453e-05	-0.07850774	0.008302404	-5.115203e-05	1.000508e-05
	-7.263381e-05	6.231046e-06	-0.01376447	0.04987725	-5.115203e-05	1.000508e-05	-0.0782189	0.009652901
4.2e+08	-0.07379749	0.01517424	-7.824775e-05	3.814175e-05	7.054799e-05	0.05660713	-7.169984e-05	2.735973e-05
	-7.824775e-05	3.814175e-05	-0.07323926	0.01658825	-5.344245e-05	3.594498e-05	0.001187499	0.05913833
	7.054799e-05	0.05660713	-5.344245e-05	3.594498e-05	-0.07399204	0.01659207	-5.119999e-05	2.544974e-05
	-7.169984e-05	2.735973e-05	0.001187499	0.05913833	-5.119999e-05	2.544974e-05	-0.07352611	0.01789484
4.3e+08	-0.06707818	0.02248828	-6.801546e-05	6.20566e-05	0.01707012	0.06144293	-6.472713e-05	4.819023e-05
	-6.801546e-05	6.20566e-05	-0.06636382	0.02380653	-4.876039e-05	5.307284e-05	0.01831943	0.06368746
	0.01707012	0.06144293	-4.876039e-05	5.307284e-05	-0.06706963	0.02399861	-4.690593e-05	4.09901e-05
	-6.472713e-05	4.819023e-05	0.01831943	0.06368746	-4.690593e-05	4.09901e-05	-0.06643156	0.02519959
4.4e+08	-0.05808466	0.02821481	-5.110572e-05	8.293236e-05	0.03489211	0.06113342	-5.179974e-05	6.700507e-05
	-5.110572e-05	8.293236e-05	-0.05723802	0.02938641	-3.930916e-05	6.894549e-05	0.03616875	0.06305973
	0.03489211	0.06113342	-3.930916e-05	6.894549e-05	-0.05785729	0.02975661	-3.821044e-05	5.537258e-05
	-5.179974e-05	6.700507e-05	0.03616875	0.06305973	-3.821044e-05	5.537258e-05	-0.05706949	0.03079964
4.5e+08	-0.04717767	0.03158767	-2.838381e-05	9.889263e-05	0.05200212	0.05562429	-3.348105e-05	8.209531e-05
	-2.838381e-05	9.889263e-05	-0.04623973	0.03256656	-2.541852e-05	8.216747e-05	0.05319449	0.05723359
	0.05200212	0.05562429	-2.541852e-05	8.216747e-05	-0.04673413	0.03309771	-2.541414e-05	6.731627e-05
	-3.348105e-05	8.209531e-05	0.05319449	0.05723359	-2.541414e-05	6.731627e-05	-0.04583782	0.03393025
4.6e+08	-0.03498881	0.03192751	-1.23439e-06	0.0001082845	0.06690608	0.04530834	-1.081914e-05	9.189157e-05
	-1.23439e-06	0.0001082845	-0.03401662	0.0326781	-7.823758e-06	9.142836e-05	0.0679061	0.04663539
	0.06690608	0.04530834	-7.823758e-06	9.142836e-05	-0.03434977	0.03334603	-9.197273e-06	7.561204e-05
	-1.081914e-05	9.189157e-05	0.0679061	0.04663539	-9.197273e-06	7.561204e-05	-0.03340464	0.03392544
4.7e+08	-0.02239586	0.02874005	2.848269e-05	0.0001098194	0.07827641	0.03099882	1.467596e-05	9.510128e-05
	2.848269e-05	0.0001098194	-0.02145974	0.02924265	1.234311e-05	9.561781e-05	0.07898936	0.03210977
	0.07827641	0.03099882	1.234311e-05	9.561781e-05	-0.02159806	0.03001432	9.399129e-06	7.923515e-05
	1.467596e-05	9.510128e-05	0.07898936	0.03210977	9.399129e-06	7.923515e-05	-0.0206798	0.03031416
4.8e+08	-0.01046082	0.02180169	5.850421e-05	0.0001027159	0.08506688	0.01386935	4.107991e-05	9.084953e-05
