!$
! Info: Touchstone file created by Circ.  Input file=Intel_C2M_200G_13p0in_202208016_staggered.circ
!$
# Hz S RI R 50
0	0.03118645	6.361527e-24	0.9686159	-1.074736e-23	0.0001630716	3.775071e-22	-0.0002923937	3.58079e-20
	0.9686159	-1.0743e-23	0.03173602	1.12215e-23	-0.0002924501	3.581481e-20	0.000383801	1.186391e-21
	0.0001631277	3.776299e-22	-0.0002925844	3.583126e-20	0.03118445	6.012068e-24	0.9686162	-1.100883e-23
	-0.000292528	3.582435e-20	0.0003838656	1.187231e-21	0.9686162	-1.10132e-23	0.03173745	1.151863e-23
1e+07	0.0375764	-0.008869174	0.9453142	-0.1738552	0.003256646	0.009039272	-0.0013712	7.333777e-06
	0.9453142	-0.1738552	0.03712022	-0.008252934	-0.001371244	7.513083e-06	0.002919866	0.009152398
	0.003256646	0.009039272	-0.001371244	7.513083e-06	0.03732929	-0.008829603	0.9455695	-0.1738705
	-0.0013712	7.333777e-06	0.002919866	0.009152398	0.9455695	-0.1738705	0.03687141	-0.008210827
2e+07	0.03904027	-0.02443635	0.8936204	-0.3342678	0.008323689	0.01592336	-0.001136767	0.0006264172
	0.8936204	-0.3342678	0.03748274	-0.02263734	-0.001136645	0.0006266784	0.0070739	0.01658885
	0.008323693	0.01592335	-0.001136664	0.0006265713	0.03886852	-0.02427676	0.8938213	-0.3343916
	-0.001136784	0.000626316	0.007073984	0.01658874	0.8938213	-0.3343916	0.03730032	-0.02246673
3e+07	0.03396939	-0.04146603	0.8175626	-0.4803201	0.01553674	0.02055986	-0.0005101413	0.0008810114
	0.8175626	-0.4803201	0.03044137	-0.03773614	-0.0005100204	0.0008815585	0.01312585	0.02224763
	0.01553673	0.0205599	-0.0005100584	0.0008815723	0.0338678	-0.04125051	0.8177128	-0.4804949
	-0.0005101534	0.0008810108	0.01312582	0.0222476	0.8177128	-0.4804949	0.03033316	-0.03750881
4e+07	0.02341619	-0.05662376	0.7191482	-0.6096902	0.02393138	0.02217646	0.000231055	0.0006341296
	0.7191482	-0.6096902	0.01803684	-0.04958926	0.0002313534	0.0006351425	0.02028662	0.02570085
	0.02393139	0.02217648	0.0002313515	0.0006351476	0.02338658	-0.05638833	0.7192457	-0.6098992
	0.0002310595	0.000634142	0.02028662	0.02570086	0.7192457	-0.6098992	0.01799694	-0.0493342
5e+07	0.008802446	-0.06815242	0.6014806	-0.7193065	0.03235419	0.02060453	0.0007752558	-0.0001130453
	0.6014806	-0.7193065	0.00216282	-0.0565867	0.0007759471	-0.0001115315	0.02777712	0.02675051
	0.0323542	0.02060454	0.0007759497	-0.0001115337	0.008835952	-0.06792324	0.6015225	-0.7195381
	0.0007752582	-0.0001130479	0.02777712	0.02675052	0.6015225	-0.7195381	0.002183074	-0.05632517
6e+07	-0.008327485	-0.07505679	0.4682753	-0.806575	0.03968039	0.01604793	0.0008541268	-0.001206247
	0.4682753	-0.806575	-0.01513127	-0.0578933	0.0008555363	-0.001204186	0.03479476	0.02550755
	0.03968039	0.01604791	0.0008555361	-0.001204187	-0.008245357	-0.0748536	0.4682579	-0.8068169
	0.0008541272	-0.001206249	0.03479476	0.02550755	0.4682579	-0.8068169	-0.015063	-0.05764029
7e+07	-0.02634353	-0.07690256	0.3236103	-0.8695854	0.04493449	0.009085766	0.0003105079	-0.002372169
	0.3236103	-0.8695854	-0.03175857	-0.05345923	0.0003130575	-0.00236985	0.04065028	0.02234041
	0.04493448	0.009085764	0.0003130646	-0.002369917	-0.02623161	-0.07673897	0.3235305	-0.8698232
	0.0003105086	-0.002372172	0.04065027	0.02234041	0.3235305	-0.8698232	-0.03165721	-0.05322321
8e+07	-0.04365116	-0.07379426	0.1717328	-0.9071563	0.0474095	0.0005858159	-0.0008585069	-0.003289904
	0.1717328	-0.9071563	-0.04583949	-0.04393615	-0.0008545274	-0.003287844	0.04483874	0.01780608
	0.0474095	0.0005858174	-0.0008545264	-0.003287842	-0.0435309	-0.07367712	0.1715924	-0.9073756
	-0.0008585064	-0.003289902	0.04483874	0.01780608	0.1715924	-0.9073756	-0.04572074	-0.04371929
9e+07	-0.0588385	-0.06630636	0.01690126	-0.9188119	0.04673749	-0.008410359	-0.00250126	-0.003671044
	0.01690126	-0.9188119	-0.05588256	-0.03052603	-0.002495696	-0.003669901	0.04707989	0.01256992
	0.0467375	-0.008410363	-0.002495689	-0.003669897	-0.05873267	-0.06623474	0.01670523	-0.9189952
	-0.002501255	-0.003671038	0.04707989	0.01256992	0.01670523	-0.9189952	-0.0557601	-0.03032337
1e+08	-0.07073325	-0.05536597	-0.136831	-0.9047086	0.04291371	-0.01681272	-0.004350237	-0.003323927
	-0.136831	-0.9047086	-0.06084762	-0.0148095	-0.004343185	-0.003324352	0.0473269	0.007319461
	0.04291371	-0.01681272	-0.004343186	-0.003324352	-0.07066387	-0.05533128	-0.13707	-0.9048431
	-0.004350237	-0.003323928	0.0473269	0.007319461	-0.13707	-0.9048431	-0.06073232	-0.01461128
1.1e+08	-0.07877224	-0.0424372	-0.2850012	-0.8650733	0.03626317	-0.02357639	-0.006053266	-0.002197209
	-0.2850012	-0.8650733	-0.06055647	0.001168601	-0.006044554	-0.002201902	0.04571649	0.002723578
	0.03626317	-0.02357639	-0.006044554	-0.002201903	-0.07879812	-0.04245644	-0.2852732	-0.865152
	-0.006053267	-0.002197209	0.04571649	0.002723578	-0.2852732	-0.865152	-0.0604515	0.001394036
1.2e+08	-0.08274702	-0.02844705	-0.423509	-0.8020087	0.02752069	-0.02780443	-0.007312986	-0.0004257491
	-0.423509	-0.8020087	-0.05533322	0.01609611	-0.007305563	-0.0004341243	0.04264956	-0.000644223
	0.02752069	-0.02780443	-0.007305564	-0.0004341249	-0.08285952	-0.02843749	-0.4237989	-0.8020243
	-0.007312987	-0.0004257495	0.04264956	-0.0006442225	-0.4237989	-0.8020243	-0.05522794	0.0163494
1.3e+08	-0.08259532	-0.01464306	-0.5490181	-0.717501	0.01760633	-0.02893276	-0.007904343	0.0017748
	-0.5490181	-0.717501	-0.04574928	0.02845464	-0.007899546	0.001763763	0.03864333	-0.002398714
	0.01760633	-0.02893276	-0.007899547	0.001763763	-0.08276272	-0.01457823	-0.5493119	-0.7174533
	-0.007904344	0.001774799	0.03864333	-0.002398713	-0.5493119	-0.7174533	-0.04563691	0.02873974
1.4e+08	-0.0786881	-0.002174338	-0.6584047	-0.6139858	0.007579186	-0.02670232	-0.007717035	0.004111599
	-0.6584047	-0.6139858	-0.03290128	0.03703511	-0.007715379	0.004098912	0.0342998	-0.002330524
	0.007579186	-0.02670232	-0.00771538	0.004098912	-0.07889229	-0.00204992	-0.6586873	-0.613875
	-0.007717036	0.004111599	0.0342998	-0.002330524	-0.6586873	-0.613875	-0.03277266	0.03735656
1.5e+08	-0.07170605	0.00801294	-0.7489132	-0.4943275	-0.001461057	-0.02119593	-0.006775241	0.006280324
	-0.7489132	-0.4943275	-0.01821245	0.04106765	-0.006777487	0.00626683	0.0302538	-0.0004279204
	-0.001461056	-0.02119593	-0.006777488	0.00626683	-0.07193862	0.008201409	-0.7491709	-0.4941586
	-0.006775242	0.006280324	0.0302538	-0.0004279198	-0.7491709	-0.4941586	-0.01805551	0.04142821
1.6e+08	-0.06255139	0.0152493	-0.8182236	-0.36179	-0.008479376	-0.01284177	-0.005225398	0.008026394
	-0.8182236	-0.36179	-0.003263954	0.04029721	-0.00523206	0.008013441	0.02711394	0.003120341
	-0.008479375	-0.01284177	-0.00523206	0.008013442	-0.06280473	0.01551102	-0.8184461	-0.3615695
	-0.005225399	0.008026394	0.02711394	0.003120342	-0.8184461	-0.3615695	-0.003064304	0.04069578
1.7e+08	-0.05224669	0.01918725	-0.8645313	-0.219991	-0.01261059	-0.0023846	-0.003297221	0.009192534
	-0.8645313	-0.219991	0.01038519	0.0350039	-0.003308129	0.009181894	0.02540107	0.007937111
	-0.01261059	-0.0023846	-0.003308129	0.009181895	-0.05250743	0.01953361	-0.8647098	-0.219728
	-0.003297222	0.009192535	0.02540107	0.007937112	-0.8647098	-0.219728	0.01064238	0.0354338
1.8e+08	-0.04182427	0.01981224	-0.8866201	-0.07283406	-0.01325535	0.00917516	-0.001247791	0.009742043
	-0.8866201	-0.07283406	0.02137443	0.02596266	-0.001262022	0.009735487	0.02549049	0.0134905
	-0.01325535	0.00917516	-0.001262022	0.009735488	-0.04207171	0.02025181	-0.886748	-0.0725386
	-0.001247791	0.009742043	0.02549049	0.0134905	-0.886748	-0.0725386	0.02170157	0.02641154
1.9e+08	-0.03222081	0.01741615	-0.8839299	0.07558474	-0.01015655	0.02067313	0.000697986	0.009752558
	-0.8839299	0.07558474	0.0286939	0.01434575	0.0006822415	0.009751404	0.02756375	0.01914715
	-0.01015655	0.02067313	0.0006822413	0.009751404	-0.03242833	0.01794998	-0.8840057	0.07590157
	0.0006979859	0.009752558	0.02756375	0.01914715	-0.8840057	0.07590157	0.02909972	0.01479691
2e+08	-0.02418809	0.01253582	-0.8566104	0.2210993	-0.003443452	0.0308974	0.002395053	0.009382318
	-0.8566104	0.2210993	0.03179835	0.001579363	0.002380077	0.009387174	0.03158036	0.02424224
	-0.003443451	0.0308974	0.002380077	0.009387174	-0.02432807	0.01315504	-0.8566313	0.22143
	0.002395053	0.009382318	0.03158036	0.02424224	-0.8566313	0.22143	0.03228465	0.002012852
2.1e+08	-0.01823713	0.005866967	-0.8055384	0.3596147	0.006364121	0.03871764	0.003803139	0.008818806
	-0.8055384	0.3596147	0.03065862	-0.0108306	0.003791663	0.008828864	0.03727772	0.02815949
	0.006364121	0.03871764	0.003791663	0.008828864	-0.01828354	0.006551911	-0.8055041	0.359951
	0.003803139	0.008818806	0.03727772	0.02815949	-0.8055041	0.359951	0.03122159	-0.01043519
2.2e+08	-0.01461487	-0.001831719	-0.732297	0.4872505	0.01839683	0.0432116	0.004983188	0.00822127
	-0.732297	0.4872505	0.02575553	-0.02147982	0.004977148	0.008234695	0.04419981	0.03040657
	0.01839683	0.0432116	0.004977148	0.008234695	-0.01454902	-0.001110479	-0.7322071	0.4875861
	0.004983188	0.00822127	0.04419981	0.03040657	-0.7322071	0.4875861	0.02638375	-0.02114093
2.3e+08	-0.01332099	-0.009830867	-0.6391206	0.6004773	0.03151856	0.04377253	0.006065014	0.007675592
	-0.6391206	0.6004773	0.01800628	-0.02923004	0.00606565	0.007689562	0.05175396	0.03067493
	0.03151856	0.04377253	0.00606565	0.007689562	-0.01313454	-0.009108697	-0.6389731	0.6008065
	0.006065014	0.007675592	0.05175396	0.03067493	-0.6389731	0.6008065	0.01868257	-0.02896164
2.4e+08	-0.01415301	-0.01750311	-0.5288043	0.6962381	0.04444152	0.04018242	0.007199001	0.007169783
	-0.5288043	0.6962381	0.008643042	-0.03333612	0.00720586	0.007181351	0.05928555	0.02887425
	0.04444152	0.04018242	0.00720586	0.007181351	-0.01384947	-0.01681813	-0.5285983	0.6965529
	0.007199001	0.007169783	0.05928555	0.02887425	-0.5285983	0.6965529	0.009346032	-0.03314558
2.5e+08	-0.01676929	-0.02436938	-0.4045955	0.7720275	0.05585967	0.0326428	0.008500872	0.00659898
	-0.4045955	0.7720275	-0.0009423628	-0.03352092	0.008512197	0.006605439	0.06615709	0.0251351
	0.05585967	0.0326428	0.008512196	0.006605439	-0.01636463	-0.0237574	-0.404327	0.7723177
	0.008500872	0.00659898	0.06615709	0.0251351	-0.404327	0.7723177	-0.0002354924	-0.03340766
2.6e+08	-0.02075726	-0.03011544	-0.2700698	0.825949	0.06458378	0.02176025	0.01000807	0.005795962
	-0.2700698	0.825949	-0.009365646	-0.029992	0.01002107	0.005795405	0.07182093	0.01978407
	0.06458378	0.02176025	0.01002107	0.005795405	-0.02027839	-0.02960689	-0.2697403	0.8262011
	0.01000807	0.005795962	0.07182093	0.01978407	-0.2697403	0.8262011	-0.008676231	-0.02994777
2.7e+08	-0.02569499	-0.03458403	-0.1290206	0.8567388	0.06966253	0.008489052	0.01165634	0.004578595
	-0.1290206	0.8567388	-0.01540695	-0.02340383	0.01166745	0.004571023	0.07587492	0.01329747
	0.06966253	0.008489052	0.01166745	0.004571023	-0.02517765	-0.03420031	-0.1286325	0.8569396
	0.01165634	0.004578595	0.07587492	0.01329747	-0.1286325	0.8569396	-0.01475204	-0.02341297
2.8e+08	-0.03119972	-0.03774808	0.01465073	0.8637737	0.07047943	-0.005959246	0.01328248	0.002803636
	0.01465073	0.8637737	-0.01814451	-0.01477179	0.01328839	0.002790275	0.07809666	0.006241352
	0.07047943	-0.005959246	0.01328839	0.002790275	-0.03068539	-0.03749903	0.0150903	0.8639078
	0.01328248	0.002803636	0.07809666	0.006241352	0.0150903	0.8639078	-0.01753454	-0.01481325
2.9e+08	-0.0369582	-0.03967283	0.1570307	0.8470598	0.06681589	-0.02023045	0.01465247	0.0004112681
	0.1570307	0.8470598	-0.01705086	-0.005351158	0.01465082	0.0003952545	0.07845559	-0.0007904716
	0.06681589	-0.02023045	0.01465082	0.0003952545	-0.0364906	-0.03955615	0.1575099	0.8471128
	0.01465247	0.0004112682	0.07845559	-0.0007904716	0.1575099	0.8471128	-0.01648791	-0.005401597
3e+08	-0.04274042	-0.04047545	0.2942828	0.8072144	0.05887671	-0.03295475	0.01550772	-0.002546626
	0.2942828	0.8072144	-0.01204327	0.003504066	0.01549769	-0.002561409	0.07710626	-0.007236923
	0.05887671	-0.03295475	0.01549769	-0.002561409	-0.04236178	-0.04047596	0.2947851	0.8071734
	0.01550772	-0.002546626	0.07710626	-0.007236923	0.2947851	0.8071734	-0.01152068	0.003467749
3.1e+08	-0.04839753	-0.04028643	0.4227297	0.7454472	0.04727801	-0.04287588	0.01561864	-0.005905057
	0.4227297	0.7454472	-0.003489209	0.01049107	0.01560102	-0.005914665	0.07436649	-0.01262087
	0.04727801	-0.04287588	0.01560102	-0.005914665	-0.04814549	-0.04037708	0.423232	0.7453039
	0.01561864	-0.005905057	0.07436649	-0.01262087	0.423232	0.7453039	-0.002992618	0.01048825
3.2e+08	-0.05384762	-0.03921749	0.5389283	0.6635324	0.03299698	-0.04897081	0.01483357	-0.009408099
	0.5389283	0.6635324	0.007835446	0.01449963	0.01481126	-0.009409195	0.07068244	-0.01659342
	0.03299698	-0.04897081	0.01481126	-0.009409195	-0.0537511	-0.03935986	0.5394101	0.6632851
	0.01483357	-0.009408099	0.07068244	-0.01659342	0.5394101	0.6632851	0.008327683	0.01454427
3.3e+08	-0.05905047	-0.037338	0.6397603	0.5637738	0.01728797	-0.05055047	0.0131121	-0.0127514
	0.6397603	0.5637738	0.02083259	0.01473455	0.01308986	-0.01274189	0.06658435	-0.01896522
	0.01728797	-0.05055047	0.01308986	-0.01274189	-0.05912728	-0.03748572	0.6401963	0.5634279
	0.0131121	-0.0127514	0.06658435	-0.01896522	0.6401963	0.5634279	0.0213462	0.01483231
3.4e+08	-0.0639764	-0.03466363	0.7225087	0.4489656	0.001570944	-0.04733327	0.01053668	-0.01563472
	0.7225087	0.4489656	0.03420076	0.01080467	0.01051902	-0.01561523	0.0626355	-0.01972601
	0.001570944	-0.04733327	0.01051902	-0.01561523	-0.06423011	-0.0347655	0.7228792	0.4485308
	0.01053668	-0.01563472	0.06263549	-0.01972601	0.7228792	0.4485308	0.03476353	0.01095214
3.5e+08	-0.0685716	-0.03115955	0.7849493	0.322323	-0.01269893	-0.03948056	0.00729673	-0.01781489
	0.7849493	0.322323	0.0465805	0.002768119	0.007288072	-0.01778804	0.05937366	-0.01904953
	-0.01269893	-0.03948056	0.007288073	-0.01778804	-0.068991	-0.03116353	0.7852324	0.3218166
	0.00729673	-0.01781489	0.05937366	-0.01904953	0.7852324	0.3218166	0.0472177	0.002951552
3.6e+08	-0.07272666	-0.02675842	0.8254203	0.1874066	-0.02416928	-0.027592	0.003652815	-0.0191443
	0.8254203	0.1874066	0.05670544	-0.008872807	0.003656428	-0.01911472	0.05725287	-0.01727831
	-0.02416928	-0.027592	0.003656428	-0.01911472	-0.07328459	-0.02661633	0.8256031	0.1868486
	0.003652815	-0.0191443	0.05725287	-0.01727831	0.8256031	0.1868486	0.05743847	-0.008674968
3.7e+08	-0.07625312	-0.02139385	0.842891	0.04801452	-0.03172205	-0.01265614	-0.0001128471	-0.01958884
	0.842891	0.04801452	0.06354721	-0.02322702	-9.660763e-05	-0.01956227	0.05658975	-0.01489041
	-0.03172205	-0.01265614	-9.660763e-05	-0.01956227	-0.07690824	-0.02106621	0.8429672	0.04742674
	-0.0001128471	-0.01958884	0.05658975	-0.01489041	0.8429672	0.04742674	0.06438981	-0.0230439
3.8e+08	-0.07887704	-0.01504426	0.837003	-0.09193532	-0.03458302	0.004037826	-0.003748765	-0.01922052
	0.837003	-0.09193532	0.06643146	-0.03911755	-0.003721336	-0.01920271	0.0575224	-0.01244702
	-0.03458302	0.004037826	-0.003721336	-0.01920271	-0.07957668	-0.01450427	0.8369686	-0.09252926
	-0.003748765	-0.01922052	0.0575224	-0.01244702	0.8369686	-0.09252926	0.06738722	-0.03898274
3.9e+08	-0.08025168	-0.007780975	0.8080803	-0.2285333	-0.03239983	0.0210189	-0.007072283	-0.01818812
	0.8080803	-0.2285333	0.06511138	-0.05521837	-0.007039027	-0.01818321	0.05999041	-0.01052667
	-0.03239983	0.0210189	-0.007039027	-0.01818321	-0.08093573	-0.007019018	0.8079415	-0.229113
	-0.007072283	-0.01818812	0.05999041	-0.01052667	0.8079415	-0.229113	0.06617361	-0.05516541
4e+08	-0.07999511	0.0001876229	0.7571138	-0.358012	-0.02527644	0.03677204	-0.009993228	-0.01667254
	0.7571138	-0.358012	0.05979138	-0.07020676	-0.009959994	-0.01668284	0.06373917	-0.009654895
	-0.02527644	0.03677204	-0.009959994	-0.01668284	-0.08060195	0.001163441	0.7568751	-0.3585599
	-0.009993228	-0.01667254	0.06373917	-0.009654895	0.7568751	-0.3585599	0.06094194	-0.07026758
4.1e+08	-0.07774759	0.008489845	0.6857028	-0.4768686	-0.01376447	0.04987725	-0.01250911	-0.01484087
	0.6857028	-0.4768686	0.05109429	-0.08291498	-0.01248256	-0.01486549	0.0683508	-0.01023955
	-0.01376447	0.04987725	-0.01248256	-0.01486549	-0.0782189	0.009652901	0.6853742	-0.4773704
	-0.01250911	-0.01484087	0.0683508	-0.01023955	0.6853742	-0.4773704	0.05230558	-0.08311461
4.2e+08	-0.07323926	0.01658825	0.5959922	-0.5819536	0.001187499	0.05913833	-0.01468104	-0.01280876
	0.5959922	-0.5819536	0.03998165	-0.09245588	-0.0146673	-0.01284354	0.07329531	-0.01252402
	0.001187499	0.05913833	-0.0146673	-0.01284354	-0.07352611	0.01789484	0.5955847	-0.5823962
	-0.01468104	-0.01280876	0.07329531	-0.01252402	0.5955847	-0.5823962	0.04121898	-0.09280965
4.3e+08	-0.06636382	0.02380653	0.4905757	-0.6705523	0.01831943	0.06368746	-0.01659655	-0.01061884
	0.4905757	-0.6705523	0.02763764	-0.09831547	-0.01659941	-0.01065781	0.07799577	-0.01655944
	0.01831943	0.06368746	-0.01659941	-0.01065781	-0.06643156	0.02519959	0.4900996	-0.6709271
	-0.01659655	-0.01061884	0.07799577	-0.01655944	0.4900996	-0.6709271	0.02886203	-0.09882761
4.4e+08	-0.05723802	0.02938641	0.3724098	-0.7404301	0.03616875	0.06305973	-0.01832653	-0.008243438
	0.3724098	-0.7404301	0.01533243	-0.1003981	-0.01834671	-0.008278698	0.08189513	-0.0222058
	0.03616875	0.06305973	-0.01834671	-0.008278698	-0.05706949	0.03079964	0.3718757	-0.7407288
	-0.01832653	-0.008243438	0.08189513	-0.0222058	0.3718757	-0.7407288	0.01650574	-0.1010603
4.5e+08	-0.04623973	0.03256656	0.2447308	-0.7898589	0.05319449	0.05723359	-0.0198907	-0.005604669
	0.2447308	-0.7898589	0.004282273	-0.09902561	-0.01992558	-0.005628802	0.08451771	-0.02915279
	0.05319449	0.05723359	-0.01992558	-0.005628802	-0.04583782	0.03393025	0.2441484	-0.7900746
	-0.0198907	-0.005604669	0.08451771	-0.02915279	0.2441484	-0.7900746	0.005370512	-0.09981785
4.6e+08	-0.03401662	0.0326781	0.110974	-0.8176372	0.0679061	0.04663539	-0.02123719	-0.002609405
	0.110974	-0.8176372	-0.004480093	-0.0948929	-0.02128111	-0.002617027	0.08551624	-0.03695989
	0.0679061	0.04663539	-0.02128111	-0.002617027	-0.03340464	0.03392544	0.1103522	-0.8177625
	-0.02123719	-0.002609405	0.08551624	-0.03695989	0.1103522	-0.8177625	-0.003502993	-0.09578528
4.7e+08	-0.02145974	0.02924265	-0.02529615	-0.823103	0.07898936	0.03210977	-0.02224196	0.0008086763
	-0.02529615	-0.823103	-0.01021227	-0.08898562	-0.02228704	0.0008206851	0.08470269	-0.04510555
	0.07898936	0.03210977	-0.02228704	0.0008206851	-0.0206798	0.03031416	-0.02594501	-0.8231291
	-0.02224196	0.0008086763	0.08470269	-0.04510555	-0.02594501	-0.8231291	-0.009361071	-0.08994181
4.8e+08	-0.009639876	0.02205697	-0.1604447	-0.8061357	0.08542012	0.01485679	-0.02272744	0.004655212
	-0.1604447	-0.8061357	-0.01253728	-0.08247255	-0.02276527	0.004685579	0.0820612	-0.05304216
	0.08542012	0.01485679	-0.02276527	0.004685579	-0.008751246	0.0229075	-0.1611077	-0.8060578
	-0.02272744	0.004655212	0.0820612	-0.05304216	-0.1611077	-0.8060578	-0.01181419	-0.08345312
4.9e+08	0.000280998	0.0112593	-0.2908337	-0.7671856	0.08656075	-0.003662269	-0.02249709	0.008848373
	-0.2908337	-0.7671856	-0.01148266	-0.07657777	-0.02252013	0.008893091	0.07774501	-0.06024896
	0.08656075	-0.003662269	-0.02252013	0.008893091	0.001207615	0.01186176	-0.2914974	-0.7669954
	-0.02249709	0.008848373	0.07774501	-0.06024896	-0.2914974	-0.7669954	-0.01087668	-0.07754537
5e+08	0.00716589	-0.002636015	-0.412912	-0.707278	0.08222618	-0.0218454	-0.02137702	0.01321607
	-0.412912	-0.707278	-0.007476829	-0.07244942	-0.02138069	0.01326752	0.07205862	-0.06628118
	0.08222618	-0.0218454	-0.02138069	0.01326752	0.008052664	-0.002287798	-0.4135543	-0.7069707
	-0.02137702	0.01321607	0.07205862	-0.06628118	-0.4135543	-0.7069707	-0.006965172	-0.07337252
5.1e+08	0.01002548	-0.01874692	-0.5232879	-0.6280208	0.07271534	-0.03808928	-0.01925918	0.01750828
	-0.5232879	-0.6280208	-0.001305735	-0.07103273	-0.01924216	0.01755768	0.06542769	-0.07081198
	0.07271534	-0.03808928	-0.01924216	0.01755768	0.01079474	-0.01863531	-0.523889	-0.6275961
	-0.01925918	0.01750828	0.06542769	-0.07081198	-0.523889	-0.6275961	-0.0008558213	-0.07188932
5.2e+08	0.008141019	-0.03586737	-0.6188492	-0.5316013	0.05879711	-0.05093858	-0.01613037	0.02143175
	-0.6188492	-0.5316013	0.005971328	-0.07296181	-0.01609511	0.02147081	0.0583581	-0.07366454
