!$
! Info: Touchstone file created by Circ.  Input file=Intel_C2M_200G_2p5in_202208016_staggered.circ
!$
# Hz S RI R 50
0	0.01199562	1.933186e-24	3.782783e-05	3.95612e-23	8.190368e-05	2.331631e-22	3.782011e-05	3.947381e-23
	3.782783e-05	3.95612e-23	0.01200886	2.194241e-24	3.783264e-05	3.959906e-23	8.149234e-05	2.321219e-22
	8.196209e-05	2.332917e-22	3.783263e-05	3.959994e-23	0.0119904	1.995915e-24	3.782281e-05	3.950629e-23
	3.782011e-05	3.947469e-23	8.155076e-05	2.322496e-22	3.782281e-05	3.950629e-23	0.01200678	2.084349e-24
1e+07	0.01455695	-0.0001996311	1.513965e-06	1.203534e-05	0.0008759279	0.004311558	5.402042e-06	1.193759e-05
	1.513965e-06	1.203536e-05	0.01466031	-0.0002037595	1.039834e-06	3.328081e-06	0.0008814348	0.004372185
	0.0008759279	0.004311558	1.039834e-06	3.328081e-06	0.01463773	-0.0001534033	1.477659e-06	1.148635e-05
	5.402042e-06	1.193759e-05	0.0008814348	0.004372185	1.477659e-06	1.148635e-05	0.0145836	-0.0001739988
2e+07	0.01658053	-0.002555324	1.78883e-06	6.905398e-06	0.001817735	0.008233823	3.123054e-06	8.462109e-06
	1.788829e-06	6.905412e-06	0.01667241	-0.002599775	6.591945e-06	7.54814e-06	0.00183011	0.00835359
	0.001817747	0.008233811	6.591945e-06	7.54814e-06	0.01666022	-0.002498338	1.207006e-06	6.035829e-06
	3.123054e-06	8.462109e-06	0.001830122	0.008353578	1.207006e-06	6.035829e-06	0.01661626	-0.002510909
3e+07	0.01794235	-0.005823666	3.190815e-06	5.515264e-06	0.003172792	0.01208247	1.595074e-06	8.041582e-06
	3.190815e-06	5.515264e-06	0.01801943	-0.005894503	1.229516e-05	9.325772e-06	0.003195199	0.01225918
	0.00317276	0.0120825	1.229516e-05	9.325772e-06	0.01801587	-0.005736549	2.19047e-06	4.626868e-06
	1.595074e-06	8.041582e-06	0.003195167	0.01225921	2.19047e-06	4.626867e-06	0.01797559	-0.005759518
4e+07	0.01862417	-0.009554944	4.3258e-06	4.460845e-06	0.00500933	0.01569597	3.447112e-06	7.207315e-06
	4.3258e-06	4.460844e-06	0.0186817	-0.00964834	1.693354e-05	8.810297e-06	0.005044546	0.01592721
	0.005009321	0.01569599	1.693354e-05	8.810297e-06	0.01869955	-0.009436185	2.983538e-06	3.666448e-06
	3.447112e-06	7.207314e-06	0.005044537	0.01592723	2.983538e-06	3.666447e-06	0.01865685	-0.00947364
5e+07	0.01873556	-0.01346585	5.231394e-06	3.431768e-06	0.007271354	0.01905751	5.073806e-06	6.200633e-06
	5.231394e-06	3.431768e-06	0.01876901	-0.01357844	2.070473e-05	7.02053e-06	0.007321864	0.0193405
	0.007271355	0.01905752	2.070473e-05	7.02053e-06	0.01881576	-0.01331521	3.609393e-06	2.80085e-06
	5.073806e-06	6.200633e-06	0.007321865	0.01934051	3.609393e-06	2.80085e-06	0.01876515	-0.01336825
6e+07	0.01833765	-0.01744301	5.919779e-06	2.357255e-06	0.009933043	0.02212595	6.404739e-06	5.016792e-06
	5.919779e-06	2.357255e-06	0.01834289	-0.01757124	2.369008e-05	4.375584e-06	0.01000093	0.02245745
	0.009933064	0.02212595	2.369008e-05	4.375584e-06	0.01842531	-0.01726028	4.075675e-06	1.943626e-06
	6.404739e-06	5.016792e-06	0.01000095	0.02245744	4.075674e-06	1.943626e-06	0.01836186	-0.01732855
7e+07	0.01746064	-0.02139233	6.392472e-06	1.223606e-06	0.01295931	0.02486078	7.447122e-06	3.665692e-06
	6.392472e-06	1.223606e-06	0.01743402	-0.02153233	2.590955e-05	1.090304e-06	0.01304614	0.02523712
	0.01295931	0.02486077	2.590955e-05	1.090304e-06	0.01755863	-0.02117788	4.381416e-06	1.069005e-06
	7.447122e-06	3.665692e-06	0.01304614	0.02523711	4.381417e-06	1.069005e-06	0.01747796	-0.02126004
8e+07	0.01614239	-0.02522656	6.642087e-06	3.143672e-08	0.01631126	0.0272258	8.19383e-06	2.157606e-06
	6.642087e-06	3.143671e-08	0.01608091	-0.02537408	2.734608e-05	-2.716718e-06	0.01641803	0.02764297
	0.01631125	0.0272258	2.734608e-05	-2.716718e-06	0.01625373	-0.02498105	4.520312e-06	1.716763e-07
	8.19383e-06	2.157606e-06	0.01641803	0.02764297	4.520312e-06	1.716763e-07	0.01615207	-0.02507501
9e+07	0.01443432	-0.02887032	6.646326e-06	-1.223337e-06	0.01994745	0.02918921	8.615459e-06	4.824401e-07
	6.646326e-06	-1.223337e-06	0.01433581	-0.02902075	2.792634e-05	-7.024773e-06	0.02007451	0.02964291
	0.01994745	0.02918922	2.792634e-05	-7.024773e-06	0.01456168	-0.0285949	4.475862e-06	-7.514558e-07
	8.615459e-06	4.824401e-07	0.02007451	0.02964292	4.475862e-06	-7.514559e-07	0.01443589	-0.02869824
1e+08	0.01241354	-0.03223784	6.280373e-06	-2.640275e-06	0.02382584	0.03072402	8.542484e-06	-1.545024e-06
	6.280373e-06	-2.640275e-06	0.01227705	-0.03238609	2.720171e-05	-1.231199e-05	0.02397281	0.03120973
	0.02382584	0.03072401	2.720171e-05	-1.231199e-05	0.01255941	-0.03193385	4.156357e-06	-1.7608e-06
	8.542484e-06	-1.545024e-06	0.02397281	0.03120973	4.156357e-06	-1.7608e-06	0.01240692	-0.03204433
1.1e+08	0.01020146	-0.03547126	5.291178e-06	-3.471333e-06	0.02791773	0.03180003	7.434832e-06	-2.832872e-06
	5.291178e-06	-3.471333e-06	0.01002567	-0.03561389	2.369115e-05	-1.563521e-05	0.02808305	0.03231368
	0.02791773	0.03180003	2.369115e-05	-1.563521e-05	0.01043162	-0.03514075	3.428082e-06	-2.328528e-06
	7.434832e-06	-2.832872e-06	0.02808305	0.03231368	3.428082e-06	-2.328528e-06	0.01024708	-0.03525414
1.2e+08	0.007656452	-0.03844543	4.484249e-06	-3.985459e-06	0.03212281	0.03239497	6.538033e-06	-3.617563e-06
	4.484249e-06	-3.985459e-06	0.00743973	-0.03857799	2.134175e-05	-1.685943e-05	0.03230473	0.03293255
	0.03212282	0.03239497	2.134175e-05	-1.685943e-05	0.007919265	-0.03812077	2.840466e-06	-2.683617e-06
	6.538033e-06	-3.617563e-06	0.03230473	0.03293255	2.840466e-06	-2.683616e-06	0.00770126	-0.03823171
1.3e+08	0.004870795	-0.04109881	3.770487e-06	-4.384428e-06	0.03640346	0.032505	5.711099e-06	-4.175699e-06
	3.770487e-06	-4.384428e-06	0.004612587	-0.04121647	2.046094e-05	-1.621136e-05	0.03659953	0.03306255
	0.03640346	0.03250499	2.046094e-05	-1.621136e-05	0.005141248	-0.04077281	2.3315e-06	-2.97204e-06
	5.711099e-06	-4.175699e-06	0.03659953	0.03306255	2.3315e-06	-2.97204e-06	0.004889146	-0.04087664
1.4e+08	0.00190793	-0.04340992	3.120512e-06	-4.628214e-06	0.04071299	0.03212755	4.934782e-06	-4.57509e-06
	3.120512e-06	-4.628214e-06	0.00160845	-0.04350788	1.952038e-05	-1.575346e-05	0.04092012	0.0327014
	0.04071299	0.03212755	1.952038e-05	-1.575346e-05	0.002181973	-0.04307121	1.844623e-06	-3.171565e-06
	4.934782e-06	-4.57509e-06	0.04092012	0.03270139	1.844623e-06	-3.171565e-06	0.001895834	-0.04316351
1.5e+08	-0.001175351	-0.04536674	2.848753e-06	-4.461165e-06	0.04500202	0.03126336	4.209292e-06	-4.865618e-06
	2.848753e-06	-4.461165e-06	-0.001515191	-0.04544038	1.855029e-05	-1.541197e-05	0.04521651	0.03185012
	0.04500202	0.03126336	1.855029e-05	-1.541197e-05	-0.0008936219	-0.04500933	1.376331e-06	-3.297379e-06
	4.209292e-06	-4.865618e-06	0.04521651	0.03185011	1.376331e-06	-3.297379e-06	-0.001213128	-0.04508597
1.6e+08	-0.004325241	-0.04696458	2.573488e-06	-4.312469e-06	0.04922057	0.02991757	3.648272e-06	-4.967016e-06
	2.573488e-06	-4.312469e-06	-0.004703868	-0.04700952	1.756147e-05	-1.513738e-05	0.04943815	0.03051429
	0.04922056	0.02991757	1.756147e-05	-1.513738e-05	-0.004029354	-0.0465874	1.170245e-06	-3.171268e-06
	3.648272e-06	-4.967016e-06	0.04943815	0.03051429	1.170245e-06	-3.171268e-06	-0.004380975	-0.04664456
1.7e+08	-0.007489299	-0.04820531	2.301177e-06	-4.18493e-06	0.05331912	0.02809984	3.413059e-06	-4.791619e-06
	2.301177e-06	-4.18493e-06	-0.007904548	-0.04821761	1.655847e-05	-1.489273e-05	0.05353504	0.02870411
	0.05331912	0.02809984	1.655847e-05	-1.489273e-05	-0.00717367	-0.04781084	9.709663e-07	-3.063002e-06
	3.413059e-06	-4.791619e-06	0.05353504	0.02870411	9.709663e-07	-3.063002e-06	-0.00755562	-0.04784507
1.8e+08	-0.01061716	-0.04909792	2.027067e-06	-4.057577e-06	0.05724938	0.02582457	3.175675e-06	-4.631119e-06
	2.027067e-06	-4.057577e-06	-0.01106634	-0.04907406	1.554962e-05	-1.4656e-05	0.05745842	0.02643452
	0.05724938	0.02582457	1.554962e-05	-1.4656e-05	-0.01027788	-0.04869061	7.703571e-07	-2.953848e-06
	3.175675e-06	-4.631119e-06	0.05745842	0.02643452	7.703571e-07	-2.953848e-06	-0.01068788	-0.04869892
1.9e+08	-0.01366028	-0.04965806	1.753374e-06	-3.926409e-06	0.06096503	0.02311102	2.938258e-06	-4.47981e-06
	1.753374e-06	-3.926409e-06	-0.0141403	-0.04959512	1.454157e-05	-1.441227e-05	0.06116162	0.02372543
	0.06096503	0.02311102	1.454157e-05	-1.441227e-05	-0.01329551	-0.04924335	5.702862e-07	-2.840155e-06
	2.938258e-06	-4.47981e-06	0.06116162	0.02372543	5.702862e-07	-2.840155e-06	-0.01373092	-0.0492233
2e+08	-0.01657348	-0.04990826	1.482323e-06	-3.787805e-06	0.06442214	0.0199828	2.702563e-06	-4.333008e-06
	1.482323e-06	-3.787805e-06	-0.01708111	-0.04980393	1.353944e-05	-1.415151e-05	0.06460039	0.02060107
	0.06442214	0.0199828	1.353944e-05	-1.415151e-05	-0.01618284	-0.04949132	3.723182e-07	-2.720219e-06
	2.702563e-06	-4.333008e-06	0.06460039	0.02060106	3.723182e-07	-2.720219e-06	-0.01664054	-0.04944105
2.1e+08	-0.01931608	-0.04987662	1.215988e-06	-3.639946e-06	0.06757945	0.01646757	2.470159e-06	-4.187767e-06
	1.215988e-06	-3.639946e-06	-0.01984767	-0.04972919	1.254922e-05	-1.386754e-05	0.06773326	0.01708986
	0.06757945	0.01646757	1.254922e-05	-1.386754e-05	-0.01890042	-0.04946275	1.783736e-07	-2.592498e-06
	2.470159e-06	-4.187767e-06	0.06773326	0.01708986	1.783736e-07	-2.592498e-06	-0.01937726	-0.04938107
2.2e+08	-0.02185175	-0.04959727	9.563249e-07	-3.481542e-06	0.07039877	0.01259675	2.242416e-06	-4.041934e-06
	9.563249e-07	-3.481542e-06	-0.02240358	-0.04940576	1.15756e-05	-1.355571e-05	0.07052195	0.01322395
	0.07039877	0.01259675	1.15756e-05	-1.355571e-05	-0.0214131	-0.04919083	-9.964991e-09	-2.456152e-06
	2.242416e-06	-4.041934e-06	0.07052195	0.01322395	-9.964991e-09	-2.456152e-06	-0.02190588	-0.04907723
2.3e+08	-0.02414979	-0.04910863	7.051728e-07	-3.311847e-06	0.07284573	0.008405097	2.02055e-06	-3.893982e-06
	7.051728e-07	-3.311847e-06	-0.0247181	-0.04887272	1.062288e-05	-1.321291e-05	0.07293196	0.009038846
	0.07284573	0.008405097	1.062288e-05	-1.321291e-05	-0.0236904	-0.04871327	-1.912187e-07	-2.310742e-06
	2.02055e-06	-3.893982e-06	0.07293196	0.009038846	-1.912187e-07	-2.310742e-06	-0.02419594	-0.04856794
2.4e+08	-0.02618544	-0.04845286	4.642748e-07	-3.130545e-06	0.0748893	0.003930517	1.805681e-06	-3.742868e-06
	4.642748e-07	-3.130545e-06	-0.02676664	-0.04817292	9.695045e-06	-1.283733e-05	0.07493236	0.004573211
	0.0748893	0.003930517	9.695045e-06	-1.283733e-05	-0.02570836	-0.04807197	-3.639779e-07	-2.156166e-06
	1.805681e-06	-3.742868e-06	0.07493236	0.004573211	-3.639779e-07	-2.156166e-06	-0.02622367	-0.04789576
2.5e+08	-0.02794055	-0.04767521	2.352715e-07	-2.937701e-06	0.07650234	-0.000786649	1.598812e-06	-3.587935e-06
	2.352715e-07	-2.937701e-06	-0.02853126	-0.0473523	8.7958e-06	-1.242807e-05	0.07649613	-0.000131837
	0.07650234	-0.0007866491	8.7958e-06	-1.242807e-05	-0.02744869	-0.04731125	-5.269454e-07	-1.992593e-06
	1.598812e-06	-3.587935e-06	0.07649613	-0.0001318372	-5.269454e-07	-1.992593e-06	-0.02797104	-0.04710568
2.6e+08	-0.02940332	-0.04682285	1.966356e-08	-2.73369e-06	0.07766227	-0.005703784	1.400845e-06	-3.428824e-06
	1.966356e-08	-2.73369e-06	-0.03000051	-0.04645862	7.928542e-06	-1.198506e-05	0.07760087	-0.005032904
	0.07766227	-0.005703784	7.928542e-06	-1.198506e-05	-0.02889994	-0.04647818	-6.789317e-07	-1.820444e-06
	1.400845e-06	-3.428824e-06	0.07760087	-0.005032905	-6.789317e-07	-1.820444e-06	-0.02942704	-0.04624536
2.7e+08	-0.03056864	-0.04594418	-1.81155e-07	-2.51915e-06	0.07835009	-0.01077638	1.212571e-06	-3.265428e-06
	-1.81155e-07	-2.51915e-06	-0.03116971	-0.04554085	7.096386e-06	-1.150884e-05	0.07822787	-0.01008476
	0.07835009	-0.01077638	7.096386e-06	-1.150884e-05	-0.03005703	-0.04562068	-8.188695e-07	-1.640338e-06
	1.212571e-06	-3.265428e-06	0.07822787	-0.01008476	-8.188695e-07	-1.640338e-06	-0.03058707	-0.04536328
2.8e+08	-0.03143868	-0.04508793	-3.659449e-07	-2.294973e-06	0.07855143	-0.01595863	1.034702e-06	-3.097851e-06
	-3.659449e-07	-2.294973e-06	-0.03204158	-0.04464823	6.302247e-06	-1.100051e-05	0.07836313	-0.01524089
	0.07855143	-0.01595863	6.302247e-06	-1.100051e-05	-0.03092196	-0.04478682	-9.458106e-07	-1.453072e-06
	1.034702e-06	-3.097851e-06	0.07836313	-0.01524089	-9.458106e-07	-1.453072e-06	-0.0314538	-0.04450795
2.9e+08	-0.03202198	-0.04430211	-5.336236e-07	-2.062248e-06	0.07825644	-0.02120369	8.678449e-07	-2.926362e-06
	-5.336236e-07	-2.062248e-06	-0.03262527	-0.04382918	5.548735e-06	-1.046164e-05	0.07799725	-0.02045369
	0.07825644	-0.02120369	5.548735e-06	-1.046164e-05	-0.03150352	-0.04402477	-1.058948e-06	-1.259589e-06
	8.678449e-07	-2.926362e-06	0.07799725	-0.02045369	-1.058948e-06	-1.259589e-06	-0.03203666	-0.04372792
3e+08	-0.03233387	-0.04363326	-6.832753e-07	-1.822224e-06	0.07745928	-0.02646388	7.125084e-07	-2.751356e-06
	-6.832753e-07	-1.822224e-06	-0.0329368	-0.04313057	4.83821e-06	-9.89412e-06	0.07712495	-0.02567486
	0.07745928	-0.02646388	4.83821e-06	-9.89412e-06	-0.03181679	-0.04338079	-1.157617e-06	-1.060943e-06
	7.125084e-07	-2.751356e-06	0.07712495	-0.02567486	-1.157617e-06	-1.060943e-06	-0.03235155	-0.04306973
3.1e+08	-0.03239587	-0.04312566	-8.141774e-07	-1.576296e-06	0.07615895	-0.0316915	5.691013e-07	-2.573347e-06
	-8.141774e-07	-1.576296e-06	-0.03299845	-0.04259689	4.172784e-06	-9.300208e-06	0.07574579	-0.03085612
	0.07615895	-0.0316915	4.172784e-06	-9.300208e-06	-0.03188363	-0.04289939	-1.241303e-06	-8.582903e-07
	5.691013e-07	-2.573347e-06	0.07574579	-0.03085612	-1.241303e-06	-8.582903e-07	-0.03242119	-0.04257801
3.2e+08	-0.03223584	-0.04282093	-9.257791e-07	-1.325966e-06	0.07435888	-0.03683894	4.379297e-07	-2.392931e-06
	-9.257791e-07	-1.325966e-06	-0.03283888	-0.04226988	3.554285e-06	-8.68243e-06	0.07386391	-0.03594924
	0.07435888	-0.03683894	3.554285e-06	-8.68243e-06	-0.0317319	-0.04262117	-1.309664e-06	-6.528465e-07
	4.379297e-07	-2.392931e-06	0.07386391	-0.03594925	-1.309664e-06	-6.528465e-07	-0.03227434	-0.04229339
3.3e+08	-0.03188703	-0.04275668	-1.017723e-06	-1.072797e-06	0.07206663	-0.04185883	3.192115e-07	-2.210754e-06
	-1.017723e-06	-1.072797e-06	-0.03249223	-0.04218713	2.984324e-06	-8.043466e-06	0.07148758	-0.0409064
	0.07206663	-0.04185883	2.984324e-06	-8.043466e-06	-0.03139521	-0.04258408	-1.362485e-06	-4.458756e-07
	3.192115e-07	-2.210754e-06	0.07148758	-0.0409064	-1.362485e-06	-4.458756e-07	-0.03194552	-0.04225367
3.4e+08	-0.0313883	-0.04296598	-1.089863e-06	-8.184255e-07	0.06929443	-0.04670516	2.130579e-07	-2.027527e-06
	-1.089863e-06	-8.184255e-07	-0.03199818	-0.04238157	2.464214e-06	-7.386272e-06	0.06862989	-0.04568114
	0.06929443	-0.04670516	2.464214e-06	-7.386272e-06	-0.03091209	-0.04282065	-1.399723e-06	-2.386518e-07
	2.130578e-07	-2.027527e-06	0.06862989	-0.04568114	-1.399723e-06	-2.386518e-07	-0.03147423	-0.0424911
3.5e+08	-0.03078284	-0.04347691	-1.142251e-06	-5.644783e-07	0.06605853	-0.05133277	1.194933e-07	-1.84397e-06
	-1.142251e-06	-5.644783e-07	-0.0314008	-0.04288098	1.995013e-06	-6.7139e-06	0.06530797	-0.05022794
	0.06605853	-0.05133277	1.995013e-06	-6.7139e-06	-0.03032632	-0.04335922	-1.421472e-06	-3.24596e-08
	1.194933e-07	-1.84397e-06	0.06530797	-0.05022794	-1.421473e-06	-3.24596e-08	-0.03090518	-0.04303355
3.6e+08	-0.03011813	-0.0443121	-1.175119e-06	-3.125963e-07	0.06237971	-0.05569829	3.844598e-08	-1.660825e-06
	-1.175119e-06	-3.125963e-07	-0.03074847	-0.04370758	1.577533e-06	-6.029557e-06	0.06154346	-0.05450318
	0.06237971	-0.05569829	1.577533e-06	-6.029557e-06	-0.02968529	-0.04422156	-1.427995e-06	1.714483e-07
	3.844598e-08	-1.660825e-06	0.06154346	-0.05450318	-1.427995e-06	1.714483e-07	-0.03028667	-0.04390223
3.7e+08	-0.02944461	-0.04548761	-1.188898e-06	-6.436006e-08	0.05828242	-0.05976072	-3.024053e-08	-1.478818e-06
	-1.188898e-06	-6.436006e-08	-0.03009242	-0.04487685	1.212277e-06	-5.336503e-06	0.05736184	-0.05846571
	0.05828242	-0.05976072	1.212277e-06	-5.336503e-06	-0.02903954	-0.04542356	-1.419671e-06	3.718681e-07
	-3.024053e-08	-1.478818e-06	0.05736184	-0.05846571	-1.419671e-06	3.718681e-07	-0.0296701	-0.04511223
3.8e+08	-0.02881554	-0.04701335	-1.184185e-06	1.787058e-07	0.05379489	-0.063481	-8.679495e-08	-1.298664e-06
	-1.184185e-06	1.787058e-07	-0.02948669	-0.04639798	8.995388e-07	-4.638081e-06	0.05279229	-0.06207637
	0.05379489	-0.063481	8.995388e-07	-4.638081e-06	-0.02844269	-0.046975	-1.397002e-06	5.676431e-07
	-8.679495e-08	-1.298664e-06	0.05279229	-0.06207637	-1.397002e-06	5.676431e-07	-0.02910987	-0.04667243
3.9e+08	-0.02828671	-0.04889176	-1.161763e-06	4.151511e-07	0.04894943	-0.06682333	-1.315276e-07	-1.121063e-06
	-1.161763e-06	4.151511e-07	-0.02898781	-0.0482726	6.392996e-07	-3.93773e-06	0.0478682	-0.0652994
	0.04894943	-0.06682333	6.392996e-07	-3.93773e-06	-0.02794986	-0.04887741	-1.360623e-06	7.576926e-07
	-1.315276e-07	-1.121063e-06	0.0478682	-0.0652994	-1.360623e-06	7.576926e-07	-0.02866175	-0.04858322
4e+08	-0.02791422	-0.05111829	-1.122547e-06	6.436407e-07	0.04378116	-0.06975478	-1.648037e-07	-9.466646e-07
	-1.122547e-06	6.436407e-07	-0.02865244	-0.0504951	4.313222e-07	-3.238868e-06	0.04262567	-0.06810204
	0.04378116	-0.06975478	4.313222e-07	-3.238868e-06	-0.02761736	-0.05112652	-1.311249e-06	9.410227e-07
	-1.648037e-07	-9.466646e-07	0.04262567	-0.06810204	-1.311249e-06	9.410227e-07	-0.02838266	-0.05083919
4.1e+08	-0.02775368	-0.05368127	-1.067579e-06	8.629812e-07	0.0383285	-0.07224586	-1.870493e-07	-7.760632e-07
	-1.067579e-06	8.629812e-07	-0.02853674	-0.05305276	2.75062e-07	-2.544854e-06	0.03710421	-0.07045503
	0.0383285	-0.07224586	2.75062e-07	-2.544854e-06	-0.02750103	-0.05370999	-1.249691e-06	1.116745e-06
	-1.870493e-07	-7.760632e-07	0.03710421	-0.07045503	-1.249691e-06	1.116745e-06	-0.0283288	-0.05342659
4.2e+08	-0.02786133	-0.05656075	-9.980369e-07	1.072105e-06	0.03263261	-0.07427122	-1.987368e-07	-6.098336e-07
	-9.980369e-07	1.072105e-06	-0.02869723	-0.05592435	1.697256e-07	-1.859156e-06	0.03134593	-0.07233345
	0.03263261	-0.07427122	1.697256e-07	-1.859156e-06	-0.02765677	-0.05660738	-1.176837e-06	1.284056e-06
	-1.987368e-07	-6.098336e-07	0.03134593	-0.07233345	-1.176837e-06	1.284056e-06	-0.02855629	-0.05632352
4.3e+08	-0.02829053	-0.05972993	-9.151527e-07	1.270109e-06	0.02673656	-0.07580927	-2.0037e-07	-4.484638e-07
	-9.151527e-07	1.270109e-06	-0.02918753	-0.05908169	1.142521e-07	-1.185063e-06	0.02539496	-0.07371617
	0.02673656	-0.07580927	1.142521e-07	-1.185063e-06	-0.02813772	-0.05979187	-1.09361e-06	1.442288e-06
	-2.0037e-07	-4.484638e-07	0.02539496	-0.07371617	-1.09361e-06	1.442288e-06	-0.02911832	-0.05950158
4.4e+08	-0.02909209	-0.06315498	-8.202403e-07	1.456255e-06	0.02068576	-0.07684271	-1.924832e-07	-2.92396e-07
	-8.202403e-07	1.456255e-06	-0.03005843	-0.06248959	1.073268e-07	-5.258378e-07	0.01929761	-0.07458649
	0.02068576	-0.07684271	1.073268e-07	-5.258378e-07	-0.02899478	-0.06322892	-1.000983e-06	1.590861e-06
	-1.924832e-07	-2.92396e-07	0.01929761	-0.07458649	-1.000983e-06	1.590861e-06	-0.03006561	-0.06292461
4.5e+08	-0.03031368	-0.06679409	-7.1465e-07	1.62996e-06	0.01452692	-0.07735897	-1.75623e-07	-1.420225e-07
	-7.1465e-07	1.62996e-06	-0.03135744	-0.06610471	1.473824e-07	1.153044e-07	0.01310146	-0.07493256
	0.01452692	-0.07735897	1.473824e-07	1.153044e-07	-0.0302754	-0.06687653	-8.999575e-07	1.72932e-06
	-1.75623e-07	-1.420225e-07	0.01310146	-0.07493256	-8.999575e-07	1.72932e-06	-0.03144515	-0.06654891
4.6e+08	-0.03199858	-0.0705992	-5.997365e-07	1.790812e-06	0.008307765	-0.07734987	-1.503426e-07	2.328758e-09
	-5.997365e-07	1.790812e-06	-0.0331274	-0.06987743	2.326094e-07	7.353161e-07	0.006855062	-0.07474704
	0.008307765	-0.07734987	2.326094e-07	7.353161e-07	-0.03202225	-0.07068682	-7.915315e-07	1.857314e-06
	-1.503426e-07	2.328758e-09	0.006855062	-0.07474704	-7.915315e-07	1.857314e-06	-0.033299	-0.0703249
4.7e+08	-0.03418312	-0.07451661	-4.768535e-07	1.93859e-06	0.002076115	-0.07681214	-1.172022e-07	1.403982e-07
	-4.768535e-07	1.93859e-06	-0.03540403	-0.07375257	3.6092e-07	1.331329e-06	0.0006069518	-0.07402755
	0.002076115	-0.07681214	3.6092e-07	1.331329e-06	-0.03427239	-0.07460508	-6.767065e-07	1.974613e-06
	-1.172022e-07	1.403982e-07	0.0006069518	-0.07402755	-6.767065e-07	1.974613e-06	-0.03566326	-0.0741962
4.8e+08	-0.03689955	-0.0784869	-3.472941e-07	2.073194e-06	-0.004119691	-0.07574707	-7.673482e-08	2.719619e-07
