!$
! Info: Touchstone file created by Circ.  Input file=Intel_C2M_200G_2p5in_202208016_staggered.circ
!$
# Hz S RI R 50
0	0.01200886	2.194241e-24	0.9877896	-3.990943e-24	8.149234e-05	2.321219e-22	-0.0002133928	2.613308e-20
	0.9877896	-3.989451e-24	0.01256628	4.505397e-24	-0.0002134481	2.613986e-20	0.0003073763	2.626498e-22
	8.155076e-05	2.322496e-22	-0.0002135863	2.615678e-20	0.01200678	2.084349e-24	0.98779	-4.00919e-24
	-0.000213531	2.615e-20	0.0003074463	2.628275e-22	0.98779	-4.010686e-24	0.01256769	4.565795e-24
1e+07	0.01466031	-0.0002037595	0.9832939	-0.0623635	0.0008814348	0.004372185	-0.0006237033	-0.0005624264
	0.9832939	-0.0623635	0.01460976	-0.0001492184	-0.000623682	-0.0005624384	0.0008573207	0.004378049
	0.0008814348	0.004372185	-0.000623682	-0.0005624384	0.0145836	-0.0001739988	0.9833724	-0.06236871
	-0.0006237033	-0.0005624264	0.0008573207	0.004378049	0.9833724	-0.06236871	0.014534	-0.0001201276
2e+07	0.01667241	-0.002599775	0.9752861	-0.122229	0.00183011	0.00835359	-0.0007948377	-0.0008427654
	0.9752861	-0.122229	0.01664491	-0.002320575	-0.0007947337	-0.0008429029	0.00168602	0.008438176
	0.001830122	0.008353578	-0.0007947275	-0.0008430142	0.01661626	-0.002510909	0.9753521	-0.1222711
	-0.0007948308	-0.0008428703	0.001686107	0.008438073	0.9753521	-0.1222711	0.01658369	-0.002229961
3e+07	0.01801943	-0.005894503	0.9642176	-0.1805503	0.003195199	0.01225918	-0.000946231	-0.001102095
	0.9642176	-0.1805503	0.01762215	-0.005646973	-0.0009461458	-0.001102247	0.002995184	0.01231906
	0.003195167	0.01225921	-0.0009461879	-0.001102249	0.01797559	-0.005759518	0.9642717	-0.1806132
	-0.0009462428	-0.001102102	0.002995161	0.01231903	0.9642717	-0.1806132	0.0175866	-0.005514937
4e+07	0.0186817	-0.00964834	0.9499624	-0.2376662	0.005044546	0.01592721	-0.001090245	-0.001347918
	0.9499624	-0.2376662	0.0179487	-0.009201657	-0.001090161	-0.001348079	0.004691848	0.01604335
	0.005044537	0.01592723	-0.001090166	-0.001348075	0.01865685	-0.00947364	0.9500049	-0.2377458
	-0.001090247	-0.001347904	0.004691849	0.01604336	0.9500049	-0.2377458	0.01793855	-0.009033715
5e+07	0.01876901	-0.01357844	0.9325224	-0.2935322	0.007321864	0.0193405	-0.00123137	-0.001585947
	0.9325224	-0.2935322	0.01768202	-0.0128952	-0.001231297	-0.001586217	0.006786748	0.01955019
	0.007321865	0.01934051	-0.001231294	-0.001586218	0.01876515	-0.01336825	0.9325535	-0.2936263
	-0.001231367	-0.001585948	0.006786751	0.0195502	0.9325535	-0.2936263	0.01770018	-0.01269563
6e+07	0.01834289	-0.01757124	0.9119486	-0.348031	0.01000093	0.02245745	-0.001372647	-0.001825244
	0.9119486	-0.348031	0.01683489	-0.01657499	-0.001372666	-0.001825637	0.009251734	0.02279994
	0.01000095	0.02245744	-0.001372664	-0.001825638	0.01836186	-0.01732855	0.9119679	-0.3481382
	-0.001372645	-0.001825244	0.009251733	0.02279994	0.9119679	-0.3481382	0.01688469	-0.01634811
7e+07	0.01743402	-0.02153233	0.8883125	-0.4010265	0.01304614	0.02523712	-0.001520311	-0.002073347
	0.8883125	-0.4010265	0.01546109	-0.02011781	-0.001520421	-0.002073924	0.01205683	0.02575856
	0.01304614	0.02523711	-0.001520366	-0.002073968	0.01747796	-0.02126004	0.8883183	-0.4011454
	-0.001520308	-0.002073349	0.01205683	0.02575856	0.8883183	-0.4011454	0.01554521	-0.01986839
8e+07	0.01608091	-0.02537408	0.8616982	-0.4523749	0.01641803	0.02764297	-0.001682104	-0.002335246
	0.8616982	-0.4523749	0.01362016	-0.02343579	-0.001682378	-0.002336043	0.01516845	0.02839512
	0.01641803	0.02764297	-0.001682379	-0.00233604	0.01615207	-0.02507501	0.8616912	-0.4525046
	-0.001682106	-0.002335244	0.01516845	0.02839512	0.8616912	-0.4525046	0.01374053	-0.02316912
9e+07	0.01433581	-0.02902075	0.832199	-0.5019338	0.02007451	0.02964291	-0.001867	-0.002613581
	0.832199	-0.5019338	0.01136922	-0.02645552	-0.001867526	-0.002614595	0.01855091	0.03068319
	0.02007451	0.02964292	-0.001867527	-0.002614586	0.01443589	-0.02869824	0.8321768	-0.5020727
	-0.001867003	-0.002613572	0.01855091	0.03068319	0.8321768	-0.5020727	0.01152744	-0.0261765
1e+08	0.01227705	-0.03238609	0.7998967	-0.5495921	0.02397281	0.03120973	-0.002086741	-0.0029097
	0.7998967	-0.5495921	0.008784965	-0.02908304	-0.00208772	-0.002910843	0.02216925	0.0326012
	0.02397281	0.03120973	-0.00208772	-0.002910843	0.01240692	-0.03204433	0.7998598	-0.5497388
	-0.002086741	-0.002909701	0.02216925	0.0326012	0.7998598	-0.5497388	0.008982005	-0.02879725
1.1e+08	0.01002567	-0.03561389	0.7648272	-0.5950351	0.02808305	0.03231368	-0.002351991	-0.003205983
	0.7648272	-0.5950351	0.006041645	-0.03140272	-0.002353733	-0.003206268	0.02598042	0.03411737
	0.02808305	0.03231368	-0.002353732	-0.003206269	0.01024708	-0.03525414	0.7647777	-0.5951895
	-0.002351991	-0.003205984	0.02598042	0.03411737	0.7647777	-0.5951895	0.006275896	-0.03109819
1.2e+08	0.00743973	-0.03857799	0.7273036	-0.6381537	0.03230473	0.03293255	-0.002654729	-0.003511979
	0.7273036	-0.6381537	0.003007138	-0.03337058	-0.002656455	-0.003511806	0.02993082	0.03522459
	0.03230473	0.03293255	-0.002656455	-0.003511807	0.00770126	-0.03823171	0.7272384	-0.6383166
	-0.002654729	-0.00351198	0.02993082	0.0352246	0.7272384	-0.6383166	0.003285293	-0.03306249
1.3e+08	0.004612587	-0.04121647	0.687449	-0.6788645	0.03659953	0.03306255	-0.003008552	-0.003823348
	0.687449	-0.6788645	-0.0002284984	-0.03490521	-0.003010233	-0.003823464	0.03397992	0.03591734
	0.03659953	0.03306255	-0.003010233	-0.003823465	0.004889146	-0.04087664	0.6873669	-0.6790362
	-0.003008552	-0.003823349	0.03397992	0.03591734	0.6873669	-0.6790362	9.227757e-05	-0.03460456
1.4e+08	0.00160845	-0.04350788	0.6454095	-0.7170596	0.04092012	0.0327014	-0.003422243	-0.004132877
	0.6454095	-0.7170596	-0.003586842	-0.03597166	-0.003424448	-0.004133255	0.03808509	0.0361929
	0.04092012	0.03270139	-0.003424448	-0.004133256	0.001895834	-0.04316351	0.6453082	-0.717237
	-0.003422243	-0.004132878	0.03808508	0.0361929	0.6453082	-0.717237	-0.00322721	-0.03568517
1.5e+08	-0.001515191	-0.04544038	0.6013376	-0.7526351	0.04521651	0.03185012	-0.003902636	-0.004430985
	0.6013376	-0.7526351	-0.006990354	-0.03655294	-0.003905652	-0.004431576	0.0422043	0.03605252
	0.04521651	0.03185011	-0.003905652	-0.004431577	-0.001213128	-0.04508597	0.6012164	-0.7528162
	-0.003902636	-0.004430985	0.0422043	0.03605252	0.6012164	-0.7528162	-0.006595838	-0.0362848
1.6e+08	-0.004703868	-0.04700952	0.5553915	-0.7854912	0.04943815	0.03051429	-0.004454451	-0.004706559
	0.5553915	-0.7854912	-0.01036292	-0.03664576	-0.004458515	-0.004707047	0.0462965	0.03550188
	0.04943815	0.03051429	-0.004458515	-0.004707048	-0.004380975	-0.04664456	0.555249	-0.7856756
	-0.004454451	-0.00470656	0.0462965	0.03550188	0.555249	-0.7856756	-0.009937238	-0.03639853
1.7e+08	-0.007904548	-0.04821761	0.5077342	-0.8155406	0.05353504	0.02870411	-0.005080257	-0.004947336
	0.5077342	-0.8155406	-0.01363109	-0.03625843	-0.005085502	-0.004947237	0.05032181	0.03455015
	0.05353504	0.02870411	-0.005085502	-0.004947237	-0.00755562	-0.04784507	0.5075694	-0.8157266
	-0.005080258	-0.004947336	0.05032181	0.03455015	0.5075694	-0.8157266	-0.01317712	-0.036034
1.8e+08	-0.01106634	-0.04907406	0.4585324	-0.8427043	0.05745842	0.02643452	-0.005780394	-0.005140267
	0.4585324	-0.8427043	-0.01672443	-0.03540916	-0.005786759	-0.005139199	0.05424238	0.03321043
	0.05745842	0.02643452	-0.00578676	-0.0051392	-0.01068788	-0.04869892	0.458344	-0.8428895
	-0.005780394	-0.005140267	0.05424238	0.03321043	0.458344	-0.8428895	-0.01624512	-0.03520927
1.9e+08	-0.0141403	-0.04959512	0.407957	-0.8669104	0.06116162	0.02372543	-0.006552946	-0.005271575
	0.407957	-0.8669104	-0.0195771	-0.03412573	-0.006560274	-0.00526919	0.05802239	0.03149963
	0.06116162	0.02372543	-0.006560274	-0.00526919	-0.01373092	-0.0492233	0.4077459	-0.867094
	-0.006552946	-0.005271575	0.05802239	0.03149963	0.4077459	-0.867094	-0.0190749	-0.03395205
2e+08	-0.01708111	-0.04980393	0.3561809	-0.8880977	0.06460039	0.02060107	-0.007393528	-0.005327539
	0.3561809	-0.8880977	-0.02212744	-0.03244411	-0.007401556	-0.005323738	0.06162815	0.02943728
	0.06460039	0.02060106	-0.007401556	-0.005323738	-0.01664054	-0.04944105	0.3559445	-0.8882768
	-0.007393528	-0.005327539	0.06162815	0.02943728	0.3559445	-0.8882768	-0.02160529	-0.0322979
2.1e+08	-0.01984767	-0.04972919	0.3033788	-0.9062159	0.06773326	0.01708986	-0.008295469	-0.005295115
	0.3033788	-0.9062159	-0.02432032	-0.03040766	-0.008303987	-0.005289474	0.0650294	0.02704636
	0.06773326	0.01708986	-0.008303987	-0.005289474	-0.01937726	-0.04938107	0.3031171	-0.9063877
	-0.008295469	-0.005295115	0.0650294	0.02704636	0.3031171	-0.9063877	-0.02378056	-0.03029036
2.2e+08	-0.02240358	-0.04940576	0.2497262	-0.9212222	0.07052195	0.01322395	-0.00924967	-0.005161404
	0.2497262	-0.9212222	-0.02610585	-0.02806662	-0.009258359	-0.005153904	0.0681983	0.02435205
	0.07052195	0.01322395	-0.009258359	-0.005153904	-0.02190588	-0.04907723	0.2494391	-0.9213842
	-0.00924967	-0.005161404	0.0681983	0.02435205	0.2494391	-0.9213842	-0.02555171	-0.02797918
2.3e+08	-0.0247181	-0.04887272	0.1954018	-0.9330817	0.07293196	0.009038846	-0.01024477	-0.004915395
	0.1954018	-0.9330817	-0.02744153	-0.02547726	-0.01025343	-0.004905698	0.0711101	0.02138161
	0.07293196	0.009038846	-0.01025343	-0.004905698	-0.02419594	-0.04856794	0.1950882	-0.9332321
	-0.01024477	-0.004915395	0.0711101	0.02138161	0.1950882	-0.9332321	-0.02687613	-0.02542017
2.4e+08	-0.02676664	-0.04817292	0.1405821	-0.9417729	0.07493236	0.004573211	-0.01126767	-0.004546717
	0.1405821	-0.9417729	-0.02829231	-0.02270053	-0.01127593	-0.004534927	0.07374378	0.01816437
	0.07493236	0.004573211	-0.01127593	-0.004534928	-0.02622367	-0.04789576	0.1402432	-0.9419093
	-0.01126767	-0.004546717	0.07374378	0.01816437	0.1402432	-0.9419093	-0.02771893	-0.02267408
2.5e+08	-0.02853126	-0.0473523	0.08544686	-0.9472816	0.07649613	-0.000131837	-0.0123033	-0.004047295
	0.08544686	-0.9472816	-0.02863082	-0.01980193	-0.01231074	-0.004033369	0.07608133	0.01473082
	0.07649613	-0.0001318372	-0.01231074	-0.004033369	-0.02797104	-0.04710568	0.08508153	-0.9474
	-0.0123033	-0.004047295	0.07608133	0.01473082	0.08508153	-0.9474	-0.02805242	-0.01980567
2.6e+08	-0.03000051	-0.04645862	0.03017242	-0.9496016	0.07760087	-0.005032904	-0.01333531	-0.003411315
	0.03017242	-0.9496016	-0.02843821	-0.0168496	-0.01334156	-0.003394992	0.07810819	0.0111124
	0.07760087	-0.005032905	-0.01334156	-0.003394992	-0.02942704	-0.04624536	0.02978339	-0.9496987
	-0.01333531	-0.003411315	0.07810819	0.0111124	0.02978339	-0.9496987	-0.0278579	-0.01688319
2.7e+08	-0.03116971	-0.04554085	-0.02506328	-0.9487353	0.07822787	-0.01008476	-0.01434612	-0.002634906
	-0.02506328	-0.9487353	-0.02770367	-0.01391443	-0.01435075	-0.002616485	0.07981316	0.00734157
	0.07822787	-0.01008476	-0.01435075	-0.002616485	-0.03058707	-0.04536328	-0.02547588	-0.9488094
	-0.01434612	-0.002634906	0.07981316	0.00734157	-0.02547588	-0.9488094	-0.02712437	-0.01397655
2.8e+08	-0.03204158	-0.04464823	-0.08008365	-0.9446957	0.07836313	-0.01524089	-0.01531732	-0.001716983
	-0.08008365	-0.9446957	-0.02642541	-0.01106837	-0.01531991	-0.001696323	0.08118863	0.003450712
	0.07836313	-0.01524089	-0.01531991	-0.001696323	-0.0314538	-0.04450795	-0.08051849	-0.9447444
	-0.01531732	-0.001716983	0.08118863	0.003450712	-0.08051849	-0.9447444	-0.02584971	-0.01115719
2.9e+08	-0.03262527	-0.04382918	-0.1347126	-0.9375047	0.07799725	-0.02045369	-0.01623009	-0.0006583967
	-0.1347126	-0.9375047	-0.02461089	-0.008383218	-0.01623035	-0.0006358973	0.08223013	-0.0005274146
	0.07799725	-0.02045369	-0.01623035	-0.0006358973	-0.03203666	-0.04372792	-0.135168	-0.9375251
	-0.01623009	-0.000658397	0.08223013	-0.0005274146	-0.135168	-0.9375251	-0.02404093	-0.008496912
3e+08	-0.0329368	-0.04313057	-0.1887758	-0.9271907	0.07712495	-0.02567486	-0.0170658	0.0005365595
	-0.1887758	-0.9271907	-0.02227553	-0.005930407	-0.01706337	0.0005606537	0.08293625	-0.00456087
	0.07712495	-0.02567486	-0.01706337	0.0005606537	-0.03235155	-0.04306973	-0.1892503	-0.9271796
	-0.0170658	0.0005365595	0.08293625	-0.00456087	-0.1892503	-0.9271796	-0.02171295	-0.006066651
3.1e+08	-0.03299845	-0.04259689	-0.2421023	-0.9137931	0.07574579	-0.03085612	-0.01780618	0.001861332
	-0.2421023	-0.9137931	-0.01944361	-0.003779144	-0.01780043	0.00188689	0.08330926	-0.00861763
	0.07574579	-0.03085612	-0.01780043	0.00188689	-0.03242119	-0.04257801	-0.2425915	-0.9137471
	-0.01780618	0.001861332	0.08330926	-0.00861763	-0.2425915	-0.9137471	-0.01888998	-0.00393579
3.2e+08	-0.03283888	-0.04226988	-0.2945183	-0.8973588	0.07386391	-0.03594924	-0.01843364	0.003306859
	-0.2945183	-0.8973588	-0.01614816	-0.001996401	-0.01842427	0.00333353	0.08335425	-0.01266717
	0.07386391	-0.03594925	-0.01842427	0.00333353	-0.03227434	-0.04229339	-0.2950228	-0.8972763
	-0.01843364	0.003306859	0.08335425	-0.01266717	-0.2950228	-0.8972763	-0.01560424	-0.002170523
3.3e+08	-0.03249223	-0.04218713	-0.3458574	-0.8779423	0.07148758	-0.0409064	-0.01893156	0.004861921
	-0.3458574	-0.8779423	-0.01242971	-0.0006450794	-0.01891856	0.004888742	0.08307877	-0.01667985
	0.07148758	-0.0409064	-0.01891856	0.004888742	-0.03194552	-0.04225367	-0.3463726	-0.8778216
	-0.01893156	0.004861921	0.08307877	-0.01667985	-0.3463726	-0.8778216	-0.01189593	-0.0008340384
3.4e+08	-0.03199818	-0.04238157	-0.3959508	-0.8556094	0.06862989	-0.04568114	-0.01928524	0.006512264
	-0.3959508	-0.8556094	-0.008336941	0.0002164562	-0.01926808	0.006539173	0.08249385	-0.02062731
	0.06862989	-0.04568114	-0.01926808	0.006539173	-0.03147423	-0.0424911	-0.3964768	-0.8554493
	-0.01928524	0.006512263	0.08249385	-0.02062731	-0.3964768	-0.8554493	-0.007813032	1.57306e-05
3.5e+08	-0.0314008	-0.04288098	-0.4446384	-0.8304338	0.06530797	-0.05022794	-0.01948146	0.008242423
	-0.4446384	-0.8304338	-0.00392516	0.0005357394	-0.01945993	0.00826884	0.08161268	-0.02448331
	0.06530797	-0.05022794	-0.01945993	0.00826884	-0.03090518	-0.04303355	-0.445168	-0.8302313
	-0.01948146	0.008242423	0.08161268	-0.02448331	-0.445168	-0.8302313	-0.003410757	0.0003251275
3.6e+08	-0.03074847	-0.04370758	-0.4917575	-0.8024981	0.06154346	-0.05450318	-0.01950912	0.01003494
	-0.4917575	-0.8024981	0.0007433991	0.0002657738	-0.01948343	0.01006008	0.08045091	-0.02822311
	0.06154346	-0.05450318	-0.01948343	0.01006008	-0.03028667	-0.04390223	-0.4922884	-0.8022519
	-0.01950912	0.01003494	0.08045091	-0.02822311	-0.4922884	-0.8022519	0.00124959	4.819305e-05
3.7e+08	-0.03009242	-0.04487685	-0.5371528	-0.7718925	0.05736184	-0.05846571	-0.0193597	0.01187074
	-0.5371528	-0.7718925	0.005601224	-0.0006327388	-0.01932965	0.01189419	0.07902641	-0.03182421
	0.05736184	-0.05846571	-0.01932965	0.01189419	-0.0296701	-0.04511223	-0.5376825	-0.7716022
	-0.0193597	0.01187074	0.07902641	-0.03182421	-0.5376825	-0.7716022	0.006100839	-0.0008550609
3.8e+08	-0.02948669	-0.04639798	-0.5806732	-0.7387174	0.05279229	-0.06207637	-0.01902641	0.01373045
	-0.5806732	-0.7387174	0.01057592	-0.00219131	-0.0189926	0.01375104	0.07735884	-0.03526653
	0.05279229	-0.06207637	-0.0189926	0.01375104	-0.02910987	-0.04667243	-0.5811958	-0.7383811
	-0.01902641	0.01373045	0.07735884	-0.03526653	-0.5811958	-0.7383811	0.01107086	-0.002417046
3.9e+08	-0.02898781	-0.0482726	-0.622169	-0.7030828	0.0478682	-0.0652994	-0.01850639	0.01559276
	-0.622169	-0.7030828	0.01559017	-0.004433893	-0.01846829	0.01561048	0.07546992	-0.03853256
	0.0478682	-0.0652994	-0.01846829	0.01561048	-0.02866175	-0.04858322	-0.6226827	-0.7027027
	-0.01850639	0.01559276	0.07546992	-0.03853256	-0.6226827	-0.7027027	0.01608286	-0.004660629
4e+08	-0.02865244	-0.0504951	-0.6614982	-0.6651094	0.04262567	-0.06810204	-0.01779803	0.01743713
	-0.6614982	-0.6651094	0.02056397	-0.007374654	-0.01775645	0.0174511	0.0733825	-0.04160738
	0.04262567	-0.06810204	-0.01775645	0.0174511	-0.02838266	-0.05083919	-0.6619982	-0.6646825
	-0.01779803	0.01743713	0.0733825	-0.04160738	-0.6619982	-0.6646825	0.02105743	-0.0076019
4.1e+08	-0.02853674	-0.05305276	-0.6985263	-0.62492	0.03710421	-0.07045503	-0.01690293	0.01924278
	-0.6985263	-0.62492	0.02541597	-0.01101947	-0.01685837	0.01925224	0.07112047	-0.04447861
	0.03710421	-0.07045503	-0.01685837	0.01925224	-0.0283288	-0.05342659	-0.69901	-0.624447
	-0.01690293	0.01924278	0.07112047	-0.04447861	-0.69901	-0.624447	0.02591328	-0.01124651
4.2e+08	-0.02869723	-0.05592435	-0.7331232	-0.5826544	0.03134593	-0.07233345	-0.01582595	0.02098903
	-0.7331232	-0.5826544	0.03006252	-0.01536403	-0.01577858	0.02099357	0.0687088	-0.04713766
	0.03134593	-0.07233345	-0.01577858	0.02099357	-0.02855629	-0.05632352	-0.733585	-0.5821369
	-0.01582595	0.02098903	0.0687088	-0.04713766	-0.733585	-0.5821369	0.03056686	-0.01559075
4.3e+08	-0.02918753	-0.05908169	-0.7651674	-0.5384554	0.02539496	-0.07371617	-0.01457316	0.02265657
	-0.7651674	-0.5384554	0.03442101	-0.02039486	-0.01452399	0.02265578	0.0661726	-0.04957802
	0.02539496	-0.07371617	-0.01452399	0.02265578	-0.02911832	-0.05950158	-0.7656043	-0.5378938
	-0.01457316	0.02265657	0.0661726	-0.04957802	-0.7656043	-0.5378938	0.03493559	-0.02062188
4.4e+08	-0.03005843	-0.06248959	-0.7945462	-0.492475	0.01929761	-0.07458649	-0.01315392	0.02422687
	-0.7945462	-0.492475	0.03840966	-0.02608882	-0.01310326	0.02422032	0.06353695	-0.05179682
	0.01929761	-0.07458649	-0.01310326	0.02422032	-0.03006561	-0.06292461	-0.7949538	-0.491871
	-0.01315392	0.02422687	0.06353695	-0.05179682	-0.7949538	-0.491871	0.03893801	-0.02631726
4.5e+08	-0.03135744	-0.06610471	-0.821153	-0.4448758	0.01310146	-0.07493256	-0.0115794	0.02568296
	-0.821153	-0.4448758	0.0419485	-0.032413	-0.01152801	0.02567046	0.06082717	-0.05379402
	0.01310146	-0.07493256	-0.01152801	0.02567046	-0.03144515	-0.06654891	-0.8215278	-0.4442312
	-0.0115794	0.02568296	0.06082717	-0.05379402	-0.8215278	-0.4442312	0.04249407	-0.03264462
4.6e+08	-0.0331274	-0.06987743	-0.8448925	-0.3958265	0.006855062	-0.07474704	-0.00986212	0.02700964
	-0.8448925	-0.3958265	0.04496128	-0.03932561	-0.009811157	0.02699098	0.05806751	-0.05557289
	0.006855062	-0.07474704	-0.009811157	0.02699098	-0.033299	-0.0703249	-0.8452308	-0.3951415
	-0.00986212	0.02700964	0.05806751	-0.05557289	-0.8452308	-0.3951415	0.04552738	-0.03956296
4.7e+08	-0.03540403	-0.07375257	-0.8656843	-0.3454999	0.0006069518	-0.07402755	-0.008017273	0.0281934
	-0.8656843	-0.3454999	0.04737708	-0.04677542	-0.00796722	0.02816859	0.05528111	-0.05713911
	0.0006069518	-0.07402755	-0.00796722	0.02816859	-0.03566326	-0.0741962	-0.8659804	-0.3447777
	-0.008017273	0.0281934	0.05528111	-0.05713911	-0.8659804	-0.3447777	0.04796649	-0.04702173
4.8e+08	-0.03821873	-0.07766915	-0.8834496	-0.2940759	-0.005593898	-0.07277634	-0.006059815	0.02922324
	-0.8834496	-0.2940759	0.04912935	-0.05470409	-0.006011976	0.02919216	0.0524899	-0.05850145
	-0.005593898	-0.07277634	-0.006011976	0.02919216	-0.03856757	-0.07810154	-0.8837031	-0.2933201
	-0.006059815	0.02922324	0.0524899	-0.05850145	-0.8837031	-0.2933201	0.0497452	-0.05496251
4.9e+08	-0.04159463	-0.08156044	-0.898128	-0.2417454	-0.01169983	-0.07100085	-0.004007134	0.03008993
	-0.898128	-0.2417454	0.05015846	-0.0630436	-0.00396185	0.03005292	0.04971402	-0.05967134
	-0.01169983	-0.07100085	-0.00396185	0.03005292	-0.04203503	-0.08197433	-0.8983355	-0.2409559
	-0.004007134	0.03008993	0.04971402	-0.05967134	-0.8983355	-0.2409559	0.05080306	-0.06331907
5e+08	-0.04554623	-0.08535754	-0.9096731	-0.1886937	-0.01766404	-0.06871254	-0.001875421	0.03078648
	-0.9096731	-0.1886937	0.05041311	-0.07172125	-0.00183399	0.03074395	0.04697124	-0.06066208
	-0.01766404	-0.06871254	-0.00183399	0.03074395	-0.04607979	-0.08574467	-0.9098294	-0.1878768
	-0.001875421	0.03078648	0.04697124	-0.06066208	-0.9098294	-0.1878768	0.05108789	-0.07201813
5.1e+08	-0.05008153	-0.08898719	-0.9180439	-0.1351175	-0.02344094	-0.06592779	0.00031711	0.03130841
	-0.9180439	-0.1351175	0.04984886	-0.08065707	0.000353986	0.03126072	0.04427725	-0.06148937
	-0.02344094	-0.06592779	0.000353986	0.03126072	-0.05070834	-0.08933972	-0.9181487	-0.1342755
	0.00031711	0.03130841	0.04427725	-0.06148937	-0.9181487	-0.1342755	0.05055555	-0.08098059
5.2e+08	-0.05519812	-0.09237464	-0.9232189	-0.08121446	-0.02898826	-0.06266714	0.002553928	0.03165297
