!$
! Info: Touchstone file created by Circ.  Input file=Intel_C2M_200G_2p5in_202208016_staggered.circ
!$
# Hz S RI R 50
0	0.01256628	4.505025e-24	-6.016567e-05	7.368169e-21	0.0003073781	2.626449e-22	-5.578991e-05	6.832293e-21
	-6.016577e-05	7.368181e-21	0.01200886	2.194241e-24	-6.742275e-05	8.256905e-21	8.149234e-05	2.321219e-22
	0.0003074481	2.62825e-22	-6.742284e-05	8.256917e-21	0.0125675	4.567033e-24	-6.019129e-05	7.371307e-21
	-5.57899e-05	6.832292e-21	8.155076e-05	2.322496e-22	-6.019119e-05	7.371295e-21	0.01200678	2.084349e-24
1e+07	0.01491489	-4.005924e-05	-0.0003031824	-9.890891e-05	0.000721913	0.004364086	-4.048502e-05	-0.0001020458
	-0.0003031824	-9.890891e-05	0.01466031	-0.0002037595	-0.0004338568	-4.080054e-05	0.0008814348	0.004372185
	0.000721913	0.004364086	-0.0004338568	-4.080054e-05	0.01475748	2.775324e-05	-0.0002269229	-0.0001046928
	-4.048502e-05	-0.0001020458	0.0008814348	0.004372185	-0.0002269229	-0.0001046928	0.0145836	-0.0001739988
2e+07	0.01698432	-0.002250121	-0.000276504	-0.0003036392	0.001566215	0.00846487	-5.925162e-05	-0.0001782534
	-0.0002765039	-0.0003036392	0.01667241	-0.002599775	-0.0004208313	-0.0002436432	0.00183011	0.00835359
	0.001566302	0.008464767	-0.0004208312	-0.0002436432	0.01689684	-0.002067365	-0.0002242334	-0.0002561298
	-5.92516e-05	-0.0001782534	0.001830122	0.008353578	-0.0002242334	-0.0002561298	0.01661626	-0.002510909
3e+07	0.01798866	-0.005596252	-0.0002767278	-0.0004280216	0.00288853	0.01236099	-8.756477e-05	-0.0002507066
	-0.0002767278	-0.0004280216	0.01801943	-0.005894503	-0.0004262797	-0.0003584545	0.003195199	0.01225918
	0.002888507	0.01236097	-0.0004262797	-0.0003584545	0.01797024	-0.005359219	-0.0002424066	-0.000367798
	-8.756477e-05	-0.0002507066	0.003195167	0.01225921	-0.0002424066	-0.000367798	0.01797559	-0.005759518
4e+07	0.01833723	-0.009172537	-0.0002972181	-0.0005307907	0.004597262	0.01609452	-0.0001326362	-0.0003165809
	-0.0002972181	-0.0005307907	0.0186817	-0.00964834	-0.0004465582	-0.0004530798	0.005044546	0.01592721
	0.004597262	0.01609453	-0.0004465582	-0.0004530798	0.01838062	-0.008899641	-0.0002770055	-0.000463282
	-0.0001326362	-0.0003165809	0.005044537	0.01592723	-0.0002770056	-0.000463282	0.01865685	-0.00947364
5e+07	0.01808827	-0.01289067	-0.0003337454	-0.0006192863	0.006703366	0.01960724	-0.0001855819	-0.0003764346
	-0.0003337454	-0.0006192863	0.01876901	-0.01357844	-0.0004787748	-0.0005363997	0.007321864	0.0193405
	0.00670337	0.01960725	-0.0004787748	-0.0005363997	0.01819084	-0.01259417	-0.0003253839	-0.0005470813
	-0.0001855819	-0.0003764346	0.007321865	0.01934051	-0.0003253839	-0.0005470813	0.01876515	-0.01336825
6e+07	0.01725474	-0.01659805	-0.0003834975	-0.000695495	0.009178716	0.0228605	-0.0002454953	-0.0004299316
	-0.0003834975	-0.000695495	0.01834289	-0.01757124	-0.0005213283	-0.0006114987	0.01000093	0.02245745
	0.009178715	0.0228605	-0.0005213283	-0.0006114987	0.01741483	-0.01628807	-0.000385597	-0.0006201829
	-0.0002454953	-0.0004299316	0.01000095	0.02245744	-0.000385597	-0.0006201829	0.01836186	-0.01732855
7e+07	0.01589039	-0.02017132	-0.0004707786	-0.0007483502	0.01199327	0.02582076	-0.0003115795	-0.0004762573
	-0.0004707786	-0.0007483502	0.01743402	-0.02153233	-0.0005729919	-0.0006793011	0.01304614	0.02523712
	0.01199327	0.02582077	-0.0005729919	-0.0006793011	0.01610581	-0.01985732	-0.0004559808	-0.0006825476
	-0.0003115795	-0.0004762573	0.01304614	0.02523711	-0.0004559808	-0.0006825476	0.01747796	-0.02126004
8e+07	0.01405441	-0.02352262	-0.0005951351	-0.0007711457	0.01511331	0.02845744	-0.000382971	-0.0005148262
	-0.0005951351	-0.0007711457	0.01608091	-0.02537408	-0.0006329006	-0.0007401281	0.01641803	0.02764297
	0.01511331	0.02845744	-0.0006329006	-0.0007401281	0.0143221	-0.0232139	-0.0005349283	-0.0007336617
	-0.000382971	-0.0005148262	0.01641803	0.02764297	-0.0005349283	-0.0007336617	0.01615207	-0.02507501
9e+07	0.01180318	-0.02657897	-0.000719162	-0.0007760056	0.01850299	0.03074438	-0.0004591571	-0.0005454649
	-0.000719162	-0.0007760056	0.01433581	-0.02902075	-0.000700662	-0.0007942278	0.02007451	0.02964291
	0.01850299	0.03074438	-0.000700662	-0.0007942278	0.01211919	-0.02628445	-0.0006286171	-0.000768015
	-0.0004591571	-0.0005454649	0.02007451	0.02964292	-0.0006286171	-0.000768015	0.01443589	-0.02869824
1e+08	0.009209953	-0.0292504	-0.0008371213	-0.0007571433	0.02212669	0.03266018	-0.0005386398	-0.000567216
	-0.0008371213	-0.0007571433	0.01227705	-0.03238609	-0.0007747856	-0.0008400565	0.02397281	0.03120973
	0.02212669	0.03266018	-0.0007747856	-0.0008400565	0.0095666	-0.02898313	-0.0007434831	-0.0007736462
	-0.0005386398	-0.000567216	0.02397281	0.03120973	-0.0007434831	-0.0007736462	0.01240692	-0.03204433
1.1e+08	0.006437489	-0.03160001	-0.0009316281	-0.0007426743	0.02594183	0.03417596	-0.0006203429	-0.0005831185
	-0.0009316281	-0.0007426743	0.01002567	-0.03561389	-0.0008621512	-0.0008766723	0.02808305	0.03231368
	0.02594183	0.03417596	-0.0008621512	-0.0008766723	0.006813848	-0.0313356	-0.0008480978	-0.000775859
	-0.0006203429	-0.0005831185	0.02808305	0.03231368	-0.0008480978	-0.000775859	0.01024708	-0.03525414
1.2e+08	0.003378203	-0.03358801	-0.001034549	-0.0007275985	0.02989672	0.03528271	-0.0007070809	-0.0005920102
	-0.001034549	-0.0007275985	0.00743973	-0.03857799	-0.0009584494	-0.0009081824	0.03230473	0.03293255
	0.02989672	0.03528271	-0.0009584494	-0.0009081824	0.003784701	-0.03333285	-0.0009589901	-0.0007720409
	-0.0007070809	-0.0005920102	0.03230473	0.03293255	-0.0009589901	-0.0007720409	0.00770126	-0.03823171
1.3e+08	0.0001193494	-0.0351386	-0.001141184	-0.0007044824	0.03395027	0.03597464	-0.0007991797	-0.00059443
	-0.001141184	-0.0007044824	0.004612587	-0.04121647	-0.00106273	-0.0009324444	0.03659953	0.03306255
	0.03395027	0.03597464	-0.00106273	-0.0009324444	0.0005559616	-0.03489999	-0.001073142	-0.000758069
	-0.0007991797	-0.00059443	0.03659953	0.03306255	-0.001073142	-0.000758069	0.004889146	-0.04087664
1.4e+08	-0.003261267	-0.03621821	-0.001249728	-0.0006717193	0.03805967	0.03624901	-0.0008936959	-0.0005872147
	-0.001249728	-0.0006717193	0.00160845	-0.04350788	-0.001174609	-0.0009482608	0.04092012	0.0327014
	0.03805967	0.03624901	-0.001174609	-0.0009482608	-0.002797503	-0.0360004	-0.00118907	-0.0007330428
	-0.0008936959	-0.0005872147	0.04092012	0.03270139	-0.00118907	-0.0007330428	0.001895834	-0.04316351
1.5e+08	-0.006686391	-0.03681051	-0.001358834	-0.000628499	0.04218284	0.03610709	-0.0009898825	-0.0005701429
	-0.001358834	-0.000628499	-0.001515191	-0.04544038	-0.001293689	-0.0009544391	0.04521651	0.03185012
	0.04218284	0.03610709	-0.001293689	-0.0009544391	-0.006198797	-0.03661582	-0.001305523	-0.0006964945
	-0.0009898825	-0.0005701429	0.04521651	0.03185011	-0.001305523	-0.0006964945	-0.001213128	-0.04508597
1.6e+08	-0.01008014	-0.03691262	-0.001467256	-0.0005744521	0.04627865	0.03555457	-0.001086908	-0.0005430883
	-0.001467256	-0.0005744521	-0.004703868	-0.04700952	-0.001419371	-0.0009498299	0.04943815	0.03051429
	0.04627865	0.03555457	-0.001419371	-0.0009498299	-0.009571836	-0.03674211	-0.001421339	-0.0006482361
	-0.001086908	-0.0005430883	0.04943815	0.03051429	-0.001421339	-0.0006482361	-0.004380975	-0.04664456
1.7e+08	-0.01336918	-0.03653309	-0.001573855	-0.0005093941	0.05030717	0.03460068	-0.001183953	-0.0005059185
	-0.001573855	-0.0005093941	-0.007904548	-0.04821761	-0.001550884	-0.000933337	0.05353504	0.02870411
	0.05030717	0.03460069	-0.001550884	-0.000933337	-0.01284255	-0.03638745	-0.001535372	-0.0005882055
	-0.001183953	-0.0005059185	0.05353504	0.02870411	-0.001535372	-0.0005882055	-0.00755562	-0.04784507
1.8e+08	-0.01648325	-0.03569034	-0.001677538	-0.0004333705	0.05423053	0.03325857	-0.001280158	-0.0004585585
	-0.001677538	-0.0004333705	-0.01106634	-0.04907406	-0.001687339	-0.0009037601	0.05745842	0.02643452
	0.05423053	0.03325857	-0.001687339	-0.0009037601	-0.01594067	-0.0355702	-0.001646585	-0.0005165556
	-0.001280158	-0.0004585585	0.05745842	0.02643452	-0.001646585	-0.0005165556	-0.01068788	-0.04869892
1.9e+08	-0.01935656	-0.03441217	-0.001777267	-0.0003464967	0.05801287	0.03154519	-0.001374683	-0.00040098
	-0.001777267	-0.0003464967	-0.0141403	-0.04959512	-0.00182769	-0.0008598819	0.06116162	0.02372543
	0.05801287	0.03154519	-0.00182769	-0.0008598819	-0.01880005	-0.03431835	-0.001753893	-0.0004334697
	-0.001374683	-0.00040098	0.06116162	0.02372543	-0.001753893	-0.0004334697	-0.01373092	-0.0492233
2e+08	-0.02192743	-0.03273464	-0.001871293	-0.0002491844	0.06162048	0.02948018	-0.001466627	-0.0003332629
	-0.001871293	-0.0002491844	-0.01708111	-0.04980393	-0.001979135	-0.0007821141	0.06460039	0.02060107
	0.06162048	0.02948018	-0.001979135	-0.0007821141	-0.02135968	-0.03266758	-0.001855582	-0.0003394655
	-0.001466627	-0.0003332629	0.06460039	0.02060106	-0.001855582	-0.0003394655	-0.01664054	-0.04944105
2.1e+08	-0.02414088	-0.03070113	-0.00195943	-0.0001417525	0.06502309	0.02708653	-0.001555124	-0.0002554836
	-0.00195943	-0.0001417525	-0.01984767	-0.04972919	-0.00212913	-0.0006879983	0.06773326	0.01708986
	0.06502309	0.02708653	-0.00212913	-0.0006879983	-0.02356379	-0.03066152	-0.001951483	-0.0002348344
	-0.001555124	-0.0002554836	0.06773326	0.01708986	-0.001951483	-0.0002348344	-0.01937726	-0.04938107
2.2e+08	-0.02594707	-0.02836183	-0.002040796	-2.45915e-05	0.06819286	0.02438951	-0.001639284	-0.0001677978
	-0.002040796	-2.45915e-05	-0.02240358	-0.04940576	-0.002276039	-0.0005769601	0.07052195	0.01322395
	0.06819286	0.02438951	-0.002276039	-0.0005769601	-0.02536342	-0.02834997	-0.00204071	-0.0001199864
	-0.001639284	-0.0001677978	0.07052195	0.01322395	-0.00204071	-0.0001199864	-0.02190588	-0.04907723
2.3e+08	-0.02730352	-0.02577298	-0.002114545	0.0001017685	0.07110506	0.02141644	-0.001718236	-7.045836e-05
	-0.002114545	0.0001017685	-0.0247181	-0.04887272	-0.002418055	-0.0004487803	0.07293196	0.009038846
	0.07110506	0.02141644	-0.002418055	-0.0004487803	-0.02671596	-0.02578879	-0.00212244	4.561441e-06
	-0.001718236	-7.045836e-05	0.07293196	0.009038846	-0.00212244	4.561441e-06	-0.02419594	-0.04856794
2.4e+08	-0.02817517	-0.02299549	-0.002179899	0.0002368836	0.07373868	0.01819672	-0.001791106	3.621436e-05
	-0.002179899	0.0002368836	-0.02676664	-0.04817292	-0.002553285	-0.0003033802	0.07493236	0.004573211
	0.07373868	0.01819672	-0.002553285	-0.0003033802	-0.02758653	-0.0230387	-0.002195863	0.0001382806
	-0.001791106	3.621436e-05	0.07493236	0.004573211	-0.002195863	0.0001382806	-0.02622367	-0.04789576
2.5e+08	-0.02853459	-0.02009477	-0.002236117	0.0003801142	0.07607574	0.01476089	-0.001857017	0.0001518883
	-0.002236117	0.0003801142	-0.02853126	-0.0473523	-0.00267972	-0.0001409123	0.07649613	-0.000131837
	0.07607574	0.01476089	-0.00267972	-0.0001409123	-0.02794739	-0.02016443	-0.002260258	0.0002805571
	-0.001857017	0.0001518883	0.07649613	-0.0001318372	-0.002260258	0.0002805571	-0.02797104	-0.04710568
2.6e+08	-0.02836292	-0.01713889	-0.002282477	0.0005308419	0.07810168	0.01114047	-0.001915154	0.0002760663
	-0.002282477	0.0005308419	-0.03000051	-0.04645862	-0.002795359	3.81996e-05	0.07760087	-0.005032904
	0.07810168	0.01114047	-0.002795359	3.81996e-05	-0.0277798	-0.01723423	-0.002314919	0.0004307619
	-0.001915154	0.0002760663	0.07760087	-0.005032905	-0.002314919	0.0004307619	-0.02942704	-0.04624536
2.7e+08	-0.02764923	-0.0141987	-0.002318315	0.0006884038	0.0798054	0.007367952	-0.001964668	0.0004083074
	-0.002318315	0.0006884038	-0.03116971	-0.04554085	-0.002898203	0.0002331699	0.07822787	-0.01008476
	0.0798054	0.007367952	-0.002898203	0.0002331699	-0.02707264	-0.01431796	-0.002359186	0.0005882299
	-0.001964668	0.0004083074	0.07822787	-0.01008476	-0.002359186	0.0005882299	-0.03058707	-0.04536328
2.8e+08	-0.02639167	-0.01134605	-0.002343016	0.0008520918	0.08117932	0.003475786	-0.002004768	0.0005479756
	-0.002343016	0.0008520918	-0.03204158	-0.04464823	-0.002986259	0.000443091	0.07836313	-0.01524089
	0.08117932	0.003475786	-0.002986259	0.000443091	-0.02582376	-0.01148702	-0.002392464	0.0007522186
	-0.002004768	0.0005479756	0.07836313	-0.01524089	-0.002392464	0.0007522186	-0.0314538	-0.04450795
2.9e+08	-0.02459756	-0.008652701	-0.002355997	0.001021112	0.08221897	-0.0005032428	-0.002034701	0.0006944216
	-0.002355997	0.001021112	-0.03262527	-0.04382918	-0.003057649	0.0006667353	0.07799725	-0.02045369
	0.08221897	-0.0005032428	-0.003057649	0.0006667353	-0.02403994	-0.008813192	-0.002414171	0.0009220315
	-0.002034701	0.0006944216	0.07799725	-0.02045369	-0.002414171	0.0009220315	-0.03203666	-0.04372792
3e+08	-0.02228217	-0.006190019	-0.002356707	0.001194667	0.0829231	-0.004537129	-0.002053755	0.000846931
	-0.002356707	0.001194667	-0.0329368	-0.04313057	-0.003110622	0.0009025718	0.07712495	-0.02567486
	0.0829231	-0.004537129	-0.003110622	0.0009025718	-0.02173599	-0.00636741	-0.002423774	0.00109688
	-0.002053755	0.000846931	0.07712495	-0.02567486	-0.002423774	0.00109688	-0.03235155	-0.04306973
3.1e+08	-0.01946964	-0.004027226	-0.002344682	0.001371915	0.08329396	-0.008593862	-0.002061217	0.001004758
	-0.002344682	0.001371915	-0.03299845	-0.04259689	-0.003143528	0.001148918	0.07574579	-0.03085612
	0.08329396	-0.008593862	-0.003143528	0.001148918	-0.01893598	-0.004219025	-0.002420838	0.001275892
	-0.002061217	0.001004758	0.07574579	-0.03085612	-0.002420838	0.001275892	-0.03242119	-0.04257801
3.2e+08	-0.01619287	-0.002231229	-0.00231946	0.001551982	0.08333677	-0.01264288	-0.002056486	0.00116698
	-0.00231946	0.001551982	-0.03283888	-0.04226988	-0.003155016	0.001403723	0.07386391	-0.03594924
	0.08333677	-0.01264288	-0.003155016	0.001403723	-0.01567192	-0.002434291	-0.002404906	0.001458243
	-0.002056486	0.00116698	0.07386391	-0.03594925	-0.002404906	0.001458243	-0.03227434	-0.04229339
3.3e+08	-0.01249217	-0.0008649643	-0.002280636	0.001733947	0.0830591	-0.01665452	-0.002038969	0.0013327
	-0.002280636	0.001733947	-0.03249223	-0.04218713	-0.003143841	0.001664944	0.07148758	-0.0409064
	0.0830591	-0.01665452	-0.003143841	0.001664944	-0.01198382	-0.001076432	-0.002375588	0.00164306
	-0.002038969	0.0013327	0.07148758	-0.0409064	-0.002375588	0.00164306	-0.03194552	-0.04225367
3.4e+08	-0.008416045	1.314661e-05	-0.002227891	0.001916841	0.08247212	-0.02060042	-0.002008171	0.001500951
	-0.002227891	0.001916841	-0.03199818	-0.04238157	-0.003109132	0.00193017	0.06862989	-0.04568114
	0.08247212	-0.02060042	-0.003109132	0.00193017	-0.007919474	-0.00020344	-0.002332553	0.001829456
	-0.002008171	0.001500951	0.06862989	-0.04568114	-0.002332553	0.001829456	-0.03147423	-0.0424911
3.5e+08	-0.004019631	0.000350619	-0.002160942	0.002099618	0.08158904	-0.02445437	-0.001963647	0.001670649
	-0.002160942	0.002099618	-0.0314008	-0.04288098	-0.003050292	0.002196973	0.06530797	-0.05022794
	0.08158904	-0.02445437	-0.003050292	0.002196973	-0.003533827	0.0001309457	-0.002275533	0.002016438
	-0.001963647	0.001670649	0.06530797	-0.05022794	-0.002275533	0.002016438	-0.03090518	-0.04303355
3.6e+08	0.000635053	0.0001003585	-0.002079596	0.002281256	0.08042561	-0.02819166	-0.001905072	0.001840689
	-0.002079596	0.002281256	-0.03074847	-0.04370758	-0.002966901	0.002462885	0.06154346	-0.05450318
	0.08042561	-0.02819166	-0.002966901	0.002462885	0.001111925	-0.0001194183	-0.002204321	0.00220304
	-0.001905072	0.001840689	0.06154346	-0.05450318	-0.002204321	0.00220304	-0.03028667	-0.04390223
3.7e+08	0.00548067	-0.0007770414	-0.00198365	0.002460692	0.07899976	-0.03178979	-0.001832119	0.002009973
	-0.00198365	0.002460692	-0.03009242	-0.04487685	-0.002858933	0.002725354	0.05736184	-0.05846571
	0.07899976	-0.03178979	-0.002858933	0.002725354	0.005950878	-0.0009946195	-0.002118682	0.002388321
	-0.001832119	0.002009973	0.05736184	-0.05846571	-0.002118682	0.002388321	-0.0296701	-0.04511223
3.8e+08	0.01044501	-0.002313233	-0.001873068	0.00263679	0.07733123	-0.03522877	-0.001744663	0.002177254
	-0.001873068	0.00263679	-0.02948669	-0.04639798	-0.002726732	0.002981758	0.05279229	-0.06207637
	0.07733123	-0.03522877	-0.002726732	0.002981758	0.01091107	-0.002527297	-0.002018536	0.002571206
	-0.001744663	0.002177254	0.05279229	-0.06207637	-0.002018536	0.002571206	-0.02910987	-0.04667243
3.9e+08	0.01545085	-0.004532296	-0.001747854	0.002808415	0.07544179	-0.03849107	-0.001642597	0.002341318
	-0.001747854	0.002808415	-0.02898781	-0.0482726	-0.002570911	0.003229602	0.0478682	-0.0652994
	0.07544179	-0.03849107	-0.002570911	0.003229602	0.01591589	-0.00474052	-0.001903834	0.002750668
	-0.001642597	0.002341318	0.0478682	-0.0652994	-0.001903834	0.002750668	-0.02866175	-0.04858322
4e+08	0.02041844	-0.007448641	-0.001608095	0.002974398	0.07335433	-0.04156188	-0.001525955	0.002500887
	-0.001608095	0.002974398	-0.02865244	-0.0504951	-0.002392295	0.003466507	0.04262567	-0.06810204
	0.07335433	-0.04156188	-0.002392295	0.003466507	0.02088603	-0.007650614	-0.00177452	0.002925652
	-0.001525955	0.002500887	0.04262567	-0.06810204	-0.00177452	0.002925652	-0.02838266	-0.05083919
4.1e+08	0.0252665	-0.01106828	-0.001453944	0.003133558	0.07109284	-0.04442885	-0.001394882	0.002654684
	-0.001453944	0.003133558	-0.02853674	-0.05305276	-0.002192233	0.003690123	0.03710421	-0.07045503
	0.07109284	-0.04442885	-0.002192233	0.003690123	0.02574037	-0.01126351	-0.001630775	0.003095019
	-0.001394882	0.002654684	0.03710421	-0.07045503	-0.001630775	0.003095019	-0.0283288	-0.05342659
4.2e+08	0.02991153	-0.01538719	-0.001285693	0.003284692	0.06868226	-0.04708351	-0.001249685	0.002801423
	-0.001285693	0.003284692	-0.02869723	-0.05592435	-0.001972044	0.00389843	0.03134593	-0.07233345
	0.06868226	-0.04708351	-0.001972044	0.00389843	0.03039546	-0.01557576	-0.001472702	0.003257688
	-0.001249685	0.002801423	0.03134593	-0.07233345	-0.001472702	0.003257688	-0.02855629	-0.05632352
4.3e+08	0.03427098	-0.02039211	-0.001103695	0.003426604	0.0661478	-0.04951941	-0.001090622	0.002939832
	-0.001103695	0.003426604	-0.02918753	-0.05908169	-0.001733586	0.004089467	0.02539496	-0.07371617
	0.0661478	-0.04951941	-0.001733586	0.004089467	0.03476877	-0.02057495	-0.001300459	0.00341256
	-0.001090622	0.002939832	0.02539496	-0.07371617	-0.001300459	0.00341256	-0.02911832	-0.05950158
4.4e+08	0.03826314	-0.02606015	-0.0009084286	0.003558077	0.0635145	-0.05173372	-0.0009182503	0.003068622
	-0.0009084286	0.003558077	-0.03005843	-0.06248959	-0.001478673	0.004261631	0.01929761	-0.07458649
	0.0635145	-0.05173372	-0.001478673	0.004261631	0.03877884	-0.02623876	-0.001114477	0.003558443
	-0.0009182503	0.003068622	0.01929761	-0.07458649	-0.001114477	0.003558443	-0.03006561	-0.06292461
4.5e+08	0.04180811	-0.0323587	-0.0007004646	0.003677944	0.06080773	-0.05372655	-0.000733238	0.003186547
	-0.0007004646	0.003677944	-0.03135744	-0.06610471	-0.001209299	0.004413594	0.01310146	-0.07493256
	0.06080773	-0.05372655	-0.001209299	0.004413594	0.04234568	-0.03253527	-0.0009151555	0.003694227
	-0.000733238	0.003186547	0.01310146	-0.07493256	-0.0009151555	0.003694227	-0.03144515	-0.06654891
4.6e+08	0.04482954	-0.03924623	-0.000480575	0.003785006	0.05805174	-0.05550121	-0.0005362749	0.003292411
	-0.000480575	0.003785006	-0.0331274	-0.06987743	-0.0009278024	0.004544218	0.006855062	-0.07474704
	0.05805174	-0.05550121	-0.0009278024	0.004544218	0.04539277	-0.03942374	-0.0007028323	0.003818773
	-0.0005362749	0.003292411	0.006855062	-0.07474704	-0.0007028323	0.003818773	-0.033299	-0.0703249
4.7e+08	0.04725656	-0.04667181	-0.0002494778	0.003878149	0.05526961	-0.05706349	-0.0003282799	0.003385059
	-0.0002494778	0.003878149	-0.03540403	-0.07375257	-0.0006364272	0.004652727	0.0006069518	-0.07402755
	0.05526961	-0.05706349	-0.0006364272	0.004652727	0.04784864	-0.04685404	-0.0004782428	0.00393095
	-0.0003282799	0.003385059	0.0006069518	-0.07402755	-0.0004782428	0.00393095	-0.03566326	-0.0741962
4.8e+08	0.04902251	-0.05457734	-8.095227e-06	0.003956294	0.05248331	-0.05842222	-0.000110174	0.003463416
	-8.095227e-06	0.003956294	-0.03821873	-0.07766915	-0.0003372938	0.004738709	-0.005593898	-0.07277634
	0.05248331	-0.05842222	-0.0003372938	0.004738709	0.04964694	-0.05476796	-0.0002419874	0.004029634
