!$
! Info: Touchstone file created by Circ.  Input file=Intel_C2M_200G_2p5in_202208016_staggered.circ
!$
# Hz S RI R 50
0	0.01199556	2.000238e-24	3.811126e-05	3.96534e-23	8.18811e-05	2.330978e-22	3.804404e-05	3.956299e-23
	3.811126e-05	3.96534e-23	0.01200886	2.194241e-24	3.809344e-05	3.963334e-23	8.149234e-05	2.321219e-22
	8.193951e-05	2.332264e-22	3.809343e-05	3.963422e-23	0.01199034	1.932802e-24	3.805689e-05	3.954468e-23
	3.804403e-05	3.956387e-23	8.155076e-05	2.322496e-22	3.805689e-05	3.954468e-23	0.01200678	2.084349e-24
1e+07	0.01477855	-7.837499e-05	7.471485e-06	5.434119e-06	0.0007402205	0.004299715	1.091623e-06	1.093155e-05
	7.471485e-06	5.434119e-06	0.01466031	-0.0002037595	2.376668e-05	6.020212e-06	0.0008814348	0.004372185
	0.0007402205	0.004299715	2.376668e-05	6.020212e-06	0.01494177	-5.396204e-05	9.527031e-06	1.320205e-05
	1.091623e-06	1.093155e-05	0.0008814348	0.004372185	9.527031e-06	1.320205e-05	0.0145836	-0.0001739988
2e+07	0.01688606	-0.002445353	2.712207e-06	1.380053e-05	0.001698287	0.008264412	1.72035e-06	5.06605e-06
	2.712207e-06	1.380053e-05	0.01667241	-0.002599775	1.579385e-05	1.519842e-05	0.00183011	0.00835359
	0.001698299	0.0082644	1.579385e-05	1.519842e-05	0.01699671	-0.002447298	6.820628e-06	1.240042e-05
	1.720351e-06	5.06605e-06	0.001830122	0.008353578	6.820628e-06	1.240042e-05	0.01661626	-0.002510909
3e+07	0.01830886	-0.005745555	9.958675e-06	1.824312e-05	0.003066919	0.01212968	2.551957e-06	4.516841e-06
	9.958676e-06	1.824312e-05	0.01801943	-0.005894503	1.06615e-05	2.254708e-05	0.003195199	0.01225918
	0.003066886	0.01212971	1.066149e-05	2.254708e-05	0.01837583	-0.005714821	5.150416e-06	1.373189e-05
	2.551958e-06	4.516841e-06	0.003195167	0.01225921	5.150416e-06	1.373189e-05	0.01797559	-0.005759518
4e+07	0.01903614	-0.009521735	1.613973e-05	1.999136e-05	0.004915699	0.01575372	3.434417e-06	5.254555e-06
	1.613973e-05	1.999136e-05	0.0186817	-0.00964834	6.902308e-06	2.732744e-05	0.005044546	0.01592721
	0.00491569	0.01575374	6.902309e-06	2.732744e-05	0.01907642	-0.009444911	3.991246e-06	1.517517e-05
	3.434417e-06	5.254555e-06	0.005044537	0.01592723	3.991247e-06	1.517517e-05	0.01865685	-0.00947364
5e+07	0.01917999	-0.0134864	2.144549e-05	2.012889e-05	0.007188943	0.01912246	4.444144e-06	6.652475e-06
	2.144549e-05	2.012889e-05	0.01876901	-0.01357844	1.391164e-05	2.788744e-05	0.007321864	0.0193405
	0.007188944	0.01912247	1.391164e-05	2.788744e-05	0.01920389	-0.01335649	6.563457e-06	1.543935e-05
	4.444145e-06	6.652475e-06	0.007321865	0.01934051	6.563458e-06	1.543935e-05	0.01876515	-0.01336825
6e+07	0.01880261	-0.01752362	2.598627e-05	1.92242e-05	0.009860886	0.0221958	5.398392e-06	7.800222e-06
	2.598627e-05	1.92242e-05	0.01834289	-0.01757124	1.993968e-05	2.704597e-05	0.01000093	0.02245745
	0.009860906	0.02219579	1.993968e-05	2.704597e-05	0.01881943	-0.01733601	8.997704e-06	1.532587e-05
	5.398391e-06	7.800222e-06	0.01000095	0.02245744	8.997704e-06	1.532587e-05	0.01836186	-0.01732855
7e+07	0.01793466	-0.02153764	2.979229e-05	1.753052e-05	0.01289639	0.02493374	6.310068e-06	8.791336e-06
	2.979229e-05	1.753052e-05	0.01743402	-0.02153233	2.501635e-05	2.510248e-05	0.01304614	0.02523712
	0.01289639	0.02493374	2.501635e-05	2.510248e-05	0.01795357	-0.02128966	1.112319e-05	1.491715e-05
	6.310069e-06	8.791336e-06	0.01304614	0.02523711	1.112319e-05	1.491715e-05	0.01747796	-0.02126004
8e+07	0.01661397	-0.02544025	3.285894e-05	1.517931e-05	0.01625646	0.02730046	7.190186e-06	9.671353e-06
	3.285894e-05	1.517931e-05	0.01608091	-0.02537408	2.912505e-05	2.221195e-05	0.01641803	0.02764297
	0.01625646	0.02730047	2.912505e-05	2.221195e-05	0.0166442	-0.02513031	1.293971e-05	1.423507e-05
	7.190186e-06	9.671353e-06	0.01641803	0.02764297	1.293971e-05	1.423507e-05	0.01615207	-0.02507501
9e+07	0.01489115	-0.02915626	3.509981e-05	1.220259e-05	0.01989952	0.02926449	8.027214e-06	1.047438e-05
	3.509981e-05	1.220259e-05	0.01433581	-0.02902075	3.215269e-05	1.846187e-05	0.02007451	0.02964291
	0.01989952	0.0292645	3.215269e-05	1.846187e-05	0.01494187	-0.02878342	1.439839e-05	1.328649e-05
	8.027214e-06	1.047438e-05	0.02007451	0.02964292	1.439839e-05	1.328649e-05	0.01443589	-0.02869824
1e+08	0.01283734	-0.03260707	3.600783e-05	8.079506e-06	0.02378287	0.03079895	8.752586e-06	1.117389e-05
	3.600783e-05	8.079506e-06	0.01227705	-0.03238609	3.348822e-05	1.323287e-05	0.02397281	0.03120973
	0.02378287	0.03079895	3.348822e-05	1.323287e-05	0.01292028	-0.03216728	1.527028e-05	1.18486e-05
	8.752586e-06	1.117389e-05	0.02397281	0.03120973	1.527028e-05	1.18486e-05	0.01240692	-0.03204433
1.1e+08	0.01055244	-0.03589382	3.40303e-05	6.144453e-06	0.02787818	0.03187683	9.353047e-06	1.227499e-05
	3.40303e-05	6.144453e-06	0.01002567	-0.03561389	3.123656e-05	1.05459e-05	0.02808305	0.03231368
	0.02787818	0.03187683	3.123656e-05	1.05459e-05	0.01075291	-0.03540343	1.493904e-05	1.138473e-05
	9.353047e-06	1.227499e-05	0.02808305	0.03231368	1.493904e-05	1.138473e-05	0.01024708	-0.03525414
1.2e+08	0.007942684	-0.0388992	3.292041e-05	5.596948e-06	0.03208746	0.03247387	1.042356e-05	1.374464e-05
	3.292041e-05	5.596948e-06	0.00743973	-0.03857799	2.984328e-05	9.515006e-06	0.03230473	0.03293255
	0.03208746	0.03247386	2.984328e-05	9.515006e-06	0.00820563	-0.03840124	1.500318e-05	1.150358e-05
	1.042356e-05	1.374464e-05	0.03230473	0.03293255	1.500318e-05	1.150358e-05	0.00770126	-0.03823171
1.3e+08	0.005095553	-0.04157239	3.302016e-05	6.497383e-06	0.03637247	0.03258585	1.167615e-05	1.511522e-05
	3.302016e-05	6.497383e-06	0.004612587	-0.04121647	2.883138e-05	9.118204e-06	0.03659953	0.03306255
	0.03637247	0.03258585	2.883138e-05	9.118204e-06	0.005394694	-0.04106533	1.526901e-05	1.185022e-05
	1.167615e-05	1.511522e-05	0.03659953	0.03306255	1.526901e-05	1.185022e-05	0.004889146	-0.04087664
1.4e+08	0.002073933	-0.04389454	3.43952e-05	8.521383e-06	0.04068644	0.03221019	1.312416e-05	1.638738e-05
	3.43952e-05	8.521383e-06	0.00160845	-0.04350788	2.812002e-05	9.107744e-06	0.04092012	0.0327014
	0.04068644	0.03221019	2.812002e-05	9.107744e-06	0.002404131	-0.04337145	1.570551e-05	1.233589e-05
	1.312416e-05	1.638738e-05	0.04092012	0.03270139	1.570551e-05	1.233589e-05	0.001895834	-0.04316351
1.5e+08	-0.001065371	-0.04585512	3.593884e-05	1.030646e-05	0.04497991	0.03134756	1.474861e-05	1.759577e-05
	3.593884e-05	1.030646e-05	-0.001515191	-0.04544038	2.765353e-05	9.401461e-06	0.04521651	0.03185012
	0.04497991	0.03134756	2.765353e-05	9.401461e-06	-0.0007012298	-0.04531378	1.630776e-05	1.290784e-05
	1.474861e-05	1.759577e-05	0.04521651	0.03185011	1.630776e-05	1.290784e-05	-0.001213128	-0.04508597
1.6e+08	-0.004268414	-0.04745043	3.767254e-05	1.188308e-05	0.04920287	0.03000311	1.656045e-05	1.872509e-05
	3.767254e-05	1.188308e-05	-0.004703868	-0.04700952	2.742528e-05	9.918842e-06	0.04943815	0.03051429
	0.04920287	0.03000311	2.742528e-05	9.918842e-06	-0.003865215	-0.04689305	1.707521e-05	1.352767e-05
	1.656045e-05	1.872509e-05	0.04943815	0.03051429	1.707521e-05	1.352767e-05	-0.004380975	-0.04664456
1.7e+08	-0.007482543	-0.04868314	3.962151e-05	1.322361e-05	0.05330579	0.02818652	1.856886e-05	1.974733e-05
	3.962151e-05	1.322361e-05	-0.007904548	-0.04821761	2.812122e-05	1.108632e-05	0.05353504	0.02870411
	0.05330579	0.02818652	2.812122e-05	1.108632e-05	-0.007036224	-0.04811507	1.822762e-05	1.428031e-05
	1.856886e-05	1.974733e-05	0.05353504	0.02870411	1.822762e-05	1.428031e-05	-0.00755562	-0.04784507
1.8e+08	-0.01065717	-0.0495629	4.178357e-05	1.43347e-05	0.05724036	0.02591215	2.077812e-05	2.063748e-05
	4.178357e-05	1.43347e-05	-0.01106634	-0.04907406	2.942846e-05	1.248515e-05	0.05745842	0.02643452
	0.05724036	0.02591215	2.942846e-05	1.248515e-05	-0.01016553	-0.04899116	1.979735e-05	1.51277e-05
	2.077812e-05	2.063748e-05	0.05745842	0.02643452	1.979735e-05	1.51277e-05	-0.01068788	-0.04869892
1.9e+08	-0.01374358	-0.05010598	4.415312e-05	1.523048e-05	0.06096025	0.02319932	2.318591e-05	2.138712e-05
	4.415312e-05	1.523048e-05	-0.0141403	-0.04959512	3.086392e-05	1.373757e-05	0.06116162	0.02372543
	0.06096025	0.02319932	3.086392e-05	1.373757e-05	-0.01320664	-0.04953826	2.148049e-05	1.584808e-05
	2.318591e-05	2.138712e-05	0.06116162	0.02372543	2.148049e-05	1.584808e-05	-0.01373092	-0.0492233
2e+08	-0.01669658	-0.05033553	4.673067e-05	1.589484e-05	0.06442153	0.02007158	2.579227e-05	2.197104e-05
	4.673067e-05	1.589484e-05	-0.01708111	-0.04980393	3.243163e-05	1.484511e-05	0.06460039	0.02060107
	0.06442153	0.02007158	3.243163e-05	1.484511e-05	-0.01611561	-0.04977885	2.327781e-05	1.643321e-05
	2.579227e-05	2.197104e-05	0.06460039	0.02060106	2.327781e-05	1.643321e-05	-0.01664054	-0.04944105
2.1e+08	-0.01947519	-0.05028013	4.951301e-05	1.630489e-05	0.06758292	0.01655666	2.859355e-05	2.236256e-05
	4.951301e-05	1.630489e-05	-0.01984767	-0.04972919	3.413768e-05	1.579589e-05	0.06773326	0.01708986
	0.06758292	0.01655666	3.413768e-05	1.579589e-05	-0.01885314	-0.04974146	2.518829e-05	1.687242e-05
	2.859355e-05	2.236256e-05	0.06773326	0.01708986	2.518829e-05	1.687242e-05	-0.01937726	-0.04938107
2.2e+08	-0.02204301	-0.04997443	5.249243e-05	1.643648e-05	0.07040627	0.01268592	3.158314e-05	2.253429e-05
	5.249243e-05	1.643648e-05	-0.02240358	-0.04940576	3.598271e-05	1.657978e-05	0.07052195	0.01322395
	0.07040627	0.01268592	3.598271e-05	1.657978e-05	-0.02138408	-0.04945947	2.720936e-05	1.715318e-05
	3.158314e-05	2.253429e-05	0.07052195	0.01322395	2.720936e-05	1.715318e-05	-0.02190588	-0.04907723
2.3e+08	-0.02436922	-0.04945734	5.565733e-05	1.626329e-05	0.07285714	0.008494169	3.475177e-05	2.245642e-05
	5.565733e-05	1.626329e-05	-0.0247181	-0.04887272	3.796601e-05	1.718117e-05	0.07293196	0.009038846
	0.07285714	0.008494169	3.796601e-05	1.718117e-05	-0.02367793	-0.04897081	2.933596e-05	1.726223e-05
	3.475177e-05	2.245642e-05	0.07293196	0.009038846	2.933596e-05	1.726223e-05	-0.02419594	-0.04856794
2.4e+08	-0.0264291	-0.0487715	5.899191e-05	1.575762e-05	0.07490452	0.00401927	3.808535e-05	2.210093e-05
	5.899191e-05	1.575762e-05	-0.02676664	-0.04817292	4.008329e-05	1.758488e-05	0.07493236	0.004573211
	0.07490452	0.004019269	4.008329e-05	1.758488e-05	-0.02571075	-0.04831758	3.156226e-05	1.718467e-05
	3.808535e-05	2.210093e-05	0.07493236	0.004573211	3.156226e-05	1.718467e-05	-0.02622367	-0.04789576
2.5e+08	-0.02820446	-0.04796262	6.247619e-05	1.489122e-05	0.07652129	-0.0006984293	4.15665e-05	2.14389e-05
	6.247619e-05	1.489122e-05	-0.02853126	-0.0473523	4.232797e-05	1.777273e-05	0.07649613	-0.000131837
	0.07652129	-0.0006984294	4.232797e-05	1.777273e-05	-0.02746427	-0.04754427	3.387939e-05	1.690627e-05
	4.15665e-05	2.14389e-05	0.07649613	-0.0001318372	3.387939e-05	1.690627e-05	-0.02797104	-0.04710568
2.6e+08	-0.02968359	-0.04707834	6.608559e-05	1.36359e-05	0.07768485	-0.005616284	4.517388e-05	2.044208e-05
	6.608559e-05	1.36359e-05	-0.03000051	-0.04645862	4.469082e-05	1.772636e-05	0.07760087	-0.005032904
	0.07768485	-0.005616284	4.469082e-05	1.772636e-05	-0.02892706	-0.04669811	3.62772e-05	1.641157e-05
	4.517388e-05	2.044208e-05	0.07760087	-0.005032905	3.62772e-05	1.641157e-05	-0.02942704	-0.04624536
2.7e+08	-0.03086139	-0.04616747	6.979178e-05	1.196325e-05	0.07837614	-0.01068984	4.888276e-05	1.908227e-05
	6.979178e-05	1.196325e-05	-0.03116971	-0.04554085	4.715964e-05	1.742577e-05	0.07822787	-0.01008476
	0.07837614	-0.01068984	4.715964e-05	1.742577e-05	-0.03009409	-0.04582721	3.874369e-05	1.568399e-05
	4.888276e-05	1.908227e-05	0.07822787	-0.01008476	3.874369e-05	1.568399e-05	-0.03058707	-0.04536328
2.8e+08	-0.0317402	-0.04527912	7.356102e-05	9.848124e-06	0.0785808	-0.01587326	5.266382e-05	1.733363e-05
	7.356102e-05	9.848124e-06	-0.03204158	-0.04464823	4.971976e-05	1.684983e-05	0.07836313	-0.01524089
	0.0785808	-0.01587326	4.971976e-05	1.684983e-05	-0.03096742	-0.04497973	4.126411e-05	1.470873e-05
	5.266382e-05	1.733363e-05	0.07836313	-0.01524089	4.126411e-05	1.470873e-05	-0.0314538	-0.04450795
2.9e+08	-0.03232868	-0.04446173	7.73555e-05	7.266448e-06	0.07828897	-0.02111968	5.64841e-05	1.517268e-05
	7.73555e-05	7.266448e-06	-0.03262527	-0.04382918	5.235287e-05	1.597906e-05	0.07799725	-0.02045369
	0.07828897	-0.02111968	5.235287e-05	1.597906e-05	-0.03155588	-0.04420401	4.382198e-05	1.347019e-05
	5.64841e-05	1.517268e-05	0.07799725	-0.02045369	4.382198e-05	1.347019e-05	-0.03203666	-0.04372792
3e+08	-0.03264233	-0.04376215	8.113374e-05	4.19454e-06	0.07749478	-0.02638145	6.030651e-05	1.25772e-05
	8.113374e-05	4.19454e-06	-0.0329368	-0.04313057	5.503779e-05	1.479504e-05	0.07712495	-0.02567486
	0.07749478	-0.02638145	5.503779e-05	1.479504e-05	-0.0318746	-0.04354643	4.639842e-05	1.19534e-05
	6.030651e-05	1.25772e-05	0.07712495	-0.02567486	4.639842e-05	1.19534e-05	-0.03235155	-0.04306973
3.1e+08	-0.03270287	-0.04322503	8.484924e-05	6.168151e-07	0.07619719	-0.03161085	6.409081e-05	9.528413e-06
	8.484924e-05	6.168151e-07	-0.03299845	-0.04259689	5.775047e-05	1.327665e-05	0.07574579	-0.03085612
	0.07619719	-0.03161085	5.775047e-05	1.327665e-05	-0.03194552	-0.04305162	4.897228e-05	1.01452e-05
	6.409081e-05	9.528413e-06	0.07574579	-0.03085612	4.897228e-05	1.01452e-05	-0.03242119	-0.04257801
3.2e+08	-0.03253839	-0.04289227	8.845234e-05	-3.483484e-06	0.0743996	-0.03676027	6.779269e-05	6.011794e-06
	8.845234e-05	-3.483484e-06	-0.03283888	-0.04226988	6.04634e-05	1.14087e-05	0.07386391	-0.03594924
	0.0743996	-0.03676027	6.04634e-05	1.14087e-05	-0.03179658	-0.04276027	5.152021e-05	8.031221e-06
	6.779269e-05	6.011794e-06	0.07386391	-0.03594925	5.152021e-05	8.031221e-06	-0.03227434	-0.04229339
3.3e+08	-0.03218238	-0.04280181	9.188938e-05	-8.115885e-06	0.07210957	-0.0417823	7.136505e-05	2.015032e-06
	9.188938e-05	-8.115885e-06	-0.03249223	-0.04218713	6.314641e-05	9.173263e-06	0.07148758	-0.0409064
	0.07210957	-0.0417823	6.314641e-05	9.173263e-06	-0.03146146	-0.04271046	5.401641e-05	5.601016e-06
	7.136505e-05	2.015032e-06	0.07148758	-0.0409064	5.401641e-05	5.601016e-06	-0.03194552	-0.04225367
3.4e+08	-0.03167398	-0.04298694	9.510358e-05	-1.328644e-05	0.06933927	-0.0466309	7.475787e-05	-2.465992e-06
	9.510358e-05	-1.328644e-05	-0.03199818	-0.04238157	6.576562e-05	6.556207e-06	0.06862989	-0.04568114
	0.06933927	-0.0466309	6.576562e-05	6.556207e-06	-0.03097876	-0.04293478	5.643273e-05	2.843556e-06
	7.475787e-05	-2.465992e-06	0.06862989	-0.04568114	5.643273e-05	2.843556e-06	-0.03147423	-0.0424911
3.5e+08	-0.03105669	-0.04347595	9.803664e-05	-1.899228e-05	0.06610496	-0.05126089	7.791855e-05	-7.436807e-06
	9.803664e-05	-1.899228e-05	-0.0314008	-0.04288098	6.828485e-05	3.547704e-06	0.06530797	-0.05022794
	0.06610496	-0.05126089	6.828485e-05	3.547704e-06	-0.03039238	-0.04346163	5.873885e-05	-2.492813e-07
	7.791855e-05	-7.436807e-06	0.06530797	-0.05022794	5.873885e-05	-2.492813e-07	-0.03090518	-0.04303355
3.6e+08	-0.03037827	-0.0442917	0.0001006255	-2.523052e-05	0.06242735	-0.05562885	8.07925e-05	-1.289229e-05
	0.0001006255	-2.523052e-05	-0.03074847	-0.04370758	7.066421e-05	1.354743e-07	0.06154346	-0.05450318
	0.06242735	-0.05562885	7.066421e-05	1.354743e-07	-0.02974978	-0.04431288	6.090221e-05	-3.681933e-06
	8.07925e-05	-1.289229e-05	0.06154346	-0.05450318	6.090221e-05	-3.681933e-06	-0.03028667	-0.04390223
3.7e+08	-0.02968951	-0.04545039	0.0001028101	-3.198465e-05	0.05833093	-0.05969377	8.332396e-05	-1.882247e-05
	0.0001028101	-3.198465e-05	-0.03009242	-0.04487685	7.286224e-05	-3.682457e-06	0.05736184	-0.05846571
	0.05833093	-0.05969377	7.286224e-05	-3.682457e-06	-0.0291016	-0.04550445	6.288758e-05	-7.460675e-06
	8.332396e-05	-1.882247e-05	0.05736184	-0.05846571	6.288758e-05	-7.460675e-06	-0.0296701	-0.04511223
3.8e+08	-0.029044	-0.04696203	0.0001045246	-3.923791e-05	0.05384386	-0.06341652	8.54567e-05	-2.521155e-05
	0.0001045246	-3.923791e-05	-0.02948669	-0.04639798	7.483395e-05	-7.91004e-06	0.05279229	-0.06207637
	0.05384386	-0.06341652	7.483395e-05	-7.91004e-06	-0.02850153	-0.04704619	6.465903e-05	-1.158317e-05
	8.54567e-05	-2.521155e-05	0.05279229	-0.06207637	6.465903e-05	-1.158317e-05	-0.02910987	-0.04667243
3.9e+08	-0.02849789	-0.04882918	0.0001057064	-4.696295e-05	0.0489985	-0.06676126	8.713239e-05	-3.204152e-05
	0.0001057064	-4.696295e-05	-0.02898781	-0.0482726	7.653228e-05	-1.254584e-05	0.0478682	-0.0652994
	0.0489985	-0.06676126	7.653228e-05	-1.254584e-05	-0.0280048	-0.04893962	6.617666e-05	-1.604976e-05
	8.713239e-05	-3.204152e-05	0.0478682	-0.0652994	6.617666e-05	-1.604976e-05	-0.02866175	-0.04858322
4e+08	-0.02810764	-0.05104731	0.0001062934	-5.512348e-05	0.04382996	-0.069695	8.829684e-05	-3.928051e-05
	0.0001062934	-5.512348e-05	-0.02865244	-0.0504951	7.790842e-05	-1.758164e-05	0.04262567	-0.06810204
	0.04382996	-0.069695	7.790842e-05	-1.758164e-05	-0.02766782	-0.05118055	6.740161e-05	-2.08507e-05
	8.829684e-05	-3.928051e-05	0.04262567	-0.06810204	6.740161e-05	-2.08507e-05	-0.02838266	-0.05083919
4.1e+08	-0.02792921	-0.05360481	0.0001062239	-6.368076e-05	0.03837665	-0.07218816	8.889208e-05	-4.68971e-05
	0.0001062239	-6.368076e-05	-0.02853674	-0.05305276	7.891145e-05	-2.300537e-05	0.03710421	-0.07045503
	0.03837665	-0.07218816	7.891145e-05	-2.300537e-05	-0.02754651	-0.05375663	6.8291e-05	-2.597861e-05
	8.889208e-05	-4.68971e-05	0.03710421	-0.07045503	6.8291e-05	-2.597861e-05	-0.0283288	-0.05342659
4.2e+08	-0.0280192	-0.05648164	0.0001054388	-7.258504e-05	0.03267974	-0.07421541	8.886779e-05	-5.48478e-05
	0.0001054388	-7.258504e-05	-0.02869723	-0.05592435	7.9492e-05	-2.880212e-05	0.03134593	-0.07233345
	0.03267974	-0.07421541	7.9492e-05	-2.880212e-05	-0.02769684	-0.05664745	6.880205e-05	-3.14176e-05
	8.886779e-05	-5.48478e-05	0.03134593	-0.07233345	6.880205e-05	-3.14176e-05	-0.02855629	-0.05632352
4.3e+08	-0.02843134	-0.05965091	0.0001038831	-8.178021e-05	0.02678239	-0.07575505	8.817348e-05	-6.308458e-05
	0.0001038831	-8.178021e-05	-0.02918753	-0.05908169	7.959547e-05	-3.494647e-05	0.02539496	-0.07371617
	0.02678239	-0.07575505	7.959547e-05	-3.494647e-05	-0.02817207	-0.05982616	6.88922e-05	-3.714857e-05
	8.817348e-05	-6.308458e-05	0.02539496	-0.07371617	6.88922e-05	-3.714857e-05	-0.02911832	-0.05950158
4.4e+08	-0.02921674	-0.06307874	0.0001015088	-9.120297e-05	0.02072999	-0.07678978	8.676053e-05	-7.15573e-05
	0.0001015088	-9.120297e-05	-0.03005843	-0.06248959	7.917094e-05	-4.14103e-05	0.01929761	-0.07458649
	0.02072999	-0.07678978	7.917094e-05	-4.14103e-05	-0.02902317	-0.06325822	6.851831e-05	-4.314554e-05
	8.676053e-05	-7.15573e-05	0.01929761	-0.07458649	6.851831e-05	-4.314554e-05	-0.03006561	-0.06292461
4.5e+08	-0.03042348	-0.06672311	9.826839e-05	-0.0001007841	0.01456932	-0.07730693	8.458874e-05	-8.020307e-05
	9.826839e-05	-0.0001007841	-0.03135744	-0.06610471	7.816952e-05	-4.815766e-05	0.01310146	-0.07493256
	0.01456932	-0.07730693	7.816952e-05	-4.815766e-05	-0.03029764	-0.06690165	6.763491e-05	-4.938158e-05
	8.458874e-05	-8.020307e-05	0.01310146	-0.07493256	6.763491e-05	-4.938158e-05	-0.03144515	-0.06654891
4.6e+08	-0.03209506	-0.07053579	9.412254e-05	-0.0001104472	0.008348165	-0.07729832	8.162113e-05	-8.895514e-05
	9.412254e-05	-0.0001104472	-0.0331274	-0.06987743	7.653805e-05	-5.514972e-05	0.006855062	-0.07474704
	0.008348165	-0.07729832	7.653805e-05	-5.514972e-05	-0.03203826	-0.07070852	6.620178e-05	-5.582036e-05
	8.162113e-05	-8.895514e-05	0.006855062	-0.07474704	6.620178e-05	-5.582036e-05	-0.033299	-0.0703249
4.7e+08	-0.03426816	-0.07446283	8.90374e-05	-0.0001201127	0.00211438	-0.07676066	7.782431e-05	-9.774714e-05
	8.90374e-05	-0.0001201127	-0.03540403	-0.07375257	7.423033e-05	-6.233411e-05	0.0006069518	-0.07402755
	0.00211438	-0.07676066	7.423033e-05	-6.233411e-05	-0.03428216	-0.07462412	6.417869e-05	-6.241824e-05
	7.782431e-05	-9.774714e-05	0.0006069518	-0.07402755	6.417869e-05	-6.241824e-05	-0.03566326	-0.0741962
4.8e+08	-0.03697526	-0.07844455	8.298995e-05	-0.0001296922	-0.004083603	-0.07569517	7.317694e-05	-0.0001064999
	8.298995e-05	-0.0001296922	-0.03821873	-0.07766915	7.120075e-05	-6.965756e-05	-0.005593898	-0.07277634
	-0.004083603	-0.07569517	7.120075e-05	-6.965756e-05	-0.03706021	-0.07858873	6.152631e-05	-6.913179e-05
	7.317694e-05	-0.0001064999	-0.005593898	-0.07277634	6.152631e-05	-6.913179e-05	-0.03856757	-0.07810154
