!$
! Info: Touchstone file created by Circ.  Input file=Intel_C2M_200G_1p5in_202208016_staggered.circ
!$
# Hz S RI R 50
0	0.01014274	1.76011e-24	0.9896553	-3.308855e-24	7.33736e-05	2.173176e-22	-0.000205525	2.516955e-20
	0.9896553	-3.307654e-24	0.01070092	3.836719e-24	-0.0002055802	2.517631e-20	0.0002997592	1.727552e-22
	7.343224e-05	2.174476e-22	-0.0002057187	2.519328e-20	0.01014065	1.674575e-24	0.9896556	-3.303167e-24
	-0.0002056635	2.518652e-20	0.0002998297	1.728701e-22	0.9896556	-3.304376e-24	0.01070234	3.873566e-24
1e+07	0.01232153	0.0003500526	0.9862865	-0.05139338	0.0007072765	0.003889689	-0.0005371673	-0.0005967034
	0.9862865	-0.05139338	0.01231754	0.0003550484	-0.0005371317	-0.0005967331	0.0007149504	0.003888997
	0.0007072765	0.003889689	-0.0005371317	-0.0005967331	0.01226213	0.0003809693	0.9863472	-0.05139981
	-0.0005371673	-0.0005967034	0.0007149504	0.003888997	0.9863472	-0.05139981	0.01225939	0.0003850256
2e+07	0.01397829	-0.001057014	0.9805567	-0.1008596	0.001394019	0.007469047	-0.0007013646	-0.0009568256
	0.9805567	-0.1008596	0.01413568	-0.0008860367	-0.000701231	-0.0009570013	0.001370643	0.007524979
	0.001394031	0.007469036	-0.0007012223	-0.0009571128	0.01393555	-0.0009723326	0.9806076	-0.1008972
	-0.0007013553	-0.0009569306	0.00137073	0.007524876	0.9806076	-0.1008972	0.01408861	-0.0008003326
3e+07	0.01520764	-0.003145099	0.9727737	-0.149226	0.002348474	0.01103111	-0.0008609244	-0.0012939
	0.9727737	-0.149226	0.01523254	-0.003109221	-0.0008607701	-0.001294109	0.00241563	0.01101903
	0.002348439	0.01103114	-0.0008608123	-0.001294112	0.01517265	-0.003016025	0.9728153	-0.1492823
	-0.0008609361	-0.001293907	0.002415608	0.011019	0.9728153	-0.1492823	0.01520769	-0.002983874
4e+07	0.01595555	-0.005629507	0.9628303	-0.196795	0.00365385	0.01444424	-0.00102684	-0.001613428
	0.9628303	-0.196795	0.01596386	-0.005552342	-0.001026629	-0.001613676	0.003763983	0.01441156
	0.003653839	0.01444426	-0.001026634	-0.001613673	0.0159344	-0.005460781	0.9628624	-0.1968668
	-0.001026843	-0.001613415	0.003763983	0.01441156	0.9628624	-0.1968668	0.01596084	-0.00539143
5e+07	0.0163106	-0.008279672	0.9507101	-0.2435777	0.005266787	0.01771176	-0.001201379	-0.001917027
	0.9507101	-0.2435777	0.01635932	-0.008195348	-0.001201095	-0.001917427	0.0054359	0.0176549
	0.005266787	0.01771177	-0.001201091	-0.001917427	0.01630476	-0.008074317	0.9507331	-0.2436634
	-0.001201375	-0.001917027	0.005435903	0.01765492	0.9507331	-0.2436634	0.016381	-0.008001986
6e+07	0.01632186	-0.01101762	0.9364324	-0.2895259	0.007178016	0.02081236	-0.001384444	-0.002210086
	0.9364324	-0.2895259	0.01640599	-0.01093629	-0.00138414	-0.002210675	0.007414711	0.02072112
	0.007178037	0.02081236	-0.001384138	-0.002210675	0.01633268	-0.01077744	0.9364461	-0.2896242
	-0.001384442	-0.002210085	0.00741471	0.02072112	0.9364461	-0.2896242	0.01645581	-0.01071369
7e+07	0.01600604	-0.01377928	0.9200285	-0.3345743	0.009371614	0.02372272	-0.001578187	-0.002497465
	0.9200285	-0.3345743	0.01612992	-0.01369325	-0.001577835	-0.002498331	0.009683591	0.02358604
	0.009371617	0.02372271	-0.001577775	-0.002498371	0.01603526	-0.01350594	0.9200313	-0.3346844
	-0.001578184	-0.002497466	0.00968359	0.02358604	0.9200313	-0.3346844	0.01621088	-0.01344515
8e+07	0.01538389	-0.01650211	0.901535	-0.37865	0.0118299	0.02642125	-0.001785587	-0.002782645
	0.901535	-0.37865	0.01555957	-0.01641308	-0.001785228	-0.002783864	0.01222342	0.02622664
	0.01182989	0.02642125	-0.00178523	-0.002783861	0.01543349	-0.01619706	0.9015276	-0.3787711
	-0.001785589	-0.002782643	0.01222342	0.02622664	0.9015276	-0.3787711	0.01567412	-0.01614375
9e+07	0.01448685	-0.01913031	0.8809932	-0.4216777	0.01453431	0.02888809	-0.002010411	-0.003068045
	0.8809932	-0.4216777	0.01471689	-0.01905155	-0.00201011	-0.003069667	0.01501397	0.02862217
	0.01453431	0.0288881	-0.002010112	-0.003069658	0.01455843	-0.01879546	0.880973	-0.4218084
	-0.002010415	-0.003068036	0.01501397	0.02862217	0.880973	-0.4218084	0.01486741	-0.01876493
1e+08	0.01336562	-0.02159658	0.8584344	-0.4636049	0.01746649	0.03110532	-0.002258483	-0.003356244
	0.8584344	-0.4636049	0.01363347	-0.02154153	-0.002258424	-0.003358263	0.01803572	0.03075458
	0.01746649	0.03110532	-0.002258424	-0.003358264	0.0134603	-0.02123463	0.8584022	-0.4637441
	-0.002258482	-0.003356244	0.01803572	0.03075458	0.8584022	-0.4637441	0.01382204	-0.02124228
1.1e+08	0.01211898	-0.02401959	0.833839	-0.5042232	0.02062351	0.03305703	-0.002538035	-0.003634937
	0.833839	-0.5042232	0.01244153	-0.02394054	-0.002538795	-0.003636765	0.02126402	0.03259636
	0.02062351	0.03305703	-0.002538794	-0.003636766	0.01229774	-0.02361605	0.8337968	-0.5043701
	-0.002538034	-0.003634938	0.02126402	0.03259636	0.8337968	-0.5043701	0.01266774	-0.02361645
1.2e+08	0.01060673	-0.02630199	0.8074054	-0.5434582	0.02393732	0.03471065	-0.002836979	-0.003913183
	0.8074054	-0.5434582	0.01100743	-0.02624169	-0.0028378	-0.003914901	0.02466409	0.03413526
	0.02393733	0.03471064	-0.0028378	-0.003914902	0.0108263	-0.02589734	0.8073508	-0.5436144
	-0.002836979	-0.003913184	0.02466409	0.03413526	0.8073508	-0.5436144	0.01127902	-0.02590761
1.3e+08	0.008893245	-0.02838978	0.7791913	-0.5812659	0.02739479	0.03606254	-0.003164231	-0.004191184
	0.7791913	-0.5812659	0.009371803	-0.02837713	-0.003164899	-0.004193486	0.02821071	0.03536125
	0.02739479	0.03606253	-0.003164899	-0.004193487	0.009127934	-0.02798236	0.7791239	-0.5814322
	-0.003164231	-0.004191185	0.02821071	0.03536125	0.7791239	-0.5814322	0.009688773	-0.02804381
1.4e+08	0.007019636	-0.03026194	0.7492685	-0.6175786	0.0309745	0.03710628	-0.00352533	-0.004467195
	0.7492685	-0.6175786	0.007569715	-0.03031413	-0.003526347	-0.004470212	0.03187646	0.03626501
	0.0309745	0.03710628	-0.003526347	-0.004470213	0.007262709	-0.02984168	0.7491856	-0.6177526
	-0.00352533	-0.004467196	0.03187646	0.03626501	0.7491856	-0.6177526	0.007929585	-0.0299883
1.5e+08	0.005021244	-0.03190329	0.7177115	-0.6523283	0.03465221	0.03783516	-0.003925072	-0.004737946
	0.7177115	-0.6523283	0.005636632	-0.03203115	-0.003926725	-0.004741806	0.03563361	0.03683913
	0.03465221	0.03783516	-0.003926725	-0.004741807	0.005274842	-0.03146326	0.7176127	-0.6525084
	-0.003925072	-0.004737947	0.03563361	0.03683913	0.7176127	-0.6525084	0.006036838	-0.03171714
1.6e+08	0.002931426	-0.03330249	0.6845984	-0.6854459	0.0384023	0.03824369	-0.004367414	-0.004999235
	0.6845984	-0.6854459	0.003607976	-0.03351417	-0.004370042	-0.00500381	0.0394541	0.03707872
	0.0384023	0.03824369	-0.004370042	-0.00500381	0.00320115	-0.03283962	0.6844824	-0.6856321
	-0.004367414	-0.004999235	0.0394541	0.03707872	0.6844824	-0.6856321	0.004046288	-0.033215
1.7e+08	0.0007834767	-0.0344513	0.6500104	-0.716869	0.04219855	0.03832788	-0.004855554	-0.005246073
	0.6500104	-0.716869	0.00151865	-0.03475511	-0.004859478	-0.005251041	0.04330951	0.03698068
	0.04219855	0.03832787	-0.004859478	-0.005251042	0.001075097	-0.03396584	0.6498763	-0.7170603
	-0.004855554	-0.005246073	0.04330951	0.03698068	0.6498763	-0.7170603	0.001993639	-0.03447337
1.8e+08	-0.0013894	-0.03534537	0.6140319	-0.7465378	0.04601442	0.03808561	-0.005391922	-0.005472784
	0.6140319	-0.7465378	-0.0005968629	-0.0357505	-0.005397298	-0.005477876	0.04717171	0.03654437
	0.04601442	0.03808561	-0.005397298	-0.005477876	-0.001070935	-0.03483972	0.6138785	-0.7467329
	-0.005391922	-0.005472785	0.04717171	0.03654437	0.6138785	-0.7467329	-8.673834e-05	-0.03548885
1.9e+08	-0.003553461	-0.03598394	0.5767499	-0.7743945	0.04982344	0.03751722	-0.005978258	-0.005672803
	0.5767499	-0.7743945	-0.002705521	-0.03650154	-0.00598517	-0.00567773	0.0510127	0.03577176
	0.04982344	0.03751722	-0.00598517	-0.005677731	-0.003204627	-0.03546192	0.5765783	-0.7745926
	-0.005978258	-0.005672803	0.0510127	0.03577176	0.5765783	-0.7745926	-0.002161304	-0.03626283
2e+08	-0.005675408	-0.03637062	0.5382536	-0.8003859	0.0535994	0.03662498	-0.006615294	-0.005839141
	0.5382536	-0.8003859	-0.004774598	-0.03701328	-0.006623703	-0.005843801	0.05480461	0.03466648
	0.0535994	0.03662498	-0.006623703	-0.005843802	-0.005293624	-0.03583606	0.538061	-0.8005856
	-0.006615294	-0.005839141	0.05480461	0.03466648	0.538061	-0.8005856	-0.004198136	-0.03680025
2.1e+08	-0.007723019	-0.03651262	0.4986341	-0.824465	0.05731647	0.03541326	-0.007302795	-0.005964752
	0.4986341	-0.824465	-0.006773732	-0.03729438	-0.007312799	-0.005968708	0.05852085	0.03323497
	0.05731647	0.03541326	-0.007312799	-0.005968708	-0.00730681	-0.03597001	0.4984205	-0.8246642
	-0.007302795	-0.005964752	0.05852085	0.03323497	0.4984205	-0.8246642	-0.006166318	-0.03711013
2.2e+08	-0.009664751	-0.03642153	0.4579835	-0.8465868	0.06094945	0.03388833	-0.008039513	-0.006041724
	0.4579835	-0.8465868	-0.00867314	-0.03735708	-0.008051029	-0.006044878	0.06213516	0.03148549
	0.06094945	0.03388833	-0.008051029	-0.006044878	-0.00921386	-0.035875	0.4577484	-0.8467842
	-0.008039513	-0.006041724	0.06213516	0.03148549	0.4577484	-0.8467842	-0.008037181	-0.03720447
2.3e+08	-0.01147095	-0.03611235	0.4163971	-0.8667092	0.06447417	0.0320585	-0.008822871	-0.006062764
	0.4163971	-0.8667092	-0.01044541	-0.03721692	-0.008836025	-0.006064701	0.06562221	0.02942819
	0.06447417	0.0320585	-0.008836025	-0.006064701	-0.01098541	-0.03556546	0.416139	-0.866904
	-0.008822871	-0.006062764	0.06562221	0.02942819	0.416139	-0.866904	-0.009783463	-0.03709862
2.4e+08	-0.01311406	-0.03560342	0.3739697	-0.8847987	0.06786711	0.02993387	-0.009649645	-0.006019861
	0.3739697	-0.8847987	-0.01206525	-0.03689234	-0.00966428	-0.006020514	0.06895825	0.02707551
	0.06786711	0.02993387	-0.00966428	-0.006020514	-0.01259454	-0.03505994	0.3736893	-0.8849895
	-0.009649645	-0.006019861	0.06895825	0.02707551	0.3736893	-0.8849895	-0.01138023	-0.03681088
2.5e+08	-0.01456903	-0.03491651	0.3308	-0.9008239	0.07110584	0.02752607	-0.01051517	-0.00590564
	0.3308	-0.9008239	-0.01350946	-0.03640484	-0.01053114	-0.005904747	0.07212048	0.02444138
	0.07110584	0.02752607	-0.01053114	-0.005904747	-0.01401632	-0.03437937	0.3304951	-0.9010078
	-0.01051517	-0.00590564	0.07212048	0.02444138	0.3304951	-0.9010078	-0.01280448	-0.03636218
2.6e+08	-0.01581329	-0.03407589	0.2869839	-0.9147574	0.07416945	0.02484859	-0.01141384	-0.005713309
	0.2869839	-0.9147574	-0.01475789	-0.03577798	-0.0114311	-0.005710357	0.07508755	0.0215413
	0.07416945	0.02484859	-0.0114311	-0.005710357	-0.01522842	-0.03354825	0.2866559	-0.9149317
	-0.01141384	-0.00571331	0.07508755	0.0215413	0.2866559	-0.9149317	-0.01403635	-0.0357762
2.7e+08	-0.0168271	-0.03310838	0.2426199	-0.9265752	0.07703771	0.02191612	-0.01233899	-0.005436209
	0.2426199	-0.9265752	-0.01579269	-0.03503801	-0.01235729	-0.005431176	0.07783964	0.01839255
	0.07703771	0.02191612	-0.01235729	-0.005431176	-0.01621119	-0.03259304	0.2422682	-0.9267394
	-0.01233899	-0.005436209	0.07783964	0.01839255	0.2422682	-0.9267394	-0.0150582	-0.03507839
2.8e+08	-0.01759421	-0.03204318	0.197807	-0.93626	0.07969209	0.0187447	-0.01328287	-0.005068633
	0.197807	-0.93626	-0.01659931	-0.03421303	-0.01330206	-0.005061021	0.08035864	0.01501343
	0.07969209	0.0187447	-0.01330206	-0.005061021	-0.01694855	-0.03154245	0.1974317	-0.9364122
	-0.01328287	-0.005068633	0.08035864	0.01501343	0.1974317	-0.9364122	-0.01585557	-0.03429629
2.9e+08	-0.01810141	-0.03091094	0.1526452	-0.943798	0.08211554	0.01535173	-0.01423699	-0.004605016
	0.1526452	-0.943798	-0.0171668	-0.03333243	-0.01425688	-0.004594833	0.08262791	0.01142378
	0.08211554	0.01535173	-0.01425688	-0.004594833	-0.01742726	-0.03042748	0.1522467	-0.9439361
	-0.01423699	-0.004605016	0.08262791	0.01142378	0.1522467	-0.9439361	-0.01641742	-0.03345917
3e+08	-0.01833906	-0.02974382	0.1072335	-0.9491782	0.08429204	0.01175558	-0.01519203	-0.004041552
	0.1072335	-0.9491782	-0.0174869	-0.03242713	-0.01521238	-0.004028587	0.08463243	0.007643921
	0.08429204	0.01175558	-0.01521238	-0.004028587	-0.01763761	-0.02928002	0.1068115	-0.9492995
	-0.01519203	-0.004041552	0.08463243	0.007643921	0.1068115	-0.9492995	-0.01673541	-0.03259739
3.1e+08	-0.01830094	-0.02857485	0.06167026	-0.9523962	0.08620751	0.007975589	-0.01613804	-0.003375093
	0.06167026	-0.9523962	-0.01755503	-0.03152875	-0.01615835	-0.003358888	0.0863594	0.00369581
	0.08620751	0.007975589	-0.01615835	-0.003358888	-0.01757343	-0.02813361	0.06122686	-0.9524969
	-0.01613804	-0.003375093	0.0863594	0.00369581	0.06122686	-0.9524969	-0.01680515	-0.03174246
3.2e+08	-0.01798446	-0.02743827	0.01605715	-0.953449	0.08784939	0.004031993	-0.01706446	-0.002603515
	0.01605715	-0.953449	-0.01737029	-0.0306698	-0.01708443	-0.002583883	0.08779761	-0.0003984114
	0.08784939	0.004031993	-0.01708443	-0.002583883	-0.01723268	-0.02702173	0.01559075	-0.9535291
	-0.01706446	-0.002603515	0.08779761	-0.0003984114	0.01559075	-0.9535291	-0.01662549	-0.03092611
3.3e+08	-0.01739058	-0.02636823	-0.02950892	-0.9523387	0.0892063	-5.41664e-05	-0.01796023	-0.001725562
	-0.02950892	-0.9523387	-0.01693502	-0.02988271	-0.01797958	-0.001702962	0.08893726	-0.004615833
	0.0892063	-5.416645e-05	-0.01797958	-0.001702962	-0.01661634	-0.02597917	-0.02999559	-0.9523957
	-0.01796023	-0.001725562	0.08893726	-0.004615833	-0.02999559	-0.9523957	-0.0161986	-0.03018068
3.4e+08	-0.01652427	-0.02539908	-0.07492601	-0.9490721	0.09026906	-0.0042614	-0.01881416	-0.0007421335
	-0.07492601	-0.9490721	-0.01625541	-0.02919992	-0.01883233	-0.0007159423	0.08977113	-0.008932802
	0.09026906	-0.0042614	-0.01883233	-0.0007159423	-0.01572949	-0.02503971	-0.0754346	-0.9491053
	-0.01881416	-0.0007421335	0.08977113	-0.008932802	-0.0754346	-0.9491053	-0.01553053	-0.0295379
3.5e+08	-0.01539395	-0.0245646	-0.1200986	-0.9436608	0.09102958	-0.008567547	-0.01961489	0.0003454934
	-0.1200986	-0.9436608	-0.01534106	-0.02865297	-0.01963138	0.0003753146	0.09029337	-0.01332588
	0.09102958	-0.008567547	-0.01963138	0.0003753146	-0.01458072	-0.02423781	-0.1206245	-0.9436658
	-0.01961489	0.0003454934	0.09029337	-0.01332588	-0.1206245	-0.9436658	-0.01463064	-0.02902995
3.6e+08	-0.01401158	-0.02389826	-0.1649261	-0.9361189	0.0914818	-0.01294995	-0.02035102	0.00153448
	-0.1649261	-0.9361189	-0.01420515	-0.02827333	-0.02036558	0.001567636	0.09050014	-0.01777096
	0.0914818	-0.01294995	-0.02036558	0.001567636	-0.01318248	-0.02360634	-0.1654686	-0.9360941
	-0.02035102	0.00153448	0.09050014	-0.01777096	-0.1654686	-0.9360941	-0.01351178	-0.028687
3.7e+08	-0.01239268	-0.0234318	-0.209312	-0.9264642	0.09162135	-0.01738601	-0.02101157	0.002820384
	-0.209312	-0.9264642	-0.01286406	-0.02809058	-0.0210236	0.002857077	0.09038951	-0.0222441
	0.09162135	-0.01738601	-0.0210236	0.002857077	-0.0115505	-0.02317706	-0.2098705	-0.9264089
	-0.02101157	0.002820384	0.09038951	-0.0222441	-0.2098705	-0.9264089	-0.01219014	-0.02853885
3.8e+08	-0.01055604	-0.02319604	-0.2531605	-0.9147202	0.09144511	-0.02185276	-0.02158544	0.004198516
	-0.2531605	-0.9147202	-0.01133738	-0.02813277	-0.02159472	0.004237943	0.08996115	-0.02672146
	0.09144511	-0.02185276	-0.02159472	0.004237943	-0.009703826	-0.0229811	-0.2537314	-0.9146307
	-0.02158544	0.004198516	0.08996115	-0.02672146	-0.2537314	-0.9146307	-0.01068501	-0.02861384
3.9e+08	-0.008524593	-0.02322031	-0.2963731	-0.9009133	0.09095231	-0.02632702	-0.02206279	0.005661288
	-0.2963731	-0.9009133	-0.009648477	-0.02842685	-0.0220684	0.005704135	0.08921702	-0.03117942
	0.09095231	-0.02632702	-0.0220684	0.005704135	-0.00766561	-0.02304659	-0.2969553	-0.9007909
	-0.02206279	0.005661288	0.08921702	-0.03117942	-0.2969553	-0.9007909	-0.009019526	-0.02893758
4e+08	-0.006323772	-0.02353142	-0.3388534	-0.8850766	0.09014336	-0.03078602	-0.02243352	0.007201498
	-0.3388534	-0.8850766	-0.007823378	-0.0289968	-0.02243537	0.007247061	0.08816046	-0.03559463
	0.09014336	-0.03078602	-0.02243537	0.007247061	-0.005461174	-0.02340093	-0.3394452	-0.8849172
	-0.02243352	0.007201498	0.08816046	-0.03559463	-0.3394452	-0.8849172	-0.007218997	-0.02953502
4.1e+08	-0.003981332	-0.02415369	-0.3805107	-0.8672421	0.08902044	-0.03520681	-0.02268873	0.008810371
	-0.3805107	-0.8672421	-0.005890223	-0.02986448	-0.02268636	0.008858145	0.08679666	-0.03994409
	0.08902044	-0.03520681	-0.02268636	0.008858145	-0.003118938	-0.02406815	-0.3811105	-0.8670451
	-0.02268873	0.008810371	0.08679666	-0.03994409	-0.3811105	-0.8670451	-0.005311593	-0.03042741
4.2e+08	-0.001529391	-0.02510926	-0.4212492	-0.8474521	0.08758771	-0.03956702	-0.02282078	0.0104775
	-0.4212492	-0.8474521	-0.003880814	-0.03104886	-0.02281354	0.01052736	0.08513269	-0.04420599
	0.08758771	-0.03956702	-0.02281354	0.01052736	-0.0006711307	-0.02506992	-0.421853	-0.8472167
	-0.02282078	0.0104775	0.08513269	-0.04420599	-0.421853	-0.8472167	-0.003328667	-0.03163386
4.3e+08	0.0009986269	-0.02641694	-0.4609787	-0.8257489	0.08585048	-0.0438447	-0.02282221	0.01219267
	-0.4609787	-0.8257489	-0.001828321	-0.03256596	-0.02281008	0.01224404	0.08317704	-0.04835854
	0.08585048	-0.0438447	-0.02281008	0.01224404	0.001848966	-0.02642489	-0.461585	-0.8254739
	-0.02282221	0.01219267	0.08317704	-0.04835854	-0.461585	-0.8254739	-0.001303319	-0.03317037
4.4e+08	0.003567254	-0.02809254	-0.4996101	-0.8021803	0.08381594	-0.04801819	-0.0226873	0.01394414
	-0.4996101	-0.8021803	0.0002317777	-0.03442848	-0.02266963	0.01399665	0.08093967	-0.05238133
	0.08381594	-0.04801819	-0.02266963	0.01399665	0.004405243	-0.02814858	-0.5002154	-0.801865
	-0.0226873	0.01394414	0.08093967	-0.05238133	-0.5002154	-0.801865	0.0007296458	-0.0350497
4.5e+08	0.006137938	-0.03014826	-0.5370526	-0.7767995	0.08149297	-0.05206668	-0.02241137	0.01571971
	-0.5370526	-0.7767995	0.002261855	-0.03664572	-0.0223879	0.01577291	0.07843253	-0.05625459
	0.08149297	-0.05206668	-0.0223879	0.01577291	0.006959222	-0.03025295	-0.5376545	-0.7764434
	-0.02241137	0.01571971	0.07843253	-0.05625459	-0.5376545	-0.7764434	0.002732887	-0.03728118
4.6e+08	0.008670749	-0.032593	-0.5732192	-0.7496635	0.07889177	-0.05596994	-0.02199055	0.01750701
	-0.5732192	-0.7496635	0.004223192	-0.03922351	-0.02196137	0.01756013	0.07566868	-0.05996009
	0.07889177	-0.05596994	-0.02196137	0.01756013	0.009471478	-0.03274659	-0.5738158	-0.7492649
	-0.02199055	0.01750701	0.07566868	-0.05996009	-0.5738158	-0.7492649	0.004667995	-0.03987079
4.7e+08	0.01112591	-0.03543087	-0.6080305	-0.7208337	0.07602402	-0.05970909	-0.02142324	0.01929257
	-0.6080305	-0.7208337	0.006076541	-0.04216292	-0.02138791	0.01934519	0.07266242	-0.06348038
	0.07602402	-0.05970909	-0.02138791	0.01934519	0.01190098	-0.03563369	-0.6086166	-0.7203919
	-0.02142324	0.01929257	0.07266242	-0.06348038	-0.6086166	-0.7203919	0.006495871	-0.04282007
4.8e+08	0.0134612	-0.03866366	-0.6414008	-0.690372	0.07290288	-0.06326565	-0.02070803	0.02106378
	-0.6414008	-0.690372	0.007781527	-0.04546264	-0.02066678	0.02111488	0.06942942	-0.06679954
	0.07290288	-0.06326565	-0.02066678	0.02111488	0.01420623	-0.03891473	-0.6419757	-0.6898897
	-0.02070803	0.02106378	0.06942942	-0.06679954	-0.6419757	-0.6898897	0.008176628	-0.04612707
4.9e+08	0.01563367	-0.0422875	-0.67325	-0.6583531	0.06954286	-0.06662302	-0.01984609	0.02280685
	-0.67325	-0.6583531	0.009297083	-0.04911557	-0.01979851	0.02285613	0.06598652	-0.06990314
	0.06954286	-0.06662302	-0.01979851	0.02285613	0.0163443	-0.04258636	-0.6738121	-0.6578274
	-0.01984609	0.02280685	0.06598652	-0.06990314	-0.6738121	-0.6578274	0.009669512	-0.04978593
5e+08	0.0176021	-0.04629476	-0.7035078	-0.6248477	0.06595931	-0.06976525	-0.01883842	0.02450904
	-0.7035078	-0.6248477	0.01058347	-0.0531117	-0.01878504	0.02455565	0.06235126	-0.07277812
	0.06595931	-0.06976525	-0.01878504	0.02455565	0.01827315	-0.04664041	-0.7040508	-0.6242808
	-0.01883842	0.02450904	0.06235126	-0.07277812	-0.7040508	-0.6242808	0.01093444	-0.05378636
5.1e+08	0.01932326	-0.05067428	-0.7320965	-0.589934	0.06216936	-0.07267753	-0.01768905	0.02615715
	-0.7320965	-0.589934	0.01160024	-0.05743666	-0.01762988	0.02620039	0.05854219	-0.07541309
	0.06216936	-0.07267753	-0.01762988	0.02620039	0.01995062	-0.05106511	-0.7326202	-0.5893269
	-0.01768905	0.02615715	0.05854219	-0.07541309	-0.7326202	-0.5893269	0.01193191	-0.05811413
