!$
! Info: Touchstone file created by Circ.  Input file=Intel_C2M_200G_1p5in_202208016_staggered.circ
!$
# Hz S RI R 50
0	0.0101294	1.561834e-24	2.982925e-05	2.432656e-23	7.376359e-05	2.181097e-22	2.976166e-05	2.425546e-23
	2.982925e-05	2.432656e-23	0.01014274	1.76011e-24	2.981121e-05	2.431873e-23	7.33736e-05	2.173176e-22
	7.382223e-05	2.182388e-22	2.981121e-05	2.431949e-23	0.01012415	1.519449e-24	2.977441e-05	2.424912e-23
	2.976165e-05	2.425622e-23	7.343224e-05	2.174476e-22	2.977441e-05	2.424912e-23	0.01014065	1.674575e-24
1e+07	0.01240795	0.0004477894	5.884998e-06	4.813916e-06	0.0005959691	0.003819084	8.324217e-07	8.913103e-06
	5.884998e-06	4.813916e-06	0.01232153	0.0003500526	1.864111e-05	5.366366e-06	0.0007072765	0.003889689
	0.0005959691	0.003819084	1.864111e-05	5.366366e-06	0.01253487	0.0004773431	7.433471e-06	1.075273e-05
	8.324217e-07	8.913103e-06	0.0007072765	0.003889689	7.433471e-06	1.075273e-05	0.01226213	0.0003809693
2e+07	0.01413711	-0.0009350029	2.017603e-06	1.182857e-05	0.001288688	0.007371833	1.312603e-06	4.677167e-06
	2.017603e-06	1.182857e-05	0.01397829	-0.001057014	1.228135e-05	1.305807e-05	0.001394019	0.007469047
	0.001288701	0.007371821	1.228135e-05	1.305807e-05	0.01422477	-0.000916834	5.259437e-06	1.049605e-05
	1.312605e-06	4.677166e-06	0.001394031	0.007469036	5.259438e-06	1.049605e-05	0.01393555	-0.0009723326
3e+07	0.01542379	-0.003024596	7.501429e-06	1.595222e-05	0.002244141	0.01088903	1.903084e-06	4.615874e-06
	7.50143e-06	1.595222e-05	0.01520764	-0.003145099	8.051373e-06	1.929237e-05	0.002348474	0.01103111
	0.002244106	0.01088906	8.051365e-06	1.929237e-05	0.01547617	-0.00297147	3.849224e-06	1.189273e-05
	1.903084e-06	4.615874e-06	0.002348439	0.01103114	3.849224e-06	1.189273e-05	0.01517265	-0.003016025
4e+07	0.0162211	-0.005522926	1.216246e-05	1.803239e-05	0.003546856	0.01425449	2.492659e-06	5.581148e-06
	1.216246e-05	1.803239e-05	0.01595555	-0.005629507	4.861369e-06	2.350746e-05	0.00365385	0.01444424
	0.003546845	0.01425451	4.861369e-06	2.350746e-05	0.01625197	-0.00542442	2.807087e-06	1.337558e-05
	2.492659e-06	5.581148e-06	0.003653839	0.01444426	2.807087e-06	1.337558e-05	0.0159344	-0.005460781
5e+07	0.01661952	-0.008196039	1.617141e-05	1.891641e-05	0.005153876	0.01747388	3.143258e-06	7.095146e-06
	1.617141e-05	1.891641e-05	0.0163106	-0.008279672	1.020874e-05	2.469766e-05	0.005266787	0.01771176
	0.005153876	0.01747389	1.020874e-05	2.469766e-05	0.01663638	-0.008046584	4.715141e-06	1.404859e-05
	3.143258e-06	7.095146e-06	0.005266787	0.01771177	4.715141e-06	1.404859e-05	0.01630476	-0.008074317
6e+07	0.01666874	-0.0109643	1.961901e-05	1.90248e-05	0.007056204	0.02052701	3.732032e-06	8.437075e-06
	1.961901e-05	1.90248e-05	0.01632186	-0.01101762	1.485026e-05	2.483371e-05	0.007178016	0.02081236
	0.007056226	0.02052701	1.485026e-05	2.483371e-05	0.01667826	-0.01075978	6.528664e-06	1.445525e-05
	3.732032e-06	8.437075e-06	0.007178037	0.02081236	6.528664e-06	1.445525e-05	0.01633268	-0.01077744
7e+07	0.01638551	-0.01376277	2.253598e-05	1.854072e-05	0.009238179	0.02339129	4.270179e-06	9.680703e-06
	2.253598e-05	1.854072e-05	0.01600604	-0.01377928	1.882062e-05	2.413284e-05	0.009371614	0.02372272
	0.009238182	0.02339128	1.882062e-05	2.413284e-05	0.0163944	-0.01350038	8.116206e-06	1.464957e-05
	4.27018e-06	9.680703e-06	0.009371617	0.02372271	8.116207e-06	1.464957e-05	0.01603526	-0.01350594
8e+07	0.01579012	-0.01652868	2.492373e-05	1.755124e-05	0.01168239	0.0260457	4.767603e-06	1.086285e-05
	2.492373e-05	1.755124e-05	0.01538389	-0.01650211	2.211532e-05	2.269627e-05	0.0118299	0.02642125
	0.01168239	0.0260457	2.211532e-05	2.269627e-05	0.01580528	-0.01620612	9.480739e-06	1.464219e-05
	4.767603e-06	1.086285e-05	0.01182989	0.02642125	9.480739e-06	1.464219e-05	0.01543349	-0.01619706
9e+07	0.0149128	-0.01920692	2.671806e-05	1.605882e-05	0.01437056	0.02847084	5.215438e-06	1.200906e-05
	2.671806e-05	1.605882e-05	0.01448685	-0.01913031	2.464962e-05	2.055435e-05	0.01453431	0.02888809
	0.01437055	0.02847085	2.464962e-05	2.055435e-05	0.01494114	-0.0188223	1.058621e-05	1.442704e-05
	5.215437e-06	1.200906e-05	0.01453431	0.0288881	1.058621e-05	1.442704e-05	0.01455843	-0.01879546
1e+08	0.01379899	-0.02173702	2.754771e-05	1.359376e-05	0.01728425	0.03064908	5.562784e-06	1.308955e-05
	2.754771e-05	1.359376e-05	0.01336562	-0.02159658	2.597681e-05	1.714433e-05	0.01746649	0.03110532
	0.01728425	0.03064908	2.597681e-05	1.714433e-05	0.0138494	-0.02128566	1.126525e-05	1.380025e-05
	5.562784e-06	1.308955e-05	0.01746649	0.03110532	1.126525e-05	1.380025e-05	0.0134603	-0.02123463
1.1e+08	0.01252828	-0.02420529	2.594029e-05	1.270778e-05	0.02042124	0.03256669	5.743718e-06	1.450915e-05
	2.594029e-05	1.270778e-05	0.01211898	-0.02401959	2.4304e-05	1.553175e-05	0.02062351	0.03305703
	0.02042124	0.03256669	2.4304e-05	1.553175e-05	0.01268112	-0.02368301	1.091196e-05	1.388694e-05
	5.743718e-06	1.450915e-05	0.02062351	0.03305703	1.091196e-05	1.388694e-05	0.01229774	-0.02361605
1.2e+08	0.01099889	-0.02651869	2.492146e-05	1.300567e-05	0.02371559	0.03419	6.244253e-06	1.630416e-05
	2.492146e-05	1.300567e-05	0.01060673	-0.02630199	2.321265e-05	1.528704e-05	0.02393732	0.03471065
	0.02371559	0.03419	2.321265e-05	1.528704e-05	0.01120868	-0.02597504	1.082268e-05	1.448528e-05
	6.244253e-06	1.630416e-05	0.02393733	0.03471064	1.082268e-05	1.448528e-05	0.0108263	-0.02589734
1.3e+08	0.009271036	-0.02863231	2.475669e-05	1.458799e-05	0.02715417	0.03551516	6.863e-06	1.809395e-05
	2.475669e-05	1.458799e-05	0.008893245	-0.02838978	2.237008e-05	1.55851e-05	0.02739479	0.03606254
	0.02715417	0.03551515	2.237008e-05	1.55851e-05	0.009511519	-0.02806981	1.086289e-05	1.530594e-05
	6.863e-06	1.809395e-05	0.02739479	0.03606253	1.086289e-05	1.530594e-05	0.009127934	-0.02798236
1.4e+08	0.007384846	-0.0305273	2.551857e-05	1.723466e-05	0.03071596	0.0365357	7.615039e-06	1.988978e-05
	2.551857e-05	1.723466e-05	0.007019636	-0.03026194	2.172295e-05	1.623695e-05	0.0309745	0.03710628
	0.03071596	0.0365357	2.172295e-05	1.623695e-05	0.007648931	-0.02993889	1.101279e-05	1.628275e-05
	7.615039e-06	1.988978e-05	0.0309745	0.03710628	1.101279e-05	1.628275e-05	0.007262709	-0.02984168
1.5e+08	0.00537514	-0.03218952	2.640781e-05	1.977991e-05	0.03437709	0.03724485	8.489432e-06	2.171843e-05
	2.640781e-05	1.977991e-05	0.005021244	-0.03190329	2.123158e-05	1.717611e-05	0.03465221	0.03783516
	0.03437709	0.03724485	2.123158e-05	1.717611e-05	0.005664582	-0.03157073	1.127167e-05	1.738099e-05
	8.489432e-06	2.171843e-05	0.03465221	0.03783516	1.127167e-05	1.738099e-05	0.005274842	-0.03146326
1.6e+08	0.003274855	-0.03360825	2.744609e-05	2.225832e-05	0.03811237	0.03763701	9.500221e-06	2.357761e-05
	2.744609e-05	2.225832e-05	0.002931426	-0.03330249	2.089416e-05	1.834852e-05	0.0384023	0.03824369
	0.03811237	0.03763701	2.089416e-05	1.834852e-05	0.003594817	-0.03295813	1.164301e-05	1.857793e-05
	9.500222e-06	2.357761e-05	0.0384023	0.03824369	1.164301e-05	1.857793e-05	0.00320115	-0.03283962
1.7e+08	0.001116935	-0.03477563	2.866444e-05	2.466603e-05	0.04189598	0.03770806	1.066299e-05	2.54563e-05
	2.866444e-05	2.466603e-05	0.0007834767	-0.0344513	2.124392e-05	2.018648e-05	0.04219855	0.03832788
	0.04189598	0.03770806	2.124392e-05	2.018648e-05	0.001472688	-0.03409624	1.230457e-05	1.99809e-05
	1.066299e-05	2.54563e-05	0.04219855	0.03832787	1.230457e-05	1.99809e-05	0.001075097	-0.03396584
1.8e+08	-0.001065716	-0.03568749	3.007114e-05	2.701574e-05	0.04570179	0.03745572	1.199042e-05	2.734486e-05
	3.007114e-05	2.701574e-05	-0.0013894	-0.03534537	2.20653e-05	2.234194e-05	0.04601442	0.03808561
	0.04570179	0.03745572	2.20653e-05	2.234194e-05	-0.0006698511	-0.03498291	1.329479e-05	2.157356e-05
	1.199042e-05	2.734486e-05	0.04601442	0.03808561	1.329479e-05	2.157356e-05	-0.001070935	-0.03483972
1.9e+08	-0.003239624	-0.03634314	3.166936e-05	2.932352e-05	0.04950368	0.03688007	1.34886e-05	2.924318e-05
	3.166936e-05	2.932352e-05	-0.003553461	-0.03598394	2.299577e-05	2.446539e-05	0.04982344	0.03751722
	0.04950368	0.03688007	2.299577e-05	2.446539e-05	-0.002800849	-0.0356187	1.438629e-05	2.314744e-05
	1.34886e-05	2.924318e-05	0.04982344	0.03751722	1.438629e-05	2.314744e-05	-0.003204627	-0.03546192
2e+08	-0.005371683	-0.03674618	3.347206e-05	3.158603e-05	0.05327585	0.03598315	1.516874e-05	3.114052e-05
	3.347206e-05	3.158603e-05	-0.005675408	-0.03637062	2.404483e-05	2.656556e-05	0.0535994	0.03662498
	0.05327585	0.03598315	2.404483e-05	2.656556e-05	-0.004888288	-0.03600702	1.558664e-05	2.470225e-05
	1.516874e-05	3.114052e-05	0.0535994	0.03662498	1.558664e-05	2.470225e-05	-0.005293624	-0.03583606
2.1e+08	-0.007429918	-0.03690372	3.549084e-05	3.379471e-05	0.0569928	0.03476902	1.704074e-05	3.302432e-05
	3.549084e-05	3.379471e-05	-0.007723019	-0.03651262	2.522597e-05	2.864173e-05	0.05731647	0.03541326
	0.0569928	0.03476902	2.522597e-05	2.864173e-05	-0.00690134	-0.03615549	1.690333e-05	2.623551e-05
	1.704074e-05	3.302432e-05	0.05731647	0.03541326	1.690333e-05	2.623551e-05	-0.00730681	-0.03597001
2.2e+08	-0.009382914	-0.03682722	3.773563e-05	3.59388e-05	0.06062958	0.03324363	1.911366e-05	3.488095e-05
	3.773563e-05	3.59388e-05	-0.009664751	-0.03642153	2.65489e-05	3.069358e-05	0.06094945	0.03388833
	0.06062958	0.03324363	2.65489e-05	3.069358e-05	-0.008809929	-0.03607503	1.834373e-05	2.774295e-05
	1.911366e-05	3.488095e-05	0.06094945	0.03388833	1.834373e-05	2.774295e-05	-0.00921386	-0.035875
2.3e+08	-0.01120112	-0.03653144	4.021528e-05	3.800492e-05	0.06416234	0.03141494	2.139701e-05	3.669417e-05
	4.021528e-05	3.800492e-05	-0.01147095	-0.03611235	2.802505e-05	3.271609e-05	0.06447417	0.0320585
	0.06416234	0.03141494	2.802505e-05	3.271609e-05	-0.01058489	-0.0357797	1.991399e-05	2.921896e-05
	2.139701e-05	3.669417e-05	0.06447417	0.0320585	1.991399e-05	2.921896e-05	-0.01098541	-0.03556546
2.4e+08	-0.01285707	-0.03603448	4.293722e-05	3.997729e-05	0.06756779	0.02929267	2.38971e-05	3.844781e-05
	4.293722e-05	3.997729e-05	-0.01311406	-0.03560342	2.966317e-05	3.470379e-05	0.06786711	0.02993387
	0.0675678	0.02929267	2.966317e-05	3.470379e-05	-0.01219938	-0.03528764	2.162122e-05	3.065646e-05
	2.38971e-05	3.844781e-05	0.06786711	0.02993387	2.162122e-05	3.065646e-05	-0.01259454	-0.03505994
2.5e+08	-0.01432566	-0.03535786	4.590752e-05	4.183829e-05	0.07082371	0.02688804	2.661982e-05	4.012373e-05
	4.590752e-05	4.183829e-05	-0.01456903	-0.03491651	3.147238e-05	3.664805e-05	0.07110584	0.02752607
	0.07082371	0.02688804	3.147238e-05	3.664805e-05	-0.01362857	-0.03461931	2.347039e-05	3.204777e-05
	2.661982e-05	4.012373e-05	0.07110584	0.02752607	2.347039e-05	3.204777e-05	-0.01401632	-0.03437937
2.6e+08	-0.01558429	-0.03452557	4.913042e-05	4.356836e-05	0.07390934	0.02421414	2.956954e-05	4.170265e-05
	4.913042e-05	4.356836e-05	-0.01581329	-0.03407589	3.346062e-05	3.853916e-05	0.07416945	0.02484859
	0.07390934	0.02421414	3.346062e-05	3.853916e-05	-0.01485004	-0.03379875	2.5467e-05	3.338359e-05
	2.956954e-05	4.170265e-05	0.07416945	0.02484859	2.5467e-05	3.338359e-05	-0.01522842	-0.03354825
2.7e+08	-0.01661312	-0.03356411	5.260955e-05	4.514606e-05	0.0768046	0.02128517	3.275006e-05	4.316378e-05
	5.260955e-05	4.514606e-05	-0.0168271	-0.03310838	3.563531e-05	4.036485e-05	0.07703771	0.02191612
	0.0768046	0.02128517	3.563531e-05	4.036485e-05	-0.0158441	-0.03285198	2.761662e-05	3.465289e-05
	3.275006e-05	4.316378e-05	0.07703771	0.02191612	2.761662e-05	3.465289e-05	-0.01621119	-0.03259304
2.8e+08	-0.01739573	-0.03250238	5.634479e-05	4.654968e-05	0.07949104	0.01811676	3.616248e-05	4.448576e-05
	5.634479e-05	4.654968e-05	-0.01759421	-0.03204318	3.800379e-05	4.211077e-05	0.07969209	0.0187447
	0.07949104	0.01811676	3.800379e-05	4.211077e-05	-0.01659448	-0.03180716	2.992273e-05	3.584468e-05
	3.616248e-05	4.448576e-05	0.07969209	0.0187447	2.992273e-05	3.584468e-05	-0.01694855	-0.03154245
2.9e+08	-0.01791868	-0.03137077	6.03348e-05	4.775569e-05	0.08195164	0.01472587	3.980622e-05	4.564689e-05
	6.03348e-05	4.775569e-05	-0.01810141	-0.03091094	4.057088e-05	4.37621e-05	0.08211554	0.01535173
	0.08195164	0.01472587	4.057088e-05	4.37621e-05	-0.01708771	-0.03069489	3.238899e-05	3.69463e-05
	3.980622e-05	4.564689e-05	0.08211554	0.01535173	3.238899e-05	3.69463e-05	-0.01742726	-0.03042748
3e+08	-0.01817209	-0.03020112	6.457799e-05	4.873818e-05	0.08417043	0.01113034	4.367919e-05	4.662356e-05
	6.457799e-05	4.873818e-05	-0.01833906	-0.02974382	4.333993e-05	4.530324e-05	0.08429204	0.01175558
	0.08417043	0.01113034	4.333993e-05	4.530324e-05	-0.01731372	-0.02954654	3.501808e-05	3.794406e-05
	4.367919e-05	4.662356e-05	0.08429204	0.01175558	3.501808e-05	3.794406e-05	-0.01763761	-0.02928002
3.1e+08	-0.01814941	-0.02902623	6.906685e-05	4.947392e-05	0.08613327	0.007349094	4.777753e-05	4.739228e-05
	6.906685e-05	4.947392e-05	-0.01830094	-0.02857485	4.631513e-05	4.671453e-05	0.08620751	0.007975589
	0.08613327	0.007349094	4.631513e-05	4.671453e-05	-0.01726597	-0.02839527	3.781102e-05	3.882426e-05
	4.777753e-05	4.739228e-05	0.08620751	0.007975589	3.781102e-05	3.882426e-05	-0.01757343	-0.02813361
3.2e+08	-0.01784766	-0.02788011	7.379515e-05	4.99353e-05	0.08782756	0.003401886	5.209435e-05	4.792944e-05
	7.379515e-05	4.99353e-05	-0.01798446	-0.02743827	4.949615e-05	4.797883e-05	0.08784939	0.004031993
	0.08782756	0.003401886	4.949615e-05	4.797883e-05	-0.01694197	-0.02727413	4.076932e-05	3.957058e-05
	5.209435e-05	4.792944e-05	0.08784939	0.004031993	4.076932e-05	3.957058e-05	-0.01723268	-0.02702173
3.3e+08	-0.01726736	-0.02679669	7.875222e-05	5.009645e-05	0.08924179	-0.0006907144	5.662203e-05	4.820995e-05
	7.875222e-05	5.009645e-05	-0.01739058	-0.02636823	5.288401e-05	4.907471e-05	0.0892063	-5.41664e-05
	0.08924179	-0.0006907145	5.288401e-05	4.907471e-05	-0.01634215	-0.02621759	4.389155e-05	4.016788e-05
	5.662203e-05	4.820995e-05	0.0892063	-5.416645e-05	4.389155e-05	4.016788e-05	-0.01661634	-0.02597917
3.4e+08	-0.01641308	-0.02581017	8.392581e-05	4.993002e-05	0.09036661	-0.004907707	6.134824e-05	4.821155e-05
	8.392581e-05	4.993002e-05	-0.01652427	-0.02539908	5.647638e-05	4.998095e-05	0.09026906	-0.0042614
	0.09036661	-0.004907707	5.647638e-05	4.998095e-05	-0.01547099	-0.02525909	4.717641e-05	4.059857e-05
	6.134824e-05	4.821155e-05	0.09026906	-0.0042614	4.717641e-05	4.059857e-05	-0.01572949	-0.02503971
3.5e+08	-0.01529266	-0.02495421	8.929969e-05	4.941213e-05	0.09119378	-0.009227345	6.626237e-05	4.790705e-05
	8.929969e-05	4.941213e-05	-0.01539395	-0.0245646	6.026837e-05	5.067742e-05	0.09102958	-0.008567547
	0.09119378	-0.009227345	6.026837e-05	5.067742e-05	-0.01433646	-0.02443293	5.062074e-05	4.084531e-05
	6.626237e-05	4.790705e-05	0.09102958	-0.008567547	5.062074e-05	4.084531e-05	-0.01458072	-0.02423781
3.6e+08	-0.01391758	-0.02426223	9.485708e-05	4.851273e-05	0.09171697	-0.0136274	7.134803e-05	4.727366e-05
	9.485708e-05	4.851273e-05	-0.01401158	-0.02389826	6.425603e-05	5.113879e-05	0.0914818	-0.01294995
	0.09171697	-0.0136274	6.425603e-05	5.113879e-05	-0.0129503	-0.0237717	5.421882e-05	4.089124e-05
	7.134803e-05	4.727366e-05	0.0914818	-0.01294995	5.421882e-05	4.089124e-05	-0.01318248	-0.02360634
3.7e+08	-0.01230275	-0.02376596	0.0001005768	4.721085e-05	0.09193156	-0.01808575	7.658709e-05	4.628857e-05
	0.0001005768	4.721085e-05	-0.01239268	-0.0234318	6.842938e-05	5.134535e-05	0.09162135	-0.01738601
	0.09193156	-0.01808575	6.842938e-05	5.134535e-05	-0.01132746	-0.02330715	5.796604e-05	4.071537e-05
	7.658709e-05	4.628857e-05	0.09162135	-0.01738601	5.796604e-05	4.071537e-05	-0.0115505	-0.02317706
3.8e+08	-0.01046637	-0.02349627	0.0001064361	4.547793e-05	0.09183412	-0.02257978	8.195944e-05	4.492976e-05
	0.0001064361	4.547793e-05	-0.01055604	-0.02319604	7.277946e-05	5.12722e-05	0.09144511	-0.02185276
	0.09183412	-0.02257978	7.277946e-05	5.12722e-05	-0.009486224	-0.02307036	6.185312e-05	4.030157e-05
	8.195944e-05	4.492976e-05	0.09144511	-0.02185276	6.185312e-05	4.030157e-05	-0.009703826	-0.0229811
3.9e+08	-0.008430752	-0.02348258	0.0001124093	4.329127e-05	0.09142354	-0.02708673	8.744407e-05	4.317178e-05
	0.0001124093	4.329127e-05	-0.008524593	-0.02322031	7.729439e-05	5.089531e-05	0.09095231	-0.02632702
	0.09142354	-0.02708673	7.729439e-05	5.089531e-05	-0.007448938	-0.02308953	6.587172e-05	3.962755e-05
	8.744407e-05	4.317178e-05	0.09095231	-0.02632702	6.587172e-05	3.962755e-05	-0.00766561	-0.02304659
4e+08	-0.006220676	-0.02375195	0.0001184663	4.063043e-05	0.09069983	-0.03158416	9.301487e-05	4.099835e-05
	0.0001184663	4.063043e-05	-0.006323772	-0.02353142	8.195842e-05	5.019249e-05	0.09014336	-0.03078602
	0.09069983	-0.03158416	8.195842e-05	5.019249e-05	-0.005240066	-0.02339225	7.000888e-05	3.867752e-05
	9.301487e-05	4.099835e-05	0.09014336	-0.03078602	7.000888e-05	3.867752e-05	-0.005461174	-0.02340093
4.1e+08	-0.00386326	-0.02432894	0.0001245777	3.747225e-05	0.08966473	-0.03604943	9.864499e-05	3.838581e-05
	0.0001245777	3.747225e-05	-0.003981332	-0.02415369	8.675387e-05	4.914047e-05	0.08902044	-0.03520681
	0.08966473	-0.03604943	8.675387e-05	4.914047e-05	-0.002887191	-0.02400276	7.425247e-05	3.742924e-05
	9.864499e-05	3.838581e-05	0.08902044	-0.03520681	7.425247e-05	3.742924e-05	-0.003118938	-0.02406815
4.2e+08	-0.001389977	-0.02523604	0.0001307085	3.379796e-05	0.08832196	-0.0404605	0.000104305	3.532017e-05
	0.0001307085	3.379796e-05	-0.001529391	-0.02510926	9.166434e-05	4.77168e-05	0.08758771	-0.03956702
	0.08832196	-0.0404605	9.166434e-05	4.77168e-05	-0.0004216515	-0.02494312	7.858614e-05	3.586437e-05
	0.000104305	3.532017e-05	0.08758771	-0.03956702	7.858614e-05	3.586437e-05	-0.0006711307	-0.02506992
4.3e+08	0.001166385	-0.02649244	0.0001368225	2.959059e-05	0.08667638	-0.04479563	0.0001099627	3.178567e-05
	0.0001368225	2.959059e-05	0.0009986269	-0.02641694	9.666411e-05	4.589923e-05	0.08585048	-0.0438447
	0.08667638	-0.04479563	9.666411e-05	4.589923e-05	0.002124088	-0.02623246	8.299306e-05	3.396459e-05
	0.0001099627	3.178567e-05	0.08585048	-0.0438447	8.299306e-05	3.396459e-05	0.001848966	-0.02642489
4.4e+08	0.003770978	-0.0281145	0.0001428828	2.483812e-05	0.08473469	-0.04903339	0.0001155859	2.776461e-05
	0.0001428828	2.483812e-05	0.003567254	-0.02809254	0.0001017301	4.366708e-05	0.08381594	-0.04801819
	0.08473469	-0.04903339	0.0001017301	4.366708e-05	0.004714752	-0.02788684	8.745247e-05	3.171299e-05
	0.0001155859	2.776461e-05	0.08381594	-0.04801819	8.745247e-05	3.171299e-05	0.004405243	-0.02814858
4.5e+08	0.006385828	-0.03011498	0.0001488479	1.952688e-05	0.08250515	-0.05315313	0.0001211379	2.324907e-05
	0.0001488479	1.952688e-05	0.006137938	-0.03014826	0.0001068361	4.100278e-05	0.08149297	-0.05206668
	0.08250515	-0.05315313	0.0001068361	4.100278e-05	0.007312681	-0.02991891	9.194323e-05	2.908839e-05
	0.0001211379	2.324907e-05	0.08149297	-0.05206668	9.194323e-05	2.908839e-05	0.006959222	-0.03025295
4.6e+08	0.00897163	-0.03250346	0.0001546748	1.364827e-05	0.0799975	-0.05713474	0.00012658	1.823102e-05
	0.0001546748	1.364827e-05	0.008670749	-0.032593	0.000111953	3.788342e-05	0.07889177	-0.05596994
	0.0799975	-0.05713474	0.000111953	3.788342e-05	0.009879232	-0.03233805	9.644158e-05	2.60766e-05
	0.00012658	1.823102e-05	0.07889177	-0.05596994	9.644158e-05	2.60766e-05	0.009471478	-0.03274659
4.7e+08	0.01148905	-0.03528482	0.0001603201	7.194454e-06	0.07722282	-0.0609594	0.0001318755	1.270004e-05
	0.0001603201	7.194454e-06	0.01112591	-0.03543087	0.0001170466	3.429562e-05	0.07602402	-0.05970909
	0.07722282	-0.0609594	0.0001170466	3.429562e-05	0.01237406	-0.03514934	0.0001009189	2.266405e-05
	0.0001318755	1.270004e-05	0.07602402	-0.05970909	0.0001009189	2.266405e-05	0.01190098	-0.03563369
4.8e+08	0.01389637	-0.0384616	0.0001657375	1.657872e-07	0.07419372	-0.06460865	0.0001369824	6.658222e-06
	0.0001657375	1.657871e-07	0.0134612	-0.03866366	0.0001220835	3.022244e-05	0.07290288	-0.06326565
	0.07419372	-0.06460865	0.0001220835	3.022244e-05	0.0147563	-0.03835425	0.0001053486	1.883387e-05
	0.0001369824	6.658222e-06	0.07290288	-0.06326565	0.0001053486	1.883387e-05	0.01420623	-0.03891473
4.9e+08	0.01615105	-0.04203093	0.0001708799	-7.434719e-06	0.07092413	-0.06806584	0.0001418595	1.016944e-07
