!$
! Info: Touchstone file created by Circ.  Input file=Intel_C2M_200G_1p5in_202208016_staggered.circ
!$
# Hz S RI R 50
0	0.01012945	1.520313e-24	2.954464e-05	2.425577e-23	7.378625e-05	2.181654e-22	2.953678e-05	2.418726e-23
	2.954464e-05	2.425577e-23	0.01014274	1.76011e-24	2.954953e-05	2.428208e-23	7.33736e-05	2.173176e-22
	7.384488e-05	2.182945e-22	2.954952e-05	2.428284e-23	0.01012421	1.558851e-24	2.953955e-05	2.420905e-23
	2.953678e-05	2.418803e-23	7.343224e-05	2.174476e-22	2.953955e-05	2.420905e-23	0.01014065	1.674575e-24
1e+07	0.01223534	0.000351108	1.101945e-06	9.424705e-06	0.0007019645	0.003828886	4.1365e-06	9.369668e-06
	1.101945e-06	9.424694e-06	0.01232153	0.0003500526	7.897561e-07	2.619133e-06	0.0007072765	0.003889689
	0.0007019645	0.003828886	7.89756e-07	2.619133e-06	0.01229789	0.0003977566	1.076669e-06	8.994852e-06
	4.1365e-06	9.369668e-06	0.0007072765	0.003889689	1.076669e-06	8.994852e-06	0.01226213	0.0003809693
2e+07	0.01389906	-0.001025833	1.307161e-06	5.442102e-06	0.001382553	0.007348635	2.331221e-06	6.666654e-06
	1.307162e-06	5.442101e-06	0.01397829	-0.001057014	5.062571e-06	6.010693e-06	0.001394019	0.007469047
	0.001382565	0.007348624	5.062572e-06	6.010693e-06	0.01396204	-0.0009607079	8.622684e-07	4.753337e-06
	2.331222e-06	6.666654e-06	0.001394031	0.007469036	8.622683e-07	4.753337e-06	0.01393555	-0.0009723326
3e+07	0.01513745	-0.003093854	2.391178e-06	4.407145e-06	0.002327909	0.01085275	1.096562e-06	6.341124e-06
	2.391179e-06	4.407145e-06	0.01520764	-0.003145099	9.468344e-06	7.565809e-06	0.002348474	0.01103111
	0.002327874	0.01085278	9.468344e-06	7.565809e-06	0.01519439	-0.002994622	1.622789e-06	3.691101e-06
	1.096562e-06	6.341124e-06	0.002348439	0.01103114	1.622789e-06	3.691101e-06	0.01517265	-0.003016025
4e+07	0.0158977	-0.005560528	3.282772e-06	3.647326e-06	0.003621502	0.0142097	2.530061e-06	5.754577e-06
	3.282772e-06	3.647326e-06	0.01595555	-0.005629507	1.309394e-05	7.363409e-06	0.00365385	0.01444424
	0.003621491	0.01420972	1.309394e-05	7.363409e-06	0.01595582	-0.005425952	2.247146e-06	2.989587e-06
	2.530061e-06	5.754577e-06	0.003653839	0.01444426	2.247146e-06	2.989587e-06	0.0159344	-0.005460781
5e+07	0.01626827	-0.008194929	4.014755e-06	2.912816e-06	0.005220102	0.01742305	3.809216e-06	5.045179e-06
	4.014755e-06	2.912816e-06	0.0163106	-0.008279672	1.610272e-05	6.183408e-06	0.005266787	0.01771176
	0.005220102	0.01742306	1.610272e-05	6.183408e-06	0.01632977	-0.008024748	2.756153e-06	2.36626e-06
	3.809216e-06	5.045179e-06	0.005266787	0.01771177	2.756153e-06	2.36626e-06	0.01630476	-0.008074317
6e+07	0.01629797	-0.01091917	4.598753e-06	2.142122e-06	0.007114639	0.02047185	4.881423e-06	4.200703e-06
	4.598752e-06	2.142122e-06	0.01632186	-0.01101762	1.856285e-05	4.335466e-06	0.007178016	0.02081236
	0.007114661	0.02047184	1.856285e-05	4.335465e-06	0.01636481	-0.01071288	3.157356e-06	1.748635e-06
	4.881423e-06	4.200703e-06	0.007178037	0.02081236	3.157356e-06	1.748635e-06	0.01633268	-0.01077744
7e+07	0.01600323	-0.01366937	5.037012e-06	1.318291e-06	0.009289461	0.02333311	5.75402e-06	3.221885e-06
	5.037012e-06	1.318291e-06	0.01600604	-0.01377928	2.049334e-05	1.969609e-06	0.009371614	0.02372272
	0.009289464	0.0233331	2.049334e-05	1.969609e-06	0.01607765	-0.01342682	3.450905e-06	1.111618e-06
	5.75402e-06	3.221885e-06	0.009371617	0.02372271	3.450905e-06	1.111618e-06	0.01603526	-0.01350594
8e+07	0.01540441	-0.01638324	5.324022e-06	4.348303e-07	0.01172721	0.0259856	6.42233e-06	2.109054e-06
	5.324022e-06	4.348304e-07	0.01538389	-0.01650211	2.188227e-05	-8.413356e-07	0.0118299	0.02642125
	0.01172721	0.0259856	2.188227e-05	-8.413356e-07	0.01548888	-0.01610433	3.631983e-06	4.454813e-07
	6.42233e-06	2.109054e-06	0.01182989	0.02642125	3.631983e-06	4.454813e-07	0.01543349	-0.01619706
9e+07	0.01453243	-0.0190052	5.442204e-06	-5.202005e-07	0.01440971	0.02840975	6.864161e-06	8.447354e-07
	5.442204e-06	-5.202005e-07	0.01448685	-0.01913031	2.267323e-05	-4.105869e-06	0.01453431	0.02888809
	0.01440971	0.02840976	2.267323e-05	-4.105869e-06	0.01462915	-0.01869027	3.687261e-06	-2.592249e-07
	6.864161e-06	8.447354e-07	0.01453431	0.0288881	3.687261e-06	-2.592249e-07	0.01455843	-0.01879546
1e+08	0.01343716	-0.02146841	5.298022e-06	-1.645169e-06	0.01731903	0.03058795	6.954435e-06	-7.384727e-07
	5.298022e-06	-1.645169e-06	0.01336562	-0.02159658	2.253521e-05	-8.256221e-06	0.01746649	0.03110532
	0.01731904	0.03058795	2.253521e-05	-8.256221e-06	0.01354827	-0.02111796	3.547261e-06	-1.066075e-06
	6.954435e-06	-7.384727e-07	0.01746649	0.03110532	3.547261e-06	-1.066075e-06	0.0134603	-0.02123463
1.1e+08	0.01221804	-0.02389034	4.620966e-06	-2.367438e-06	0.02045312	0.03250406	6.18802e-06	-1.809346e-06
	4.620966e-06	-2.367438e-06	0.01211898	-0.02401959	2.009188e-05	-1.105351e-05	0.02062351	0.03305703
	0.02045312	0.03250405	2.009188e-05	-1.105351e-05	0.01240767	-0.02349037	3.050903e-06	-1.568914e-06
	6.18802e-06	-1.809346e-06	0.02062351	0.03305703	3.050903e-06	-1.568914e-06	0.01229774	-0.02361605
1.2e+08	0.01073511	-0.02617447	4.067947e-06	-2.835277e-06	0.023744	0.03412559	5.565068e-06	-2.482269e-06
	4.067947e-06	-2.835277e-06	0.01060673	-0.02630199	1.846183e-05	-1.214687e-05	0.02393732	0.03471065
	0.023744	0.03412559	1.846183e-05	-1.214687e-05	0.0109598	-0.02576632	2.650526e-06	-1.899159e-06
	5.565068e-06	-2.482269e-06	0.02393733	0.03471064	2.650526e-06	-1.899159e-06	0.0108263	-0.02589734
1.3e+08	0.009052004	-0.02826722	3.578512e-06	-3.208899e-06	0.02717897	0.03544907	4.985424e-06	-2.984527e-06
	3.578512e-06	-3.208899e-06	0.008893245	-0.02838978	1.789186e-05	-1.165753e-05	0.02739479	0.03606254
	0.02717897	0.03544907	1.789186e-05	-1.165753e-05	0.009286015	-0.02784922	2.305174e-06	-2.171517e-06
	4.985424e-06	-2.984527e-06	0.02739479	0.03606253	2.305174e-06	-2.171517e-06	0.009127934	-0.02798236
1.4e+08	0.007209319	-0.03014765	3.129435e-06	-3.466044e-06	0.03073707	0.0364681	4.434391e-06	-3.369356e-06
	3.129435e-06	-3.466044e-06	0.007019636	-0.03026194	1.727916e-05	-1.13386e-05	0.0309745	0.03710628
	0.03073707	0.03646809	1.727916e-05	-1.13386e-05	0.007445888	-0.02970955	1.971524e-06	-2.381053e-06
	4.434391e-06	-3.369356e-06	0.0309745	0.03710628	1.971524e-06	-2.381053e-06	0.007262709	-0.02984168
1.5e+08	0.005241905	-0.03180063	2.956568e-06	-3.369042e-06	0.0343945	0.03717593	3.913184e-06	-3.672013e-06
	2.956568e-06	-3.369042e-06	0.005021244	-0.03190329	1.664428e-05	-1.112897e-05	0.03465221	0.03783516
	0.0343945	0.03717593	1.664428e-05	-1.112897e-05	0.005483181	-0.03133515	1.646075e-06	-2.539673e-06
	3.913184e-06	-3.672013e-06	0.03465221	0.03783516	1.646075e-06	-2.539673e-06	0.005274842	-0.03146326
1.6e+08	0.003182633	-0.03321477	2.779694e-06	-3.29255e-06	0.0381261	0.03756699	3.508198e-06	-3.814992e-06
	2.779694e-06	-3.29255e-06	0.002931426	-0.03330249	1.599326e-05	-1.09896e-05	0.0384023	0.03824369
	0.0381261	0.03756699	1.599326e-05	-1.09896e-05	0.003434265	-0.03271846	1.513633e-06	-2.476734e-06
	3.508198e-06	-3.814992e-06	0.0384023	0.03824369	1.513633e-06	-2.476734e-06	0.00320115	-0.03283962
1.7e+08	0.001064313	-0.03438168	2.604464e-06	-3.236159e-06	0.04190605	0.03763715	3.346054e-06	-3.707802e-06
	2.604464e-06	-3.236159e-06	0.0007834767	-0.0344513	1.532733e-05	-1.089271e-05	0.04219855	0.03832788
	0.04190605	0.03763714	1.532733e-05	-1.089271e-05	0.001332164	-0.03385437	1.386301e-06	-2.429529e-06
	3.346054e-06	-3.707802e-06	0.04219855	0.03832787	1.3863e-06	-2.429529e-06	0.001075097	-0.03396584
1.8e+08	-0.00108031	-0.03529683	2.425189e-06	-3.186498e-06	0.04570825	0.03738412	3.18024e-06	-3.61666e-06
	2.425189e-06	-3.186498e-06	-0.0013894	-0.03534537	1.465026e-05	-1.082018e-05	0.04601442	0.03808561
	0.04570825	0.03738412	1.465026e-05	-1.082018e-05	-0.0007911878	-0.0347405	1.25567e-06	-2.386837e-06
	3.18024e-06	-3.61666e-06	0.04601442	0.03808561	1.25567e-06	-2.386837e-06	-0.001070935	-0.03483972
1.9e+08	-0.003217912	-0.03595917	2.242809e-06	-3.140248e-06	0.04950662	0.036808	3.011917e-06	-3.536805e-06
	2.242809e-06	-3.140248e-06	-0.003553461	-0.03598394	1.396506e-05	-1.075949e-05	0.04982344	0.03751722
	0.04950662	0.036808	1.396506e-05	-1.075949e-05	-0.002903854	-0.03537722	1.122373e-06	-2.345667e-06
	3.011917e-06	-3.536805e-06	0.04982344	0.03751722	1.122373e-06	-2.345667e-06	-0.003204627	-0.03546192
2e+08	-0.005315437	-0.03637194	2.058066e-06	-3.094252e-06	0.05327535	0.03591081	2.841832e-06	-3.464235e-06
	2.058066e-06	-3.094252e-06	-0.005675408	-0.03637062	1.327397e-05	-1.070181e-05	0.0535994	0.03662498
	0.05327535	0.03591081	1.327397e-05	-1.070181e-05	-0.004973946	-0.03576785	9.870903e-07	-2.304359e-06
	2.841832e-06	-3.464235e-06	0.0535994	0.03662498	9.870903e-07	-2.304359e-06	-0.005293624	-0.03583606
2.1e+08	-0.007341137	-0.03654202	1.871851e-06	-3.046623e-06	0.05698894	0.03469661	2.670787e-06	-3.396244e-06
	1.871851e-06	-3.046623e-06	-0.007723019	-0.03651262	1.257998e-05	-1.06409e-05	0.05731647	0.03541326
	0.05698894	0.0346966	1.257998e-05	-1.06409e-05	-0.006970576	-0.03591983	8.5062e-07	-2.261332e-06
	2.670787e-06	-3.396244e-06	0.05731647	0.03541326	8.5062e-07	-2.261332e-06	-0.00730681	-0.03597001
2.2e+08	-0.009263717	-0.03648057	1.684972e-06	-2.995828e-06	0.06062248	0.03317133	2.499464e-06	-3.330729e-06
	1.684972e-06	-2.995828e-06	-0.009664751	-0.03642153	1.188526e-05	-1.057181e-05	0.06094945	0.03388833
	0.06062248	0.03317133	1.188526e-05	-1.057181e-05	-0.00886368	-0.0358439	7.136255e-07	-2.215487e-06
	2.499464e-06	-3.330729e-06	0.06094945	0.03388833	7.136255e-07	-2.215487e-06	-0.00921386	-0.035875
2.3e+08	-0.01105376	-0.03620208	1.498208e-06	-2.940683e-06	0.06415211	0.03134292	2.328482e-06	-3.266053e-06
	1.498208e-06	-2.940683e-06	-0.01147095	-0.03611235	1.119183e-05	-1.049072e-05	0.06447417	0.0320585
	0.06415211	0.03134292	1.119183e-05	-1.049072e-05	-0.0106241	-0.03555403	5.767433e-07	-2.165977e-06
	2.328482e-06	-3.266053e-06	0.06447417	0.0320585	5.767433e-07	-2.165977e-06	-0.01098541	-0.03556546
2.4e+08	-0.01268386	-0.03572442	1.312323e-06	-2.880269e-06	0.06755453	0.02922112	2.158441e-06	-3.200936e-06
	1.312323e-06	-2.880269e-06	-0.01311406	-0.03560342	1.050163e-05	-1.039475e-05	0.06786711	0.02993387
	0.06755453	0.02922112	1.050163e-05	-1.039475e-05	-0.01222502	-0.03506826	4.406099e-07	-2.11216e-06
	2.158441e-06	-3.200936e-06	0.06786711	0.02993387	4.406099e-07	-2.11216e-06	-0.01259454	-0.03505994
2.5e+08	-0.01412903	-0.03506881	1.128078e-06	-2.813893e-06	0.07080756	0.02681712	1.989897e-06	-3.134376e-06
	1.128078e-06	-2.813893e-06	-0.01456903	-0.03491651	9.816479e-06	-1.028169e-05	0.07110584	0.02752607
	0.07080756	0.02681712	9.816479e-06	-1.028169e-05	-0.0136416	-0.03440694	3.058383e-07	-2.053548e-06
	1.989897e-06	-3.134376e-06	0.07110584	0.02752607	3.058383e-07	-2.053548e-06	-0.01401632	-0.03437937
2.6e+08	-0.01536673	-0.03425898	9.462077e-07	-2.741046e-06	0.07389043	0.02414398	1.823384e-06	-3.065594e-06
	9.462077e-07	-2.741046e-06	-0.01581329	-0.03407589	9.138157e-06	-1.014984e-05	0.07416945	0.02484859
	0.07389043	0.02414398	9.138157e-06	-1.014984e-05	-0.01485146	-0.033594	1.730323e-07	-1.989805e-06
	1.823384e-06	-3.065594e-06	0.07416945	0.02484859	1.730323e-07	-1.989805e-06	-0.01522842	-0.03354825
2.7e+08	-0.01637714	-0.03332121	7.674439e-07	-2.661363e-06	0.07678307	0.02121595	1.659399e-06	-2.993998e-06
	7.674439e-07	-2.661363e-06	-0.0168271	-0.03310838	8.468312e-06	-9.99804e-06	0.07703771	0.02191612
	0.07678307	0.02121595	8.468312e-06	-9.99804e-06	-0.01583487	-0.03265537	4.277462e-08	-1.920718e-06
	1.659399e-06	-2.993998e-06	0.07703771	0.02191612	4.277462e-08	-1.920718e-06	-0.01621119	-0.03259304
2.8e+08	-0.0171439	-0.03228413	5.925102e-07	-2.574641e-06	0.07946702	0.01804863	1.498441e-06	-2.919153e-06
	5.925102e-07	-2.574641e-06	-0.01759421	-0.03204318	7.808597e-06	-9.825449e-06	0.07969209	0.0187447
	0.07946702	0.01804863	7.808597e-06	-9.825449e-06	-0.01657555	-0.03161915	-8.435712e-08	-1.846176e-06
	1.498441e-06	-2.919153e-06	0.07969209	0.0187447	-8.435712e-08	-1.846176e-06	-0.01694855	-0.03154245
2.9e+08	-0.01765356	-0.03117788	4.221126e-07	-2.480793e-06	0.0819253	0.01465895	1.340985e-06	-2.840759e-06
	4.221126e-07	-2.480793e-06	-0.01810141	-0.03091094	7.160593e-06	-9.631582e-06	0.08211554	0.01535173
	0.0819253	0.01465895	7.160593e-06	-9.631582e-06	-0.01706004	-0.03051581	-2.078112e-07	-1.76617e-06
	1.340985e-06	-2.840759e-06	0.08211554	0.01535173	-2.078112e-07	-1.76617e-06	-0.01742726	-0.03042748
3e+08	-0.01789623	-0.03003407	2.569292e-07	-2.37984e-06	0.08414193	0.01106477	1.18747e-06	-2.75861e-06
	2.569292e-07	-2.37984e-06	-0.01833906	-0.02974382	6.525786e-06	-9.41619e-06	0.08429204	0.01175558
	0.08414193	0.01106477	6.525786e-06	-9.41619e-06	-0.01727826	-0.02937669	-3.270588e-07	-1.680765e-06
	1.18747e-06	-2.75861e-06	0.08429204	0.01175558	-3.270588e-07	-1.680765e-06	-0.01763761	-0.02928002
3.1e+08	-0.01786536	-0.02888527	9.760992e-08	-2.271919e-06	0.08610278	0.007284997	1.038327e-06	-2.67262e-06
	9.760992e-08	-2.271919e-06	-0.01830094	-0.02857485	5.905622e-06	-9.179297e-06	0.08620751	0.007975589
	0.08610278	0.007284997	5.905622e-06	-9.179297e-06	-0.01722363	-0.02823483	-4.41595e-07	-1.590115e-06
	1.038327e-06	-2.67262e-06	0.08620751	0.007975589	-4.41595e-07	-1.590115e-06	-0.01757343	-0.02813361
3.2e+08	-0.01755791	-0.02776523	-5.521303e-08	-2.157252e-06	0.08779524	0.003339389	8.939586e-07	-2.582781e-06
	-5.521304e-08	-2.157252e-06	-0.01798446	-0.02743827	5.301481e-06	-8.921126e-06	0.08784939	0.004031993
	0.08779524	0.003339389	5.301481e-06	-8.921126e-06	-0.01689365	-0.02712326	-5.509609e-07	-1.494446e-06
	8.939586e-07	-2.582781e-06	0.08784939	0.004031993	-5.509609e-07	-1.494446e-06	-0.01723268	-0.02702173
3.3e+08	-0.01697438	-0.02670769	-2.009562e-07	-2.036129e-06	0.08920785	-0.0007515048	7.54737e-07	-2.489143e-06
	-2.009562e-07	-2.036129e-06	-0.01739058	-0.02636823	4.714663e-06	-8.642013e-06	0.0892063	-5.41664e-05
	0.08920785	-0.0007515048	4.714663e-06	-8.642013e-06	-0.01628872	-0.02607633	-6.54715e-07	-1.394035e-06
	7.54737e-07	-2.489143e-06	0.0892063	-5.416645e-05	-6.54715e-07	-1.394035e-06	-0.01661634	-0.02597917
3.4e+08	-0.01611923	-0.02574665	-3.390684e-07	-1.908952e-06	0.09033123	-0.004966674	6.210116e-07	-2.391844e-06
	-3.390684e-07	-1.908952e-06	-0.01652427	-0.02539908	4.146422e-06	-8.342537e-06	0.09026906	-0.0042614
	0.09033123	-0.004966674	4.146422e-06	-8.342537e-06	-0.01541332	-0.02512746	-7.524675e-07	-1.289214e-06
	6.210115e-07	-2.391844e-06	0.09026906	-0.0042614	-7.524675e-07	-1.289214e-06	-0.01572949	-0.02503971
3.5e+08	-0.01500024	-0.02491556	-4.690641e-07	-1.776167e-06	0.09115717	-0.00928441	4.930977e-07	-2.291066e-06
	-4.690641e-07	-1.776167e-06	-0.01539395	-0.0245646	3.597923e-06	-8.023359e-06	0.09102958	-0.008567547
	0.09115717	-0.00928441	3.597923e-06	-8.023359e-06	-0.01427535	-0.02431084	-8.438581e-07	-1.180369e-06
	4.930977e-07	-2.291066e-06	0.09102958	-0.008567547	-8.438581e-07	-1.180369e-06	-0.01458072	-0.02423781
3.6e+08	-0.01362878	-0.0242476	-5.90486e-07	-1.638297e-06	0.09167938	-0.01368248	3.71279e-07	-2.18705e-06
	-5.90486e-07	-1.638297e-06	-0.01401158	-0.02389826	3.070264e-06	-7.685293e-06	0.0914818	-0.01294995
	0.09167938	-0.01368248	3.070264e-06	-7.685293e-06	-0.01288653	-0.02365908	-9.285932e-07	-1.067931e-06
	3.71279e-07	-2.18705e-06	0.0914818	-0.01294995	-9.285932e-07	-1.067931e-06	-0.01318248	-0.02360634
3.7e+08	-0.01201964	-0.02377437	-7.029536e-07	-1.495908e-06	0.09189321	-0.01813876	2.55797e-07	-2.080072e-06
	-7.029536e-07	-1.495908e-06	-0.01239268	-0.0234318	2.564446e-06	-7.329234e-06	0.09162135	-0.01738601
	0.09189321	-0.01813876	2.564446e-06	-7.329234e-06	-0.01126178	-0.02320381	-1.006417e-06	-9.523512e-07
	2.55797e-07	-2.080072e-06	0.09162135	-0.01738601	-1.006417e-06	-9.523512e-07	-0.0115505	-0.02317706
3.8e+08	-0.01019091	-0.02352657	-8.061363e-07	-1.34961e-06	0.09179524	-0.02263066	1.468643e-07	-1.970445e-06
	-8.061363e-07	-1.34961e-06	-0.01055604	-0.02319604	2.081414e-06	-6.956165e-06	0.09144511	-0.02185276
	0.09179524	-0.02263066	2.081414e-06	-6.956165e-06	-0.009419366	-0.02297609	-1.077116e-06	-8.341149e-07
	1.468643e-07	-1.970445e-06	0.09144511	-0.02185276	-1.077116e-06	-8.341149e-07	-0.009703826	-0.0229811
3.9e+08	-0.008164741	-0.02353343	-8.997746e-07	-1.200077e-06	0.09138439	-0.02713547	4.465457e-08	-1.858531e-06
	-8.997746e-07	-1.200077e-06	-0.008524593	-0.02322031	1.622047e-06	-6.567218e-06	0.09095231	-0.02632702
	0.09138439	-0.02713547	1.622047e-06	-6.567218e-06	-0.007381557	-0.0230041	-1.140542e-06	-7.137374e-07
	4.465457e-08	-1.858531e-06	0.09095231	-0.02632702	-1.140542e-06	-7.137374e-07	-0.00766561	-0.02304659
4e+08	-0.005965816	-0.02382187	-9.836663e-07	-1.048e-06	0.09066066	-0.0316307	-5.069597e-08	-1.7447e-06
	-9.836663e-07	-1.048e-06	-0.006323772	-0.02353142	1.187149e-06	-6.163536e-06	0.09014336	-0.03078602
	0.09066066	-0.0316307	1.187149e-06	-6.163536e-06	-0.005172781	-0.02331534	-1.196586e-06	-5.917387e-07
	-5.069597e-08	-1.7447e-06	0.09014336	-0.03078602	-1.196586e-06	-5.917387e-07	-0.005461174	-0.02340093
4.1e+08	-0.003621034	-0.02441631	-1.057694e-06	-8.940769e-07	0.08962584	-0.03609382	-1.391107e-07	-1.629336e-06
	-1.057694e-06	-8.940769e-07	-0.003981332	-0.02415369	7.773631e-07	-5.746321e-06	0.08902044	-0.03520681
	0.08962584	-0.03609382	7.773631e-07	-5.746321e-06	-0.002820599	-0.02393407	-1.245207e-06	-4.68644e-07
	-1.391107e-07	-1.629336e-06	0.08902044	-0.03520681	-1.245207e-06	-4.68644e-07	-0.003118938	-0.02406815
4.2e+08	-0.00116174	-0.02533913	-1.121811e-06	-7.390565e-07	0.08828364	-0.04050273	-2.205314e-07	-1.512866e-06
	-1.121811e-06	-7.390565e-07	-0.001529391	-0.02510926	3.93362e-07	-5.316917e-06	0.08758771	-0.03956702
	0.08828364	-0.04050273	3.93362e-07	-5.316917e-06	-0.0003563	-0.02488229	-1.286402e-06	-3.450012e-07
	-2.205314e-07	-1.512866e-06	0.08758771	-0.03956702	-1.286402e-06	-3.450012e-07	-0.0006711307	-0.02506992
4.3e+08	0.001379485	-0.02660943	-1.176035e-06	-5.836622e-07	0.08663889	-0.04483578	-2.9496e-07	-1.395699e-06
	-1.176035e-06	-5.836622e-07	0.0009986269	-0.02641694	3.563922e-08	-4.876634e-06	0.08585048	-0.0438447
	0.08663889	-0.04483578	3.563922e-08	-4.876634e-06	0.002187713	-0.02617909	-1.32023e-06	-2.213245e-07
	-2.9496e-07	-1.395699e-06	0.08585048	-0.0438447	-1.32023e-06	-2.213245e-07	0.001848966	-0.02642489
4.4e+08	0.00396797	-0.02824343	-1.22047e-06	-4.286291e-07	0.08469832	-0.04907151	-3.624382e-07	-1.278257e-06
	-1.22047e-06	-4.286291e-07	0.003567254	-0.02809254	-2.953709e-07	-4.426858e-06	0.08381594	-0.04801819
	0.08469832	-0.04907151	-2.953709e-07	-4.426858e-06	0.004776213	-0.02784052	-1.34679e-06	-9.814261e-08
	-3.624382e-07	-1.278257e-06	0.08381594	-0.04801819	-1.34679e-06	-9.814261e-08	0.004405243	-0.02814858
4.5e+08	0.006565934	-0.03025386	-1.255285e-06	-2.746915e-07	0.08247022	-0.05318933	-4.230409e-07	-1.160967e-06
	-1.255285e-06	-2.746915e-07	0.006137938	-0.03014826	-5.992862e-07	-3.969039e-06	0.08149297	-0.05206668
	0.08247022	-0.05318933	-5.992862e-07	-3.969039e-06	0.00737155	-0.02987924	-1.366238e-06	2.403533e-08
	-4.230409e-07	-1.160967e-06	0.08149297	-0.05206668	-1.366238e-06	2.403533e-08	0.006959222	-0.03025295
4.6e+08	0.00913428	-0.03265024	-1.280716e-06	-1.225554e-07	0.07996428	-0.05716918	-4.768893e-07	-1.044244e-06
	-1.280716e-06	-1.225554e-07	0.008670749	-0.032593	-8.758417e-07	-3.504634e-06	0.07889177	-0.05596994
	0.07996428	-0.05716918	-8.758417e-07	-3.504634e-06	0.00993515	-0.03230457	-1.378767e-06	1.44722e-07
	-4.768893e-07	-1.044244e-06	0.07889177	-0.05596994	-1.378767e-06	1.44722e-07	0.009471478	-0.03274659
4.7e+08	0.01163388	-0.03543736	-1.297102e-06	2.710675e-08	0.0771916	-0.06099224	-5.24161e-07	-9.284875e-07
	-1.297102e-06	2.710675e-08	0.01112591	-0.03543087	-1.124933e-06	-3.035125e-06	0.07602402	-0.05970909
	0.0771916	-0.06099224	-1.124933e-06	-3.035125e-06	0.01242672	-0.03512158	-1.384626e-06	2.634537e-07
	-5.24161e-07	-9.284875e-07	0.07602402	-0.05970909	-1.384626e-06	2.634537e-07	0.01190098	-0.03563369
4.8e+08	0.01402322	-0.03861782	-1.304799e-06	1.73653e-07	0.07416475	-0.06464008	-5.650489e-07	-8.140817e-07
