!$
! Info: Touchstone file created by Circ.  Input file=Intel_C2M_200G_1p5in_202208016_staggered.circ
!$
# Hz S RI R 50
0	0.01070093	3.836401e-24	-5.196985e-05	6.364471e-21	0.000299761	1.727505e-22	-4.757738e-05	5.826549e-21
	-5.196995e-05	6.364483e-21	0.01014274	1.76011e-24	-5.925432e-05	7.256562e-21	7.33736e-05	2.173176e-22
	0.0002998315	1.728664e-22	-5.925442e-05	7.256573e-21	0.01070214	3.874631e-24	-5.199552e-05	6.367614e-21
	-4.757737e-05	5.826548e-21	7.343224e-05	2.174476e-22	-5.199542e-05	6.367602e-21	0.01014065	1.674575e-24
1e+07	0.012555	0.0004442524	-0.0002436124	-0.0001045984	0.0006094043	0.003877089	-3.685753e-05	-0.0001002557
	-0.0002436124	-0.0001045984	0.01232153	0.0003500526	-0.0003486856	-6.700775e-05	0.0007072765	0.003889689
	0.0006094043	0.003877089	-0.0003486856	-6.700775e-05	0.01243267	0.0005034232	-0.0001839228	-0.0001086744
	-3.685753e-05	-0.0001002557	0.0007072765	0.003889689	-0.0001839228	-0.0001086744	0.01226213	0.0003809693
2e+07	0.01440011	-0.0008226524	-0.0002244125	-0.0002880028	0.00127658	0.007544258	-5.403241e-05	-0.000177917
	-0.0002244125	-0.0002880027	0.01397829	-0.001057014	-0.0003427899	-0.0002558351	0.001394019	0.007469047
	0.001276667	0.007544155	-0.0003427899	-0.0002558351	0.01433059	-0.0006657635	-0.0001840107	-0.0002504386
	-5.40324e-05	-0.000177917	0.001394031	0.007469036	-0.0001840107	-0.0002504386	0.01393555	-0.0009723326
3e+07	0.01551868	-0.003056509	-0.0002267265	-0.0004078854	0.002331177	0.0110499	-7.906253e-05	-0.0002523912
	-0.0002267265	-0.0004078854	0.01520764	-0.003145099	-0.0003528733	-0.0003746909	0.002348474	0.01103111
	0.002331154	0.01104987	-0.0003528733	-0.0003746909	0.01550395	-0.002848973	-0.0002006344	-0.0003607237
	-7.906253e-05	-0.0002523912	0.002348439	0.01103114	-0.0002006344	-0.0003607237	0.01517265	-0.003016025
4e+07	0.01626833	-0.005511545	-0.0002456445	-0.0005105192	0.003688301	0.01444952	-0.000117915	-0.0003218603
	-0.0002456445	-0.0005105192	0.01595555	-0.005629507	-0.0003763001	-0.0004766698	0.00365385	0.01444424
	0.003688301	0.01444953	-0.0003763001	-0.0004766698	0.01630282	-0.005266978	-0.0002307699	-0.0004582983
	-0.000117915	-0.0003218603	0.003653839	0.01444426	-0.0002307699	-0.0004582983	0.0159344	-0.005460781
5e+07	0.01667945	-0.008168691	-0.0002780368	-0.0006017978	0.005368354	0.01769753	-0.0001637123	-0.00038668
	-0.0002780368	-0.0006017978	0.0163106	-0.008279672	-0.0004107638	-0.0005686231	0.005266787	0.01771176
	0.005368357	0.01769754	-0.0004107638	-0.0005686231	0.01676209	-0.007896019	-0.0002725395	-0.0005468496
	-0.0001637123	-0.00038668	0.005266787	0.01771177	-0.0002725395	-0.0005468496	0.01630476	-0.008074317
6e+07	0.01673934	-0.01092611	-0.0003218679	-0.0006833755	0.007354712	0.0207667	-0.0002158124	-0.00044662
	-0.0003218679	-0.0006833755	0.01632186	-0.01101762	-0.0004548887	-0.0006528866	0.007178016	0.02081236
	0.007354711	0.02076671	-0.0004548887	-0.0006528866	0.01687019	-0.01063281	-0.0003246064	-0.0006272716
	-0.0002158124	-0.00044662	0.007178037	0.02081236	-0.0003246064	-0.0006272716	0.01633268	-0.01077744
7e+07	0.01647409	-0.01370193	-0.0003968922	-0.0007480771	0.009630535	0.02363326	-0.0002737346	-0.00050109
	-0.0003968922	-0.0007480771	0.01600604	-0.01377928	-0.0005075698	-0.000730101	0.009371614	0.02372272
	0.009630534	0.02363326	-0.0005075698	-0.000730101	0.01665291	-0.01339523	-0.0003858655	-0.0006996001
	-0.0002737346	-0.00050109	0.009371617	0.02372271	-0.0003858655	-0.0006996001	0.01603526	-0.01350594
8e+07	0.01591196	-0.01644315	-0.0005035111	-0.000791377	0.01217664	0.02627438	-0.0003369361	-0.0005496181
	-0.0005035111	-0.000791377	0.01538389	-0.01650211	-0.0005679456	-0.0008004568	0.0118299	0.02642125
	0.01217664	0.02627438	-0.0005679456	-0.0008004568	0.01613796	-0.01613046	-0.000455278	-0.0007634415
	-0.0003369361	-0.0005496181	0.01182989	0.02642125	-0.000455278	-0.0007634415	0.01543349	-0.01619706
9e+07	0.01507444	-0.01910609	-0.0006122139	-0.0008209179	0.01497267	0.02866951	-0.0004050377	-0.0005920012
	-0.0006122139	-0.0008209179	0.01448685	-0.01913031	-0.0006354867	-0.0008641698	0.01453431	0.02888809
	0.01497267	0.02866951	-0.0006354867	-0.0008641698	0.01534641	-0.01879473	-0.0005382052	-0.0008149967
	-0.0004050377	-0.0005920012	0.01453431	0.0288881	-0.0005382052	-0.0008149967	0.01455843	-0.01879546
1e+08	0.01399087	-0.02162732	-0.0007192499	-0.0008316705	0.0179986	0.03080059	-0.0004769976	-0.0006273666
	-0.0007192499	-0.0008316705	0.01336562	-0.02159658	-0.0007089559	-0.0009200191	0.01746649	0.03110532
	0.0179986	0.03080059	-0.0007089559	-0.0009200191	0.01430529	-0.0213285	-0.000640828	-0.0008456709
	-0.0004769976	-0.0006273666	0.01746649	0.03110532	-0.000640828	-0.0008456709	0.0134603	-0.02123463
1.1e+08	0.01278221	-0.02404899	-0.0008092245	-0.0008438246	0.02122989	0.03264241	-0.0005516894	-0.0006580177
	-0.0008092245	-0.0008438246	0.01211898	-0.02401959	-0.0007936376	-0.000967952	0.02062351	0.03305703
	0.02122989	0.03264241	-0.0007936376	-0.000967952	0.01312271	-0.02374266	-0.0007371669	-0.0008729187
	-0.0005516894	-0.0006580177	0.02062351	0.03305703	-0.0007371669	-0.0008729187	0.01229774	-0.02361605
1.2e+08	0.01133436	-0.02636523	-0.0009070779	-0.0008556767	0.02463343	0.03418137	-0.0006314608	-0.0006833407
	-0.0009070779	-0.0008556767	0.01060673	-0.02630199	-0.000885479	-0.00101101	0.02393732	0.03471065
	0.02463343	0.03418137	-0.000885479	-0.00101101	0.01171099	-0.02605914	-0.0008402325	-0.000895792
	-0.0006314608	-0.0006833407	0.02393733	0.03471064	-0.0008402325	-0.000895792	0.0108263	-0.02589734
1.3e+08	0.009686147	-0.02851285	-0.001009706	-0.0008610883	0.02818355	0.0354072	-0.0007165149	-0.000703826
	-0.001009706	-0.0008610883	0.008893245	-0.02838978	-0.000983699	-0.001047748	0.02739479	0.03606254
	0.02818355	0.0354072	-0.000983699	-0.001047748	0.01009966	-0.02821487	-0.0009480707	-0.0009108024
	-0.0007165149	-0.000703826	0.02739479	0.03606253	-0.0009480707	-0.0009108024	0.009127934	-0.02798236
1.4e+08	0.007872232	-0.03046022	-0.001115853	-0.0008586193	0.03185277	0.03631053	-0.000804892	-0.0007167927
	-0.001115853	-0.0008586193	0.007019636	-0.03026194	-0.00108794	-0.001077515	0.0309745	0.03710628
	0.03185277	0.03631053	-0.00108794	-0.001077515	0.008320635	-0.03017518	-0.001059696	-0.0009170536
	-0.000804892	-0.0007167927	0.0309745	0.03710628	-0.001059696	-0.0009170536	0.007262709	-0.02984168
1.5e+08	0.005927848	-0.03218639	-0.001224572	-0.0008474699	0.03561326	0.03688394	-0.0008961053	-0.0007220114
	-0.001224572	-0.0008474699	0.005021244	-0.03190329	-0.001197915	-0.001099683	0.03465221	0.03783516
	0.03561326	0.03688394	-0.001197915	-0.001099683	0.006408963	-0.03191721	-0.001174265	-0.0009139734
	-0.0008961053	-0.0007220114	0.03465221	0.03783516	-0.001174265	-0.0009139734	0.005274842	-0.03146326
1.6e+08	0.003888269	-0.03367764	-0.001334945	-0.0008271839	0.03943693	0.03712252	-0.0009895828	-0.0007193235
	-0.001334945	-0.0008271839	0.002931426	-0.03330249	-0.001313232	-0.00111367	0.0384023	0.03824369
	0.03943693	0.03712252	-0.001313232	-0.00111367	0.004400225	-0.03342617	-0.001290968	-0.0009012005
	-0.0009895828	-0.0007193235	0.0384023	0.03824369	-0.001290968	-0.0009012006	0.00320115	-0.03283962
1.7e+08	0.001788269	-0.03492614	-0.001446129	-0.000797441	0.04329532	0.0370232	-0.001084776	-0.0007085507
	-0.001446129	-0.000797441	0.0007834767	-0.0344513	-0.001433435	-0.001118938	0.04219855	0.03832788
	0.04329532	0.0370232	-0.001433435	-0.001118938	0.002329942	-0.03469402	-0.001408982	-0.0008784441
	-0.001084776	-0.0007085507	0.04219855	0.03832787	-0.001408982	-0.0008784441	0.001075097	-0.03396584
1.8e+08	-0.000337797	-0.03592857	-0.001557282	-0.0007581105	0.04716028	0.03658536	-0.001181105	-0.000689545
	-0.001557282	-0.0007581105	-0.0013894	-0.03534537	-0.001558096	-0.00111483	0.04601442	0.03808561
	0.04716028	0.03658536	-0.001558096	-0.00111483	0.0002323945	-0.03571763	-0.001527539	-0.0008456034
	-0.001181105	-0.000689545	0.04601442	0.03808561	-0.001527539	-0.0008456034	-0.001070935	-0.03483972
1.9e+08	-0.00245697	-0.03668619	-0.001667601	-0.0007091056	0.05100375	0.03581098	-0.001278007	-0.0006621857
	-0.001667601	-0.0007091056	-0.003553461	-0.03598394	-0.001686726	-0.001100681	0.04982344	0.03751722
	0.05100375	0.03581098	-0.001686726	-0.001100681	-0.001859006	-0.03649861	-0.001645804	-0.0008025631
	-0.001278007	-0.0006621857	0.04982344	0.03751722	-0.001645804	-0.0008025631	-0.003204627	-0.03546192
2e+08	-0.004536555	-0.03720414	-0.001775671	-0.000650442	0.05479785	0.03470375	-0.001374845	-0.0006264158
	-0.001775671	-0.000650442	-0.005675408	-0.03637062	-0.001828045	-0.001063079	0.0535994	0.03662498
	0.05479785	0.03470375	-0.001828045	-0.001063079	-0.003912469	-0.03704203	-0.001762487	-0.0007492604
	-0.001374845	-0.0006264158	0.0535994	0.03662498	-0.001762487	-0.0007492604	-0.005293624	-0.03583606
2.1e+08	-0.006546336	-0.0374911	-0.00188132	-0.0005823385	0.05851597	0.03327011	-0.001471039	-0.0005821736
	-0.00188132	-0.0005823385	-0.007723019	-0.03651262	-0.001970389	-0.001013978	0.05731647	0.03541326
	0.05851597	0.03327011	-0.001970389	-0.001013978	-0.005897125	-0.037357	-0.00187733	-0.0006858721
	-0.001471039	-0.0005821736	0.05731647	0.03541326	-0.00187733	-0.0006858721	-0.00730681	-0.03597001
2.2e+08	-0.008456609	-0.03755932	-0.001983827	-0.0005049435	0.06213181	0.03151836	-0.001565972	-0.0005294359
	-0.001983827	-0.0005049435	-0.009664751	-0.03642153	-0.002113016	-0.0009529032	0.06094945	0.03388833
	0.06213181	0.03151836	-0.002113016	-0.0009529032	-0.007784348	-0.03745558	-0.001989582	-0.0006124767
	-0.001565972	-0.0005294359	0.06094945	0.03388833	-0.001989582	-0.0006124767	-0.00921386	-0.035875
2.3e+08	-0.01024001	-0.03742433	-0.00208247	-0.000418532	0.06562005	0.02945869	-0.001659035	-0.0004682508
	-0.00208247	-0.000418532	-0.01147095	-0.03611235	-0.002255042	-0.0008795749	0.06447417	0.0320585
	0.06562005	0.02945869	-0.002255042	-0.0008795749	-0.009546937	-0.03735315	-0.002098516	-0.0005292567
	-0.001659035	-0.0004682508	0.06447417	0.0320585	-0.002098516	-0.0005292567	-0.01098541	-0.03556546
2.4e+08	-0.01187133	-0.03710455	-0.002176617	-0.000323294	0.06895692	0.02710361	-0.001749608	-0.0003987045
	-0.002176617	-0.000323294	-0.01311406	-0.03560342	-0.002395553	-0.0007937028	0.06786711	0.02993387
	0.06895692	0.02710361	-0.002395553	-0.0007937028	-0.01116002	-0.03706806	-0.002203401	-0.0004363965
	-0.001749608	-0.0003987045	0.06786711	0.02993387	-0.002203401	-0.0004363965	-0.01259454	-0.03505994
2.5e+08	-0.01332739	-0.03662141	-0.002265626	-0.0002196025	0.0721196	0.02446705	-0.001837069	-0.0003208601
	-0.002265626	-0.0002196025	-0.01456903	-0.03491651	-0.00253353	-0.0006950523	0.07110584	0.02752607
	0.0721196	0.02446705	-0.00253353	-0.0006950523	-0.0126006	-0.03662122	-0.00230356	-0.0003341748
	-0.001837069	-0.0003208601	0.07110584	0.02752607	-0.00230356	-0.0003341748	-0.01401632	-0.03437937
2.6e+08	-0.0145881	-0.03599845	-0.002348883	-0.0001077963	0.07508674	0.02156457	-0.001920824	-0.0002349257
	-0.002348883	-0.0001077963	-0.01581329	-0.03407589	-0.002667945	-0.0005834978	0.07416945	0.02484859
	0.07508674	0.02156457	-0.002667945	-0.0005834978	-0.01384886	-0.03603627	-0.002398316	-0.0002228769
	-0.001920824	-0.0002349257	0.07416945	0.02484859	-0.002398316	-0.0002228769	-0.01522842	-0.03354825
2.7e+08	-0.01563559	-0.03526181	-0.002425822	1.174901e-05	0.07783855	0.01841351	-0.002000262	-0.0001410117
	-0.002425822	1.174901e-05	-0.0168271	-0.03310838	-0.00279769	-0.0004591011	0.07703771	0.02191612
	0.07783855	0.01841351	-0.00279769	-0.0004591011	-0.01488719	-0.03533865	-0.002487018	-0.0001028257
	-0.002000262	-0.0001410117	0.07703771	0.02191612	-0.002487018	-0.0001028257	-0.01621119	-0.03259304
2.8e+08	-0.01645533	-0.03443958	-0.00249592	0.0001386232	0.0803569	0.01503219	-0.002074775	-3.93965e-05
	-0.00249592	0.0001386232	-0.01759421	-0.03204318	-0.002921634	-0.0003218739	0.07969209	0.0187447
	0.0803569	0.01503219	-0.002921634	-0.0003218739	-0.01570113	-0.03455586	-0.002569047	2.557354e-05
	-0.002074775	-3.93965e-05	0.07969209	0.0187447	-0.002569047	2.557354e-05	-0.01694855	-0.03154245
2.9e+08	-0.01703639	-0.033561	-0.002558658	0.0002723507	0.08262517	0.0114405	-0.002143788	6.965576e-05
	-0.002558658	0.0002723507	-0.01810141	-0.03091094	-0.003038633	-0.0001719976	0.08211554	0.01535173
	0.08262517	0.0114405	-0.003038633	-0.0001719976	-0.01627961	-0.03371714	-0.002643808	0.0001619673
	-0.002143788	6.965576e-05	0.08211554	0.01535173	-0.002643808	0.0001619673	-0.01742726	-0.03042748
3e+08	-0.01737046	-0.03265699	-0.002613559	0.000412471	0.08462837	0.007658833	-0.002206745	0.0001858459
	-0.002613559	0.000412471	-0.01833906	-0.02974382	-0.003147529	-9.815387e-06	0.08429204	0.01175558
	0.08462837	0.007658833	-0.003147529	-9.815387e-06	-0.01661427	-0.03285278	-0.002710714	0.0003059118
	-0.002206745	0.0001858459	0.08429204	0.01175558	-0.002710714	0.0003059118	-0.01763761	-0.02928002
3.1e+08	-0.01745293	-0.03175904	-0.002660212	0.0005584879	0.08635372	0.003709157	-0.002263069	0.0003088853
	-0.002660212	0.0005584879	-0.01830094	-0.02857485	-0.003247131	0.0001643176	0.08620751	0.007975589
	0.08635372	0.003709157	-0.003247131	0.0001643176	-0.01670067	-0.03199424	-0.002769249	0.0004568659
	-0.002263069	0.0003088853	0.08620751	0.007975589	-0.002769249	0.0004568659	-0.01757343	-0.02813361
3.2e+08	-0.01728287	-0.03089961	-0.002698195	0.0007099076	0.08779004	-0.000386362	-0.002312229	0.0004383262
	-0.002698195	0.0007099076	-0.01798446	-0.02743827	-0.003336316	0.0003497539	0.08784939	0.004031993
	0.08779004	-0.000386362	-0.003336316	0.0003497539	-0.01653765	-0.03117322	-0.002818878	0.0006143526
	-0.002312229	0.0004383262	0.08784939	0.004031993	-0.002818878	0.0006143526	-0.01723268	-0.02702173
3.3e+08	-0.01686257	-0.03011103	-0.002727132	0.0008662122	0.08892755	-0.004604735	-0.002353689	0.0005737843
	-0.002727132	0.0008662122	-0.01739058	-0.02636823	-0.003413941	0.0005459547	0.0892063	-5.41664e-05
	0.08892755	-0.004604735	-0.003413941	0.0005459547	-0.01612729	-0.03042198	-0.002859115	0.0007778476
	-0.002353689	0.0005737843	0.0892063	-5.416645e-05	-0.002859115	0.0007778476	-0.01661634	-0.02597917
3.4e+08	-0.01619811	-0.0294257	-0.002746695	0.001026847	0.08975908	-0.008922298	-0.002386971	0.0007148248
	-0.002746695	0.001026847	-0.01652427	-0.02539908	-0.003478946	0.0007520315	0.09026906	-0.0042614
	0.08975908	-0.008922298	-0.003478946	0.0007520315	-0.01547559	-0.02977225	-0.002889518	0.000946806
	-0.002386971	0.0007148248	0.09026906	-0.0042614	-0.002889518	0.000946806	-0.01572949	-0.02503971
3.5e+08	-0.01529904	-0.02887507	-0.002756559	0.001191219	0.09027885	-0.01331558	-0.002411577	0.0008609254
	-0.002756559	0.001191219	-0.01539395	-0.0245646	-0.003530356	0.0009670791	0.09102958	-0.008567547
	0.09027885	-0.01331558	-0.003530356	0.0009670791	-0.01459178	-0.02925614	-0.002909662	0.001120583
	-0.002411577	0.0008609254	0.09102958	-0.008567547	-0.002909662	0.001120583	-0.01458072	-0.02423781
3.6e+08	-0.01417842	-0.02849059	-0.002756474	0.001358765	0.09048302	-0.01776048	-0.002427085	0.00101155
	-0.002756474	0.001358765	-0.01401158	-0.02389826	-0.003567172	0.001190175	0.0914818	-0.01294995
	0.09048302	-0.01776048	-0.003567172	0.001190175	-0.01348867	-0.0289038	-0.002919185	0.001298557
	-0.002427085	0.00101155	0.0914818	-0.01294995	-0.002919185	0.001298557	-0.01318248	-0.02360634
3.7e+08	-0.01285256	-0.02830176	-0.002746146	0.001528938	0.09036972	-0.02223298	-0.002433042	0.001166214
	-0.002746146	0.001528938	-0.01239268	-0.0234318	-0.003588542	0.001420214	0.09162135	-0.01738601
	0.09036972	-0.02223298	-0.003588542	0.001420214	-0.01218233	-0.02874501	-0.002917697	0.001480162
	-0.002433042	0.001166214	0.09162135	-0.01738601	-0.002917697	0.001480162	-0.0115505	-0.02317706
3.8e+08	-0.01134091	-0.02833661	-0.002725385	0.001701103	0.0899387	-0.0267093	-0.00242909	0.001324259
	-0.002725385	0.001701103	-0.01055604	-0.02319604	-0.003593738	0.001655919	0.09144511	-0.02185276
	0.0899387	-0.0267093	-0.003593738	0.001655919	-0.0106919	-0.02880812	-0.002904898	0.001664673
	-0.00242909	0.001324259	0.09144511	-0.02185276	-0.002904898	0.001664673	-0.009703826	-0.0229811
3.9e+08	-0.009666743	-0.02862208	-0.002694003	0.001874661	0.08919193	-0.03116573	-0.002414848	0.001485094
	-0.002694003	0.001874661	-0.008524593	-0.02322031	-0.003582123	0.001896011	0.09095231	-0.02632702
	0.08919193	-0.03116573	-0.003582123	0.001896011	-0.009040442	-0.02911872	-0.002880518	0.001851427
	-0.002414848	0.001485094	0.09095231	-0.02632702	-0.002880518	0.001851427	-0.00766561	-0.02304659
4e+08	-0.007855948	-0.02918213	-0.002651839	0.002048991	0.08813285	-0.03557898	-0.002389996	0.001648047
	-0.002651839	0.002048991	-0.006323772	-0.02353142	-0.003553104	0.002139199	0.09014336	-0.03078602
	0.08813285	-0.03557898	-0.003553104	0.002139199	-0.007253132	-0.02970176	-0.002844263	0.00203976
	-0.002389996	0.001648047	0.09014336	-0.03078602	-0.002844263	0.00203976	-0.005461174	-0.02340093
4.1e+08	-0.005936543	-0.03003859	-0.002598746	0.002223482	0.08676669	-0.03992603	-0.002354256	0.001812438
	-0.002598746	0.002223482	-0.003981332	-0.02415369	-0.003506396	0.002383937	0.08902044	-0.03520681
	0.08676669	-0.03992603	-0.003506396	0.002383937	-0.005358	-0.03057857	-0.002796002	0.002228869
	-0.002354256	0.001812438	0.08902044	-0.03520681	-0.002796002	0.002228869	-0.003118938	-0.02406815
4.2e+08	-0.003940187	-0.03121052	-0.00253464	0.002397483	0.08510055	-0.04418509	-0.002307434	0.001977537
	-0.00253464	0.002397483	-0.001529391	-0.02510926	-0.003441635	0.002628895	0.08758771	-0.03956702
	0.08510055	-0.04418509	-0.003441635	0.002628895	-0.003386282	-0.03176827	-0.002735536	0.002418064
	-0.002307434	0.001977537	0.08758771	-0.03956702	-0.002735536	0.002418064	-0.0006711307	-0.02506992
4.3e+08	-0.001899919	-0.03271392	-0.002459436	0.002570368	0.08314301	-0.04833441	-0.002249227	0.002142672
	-0.002459436	0.002570368	0.0009986269	-0.02641694	-0.003358811	0.002872447	0.08585048	-0.0438447
	0.08314301	-0.04833441	-0.003358811	0.002872447	-0.00137095	-0.03328694	-0.002662688	0.002606649
	-0.002249227	0.002142672	0.08585048	-0.0438447	-0.002662688	0.002606649	0.001848966	-0.02642489
4.4e+08	0.0001488982	-0.03456154	-0.002373095	0.002741471	0.08090407	-0.05235355	-0.002179533	0.002307043
	-0.002373095	0.002741471	0.003567254	-0.02809254	-0.00325789	0.003113159	0.08381594	-0.04801819
	0.08090407	-0.05235355	-0.00325789	0.003113159	0.0006532941	-0.0351474	-0.002577459	0.002793755
	-0.002179533	0.002307043	0.08381594	-0.04801819	-0.002577459	0.002793755	0.004405243	-0.02814858
4.5e+08	0.002168816	-0.03676276	-0.002275607	0.002910157	0.07839575	-0.05622287	-0.002098289	0.002469843
	-0.002275607	0.002910157	0.006137938	-0.03014826	-0.003139002	0.003349595	0.08149297	-0.05206668
	0.07839575	-0.05622287	-0.003139002	0.003349595	0.002649278	-0.03735909	-0.002479823	0.002978635
	-0.002098289	0.002469843	0.08149297	-0.05206668	-0.002479823	0.002978635	0.006959222	-0.03025295
4.6e+08	0.00412115	-0.03932348	-0.002167051	0.003075695	0.07563112	-0.05992407	-0.002005398	0.002630303
	-0.002167051	0.003075695	0.008670749	-0.032593	-0.003002582	0.003580151	0.07889177	-0.05596994
	0.07563112	-0.05992407	-0.003002582	0.003580151	0.004578652	-0.03992806	-0.002369647	0.003160573
	-0.002005398	0.002630303	0.07889177	-0.05596994	-0.002369647	0.003160573	0.009471478	-0.03274659
4.7e+08	0.005966865	-0.04224486	-0.002047416	0.003237468	0.07262454	-0.06343981	-0.00190091	0.002787577
	-0.002047416	0.003237468	0.01112591	-0.03543087	-0.002849096	0.003803386	0.07602402	-0.05970909
	0.07262454	-0.06343981	-0.002849096	0.003803386	0.006402458	-0.04285604	-0.002247117	0.003338708
	-0.00190091	0.002787577	0.07602402	-0.05970909	-0.002247117	0.003338708	0.01190098	-0.03563369
4.8e+08	0.007665644	-0.04552568	-0.001916799	0.003394804	0.06939175	-0.06675418	-0.001784835	0.002940866
	-0.001916799	0.003394804	0.0134612	-0.03866366	-0.002679041	0.004018041	0.07290288	-0.06326565
	0.06939175	-0.06675418	-0.002679041	0.004018041	0.008080891	-0.04614113	-0.002112247	0.003512273
