!$
! Info: Touchstone file created by Circ.  Input file=Intel_C2M_200G_8p5in_202208016_staggered.circ
!$
# Hz S RI R 50
0	0.02305942	4.660066e-24	0.9767413	-7.940023e-24	0.0001289128	3.173882e-22	-0.0002593275	3.175846e-20
	0.9767413	-7.936855e-24	0.02361232	8.410006e-24	-0.0002593834	3.176531e-20	0.0003518264	7.949488e-22
	0.0001289699	3.175138e-22	-0.0002595194	3.178196e-20	0.02305739	4.409756e-24	0.9767416	-8.099038e-24
	-0.0002594634	3.177511e-20	0.0003518933	7.955074e-22	0.9767416	-8.102212e-24	0.02361374	8.607993e-24
1e+07	0.02815065	-0.004544414	0.9630325	-0.1269272	0.002121961	0.00713316	-0.001090362	-0.0002797603
	0.9630325	-0.1269272	0.02784944	-0.004177107	-0.001090397	-0.0002796623	0.001914094	0.00719207
	0.002121961	0.00713316	-0.001090397	-0.0002796623	0.02797385	-0.0045137	0.9632144	-0.1269334
	-0.001090362	-0.0002797603	0.001914094	0.00719207	0.9632144	-0.1269334	0.027672	-0.004145311
2e+07	0.03088602	-0.01397366	0.9343418	-0.2464326	0.005156646	0.01310148	-0.001140902	-3.922585e-05
	0.9343418	-0.2464326	0.02988499	-0.01290094	-0.001140857	-3.912094e-05	0.004338851	0.01346006
	0.005156653	0.01310146	-0.001140866	-3.923058e-05	0.03075773	-0.01384958	0.9344904	-0.2465142
	-0.001140909	-3.93293e-05	0.004338936	0.01345996	0.9344904	-0.2465142	0.02974793	-0.01277014
3e+07	0.03033107	-0.02522055	0.8925428	-0.3592972	0.009646479	0.01812961	-0.0009849949	0.0001089673
	0.8925428	-0.3592972	0.02781722	-0.02321436	-0.0009850557	0.0001092411	0.008023748	0.01894886
	0.009646462	0.01812965	-0.0009850963	0.0001092487	0.03024615	-0.02504229	0.892661	-0.3594155
	-0.0009850073	0.0001089644	0.008023724	0.01894883	0.892661	-0.3594155	0.02773078	-0.0230319
4e+07	0.02678614	-0.03654152	0.8379665	-0.4651282	0.01533026	0.02172728	-0.000701233	9.553205e-05
	0.8379665	-0.4651282	0.02259461	-0.03277638	-0.0007013682	9.611312e-05	0.01267312	0.02346007
	0.01533027	0.0217273	-0.0007013715	9.611781e-05	0.02675167	-0.03633012	0.838054	-0.4652728
	-0.0007012313	9.554528e-05	0.01267312	0.02346008	0.838054	-0.4652728	0.02255739	-0.0325595
5e+07	0.02069755	-0.04701948	0.771442	-0.5627095	0.02179097	0.02368036	-0.0003858061	-0.0001278747
	0.771442	-0.5627095	0.01480773	-0.04074618	-0.0003859967	-0.0001269291	0.01804806	0.02679372
	0.02179098	0.02368036	-0.0003859937	-0.0001269306	0.02071387	-0.04679087	0.771498	-0.5628746
	-0.0003858031	-0.0001278767	0.01804807	0.02679373	0.771498	-0.5628746	0.01481936	-0.04050852
6e+07	0.01249657	-0.0560741	0.6940582	-0.6508078	0.02858902	0.0238461	-0.0001452842	-0.0005733972
	0.6940582	-0.6508078	0.00508888	-0.04646118	-0.0001454843	-0.0005718983	0.02384324	0.02884372
	0.02858903	0.02384608	-0.0001454835	-0.0005719	0.01256163	-0.05584208	0.694081	-0.6509886
	-0.0001452828	-0.0005733983	0.02384324	0.02884372	0.694081	-0.6509886	0.005147093	-0.04621467
7e+07	0.002655828	-0.06326894	0.6070816	-0.7283058	0.03526014	0.0221966	-8.501453e-05	-0.001208092
	0.6070816	-0.7283058	-0.005820593	-0.04949225	-8.5023e-05	-0.001205954	0.02974526	0.0295855
	0.03526014	0.02219659	-8.499326e-05	-0.001206017	0.002765198	-0.06304634	0.607068	-0.7284965
	-8.501284e-05	-0.001208095	0.02974526	0.0295855	0.607068	-0.7284965	-0.005720718	-0.04924713
8e+07	-0.008294248	-0.06831213	0.5119061	-0.7942479	0.04135105	0.01881922	-0.0002908982	-0.001958015
	0.5119061	-0.7942479	-0.01714174	-0.04964188	-0.0002904794	-0.001955177	0.03545164	0.02907076
	0.04135105	0.01881922	-0.0002904793	-0.001955175	-0.008147301	-0.06811044	0.5118549	-0.7944436
	-0.0002908988	-0.001958013	0.03545164	0.02907076	0.5118549	-0.7944436	-0.01700744	-0.04940652
9e+07	-0.01979556	-0.07105983	0.4100084	-0.8478639	0.0464472	0.01390728	-0.0008162903	-0.002718927
	0.4100084	-0.8478639	-0.02810432	-0.04691636	-0.0008151124	-0.002715349	0.0406904	0.02742013
	0.04644721	0.01390728	-0.0008151079	-0.002715342	-0.01962084	-0.07088865	0.4099169	-0.8480565
	-0.0008162878	-0.002718918	0.0406904	0.02742013	0.4099169	-0.8480565	-0.02794415	-0.04669564
1e+08	-0.03125223	-0.07148141	0.3028426	-0.8885971	0.05019751	0.007742869	-0.001677017	-0.003368941
	0.3028426	-0.8885971	-0.03793135	-0.04148525	-0.001674726	-0.003364561	0.04523861	0.0248077
	0.05019751	0.007742868	-0.001674726	-0.003364562	-0.03106259	-0.07134803	0.3027128	-0.8887795
	-0.001677017	-0.003368941	0.04523861	0.0248077	0.3027128	-0.8887795	-0.03775529	-0.04128166
1.1e+08	-0.04222668	-0.07001455	0.1920672	-0.9155831	0.05230898	0.0006652205	-0.00282231	-0.003773337
	0.1920672	-0.9155831	-0.04603122	-0.03402498	-0.002816602	-0.003768491	0.04889359	0.02144096
	0.05230898	0.000665219	-0.002816603	-0.003768493	-0.04202593	-0.06997683	0.1918986	-0.9157529
	-0.00282231	-0.003773338	0.04889359	0.02144096	0.1918986	-0.9157529	-0.04584884	-0.0338185
1.2e+08	-0.05251309	-0.06659907	0.07965469	-0.9289558	0.05259435	-0.006845384	-0.004177864	-0.003861317
	0.07965469	-0.9289558	-0.05216839	-0.02475277	-0.004169835	-0.003857708	0.05154625	0.01760273
	0.05259435	-0.006845385	-0.004169836	-0.003857709	-0.05235564	-0.06661049	0.07944756	-0.9291032
	-0.004177865	-0.003861318	0.05154625	0.01760273	0.07944756	-0.9291032	-0.05197834	-0.02455053
1.3e+08	-0.06167047	-0.061475	-0.03289941	-0.9287875	0.05100084	-0.01435547	-0.005649706	-0.003554775
	-0.03289941	-0.9287875	-0.05587289	-0.01417715	-0.00564032	-0.003552891	0.05315995	0.01355356
	0.05100084	-0.01435547	-0.005640321	-0.003552892	-0.06155897	-0.061503	-0.03314157	-0.9289064
	-0.005649707	-0.003554776	0.05315995	0.01355356	-0.03314157	-0.9289064	-0.05568063	-0.01398043
1.4e+08	-0.06940394	-0.05497059	-0.1440607	-0.9152728	0.04756894	-0.02142411	-0.007116595	-0.002813863
	-0.1440607	-0.9152728	-0.05688378	-0.002914737	-0.007106091	-0.002813505	0.05375393	0.00955026
	0.04756893	-0.02142411	-0.007106092	-0.002813506	-0.06933161	-0.05500467	-0.1443326	-0.9153549
	-0.007116596	-0.002813863	0.05375393	0.009550261	-0.1443326	-0.9153549	-0.05669453	-0.002719521
1.5e+08	-0.07551532	-0.04745345	-0.252333	-0.8887569	0.04243546	-0.02762886	-0.008447679	-0.001639778
	-0.252333	-0.8887569	-0.05510736	0.008377804	-0.008436114	-0.001641366	0.05340365	0.005831843
	0.04243545	-0.02762886	-0.008436115	-0.001641366	-0.07548086	-0.04749224	-0.2526283	-0.888796
	-0.00844768	-0.001639778	0.05340365	0.005831843	-0.2526283	-0.888796	-0.05492409	0.008578755
1.6e+08	-0.07989929	-0.03930872	-0.3562729	-0.8497303	0.03582812	-0.03258705	-0.009517238	-7.544395e-05
	-0.3562729	-0.8497303	-0.05061253	0.01904566	-0.00950479	-7.955352e-05	0.0522342	0.002609566
	0.03582812	-0.03258705	-0.009504791	-7.955369e-05	-0.07990756	-0.03935182	-0.3565855	-0.8497216
	-0.009517238	-7.544412e-05	0.0522342	0.002609566	-0.3565855	-0.8497216	-0.05043489	0.01926137
1.7e+08	-0.08254032	-0.0309195	-0.4545054	-0.7988282	0.02805517	-0.03597441	-0.0102181	0.001798848
	-0.4545054	-0.7988282	-0.04362142	0.02847457	-0.01020522	0.001791646	0.05041235	5.704864e-05
	0.02805516	-0.03597441	-0.01020522	0.001791646	-0.08259962	-0.03096283	-0.4548268	-0.7987675
	-0.0102181	0.001798848	0.05041235	5.704901e-05	-0.4548268	-0.7987675	-0.04344537	0.02871374
1.8e+08	-0.08350688	-0.02264695	-0.5457317	-0.7368218	0.01949143	-0.03754095	-0.0104726	0.003873834
	-0.5457317	-0.7368218	-0.03449259	0.03612437	-0.01046019	0.003862992	0.04813803	-0.001695985
	0.01949143	-0.03754095	-0.01046019	0.003862992	-0.08362586	-0.02268169	-0.5460523	-0.7367063
	-0.0104726	0.003873834	0.04813803	-0.001695984	-0.5460523	-0.7367063	-0.03431142	0.03639428
1.9e+08	-0.08294211	-0.01481327	-0.6287379	-0.6646142	0.01056177	-0.03712429	-0.0102398	0.006022753
	-0.6287379	-0.6646142	-0.02369962	0.04155699	-0.01022904	0.006008064	0.0456343	-0.002569208
	0.01056177	-0.03712429	-0.01022904	0.006008064	-0.08312709	-0.01482608	-0.629048	-0.6644459
	-0.0102398	0.006022753	0.0456343	-0.002569207	-0.629048	-0.6644459	-0.02350406	0.04186308
2e+08	-0.08105019	-0.007685381	-0.7024112	-0.5832373	0.001721399	-0.03465878	-0.009518856	0.008113995
	-0.7024112	-0.5832373	-0.01180163	0.0444608	-0.009511309	0.008095655	0.04313614	-0.00253618
	0.001721399	-0.03465878	-0.009511309	0.008095654	-0.08130378	-0.007660894	-0.7027008	-0.5830158
	-0.009518856	0.008113995	0.04313614	-0.002536179	-0.7027008	-0.5830158	-0.01158082	0.04480537
2.1e+08	-0.07807937	-0.001465342	-0.7657535	-0.4938439	-0.006565147	-0.03018126	-0.008348102	0.01002445
	-0.7657535	-0.4938439	0.0005869825	0.04466555	-0.008344908	0.01000335	0.04088002	-0.001625857
	-0.006565147	-0.03018126	-0.008344908	0.01000335	-0.0783997	-0.001385826	-0.766013	-0.493574
	-0.008348102	0.01002445	0.04088002	-0.001625857	-0.766013	-0.493574	0.000845302	0.04504825
2.2e+08	-0.07430423	0.003718399	-0.8178939	-0.3977005	-0.01384648	-0.02383203	-0.0067985	0.01165127
	-0.8178939	-0.3977005	0.01283368	0.04215124	-0.006800839	0.01162862	0.03909024	7.73637e-05
	-0.01384648	-0.02383203	-0.006800839	0.01162862	-0.07468409	0.003870296	-0.8181155	-0.3973882
	-0.0067985	0.01165127	0.03909024	7.736375e-05	-0.8181155	-0.3973882	0.0131415	0.04256881
2.3e+08	-0.07000478	0.00781196	-0.858106	-0.2961785	-0.01970741	-0.01585142	-0.004965793	0.01292073
	-0.858106	-0.2961785	0.02432224	0.03704821	-0.004974132	0.01289831	0.03796703	0.00243642
	-0.01970741	-0.01585142	-0.004974132	0.01289831	-0.07043268	0.008051747	-0.8582843	-0.2958298
	-0.004965793	0.01292073	0.03796703	0.00243642	-0.8582843	-0.2958298	0.02469152	0.03749417
2.4e+08	-0.06544704	0.01083261	-0.8858302	-0.190735	-0.02379071	-0.006570889	-0.002957541	0.01379419
	-0.8858302	-0.190735	0.03449017	0.02962878	-0.002972139	0.01377382	0.03767408	0.005267987
	-0.02379071	-0.006570889	-0.002972139	0.01377382	-0.06590723	0.01117346	-0.8859611	-0.1903589
	-0.002957541	0.01379419	0.03767408	0.005267987	-0.8859611	-0.1903589	0.03493126	0.03009367
2.5e+08	-0.06086502	0.01286034	-0.900683	-0.08289897	-0.02581753	0.00360102	-0.0008817499	0.01426839
	-0.900683	-0.08289897	0.04286033	0.02028944	-0.0009020781	0.01425195	0.03832711	0.008351251
	-0.02581753	0.00360102	-0.0009020782	0.01425195	-0.06133881	0.01331128	-0.9007624	-0.08250157
	-0.00088175	0.01426839	0.03832711	0.008351251	-0.9007624	-0.08250157	0.04338176	0.02076063
2.6e+08	-0.05644634	0.01402398	-0.9024707	0.02575902	-0.02560464	0.01419723	0.001165267	0.01437259
	-0.9024707	0.02575902	0.04906863	0.009525772	0.001140628	0.01436186	0.03998521	0.01144037
	-0.02560464	0.01419723	0.001140628	0.01436186	-0.05691264	0.01459013	-0.9024967	0.02616829
	0.001165267	0.01437259	0.03998521	0.01144037	-0.9024967	0.02616829	0.04967584	0.009988506
2.7e+08	-0.05232207	0.01448478	-0.891198	0.1336477	-0.02307581	0.02471478	0.003109115	0.01416096
	-0.891198	0.1336477	0.05288491	-0.00209881	0.003081663	0.0141573	0.04264527	0.01427969
	-0.02307581	0.02471478	0.003081663	0.0141573	-0.05275858	0.01516633	-0.8911718	0.1340626
	0.003109115	0.01416096	0.04264527	0.01427969	-0.8911718	0.1340626	0.05358038	-0.001660734
2.8e+08	-0.04856139	0.01441702	-0.8670737	0.239187	-0.01826932	0.03464024	0.00490306	0.01370251
	-0.8670737	0.239187	0.05422461	-0.01398825	0.004875211	0.01370671	0.0462405	0.01661913
	-0.01826932	0.03464024	0.004875211	0.01370671	-0.04894593	0.01520904	-0.8669961	0.2396015
	0.00490306	0.01370251	0.0462405	0.01661913	-0.8669961	0.2396015	0.05500689	-0.01359167
2.9e+08	-0.04517382	0.01398872	-0.8305064	0.3408368	-0.01133821	0.04347614	0.006531085	0.01306953
	-0.8305064	0.3408368	0.05315072	-0.02555082	0.006505108	0.01308185	0.0506433	0.01823123
	-0.01133821	0.04347614	0.006505108	0.01308185	-0.04548493	0.01488165	-0.8303788	0.3412453
	0.006531085	0.01306953	0.0506433	0.01823123	-0.8303788	0.3412453	0.05401446	-0.0252127
3e+08	-0.04211567	0.01334373	-0.7820938	0.4371267	-0.002543797	0.05076658	0.008004368	0.01232665
	-0.7820938	0.4371267	0.04986743	-0.03623642	0.007982773	0.01234647	0.05567314	0.01892535
	-0.002543797	0.05076658	0.007982773	0.01234647	-0.04233406	0.01432344	-0.7819165	0.4375244
	0.008004368	0.01232665	0.05567314	0.01892535	-0.7819165	0.4375244	0.05080329	-0.03597232
3.1e+08	-0.03930239	0.01258717	-0.7226123	0.5266828	0.00775568	0.05612149	0.00935637	0.01152098
	-0.7226123	0.5266828	0.04470361	-0.04556871	0.00934153	0.01154657	0.06110817	0.01856124
	0.00775568	0.05612149	0.009341529	0.01154657	-0.03941122	0.01363551	-0.7223862	0.5270631
	0.00935637	0.01152098	0.06110817	0.01856124	-0.7223862	0.5270631	0.04569837	-0.04539193
3.2e+08	-0.0366238	0.01177543	-0.6529975	0.6082453	0.01912244	0.0592363	0.01063352	0.01067561
	-0.6529975	0.6082453	0.03808893	-0.05317241	0.01062722	0.01070479	0.06669907	0.01705628
	0.01912244	0.0592363	0.01062722	0.01070479	-0.03661054	0.0128701	-0.6527239	0.6086068
	0.01063352	0.01067561	0.06669907	0.01705628	-0.6527239	0.6086068	0.03912686	-0.05309335
3.3e+08	-0.03396256	0.01091119	-0.5743213	0.6806929	0.0310601	0.05990699	0.01188469	0.009786812
	-0.5743213	0.6806929	0.03052526	-0.0587939	0.01188769	0.009817318	0.0721848	0.01439049
	0.0310601	0.05990699	0.01188769	0.009817318	-0.03381876	0.0120273	-0.5740019	0.6810298
	0.01188469	0.009786812	0.0721848	0.01439049	-0.5740019	0.6810298	0.03158839	-0.05881879
3.4e+08	-0.03121211	0.009944307	-0.4877758	0.7430502	0.04303735	0.05804108	0.01314997	0.008826338
	-0.4877758	0.7430502	0.02255406	-0.06231253	0.01316268	0.0088547	0.07730951	0.0106066
	0.04303735	0.05804108	0.01316268	0.0088547	-0.03093492	0.01105518	-0.4874104	0.7433606
	0.01314997	0.008826338	0.07730951	0.0106066	-0.4874104	0.7433606	0.02362314	-0.06244341
3.5e+08	-0.02829386	0.008778674	-0.3946435	0.7945026	0.05451236	0.05366114	0.01445237	0.007745364
	-0.3946435	0.7945026	0.01472235	-0.06374474	0.01447394	0.007768495	0.08183641	0.005804799
	0.05451236	0.05366114	0.01447394	0.007768495	-0.0278853	0.009856689	-0.3942341	0.7947772
	0.01445237	0.007745364	0.08183641	0.005804799	-0.3942341	0.7947772	0.01577817	-0.06397923
3.6e+08	-0.02517083	0.007283038	-0.2962827	0.8343926	0.06495765	0.046905	0.01579029	0.006483277
	-0.2962827	0.8343926	0.007550171	-0.0632394	0.01581896	0.006498765	0.08556108	0.0001362316
	0.06495765	0.046905	0.01581896	0.006498765	-0.02463921	0.008300793	-0.2958305	0.8346263
	0.01579029	0.006483277	0.08556108	0.0001362316	-0.2958305	0.8346263	0.008574802	-0.06357021
3.7e+08	-0.02185868	0.005306028	-0.1941027	0.8622282	0.07388408	0.03801937	0.01713437	0.004977912
	-0.1941027	0.8622282	0.00150045	-0.06106537	0.01716754	0.004983352	0.08832147	-0.006207931
	0.07388408	0.03801937	0.01716754	0.004983352	-0.0212179	0.006237626	-0.1936096	0.8624158
	0.01713437	0.004977912	0.08832147	-0.006207931	-0.1936096	0.8624158	0.002478087	-0.06148157
3.8e+08	-0.01843024	0.002692862	-0.08955001	0.8776819	0.08086176	0.02734969	0.01842783	0.00317469
	-0.08955001	0.8776819	-0.003046839	-0.05759366	0.01846224	0.003169501	0.0900044	-0.01300798
	0.08086176	0.02734969	0.01846224	0.003169501	-0.01769943	0.003514818	-0.08902016	0.8778139
	0.01842783	0.00317469	0.0900044	-0.01300798	-0.08902016	0.8778139	-0.002128688	-0.05808115
3.9e+08	-0.01501711	-0.0006973038	0.01590635	0.880588	0.08554006	0.01532667	0.01959037	0.001039092
	0.01590635	0.880588	-0.005816101	-0.05327483	0.01962235	0.00102221	0.09055013	-0.0200279
	0.08554006	0.01532667	0.01962235	0.00102221	-0.0142209	-4.019127e-06	0.01646775	0.8806601
	0.01959037	0.001039092	0.09055013	-0.0200279	0.01646775	0.8806601	-0.004966046	-0.05381607
4e+08	-0.01180476	-0.004972314	0.1207914	0.8709468	0.08766318	0.002447756	0.0205251	-0.001438648
	0.1207914	0.8709468	-0.00665023	-0.04861067	0.02055131	-0.001465744	0.08995264	-0.02702775
	0.08766318	0.002447756	0.02055131	-0.001465744	-0.01097127	-0.004422222	0.1213789	0.8709495
	0.0205251	-0.001438648	0.08995264	-0.02702775	0.1213789	0.8709495	-0.005872032	-0.04918747
4.1e+08	-0.009023052	-0.01019139	0.2236435	0.8489179	0.08708274	-0.01074251	0.02112835	-0.0042363
	0.2236435	0.8489179	-0.005518773	-0.04412576	0.02114561	-0.004271364	0.08825863	-0.03377516
	0.08708274	-0.01074251	0.02114561	-0.004271364	-0.008183972	-0.009793449	0.2242498	0.848845
	0.02112835	-0.0042363	0.08825863	-0.03377516	0.2242498	0.848845	-0.004811611	-0.04471929
4.2e+08	-0.006934698	-0.01635288	0.3230177	0.8148281	0.08376671	-0.02367568	0.02130048	-0.007297929
	0.3230177	0.8148281	-0.002520558	-0.04033682	0.02130625	-0.007338168	0.08556376	-0.04005697
	0.08376671	-0.02367568	0.02130625	-0.007338168	-0.006123809	-0.01610938	0.323631	0.814674
	0.02130048	-0.007297929	0.08556376	-0.04005697	0.323631	0.814674	-0.001878665	-0.04092922
4.3e+08	-0.005816891	-0.0233827	0.4175114	0.7691646	0.07780243	-0.03578382	0.02095582	-0.01053754
	0.4175114	0.7691646	0.002123065	-0.03772265	0.02094911	-0.01057908	0.08200704	-0.04568775
	0.07780243	-0.03578382	0.02094911	-0.01057908	-0.005068394	-0.023289	0.4181211	0.7689249
	0.02095582	-0.01053754	0.08200704	-0.04568775	0.4181211	0.7689249	0.002709595	-0.0382982
4.4e+08	-0.005942731	-0.03112968	0.5057777	0.712578	0.0693961	-0.04652449	0.02003346	-0.01384269
	0.5057777	0.712578	0.008079269	-0.03669605	0.02001387	-0.0138816	0.07776347	-0.05051943
	0.0693961	-0.04652449	0.02001387	-0.0138816	-0.005290545	-0.03117406	0.5063702	0.7122503
	0.02003346	-0.01384269	0.07776347	-0.05051943	0.5063702	0.7122503	0.008624629	-0.03724219
4.5e+08	-0.007561969	-0.03936422	0.5865419	0.6458807	0.05886606	-0.05540628	0.01850398	-0.01708391
	0.5865419	0.6458807	0.01492208	-0.03757883	0.01847277	-0.01711631	0.07303606	-0.05444758
	0.05886606	-0.05540628	0.01847277	-0.01711631	-0.007037635	-0.03952785	0.5871035	0.645465
	0.01850398	-0.01708391	0.07303606	-0.05444758	0.5871035	0.645465	0.01544342	-0.03808707
4.6e+08	-0.01087874	-0.04778287	0.6586275	0.5700403	0.0466304	-0.06201218	0.01637349	-0.02012512
	0.6586275	0.5700403	0.02215689	-0.04058178	0.01633343	-0.02014747	0.06804479	-0.05741747
	0.0466304	-0.06201218	0.01633343	-0.02014747	-0.0105096	-0.04804043	0.6591444	0.5695374
	0.01637349	-0.02012512	0.06804479	-0.05741747	0.6591444	0.5695374	0.02267328	-0.04104857
4.7e+08	-0.01603014	-0.0560176	0.720982	0.4861702	0.03318941	-0.0660211	0.01368562	-0.02283422
	0.720982	0.4861702	0.02924943	-0.04578963	0.0136399	-0.02284418	0.06301547	-0.05942634
	0.03318941	-0.0660211	0.0136399	-0.02284418	-0.01583945	-0.0563378	0.7214376	0.4855853
	0.01368562	-0.02283422	0.06301547	-0.05942634	0.7214376	0.4855853	0.02978045	-0.04621683
4.8e+08	-0.02307139	-0.06365197	0.7726853	0.3955159	0.01910368	-0.06722379	0.01051618	-0.02509532
	0.7726853	0.3955159	0.03565586	-0.05315629	0.01046936	-0.02509136	0.05816774	-0.06052491
	0.01910368	-0.06722379	0.01046936	-0.02509136	-0.02307493	-0.06399811	0.7730682	0.3948583
	0.01051618	-0.02509532	0.05816774	-0.06052491	0.7730682	0.3948583	0.03622091	-0.05355037
4.9e+08	-0.03195884	-0.07023862	0.8129852	0.2994453	0.004967348	-0.06553516	0.006969217	-0.02681645
	0.8129852	0.2994453	0.04085624	-0.0625025	0.006925283	-0.02679895	0.0537023	-0.06081503
	0.004967348	-0.06553516	0.006925283	-0.02679895	-0.03216513	-0.07057119	0.8132828	0.2987226
	0.006969217	-0.02681645	0.0537023	-0.06081503	0.8132828	0.2987226	0.04147256	-0.06287625
5e+08	-0.04253961	-0.07532594	0.8413146	0.1994096	-0.008619659	-0.06099792	0.003164904	-0.02793701
	0.8413146	0.1994096	0.04438744	-0.07352909	0.003128494	-0.02790762	0.04978838	-0.06044381
	-0.008619659	-0.06099792	0.003128494	-0.02790762	-0.0429492	-0.07560291	0.8415138	0.1986369
	0.003164904	-0.02793701	0.04978838	-0.06044381	0.8415138	0.1986369	0.04506855	-0.07389892
5.1e+08	-0.05455063	-0.07848247	0.8572954	0.09693149	-0.02107994	-0.05378161	-0.0007677183	-0.02843048
	0.8572954	0.09693149	0.04586922	-0.08583123	-0.0007931906	-0.02839207	0.04655356	-0.05959582
	-0.02107994	-0.05378161	-0.0007931906	-0.02839207	-0.05515449	-0.0786623	0.8573898	0.09612294
	-0.0007677184	-0.02843048	0.04655356	-0.05959582	0.8573898	0.09612294	0.04662517	-0.08621757
5.2e+08	-0.06761832	-0.07932623	0.8607616	-0.006433417	-0.03188757	-0.04417322	-0.00470463	-0.0283032
	0.8607616	-0.006433417	0.04503034	-0.09892343	-0.004717192	-0.02825981	0.04407477	-0.05848122
	-0.03188757	-0.04417322	-0.004717192	-0.02825981	-0.06839926	-0.07936905	0.860743	-0.007262908
