!$
! Info: Touchstone file created by Circ.  Input file=Intel_C2M_200G_8p5in_202208016_staggered.circ
!$
# Hz S RI R 50
0	0.02361232	8.409325e-24	-0.0001080398	1.323106e-20	0.0003518282	7.949432e-22	-0.0001037623	1.270722e-20
	-0.0001080399	1.323107e-20	0.02305942	4.660066e-24	-0.0001151357	1.410006e-20	0.0001289128	3.173882e-22
	0.0003518951	7.955034e-22	-0.0001151358	1.410007e-20	0.02361355	8.610251e-24	-0.0001080651	1.323416e-20
	-0.0001037623	1.270721e-20	0.0001289699	3.175138e-22	-0.000108065	1.323415e-20	0.02305739	4.409756e-24
1e+07	0.02855519	-0.003981907	-0.0006462423	-3.872179e-05	0.001605054	0.007178215	-6.187475e-05	-0.0001101044
	-0.0006462423	-3.872179e-05	0.02815065	-0.004544414	-0.000913418	0.0001553697	0.002121961	0.00713316
	0.001605054	0.007178215	-0.000913418	0.0001553697	0.02819875	-0.003848457	-0.000474595	-6.17277e-05
	-6.187475e-05	-0.0001101044	0.002121961	0.00713316	-0.000474595	-6.17277e-05	0.02797385	-0.0045137
2e+07	0.03065799	-0.01285234	-0.00059183	-0.0003484236	0.004078417	0.01354803	-8.984918e-05	-0.0001756082
	-0.0005918299	-0.0003484236	0.03088602	-0.01397366	-0.0008487647	-9.75473e-05	0.005156646	0.01310148
	0.004078502	0.01354792	-0.0008487647	-9.754727e-05	0.03049037	-0.01250749	-0.000462386	-0.0002535576
	-8.984917e-05	-0.0001756082	0.005156653	0.01310146	-0.0004623861	-0.0002535576	0.03075773	-0.01384958
3e+07	0.02863112	-0.02327142	-0.0005930777	-0.0004814334	0.007805465	0.0190755	-0.0001358382	-0.0002331025
	-0.0005930776	-0.0004814334	0.03033107	-0.02522055	-0.0008022699	-0.0001721256	0.009646479	0.01812961
	0.007805441	0.01907547	-0.0008022699	-0.0001721256	0.02862846	-0.02286621	-0.0004942749	-0.0003561252
	-0.0001358382	-0.0002331025	0.009646462	0.01812965	-0.0004942749	-0.0003561252	0.03024615	-0.02504229
4e+07	0.02342424	-0.03294228	-0.0006329575	-0.0005658283	0.01249361	0.02360743	-0.000212508	-0.0002707751
	-0.0006329575	-0.0005658283	0.02678614	-0.03654152	-0.0007720581	-0.0002245584	0.01533026	0.02172728
	0.01249361	0.02360743	-0.0007720581	-0.0002245584	0.02356106	-0.03253099	-0.000554783	-0.0004190748
	-0.000212508	-0.0002707751	0.01533027	0.0217273	-0.000554783	-0.0004190748	0.02675167	-0.03633012
5e+07	0.01562896	-0.04102311	-0.0006986352	-0.0006165356	0.01790351	0.02695087	-0.0002988506	-0.0002916882
	-0.0006986353	-0.0006165356	0.02069755	-0.04701948	-0.0007591933	-0.0002766728	0.02179097	0.02368036
	0.01790352	0.02695088	-0.0007591933	-0.0002766728	0.01588223	-0.04064165	-0.0006341012	-0.0004514996
	-0.0002988506	-0.0002916882	0.02179098	0.02368036	-0.0006341012	-0.0004514995	0.02071387	-0.04679087
6e+07	0.005878298	-0.04684766	-0.0007807271	-0.0006378722	0.02372917	0.02900308	-0.0003915508	-0.0002949774
	-0.0007807271	-0.0006378722	0.01249657	-0.0560741	-0.0007687921	-0.000333961	0.02858902	0.0238461
	0.02372916	0.02900308	-0.0007687921	-0.000333961	0.00622336	-0.04652176	-0.000724249	-0.0004560942
	-0.0003915508	-0.0002949774	0.02858903	0.02384608	-0.0007242489	-0.0004560942	0.01256163	-0.05584208
7e+07	-0.00508553	-0.04998286	-0.0009163206	-0.0005837539	0.0296565	0.02974186	-0.0004863813	-0.0002793653
	-0.0009163206	-0.0005837539	0.002655828	-0.06326894	-0.0008056199	-0.0003940478	0.03526014	0.0221966
	0.0296565	0.02974186	-0.0008056199	-0.0003940478	-0.004675742	-0.04973028	-0.0008183478	-0.0004346015
	-0.0004863814	-0.0002793653	0.03526014	0.02219659	-0.0008183478	-0.0004346015	0.002765198	-0.06304634
8e+07	-0.01648263	-0.05022742	-0.001086746	-0.0004324876	0.03538274	0.02922096	-0.0005795704	-0.0002449529
	-0.001086746	-0.0004324876	-0.008294248	-0.06831213	-0.0008735578	-0.0004504747	0.04135105	0.01881922
	0.03538274	0.02922096	-0.0008735578	-0.0004504747	-0.01603714	-0.05005893	-0.0009102454	-0.0003888365
	-0.0005795704	-0.0002449529	0.04135105	0.01881922	-0.0009102454	-0.0003888365	-0.008147301	-0.06811044
9e+07	-0.02754219	-0.04758434	-0.001217996	-0.0002448095	0.04063621	0.02756326	-0.0006695071	-0.0001919307
	-0.001217996	-0.0002448095	-0.01979556	-0.07105983	-0.0009750569	-0.0004939969	0.0464472	0.01390728
	0.04063621	0.02756326	-0.0009750569	-0.0004939969	-0.02709153	-0.04750305	-0.001004318	-0.0003023442
	-0.0006695071	-0.0001919307	0.04644721	0.01390728	-0.001004318	-0.0003023441	-0.01962084	-0.07088865
1e+08	-0.03749408	-0.04222237	-0.001288308	-2.287024e-05	0.04519394	0.02494534	-0.0007511568	-0.0001207237
	-0.001288308	-2.287024e-05	-0.03125223	-0.07148141	-0.00110439	-0.0005128931	0.05019751	0.007742869
	0.04519394	0.02494534	-0.00110439	-0.0005128931	-0.03707708	-0.04222751	-0.001093398	-0.0001439065
	-0.0007511568	-0.0001207237	0.05019751	0.007742868	-0.001093398	-0.0001439065	-0.03106259	-0.07134803
1.1e+08	-0.04573459	-0.03477002	-0.001302009	0.0001475474	0.04885993	0.02157781	-0.0008256015	-3.718815e-05
	-0.001302009	0.0001475474	-0.04222668	-0.07001455	-0.001267884	-0.0004854301	0.05230898	0.0006652205
	0.04885993	0.02157781	-0.001267884	-0.0004854301	-0.04537994	-0.0347931	-0.001145694	-4.808339e-06
	-0.0008256015	-3.718815e-05	0.05230898	0.000665219	-0.001145694	-4.808359e-06	-0.04202593	-0.06997683
1.2e+08	-0.05198991	-0.02548148	-0.001319889	0.0003161003	0.05152465	0.0177374	-0.000894293	6.391239e-05
	-0.001319889	0.0003161003	-0.05251309	-0.06659907	-0.001454686	-0.0004148227	0.05259435	-0.006845384
	0.05152465	0.0177374	-0.001454686	-0.0004148227	-0.05168003	-0.02551456	-0.001193625	0.0001402148
	-0.000894293	6.391239e-05	0.05259435	-0.006845385	-0.001193625	0.0001402148	-0.05235564	-0.06661049
1.3e+08	-0.05579905	-0.01487331	-0.001324299	0.0004908536	0.05315045	0.01368507	-0.0009572189	0.0001823558
	-0.001324299	0.0004908536	-0.06167047	-0.061475	-0.001648941	-0.0002918565	0.05100084	-0.01435547
	0.05315045	0.01368507	-0.001648941	-0.0002918565	-0.05553202	-0.01490921	-0.0012275	0.0002946772
	-0.0009572189	0.0001823558	0.05100084	-0.01435547	-0.0012275	0.0002946772	-0.06155897	-0.061503
1.4e+08	-0.05690214	-0.003565239	-0.001310363	0.0006717474	0.05375639	0.009677548	-0.001002466	0.00031836
	-0.001310363	0.0006717474	-0.06940394	-0.05497059	-0.001835262	-0.0001125984	0.04756894	-0.02142411
	0.05375639	0.009677548	-0.001835262	-0.0001125984	-0.05667743	-0.003593763	-0.001244483	0.0004578611
	-0.001002466	0.00031836	0.04756893	-0.02142411	-0.001244483	0.0004578611	-0.06933161	-0.05500467
1.5e+08	-0.0552055	0.007783718	-0.001274751	0.0008573507	0.05341779	0.00595374	-0.001026543	0.0004691825
	-0.001274751	0.0008573507	-0.07551532	-0.04745345	-0.001997744	0.0001222795	0.04243546	-0.02762886
	0.05341779	0.005953741	-0.001997744	0.0001222795	-0.05502098	0.007774652	-0.001242462	0.0006286053
	-0.001026543	0.0004691825	0.04243545	-0.02762886	-0.001242462	0.0006286053	-0.07548086	-0.04749224
1.6e+08	-0.05077765	0.01851681	-0.00121489	0.00104523	0.05225956	0.002724722	-0.001026326	0.0006313269
	-0.00121489	0.00104523	-0.07989929	-0.03930872	-0.002121157	0.0004074429	0.03582812	-0.03258705
	0.05225956	0.002724722	-0.002121157	0.0004074429	-0.05062811	0.01854005	-0.001219557	0.0008053707
	-0.001026326	0.0006313269	0.03582812	-0.03258705	-0.001219557	0.0008053707	-0.07990756	-0.03935182
1.7e+08	-0.04384024	0.02801777	-0.001128744	0.001232272	0.05044821	0.0001640457	-0.0009992152	0.0008007028
	-0.001128744	0.001232272	-0.08254032	-0.0309195	-0.002192276	0.0007333737	0.02805517	-0.03597441
	0.05044821	0.0001640461	-0.002192276	0.0007333737	-0.04371691	0.02808512	-0.00117389	0.0009862452
	-0.0009992152	0.0008007028	0.02805516	-0.03597441	-0.00117389	0.0009862452	-0.08259962	-0.03096283
1.8e+08	-0.0347514	0.03574448	-0.001014926	0.001414705	0.04818333	-0.001598632	-0.0009433264	0.0009726458
	-0.001014926	0.001414705	-0.08350688	-0.02264695	-0.002200877	0.001087327	0.01949143	-0.03754095
	0.04818333	-0.001598632	-0.002200877	0.001087327	-0.03464276	0.03586549	-0.001103722	0.001168896
	-0.0009433264	0.0009726458	0.01949143	-0.03754095	-0.001103722	0.001168896	-0.08362586	-0.02268169
1.9e+08	-0.02398431	0.04125674	-0.0008726815	0.001588276	0.04568762	-0.002482866	-0.0008576383	0.001142108
	-0.0008726815	0.001588276	-0.08294211	-0.01481327	-0.002140279	0.00145467	0.01056177	-0.03712429
	0.04568762	-0.002482866	-0.002140279	0.00145467	-0.02387638	0.04143845	-0.001007329	0.001350427
	-0.0008576383	0.001142108	0.01056177	-0.03712429	-0.001007329	0.001350427	-0.08312709	-0.01482608
2e+08	-0.01209808	0.04424028	-0.0007022936	0.001746682	0.04319569	-0.00246202	-0.0007420912	0.001303836
	-0.0007022936	0.001746682	-0.08105019	-0.007685381	-0.00197301	0.001852383	0.001721399	-0.03465878
	0.04319569	-0.002462019	-0.00197301	0.001852383	-0.01197509	0.04448665	-0.0008844635	0.00152611
	-0.0007420912	0.001303836	0.001721399	-0.03465878	-0.0008844635	0.00152611	-0.08130378	-0.007660894
2.1e+08	0.0002926423	0.04452297	-0.0005049302	0.001886886	0.04094367	-0.001564743	-0.0005975911	0.001452419
	-0.0005049302	0.001886886	-0.07807937	-0.001465342	-0.001730352	0.00222104	-0.006565147	-0.03018126
	0.04094367	-0.001564743	-0.001730352	0.00222104	0.0004478916	0.0448336	-0.0007331691	0.001693815
	-0.0005975911	0.001452419	-0.006565147	-0.03018126	-0.0007331691	0.001693815	-0.0783997	-0.001385826
2.2e+08	0.01255477	0.04208253	-0.0002823879	0.00200414	0.03915562	0.0001250038	-0.0004260978	0.001582705
	-0.0002823879	0.00200414	-0.07430423	0.003718399	-0.001420393	0.002545646	-0.01384648	-0.02383203
	0.03915562	0.0001250038	-0.001420393	0.002545646	0.01275895	0.0424532	-0.0005527109	0.001848998
	-0.0004260978	0.001582705	-0.01384648	-0.02383203	-0.0005527109	0.001848998	-0.07468409	0.003870296
2.3e+08	0.02407114	0.03704694	-3.746945e-05	0.002093838	0.03803166	0.002470702	-0.0002305646	0.001689975
	-3.746945e-05	0.002093838	-0.07000478	0.00781196	-0.001054556	0.002814037	-0.01970741	-0.01585142
	0.03803166	0.002470702	-0.001054556	0.002814037	0.02434037	0.03746945	-0.0003431743	0.001986561
	-0.0002305646	0.001689975	-0.01970741	-0.01585142	-0.0003431743	0.001986561	-0.07043268	0.008051747
2.4e+08	0.03427774	0.02968637	0.0002262272	0.002151788	0.03773549	0.005289558	-1.478043e-05	0.001770137
	0.0002262272	0.002151788	-0.06544704	0.01083261	-0.0006462244	0.003017701	-0.02379071	-0.006570889
	0.03773549	0.005289558	-0.0006462244	0.003017701	0.03462606	0.03014885	-0.0001055901	0.00210096
	-1.478043e-05	0.001770137	-0.02379071	-0.006570889	-0.0001055901	0.00210096	-0.06590723	0.01117346
2.5e+08	0.04269561	0.02039535	0.0005041129	0.002174351	0.03838306	0.008361296	0.0002168599	0.001819871
	0.0005041129	0.002174351	-0.06086502	0.01286034	-0.0002095891	0.003151911	-0.02581753	0.00360102
	0.03838306	0.008361296	-0.0002095891	0.003151911	0.04313449	0.02088226	0.0001577888	0.002186491
	0.0002168599	0.001819871	-0.02581753	0.00360102	0.0001577888	0.002186491	-0.06133881	0.01331128
2.6e+08	0.04895836	0.00966798	0.0007909154	0.002158652	0.04003375	0.01144055	0.0004594121	0.001836793
	0.0007909154	0.002158652	-0.05644634	0.01402398	0.0002415236	0.00321562	-0.02560464	0.01419723
	0.04003375	0.01144055	0.0002415236	0.00321562	0.04949534	0.01016125	0.0004434341	0.002237531
	0.0004594121	0.001836793	-0.02560464	0.01419723	0.0004434341	0.002237531	-0.05691264	0.01459013
2.7e+08	0.05283315	-0.001933418	0.001080784	0.002102781	0.0426849	0.01427205	0.0007078118	0.001819383
	0.001080784	0.002102781	-0.05232207	0.01448478	0.0006945783	0.003210863	-0.02307581	0.02471478
	0.0426849	0.01427205	0.0006945783	0.003210863	0.05347211	-0.00145341	0.0007464818	0.002248911
	0.0007078118	0.001819383	-0.02307581	0.02471478	0.0007464818	0.002248911	-0.05275858	0.01516633
2.8e+08	0.05423261	-0.01381327	0.00136751	0.002005914	0.04627024	0.0166059	0.0009568439	0.001767059
	0.00136751	0.002005914	-0.04856139	0.01441702	0.00113925	0.003141861	-0.01826932	0.03464024
	0.04627024	0.0166059	0.00113925	0.003141861	0.05497266	-0.01336675	0.001060761	0.002216308
	0.0009568439	0.001767059	-0.01826932	0.03464024	0.001060761	0.002216308	-0.04894593	0.01520904
2.9e+08	0.05321676	-0.02537965	0.001644747	0.001868373	0.05066271	0.01821471	0.001201498	0.001680062
	0.001644747	0.001868373	-0.04517382	0.01398872	0.001567551	0.003014109	-0.01133821	0.04347614
	0.05066271	0.01821471	0.001567551	0.003014109	0.05405245	-0.02498686	0.001379101	0.002136535
	0.001201498	0.001680062	-0.01133821	0.04347614	0.001379101	0.002136535	-0.04548493	0.01488165
3e+08	0.04998698	-0.03608168	0.001906348	0.001691608	0.0556823	0.01890782	0.001437049	0.001559344
	0.001906348	0.001691608	-0.04211567	0.01334373	0.001973774	0.0028334	-0.002543797	0.05076658
	0.0556823	0.01890782	0.001973774	0.0028334	0.0509082	-0.0357611	0.001693503	0.002007866
	0.001437049	0.001559344	-0.002543797	0.05076658	0.001693503	0.002007866	-0.04233406	0.01432344
3.1e+08	0.04486948	-0.04544154	0.002146612	0.001478148	0.06110761	0.01854478	0.001659155	0.00140637
	0.002146612	0.001478148	-0.03930239	0.01258717	0.002354174	0.002604924	0.00775568	0.05612149
	0.06110761	0.01854478	0.002354174	0.002604924	0.04586186	-0.04520902	0.001995553	0.001830288
	0.001659155	0.00140637	0.00775568	0.05612149	0.001995553	0.001830288	-0.03941122	0.01363551
3.2e+08	0.03829176	-0.05308198	0.002360471	0.001231347	0.06668968	0.01704264	0.001863793	0.001223135
	0.002360471	0.001231347	-0.0366238	0.01177543	0.002706158	0.002332949	0.01912244	0.0592363
	0.06668968	0.01704264	0.002706158	0.002332949	0.03933789	-0.05295002	0.002276917	0.001605396
	0.001863793	0.001223135	0.01912244	0.0592363	0.002276917	0.001605396	-0.03661054	0.0128701
3.3e+08	0.03075394	-0.05874688	0.002543647	0.0009552228	0.07216768	0.01438118	0.002047385	0.001011874
	0.002543647	0.0009552228	-0.03396256	0.01091119	0.00302772	0.002020292	0.0310601	0.05990699
	0.07216768	0.01438118	0.00302772	0.002020292	0.03183398	-0.05872333	0.0025297	0.001336434
	0.002047385	0.001011874	0.0310601	0.05990699	0.0025297	0.001336434	-0.03381876	0.0120273
3.4e+08	0.02279638	-0.06231282	0.002692698	0.0006542189	0.07728595	0.01060275	0.002206706	0.0007750855
	0.002692698	0.0006542189	-0.03121211	0.009944307	0.00331644	0.001668803	0.04303735	0.05804108
	0.07728595	0.01060275	0.00331644	0.001668803	0.023889	-0.06240089	0.002746826	0.001028074
	0.002206706	0.0007750855	0.04303735	0.05804108	0.002746826	0.001028074	-0.03093492	0.01105518
3.5e+08	0.01496565	-0.06379327	0.002804965	0.0003329535	0.08180776	0.005807252	0.00233874	0.0005154492
	0.002804965	0.0003329535	-0.02829386	0.008778674	0.003569075	0.00127957	0.05451236	0.05366114
	0.08180776	0.005807252	0.003569075	0.00127957	0.01604953	-0.06399121	0.00292224	0.0006861983
	0.00233874	0.0005154492	0.05451236	0.05366114	0.00292224	0.0006861983	-0.0278853	0.009856689
3.6e+08	0.007782105	-0.06333415	0.002878545	-3.986142e-06	0.08552867	0.0001455607	0.002440738	0.0002358265
	0.002878545	-3.986142e-06	-0.02517083	0.007283038	0.003781075	0.0008534764	0.06495765	0.046905
	0.08552867	0.0001455607	0.003781075	0.0008534764	0.00883708	-0.06363484	0.003051207	0.0003175144
	0.002440738	0.0002358265	0.06495765	0.046905	0.003051207	0.0003175144	-0.02463921	0.008300793
3.7e+08	0.001709554	-0.06120148	0.002912026	-0.0003522079	0.08828661	-0.006191351	0.002510075	-6.083464e-05
	0.002912026	-0.0003522079	-0.02185868	0.005306028	0.003946515	0.0003921702	0.07388408	0.03801937
	0.08828661	-0.006191351	0.003946515	0.0003921702	0.002717735	-0.06159366	0.003130296	-7.086208e-05
	0.002510075	-6.083464e-05	0.07388408	0.03801937	0.003130296	-7.086208e-05	-0.0212179	0.006237626
3.8e+08	-0.002870458	-0.05776376	0.002904379	-0.0007073917	0.08996838	-0.01298399	0.002544217	-0.0003711893
	0.002904379	-0.0007073917	-0.01843024	0.002692862	0.004058327	-0.000101221	0.08086176	0.02734969
	0.08996838	-0.01298399	0.004058327	-0.000101221	-0.001923499	-0.05823253	0.003157352	-0.0004714704
	0.002544217	-0.0003711893	0.08086176	0.02734969	0.003157352	-0.0004714704	-0.01769943	0.003514818
3.9e+08	-0.005680285	-0.05346944	0.002854784	-0.001065387	0.09051419	-0.01999643	0.002540725	-0.0006916539
	0.002854784	-0.001065387	-0.01501711	-0.0006973038	0.004108862	-0.0006216381	0.08554006	0.01532667
	0.09051419	-0.01999643	0.004108862	-0.0006216381	-0.004804808	-0.05399605	0.00313146	-0.0008769783
	0.002540725	-0.0006916539	0.08554006	0.01532667	0.00313146	-0.0008769783	-0.0142209	-4.019127e-06
4e+08	-0.00656029	-0.04881879	0.002762512	-0.001422038	0.089918	-0.02698891	0.002497296	-0.00101815
	0.002762512	-0.001422038	-0.01180476	-0.004972314	0.004090527	-0.001161696	0.08766318	0.002447756
	0.089918	-0.02698891	0.004090527	-0.001161696	-0.005761373	-0.04938342	0.003052707	-0.001280348
	0.002497296	-0.00101815	0.08766318	0.002447756	0.003052707	-0.001280348	-0.01097127	-0.004422222
4.1e+08	-0.005477221	-0.04433542	0.002626886	-0.001773053	0.08822651	-0.03372918	0.002411875	-0.00134607
	0.002626886	-0.001773053	-0.009023052	-0.01019139	0.003996839	-0.001711298	0.08708274	-0.01074251
	0.08822651	-0.03372918	0.003996839	-0.001711298	-0.004754925	-0.04491736	0.002922144	-0.001674785
	0.002411875	-0.00134607	0.08708274	-0.01074251	0.002922144	-0.001674785	-0.008183972	-0.009793449
4.2e+08	-0.002526964	-0.04053585	0.002447371	-0.002113792	0.08553535	-0.04000429	0.002282828	-0.001670172
	0.002447371	-0.002113792	-0.006934698	-0.01635288	0.003823049	-0.00225835	0.08376671	-0.02367568
	0.08553535	-0.04000429	0.003823049	-0.00225835	-0.001875865	-0.04111511	0.002741474	-0.002054094
	0.002282828	-0.001670172	0.08376671	-0.02367568	0.002741474	-0.002054094	-0.006123809	-0.01610938
4.3e+08	0.002072007	-0.03789929	0.002223652	-0.002439184	0.08198349	-0.045629	0.002108959	-0.001984658
	0.002223652	-0.002439184	-0.005816891	-0.0233827	0.003567239	-0.002788764	0.07780243	-0.03578382
	0.08198349	-0.045629	0.003567239	-0.002788764	0.002662068	-0.03845802	0.002512921	-0.002412555
	0.002108959	-0.001984658	0.07780243	-0.03578382	0.002512921	-0.002412555	-0.005068394	-0.023289
4.4e+08	0.00798962	-0.03683967	0.001955872	-0.002743584	0.07774584	-0.0504554	0.001890006	-0.002283008
	0.001955872	-0.002743584	-0.005942731	-0.03112968	0.003230615	-0.00328773	0.0693961	-0.04652449
	0.07774584	-0.0504554	0.003230615	-0.00328773	0.008533645	-0.03736326	0.00223925	-0.002744727
	0.001890006	-0.002283008	0.0693961	-0.04652449	0.00223925	-0.002744727	-0.005290545	-0.03117406
4.5e+08	0.01480233	-0.0376805	0.001644866	-0.003020834	0.07302529	-0.05437937	0.001626743	-0.002558241
	0.001644866	-0.003020834	-0.007561969	-0.03936422	0.002817936	-0.003740503	0.05886606	-0.05540628
	0.07302529	-0.05437937	0.002817936	-0.003740503	0.01531881	-0.03815873	0.001923504	-0.003045673
	0.001626743	-0.002558241	0.05886606	-0.05540628	0.001923504	-0.003045673	-0.007037635	-0.03952785
4.6e+08	0.02201737	-0.04063489	0.001292492	-0.003264237	0.0680416	-0.05734625	0.001321108	-0.002803136
	0.001292492	-0.003264237	-0.01087874	-0.04778287	0.002337619	-0.004133335	0.0466304	-0.06201218
	0.0680416	-0.05734625	0.002337619	-0.004133335	0.02252725	-0.04106276	0.001568864	-0.003310757
	0.001321108	-0.002803136	0.0466304	-0.06201218	0.001568864	-0.003310757	-0.0105096	-0.04804043
4.7e+08	0.0291019	-0.04579017	0.0009016833	-0.003466917	0.06302033	-0.05935351	0.0009765338	-0.003010421
	0.0009016833	-0.003466917	-0.01603014	-0.0560176	0.001801038	-0.004454772	0.03318941	-0.0660211
	0.06302033	-0.05935351	0.001801038	-0.004454772	0.02962687	-0.0461688	0.001179077	-0.003535447
	0.0009765338	-0.003010421	0.03318941	-0.0660211	0.001179077	-0.003535447	-0.01583945	-0.0563378
4.8e+08	0.03551269	-0.05310315	0.0004768576	-0.003621963	0.05818087	-0.0604519	0.0005978397	-0.003173204
	0.0004768576	-0.003621963	-0.02307139	-0.06365197	0.001221739	-0.004696446	0.01910368	-0.06722379
	0.05818087	-0.0604519	0.001221739	-0.004696446	0.0360745	-0.05343876	0.0007580414	-0.003715403
	0.0005978397	-0.003173204	0.01910368	-0.06722379	0.0007580414	-0.003715403	-0.02307493	-0.06399811
4.9e+08	0.04072979	-0.06239766	2.40217e-05	-0.003722799	0.05372354	-0.06074328	0.0001913382	-0.003285309
	2.40217e-05	-0.003722799	-0.03195884	-0.07023862	0.0006148255	-0.004853375	0.004967348	-0.06553516
