!$
! Info: Touchstone file created by Circ.  Input file=Intel_C2M_200G_8p5in_202208016_staggered.circ
!$
# Hz S RI R 50
0	0.02304642	4.490954e-24	8.649237e-05	1.279701e-22	0.0001292943	3.194517e-22	8.642732e-05	1.277678e-22
	8.649237e-05	1.279701e-22	0.02305942	4.660066e-24	8.647578e-05	1.2788e-22	0.0001289128	3.173882e-22
	0.0001293514	3.195775e-22	8.647577e-05	1.278816e-22	0.02304131	4.27903e-24	8.644072e-05	1.276809e-22
	8.64273e-05	1.277693e-22	0.0001289699	3.175138e-22	8.644072e-05	1.276809e-22	0.02305739	4.409756e-24
1e+07	0.02846538	-0.004272613	1.686262e-05	8.196817e-06	0.001806917	0.007061854	3.486076e-06	2.240581e-05
	1.686262e-05	8.196817e-06	0.02815065	-0.004544414	5.357544e-05	7.37943e-06	0.002121961	0.00713316
	0.001806917	0.007061854	5.357544e-05	7.37943e-06	0.02883644	-0.004293687	2.26666e-05	2.634524e-05
	3.486076e-06	2.240581e-05	0.002121961	0.00713316	2.26666e-05	2.634524e-05	0.02797385	-0.0045137
2e+07	0.03143936	-0.01368021	8.274566e-06	2.422885e-05	0.004880193	0.01307769	4.406469e-06	6.824073e-06
	8.274565e-06	2.422885e-05	0.03088602	-0.01397366	3.752361e-05	2.411751e-05	0.005156646	0.01310148
	0.004880201	0.01307767	3.752361e-05	2.411751e-05	0.03166457	-0.01381511	1.726317e-05	2.178873e-05
	4.406469e-06	6.824072e-06	0.005156653	0.01310146	1.726317e-05	2.178873e-05	0.03075773	-0.01384958
3e+07	0.03106418	-0.02500147	2.635331e-05	2.771133e-05	0.009398042	0.01809555	6.076929e-06	2.974871e-06
	2.635332e-05	2.771133e-05	0.03033107	-0.02522055	2.909624e-05	3.702089e-05	0.009646479	0.01812961
	0.009398025	0.01809559	2.909623e-05	3.702089e-05	0.03118703	-0.02511245	1.460866e-05	2.221035e-05
	6.076931e-06	2.974871e-06	0.009646462	0.01812965	1.460866e-05	2.221036e-05	0.03024615	-0.02504229
4e+07	0.02765552	-0.03644535	4.06473e-05	2.396183e-05	0.01510429	0.02167203	8.00401e-06	1.693757e-06
	4.06473e-05	2.396183e-05	0.02678614	-0.03654152	2.381918e-05	4.41658e-05	0.01533026	0.02172728
	0.0151043	0.02167205	2.381918e-05	4.41658e-05	0.02771593	-0.03650131	1.322495e-05	2.28172e-05
	8.004011e-06	1.693757e-06	0.01533027	0.0217273	1.322495e-05	2.28172e-05	0.02675167	-0.03633012
5e+07	0.02166232	-0.04707772	5.110278e-05	1.590226e-05	0.02158423	0.02360082	1.02585e-05	1.41872e-06
	5.110278e-05	1.590226e-05	0.02069755	-0.04701948	3.904154e-05	3.677474e-05	0.02179097	0.02368036
	0.02158424	0.02360082	3.904154e-05	3.677474e-05	0.02169003	-0.04706657	1.878708e-05	1.88485e-05
	1.02585e-05	1.418719e-06	0.02179098	0.02368036	1.878708e-05	1.88485e-05	0.02071387	-0.04679087
6e+07	0.01351626	-0.05630657	5.797086e-05	5.47414e-06	0.02840047	0.02374246	1.201676e-05	3.632393e-07
	5.797086e-05	5.47414e-06	0.01249657	-0.0560741	4.985847e-05	2.607828e-05	0.02858902	0.0238461
	0.02840048	0.02374244	4.985847e-05	2.607828e-05	0.01353673	-0.05622673	2.310127e-05	1.378525e-05
	1.201676e-05	3.632397e-07	0.02858903	0.02384608	2.310127e-05	1.378525e-05	0.01256163	-0.05584208
7e+07	0.003690199	-0.0636861	6.134204e-05	-6.189391e-06	0.03509092	0.02207037	1.327393e-05	-1.185458e-06
	6.134204e-05	-6.189391e-06	0.002655828	-0.06326894	5.627861e-05	1.341584e-05	0.03526014	0.0221966
	0.03509092	0.02207037	5.627861e-05	1.341584e-05	0.003724356	-0.06354353	2.579906e-05	8.150915e-06
	1.327393e-05	-1.185458e-06	0.03526014	0.02219659	2.579906e-05	8.150915e-06	0.002765198	-0.06304634
8e+07	-0.00728531	-0.06891657	6.134572e-05	-1.825777e-05	0.04120456	0.01867215	1.402642e-05	-3.050486e-06
	6.134572e-05	-1.825777e-05	-0.008294248	-0.06831213	5.835809e-05	-1.854491e-07	0.04135105	0.01881922
	0.04120456	0.01867216	5.835809e-05	-1.854492e-07	-0.007221099	-0.06872198	2.689999e-05	2.249706e-06
	1.402642e-05	-3.050487e-06	0.04135105	0.01881922	2.689999e-05	2.249706e-06	-0.008147301	-0.06811044
9e+07	-0.01885337	-0.07184792	5.806244e-05	-3.008757e-05	0.04632917	0.01374068	1.427623e-05	-5.055607e-06
	5.806244e-05	-3.008757e-05	-0.01979556	-0.07105983	5.625656e-05	-1.368561e-05	0.0464472	0.01390728
	0.04632918	0.01374068	5.625656e-05	-1.368561e-05	-0.01874686	-0.07161415	2.640318e-05	-3.598405e-06
	1.427623e-05	-5.055607e-06	0.04644721	0.01390728	2.640318e-05	-3.598405e-06	-0.01962084	-0.07088865
1e+08	-0.03043288	-0.07245027	5.057184e-05	-4.159174e-05	0.0501152	0.007557388	1.394701e-05	-7.055914e-06
	5.057184e-05	-4.159174e-05	-0.03125223	-0.07148141	4.887461e-05	-2.691387e-05	0.05019751	0.007742869
	0.0501152	0.007557387	4.887461e-05	-2.691387e-05	-0.03026872	-0.07218717	2.390835e-05	-9.284046e-06
	1.394701e-05	-7.055914e-06	0.05019751	0.007742868	2.390835e-05	-9.284046e-06	-0.03106259	-0.07134803
1.1e+08	-0.04157588	-0.07106802	4.009152e-05	-4.607015e-05	0.05227675	0.0004586806	1.365932e-05	-8.497726e-06
	4.009152e-05	-4.607015e-05	-0.04222668	-0.07001455	3.777228e-05	-3.164975e-05	0.05230898	0.0006652205
	0.05227675	0.000458679	3.777228e-05	-3.164975e-05	-0.04133451	-0.07088631	2.011554e-05	-1.203415e-05
	1.365932e-05	-8.497726e-06	0.05230898	0.000665219	2.011554e-05	-1.203415e-05	-0.04202593	-0.06997683
1.2e+08	-0.05199885	-0.06770282	3.202528e-05	-4.856641e-05	0.05262299	-0.007084101	1.395569e-05	-1.003476e-05
	3.202528e-05	-4.856641e-05	-0.05251309	-0.06659907	2.953692e-05	-3.37151e-05	0.05259435	-0.006845384
	0.05262299	-0.007084102	2.953692e-05	-3.37151e-05	-0.05175663	-0.06757536	1.716506e-05	-1.402724e-05
	1.395569e-05	-1.003476e-05	0.05259435	-0.006845385	1.716506e-05	-1.402724e-05	-0.05235564	-0.06661049
1.3e+08	-0.0612792	-0.06261042	2.674388e-05	-4.964393e-05	0.05109794	-0.01463994	1.3794e-05	-1.210161e-05
	2.674388e-05	-4.964393e-05	-0.06167047	-0.061475	2.242846e-05	-3.461644e-05	0.05100084	-0.01435547
	0.05109794	-0.01463994	2.242846e-05	-3.461644e-05	-0.06105166	-0.06251343	1.441056e-05	-1.566633e-05
	1.3794e-05	-1.210161e-05	0.05100084	-0.01435547	1.441056e-05	-1.566633e-05	-0.06155897	-0.061503
1.4e+08	-0.06912587	-0.05612355	2.371486e-05	-5.011244e-05	0.04773878	-0.02177039	1.303176e-05	-1.457209e-05
	2.371486e-05	-5.011244e-05	-0.06940394	-0.05497059	1.600837e-05	-3.477455e-05	0.04756894	-0.02142411
	0.04773878	-0.02177039	1.600837e-05	-3.477455e-05	-0.06891713	-0.05605103	1.168694e-05	-1.704218e-05
	1.303176e-05	-1.457209e-05	0.04756893	-0.02142411	1.168694e-05	-1.704218e-05	-0.06933161	-0.05500467
1.5e+08	-0.07534229	-0.04861218	2.004385e-05	-5.079774e-05	0.04267827	-0.02805473	1.167734e-05	-1.717803e-05
	2.004385e-05	-5.079774e-05	-0.07551532	-0.04745345	1.017184e-05	-3.427211e-05	0.04243546	-0.02762886
	0.04267827	-0.02805473	1.017184e-05	-3.427211e-05	-0.07516063	-0.04856418	8.891795e-06	-1.81995e-05
	1.167734e-05	-1.717803e-05	0.04243545	-0.02762886	8.891795e-06	-1.81995e-05	-0.07548086	-0.04749224
1.6e+08	-0.07982383	-0.04046274	1.572009e-05	-5.149869e-05	0.03613965	-0.03311106	9.659672e-06	-1.979671e-05
	1.572009e-05	-5.149869e-05	-0.07989929	-0.03930872	4.791275e-06	-3.325912e-05	0.03582812	-0.03258705
	0.03613965	-0.03311106	4.791275e-06	-3.325912e-05	-0.07968235	-0.04043804	5.953844e-06	-1.913115e-05
	9.659672e-06	-1.979671e-05	0.03582812	-0.03258705	5.953844e-06	-1.913115e-05	-0.07990756	-0.03935182
1.7e+08	-0.08255499	-0.03205926	1.061816e-05	-5.203703e-05	0.02842627	-0.03661473	6.905294e-06	-2.228063e-05
	1.061816e-05	-5.203703e-05	-0.08254032	-0.0309195	8.206484e-07	-3.186315e-05	0.02805517	-0.03597441
	0.02842627	-0.03661473	8.206485e-07	-3.186315e-05	-0.0824688	-0.0320512	3.045668e-06	-1.983181e-05
	6.905294e-06	-2.228063e-05	0.02805516	-0.03597441	3.045668e-06	-1.983181e-05	-0.08259962	-0.03096283
1.8e+08	-0.08360392	-0.02376368	4.793239e-06	-5.213822e-05	0.01990815	-0.03831413	3.38789e-06	-2.444519e-05
	4.793239e-06	-5.213822e-05	-0.08350688	-0.02264695	-2.606218e-06	-3.022938e-05	0.01949143	-0.03754095
	0.01990815	-0.03831413	-2.606218e-06	-3.022938e-05	-0.08358684	-0.02375957	1.495967e-07	-2.023378e-05
	3.38789e-06	-2.444519e-05	0.01949143	-0.03754095	1.495968e-07	-2.023378e-05	-0.08362586	-0.02268169
1.9e+08	-0.083113	-0.01589904	-1.609964e-06	-5.15656e-05	0.01100556	-0.03804394	-8.205481e-07	-2.609483e-05
	-1.609964e-06	-5.15656e-05	-0.08294211	-0.01481327	-6.243182e-06	-2.827038e-05	0.01056177	-0.03712429
	0.01100556	-0.03804394	-6.243182e-06	-2.827038e-05	-0.08317503	-0.01588091	-3.114468e-06	-2.021558e-05
	-8.205481e-07	-2.609483e-05	0.01056177	-0.03712429	-3.114468e-06	-2.021558e-05	-0.08312709	-0.01482608
2e+08	-0.08128563	-0.008733403	-8.474533e-06	-5.011683e-05	0.00216975	-0.03573442	-5.649302e-06	-2.704765e-05
	-8.474533e-06	-5.011683e-05	-0.08105019	-0.007685381	-1.001327e-05	-2.589574e-05	0.001721399	-0.03465878
	0.00216975	-0.03573442	-1.001327e-05	-2.589574e-05	-0.08143139	-0.008680861	-6.665176e-06	-1.968256e-05
	-5.649302e-06	-2.704765e-05	0.001721399	-0.03465878	-6.665176e-06	-1.968256e-05	-0.08130378	-0.007660894
2.1e+08	-0.07836924	-0.002470215	-1.564302e-05	-4.761246e-05	-0.006137694	-0.03141706	-1.098198e-05	-2.712838e-05
	-1.564302e-05	-4.761246e-05	-0.07807937	-0.001465342	-1.384673e-05	-2.303981e-05	-0.006565147	-0.03018126
	-0.006137694	-0.03141706	-1.384673e-05	-2.303981e-05	-0.07859739	-0.0023606	-1.040521e-05	-1.855352e-05
	-1.098198e-05	-2.712838e-05	-0.006565147	-0.03018126	-1.040521e-05	-1.855352e-05	-0.0783997	-0.001385826
2.2e+08	-0.07463781	0.002760309	-2.290513e-05	-4.390029e-05	-0.01346708	-0.02522606	-1.665708e-05	-2.618144e-05
	-2.290513e-05	-4.390029e-05	-0.07430423	0.003718399	-1.765279e-05	-1.96415e-05	-0.01384648	-0.02383203
	-0.01346708	-0.02522606	-1.765279e-05	-1.96415e-05	-0.07494035	0.002948916	-1.422392e-05	-1.676448e-05
	-1.665708e-05	-2.618144e-05	-0.01384648	-0.02383203	-1.422392e-05	-1.676448e-05	-0.07468409	0.003870296
2.3e+08	-0.07037115	0.006902271	-3.000791e-05	-3.887171e-05	-0.01940339	-0.017395	-2.247242e-05	-2.408043e-05
	-3.000791e-05	-3.887171e-05	-0.07000478	0.00781196	-2.133062e-05	-1.56512e-05	-0.01970741	-0.01585142
	-0.01940339	-0.017395	-2.133062e-05	-1.56512e-05	-0.0707347	0.00718927	-1.799779e-05	-1.426937e-05
	-2.247242e-05	-2.408043e-05	-0.01970741	-0.01585142	-1.799779e-05	-1.426937e-05	-0.07043268	0.008051747
2.4e+08	-0.06583563	0.009970827	-3.666442e-05	-3.247314e-05	-0.02358784	-0.00824844	-2.818826e-05	-2.074131e-05
	-3.666442e-05	-3.247314e-05	-0.06544704	0.01083261	-2.476476e-05	-1.103604e-05	-0.02379071	-0.006570889
	-0.02358784	-0.00824844	-2.476476e-05	-1.103604e-05	-0.06624174	0.0103724	-2.159354e-05	-1.104114e-05
	-2.818826e-05	-2.074131e-05	-0.02379071	-0.006570889	-2.159354e-05	-1.104114e-05	-0.06590723	0.01117346
2.5e+08	-0.06126618	0.01204395	-4.256626e-05	-2.47152e-05	-0.02573818	0.001811658	-3.353862e-05	-1.612973e-05
	-4.256626e-05	-2.47152e-05	-0.06086502	0.01286034	-2.782791e-05	-5.779894e-06	-0.02581753	0.00360102
	-0.02573818	0.001811658	-2.782791e-05	-5.779894e-06	-0.06169295	0.01257115	-2.486725e-05	-7.074831e-06
	-3.353862e-05	-1.612973e-05	-0.02581753	0.00360102	-2.486725e-05	-7.074831e-06	-0.06133881	0.01331128
2.6e+08	-0.05685196	0.01324881	-4.739767e-05	-1.567835e-05	-0.02566612	0.012324	-3.824136e-05	-1.026877e-05
	-4.739767e-05	-1.567835e-05	-0.05644634	0.01402398	-3.038038e-05	1.109294e-07	-0.02560464	0.01419723
	-0.02566612	0.012324	-3.038038e-05	1.109294e-07	-0.05727489	0.01390771	-2.766784e-05	-2.388819e-06
	-3.824136e-05	-1.026877e-05	-0.02560464	0.01419723	-2.766784e-05	-2.388819e-06	-0.05691264	0.01459013
2.7e+08	-0.05272598	0.01374549	-5.085199e-05	-5.514219e-06	-0.02328885	0.02279017	-4.201118e-05	-3.242337e-06
	-5.085199e-05	-5.514219e-06	-0.05232207	0.01448478	-3.227207e-05	6.604599e-06	-0.02307581	0.02471478
	-0.02328885	0.02279017	-3.227207e-05	6.604599e-06	-0.05311943	0.01453633	-2.983862e-05	2.972111e-06
	-4.201118e-05	-3.242337e-06	-0.02307581	0.02471478	-2.983862e-05	2.972111e-06	-0.05275858	0.01516633
2.8e+08	-0.04895964	0.01370787	-5.264638e-05	5.553207e-06	-0.0186369	0.03269966	-4.457185e-05	4.801475e-06
	-5.264638e-05	5.553207e-06	-0.04856139	0.01441702	-3.334593e-05	1.363831e-05	-0.01826932	0.03464024
	-0.0186369	0.03269966	-3.334593e-05	1.363831e-05	-0.0492985	0.01462479	-3.122056e-05	8.930326e-06
	-4.457185e-05	4.801475e-06	-0.01826932	0.03464024	-3.122056e-05	8.930326e-06	-0.04894593	0.01520904
2.9e+08	-0.0455647	0.01330435	-5.253791e-05	1.723521e-05	-0.01185481	0.04155593	-4.567084e-05	1.36521e-05
	-5.253791e-05	1.723521e-05	-0.04517382	0.01398872	-3.34435e-05	2.111075e-05	-0.01133821	0.04347614
	-0.01185481	0.04155593	-3.34435e-05	2.111075e-05	-0.04582508	0.01433623	-3.165859e-05	1.53742e-05
	-4.567084e-05	1.36521e-05	-0.01133821	0.04347614	-3.165859e-05	1.53742e-05	-0.04548493	0.01488165
3e+08	-0.04249938	0.01267987	-5.033622e-05	2.918745e-05	-0.003195254	0.04890202	-4.50912e-05	2.304146e-05
	-5.033622e-05	2.918745e-05	-0.04211567	0.01334373	-3.241425e-05	2.887909e-05	-0.002543797	0.05076658
	-0.003195254	0.04890202	-3.241425e-05	2.887909e-05	-0.04266029	0.01381059	-3.100868e-05	2.215417e-05
	-4.50912e-05	2.304146e-05	-0.002543797	0.05076658	-3.100868e-05	2.215417e-05	-0.04233406	0.01432344
3.1e+08	-0.0396805	0.01194143	-4.59172e-05	4.101379e-05	0.006991871	0.05434459	-4.266495e-05	3.264897e-05
	-4.59172e-05	4.101379e-05	-0.03930239	0.01258717	-3.012352e-05	3.675964e-05	0.00775568	0.05612149
	0.006991871	0.05434459	-3.012352e-05	3.675964e-05	-0.0397242	0.01315057	-2.914786e-05	2.908096e-05
	-4.266495e-05	3.264897e-05	0.00775568	0.05612149	-2.914786e-05	2.908096e-05	-0.03941122	0.01363551
3.2e+08	-0.03699847	0.0111476	-3.922927e-05	5.228647e-05	0.01827628	0.05757392	-3.82841e-05	4.21092e-05
	-3.922927e-05	5.228647e-05	-0.0366238	0.01177543	-2.646844e-05	4.452223e-05	0.01912244	0.0592363
	0.01827628	0.05757392	-2.646844e-05	4.452223e-05	-0.03691227	0.01241068	-2.598301e-05	3.592964e-05
	-3.82841e-05	4.21092e-05	0.01912244	0.0592363	-2.598301e-05	3.592964e-05	-0.03661054	0.0128701
3.3e+08	-0.03433564	0.01030355	-3.030442e-05	6.255287e-05	0.03016782	0.05837916	-3.190982e-05	5.102433e-05
	-3.030442e-05	6.255287e-05	-0.03396256	0.01091119	-2.138611e-05	5.1901e-05	0.0310601	0.05990699
	0.03016782	0.05837916	-2.138611e-05	5.1901e-05	-0.03411166	0.01159372	-2.146435e-05	4.24406e-05
	-3.190982e-05	5.102433e-05	0.0310601	0.05990699	-2.146435e-05	4.24406e-05	-0.03381876	0.0120273
3.4e+08	-0.03158418	0.009361346	-1.926197e-05	7.135274e-05	0.04213975	0.05665956	-2.35849e-05	5.897316e-05
	-1.926197e-05	7.135274e-05	-0.03121211	0.009944307	-1.486872e-05	5.859718e-05	0.04303735	0.05804108
	0.04213975	0.05665956	-1.486872e-05	5.859718e-05	-0.03122067	0.01065056	-1.559278e-05	4.83305e-05
	-2.35849e-05	5.897316e-05	0.04303735	0.05804108	-1.559278e-05	4.83305e-05	-0.03093492	0.01105518
3.5e+08	-0.02866336	0.00822675	-6.317292e-06	7.823268e-05	0.05365295	0.05242862	-1.34336e-05	6.553027e-05
	-6.317292e-06	7.823268e-05	-0.02829386	0.008778674	-6.975513e-06	6.429257e-05	0.05451236	0.05366114
	0.05365295	0.05242862	-6.975513e-06	6.429257e-05	-0.02816383	0.009486588	-8.430713e-06	5.330126e-05
	-1.34336e-05	6.553027e-05	0.05451236	0.05366114	-8.430713e-06	5.330126e-05	-0.0278853	0.009856689
3.6e+08	-0.02553336	0.00676962	8.224523e-06	8.276342e-05	0.06418054	0.04581445	-1.675808e-06	7.027735e-05
	8.224523e-06	8.276342e-05	-0.02517083	0.007283038	2.165964e-06	6.866551e-05	0.06495765	0.046905
	0.06418054	0.04581445	2.165964e-06	6.866551e-05	-0.02490769	0.007972634	-1.086645e-07	5.705396e-05
	-1.675808e-06	7.027735e-05	0.06495765	0.046905	-1.086645e-07	5.705396e-05	-0.02463921	0.008300793
3.7e+08	-0.02220642	0.004838784	2.395549e-05	8.456054e-05	0.07323198	0.03705407	1.137484e-05	7.282566e-05
	2.395549e-05	8.456054e-05	-0.02185868	0.005306028	1.234498e-05	7.140602e-05	0.07388408	0.03801937
	0.07323198	0.03705407	1.234498e-05	7.140602e-05	-0.02146996	0.005959809	9.176935e-06	5.930495e-05
	1.137484e-05	7.282566e-05	0.07388408	0.03801937	9.176935e-06	5.930495e-05	-0.0212179	0.006237626
3.8e+08	-0.01875176	0.002278612	4.038128e-05	8.330067e-05	0.08037385	0.02648359	2.531184e-05	7.283674e-05
	4.038128e-05	8.330067e-05	-0.01843024	0.002692862	2.327906e-05	7.223598e-05	0.08086176	0.02734969
	0.08037385	0.02648359	2.327906e-05	7.223598e-05	-0.01792462	0.003295526	1.915568e-05	5.9802e-05
	2.531184e-05	7.283674e-05	0.08086176	0.02734969	1.915568e-05	5.9802e-05	-0.01769943	0.003514818
3.9e+08	-0.01529736	-0.001053747	5.691827e-05	7.874866e-05	0.08525004	0.01452511	3.964489e-05	7.004208e-05
	5.691827e-05	7.874866e-05	-0.01501711	-0.0006973038	3.46126e-05	7.092673e-05	0.08554006	0.01532667
	0.08525004	0.01452511	3.46126e-05	7.092673e-05	-0.01440454	-0.000158076	2.949841e-05	5.833925e-05
	3.964489e-05	7.004208e-05	0.08554006	0.01532667	2.949841e-05	5.833925e-05	-0.0142209	-4.019127e-06
4e+08	-0.01202544	-0.005269348	7.290867e-05	7.077913e-05	0.08759744	0.001668638	5.38013e-05	6.427166e-05
	7.290867e-05	7.077913e-05	-0.01180476	-0.004972314	4.592495e-05	6.731788e-05	0.08766318	0.002447756
	0.08759744	0.001668638	4.592495e-05	6.731788e-05	-0.01109453	-0.004507234	3.981499e-05	5.477704e-05
	5.38013e-05	6.427166e-05	0.08766318	0.002447756	3.981499e-05	5.477704e-05	-0.01097127	-0.004422222
4.1e+08	-0.009163229	-0.01043167	8.764523e-05	5.939666e-05	0.08725877	-0.01154714	6.715522e-05	5.546707e-05
	8.764523e-05	5.939666e-05	-0.009023052	-0.01019139	5.674681e-05	6.133274e-05	0.08708274	-0.01074251
	0.08725877	-0.01154714	5.674681e-05	6.133274e-05	-0.008224479	-0.009809896	4.967757e-05	4.905025e-05
	6.715522e-05	5.546707e-05	0.08708274	-0.01074251	4.967757e-05	4.905025e-05	-0.008183972	-0.009793449
4.2e+08	-0.006971744	-0.01654442	0.0001003902	4.475771e-05	0.08419184	-0.02455787	7.904317e-05	4.371149e-05
	0.0001003902	4.475771e-05	-0.006934698	-0.01635288	6.657923e-05	5.299296e-05	0.08376671	-0.02367568
	0.08419184	-0.02455787	6.657923e-05	5.299296e-05	-0.006056465	-0.01606341	5.862751e-05	4.118476e-05
	7.904317e-05	4.371149e-05	0.08376671	-0.02367568	5.862751e-05	4.118476e-05	-0.006123809	-0.01610938
4.3e+08	-0.005727721	-0.0235396	0.0001104135	2.718443e-05	0.07847292	-0.03679751	8.879917e-05	2.923486e-05
	0.0001104135	2.718443e-05	-0.005816891	-0.0233827	7.490536e-05	4.242544e-05	0.07780243	-0.03578382
	0.07847292	-0.03679751	7.490536e-05	4.242544e-05	-0.004866758	-0.02319359	6.619919e-05	3.130441e-05
	8.879917e-05	2.923486e-05	0.07780243	-0.03578382	6.619919e-05	3.130441e-05	-0.005068394	-0.023289
4.4e+08	-0.005705367	-0.0312728	0.0001170325	7.172329e-06	0.07029663	-0.04772319	9.579083e-05	1.241941e-05
	0.0001170325	7.172329e-06	-0.005942731	-0.03112968	8.12229e-05	2.987205e-05	0.0693961	-0.04652449
	0.07029663	-0.04772319	8.12229e-05	2.987205e-05	-0.004928554	-0.03104992	7.193807e-05	1.963593e-05
	9.579083e-05	1.241941e-05	0.0693961	-0.04652449	7.193807e-05	1.963593e-05	-0.005290545	-0.03117406
4.5e+08	-0.007157293	-0.03952139	0.0001196523	-1.462006e-05	0.05996972	-0.05684054	9.94538e-05	-6.193365e-06
	0.0001196523	-1.462006e-05	-0.007561969	-0.03936422	8.50652e-05	1.569035e-05	0.05886606	-0.05540628
	0.05996972	-0.05684054	8.50652e-05	1.569035e-05	-0.006491679	-0.03940395	7.542534e-05	6.504606e-06
	9.94538e-05	-6.193365e-06	0.05886606	-0.05540628	7.542534e-05	6.504606e-06	-0.007037635	-0.03952785
4.6e+08	-0.01029243	-0.04798871	0.0001178114	-3.738185e-05	0.04789933	-0.06372712	9.933451e-05	-2.592432e-05
	0.0001178114	-3.738185e-05	-0.01087874	-0.04778287	8.60252e-05	3.42374e-07	0.0466304	-0.06201218
	0.04789933	-0.06372712	8.60252e-05	3.42374e-07	-0.009760838	-0.047954	7.63e-05	-7.661216e-06
	9.933451e-05	-2.592432e-05	0.0466304	-0.06201218	7.63e-05	-7.661216e-06	-0.0105096	-0.04804043
4.7e+08	-0.01525484	-0.05631282	0.0001112213	-6.018313e-05	0.03457585	-0.06805391	9.512651e-05	-4.598431e-05
	0.0001112213	-6.018313e-05	-0.01603014	-0.0560176	8.378274e-05	-1.560144e-05	0.03318941	-0.0660211
	0.03457585	-0.06805391	8.378274e-05	-1.560144e-05	-0.01487645	-0.05633363	7.428098e-05	-2.234434e-05
	9.512651e-05	-4.598431e-05	0.03318941	-0.0660211	7.428098e-05	-2.234434e-05	-0.01583945	-0.0563378
4.8e+08	-0.02210866	-0.064082	9.980097e-05	-8.200955e-05	0.02055173	-0.0696016	8.670019e-05	-6.549536e-05
	9.980097e-05	-8.200955e-05	-0.02307139	-0.06365197	7.813151e-05	-3.14914e-05	0.01910368	-0.06722379
