# GHz S RI R 45
0.000     0.068849806000    0.000000000000    0.927322040000    -0.000000000000    0.011374629000    0.000000000000    -0.012032931000    -0.000000000000
            0.927322040000    -0.000000000000    0.068666888000    0.000000000000    -0.012055417000    -0.000000000000    0.011295420000    0.000000000000
            0.011374576000    0.000000000000    -0.012055468000    -0.000000000000    0.063092619000    -0.000000000000    0.932064360000    -0.000000000000
            -0.012032983000    -0.000000000000    0.011295378000    0.000000000000    0.932064360000    -0.000000000000    0.062974492000    0.000000000000
0.025     0.204949604896    -0.019295469281    0.095198158977    -0.894137301109    0.090230979391    0.005453597677    0.000996292954    0.021933519200
            0.095198158977    -0.894137301109    0.201504922483    -0.014249305973    0.000996395051    0.021936442578    0.090796565261    0.007458486328
            0.090230918643    0.005453608231    0.000996388437    0.021936465902    0.196469232456    -0.017941859298    0.095489229636    -0.899347911425
            0.000996286049    0.021933544539    0.090796522686    0.007458491605    0.095489229636    -0.899347911425    0.192898303261    -0.013280716146
0.050     0.053856147376    -0.090811984315    -0.881370291174    -0.208121676418    0.012012472739    -0.025614023129    0.009134559047    -0.008743958888
            -0.881370291174    -0.208121676418    0.058082213561    -0.087020183264    0.009129466720    -0.008749105052    0.012492530602    -0.025505776190
            0.012012445338    -0.025613998426    0.009129494665    -0.008749091790    0.047944065584    -0.084926484704    -0.886366053451    -0.208040543617
            0.009134588776    -0.008743945185    0.012492511571    -0.025505762128    -0.886366053451    -0.208040543617    0.051861782252    -0.081344246748
0.075     0.145424974110    -0.002551181521    -0.294841346400    0.839426824051    0.083965242206    0.022718460949    0.004091723607    -0.014316531646
            -0.294841346400    0.839426824051    0.140826089407    0.008998979033    0.004105246772    -0.014308897918    0.082401417446    0.029430441352
            0.083965202248    0.022718478448    0.004105261237    -0.014308922897    0.141194322544    0.002593520062    -0.295317846342    0.844156794613
            0.004091738847    -0.014316558491    0.082401386797    0.029430449865    -0.295317846342    0.844156794613    0.136038507362    0.013589493353
0.100     0.083284120743    -0.138905024098    0.786560050806    0.404375261274    0.032328603490    -0.048061843183    -0.016833190829    0.008241439150
            0.786560050806    0.404375261274    0.097539684969    -0.126835983357    -0.016823436675    0.008235684413    0.035763296083    -0.045709846438
            0.032328581168    -0.048061806375    -0.016823458952    0.008235666199    0.079130341463    -0.130651911721    0.791716377979    0.404981964235
            -0.016833215450    0.008241418425    0.035763272304    -0.045709819333    0.791716369076    0.404981959681    0.092339853165    -0.118977916703
0.125     0.074579794501    -0.027223318178    0.488152232232    -0.736372422016    0.067529022658    0.010670424615    0.000059472821    0.009502885400
            0.488152232232    -0.736372422016    0.073245147718    -0.017317631790    0.000046784735    0.009496020452    0.065586995123    0.022050661713
            0.067529002832    0.010670453979    0.000046760820    0.009496044370    0.076777067757    -0.020846543729    0.488665876071    -0.740983826845
            0.000059450566    0.009502907239    0.065586977770    0.022050678812    0.488665876071    -0.740983826845    0.074333974518    -0.010809833747
0.150     0.095498819854    -0.135621203979    -0.656144699434    -0.570672095700    0.058444430634    -0.064512909650    0.019603292994    -0.001011411192
            -0.656144699434    -0.570672095700    0.116740347120    -0.113263829038    0.019588720224    -0.001009244536    0.068152592466    -0.054683366905
            0.058444415038    -0.064512869806    0.019588740666    -0.001009217034    0.095220131206    -0.128952865468    -0.660811009879    -0.571896865114
            0.019603307109    -0.001011389931    0.068152584327    -0.054683346688    -0.660811009879    -0.571896865114    0.115069011925    -0.106613320673
0.175     0.004601245962    -0.062464217528    -0.648163051686    0.584938991874    0.045418399160    0.016651597028    -0.004336279069    -0.009313096185
            -0.648163051686    0.584938991874    0.012543134078    -0.061250496979    -0.004331992835    -0.009279090175    0.037534024102    0.029181063282
            0.045418401127    0.016651626525    -0.004331961714    -0.009279108015    0.009707060035    -0.054507185668    -0.649320775238    0.589816357917
            -0.004336249030    -0.009313112378    0.037534015138    0.029181087845    -0.649320775238    0.589816357917    0.015766131499    -0.052342714522
0.200     0.074258801894    -0.101400346784    0.493434577535    0.704358068098    0.083222969812    -0.070475400008    -0.014699739337    -0.004496649830
            0.493434577535    0.704358068098    0.095237686089    -0.073142237391    -0.014675483872    -0.004496424125    0.099786972101    -0.045815083048
            0.083222962908    -0.070475361738    -0.014675491936    -0.004496449010    0.079228020979    -0.098581014792    0.497807812653    0.705811830619
            -0.014699751570    -0.004496681629    0.099786964320    -0.045815052062    0.497807812653    0.705811830619    0.099177069752    -0.069122981873
0.225     -0.025818359542    -0.095732865190    0.762935296123    -0.399695878796    0.012161904629    -0.011906929809    0.004417368774    0.014852716913
            0.762935296123    -0.399695878796    -0.001644432809    -0.101017066221    0.004446459868    0.014807127162    0.010847477275    -0.005973158970
            0.012161917678    -0.011906886462    0.004446422079    0.014807136422    -0.019609694741    -0.090516685685    0.764979877221    -0.404213164975
            0.004417335023    0.014852724865    0.010847477231    -0.005973136247    0.764979877221    -0.404213164975    0.002754724107    -0.094162904061
0.250     0.028300423091    -0.065089511908    -0.302780916915    -0.796578804801    0.093260772061    -0.061284298875    0.009087944737    0.002954726078
            -0.302780916915    -0.796578804801    0.043845212732    -0.039797165088    0.009021144412    0.002937559354    0.110916065466    -0.019506207985
            0.093260782957    -0.061284264084    0.009021148371    0.002937593382    0.037432906577    -0.065907325064    -0.307194474432    -0.798657416149
            0.009087948883    0.002954760222    0.110916059906    -0.019506181861    -0.307194474432    -0.798657416149    0.052685231344    -0.037761274296
0.275     -0.031089528198    -0.100434658675    -0.826569982623    0.194438640970    -0.010434189266    -0.058249862177    0.001970455040    -0.016491522319
            -0.826569982623    0.194438640970    0.009600656851    -0.106133595478    0.001933846534    -0.016444843175    0.012225544205    -0.057661179900
            -0.010434175574    -0.058249844311    0.001933872196    -0.016444841164    -0.025483175854    -0.101252828109    -0.829179122911    0.198468549774
            0.001970489478    -0.016491522232    0.012225545857    -0.057661152972    -0.829179122911    0.198468549774    0.014817385923    -0.104925401872
0.300     -0.018913580400    -0.042950214195    0.094769463508    0.839824253185    0.073386586941    -0.041136640450    -0.009454923449    0.000374782221
            0.094769463508    0.839824253185    -0.009074237842    -0.029532030395    -0.009354980370    0.000459950608    0.084422502023    0.005553444625
            0.073386593201    -0.041136645642    -0.009354974864    0.000459915967    -0.009551091210    -0.046030772606    0.098827596147    0.842903141321
            -0.009454917928    0.000374747294    0.084422508387    0.005553469757    0.098827596147    0.842903141321    0.000728471000    -0.028900311415
0.325     -0.033988261303    -0.078319780684    0.836791759054    0.016386589801    -0.018588598984    -0.102337318941    -0.006382829366    0.011403201388
            0.836791759082    0.016386588341    0.018542686267    -0.078715094904    -0.006321548577    0.011283710001    0.040085411671    -0.097248707794
            -0.018588598984    -0.102337318941    -0.006321581539    0.011283699558    -0.030155774076    -0.084150073213    0.840145570018    0.012640723696
            -0.006382860649    0.011403191900    0.040085419325    -0.097248683007    0.840145570001    0.012640724869    0.024170104380    -0.082952088163
0.350     -0.049921129521    -0.033408433367    0.118794943691    -0.829380909119    0.019287528791    -0.023582661954    0.012266156414    0.001728775411
            0.118794943691    -0.829380909119    -0.040732579531    -0.039173334525    0.012195334755    0.001609534341    0.026152251944    0.001305511231
            0.019287536136    -0.023582667574    0.012195319588    0.001609565190    -0.044923545411    -0.037972465858    0.115403618452    -0.833227087094
            0.012266142046    0.001728805699    0.026152288561    0.001305600045    0.115403618452    -0.833227087094    -0.034400143719    -0.040934719106
0.375     -0.033947108787    -0.049058902221    -0.797268760110    -0.218478415093    -0.016938639821    -0.120430628867    0.006085708983    -0.005852094975
            -0.797268750466    -0.218478412450    0.022486909722    -0.039428507971    0.005975358036    -0.005649124265    0.070971008986    -0.099805044145
            -0.016938595707    -0.120430604777    0.005975382837    -0.005649108804    -0.031926759249    -0.059400013072    -0.801484260506    -0.215262249832
            0.006085737652    -0.005852077568    0.070971007244    -0.099805045384    -0.801484260506    -0.215262249832    0.028409069818    -0.048169114799
0.400     -0.063182244708    -0.027008756019    -0.321229785632    0.762019327840    -0.054248693486    -0.022296420713    -0.010042035688    -0.007741011443
            -0.321229785632    0.762019327840    -0.043904751921    -0.056343016555    -0.009929804409    -0.007689498994    -0.031290445841    -0.044483700373
            -0.054248684970    -0.022296428280    -0.009929782696    -0.007689523765    -0.064801344680    -0.033022578678    -0.318432413133    0.766520138326
            -0.010042013838    -0.007741036512    -0.031290388883    -0.044483619399    -0.318432413133    0.766520138326    -0.042997383755    -0.061945100035
0.425     -0.040854465388    -0.019648649699    0.712930203652    0.406297464914    -0.026867620956    -0.100671546267    -0.004251826641    0.003617833216
            0.712930203652    0.406297464914    0.008321489895    -0.001714514820    -0.004019409589    0.003445281887    0.067798300134    -0.071284746860
            -0.026867620956    -0.100671546267    -0.004019429433    0.003445258737    -0.040835425144    -0.028462845261    0.717922533677    0.403937351996
            -0.004251846444    0.003617810406    0.067798300403    -0.071284752125    0.717922533677    0.403937351996    0.012465227120    -0.009796913276
0.450     -0.067651042360    -0.017813179451    0.492254580589    -0.646268385622    -0.116334288335    -0.036874137161    0.001608137536    0.010507495223
            0.492254580589    -0.646268385622    -0.025220960179    -0.068691664856    0.001318541477    0.010431475205    -0.051005140906    -0.107862253038
            -0.116334196106    -0.036874130272    0.001318516777    0.010431493447    -0.074428704935    -0.024712484131    0.490200809064    -0.651502490335
            0.001608112512    0.010507513216    -0.051005140906    -0.107862253038    0.490200809064    -0.651502490335    -0.028501253853    -0.077790602502
0.475     -0.050158816005    0.007149294604    -0.584190266332    -0.568748087445    -0.032072767227    -0.030340037825    0.004714665979    -0.003993583070
            -0.584190266332    -0.568748087445    -0.022604138930    0.019409025037    0.004562663588    -0.003903346824    0.019886630546    -0.007614272436
            -0.032072766291    -0.030340047546    0.004562684796    -0.003903305113    -0.053628634539    0.002959943329    -0.589654943166    -0.567310387738
            0.004714685329    -0.003993544909    0.019886674391    -0.007614253008    -0.589654844152    -0.567310490652    -0.023341381664    0.013780679035
0.500     -0.068776022164    -0.006173294890    -0.624871310869    0.500673800637    -0.138694219933    -0.047120814276    0.007126631103    -0.005703636178
            -0.624871310869    0.500673800637    0.003627271274    -0.067444725580    0.007464306219    -0.005441659601    -0.025632863130    -0.140079253692
            -0.138694219933    -0.047120814276    0.007464308138    -0.005441659005    -0.076954279669    -0.011905464134    -0.623869882238    0.506446876177
            0.007126632936    -0.005703635809    -0.025632863130    -0.140079253692    -0.623869882238    0.506446876177    -0.001404948131    -0.076885846643
0.525     -0.064913082526    0.037348329674    0.411470979513    0.689001336001    -0.078284851979    0.050715649805    -0.010444019733    -0.001606773710
            0.411470979513    0.689001336001    -0.066369587916    0.013222204463    -0.010450339899    -0.001884220361    -0.077699069740    0.010316784189
            -0.078284771408    0.050715597609    -0.010450338588    -0.001884216359    -0.072185385363    0.037862583641    0.417256334817    0.688525079735
            -0.010444034493    -0.001606848754    -0.077699018557    0.010316804993    0.417256322800    0.688525087018    -0.072830201803    0.010050916389
0.550     -0.060624932528    0.010178367669    0.724948494682    -0.331597047186    -0.112558504670    -0.025698489106    -0.007973000420    -0.002286654806
            0.724948494682    -0.331597047186    0.030397819733    -0.041373846333    -0.008131714473    -0.002576715649    0.014561336644    -0.102286434137
            -0.112558504670    -0.025698489106    -0.008131796611    -0.002576712003    -0.066823123630    0.008209772821    0.725143651336    -0.337533244373
            -0.007973002342    -0.002286655358    0.014561331288    -0.102286434899    0.725143651336    -0.337533244373    0.024882256861    -0.047212959818
0.575     -0.085397494799    0.063734029834    -0.221205995331    -0.749415075800    -0.132355585743    0.107292167077    0.008951136236    0.017399132664
            -0.221205998162    -0.749415085391    -0.099958367091    -0.021431662325    0.008766114125    0.017845238779    -0.157152900709    -0.025420058748
            -0.132355585743    0.107292167077    0.008766107096    0.017845315765    -0.093018373795    0.067329817639    -0.227054275706    -0.750098786967
            0.008951133719    0.017399171069    -0.157152811864    -0.025420044377    -0.227054275706    -0.750098786967    -0.110339692448    -0.022995113994
0.600     -0.037078456777    0.045432963683    -0.782849663139    0.130883875034    -0.055201720732    0.046373735693    0.004369660393    -0.000826349041
            -0.782849663139    0.130883875034    0.029413309600    0.019918835330    0.004496970607    -0.000801449751    0.014978734358    0.005919498554
            -0.055201684525    0.046373655975    0.004497044355    -0.000801429207    -0.039947411720    0.048355052016    -0.784297432692    0.136628210923
            0.004369734702    -0.000826329047    0.014978731567    0.005919486569    -0.784297432692    0.136628210923    0.023710526542    0.019549771172
0.625     -0.097408268122    0.079087844943    0.037891639981    0.764624478905    -0.151564467127    0.126482890212    0.008213200004    -0.027913423323
            0.037891639981    0.764624478905    -0.105479390997    -0.064965174344    0.008470896710    -0.028270286111    -0.168266873089    -0.072819343934
            -0.151564435458    0.126482818909    0.008470910623    -0.028270316392    -0.102703713703    0.083662861984    0.043435062103    0.766622680982
            0.008213213781    -0.027913455753    -0.168266873089    -0.072819343934    0.043435062103    0.766622680982    -0.113516587347    -0.064084351417
0.650     -0.014445345355    0.108267411484    0.767652914614    0.082821655505    -0.009349786283    0.155030275803    -0.019854668612    0.010587960674
            0.767652915337    0.082821648806    -0.029324726179    0.087555620148    -0.020257675636    0.010659726523    -0.061699769002    0.118581803786
            -0.009349791093    0.155030265495    -0.020257741777    0.010659684578    -0.014448382178    0.114454162324    0.770337641576    0.077689086423
            -0.019854734440    0.010587920115    -0.061699764387    0.118581794915    0.770337640762    0.077689094490    -0.034665723899    0.091907311459
0.675     -0.081742843273    0.076062932111    0.150009709761    -0.751108884275    -0.098379682975    0.131535407770    -0.021290992571    0.019562248674
            0.150009696652    -0.751108886893    -0.062588212438    -0.084447440092    -0.021332920035    0.019747046396    -0.111554291163    -0.063753777555
            -0.098379687964    0.131535366576    -0.021332943741    0.019747075254    -0.082087852386    0.080306133794    0.145163360070    -0.754386985045
            -0.021291036820    0.019562309889    -0.111554299845    -0.063753782517    0.145163360070    -0.754386985045    -0.067474599611    -0.081542609835
0.700     -0.008240465927    0.171565274755    -0.689793647938    -0.259636576434    0.003329547730    0.240492042757    0.046764446614    0.006388118849
            -0.689793647938    -0.259636576434    -0.115023822288    0.111960586902    0.047243862996    0.006518596359    -0.162319518020    0.157515198026
            0.003329547730    0.240492042757    0.047243862814    0.006518597678    -0.006175554415    0.177449622520    -0.693608769562    -0.255436968885
            0.046764448362    0.006388120833    -0.162319518020    0.157515198026    -0.693608769562    -0.255436968885    -0.118731273040    0.118417369229
0.725     -0.015177313999    0.073708507969    -0.348865223487    0.685326909871    0.000986931921    0.103940954587    0.008371461307    -0.008676889629
            -0.348865223487    0.685326909871    0.014651754863    -0.035222786101    0.008254364556    -0.008946882870    0.001956224317    -0.001336484323
            0.000986930107    0.103940954604    0.008254366849    -0.008946883476    -0.012432527365    0.075756008911    -0.345048196151    0.690008813232
            0.008371495681    -0.008676913436    0.001956218383    -0.001336484676    -0.345048196151    0.690008813232    0.014069964085    -0.032529245916
0.750     -0.008925548982    0.207216221308    0.595326889200    0.397051334512    0.006119988658    0.260369334677    -0.045056547593    -0.042756095717
            0.595326889200    0.397051334512    -0.174894040765    0.095004145410    -0.045341628473    -0.042942521656    -0.208267938288    0.128926011119
            0.006119941570    0.260369265765    -0.045341621938    -0.042942515467    -0.005224958128    0.209792675404    0.600171985956    0.394192659936
            -0.045056541065    -0.042756089522    -0.208267884266    0.128925927398    0.600171985956    0.394192659936    -0.175192264972    0.101110530963
0.775     0.087718491403    0.101472980629    0.516946447674    -0.532447533152    0.137897265153    0.131640610098    0.000709003548    0.043080383115
            0.516946438381    -0.532447542174    0.043055931143    0.098462858538    0.000881708815    0.043431227020    0.049288985981    0.160362706820
            0.137897253324    0.131640608006    0.000881707279    0.043431226051    0.093472443733    0.101140171688    0.514755724941    -0.537905619755
