# GHz S RI R 45
0.000     0.068607518000    0.000000000000    -0.000015189230    0.000000000000    0.011371542000    0.000000000000    -0.000038232858    0.000000000000
            -0.000015189015    0.000000000000    0.068666888000    0.000000000000    -0.000007923646    0.000000000000    0.011295420000    0.000000000000
            0.011371630000    0.000000000000    -0.000007921656    0.000000000000    0.062944368000    -0.000000000000    -0.000054872381    0.000000000000
            -0.000038232715    0.000000000000    0.011295378000    0.000000000000    -0.000054872468    0.000000000000    0.062974492000    0.000000000000
0.025     0.205936305372    -0.021932283337    -0.000121180693    0.000012993864    0.090493293842    0.003609646117    -0.000119939528    0.000023920614
            -0.000121180686    0.000012993842    0.201504922483    -0.014249305973    -0.000135509233    0.000013330829    0.090796565261    0.007458486328
            0.090493308302    0.003609584683    -0.000135509230    0.000013330662    0.197403584764    -0.020573987716    -0.000120322656    0.000014963201
            -0.000119939528    0.000023920614    0.090796522686    0.007458491605    -0.000120322667    0.000014963352    0.192898303261    -0.013280716146
0.050     0.050408986978    -0.091013215798    -0.000076230830    0.000308919187    0.009798581894    -0.025375062198    -0.000075910118    0.000324266546
            -0.000076230781    0.000308919219    0.058082213561    -0.087020183264    -0.000072446795    0.000324317842    0.012492530602    -0.025505776190
            0.009798569470    -0.025375078787    -0.000072446909    0.000324317817    0.044574347067    -0.085033440019    -0.000095789374    0.000337032165
            -0.000075910177    0.000324266543    0.012492511571    -0.025505762128    -0.000095789372    0.000337032155    0.051861782252    -0.081344246748
0.075     0.147641035267    -0.006703722276    0.000396932355    0.000023287821    0.085748466053    0.019470703271    0.000424447914    0.000018857263
            0.000396932367    0.000023287782    0.140826089407    0.008998979033    0.000421310910    0.000028221194    0.082401417446    0.029430441352
            0.085748428922    0.019470668086    0.000421310849    0.000028221361    0.143394353981    -0.001541559426    0.000457902691    0.000057910050
            0.000424447945    0.000018857231    0.082401386797    0.029430449865    0.000457902737    0.000057909932    0.136038507362    0.013589493353
0.100     0.073796981513    -0.143109610635    0.000259490991    -0.000439370435    0.026014845746    -0.050403600045    0.000267052885    -0.000466633885
            0.000259490996    -0.000439370443    0.097539684969    -0.126835983357    0.000258717320    -0.000467351362    0.035763296083    -0.045709846438
            0.026014813250    -0.050403567302    0.000258717451    -0.000467351290    0.069968255254    -0.134595177440    0.000301522589    -0.000517224732
            0.000267052870    -0.000466633916    0.035763272304    -0.045709819333    0.000301522579    -0.000517224715    0.092339853165    -0.118977916703
0.125     0.074906699767    -0.027697751560    -0.000669565437    -0.000266785104    0.069233169038    0.010825839913    -0.000719320701    -0.000279809462
            -0.000669565428    -0.000266785101    0.073245147718    -0.017317631790    -0.000698224394    -0.000283676400    0.065586995123    0.022050661713
            0.069233161636    0.010825848411    -0.000698224307    -0.000283676507    0.077092220207    -0.021660350085    -0.000768427283    -0.000337297279
            -0.000719320691    -0.000279809459    0.065586977770    0.022050678812    -0.000768427369    -0.000337297157    0.074333974518    -0.010809833747
0.150     0.084123528180    -0.144485683183    -0.000387094246    0.000526799985    0.050266993098    -0.071165161067    -0.000395949540    0.000570521168
            -0.000387094252    0.000526799994    0.116740347120    -0.113263829038    -0.000402210030    0.000570711733    0.068152592466    -0.054683366905
            0.050266973258    -0.071165122435    -0.000402210118    0.000570711646    0.084191300305    -0.137679222092    -0.000463551886    0.000646159617
            -0.000395949645    0.000570521107    0.068152584327    -0.054683346688    -0.000463551886    0.000646159617    0.115069011925    -0.106613320673
0.175     -0.002264126732    -0.053872732398    0.000756734966    0.000686185992    0.044303570978    0.020640539054    0.000801679617    0.000726620771
            0.000756734990    0.000686185965    0.012543134078    -0.061250496979    0.000780487881    0.000712434434    0.037534024102    0.029181063282
            0.044303614092    0.020640545965    0.000780487832    0.000712434488    0.003442257075    -0.046524388551    0.000862259520    0.000796710523
            0.000801679543    0.000726620704    0.037534015138    0.029181087845    0.000862259562    0.000796710477    0.015766131499    -0.052342714522
0.200     0.068055365853    -0.109332663437    0.000590745978    -0.000683947811    0.077394962054    -0.079204075029    0.000623464371    -0.000750905690
            0.000590745983    -0.000683947793    0.095237686089    -0.073142237391    0.000637430331    -0.000731728492    0.099786972101    -0.045815083048
            0.077394953605    -0.079204055322    0.000637430336    -0.000731728420    0.072998128976    -0.106917715065    0.000730086701    -0.000822885274
            0.000623464384    -0.000750905705    0.099786964320    -0.045815052062    0.000730086658    -0.000822885313    0.099177069752    -0.069122981873
0.225     -0.042667756891    -0.083534928666    -0.000542986857    -0.001036851883    0.001275030690    -0.004015785715    -0.000583989192    -0.001073377473
            -0.000542986857    -0.001036851883    -0.001644432809    -0.101017066221    -0.000579031333    -0.001063576302    0.010847477275    -0.005973158970
            0.001275067418    -0.004015774788    -0.000579031099    -0.001063576315    -0.035881842383    -0.079083984674    -0.000653758139    -0.001153590487
            -0.000583988770    -0.001073377589    0.010847477231    -0.005973136247    -0.000653758542    -0.001153590259    0.002754724107    -0.094162904061
0.250     0.030259083639    -0.062757971922    -0.001031559719    0.000746010170    0.092476040654    -0.065761266700    -0.001109187443    0.000805898765
            -0.001031559719    0.000746010170    0.043845212732    -0.039797165088    -0.001105940323    0.000772128047    0.110916065466    -0.019506207985
            0.092476044212    -0.065761278951    -0.001105940323    0.000772128047    0.038870492774    -0.064744054409    -0.001238235555    0.000855721255
            -0.001109187443    0.000805898765    0.110916059906    -0.019506181861    -0.001238235555    0.000855721255    0.052685231344    -0.037761274296
0.275     -0.050979376011    -0.092169856804    0.000334661874    0.001162543808    -0.028148379918    -0.052087909785    0.000388417447    0.001209651250
            0.000334662328    0.001162543782    0.009600656851    -0.106133595478    0.000382694812    0.001216071350    0.012225544205    -0.057661179900
            -0.028148361794    -0.052087897982    0.000382694421    0.001216071368    -0.045607645202    -0.093507956149    0.000457923416    0.001352805004
            0.000388417099    0.001209651256    0.012225545857    -0.057661152972    0.000457923440    0.001352804996    0.014817385923    -0.104925401872
0.300     -0.013303080644    -0.024751605592    0.001551082617    -0.000433427139    0.075649887140    -0.034335937582    0.001646379671    -0.000455158661
            0.001551082610    -0.000433427166    -0.009074237842    -0.029532030395    0.001625134995    -0.000433620739    0.084422502023    0.005553444625
            0.075649894853    -0.034335966560    0.001625134987    -0.000433620767    -0.004717185082    -0.029366656593    0.001786054578    -0.000488862318
            0.001646379663    -0.000455158690    0.084422508387    0.005553469757    0.001786054663    -0.000488863145    0.000728471000    -0.028900311415
0.325     -0.044091198031    -0.073901839943    -0.000239179708    -0.001347856230    -0.035882699243    -0.100389371519    -0.000300183664    -0.001442032259
            -0.000239179708    -0.001347856230    0.018542686267    -0.078715094904    -0.000276064737    -0.001450180911    0.040085411671    -0.097248707794
            -0.035882702609    -0.100389380936    -0.000276064737    -0.001450180911    -0.041281437126    -0.081014243712    -0.000326857051    -0.001623350847
            -0.000300183664    -0.001442032259    0.040085419325    -0.097248683007    -0.000326857051    -0.001623350847    0.024170104380    -0.082952088163
0.350     -0.048560383496    -0.004242325594    -0.001743856621    -0.000165859782    0.018877745310    -0.003720411809    -0.001823352535    -0.000158706601
            -0.001743856621    -0.000165859782    -0.040732579531    -0.039173334525    -0.001810399313    -0.000161224137    0.026152251944    0.001305511231
            0.018877752603    -0.003720436864    -0.001810399029    -0.000161225067    -0.044321563232    -0.009743267974    -0.001987669035    -0.000136905428
            -0.001823352535    -0.000158706601    0.026152288561    0.001305600045    -0.001987669035    -0.000136905428    -0.034400143719    -0.040934719106
0.375     -0.028982016300    -0.047979868177    -0.000005413564    0.001756221956    -0.024830731768    -0.120032722858    0.000018532214    0.001893540214
            -0.000005413197    0.001756222157    0.022486909722    -0.039428507971    -0.000017881104    0.001885788627    0.070971008986    -0.099805044145
            -0.024830754743    -0.120032728317    -0.000017881103    0.001885788527    -0.029616223560    -0.058370377480    -0.000011530199    0.002082873486
            0.000018531880    0.001893539917    0.070971007244    -0.099805045384    -0.000011530235    0.002082873486    0.028409069818    -0.048169114799
0.400     -0.068398520348    -0.000664693408    0.001612261443    0.000572368803    -0.060888507874    0.004584524673    0.001700285712    0.000546210135
            0.001612261329    0.000572368826    -0.043904751921    -0.056343016555    0.001709984949    0.000551728827    -0.031290445841    -0.044483700373
            -0.060888506680    0.004584513896    0.001709984959    0.000551728798    -0.070792847565    -0.006089687395    0.001903769381    0.000563110047
            0.001700285712    0.000546210135    -0.031290388883    -0.044483619399    0.001903769381    0.000563110047    -0.042997383755    -0.061945100035
0.425     -0.017892505903    -0.012543156313    0.000691274878    -0.002054262013    -0.020018615583    -0.094655870102    0.000720830313    -0.002192117145
            0.000691274584    -0.002054262323    0.008321489895    -0.001714514820    0.000744580298    -0.002168272340    0.067798300134    -0.071284746860
            -0.020018632931    -0.094655870522    0.000744580266    -0.002168272245    -0.019977162172    -0.021217805423    0.000791676435    -0.002367766332
            0.000720830344    -0.002192117240    0.067798300403    -0.071284752125    0.000791676435    -0.002367766332    0.012465227120    -0.009796913276
0.450     -0.072681558569    -0.006370329543    -0.001663002193    -0.000747412125    -0.126139187961    -0.012937389129    -0.001797618123    -0.000729441491
            -0.001663002193    -0.000747412125    -0.025220960179    -0.068691664856    -0.001817382223    -0.000758371726    -0.051005140906    -0.107862253038
            -0.126139187961    -0.012937389129    -0.001817382223    -0.000758371726    -0.080490934903    -0.011130396236    -0.002018901273    -0.000820206626
            -0.001797618748    -0.000729441014    -0.051005140906    -0.107862253038    -0.002018901273    -0.000820206626    -0.028501253853    -0.077790602502
0.475     -0.021019608762    0.024139454632    -0.001482716575    0.001825969719    -0.010535336837    -0.013970796224    -0.001534737767    0.001921384621
            -0.001482716575    0.001825969719    -0.022604138930    0.019409025037    -0.001534655563    0.001904499984    0.019886630546    -0.007614272436
            -0.010535351980    -0.013970801087    -0.001534655977    0.001904499136    -0.025176639777    0.020586478912    -0.001634583780    0.002091329059
            -0.001534737978    0.001921384196    0.019886674391    -0.007614253008    -0.001634583841    0.002091329138    -0.023341381664    0.013780679035
0.500     -0.064213264524    -0.012205307814    0.001958902473    0.001244287611    -0.143214808057    -0.034799879740    0.002116775282    0.001283498962
            0.001958902473    0.001244287611    0.003627271274    -0.067444725580    0.002123165390    0.001334554219    -0.025632863130    -0.140079253692
            -0.143214817775    -0.034799882101    0.002123165390    0.001334554219    -0.073505290139    -0.015267441316    0.002312618150    0.001452789914
            0.002116776046    0.001283498668    -0.025632863130    -0.140079253692    0.002312618125    0.001452789954    -0.001404948131    -0.076885846643
0.525     -0.043606205341    0.057733499292    0.001758201760    -0.001257368730    -0.051590274872    0.077864861328    0.001786332320    -0.001355416358
            0.001758201782    -0.001257368700    -0.066369587916    0.013222204463    0.001782815390    -0.001374350577    -0.077699069740    0.010316784189
            -0.051590277081    0.077864864662    0.001782815414    -0.001374350546    -0.049454919626    0.060034378655    0.001924325385    -0.001541538703
            0.001786332296    -0.001355416389    -0.077699018557    0.010316804993    0.001924325331    -0.001541538771    -0.072830201803    0.010050916389
0.550     -0.040868513344    -0.007478466753    -0.001819528543    -0.002255096103    -0.101093832062    -0.028929520078    -0.001943978899    -0.002344928662
            -0.001819528543    -0.002255096103    0.030397819733    -0.041373846333    -0.001924602378    -0.002392621842    0.014561336644    -0.102286434137
            -0.101093837111    -0.028929502434    -0.001924602316    -0.002392621764    -0.047582604498    -0.007558343504    -0.002083327770    -0.002565063272
            -0.001943979627    -0.002344928708    0.014561331288    -0.102286434899    -0.002083329232    -0.002565063243    0.024882256861    -0.047212959818
0.575     -0.075660335980    0.075766289585    -0.001780264557    0.001226867526    -0.109636807981    0.134766856499    -0.001823176799    0.001350315291
            -0.001780264557    0.001226867526    -0.099958367091    -0.021431662325    -0.001851037393    0.001402790445    -0.157152900709    -0.025420058748
            -0.109636807981    0.134766856499    -0.001851037393    0.001402790445    -0.081854110716    0.081739386947    -0.002034103700    0.001534349461
            -0.001823176799    0.001350315291    -0.157152811864    -0.025420044377    -0.002034103700    0.001534349461    -0.110339692448    -0.022995113994
0.600     -0.003497000247    0.027714575048    0.000757445604    0.002876673031    -0.020537634972    0.032966547478    0.000835136936    0.002968573801
            0.000757445604    0.002876673031    0.029413309600    0.019918835330    0.000812988649    0.002980127638    0.014978734358    0.005919498554
            -0.020537632391    0.032966556155    0.000812988649    0.002980127638    -0.005479605587    0.030862125426    0.000918851451    0.003200177250
            0.000835136154    0.002968573606    0.014978731567    0.005919486569    0.000918851507    0.003200177234    0.023710526542    0.019549771172
0.625     -0.099157337746    0.074499891540    0.002379268117    -0.001345407541    -0.137189397344    0.140737321585    0.002469662806    -0.001463750080
            0.002379268117    -0.001345407541    -0.105479390997    -0.064965174344    0.002546162025    -0.001509204673    -0.168266873089    -0.072819343934
            -0.137189390364    0.140737314424    0.002546161839    -0.001509204202    -0.101700260262    0.081071434084    0.002767081067    -0.001596733237
            0.002469662831    -0.001463750037    -0.168266873089    -0.072819343934    0.002767081067    -0.001596733237    -0.113516587347    -0.064084351417
0.650     0.020541418187    0.099883288664    0.000012217302    -0.002377906015    0.040789665934    0.142482771429    -0.000050912091    -0.002450666113
            0.000012217302    -0.002377906015    -0.029324726179    0.087555620148    -0.000081686674    -0.002436386497    -0.061699769002    0.118581803786
            0.040789670907    0.142482770005    -0.000081685981    -0.002436386120    0.023125953252    0.104936036441    -0.000115588343    -0.002677056760
            -0.000050912049    -0.002450666114    -0.061699764387    0.118581794915    -0.000115588296    -0.002677056762    -0.034665723899    0.091907311459
0.675     -0.086534990267    0.051683267752    -0.003285299299    0.000602536143    -0.092593630255    0.118327071402    -0.003405378604    0.000691207508
            -0.003285299299    0.000602536143    -0.062588212438    -0.084447440092    -0.003503310017    0.000688853158    -0.111554291163    -0.063753777555
            -0.092593624092    0.118327063527    -0.003503309722    0.000688853100    -0.086389213645    0.053381480717    -0.003770302893    0.000717052523
            -0.003405378136    0.000691206794    -0.111554299845    -0.063753782517    -0.003770303089    0.000717052560    -0.067474599611    -0.081542609835
0.700     0.014756800670    0.169211654974    0.000147396107    0.002163553195    0.050154746481    0.231576204923    0.000215067007    0.002244064946
            0.000147396069    0.002163553197    -0.115023822288    0.111960586902    0.000308534868    0.002272150944    -0.162319518020    0.157515198026
            0.050154754564    0.231576203172    0.000308534311    0.002272150414    0.019918103127    0.173558155282    0.000283409716    0.002507462625
            0.000215067007    0.002244064946    -0.162319518020    0.157515198026    0.000283409672    0.002507462630    -0.118731273040    0.118417369229
0.725     -0.016469197162    0.026305391839    0.003381975466    0.001068786167    0.006993645847    0.056408222725    0.003502611478    0.001051276672
            0.003381975543    0.001068786256    0.014651754863    -0.035222786101    0.003542857072    0.001077064364    0.001956224317    -0.001336484323
            0.006993650277    0.056408218145    0.003542857072    0.001077064364    -0.015768720942    0.025435971187    0.003823596006    0.001145031080
            0.003502611460    0.001051276733    0.001956218383    -0.001336484676    0.003823595930    0.001145030984    0.014069964085    -0.032529245916
0.750     -0.002484139930    0.204383864084    -0.000065559572    -0.002719277821    0.032098560902    0.251870042147    -0.000107877116    -0.002828339850
            -0.000065559479    -0.002719277923    -0.174894040765    0.095004145410    -0.000201188901    -0.002932995920    -0.208267938288    0.128926011119
            0.032098559638    0.251870032227    -0.000201188857    -0.002932996023    0.003122887710    0.205387039787    -0.000128343336    -0.003170226940
            -0.000107877070    -0.002828339952    -0.208267884266    0.128925927398    -0.000128343336    -0.003170226940    -0.175192264972    0.101110530963
0.775     0.102003739012    0.056819574908    -0.001969145804    -0.001606551897    0.156194695311    0.066848059742    -0.002042473533    -0.001615369584
            -0.001969145804    -0.001606551897    0.043055931143    0.098462858538    -0.002032531247    -0.001577595362    0.049288985981    0.160362706820
            0.156194697645    0.066848054290    -0.002032531326    -0.001577595424    0.107231971481    0.053515939131    -0.002260432763    -0.001732804926
