# GHz S RI R 45
0.000     0.069324976000    0.000000000000    -0.000029088458    -0.000000000000    0.011980293000    0.000000000000    -0.000036910533    0.000000000000
            -0.000029088490    -0.000000000000    0.068666888000    0.000000000000    -0.000000794313    -0.000000000000    0.011295420000    0.000000000000
            0.011980258000    0.000000000000    -0.000000794279    -0.000000000000    0.063583128000    0.000000000000    -0.000019259732    0.000000000000
            -0.000036910597    0.000000000000    0.011295378000    0.000000000000    -0.000019259739    0.000000000000    0.062974492000    0.000000000000
0.025     0.200120522871    -0.011379863886    0.000005771513    0.000016933028    0.090979066563    0.008901047906    0.000013689756    0.000040276396
            0.000005771509    0.000016933028    0.201504922483    -0.014249305973    0.000000939444    0.000011370199    0.090796565261    0.007458486328
            0.090979021794    0.008901053626    0.000000939457    0.000011370194    0.191308155544    -0.010486368866    -0.000000055286    0.000013309829
            0.000013689761    0.000040276395    0.090796522686    0.007458491605    -0.000000055292    0.000013309830    0.192898303261    -0.013280716146
0.050     0.061217336918    -0.084603803554    0.000005369140    -0.000035514971    0.014501266980    -0.023627023399    0.000028248168    -0.000032171058
            0.000005369140    -0.000035514969    0.058082213561    -0.087020183264    0.000000787288    -0.000039122994    0.012492530602    -0.025505776190
            0.014501233143    -0.023627008967    0.000000787307    -0.000039122906    0.054807251993    -0.079194192770    0.000010468292    -0.000034608046
            0.000028248165    -0.000032171050    0.012492511571    -0.025505762128    0.000010468305    -0.000034608041    0.051861782252    -0.081344246748
0.075     0.140101803271    0.013890992134    -0.000028068725    0.000006481760    0.083593211282    0.032800827201    -0.000010369032    0.000004607616
            -0.000028068731    0.000006481756    0.140826089407    0.008998979033    -0.000030677839    0.000005227301    0.082401417446    0.029430441352
            0.083593177202    0.032800837399    -0.000030677842    0.000005227268    0.134783958806    0.018322677983    -0.000032717772    -0.000001816039
            -0.000010368987    0.000004607594    0.082401386797    0.029430449865    -0.000032717769    -0.000001816044    0.136038507362    0.013589493353
0.100     0.106934461407    -0.119388441042    0.000020716477    -0.000033959683    0.041280897482    -0.041749952644    0.000039990593    -0.000042461895
            0.000020716470    -0.000033959683    0.097539684969    -0.126835983357    0.000015361753    -0.000031396224    0.035763296083    -0.045709846438
            0.041280868527    -0.041749930647    0.000015361757    -0.000031396238    0.101325754383    -0.111638369137    0.000022431035    -0.000033629184
            0.000039990615    -0.000042461982    0.035763272304    -0.045709819333    0.000022431059    -0.000033629260    0.092339853165    -0.118977916703
0.125     0.078402473726    -0.016535439945    -0.000074464051    -0.000028391908    0.069812747579    0.025812192007    -0.000062853709    -0.000041721491
            -0.000074464045    -0.000028391921    0.073245147718    -0.017317631790    -0.000067189320    -0.000028071061    0.065586995123    0.022050661713
            0.069812719397    0.025812213443    -0.000067189318    -0.000028071061    0.078881495675    -0.010025488340    -0.000076760015    -0.000040205979
            -0.000062853707    -0.000041721489    0.065586977770    0.022050678812    -0.000076760020    -0.000040205981    0.074333974518    -0.010809833747
0.150     0.128381108469    -0.101864522755    0.000001255554    0.000012356244    0.077446860257    -0.048833822773    0.000010643527    0.000000041567
            0.000001255547    0.000012356248    0.116740347120    -0.113263829038    -0.000002045153    0.000008071825    0.068152592466    -0.054683366905
            0.077446834913    -0.048833797347    -0.000002045147    0.000008071814    0.126076833647    -0.094934275727    -0.000002327244    0.000009309288
            0.000010643517    0.000000041576    0.068152584327    -0.054683346688    -0.000002327258    0.000009309310    0.115069011925    -0.106613320673
0.175     0.028118371202    -0.067556036831    -0.000078273223    -0.000064655092    0.048313398427    0.027861265045    -0.000074688448    -0.000081948574
            -0.000078273269    -0.000064655084    0.012543134078    -0.061250496979    -0.000068482351    -0.000065979203    0.037534024102    0.029181063282
            0.048313382486    0.027861290685    -0.000068482310    -0.000065979210    0.030603207888    -0.058552589968    -0.000082220324    -0.000079034457
            -0.000074688463    -0.000081948561    0.037534015138    0.029181087845    -0.000082220331    -0.000079034464    0.015766131499    -0.052342714522
0.200     0.103466065970    -0.066247925567    -0.000057091809    0.000063060391    0.110426094674    -0.039615247515    -0.000059689356    0.000050928596
            -0.000057091805    0.000063060386    0.095237686089    -0.073142237391    -0.000059372915    0.000047324881    0.099786972101    -0.045815083048
            0.110426072659    -0.039615220039    -0.000059372910    0.000047324877    0.106563022383    -0.061429256072    -0.000068609890    0.000056306882
            -0.000059689365    0.000050928603    0.099786964320    -0.045815052062    -0.000068609788    0.000056306858    0.099177069752    -0.069122981873
0.225     0.026172034189    -0.109252234159    -0.000032911732    -0.000051876000    0.026826135092    -0.011812465880    -0.000035141439    -0.000066205291
            -0.000032911728    -0.000051875993    -0.001644432809    -0.101017066221    -0.000029426754    -0.000056252075    0.010847477275    -0.005973158970
            0.026826121746    -0.011812424228    -0.000029426761    -0.000056252089    0.030198294693    -0.101794652814    -0.000041770170    -0.000065253055
            -0.000035141452    -0.000066205287    0.010847477231    -0.005973136247    -0.000041770147    -0.000065253095    0.002754724107    -0.094162904061
0.250     0.048429826763    -0.048502402728    -0.000126951216    0.000073825627    0.119033276514    -0.017615918869    -0.000139987592    0.000063242474
            -0.000126951207    0.000073825622    0.043845212732    -0.039797165088    -0.000130728020    0.000050226765    0.110916065466    -0.019506207985
            0.119033262018    -0.017615880208    -0.000130728020    0.000050226765    0.056470622487    -0.045338123594    -0.000147952621    0.000065120007
            -0.000139987592    0.000063242474    0.110916059906    -0.019506181861    -0.000147952639    0.000065120015    0.052685231344    -0.037761274296
0.275     0.040377155681    -0.111228379009    0.000011765212    0.000027181641    0.036166325692    -0.064811434265    0.000004002973    0.000022191240
            0.000011765210    0.000027181650    0.009600656851    -0.106133595478    0.000002859620    0.000019847451    0.012225544205    -0.057661179900
            0.036166323707    -0.064811414759    0.000002859605    0.000019847466    0.045847776047    -0.108638168916    -0.000002271857    0.000020325389
            0.000004002990    0.000022191157    0.012225545857    -0.057661152972    -0.000002271846    0.000020325401    0.014817385923    -0.104925401872
0.300     -0.002242162435    -0.058682009583    -0.000148918132    0.000033344596    0.089187345779    -0.004770459379    -0.000167392790    0.000025141972
            -0.000148918132    0.000033344596    -0.009074237842    -0.029532030395    -0.000157327507    0.000009486912    0.084422502023    0.005553444625
            0.089187349873    -0.004770457725    -0.000157327507    0.000009486912    0.007382515142    -0.056950052619    -0.000178210661    0.000025351868
            -0.000167392780    0.000025141971    0.084422508387    0.005553469757    -0.000178210671    0.000025351869    0.000728471000    -0.028900311415
0.325     0.036693840948    -0.083295477297    0.000010672873    0.000132561965    0.066067221885    -0.101109381027    -0.000004594663    0.000139728988
            0.000010672936    0.000132561940    0.018542686267    -0.078715094904    -0.000010961986    0.000124621167    0.040085411671    -0.097248707794
            0.066067223650    -0.101109379874    -0.000010961943    0.000124621151    0.043330464603    -0.086019751046    -0.000010470507    0.000137739998
            -0.000004594592    0.000139728970    0.040085419325    -0.097248683007    -0.000010470469    0.000137740011    0.024170104380    -0.082952088163
0.350     -0.025175385805    -0.082088287491    -0.000081899065    -0.000008354719    0.033802722854    -0.026564260972    -0.000098349835    -0.000011757105
            -0.000081899140    -0.000008354727    -0.040732579531    -0.039173334525    -0.000096251649    -0.000025361244    0.026152251944    0.001305511231
            0.033802727672    -0.026564258078    -0.000096251665    -0.000025361230    -0.017830800965    -0.083105740509    -0.000113482131    -0.000012760368
            -0.000098349916    -0.000011757114    0.026152288561    0.001305600045    -0.000113482119    -0.000012760387    -0.034400143719    -0.040934719106
0.375     0.021454145255    -0.049971420764    -0.000039647398    0.000206189117    0.087580510853    -0.100999744222    -0.000063775233    0.000219679787
            -0.000039647366    0.000206189144    0.022486909722    -0.039428507971    -0.000070995488    0.000199910617    0.070971008986    -0.099805044145
            0.087580524692    -0.100999692514    -0.000070995481    0.000199910599    0.028884517848    -0.057296691923    -0.000069884423    0.000224556907
            -0.000063775233    0.000219679787    0.070971007244    -0.099805045384    -0.000069884429    0.000224556926    0.028409069818    -0.048169114799
0.400     -0.020661140727    -0.097456503789    0.000042611286    0.000011697120    -0.011832523514    -0.084393332551    0.000034675809    0.000019464294
            0.000042611304    0.000011697142    -0.043904751921    -0.056343016555    0.000024651266    0.000006370460    -0.031290445841    -0.044483700373
            -0.011832521486    -0.084393328796    0.000024651288    0.000006370521    -0.017335140308    -0.102829901231    0.000019346614    0.000016590666
            0.000034675809    0.000019464296    -0.031290388883    -0.044483619399    0.000019346617    0.000016590660    -0.042997383755    -0.061945100035
0.425     -0.012081839136    -0.026857130390    -0.000097843170    0.000181675287    0.065591872927    -0.083001769740    -0.000125717243    0.000200972673
            -0.000097843152    0.000181675331    0.008321489895    -0.001714514820    -0.000133446229    0.000187277751    0.067798300134    -0.071284746860
            0.065591874376    -0.083001768595    -0.000133446229    0.000187277751    -0.006195952136    -0.034406607561    -0.000135061163    0.000216450844
            -0.000125717243    0.000200972673    0.067798300403    -0.071284752125    -0.000135061195    0.000216450894    0.012465227120    -0.009796913276
0.450     -0.005298140000    -0.095063204341    0.000148504784    0.000099632351    -0.019722466861    -0.144161497147    0.000148415589    0.000126109154
            0.000148504785    0.000099632367    -0.025220960179    -0.068691664856    0.000132749796    0.000109197371    -0.051005140906    -0.107862253038
            -0.019722400663    -0.144161425458    0.000132749789    0.000109197365    -0.005366203101    -0.104454239916    0.000141904541    0.000123878503
            0.000148415605    0.000126109074    -0.051005140906    -0.107862253038    0.000141904550    0.000123878507    -0.028501253853    -0.077790602502
0.475     -0.050598442392    -0.024042759270    -0.000095797900    0.000076929772    -0.001850927913    -0.038082902581    -0.000120473581    0.000092000040
            -0.000095797900    0.000076929772    -0.022604138930    0.019409025037    -0.000131029933    0.000090022259    0.019886630546    -0.007614272436
            -0.001850921363    -0.038082904902    -0.000131029933    0.000090022259    -0.049265015882    -0.030815818538    -0.000133405908    0.000112798131
            -0.000120473851    0.000092000279    0.019886674391    -0.007614253008    -0.000133405928    0.000112798108    -0.023341381664    0.013780679035
0.500     0.007769441581    -0.076998661413    0.000181153441    0.000206855156    0.003072341187    -0.158772737023    0.000181108262    0.000252779558
            0.000181153437    0.000206855160    0.003627271274    -0.067444725580    0.000173020516    0.000234065191    -0.025632863130    -0.140079253692
            0.003072341187    -0.158772737023    0.000173020524    0.000234065185    0.005509732207    -0.087669911393    0.000189983121    0.000258539251
            0.000181108262    0.000252779558    -0.025632863130    -0.140079253692    0.000189983121    0.000258539251    -0.001404948131    -0.076885846643
0.525     -0.086217523306    -0.041044878691    0.000022597361    -0.000039821010    -0.098596885979    -0.049851296709    0.000016435418    -0.000030835794
            0.000022597357    -0.000039820994    -0.066369587916    0.013222204463    -0.000002995313    -0.000025076952    -0.077699069740    0.010316784189
            -0.098596788037    -0.049851268796    -0.000002995327    -0.000025076938    -0.090413863465    -0.047177566773    0.000002169021    -0.000016496482
            0.000016435422    -0.000030835785    -0.077699018557    0.010316804993    0.000002168682    -0.000016496561    -0.072830201803    0.010050916389
0.550     0.011177954476    -0.040442010542    0.000118475135    0.000268547187    0.017166893408    -0.102760185475    0.000109809646    0.000324476357
            0.000118475130    0.000268547189    0.030397819733    -0.041373846333    0.000118214660    0.000313000220    0.014561336644    -0.102286434137
            0.017166889821    -0.102760186074    0.000118214672    0.000313000204    0.007254705468    -0.048977912487    0.000131852985    0.000345048786
            0.000109809640    0.000324476359    0.014561331288    -0.102286434899    0.000131852977    0.000345048800    0.024882256861    -0.047212959818
0.575     -0.104860557180    -0.068715684419    0.000184811637    -0.000081399785    -0.158278376140    -0.097174687660    0.000206399072    -0.000068147516
            0.000184811638    -0.000081399781    -0.099958367091    -0.021431662325    0.000180717153    -0.000069031911    -0.157152900709    -0.025420058748
            -0.158278367618    -0.097174682428    0.000180717146    -0.000069031901    -0.112907512175    -0.074255856292    0.000204543298    -0.000068319111
            0.000206399075    -0.000068147509    -0.157152811864    -0.025420044377    0.000204543305    -0.000068319121    -0.110339692448    -0.022995113994
0.600     -0.015188448129    0.016195277262    -0.000008692291    0.000194808823    -0.027044141939    0.002318795624    -0.000029039040    0.000241866330
            -0.000008692278    0.000194808824    0.029413309600    0.019918835330    -0.000006372567    0.000247657286    0.014978734358    0.005919498554
            -0.027044048283    0.002318787594    -0.000006372545    0.000247657277    -0.020673119220    0.012031081483    -0.000005485426    0.000275159118
            -0.000029039013    0.000241866323    0.014978731567    0.005919486569    -0.000005485441    0.000275159118    0.023710526542    0.019549771172
0.625     -0.098837917830    -0.092063185077    0.000312915039    -0.000055861660    -0.152570378810    -0.127009424605    0.000353869115    -0.000025494475
            0.000312915196    -0.000055861975    -0.105479390997    -0.064965174344    0.000336000386    -0.000045575231    -0.168266873089    -0.072819343934
            -0.152570280677    -0.127009433077    0.000336000336    -0.000045575231    -0.107991697381    -0.095158458463    0.000378386177    -0.000039026240
            0.000353869140    -0.000025494410    -0.168266873089    -0.072819343934    0.000378386544    -0.000039026780    -0.113516587347    -0.064084351417
0.650     -0.083668626232    0.060510098101    -0.000050806751    -0.000016508996    -0.133957029973    0.080675865804    -0.000070065470    0.000000945204
            -0.000050806719    -0.000016508927    -0.029324726179    0.087555620148    -0.000048732086    0.000024662474    -0.061699769002    0.118581803786
            -0.133957021407    0.080675860645    -0.000048732072    0.000024662488    -0.090197417304    0.060988401993    -0.000055910895    0.000028666669
            -0.000070065544    0.000000945339    -0.061699764387    0.118581794915    -0.000055910907    0.000028666650    -0.034665723899    0.091907311459
0.675     -0.059729019258    -0.085773541508    0.000349357591    0.000037840281    -0.110120418694    -0.086534574342    0.000396840886    0.000089921302
            0.000349357592    0.000037840279    -0.062588212438    -0.084447440092    0.000402929994    0.000050923995    -0.111554291163    -0.063753777555
            -0.110120380002    -0.086534575026    0.000402929985    0.000050923985    -0.067882539392    -0.086126552701    0.000453763450    0.000072324351
            0.000396840895    0.000089921311    -0.111554299845    -0.063753782517    0.000453763457    0.000072324368    -0.067474599611    -0.081542609835
0.700     -0.155533350148    0.065995675677    0.000019959000    -0.000184424682    -0.226193367039    0.088089933141    0.000025485007    -0.000196855373
            0.000019959003    -0.000184424682    -0.115023822288    0.111960586902    0.000030625664    -0.000173180732    -0.162319518020    0.157515198026
            -0.226193367039    0.088089933141    0.000030625667    -0.000173180731    -0.161632826146    0.070034281038    0.000035188456    -0.000197047598
            0.000025485007    -0.000196855373    -0.162319518020    0.157515198026    0.000035188453    -0.000197047598    -0.118731273040    0.118417369229
0.725     -0.009641433415    -0.018719791057    0.000223812045    0.000160414228    -0.027547075305    0.022230021600    0.000249533121    0.000228054897
            0.000223812050    0.000160414220    0.014651754863    -0.035222786101    0.000291371548    0.000182001382    0.001956224317    -0.001336484323
            -0.027547080741    0.022230018048    0.000291371605    0.000182001367    -0.015077829366    -0.015943961734    0.000322619111    0.000220734169
            0.000249533156    0.000228054889    0.001956218383    -0.001336484676    0.000322619086    0.000220734152    0.014069964085    -0.032529245916
0.750     -0.196102990230    0.045991135795    0.000091236294    -0.000279602114    -0.243443843669    0.059544391137    0.000131293446    -0.000302662854
            0.000091236299    -0.000279602113    -0.174894040765    0.095004145410    0.000119392529    -0.000301574865    -0.208267938288    0.128926011119
            -0.243443776353    0.059544329641    0.000119392534    -0.000301574863    -0.200259367608    0.052309394270    0.000148719061    -0.000339704019
            0.000131293451    -0.000302662852    -0.208267884266    0.128925927398    0.000148719066    -0.000339704016    -0.175192264972    0.101110530963
0.775     -0.013359331754    0.106117106940    -0.000030239312    0.000067608900    -0.039508441985    0.179655228762    -0.000044089586    0.000115534778
            -0.000030239276    0.000067608790    0.043055931143    0.098462858538    0.000020810258    0.000086317508    0.049288985981    0.160362706820
            -0.039508439837    0.179655218995    0.000020810251    0.000086317635    -0.015223118427    0.110113124042    0.000012728110    0.000115819595
