# GHz S RI R 45
0.000     0.063321770000    0.000000000000    -0.000029784357    0.000000000000    0.011189013000    0.000000000000    -0.000019956206    -0.000000000000
            -0.000029784062    0.000000000000    0.068666888000    0.000000000000    -0.000066088416    -0.000000000000    0.011295420000    0.000000000000
            0.011188872000    0.000000000000    -0.000066088797    -0.000000000000    0.066170320000    -0.000000000000    -0.000007075510    -0.000000000000
            -0.000019955985    -0.000000000000    0.011295378000    0.000000000000    -0.000007082368    -0.000000000000    0.062974492000    0.000000000000
0.025     0.194333661751    -0.018029367847    -0.000040160955    0.000015361981    0.091191942966    0.005138379273    -0.000045104816    0.000014438356
            -0.000040160974    0.000015361771    0.201504922483    -0.014249305973    -0.000041281546    0.000036119324    0.090796565261    0.007458486328
            0.091191899251    0.005138426306    -0.000041281544    0.000036119258    0.197768415829    -0.018399329249    -0.000072964303    0.000016773109
            -0.000045104788    0.000014438148    0.090796522686    0.007458491605    -0.000072964428    0.000016773057    0.192898303261    -0.013280716146
0.050     0.047576824422    -0.086379953373    -0.000036880042    0.000139601536    0.011288110690    -0.028594444126    -0.000023366662    0.000126622633
            -0.000036880164    0.000139601503    0.058082213561    -0.087020183264    -0.000032406172    0.000170369354    0.012492530602    -0.025505776190
            0.011288141650    -0.028594448030    -0.000032406230    0.000170369333    0.050001402354    -0.088383636428    -0.000021655611    0.000172220705
            -0.000023366899    0.000126622559    0.012492511571    -0.025505762128    -0.000021655631    0.000172220692    0.051861782252    -0.081344246748
0.075     0.137899428885    0.003446856471    0.000168512071    -0.000000114824    0.084044521246    0.022934364942    0.000158847698    0.000000986369
            0.000168512001    -0.000000114639    0.140826089407    0.008998979033    0.000215339497    -0.000009958234    0.082401417446    0.029430441352
            0.084044523381    0.022934406502    0.000215339470    -0.000009958160    0.140424710866    0.002024243700    0.000213770998    0.000001766958
            0.000158847656    0.000000986612    0.082401386797    0.029430449865    0.000213770977    0.000001766999    0.136038507362    0.013589493353
0.100     0.080045765488    -0.132852079305    0.000134481681    -0.000187340570    0.031795037690    -0.055046884120    0.000101294291    -0.000178339405
            0.000134481832    -0.000187340449    0.097539684969    -0.126835983357    0.000147883621    -0.000236210609    0.035763296083    -0.045709846438
            0.031795085756    -0.055046914098    0.000147883682    -0.000236210559    0.082403067008    -0.136231214461    0.000120115133    -0.000241973039
            0.000101294421    -0.000178339308    0.035763272304    -0.045709819333    0.000120115125    -0.000241973043    0.092339853165    -0.118977916703
0.125     0.071286791639    -0.019723257097    -0.000300142858    -0.000111416987    0.065399413419    0.012535529396    -0.000271912577    -0.000098165577
            -0.000300142743    -0.000111417123    0.073245147718    -0.017317631790    -0.000384739766    -0.000134021447    0.065586995123    0.022050661713
            0.065399412442    0.012535518558    -0.000384739724    -0.000134021508    0.071922054451    -0.022026388214    -0.000350897603    -0.000129203301
            -0.000271912442    -0.000098165743    0.065586977770    0.022050678812    -0.000350897634    -0.000129203243    0.074333974518    -0.010809833747
0.150     0.098416981473    -0.130399844010    -0.000181809895    0.000199818796    0.061566076500    -0.072175838640    -0.000149485611    0.000207737988
            -0.000181810071    0.000199818569    0.116740347120    -0.113263829038    -0.000203844894    0.000270598657    0.068152592466    -0.054683366905
            0.061566119599    -0.072175863652    -0.000203844976    0.000270598570    0.100317315531    -0.134106960768    -0.000195000007    0.000284357126
            -0.000149485691    0.000207737869    0.068152584327    -0.054683346688    -0.000195000013    0.000284357135    0.115069011925    -0.106613320673
0.175     0.000247646608    -0.056500000269    0.000345163468    0.000327992005    0.028157079704    0.018526009635    0.000306054193    0.000276464707
            0.000345163261    0.000327992165    0.012543134078    -0.061250496979    0.000418008243    0.000400225137    0.037534024102    0.029181063282
            0.028157040334    0.018525998519    0.000418008166    0.000400225203    -0.000763426952    -0.060145615114    0.000387023233    0.000350678109
            0.000306053963    0.000276464858    0.037534015138    0.029181087845    0.000387023238    0.000350678089    0.015766131499    -0.052342714522
0.200     0.083322877451    -0.095769186178    0.000242551583    -0.000266728269    0.090503731481    -0.070126109689    0.000225054665    -0.000272391137
            0.000242551647    -0.000266728143    0.095237686089    -0.073142237391    0.000307567220    -0.000366820948    0.099786972101    -0.045815083048
            0.090503768658    -0.070126110689    0.000307567290    -0.000366820811    0.083910859368    -0.098662646315    0.000309588221    -0.000354905997
            0.000225054744    -0.000272391020    0.099786964320    -0.045815052062    0.000309588186    -0.000354906081    0.099177069752    -0.069122981873
0.225     -0.029742590229    -0.098852252730    -0.000201329744    -0.000495952934    -0.007545053218    -0.021334437070    -0.000203732604    -0.000408713523
            -0.000201329567    -0.000495952995    -0.001644432809    -0.101017066221    -0.000252350495    -0.000579144226    0.010847477275    -0.005973158970
            -0.007545079448    -0.021334463857    -0.000252350499    -0.000579144235    -0.031939083351    -0.103436833606    -0.000266722907    -0.000518301801
            -0.000203732376    -0.000408713603    0.010847477231    -0.005973136247    -0.000266722907    -0.000518301801    0.002754724107    -0.094162904061
0.250     0.037263621396    -0.055577724255    -0.000440202080    0.000314386226    0.096664061260    -0.045149887743    -0.000409580301    0.000298163323
            -0.000440202171    0.000314385943    0.043845212732    -0.039797165088    -0.000578794542    0.000394177520    0.110916065466    -0.019506207985
            0.096664060079    -0.045149866640    -0.000578794567    0.000394177537    0.035462024787    -0.057114022251    -0.000544176021    0.000362141396
            -0.000409580376    0.000298163050    0.110916059906    -0.019506181861    -0.000544176012    0.000362141390    0.052685231344    -0.037761274296
0.275     -0.029601331391    -0.113188671877    0.000057837841    0.000510548112    -0.020524698742    -0.076990057450    0.000116022878    0.000438702218
            0.000057837345    0.000510548118    0.009600656851    -0.106133595478    0.000122058184    0.000610006819    0.012225544205    -0.057661179900
            -0.020524705182    -0.076990081607    0.000122058185    0.000610006828    -0.031939312913    -0.117421166664    0.000156943363    0.000577425556
            0.000116022804    0.000438702186    0.012225545857    -0.057661152972    0.000156943338    0.000577425542    0.014817385923    -0.104925401872
0.300     -0.020934541716    -0.030739180545    0.000702740934    -0.000145657480    0.060022157729    -0.013786781592    0.000620704288    -0.000144264101
            0.000702740991    -0.000145657453    -0.009074237842    -0.029532030395    0.000870884704    -0.000154872274    0.084422502023    0.005553444625
            0.060022138429    -0.013786758410    0.000870884739    -0.000154872249    -0.025435476881    -0.031368343094    0.000791744534    -0.000157761342
            0.000620704325    -0.000144264075    0.084422508387    0.005553469757    0.000791744499    -0.000157761363    0.000728471000    -0.028900311415
0.325     -0.024928284702    -0.089732903426    -0.000020557820    -0.000544626724    -0.007507259580    -0.116855339954    -0.000092873943    -0.000514369146
            -0.000020557772    -0.000544626706    0.018542686267    -0.078715094904    -0.000078249989    -0.000716468261    0.040085411671    -0.097248707794
            -0.007507250665    -0.116855360568    -0.000078250016    -0.000716468278    -0.027076289427    -0.091648446244    -0.000098216200    -0.000688108758
            -0.000092873948    -0.000514369176    0.040085419325    -0.097248683007    -0.000098216198    -0.000688108748    0.024170104380    -0.082952088163
0.350     -0.066601746719    -0.028363878242    -0.000753799978    -0.000191063280    -0.012409406346    -0.004779147062    -0.000650076154    -0.000114512140
            -0.000753799988    -0.000191063283    -0.040732579531    -0.039173334525    -0.000895718406    -0.000218305077    0.026152251944    0.001305511231
            -0.012409435316    -0.004779135835    -0.000895718416    -0.000218305080    -0.072445240746    -0.028851786261    -0.000826350631    -0.000157882953
            -0.000650075856    -0.000114512907    0.026152288561    0.001305600045    -0.000826350631    -0.000157882953    -0.034400143719    -0.040934719106
0.375     -0.017181230643    -0.049138944690    -0.000098318413    0.000718351630    0.000927779519    -0.110247026223    -0.000030231610    0.000689342884
            -0.000098318431    0.000718351667    0.022486909722    -0.039428507971    -0.000108756761    0.000951630607    0.070971008986    -0.099805044145
            0.000927785291    -0.110247026174    -0.000108757132    0.000951630464    -0.019579633457    -0.047833031332    -0.000089250083    0.000894802138
            -0.000030231635    0.000689342913    0.070971007244    -0.099805045384    -0.000089250068    0.000894802140    0.028409069818    -0.048169114799
0.400     -0.081928595117    -0.037302237687    0.000619728582    0.000379398058    -0.083567239632    -0.029633753510    0.000569648611    0.000231494795
            0.000619728581    0.000379398117    -0.043904751921    -0.056343016555    0.000770775302    0.000389567116    -0.031290445841    -0.044483700373
            -0.083567260367    -0.029633760863    0.000770775311    0.000389567121    -0.086551120031    -0.037522114258    0.000742655959    0.000316822389
            0.000569648620    0.000231494798    -0.031290388883    -0.044483619399    0.000742655984    0.000316822354    -0.042997383755    -0.061945100035
0.425     -0.029569400794    0.000347190419    0.000447397737    -0.000823106528    0.009280900497    -0.061166808393    0.000354053734    -0.000768352771
            0.000447397967    -0.000823106164    0.008321489895    -0.001714514820    0.000568849642    -0.001032207545    0.067798300134    -0.071284746860
            0.009280909540    -0.061166788815    0.000568849517    -0.001032207956    -0.032397274049    0.004426601760    0.000501007161    -0.000958414170
            0.000354053791    -0.000768352789    0.067798300403    -0.071284752125    0.000501007145    -0.000958414179    0.012465227120    -0.009796913276
0.450     -0.068478019869    -0.038709006515    -0.000613528427    -0.000446632342    -0.114102781993    -0.066351963929    -0.000631482429    -0.000295213619
            -0.000613527757    -0.000446632837    -0.025220960179    -0.068691664856    -0.000833700739    -0.000487875015    -0.051005140906    -0.107862253038
            -0.114102790638    -0.066351968955    -0.000833700774    -0.000487875036    -0.069935072391    -0.037417444100    -0.000812523948    -0.000432239316
            -0.000631481680    -0.000295213806    -0.051005140906    -0.107862253038    -0.000812524050    -0.000432239188    -0.028501253853    -0.077790602502
0.475     -0.059905790954    0.035368206498    -0.000800476974    0.000609015290    -0.033054681312    0.018714121308    -0.000626201871    0.000569769694
            -0.000800477053    0.000609015351    -0.022604138930    0.019409025037    -0.000946639280    0.000734150832    0.019886630546    -0.007614272436
            -0.033054643011    0.018714130096    -0.000946639280    0.000734150832    -0.062621527646    0.039827797609    -0.000834516196    0.000701381995
            -0.000626201886    0.000569769708    0.019886674391    -0.007614253008    -0.000834516119    0.000701381930    -0.023341381664    0.013780679035
0.500     -0.039029501509    -0.020700384289    0.000699007598    0.000712072258    -0.090979607708    -0.073627440649    0.000730107407    0.000576027165
            0.000699007594    0.000712072304    0.003627271274    -0.067444725580    0.000937378811    0.000871089804    -0.025632863130    -0.140079253692
            -0.090979594858    -0.073627456528    0.000937378105    0.000871090123    -0.037468519927    -0.016985956785    0.000897875170    0.000800524122
            0.000730107438    0.000576027190    -0.025632863130    -0.140079253692    0.000897875245    0.000800524189    -0.001404948131    -0.076885846643
0.525     -0.090182066127    0.042911145970    0.000841649525    -0.000353179132    -0.106876292695    0.065052877678    0.000624764534    -0.000403619092
            0.000841649553    -0.000353179091    -0.066369587916    0.013222204463    0.000947589383    -0.000467853689    -0.077699069740    0.010316784189
            -0.106876301237    0.065052882877    0.000947589375    -0.000467853253    -0.090418385101    0.045883453639    0.000844390237    -0.000484667810
            0.000624764527    -0.000403619103    -0.077699018557    0.010316804993    0.000844390172    -0.000484668244    -0.072830201803    0.010050916389
0.550     -0.010300094517    0.024735991042    -0.000474586661    -0.001154865262    -0.038733197589    -0.017390287594    -0.000506904090    -0.000980289845
            -0.000474585866    -0.001154865048    0.030397819733    -0.041373846333    -0.000611550449    -0.001410880986    0.014561336644    -0.102286434137
            -0.038733186642    -0.017390282679    -0.000611550449    -0.001410880986    -0.007507619834    0.029706732896    -0.000590054365    -0.001293939137
            -0.000506903965    -0.000980290023    0.014561331288    -0.102286434899    -0.000590054550    -0.001293938943    0.024882256861    -0.047212959818
0.575     -0.094976433082    0.033043535367    -0.000903555691    0.000347688682    -0.154198937103    0.064668195943    -0.000714164379    0.000470654847
            -0.000903555757    0.000347688707    -0.099958367091    -0.021431662325    -0.001043605193    0.000509841993    -0.157152900709    -0.025420058748
            -0.154198937103    0.064668195943    -0.001043605283    0.000509842037    -0.092717373135    0.034728883611    -0.000959614593    0.000534672627
            -0.000714164111    0.000470654491    -0.157152811864    -0.025420044377    -0.000959614500    0.000534672795    -0.110339692448    -0.022995113994
0.600     -0.008635274606    0.089846498666    -0.000055681010    0.001208041257    -0.011681191971    0.092498288988    0.000041910279    0.000985164092
            -0.000055681078    0.001208041354    0.029413309600    0.019918835330    -0.000049481272    0.001429940338    0.014978734358    0.005919498554
            -0.011681185403    0.092498301913    -0.000049481297    0.001429940337    -0.005999587498    0.092856886824    -0.000009979910    0.001302655772
            0.000041910230    0.000985164144    0.014978731567    0.005919486569    -0.000009979887    0.001302655772    0.023710526542    0.019549771172
0.625     -0.072120263895    0.008983782346    0.001252766927    -0.000240569670    -0.123798327106    0.055693956508    0.001077791150    -0.000383747539
            0.001252766927    -0.000240569670    -0.105479390997    -0.064965174344    0.001482822079    -0.000379007372    -0.168266873089    -0.072819343934
            -0.123798327106    0.055693956508    0.001482822092    -0.000379007321    -0.065231421658    0.009895325671    0.001394916008    -0.000402558520
            0.001077790880    -0.000383746807    -0.168266873089    -0.072819343934    0.001394915994    -0.000402558569    -0.113516587347    -0.064084351417
0.650     -0.038606712457    0.137530916084    0.000190631539    -0.000954356683    -0.034421099580    0.188054499303    0.000003814528    -0.000748648532
            0.000190632239    -0.000954356288    -0.029324726179    0.087555620148    0.000195375908    -0.001086617732    -0.061699769002    0.118581803786
            -0.034421103181    0.188054518976    0.000195375927    -0.001086617729    -0.035738734524    0.135695971332    0.000119931233    -0.000993645024
            0.000003814528    -0.000748648512    -0.061699764387    0.118581794915    0.000119931233    -0.000993645024    -0.034665723899    0.091907311459
0.675     -0.004863233123    0.013780129778    -0.001487232618    -0.000330259501    -0.034277460192    0.037282504182    -0.001322324313    -0.000159986978
            -0.001487232406    -0.000330259999    -0.062588212438    -0.084447440092    -0.001771183725    -0.000342544128    -0.111554291163    -0.063753777555
            -0.034277444886    0.037282500595    -0.001771183469    -0.000342544399    0.001395575640    0.014023571737    -0.001673972554    -0.000287092783
            -0.001322324412    -0.000159986990    -0.111554299845    -0.063753782517    -0.001673972554    -0.000287092783    -0.067474599611    -0.081542609835
0.700     -0.071249990427    0.146230883268    -0.000135269200    0.001050194230    -0.071674548981    0.214721159004    0.000096980688    0.000903365498
            -0.000135269704    0.001050193661    -0.115023822288    0.111960586902    -0.000105381075    0.001198139288    -0.162319518020    0.157515198026
            -0.071674552147    0.214721168490    -0.000105381096    0.001198139286    -0.066888679334    0.139610882520    -0.000027129433    0.001128655893
            0.000096980726    0.000903365555    -0.162319518020    0.157515198026    -0.000027129433    0.001128655893    -0.118731273040    0.118417369229
0.725     0.072298974485    0.073813371596    0.001035032330    0.000906651644    0.090212528114    0.097658059000    0.000886947162    0.000679818438
            0.001035032314    0.000906651662    0.014651754863    -0.035222786101    0.001227299645    0.001063601734    0.001956224317    -0.001336484323
            0.090212548503    0.097658067393    0.001227299665    0.001063601863    0.074298568857    0.071786623388    0.001156926579    0.000966149074
            0.000886947126    0.000679818485    0.001956218383    -0.001336484676    0.001156926630    0.000966149014    0.014069964085    -0.032529245916
0.750     -0.083852628559    0.110995046409    0.000433595025    -0.001349686424    -0.080083971184    0.160755317651    0.000188322238    -0.001246101351
            0.000433595025    -0.001349686424    -0.174894040765    0.095004145410    0.000463798171    -0.001556670037    -0.208267938288    0.128926011119
            -0.080083966725    0.160755308700    0.000463798254    -0.001556670117    -0.078132127126    0.102923861437    0.000371435202    -0.001490775474
            0.000188322238    -0.001246101351    -0.208267884266    0.128925927398    0.000371435152    -0.001490775384    -0.175192264972    0.101110530963
0.775     0.098750988445    0.156154980515    -0.000626068858    -0.000689665140    0.144190828413    0.190249151051    -0.000535828162    -0.000427883977
            -0.000626068884    -0.000689665170    0.043055931143    0.098462858538    -0.000685308963    -0.000829311468    0.049288985981    0.160362706820
            0.144190819653    0.190249132595    -0.000685308818    -0.000829311588    0.096376062195    0.149802848612    -0.000647901869    -0.000732953720
