# GHz S RI R 45
0.000     0.069187878000    0.000000000000    0.000008884489    -0.000000000000    0.011917819000    0.000000000000    0.000010906906    -0.000000000000
            0.000008884210    -0.000000000000    0.068666888000    0.000000000000    0.000016062481    -0.000000000000    0.011295420000    0.000000000000
            0.011917818000    0.000000000000    0.000016062665    -0.000000000000    0.063575023000    0.000000000000    0.000021102764    -0.000000000000
            0.000010906917    -0.000000000000    0.011295378000    0.000000000000    0.000021102810    -0.000000000000    0.062974492000    0.000000000000
0.025     0.201049203783    -0.013965882119    0.000029350684    -0.000047019911    0.091182352930    0.007158087217    0.000037318212    -0.000012844143
            0.000029350688    -0.000047019906    0.201504922483    -0.014249305973    0.000033741940    -0.000029231667    0.090796565261    0.007458486328
            0.091182353926    0.007158087295    0.000033741940    -0.000029231669    0.192319314665    -0.013137948255    0.000042765514    -0.000024346917
            0.000037318226    -0.000012844143    0.090796522686    0.007458491605    0.000042765540    -0.000024346911    0.192898303261    -0.013280716146
0.050     0.058230988102    -0.086139738480    -0.000046506596    0.000171248547    0.012641483674    -0.024228356108    -0.000043268537    0.000193134143
            -0.000046506594    0.000171248537    0.058082213561    -0.087020183264    -0.000050015011    0.000190996777    0.012492530602    -0.025505776190
            0.012641482405    -0.024228356770    -0.000050015008    0.000190996768    0.051753904873    -0.080708069482    -0.000053318908    0.000245879954
            -0.000043268481    0.000193134207    0.012492511571    -0.025505762128    -0.000053318874    0.000245880003    0.051861782252    -0.081344246748
0.075     0.141502805473    0.009725078035    0.000199516325    0.000047163054    0.084707201082    0.029532921630    0.000268791677    0.000067366443
            0.000199516343    0.000047163062    0.140826089407    0.008998979033    0.000252270093    0.000066842485    0.082401417446    0.029430441352
            0.084707202027    0.029532921960    0.000252270083    0.000066842444    0.136443966654    0.014044705608    0.000340321003    0.000076844514
            0.000268791687    0.000067366445    0.082401386797    0.029430449865    0.000340320997    0.000076844494    0.136038507362    0.013589493353
0.100     0.099042317741    -0.125490896398    -0.000053050337    0.000118641121    0.036086303541    -0.045269432586    -0.000064987248    0.000105946961
            -0.000053050346    0.000118641139    0.097539684969    -0.126835983357    -0.000065798029    0.000112833120    0.035763296083    -0.045709846438
            0.036086303374    -0.045269433998    -0.000065798034    0.000112833129    0.093245640179    -0.117921516145    -0.000094047174    0.000131803919
            -0.000064987243    0.000105946953    0.035763272304    -0.045709819333    -0.000094047186    0.000131803985    0.092339853165    -0.118977916703
0.125     0.076674696297    -0.017866017608    0.000390521066    0.000233465694    0.069945523931    0.024817330201    0.000477559522    0.000294299403
            0.000390521116    0.000233465650    0.073245147718    -0.017317631790    0.000461567219    0.000294282349    0.065586995123    0.022050661713
            0.069945523498    0.024817331422    0.000461567219    0.000294282349    0.077340630463    -0.011571418591    0.000599569860    0.000375647730
            0.000477559527    0.000294299395    0.065586977770    0.022050678812    0.000599569845    0.000375647736    0.074333974518    -0.010809833747
0.150     0.119591348034    -0.112283724315    0.000142192973    -0.000104948605    0.070874798890    -0.056274124080    0.000166837559    -0.000176300657
            0.000142192971    -0.000104948607    0.116740347120    -0.113263829038    0.000170833537    -0.000161353109    0.068152592466    -0.054683366905
            0.070874799673    -0.056274124702    0.000170833527    -0.000161353105    0.117165431309    -0.105905144634    0.000195941646    -0.000235862949
            0.000166837570    -0.000176300674    0.068152584327    -0.054683346688    0.000195941656    -0.000235862953    0.115069011925    -0.106613320673
0.175     0.017584671133    -0.063555104724    0.000353591861    0.000348763210    0.043584461453    0.029680807584    0.000394599489    0.000440664527
            0.000353591880    0.000348763205    0.012543134078    -0.061250496979    0.000385767729    0.000435204474    0.037534024102    0.029181063282
            0.043584468793    0.029680809242    0.000385767729    0.000435204474    0.020053998633    -0.054420641183    0.000477229730    0.000571723348
            0.000394599490    0.000440664512    0.037534015138    0.029181087845    0.000477229714    0.000571723349    0.015766131499    -0.052342714522
0.200     0.098254440779    -0.074007477569    0.000498547119    -0.000295628411    0.105591053350    -0.048178645882    0.000613522110    -0.000391091452
            0.000498547105    -0.000295628415    0.095237686089    -0.073142237391    0.000614664308    -0.000370585484    0.099786972101    -0.045815083048
            0.105591053350    -0.048178645882    0.000614664300    -0.000370585479    0.101487681698    -0.069952744997    0.000777616311    -0.000501377295
            0.000613522127    -0.000391091462    0.099786964320    -0.045815052062    0.000777616337    -0.000501377292    0.099177069752    -0.069122981873
0.225     0.006022648457    -0.105804496751    0.000254325545    -0.000005100241    0.014034567535    -0.009542942416    0.000258244652    -0.000002085102
            0.000254325514    -0.000005100298    -0.001644432809    -0.101017066221    0.000262770772    -0.000015614176    0.010847477275    -0.005973158970
            0.014034567035    -0.009542943151    0.000262770762    -0.000015614177    0.009484103168    -0.098447172135    0.000307923226    -0.000008738678
            0.000258244652    -0.000002085112    0.010847477231    -0.005973136247    0.000307923257    -0.000008738631    0.002754724107    -0.094162904061
0.250     0.045425596932    -0.044497761247    0.000795745394    -0.000285432114    0.116616444613    -0.021191208146    0.000984736448    -0.000329542062
            0.000795745419    -0.000285432044    0.043845212732    -0.039797165088    0.000976996732    -0.000311616214    0.110916065466    -0.019506207985
            0.116616444983    -0.021191206111    0.000976996737    -0.000311616197    0.053763022874    -0.041875744371    0.001257278388    -0.000389147877
            0.000984736448    -0.000329542062    0.110916059906    -0.019506181861    0.001257278293    -0.000389147847    0.052685231344    -0.037761274296
0.275     0.019197739356    -0.112002266738    0.000037820272    -0.000420573079    0.018096197453    -0.065960773324    -0.000016589401    -0.000512464306
            0.000037820274    -0.000420573099    0.009600656851    -0.106133595478    -0.000006017874    -0.000519652796    0.012225544205    -0.057661179900
            0.018096196659    -0.065960770431    -0.000006017874    -0.000519652796    0.023695561441    -0.110099775003    -0.000061470722    -0.000643533596
            -0.000016589401    -0.000512464316    0.012225545857    -0.057661152972    -0.000061470723    -0.000643533616    0.014817385923    -0.104925401872
0.300     -0.009893560516    -0.040335976617    0.000710479963    -0.000102494708    0.085039619255    0.001981693468    0.000866788340    -0.000060889672
            0.000710479973    -0.000102494711    -0.009074237842    -0.029532030395    0.000853307330    -0.000051906455    0.084422502023    0.005553444625
            0.085039619252    0.001981693616    0.000853307320    -0.000051906452    -0.000320141698    -0.038533369127    0.001096486524    -0.000018518995
            0.000866788340    -0.000060889667    0.084422508387    0.005553469757    0.001096486524    -0.000018518989    0.000728471000    -0.028900311415
0.325     0.025523253437    -0.082720868809    0.000162929429    -0.000935386705    0.049852251072    -0.105590187458    0.000182030503    -0.001149612998
            0.000162929447    -0.000935386712    0.018542686267    -0.078715094904    0.000197704169    -0.001147086294    0.040085411671    -0.097248707794
            0.049852251072    -0.105590187458    0.000197704149    -0.001147086298    0.031530209315    -0.086482858340    0.000233916098    -0.001459139784
            0.000182030503    -0.001149612998    0.040085419325    -0.097248683007    0.000233916124    -0.001459139780    0.024170104380    -0.082952088163
0.350     -0.041920983564    -0.057457362795    0.000121278850    -0.000077626854    0.021676881460    -0.010422487923    0.000131400052    -0.000019958714
            0.000121278867    -0.000077626847    -0.040732579531    -0.039173334525    0.000116815148    -0.000020045231    0.026152251944    0.001305511231
            0.021676881096    -0.010422488680    0.000116815220    -0.000020045226    -0.035555598254    -0.057903618795    0.000153030644    0.000037049084
            0.000131400051    -0.000019958716    0.026152288561    0.001305600045    0.000153030697    0.000037049077    -0.034400143719    -0.040934719106
0.375     0.023552669687    -0.042000841689    0.000388158889    -0.001110778536    0.079482987614    -0.102754620169    0.000519095071    -0.001336902025
            0.000388158889    -0.001110778536    0.022486909722    -0.039428507971    0.000529399923    -0.001324498147    0.070971008986    -0.099805044145
            0.079482989408    -0.102754618781    0.000529399877    -0.001324498165    0.030285100621    -0.049947419865    0.000714969964    -0.001665794105
            0.000519095084    -0.001336902128    0.070971007244    -0.099805045384    0.000714969934    -0.001665794117    0.028409069818    -0.048169114799
0.400     -0.040791186641    -0.078739478281    -0.000590043260    -0.000453867760    -0.033170395639    -0.066394815327    -0.000736820886    -0.000505722566
            -0.000590043379    -0.000453867851    -0.043904751921    -0.056343016555    -0.000745933047    -0.000514037886    -0.031290445841    -0.044483700373
            -0.033170396086    -0.066394816221    -0.000745933047    -0.000514037886    -0.039287034935    -0.083614320031    -0.000943843144    -0.000608422320
            -0.000736820886    -0.000505722566    -0.031290388883    -0.044483619399    -0.000943843144    -0.000608422320    -0.042997383755    -0.061945100035
0.425     -0.000946411837    -0.003696380572    0.000426857377    -0.000792266067    0.067374778892    -0.070892141311    0.000594120768    -0.000900889001
            0.000426857386    -0.000792266051    0.008321489895    -0.001714514820    0.000599114244    -0.000883279733    0.067798300134    -0.071284746860
            0.067374777514    -0.070892139861    0.000599114244    -0.000883279733    0.004886997743    -0.010718057078    0.000832339562    -0.001061080495
            0.000594120768    -0.000900889001    0.067798300403    -0.071284752125    0.000832339562    -0.001061080495    0.012465227120    -0.009796913276
0.450     -0.015856954629    -0.087118358043    -0.000986287796    -0.000961233262    -0.042700008809    -0.131951961830    -0.001179773996    -0.001182693695
            -0.000986287796    -0.000961233262    -0.025220960179    -0.068691664856    -0.001177601632    -0.001190476706    -0.051005140906    -0.107862253038
            -0.042699985779    -0.131951969283    -0.001177601632    -0.001190476706    -0.017643902122    -0.096398319871    -0.001454232112    -0.001525440113
            -0.001179773996    -0.001182693695    -0.051005140906    -0.107862253038    -0.001454232112    -0.001525440113    -0.028501253853    -0.077790602502
0.475     -0.041897468206    0.010604887232    -0.000054198546    -0.000314417709    0.002357358689    -0.009907032966    -0.000012621444    -0.000350284936
            -0.000054198585    -0.000314417672    -0.022604138930    0.019409025037    -0.000016228418    -0.000343014712    0.019886630546    -0.007614272436
            0.002357358689    -0.009907032966    -0.000016228430    -0.000343014702    -0.040899306513    0.005674483816    0.000043900955    -0.000450434706
            -0.000012621456    -0.000350284936    0.019886674391    -0.007614253008    0.000043900947    -0.000450434706    -0.023341381664    0.013780679035
0.500     0.016039985742    -0.074530642781    -0.000990792800    -0.001255773439    -0.008611109279    -0.153441623192    -0.001096995017    -0.001565899231
            -0.000990792800    -0.001255773439    0.003627271274    -0.067444725580    -0.001089133821    -0.001567006260    -0.025632863130    -0.140079253692
            -0.008611103923    -0.153441623493    -0.001089133821    -0.001567006260    0.013272185809    -0.085108760461    -0.001247989185    -0.002025343668
            -0.001096995017    -0.001565899231    -0.025632863130    -0.140079253692    -0.001247989132    -0.002025343583    -0.001404948131    -0.076885846643
0.525     -0.085493836941    -0.008558074850    -0.000878936365    0.000352593180    -0.101570819699    -0.009749599212    -0.001058753154    0.000441933613
            -0.000878936365    0.000352593180    -0.066369587916    0.013222204463    -0.001068281725    0.000453310386    -0.077699069740    0.010316784189
            -0.101570819699    -0.009749599212    -0.001068281633    0.000453310347    -0.090729021465    -0.012418489393    -0.001342158605    0.000560109262
            -0.001058753154    0.000441933613    -0.077699018557    0.010316804993    -0.001342158605    0.000560109262    -0.072830201803    0.010050916389
0.550     0.037918240313    -0.034199402509    -0.000559905724    -0.001088650521    0.027778748168    -0.096465942694    -0.000537760561    -0.001310650335
            -0.000559905724    -0.001088650521    0.030397819733    -0.041373846333    -0.000524763891    -0.001308474535    0.014561336644    -0.102286434137
            0.027778748168    -0.096465942694    -0.000524763663    -0.001308474627    0.035140788380    -0.041857815431    -0.000505230915    -0.001632271506
            -0.000537760790    -0.001310650241    0.014561331288    -0.102286434899    -0.000505230915    -0.001632271506    0.024882256861    -0.047212959818
0.575     -0.105499108363    -0.050556914384    -0.001521667873    0.000463748889    -0.169075493928    -0.060917195139    -0.001863330730    0.000463786467
            -0.001521667873    0.000463748889    -0.099958367091    -0.021431662325    -0.001867453340    0.000466748937    -0.157152900709    -0.025420058748
            -0.169075493928    -0.060917195139    -0.001867453243    0.000466748912    -0.115485852616    -0.055573058749    -0.002377472331    0.000445405587
            -0.001863330730    0.000463786467    -0.157152811864    -0.025420044377    -0.002377472331    0.000445405587    -0.110339692448    -0.022995113994
0.600     0.020278717245    0.033115331167    -0.000062385495    -0.000097291555    0.005339883233    0.023125308783    -0.000008655481    -0.000080418613
            -0.000062385455    -0.000097291605    0.029413309600    0.019918835330    0.000009343832    -0.000067896425    0.014978734358    0.005919498554
            0.005339882743    0.023125314028    0.000009343917    -0.000067896494    0.016786516942    0.031028516406    0.000065371750    -0.000040386295
            -0.000008655482    -0.000080418615    0.014978731567    0.005919486569    0.000065371713    -0.000040386237    0.023710526542    0.019549771172
0.625     -0.093294193573    -0.097262258293    -0.001790272148    0.000463677309    -0.160430768930    -0.107841301635    -0.002120200732    0.000345458438
            -0.001790272148    0.000463677309    -0.105479390997    -0.064965174344    -0.002119850040    0.000346660853    -0.168266873089    -0.072819343934
            -0.160430768930    -0.107841301635    -0.002119849941    0.000346660837    -0.099626424199    -0.099251062574    -0.002605256981    0.000152097400
            -0.002120200633    0.000345458422    -0.168266873089    -0.072819343934    -0.002605256881    0.000152097394    -0.113516587347    -0.064084351417
0.650     -0.054480442298    0.085218510049    -0.000202846604    0.001031489489    -0.096378042921    0.120450608537    -0.000284477171    0.001269961068
            -0.000202846604    0.001031489489    -0.029324726179    0.087555620148    -0.000275890939    0.001286341170    -0.061699769002    0.118581803786
            -0.096378042921    0.120450608537    -0.000275890939    0.001286341170    -0.059487242338    0.087837586612    -0.000423528262    0.001637392299
            -0.000284477193    0.001269961165    -0.061699764387    0.118581794915    -0.000423528287    0.001637392396    -0.034665723899    0.091907311459
0.675     -0.038045578595    -0.102017387315    -0.001485299776    0.000342220727    -0.095380166634    -0.088247212797    -0.001655003340    0.000270941559
            -0.001485299776    0.000342220727    -0.062588212438    -0.084447440092    -0.001649133857    0.000264581542    -0.111554291163    -0.063753777555
            -0.095380159294    -0.088247206005    -0.001649133857    0.000264581542    -0.041944569309    -0.103804350359    -0.001893429980    0.000160686488
            -0.001655003340    0.000270941559    -0.111554299845    -0.063753782517    -0.001893429880    0.000160686480    -0.067474599611    -0.081542609835
0.700     -0.139344430229    0.085433570488    -0.000293259959    0.001557351191    -0.199589606640    0.131394931166    -0.000544268298    0.001835741098
            -0.000293259959    0.001557351191    -0.115023822288    0.111960586902    -0.000536313543    0.001842065405    -0.162319518020    0.157515198026
            -0.199589606640    0.131394931166    -0.000536313543    0.001842065405    -0.144537301399    0.089890963788    -0.000943500321    0.002250279217
            -0.000544268298    0.001835741098    -0.162319518020    0.157515198026    -0.000943500321    0.002250279217    -0.118731273040    0.118417369229
0.725     0.030689709919    -0.034664410035    -0.000377382104    0.000139433844    0.018684506306    0.010505199167    -0.000333189898    0.000144731357
            -0.000377382184    0.000139433799    0.014651754863    -0.035222786101    -0.000309981629    0.000133867419    0.001956224317    -0.001336484323
            0.018684509287    0.010505199985    -0.000309981638    0.000133867423    0.028519595718    -0.032694971623    -0.000237459162    0.000157849107
            -0.000333189863    0.000144731411    0.001956218383    -0.001336484676    -0.000237459118    0.000157849137    0.014069964085    -0.032529245916
0.750     -0.188912356424    0.050436150579    -0.000225451882    0.001892251622    -0.230144908633    0.083705219025    -0.000515643345    0.002072834114
            -0.000225451861    0.001892251726    -0.174894040765    0.095004145410    -0.000506529181    0.002079542855    -0.208267938288    0.128926011119
            -0.230144908633    0.083705219025    -0.000506529181    0.002079542855    -0.192205346541    0.054683970655    -0.000977472449    0.002322108309
            -0.000515643345    0.002072834114    -0.208267884266    0.128925927398    -0.000977472449    0.002322108309    -0.175192264972    0.101110530963
0.775     0.029444942062    0.102192396889    0.000611002179    0.000771331825    0.027943346267    0.180206136041    0.000726293851    0.001025007292
            0.000611002180    0.000771331799    0.043055931143    0.098462858538    0.000748576639    0.001026644005    0.049288985981    0.160362706820
            0.027943346267    0.180206136041    0.000748576562    0.001026643937    0.029844283690    0.105704230049    0.000912699650    0.001427583779
