!$
! Info: Touchstone file created by Circ.  Input file=Intel_C2M_200G_5p0in_202208016_staggered.circ
!$
# Hz S RI R 50
0	0.01663033	3.066651e-24	5.854045e-05	7.720106e-23	0.000101903	2.698131e-22	5.847414e-05	7.706321e-23
	5.854045e-05	7.720106e-23	0.0166435	3.250128e-24	5.852315e-05	7.715113e-23	0.0001015173	2.683811e-22
	0.0001019609	2.699405e-22	5.852314e-05	7.715229e-23	0.01662515	2.937816e-24	5.848723e-05	7.701565e-23
	5.847413e-05	7.706437e-23	0.0001015752	2.685082e-22	5.848723e-05	7.701565e-23	0.01664144	3.080552e-24
1e+07	0.02059818	-0.001614002	1.141631e-05	6.781306e-06	0.001143585	0.005476818	1.920209e-06	1.58477e-05
	1.141631e-05	6.781306e-06	0.0203991	-0.001804436	3.63955e-05	7.108618e-06	0.001358442	0.005551324
	0.001143585	0.005476818	3.63955e-05	7.108618e-06	0.02085012	-0.001605576	1.489123e-05	1.900067e-05
	1.920209e-06	1.58477e-05	0.001358442	0.005551324	1.489123e-05	1.900067e-05	0.02027988	-0.001775881
2e+07	0.0233747	-0.006697953	4.759505e-06	1.844719e-05	0.002879711	0.01038988	2.79745e-06	5.91921e-06
	4.759505e-06	1.844719e-05	0.02302116	-0.006921814	2.475634e-05	1.972624e-05	0.003074895	0.01045521
	0.002879721	0.01038987	2.475634e-05	1.972624e-05	0.023538	-0.006753002	1.097273e-05	1.674118e-05
	2.797451e-06	5.91921e-06	0.003074905	0.0104552	1.097273e-05	1.674118e-05	0.02293313	-0.00682026
3e+07	0.02461136	-0.01323665	1.652011e-05	2.308821e-05	0.005439759	0.01494361	4.113442e-06	4.062985e-06
	1.652011e-05	2.308821e-05	0.02413635	-0.01343551	1.785683e-05	2.965425e-05	0.005623188	0.01503712
	0.005439732	0.01494365	1.785682e-05	2.965425e-05	0.02470819	-0.01326391	8.793894e-06	1.781275e-05
	4.113443e-06	4.062985e-06	0.005623162	0.01503715	8.793895e-06	1.781275e-05	0.02407283	-0.01328389
4e+07	0.02439506	-0.02031157	2.638229e-05	2.324685e-05	0.008818144	0.01889791	5.596979e-06	4.076013e-06
	2.638229e-05	2.324685e-05	0.02381931	-0.02045593	1.312934e-05	3.567722e-05	0.008994763	0.01902576
	0.00881814	0.01889794	1.312934e-05	3.567722e-05	0.02445122	-0.02029017	7.470504e-06	1.904634e-05
	5.59698e-06	4.076013e-06	0.008994759	0.01902579	7.470505e-06	1.904634e-05	0.0237879	-0.02026583
5e+07	0.02291325	-0.02744355	3.450519e-05	2.065536e-05	0.0128807	0.02216383	7.3462e-06	4.944746e-06
	3.45052e-05	2.065536e-05	0.02225464	-0.02751247	2.406149e-05	3.374531e-05	0.01305421	0.02232711
	0.0128807	0.02216384	2.406149e-05	3.374531e-05	0.02294667	-0.02736366	1.155508e-05	1.789184e-05
	7.3462e-06	4.944745e-06	0.01305421	0.02232712	1.155508e-05	1.789184e-05	0.02225786	-0.02729221
6e+07	0.02029458	-0.03437433	4.103713e-05	1.633158e-05	0.01750509	0.02463828	8.964761e-06	5.328281e-06
	4.103713e-05	1.633158e-05	0.01957051	-0.03435176	3.29788e-05	2.950287e-05	0.0176781	0.02483571
	0.01750511	0.02463827	3.29788e-05	2.950287e-05	0.02032145	-0.03423134	1.52303e-05	1.603255e-05
	8.96476e-06	5.328281e-06	0.01767812	0.02483569	1.52303e-05	1.603255e-05	0.01961024	-0.03410834
7e+07	0.01665177	-0.04088981	4.599525e-05	1.07801e-05	0.02254804	0.02623815	1.046065e-05	5.376514e-06
	4.599525e-05	1.07801e-05	0.01588003	-0.04076314	3.98751e-05	2.354428e-05	0.02272203	0.02646709
	0.02254804	0.02623814	3.98751e-05	2.354427e-05	0.01668715	-0.04068327	1.822487e-05	1.366781e-05
	1.046065e-05	5.376513e-06	0.02272203	0.02646708	1.822487e-05	1.366781e-05	0.01595772	-0.04050363
8e+07	0.01212157	-0.0468102	4.936238e-05	4.321211e-06	0.02785523	0.02690542	1.183764e-05	5.164183e-06
	4.936238e-05	4.321211e-06	0.0113211	-0.04656925	4.469798e-05	1.625634e-05	0.02803047	0.02716243
	0.02785523	0.02690543	4.469798e-05	1.625634e-05	0.01217957	-0.0465424	2.052532e-05	1.088274e-05
	1.183764e-05	5.164183e-06	0.02803047	0.02716243	2.052532e-05	1.088274e-05	0.01143762	-0.04630069
9e+07	0.00686448	-0.05199605	5.10182e-05	-2.848237e-06	0.03326652	0.02660808	1.307508e-05	4.759517e-06
	5.10182e-05	-2.848237e-06	0.006056809	-0.05163175	4.730388e-05	8.000271e-06	0.03344196	0.02688906
	0.03326653	0.02660809	4.730388e-05	8.000271e-06	0.006958271	-0.05167089	2.205787e-05	7.761654e-06
	1.307508e-05	4.759517e-06	0.03344196	0.02688907	2.205787e-05	7.761654e-06	0.006211511	-0.05136152
1e+08	0.00107629	-0.05632695	5.012671e-05	-1.116588e-05	0.03862192	0.02533959	1.406567e-05	4.175931e-06
	5.012671e-05	-1.116588e-05	0.0002950026	-0.05582315	4.668688e-05	-1.72459e-06	0.03879583	0.0256401
	0.03862192	0.02533959	4.668688e-05	-1.72459e-06	0.001222609	-0.05594525	2.244604e-05	4.133039e-06
	1.406567e-05	4.175931e-06	0.03879583	0.0256401	2.244604e-05	4.133039e-06	0.0004852727	-0.05555904
1.1e+08	-0.005056339	-0.05994324	4.568874e-05	-1.544824e-05	0.04377011	0.023101	1.502725e-05	4.069262e-06
	4.568874e-05	-1.544824e-05	-0.005761274	-0.059352	4.162913e-05	-6.612611e-06	0.04393632	0.02341425
	0.04377011	0.02310099	4.162913e-05	-6.612611e-06	-0.004781845	-0.05957256	2.137756e-05	2.224594e-06
	1.502725e-05	4.069263e-06	0.04393632	0.02341425	2.137756e-05	2.224594e-06	-0.005489115	-0.05913128
1.2e+08	-0.01153717	-0.06268231	4.27819e-05	-1.803583e-05	0.04850805	0.01996515	1.668918e-05	4.134635e-06
	4.27819e-05	-1.803583e-05	-0.01218326	-0.06202872	3.818714e-05	-9.31071e-06	0.04865832	0.02028958
	0.04850805	0.01996515	3.818714e-05	-9.31071e-06	-0.01120787	-0.06234178	2.096315e-05	9.578003e-07
	1.668918e-05	4.134635e-06	0.04865832	0.02028958	2.096315e-05	9.578004e-07	-0.01189326	-0.06185352
1.3e+08	-0.01816408	-0.06451498	4.187335e-05	-1.908983e-05	0.0527077	0.01600609	1.846629e-05	3.778053e-06
	4.187335e-05	-1.908983e-05	-0.01875786	-0.06380959	3.540451e-05	-1.120663e-05	0.052834	0.01634152
	0.0527077	0.01600609	3.540451e-05	-1.120663e-05	-0.01780435	-0.06419365	2.081692e-05	-1.255126e-07
	1.846629e-05	3.778053e-06	0.052834	0.01634151	2.081692e-05	-1.255126e-07	-0.01846985	-0.06366031
1.4e+08	-0.02478015	-0.06546339	4.288687e-05	-1.921937e-05	0.05624552	0.01131838	2.031823e-05	2.983623e-06
	4.288687e-05	-1.921937e-05	-0.0253258	-0.06471308	3.307572e-05	-1.267692e-05	0.05633959	0.01166619
	0.05624552	0.01131838	3.307572e-05	-1.267692e-05	-0.02439304	-0.06515626	2.084898e-05	-1.156075e-06
	2.031823e-05	2.983623e-06	0.05633959	0.01166619	2.084898e-05	-1.156075e-06	-0.02503885	-0.06457856
1.5e+08	-0.03124671	-0.06557304	4.384579e-05	-1.991214e-05	0.05901141	0.006014369	2.219408e-05	1.834272e-06
	4.384579e-05	-1.991214e-05	-0.03174726	-0.06478288	3.109595e-05	-1.382347e-05	0.05906494	0.006377626
	0.05901141	0.006014367	3.109595e-05	-1.382347e-05	-0.03083184	-0.06528341	2.100984e-05	-2.222799e-06
	2.219408e-05	1.834272e-06	0.05906494	0.006377625	2.100984e-05	-2.222799e-06	-0.03145705	-0.06466176
1.6e+08	-0.03744181	-0.06490903	4.473056e-05	-2.112697e-05	0.06091301	0.0002218508	2.405108e-05	3.042883e-07
	4.473056e-05	-2.112697e-05	-0.03789957	-0.06408306	2.940703e-05	-1.478631e-05	0.06091795	0.0006053267
	0.06091301	0.0002218502	2.940703e-05	-1.478631e-05	-0.03700074	-0.06464478	2.125326e-05	-3.387313e-06
	2.405108e-05	3.042883e-07	0.06091795	0.0006053261	2.125326e-05	-3.387313e-06	-0.03760372	-0.06397973
1.7e+08	-0.04326062	-0.0635534	4.547329e-05	-2.29121e-05	0.06187819	-0.00591912	2.582821e-05	-1.641496e-06
	4.547329e-05	-2.29121e-05	-0.04367746	-0.06269509	2.895012e-05	-1.533698e-05	0.06182706	-0.005509002
	0.06187819	-0.00591912	2.895012e-05	-1.533698e-05	-0.04279881	-0.06332341	2.181197e-05	-4.653355e-06
	2.582821e-05	-1.641496e-06	0.06182706	-0.005509002	2.181197e-05	-4.653355e-06	-0.04337745	-0.06261587
1.8e+08	-0.04861798	-0.06160194	4.600718e-05	-2.522031e-05	0.06185673	-0.01225932	2.745688e-05	-4.020363e-06
	4.600718e-05	-2.522031e-05	-0.04899549	-0.06071436	2.909916e-05	-1.592508e-05	0.06174287	-0.01181451
	0.06185673	-0.01225932	2.909916e-05	-1.592508e-05	-0.04814426	-0.06141391	2.265012e-05	-6.07392e-06
	2.745688e-05	-4.020363e-06	0.06174287	-0.01181451	2.265012e-05	-6.07392e-06	-0.04869622	-0.06066535
1.9e+08	-0.0534492	-0.05916097	4.628137e-05	-2.798555e-05	0.06082173	-0.0186437	2.887954e-05	-6.8096e-06
	4.628137e-05	-2.798555e-05	-0.05378889	-0.05824701	2.90913e-05	-1.681449e-05	0.06063969	-0.01815466
	0.06082173	-0.0186437	2.90913e-05	-1.681449e-05	-0.05297502	-0.05902014	2.329211e-05	-7.773713e-06
	2.887954e-05	-6.8096e-06	0.06063969	-0.01815466	2.329211e-05	-7.773713e-06	-0.053498	-0.05823259
2e+08	-0.05771222	-0.05634293	4.622429e-05	-3.118289e-05	0.05876979	-0.02491498	3.002451e-05	-1.000461e-05
	4.622429e-05	-3.118289e-05	-0.05801561	-0.0554053	2.88934e-05	-1.797576e-05	0.05851548	-0.02437079
	0.05876979	-0.02491498	2.88934e-05	-1.797576e-05	-0.05724956	-0.05625191	2.369963e-05	-9.732006e-06
	3.002451e-05	-1.000461e-05	0.05851548	-0.02437079	2.369963e-05	-9.732006e-06	-0.0577415	-0.05542802
2.1e+08	-0.06138659	-0.05326207	4.575717e-05	-3.478385e-05	0.05572089	-0.03091674	3.081577e-05	-1.358866e-05
	4.575717e-05	-3.478385e-05	-0.06165535	-0.05230342	2.846742e-05	-1.939409e-05	0.05539199	-0.03030544
	0.05572089	-0.03091674	2.846742e-05	-1.939409e-05	-0.06094852	-0.05322061	2.383304e-05	-1.192356e-05
	3.081577e-05	-1.358866e-05	0.05539199	-0.03030544	2.383304e-05	-1.192356e-05	-0.06140784	-0.05236351
2.2e+08	-0.06447434	-0.05003114	4.479933e-05	-3.874414e-05	0.05171805	-0.03649692	3.117594e-05	-1.753218e-05
	4.479933e-05	-3.874414e-05	-0.06471041	-0.04905395	2.777379e-05	-2.104174e-05	0.05131415	-0.03580572
	0.05171805	-0.03649692	2.777379e-05	-2.104174e-05	-0.06407336	-0.05003587	2.365334e-05	-1.431868e-05
	3.117594e-05	-1.753218e-05	0.05131415	-0.03580572	2.365334e-05	-1.431868e-05	-0.06449909	-0.04914912
2.3e+08	-0.06699804	-0.04675666	4.327026e-05	-4.300585e-05	0.04682652	-0.0415112	3.102686e-05	-2.179307e-05
	4.327026e-05	-4.300585e-05	-0.06720367	-0.04576315	2.677018e-05	-2.288832e-05	0.04634932	-0.04072674
	0.04682652	-0.0415112	2.677018e-05	-2.288832e-05	-0.06664548	-0.04680216	2.312314e-05	-1.68816e-05
	3.102686e-05	-2.179307e-05	0.04634932	-0.04072674	2.312314e-05	-1.68816e-05	-0.06703744	-0.04588952
2.4e+08	-0.06899924	-0.04353549	4.109277e-05	-4.749602e-05	0.04113249	-0.04582548	3.029449e-05	-2.631281e-05
	4.109277e-05	-4.749602e-05	-0.06917704	-0.0425276	2.541665e-05	-2.489579e-05	0.04058595	-0.0449342
	0.04113249	-0.04582548	2.541665e-05	-2.489579e-05	-0.06870556	-0.04361429	2.220724e-05	-1.957234e-05
	3.029449e-05	-2.631281e-05	0.04058595	-0.0449342	2.220724e-05	-1.957234e-05	-0.06906445	-0.04267951
2.5e+08	-0.07053631	-0.04045166	3.819639e-05	-5.212651e-05	0.03474129	-0.04931904	2.890969e-05	-3.101911e-05
	3.819639e-05	-5.212651e-05	-0.07068928	-0.03943084	2.367381e-05	-2.702093e-05	0.03413176	-0.04830759
	0.03474129	-0.04931904	2.367381e-05	-2.702093e-05	-0.07031002	-0.04055483	2.087445e-05	-2.234412e-05
	2.890969e-05	-3.101911e-05	0.03413176	-0.04830759	2.087445e-05	-2.234412e-05	-0.07063741	-0.03960145
2.6e+08	-0.07168122	-0.03757381	3.452042e-05	-5.679381e-05	0.02777584	-0.05188762	2.681171e-05	-3.582523e-05
	3.452042e-05	-5.679381e-05	-0.07181268	-0.03654094	2.150589e-05	-2.921379e-05	0.02711196	-0.05074323
	0.02777584	-0.05188762	2.150589e-05	-2.921379e-05	-0.07152959	-0.03769116	1.909712e-05	-2.514583e-05
	2.681171e-05	-3.582523e-05	0.02711196	-0.05074323	1.909712e-05	-2.514583e-05	-0.07182795	-0.03672219
2.7e+08	-0.0725165	-0.03495301	3.001671e-05	-6.138125e-05	0.02037379	-0.05344483	2.395008e-05	-4.063176e-05
	3.001671e-05	-6.138125e-05	-0.07263002	-0.03390825	1.888016e-05	-3.141794e-05	0.01966667	-0.05215572
	0.02037379	-0.05344483	1.888016e-05	-3.141794e-05	-0.07244506	-0.0350734	1.685148e-05	-2.792154e-05
	2.395008e-05	-4.063176e-05	0.01966667	-0.05215572	1.685148e-05	-2.792154e-05	-0.07271762	-0.03409113
2.8e+08	-0.07313181	-0.0326205	2.465501e-05	-6.575849e-05	0.01268525	-0.05392523	2.028877e-05	-4.532645e-05
	2.465501e-05	-6.575849e-05	-0.07323109	-0.03156315	1.57683e-05	-3.357069e-05	0.01194815	-0.05248104
	0.01268525	-0.05392523	1.57683e-05	-3.357069e-05	-0.07314393	-0.03273229	1.412085e-05	-3.060953e-05
	2.028877e-05	-4.532645e-05	0.01194815	-0.05248104	1.412085e-05	-3.060953e-05	-0.07339461	-0.03173804
2.9e+08	-0.07361965	-0.03058766	1.842347e-05	-6.978579e-05	0.004869567	-0.05328585	1.580843e-05	-4.978736e-05
	1.842347e-05	-6.978579e-05	-0.07370835	-0.02951605	1.214965e-05	-3.560188e-05	0.004117832	-0.05167808
	0.004869567	-0.05328585	1.214965e-05	-3.560188e-05	-0.07371745	-0.03067867	1.089397e-05	-3.314402e-05
	1.580843e-05	-4.978736e-05	0.004117832	-0.05167808	1.089397e-05	-3.314402e-05	-0.07395049	-0.02967258
3e+08	-0.07407162	-0.02884511	1.132961e-05	-7.33171e-05	-0.002907824	-0.05150708	1.05069e-05	-5.38848e-05
	1.132961e-05	-7.33171e-05	-0.07415314	-0.02775654	8.01182e-06	-3.743527e-05	-0.00365701	-0.04972942
	-0.002907825	-0.05150708	8.01182e-06	-3.743527e-05	-0.07425543	-0.02890323	7.16687e-06	-3.545482e-05
	1.05069e-05	-5.38848e-05	-0.003657011	-0.04972942	7.16687e-06	-3.545482e-05	-0.07447521	-0.02788404
3.1e+08	-0.07457436	-0.02736355	3.408949e-06	-7.620168e-05	-0.01047916	-0.04859431	4.402665e-06	-5.748484e-05
	3.408949e-06	-7.620168e-05	-0.07465157	-0.02625425	3.348174e-06	-3.898907e-05	-0.01120719	-0.04664304
	-0.01047916	-0.04859431	3.348174e-06	-3.898907e-05	-0.07484323	-0.02737638	2.944824e-06	-3.746792e-05
	4.402665e-06	-5.748484e-05	-0.01120719	-0.04664304	2.944824e-06	-3.746792e-05	-0.07505389	-0.02634142
3.2e+08	-0.07520596	-0.0260945	-5.283346e-06	-7.828997e-05	-0.01767801	-0.04457785	-2.46366e-06	-6.045171e-05
	-5.283346e-06	-7.828997e-05	-0.07528097	-0.02495966	-1.832992e-06	-4.017603e-05	-0.01836519	-0.04245217
	-0.01767801	-0.04457786	-1.832992e-06	-4.017603e-05	-0.07555645	-0.02604992	-1.759872e-06	-3.910631e-05
	-2.46366e-06	-6.045171e-05	-0.01836519	-0.04245217	-1.759872e-06	-3.910631e-05	-0.07576154	-0.02499505
3.3e+08	-0.07603168	-0.02497273	-1.466438e-05	-7.943631e-05	-0.0243427	-0.03951258	-1.003113e-05	-6.265196e-05
	-1.466438e-05	-7.943631e-05	-0.07610552	-0.02380658	-7.515529e-06	-4.090509e-05	-0.02496878	-0.03721473
	-0.0243427	-0.03951258	-7.515529e-06	-4.090509e-05	-0.07645918	-0.02485875	-6.922198e-06	-4.029065e-05
	-1.003113e-05	-6.265196e-05	-0.02496878	-0.03721473	-6.922198e-06	-4.029065e-05	-0.07666124	-0.02377844
3.4e+08	-0.07710068	-0.02391825	-2.462801e-05	-7.950357e-05	-0.03032097	-0.03347739	-1.821324e-05	-6.39584e-05
	-2.462801e-05	-7.950357e-05	-0.07717301	-0.02271427	-1.366801e-05	-4.108189e-05	-0.03086561	-0.03101297
	-0.03032097	-0.03347739	-1.366801e-05	-4.108189e-05	-0.07759867	-0.02372397	-1.250789e-05	-4.094028e-05
	-1.821324e-05	-6.39584e-05	-0.03086561	-0.03101297	-1.250789e-05	-4.094028e-05	-0.07779885	-0.02261143
3.5e+08	-0.07844332	-0.02284033	-3.50415e-05	-7.836908e-05	-0.03547261	-0.02657343	-2.690792e-05	-6.425209e-05
	-3.50415e-05	-7.836908e-05	-0.07851218	-0.02159147	-2.024256e-05	-4.061221e-05	-0.03591592	-0.02395132
	-0.03547261	-0.02657343	-2.024256e-05	-4.061221e-05	-0.07900414	-0.02255511	-1.846946e-05	-4.097496e-05
	-2.690792e-05	-6.425209e-05	-0.03591592	-0.02395132	-1.846946e-05	-4.097496e-05	-0.07920181	-0.02140263
3.6e+08	-0.0800691	-0.02164073	-4.575525e-05	-7.592322e-05	-0.03967356	-0.01892237	-3.598793e-05	-6.342789e-05
	-4.575525e-05	-7.592322e-05	-0.08013068	-0.02033974	-2.718001e-05	-3.940113e-05	-0.03999676	-0.01615472
	-0.03967356	-0.01892237	-2.718001e-05	-3.940113e-05	-0.08068309	-0.0212553	-2.474498e-05	-4.031689e-05
	-3.598793e-05	-6.342789e-05	-0.03999676	-0.01615472	-2.474498e-05	-4.031689e-05	-0.08087556	-0.02005457
3.7e+08	-0.08196462	-0.02021878	-5.659486e-05	-7.208248e-05	-0.04281899	-0.0106631	-4.53086e-05	-6.139713e-05
	-5.659486e-05	-7.208248e-05	-0.0820131	-0.01885861	-3.439817e-05	-3.736025e-05	-0.04300484	-0.007765247
	-0.04281899	-0.0106631	-3.439817e-05	-3.736025e-05	-0.08262091	-0.01972512	-3.126267e-05	-3.889064e-05
	-4.53086e-05	-6.139713e-05	-0.04300484	-0.007765247	-3.126267e-05	-3.889064e-05	-0.08280312	-0.01846767
3.8e+08	-0.0840937	-0.01847519	-6.73742e-05	-6.678059e-05	-0.04482499	-0.001948967	-5.470968e-05	-5.809065e-05
	-6.73742e-05	-6.678059e-05	-0.08412117	-0.01704941	-4.180249e-05	-3.440547e-05	-0.04485841	0.001060862
	-0.04482499	-0.001948967	-4.180249e-05	-3.440547e-05	-0.08478035	-0.01786636	-3.793192e-05	-3.662998e-05
	-5.470968e-05	-5.809065e-05	-0.04485841	0.001060862	-3.793192e-05	-3.662998e-05	-0.08494474	-0.01654414
3.9e+08	-0.08639649	-0.0163166	-7.789201e-05	-5.998112e-05	-0.04563171	0.007055443	-6.402055e-05	-5.345765e-05
	-7.789201e-05	-5.998112e-05	-0.08639297	-0.01481989	-4.927999e-05	-3.046288e-05	-0.04550019	0.01015646
	-0.04563171	0.007055443	-4.927999e-05	-3.046288e-05	-0.08710028	-0.01558826	-4.465283e-05	-3.347375e-05
	-6.402055e-05	-5.345765e-05	-0.04550019	0.01015646	-4.465283e-05	-3.347375e-05	-0.08723681	-0.01419416
4e+08	-0.08879186	-0.01366134	-8.79368e-05	-5.167619e-05	-0.04520352	0.01617896	-7.305559e-05	-4.747687e-05
	-8.79368e-05	-5.167619e-05	-0.08874544	-0.01209005	-5.669931e-05	-2.547277e-05	-0.04489767	0.01934823
	-0.04520352	0.01617896	-5.669931e-05	-2.547277e-05	-0.08949944	-0.01281039	-5.130767e-05	-2.937709e-05
	-7.305559e-05	-4.747687e-05	-0.04489767	0.01934823	-5.130767e-05	-2.937709e-05	-0.08959559	-0.01133888
4.1e+08	-0.09117965	-0.01044354	-9.729585e-05	-4.188412e-05	-0.04353025	0.02524694	-8.162628e-05	-4.014509e-05
	-9.729585e-05	-4.188412e-05	-0.09107668	-0.008796053	-6.391469e-05	-1.939128e-05	-0.043044	0.02845984
	-0.04353025	0.02524694	-6.391469e-05	-1.939128e-05	-0.09187682	-0.009468746	-5.777096e-05	-2.430455e-05
	-8.162628e-05	-4.014509e-05	-0.043044	0.02845984	-5.777096e-05	-2.430455e-05	-0.09191785	-0.007916435
4.2e+08	-0.09344176	-0.006616071	-0.0001057524	-3.065486e-05	-0.04062734	0.03408567	-8.95389e-05	-3.149223e-05
	-0.0001057524	-3.065486e-05	-0.09326728	-0.004893355	-7.077057e-05	-1.219516e-05	-0.03995829	0.03731647
	-0.04062734	0.03408567	-7.077057e-05	-1.219516e-05	-0.09411421	-0.005518385	-6.390373e-05	-1.824028e-05
	-8.95389e-05	-3.149223e-05	-0.03995829	0.03731647	-6.390373e-05	-1.824028e-05	-0.09408355	-0.003884602
4.3e+08	-0.09544828	-0.002155279	-0.0001130941	-1.806836e-05	-0.03653435	0.04252606	-9.660039e-05	-2.157153e-05
	-0.0001130941	-1.806836e-05	-0.09518642	-0.0003612251	-7.709502e-05	-3.882649e-06	-0.03568392	0.04574841
	-0.03653435	0.04252606	-7.709502e-05	-3.882649e-06	-0.0960822	-0.0009375491	-6.956075e-05	-1.118759e-05
	-9.660039e-05	-2.157153e-05	-0.03568392	0.04574841	-6.956075e-05	-1.118759e-05	-0.09596189	0.0007751413
4.4e+08	-0.0970611	0.00293729	-0.0001191174	-4.236453e-06	-0.03131439	0.05040674	-0.0001026233	-1.045909e-05
	-0.0001191174	-4.236453e-06	-0.09669562	0.004795572	-8.271367e-05	5.521429e-06	-0.0302879	0.05359434
	-0.03131439	0.05040674	-8.271367e-05	5.521429e-06	-0.09764264	0.0042703	-7.458997e-05	-3.171666e-06
	-0.0001026233	-1.045909e-05	-0.0302879	0.05359434	-7.458997e-05	-3.171666e-06	-0.09741396	0.006055739
4.5e+08	-0.09813741	0.008632611	-0.0001236276	1.070453e-05	-0.02505229	0.05757779	-0.0001074247	1.735966e-06
	-0.0001236276	1.070453e-05	-0.09765235	0.01054457	-8.74494e-05	1.596333e-05	-0.02385893	0.06070491
	-0.02505229	0.05757779	-8.74494e-05	1.596333e-05	-0.09865366	0.01007432	-7.883862e-05	5.764127e-06
	-0.0001074247	1.735966e-06	-0.02385893	0.06070491	-7.883862e-05	5.764127e-06	-0.09829774	0.01192244
4.6e+08	-0.09853623	0.01487376	-0.0001264449	2.658886e-05	-0.01785212	0.06390303	-0.0001108324	1.488124e-05
	-0.0001264449	2.658886e-05	-0.0979165	0.01682536	-9.112539e-05	2.736729e-05	-0.01650489	0.06694512
	-0.01785212	0.06390303	-9.112539e-05	2.736729e-05	-0.09897582	0.01641601	-8.215524e-05	1.554745e-05
	-0.0001108324	1.488124e-05	-0.01650489	0.06694512	-8.215524e-05	1.554745e-05	-0.09847443	0.01831266
4.7e+08	-0.09812477	0.02157519	-0.0001274079	4.322746e-05	-0.00983482	0.06926292	-0.0001126895	2.8825e-05
	-0.0001274079	4.322746e-05	-0.09735693	0.02354899	-9.356946e-05	3.962084e-05	-0.008350331	0.0721971
	-0.00983482	0.06926292	-9.356946e-05	3.962084e-05	-0.09847633	0.02320844	-8.439157e-05	2.608193e-05
	-0.0001126895	2.8825e-05	-0.008350331	0.0721971	-8.439157e-05	2.608193e-05	-0.09781273	0.02513543
4.8e+08	-0.09678056	0.02862567	-0.0001263759	6.040292e-05	-0.001135897	0.07355552	-0.0001128542	4.338306e-05
