!$
! Info: Touchstone file created by Circ.  Input file=Intel_C2M_200G_5p0in_202208016_staggered.circ
!$
# Hz S RI R 50
0	0.0166435	3.250128e-24	0.9831559	-5.665878e-24	0.0001015173	2.683811e-22	-0.0002327946	2.850912e-20
	0.9831559	-5.663678e-24	0.01719903	6.154471e-24	-0.0002328502	2.851593e-20	0.0003261554	4.859039e-22
	0.0001015752	2.685082e-22	-0.0002329874	2.853273e-20	0.01664144	3.080552e-24	0.9831562	-5.743366e-24
	-0.0002329319	2.852592e-20	0.0003262241	4.862444e-22	0.9831562	-5.745572e-24	0.01720044	6.272973e-24
1e+07	0.0203991	-0.001804436	0.9753279	-0.08953152	0.001358442	0.005551324	-0.0008297112	-0.0004600718
	0.9753279	-0.08953152	0.02023808	-0.00162263	-0.0008297196	-0.0004600384	0.001256249	0.00557649
	0.001358442	0.005551324	-0.0008297196	-0.0004600384	0.02027988	-0.001775881	0.9754502	-0.08953546
	-0.0008297112	-0.0004600718	0.001256249	0.00557649	0.9754502	-0.08953546	0.02011912	-0.001594043
2e+07	0.02302116	-0.006921814	0.960143	-0.1748626	0.003074895	0.01045521	-0.0009855771	-0.0005289148
	0.960143	-0.1748626	0.02255838	-0.006340354	-0.0009855224	-0.0005289516	0.002638561	0.01063339
	0.003074905	0.0104552	-0.0009855224	-0.0005290625	0.02293313	-0.00682026	0.9602451	-0.1749187
	-0.0009855761	-0.0005290193	0.002638647	0.01063328	0.9602451	-0.1749187	0.02246359	-0.006235102
3e+07	0.02413635	-0.01343551	0.938507	-0.2571018	0.005623188	0.01503712	-0.001061655	-0.0005981421
	0.938507	-0.2571018	0.02276338	-0.01254954	-0.001061688	-0.000598126	0.004787983	0.01534856
	0.005623162	0.01503715	-0.001061729	-0.0005981236	0.02407283	-0.01328389	0.9385906	-0.2571845
	-0.001061667	-0.000598147	0.004787959	0.01534853	0.9385906	-0.2571845	0.02270373	-0.01239839
4e+07	0.02381931	-0.02045593	0.9103341	-0.3365055	0.008994763	0.01902576	-0.001081362	-0.0006906228
	0.9103341	-0.3365055	0.02141796	-0.01883284	-0.001081488	-0.0006904988	0.007569288	0.01967607
	0.008994759	0.01902579	-0.001081493	-0.0006904948	0.0237879	-0.02026583	0.910399	-0.3366086
	-0.001081363	-0.0006906095	0.007569288	0.01967608	0.910399	-0.3366086	0.02139319	-0.01864555
5e+07	0.02225464	-0.02751247	0.8757785	-0.4127302	0.01305421	0.02232711	-0.00106633	-0.0008290129
	0.8757785	-0.4127302	0.01869979	-0.02485817	-0.00106659	-0.0008288188	0.0109389	0.02350447
	0.01305421	0.02232712	-0.001066586	-0.0008288197	0.02225786	-0.02729221	0.8758251	-0.4128502
	-0.001066327	-0.0008290143	0.0109389	0.02350448	0.8758251	-0.4128502	0.0187123	-0.02464252
6e+07	0.01957051	-0.03435176	0.835099	-0.485343	0.0176781	0.02483571	-0.001041693	-0.001033639
	0.835099	-0.485343	0.01475504	-0.03029256	-0.001042178	-0.001033293	0.01480485	0.02675563
	0.01767812	0.02483569	-0.001042177	-0.001033294	0.01961024	-0.03410834	0.8351267	-0.4854773
	-0.001041691	-0.001033639	0.01480485	0.02675563	0.8351267	-0.4854773	0.01480691	-0.03005602
7e+07	0.01588003	-0.04076314	0.7886155	-0.5539028	0.02272203	0.02646709	-0.00103903	-0.001315367
	0.7886155	-0.5539028	0.009789844	-0.03487436	-0.001039738	-0.00131483	0.01906667	0.02937063
	0.02272203	0.02646708	-0.001039692	-0.001314883	0.01595772	-0.04050363	0.7886222	-0.5540491
	-0.001039027	-0.001315369	0.01906667	0.02937063	0.7886222	-0.5540491	0.009881775	-0.03462448
8e+07	0.0113211	-0.04656925	0.7366928	-0.6179847	0.02803047	0.02716243	-0.00109211	-0.001673972
	0.7366928	-0.6179847	0.004033489	-0.03841507	-0.001093071	-0.001673157	0.02361669	0.03130823
	0.02803047	0.02716243	-0.001093071	-0.001673155	0.01143762	-0.04630069	0.7366784	-0.6181414
	-0.001092111	-0.00167397	0.02361669	0.03130824	0.7366784	-0.6181414	0.004164737	-0.03815944
9e+07	0.006056809	-0.05163175	0.6797302	-0.6771947	0.03344196	0.02688906	-0.001234151	-0.002098435
	0.6797302	-0.6771947	-0.002272511	-0.04077774	-0.001235366	-0.00209719	0.02834467	0.03254647
	0.03344196	0.02688907	-0.001235365	-0.002097182	0.006211511	-0.05136152	0.6796918	-0.6773584
	-0.001234151	-0.002098426	0.02834467	0.03254647	0.6796918	-0.6773584	-0.002103753	-0.04052288
1e+08	0.0002950026	-0.05582315	0.6181151	-0.7312083	0.03879583	0.0256401	-0.001498087	-0.002567925
	0.6181151	-0.7312083	-0.008842106	-0.04184055	-0.001499601	-0.002565978	0.03314492	0.03308166
	0.03879583	0.0256401	-0.001499601	-0.002565979	0.0004852727	-0.05555904	0.6180532	-0.7313762
	-0.001498087	-0.002567926	0.03314492	0.03308166	0.6180532	-0.7313762	-0.008639124	-0.04159299
1.1e+08	-0.005761274	-0.059352	0.5522542	-0.779399	0.04393632	0.02341425	-0.001899506	-0.003034202
	0.5522542	-0.779399	-0.01534514	-0.04180145	-0.001900373	-0.003030229	0.03789794	0.03290954
	0.04393632	0.02341425	-0.001900373	-0.00303023	-0.005489115	-0.05913128	0.5521694	-0.7795722
	-0.001899506	-0.003034203	0.03789794	0.03290954	0.5521694	-0.7795722	-0.01511355	-0.04154816
1.2e+08	-0.01218326	-0.06202872	0.4829307	-0.8216008	0.04865832	0.02028958	-0.002439473	-0.003485766
	0.4829307	-0.8216008	-0.02180309	-0.04056791	-0.002439262	-0.00348097	0.04248989	0.03208069
	0.04865832	0.02028958	-0.002439262	-0.003480972	-0.01189326	-0.06185352	0.4828188	-0.8217765
	-0.002439473	-0.003485767	0.04248989	0.03208069	0.4828188	-0.8217765	-0.02153959	-0.04032286
1.3e+08	-0.01875786	-0.06380959	0.4106195	-0.8576429	0.052834	0.01634152	-0.003131555	-0.0038844
	0.4106195	-0.8576429	-0.02793104	-0.03812138	-0.003130636	-0.003879504	0.04683358	0.03064627
	0.052834	0.01634151	-0.003130636	-0.003879505	-0.01846985	-0.06366031	0.4104793	-0.8578188
	-0.003131556	-0.003884401	0.04683357	0.03064627	0.4104793	-0.8578188	-0.02764056	-0.03789366
1.4e+08	-0.0253258	-0.06471308	0.3358433	-0.8873551	0.05633959	0.01166619	-0.003974339	-0.004189779
	0.3358433	-0.8873551	-0.03349085	-0.03452825	-0.003973101	-0.00418443	0.05084939	0.02866875
	0.05633959	0.01166619	-0.003973102	-0.004184431	-0.02503885	-0.06457856	0.3356734	-0.8875255
	-0.00397434	-0.00418978	0.05084939	0.02866875	0.3356734	-0.8875255	-0.03318039	-0.03432187
1.5e+08	-0.03174726	-0.06478288	0.259135	-0.9106033	0.05906494	0.006377626	-0.004955244	-0.004361519
	0.259135	-0.9106033	-0.03826936	-0.02990157	-0.004953608	-0.004355525	0.05447057	0.02622017
	0.05906494	0.006377625	-0.004953608	-0.004355526	-0.03145705	-0.06466176	0.2589357	-0.9107642
	-0.004955244	-0.004361519	0.05447057	0.02622017	0.2589357	-0.9107642	-0.03794583	-0.02971723
1.6e+08	-0.03789957	-0.06408306	0.181034	-0.9272916	0.06091795	0.0006053267	-0.006051292	-0.004362267
	0.181034	-0.9272916	-0.04208152	-0.02439174	-0.006048932	-0.004355376	0.05764417	0.02338039
	0.06091795	0.0006053261	-0.006048932	-0.004355376	-0.03760372	-0.06397973	0.1808041	-0.9274396
	-0.006051292	-0.004362267	0.05764417	0.02338039	0.1808041	-0.9274396	-0.04175098	-0.02422762
1.7e+08	-0.04367746	-0.06269509	0.1020788	-0.9373682	0.06182706	-0.005509002	-0.007230314	-0.004160069
	0.1020788	-0.9373682	-0.04477462	-0.01817881	-0.007226741	-0.004152104	0.06033146	0.02023372
	0.06182706	-0.005509002	-0.007226741	-0.004152104	-0.04337745	-0.06261587	0.1018186	-0.9374989
	-0.007230314	-0.004160069	0.06033146	0.02023372	0.1018186	-0.9374989	-0.04444149	-0.01803186
1.8e+08	-0.04899549	-0.06071436	0.02280619	-0.9408209	0.06174287	-0.01181451	-0.008452555	-0.003730381
	0.02280619	-0.9408209	-0.04623074	-0.0114655	-0.008447215	-0.003721511	0.06250863	0.01686723
	0.06174287	-0.01181451	-0.008447216	-0.003721511	-0.04869622	-0.06066535	0.0225165	-0.9409292
	-0.008452555	-0.003730381	0.06250863	0.01686723	0.0225165	-0.9409292	-0.0458985	-0.01133201
1.9e+08	-0.05378889	-0.05824701	-0.05625005	-0.9376753	0.06063969	-0.01815466	-0.009672526	-0.003057384
	-0.05625005	-0.9376753	-0.04636978	-0.004471399	-0.009664913	-0.003047979	0.06416617	0.01336868
	0.06063969	-0.01815466	-0.009664913	-0.003047979	-0.053498	-0.05823259	-0.0565665	-0.937758
	-0.009672526	-0.003057384	0.06416617	0.01336868	-0.0565665	-0.937758	-0.04604061	-0.00434724
2e+08	-0.05801561	-0.0554053	-0.1345638	-0.9279961	0.05851548	-0.02437079	-0.01084124	-0.002135469
	-0.1345638	-0.9279961	-0.04514978	0.002574518	-0.01083106	-0.002126277	0.06530808	0.009823547
	0.05851548	-0.02437079	-0.01083106	-0.002126277	-0.0577415	-0.05542802	-0.1349058	-0.9280468
	-0.01084124	-0.002135469	0.06530808	0.009823547	-0.1349058	-0.9280468	-0.04482479	0.002693823
2.1e+08	-0.06165535	-0.05230342	-0.2116186	-0.9118863	0.05539199	-0.03030544	-0.01190894	-0.0009698838
	-0.2116186	-0.9118863	-0.0425687	0.009439939	-0.01189593	-0.0009613896	0.0659523	0.006313994
	0.05539199	-0.03030544	-0.01189593	-0.0009613896	-0.06140784	-0.05236351	-0.2119818	-0.9119007
	-0.01190894	-0.0009698838	0.0659523	0.006313994	-0.2119818	-0.9119007	-0.04224759	0.009558677
2.2e+08	-0.06471041	-0.04905395	-0.2869075	-0.8894839	0.05131415	-0.03580572	-0.01282682	0.0004239466
	-0.2869075	-0.8894839	-0.03866228	0.01589534	-0.01281101	0.000430865	0.06612835	0.002916508
	0.05131415	-0.03580572	-0.01281101	0.000430865	-0.06449909	-0.04914912	-0.2872878	-0.889458
	-0.01282682	0.0004239466	0.06612835	0.002916508	-0.2872878	-0.889458	-0.03834441	0.01601806
2.3e+08	-0.06720367	-0.04576315	-0.3599337	-0.8609629	0.04634932	-0.04072674	-0.0135501	0.002019883
	-0.3599337	-0.8609629	-0.03350448	0.02172001	-0.01353165	0.002024694	0.06587699	-0.0002994864
	0.04634932	-0.04072674	-0.01353165	0.002024694	-0.06703744	-0.04588952	-0.3603274	-0.8608935
	-0.0135501	0.002019883	0.06587699	-0.0002994864	-0.3603274	-0.8608935	-0.03318784	0.02185125
2.4e+08	-0.06917704	-0.0425276	-0.4302181	-0.8265346	0.04058595	-0.0449342	-0.01403962	0.003783624
	-0.4302181	-0.8265346	-0.02720441	0.0267089	-0.01401896	0.003785413	0.06524917	-0.003272913
	0.04058595	-0.0449342	-0.01401896	0.003785413	-0.06906445	-0.04267951	-0.4306192	-0.82642
	-0.01403962	0.003783624	0.06524917	-0.003272913	-0.4306192	-0.82642	-0.02688629	0.02685269
2.5e+08	-0.07068928	-0.03943084	-0.4972946	-0.7864466	0.03413176	-0.04830759	-0.01426396	0.00567289
	-0.4972946	-0.7864466	-0.01990368	0.03067676	-0.01424158	0.005670952	0.06430409	-0.005952638
	0.03413176	-0.04830759	-0.01424158	0.005670952	-0.07063741	-0.03960145	-0.4976975	-0.7862828
	-0.01426396	0.00567289	0.06430409	-0.005952638	-0.4976975	-0.7862828	-0.01957985	0.03083666
2.6e+08	-0.07181268	-0.03654094	-0.5607166	-0.7409784	0.02711196	-0.05074323	-0.01420104	0.007639813
	-0.5607166	-0.7409784	-0.01177256	0.03346394	-0.01417749	0.007633788	0.06310792	-0.008298431
	0.02711196	-0.05074323	-0.01417749	0.007633788	-0.07182795	-0.03672219	-0.5611136	-0.7407654
	-0.01420104	0.007639813	0.06310792	-0.008298431	-0.5611136	-0.7407654	-0.01143844	0.03364246
2.7e+08	-0.07263002	-0.03390825	-0.6200569	-0.6904454	0.01966667	-0.05215572	-0.01383847	0.00963329
	-0.6200569	-0.6904454	-0.00300534	0.03493979	-0.01381475	0.00962254	0.06173209	-0.01028157
	0.01966667	-0.05215572	-0.01381475	0.00962254	-0.07271762	-0.03409113	-0.620443	-0.6901832
	-0.01383847	0.00963329	0.06173209	-0.01028157	-0.620443	-0.6901832	-0.002655153	0.03513925
2.8e+08	-0.07323109	-0.03156315	-0.674913	-0.6351984	0.01194815	-0.05248104	-0.0131745	0.01160084
	-0.674913	-0.6351984	0.006184424	0.03500727	-0.0131514	0.01158529	0.06025169	-0.01188635
	0.01194815	-0.05248104	-0.0131514	0.01158529	-0.07339461	-0.03173804	-0.675282	-0.6348879
	-0.0131745	0.01160084	0.06025169	-0.01188635	-0.675282	-0.6348879	0.006557049	0.03522889
2.9e+08	-0.07370835	-0.02951605	-0.7249085	-0.5756219	0.004117832	-0.05167808	-0.01221726	0.01349161
	-0.7249085	-0.5756219	0.01556915	0.03360555	-0.01219608	0.01347112	0.05874306	-0.01310987
	0.004117832	-0.05167808	-0.01219608	0.01347112	-0.07395049	-0.02967258	-0.7252544	-0.5752648
	-0.01221726	0.01349161	0.05874306	-0.01310987	-0.7252544	-0.5752648	0.0159713	0.03384905
3e+08	-0.07415314	-0.02775654	-0.7696962	-0.5121305	-0.00365701	-0.04972942	-0.01098521	0.01525757
	-0.7696962	-0.5121305	0.02491459	0.03071098	-0.01096711	0.01523238	0.05728193	-0.0139629
	-0.003657011	-0.04972942	-0.01096711	0.01523238	-0.07447521	-0.02788404	-0.7700128	-0.5117283
	-0.01098521	0.01525757	0.05728193	-0.0139629	-0.7700128	-0.5117283	0.02535372	0.03097476
3.1e+08	-0.07465157	-0.02625425	-0.8089644	-0.4451702	-0.01120719	-0.04664304	-0.009505138	0.01685636
	-0.8089644	-0.4451702	0.03398547	0.02633896	-0.009490925	0.01682688	0.05594154	-0.01446897
	-0.01120719	-0.04664304	-0.009490925	0.01682688	-0.07505389	-0.02634142	-0.8092442	-0.4447267
	-0.009505138	0.01685636	0.05594154	-0.01446897	-0.8092442	-0.4447267	0.03446845	0.02661981
3.2e+08	-0.07528097	-0.02495966	-0.8424349	-0.3752169	-0.01836519	-0.04245217	-0.007810716	0.01825252
	-0.8424349	-0.3752169	0.0425511	0.02054298	-0.007801429	0.01821953	0.05478992	-0.01466505
	-0.01836519	-0.04245217	-0.007801429	0.01821953	-0.07576154	-0.02499505	-0.8426753	-0.3747347
	-0.007810716	0.01825252	0.05478992	-0.01466505	-0.8426753	-0.3747347	0.04308564	0.02083652
3.3e+08	-0.07610552	-0.02380658	-0.8698719	-0.3027682	-0.02496878	-0.03721473	-0.005940481	0.0194188
	-0.8698719	-0.3027682	0.05039345	0.0134133	-0.00593759	0.01938315	0.0538875	-0.01459981
	-0.02496878	-0.03721473	-0.00593759	0.01938315	-0.07666124	-0.02377844	-0.8700675	-0.302253
	-0.005940481	0.0194188	0.0538875	-0.01459981	-0.8700675	-0.302253	0.05098617	0.01371368
3.4e+08	-0.07717301	-0.02271427	-0.8910823	-0.2283484	-0.03086561	-0.03101297	-0.003936867	0.02033662
	-0.8910823	-0.2283484	0.05731184	0.005075306	-0.003940564	0.02029962	0.05328583	-0.01433261
	-0.03086561	-0.03101297	-0.003940564	0.02029962	-0.07779885	-0.02261143	-0.8912316	-0.2278031
	-0.003936867	0.02033662	0.05328583	-0.01433261	-0.8912316	-0.2278031	0.05796915	0.005375098
3.5e+08	-0.07851218	-0.02159147	-0.9059221	-0.1524945	-0.03591592	-0.02395132	-0.001842467	0.02099676
	-0.9059221	-0.1524945	0.06312988	-0.004315043	-0.00185318	0.02095976	0.05302475	-0.01393238
	-0.03591592	-0.02395132	-0.00185318	0.02095976	-0.07920181	-0.02140263	-0.9060182	-0.1519267
	-0.001842467	0.02099676	0.05302475	-0.01393238	-0.9060182	-0.1519267	0.06385605	-0.004024984
3.6e+08	-0.08013068	-0.02033974	-0.914293	-0.07576099	-0.03999676	-0.01615472	0.0003011188	0.02139856
	-0.914293	-0.07576099	0.06769886	-0.01457548	0.0002829407	0.02136324	0.05313112	-0.01347466
	-0.03999676	-0.01615472	0.0002829406	0.02136324	-0.08087556	-0.02005457	-0.914334	-0.07517557
	0.0003011188	0.02139856	0.05313112	-0.01347466	-0.914334	-0.07517557	0.06849782	-0.01430481
3.7e+08	-0.0820131	-0.01885861	-0.9161479	0.001293128	-0.04300484	-0.007765247	0.002455046	0.0215493
	-0.9161479	0.001293128	0.07090317	-0.02550245	0.002429905	0.02151723	0.05361759	-0.01303968
	-0.04300484	-0.007765247	0.002429905	0.02151723	-0.08280312	-0.01846767	-0.9161334	0.001891086
	0.002455046	0.0215493	0.05361759	-0.01303968	-0.9161334	0.001891086	0.07177723	-0.02526229
3.8e+08	-0.08412117	-0.01704941	-0.911493	0.07810593	-0.04485841	0.001060862	0.004586122	0.0214627
	-0.911493	0.07810593	0.07266305	-0.03687719	0.004553938	0.0214356	0.05448154	-0.01270981
	-0.04485841	0.001060862	0.004553938	0.0214356	-0.08494474	-0.01654414	-0.9114192	0.07870925
	0.004586122	0.0214627	0.05448154	-0.01270981	-0.9114192	0.07870925	0.07361225	-0.03667955
3.9e+08	-0.08639297	-0.01481989	-0.9003843	0.1541156	-0.04550019	0.01015646	0.006665419	0.02115787
	-0.9003843	0.1541156	0.07293547	-0.04847257	0.00662805	0.02113696	0.05570515	-0.01256661
	-0.04550019	0.01015646	0.00662805	0.02113696	-0.08723681	-0.01419416	-0.900254	0.1547189
	0.006665419	0.02115787	0.05570515	-0.01256661	-0.900254	0.1547189	0.07395869	-0.04832889
4e+08	-0.08874544	-0.01209005	-0.8829322	0.2287707	-0.04489767	0.01934823	0.008672127	0.02065653
	-0.8829322	0.2287707	0.07171642	-0.06005871	0.0086304	0.02064339	0.05725536	-0.01268786
	-0.04489767	0.01934823	0.0086304	0.02064339	-0.08959559	-0.01133888	-0.8827428	0.2293686
	0.008672127	0.02065653	0.05725536	-0.01268786	-0.8827428	0.2293686	0.07280996	-0.05998174
4.1e+08	-0.09107668	-0.008796053	-0.8592917	0.3015384	-0.043044	0.02845984	0.01059166	0.01998196
	-0.8592917	0.3015384	0.06903937	-0.07141167	0.01054704	0.01997763	0.05908508	-0.01314433
	-0.043044	0.02845984	0.01054704	0.01997763	-0.09191785	-0.007916435	-0.8590447	0.3021262
	0.01059166	0.01998196	0.05908508	-0.01314433	-0.8590447	0.3021262	0.07019779	-0.07141338
4.2e+08	-0.09326728	-0.004893355	-0.8296711	0.3718998	-0.03995829	0.03731647	0.01241546	0.01915733
	-0.8296711	0.3718998	0.06497387	-0.08231731	0.01237007	0.01916226	0.06113407	-0.01399885
	-0.03995829	0.03731647	0.01237007	0.01916226	-0.09408355	-0.003884602	-0.8293674	0.3724704
	0.01241546	0.01915733	0.06113407	-0.01399885	-0.8293674	0.3724704	0.06618967	-0.08240871
4.3e+08	-0.09518642	-0.0003612251	-0.7943184	0.4393642	-0.03568392	0.04574841	0.01414169	0.01820284
	-0.7943184	0.4393642	0.05962272	-0.09257917	0.01409743	0.01821767	0.0633314	-0.0153018
	-0.03568392	0.04574841	0.01409743	0.01821767	-0.09596189	0.0007751413	-0.7939599	0.4399132
	0.01414169	0.01820284	0.0633314	-0.0153018	-0.7939599	0.4399132	0.06088612	-0.09277077
4.4e+08	-0.09669562	0.004795572	-0.7535238	0.5034692	-0.0302879	0.05359434	0.01577244	0.01713586
	-0.7535238	0.5034692	0.05311795	-0.1020228	0.01573158	0.01716009	0.06559715	-0.01709113
	-0.0302879	0.05359434	0.01573158	0.01716009	-0.09741396	0.006055739	-0.7531129	0.5039908
	0.01577244	0.01713586	0.06559715	-0.01709113	-0.7531129	0.5039908	0.05441791	-0.1023235
4.5e+08	-0.09765235	0.01054457	-0.7076159	0.5637809	-0.02385893	0.06070491	0.01731336	0.0159691
	-0.7076159	0.5637809	0.04561645	-0.1104999	0.01727807	0.01600213	0.06784556	-0.0193902
	-0.02385893	0.06070491	0.01727807	0.01600213	-0.09829774	0.01192244	-0.7071547	0.5642705
	0.01731336	0.0159691	0.06784556	-0.0193902	-0.7071547	0.5642705	0.04694028	-0.1109171
4.6e+08	-0.0979165	0.01682536	-0.6569543	0.6199018	-0.01650489	0.06694512	0.01877198	0.01470987
	-0.6569543	0.6199018	0.03729481	-0.1178926	0.01874409	0.01475092	0.06998724	-0.02220739
	-0.01650489	0.06694512	0.01874409	0.01475092	-0.09847443	0.01831266	-0.6564448	0.6203556
	0.01877198	0.01470987	0.06998724	-0.02220739	-0.6564448	0.6203556	0.03862826	-0.1184317
4.7e+08	-0.09735693	0.02354899	-0.6019271	0.6714759	-0.008350331	0.0721971	0.02015523	0.01336136
	-0.6019271	0.6714759	0.0283436	-0.1241154	0.02013671	0.01340856	0.07193225	-0.02553509
	-0.008350331	0.0721971	0.02013671	0.01340856	-0.09781273	0.02513543	-0.6013721	0.6718874
	0.02015523	0.01336136	0.07193225	-0.02553509	-0.6013721	0.6718874	0.02967183	-0.1247797
4.8e+08	-0.09585341	0.03060096	-0.5429429	0.7181761	0.0004659008	0.07636115	0.02146959	0.01192083
	-0.5429429	0.7181761	0.01896134	-0.1291163	0.02146155	0.0119726	0.07359261	-0.02935111
	0.0004659008	0.07636115	0.02146155	0.0119726	-0.09619467	0.03227353	-0.5423482	0.7185437
	0.02146959	0.01192083	0.07359261	-0.02935111	-0.5423482	0.7185437	0.02026908	-0.129907
4.9e+08	-0.09330352	0.03784063	-0.4804381	0.7597175	0.009793947	0.07935818	0.02271771	0.01038273
	-0.4804381	0.7597175	0.009349409	-0.1328772	0.02272149	0.0104364	0.07488476	-0.03361861
	0.009793947	0.07935818	0.02272149	0.0104364	-0.0935193	0.03958524	-0.4798046	0.7600382
	0.02271771	0.01038273	0.07488476	-0.03361861	-0.4798046	0.7600382	0.01062064	-0.1337933
5e+08	-0.08962843	0.04510666	-0.414856	0.7958584	0.01947574	0.08112937	0.02389887	0.008737141
	-0.414856	0.7958584	-0.0002949061	-0.1354144	0.02391496	0.008790657	0.0757322	-0.03828726
	0.01947574	0.08112937	0.02391496	0.008790657	-0.08970902	0.04690712	-0.4141901	0.7961262
	0.02389887	0.008737141	0.0757322	-0.03828726	-0.4141901	0.7961262	0.00092452	-0.136452
5.1e+08	-0.08477317	0.05221946	-0.346658	0.826386	0.02934706	0.08163752	0.02500735	0.00697406
	-0.346658	0.826386	-0.009782602	-0.1367753	0.02503576	0.007024719	0.07606703	-0.04329534
	0.02934706	0.08163752	0.02503576	0.007024719	-0.08471196	0.05405844	-0.3459638	0.8266005
	0.02500735	0.00697406	0.07606703	-0.04329534	-0.3459638	0.8266005	-0.008629792	-0.1379286
5.2e+08	-0.07871358	0.05898541	-0.2763151	0.8511313	0.03924192	0.08086761	0.02603222	0.005081856
	-0.2763151	0.8511313	-0.01893833	-0.1370371	0.0260726	0.005126611	0.07583204	-0.04857071
