!$
! Info: Touchstone file created by Circ.  Input file=Intel_C2M_200G_5p0in_202208016_staggered.circ
!$
# Hz S RI R 50
0	0.01663039	2.93703e-24	5.825991e-05	7.705609e-23	0.0001019254	2.699024e-22	5.825255e-05	7.692231e-23
	5.825991e-05	7.705609e-23	0.0166435	3.250128e-24	5.826454e-05	7.712233e-23	0.0001015173	2.683811e-22
	0.0001019833	2.700297e-22	5.826453e-05	7.712349e-23	0.01662522	3.05904e-24	5.825509e-05	7.698102e-23
	5.825254e-05	7.692348e-23	0.0001015752	2.685082e-22	5.825509e-05	7.698102e-23	0.01664144	3.080552e-24
1e+07	0.020254	-0.001791045	2.774455e-06	1.839968e-05	0.001352465	0.005491149	8.761281e-06	1.811821e-05
	2.774455e-06	1.83997e-05	0.0203991	-0.001804436	1.722577e-06	5.037302e-06	0.001358442	0.005551324
	0.001352465	0.005491149	1.722577e-06	5.037302e-06	0.02037944	-0.001747607	2.699842e-06	1.755897e-05
	8.761282e-06	1.811821e-05	0.001358442	0.005551324	2.699842e-06	1.755897e-05	0.02027988	-0.001775881
2e+07	0.02290101	-0.006842395	3.236491e-06	1.037412e-05	0.003060382	0.01033721	5.388988e-06	1.269457e-05
	3.236495e-06	1.037415e-05	0.02302116	-0.006921814	1.06111e-05	1.101061e-05	0.003074895	0.01045521
	0.003060392	0.0103372	1.06111e-05	1.101061e-05	0.02301997	-0.006808484	2.287757e-06	9.087606e-06
	5.388989e-06	1.269457e-05	0.003074905	0.0104552	2.287757e-06	9.087606e-06	0.02293313	-0.00682026
3e+07	0.0240483	-0.01331501	5.428172e-06	7.960744e-06	0.005596685	0.01486499	3.257174e-06	1.202003e-05
	5.428172e-06	7.960743e-06	0.02413635	-0.01343551	1.961881e-05	1.282509e-05	0.005623188	0.01503712
	0.005596658	0.01486503	1.961881e-05	1.282509e-05	0.02415875	-0.01326196	3.82015e-06	6.715237e-06
	3.257175e-06	1.202003e-05	0.005623162	0.01503715	3.82015e-06	6.715236e-06	0.02407283	-0.01328389
4e+07	0.02377193	-0.02030369	7.109104e-06	6.008827e-06	0.008953723	0.01880369	6.152434e-06	1.03669e-05
	7.109104e-06	6.008826e-06	0.02381931	-0.02045593	2.666538e-05	1.093811e-05	0.008994763	0.01902576
	0.008953719	0.01880372	2.666538e-05	1.093811e-05	0.02388329	-0.02022944	4.982396e-06	4.991086e-06
	6.152435e-06	1.03669e-05	0.008994759	0.01902579	4.982396e-06	4.991085e-06	0.0237879	-0.02026583
5e+07	0.02225564	-0.02733739	8.321156e-06	4.086557e-06	0.01299705	0.02205988	8.566351e-06	8.395729e-06
	8.321156e-06	4.086557e-06	0.02225464	-0.02751247	3.200836e-05	7.032009e-06	0.01305421	0.02232711
	0.01299705	0.02205988	3.200836e-05	7.032009e-06	0.02237189	-0.02724204	5.79761e-06	3.408004e-06
	8.566351e-06	8.395729e-06	0.01305421	0.02232712	5.79761e-06	3.408003e-06	0.02225786	-0.02729221
6e+07	0.01962617	-0.03416336	9.077627e-06	2.125298e-06	0.01760439	0.02452855	1.038208e-05	6.15452e-06
	9.077626e-06	2.125299e-06	0.01957051	-0.03435176	3.576042e-05	1.869122e-06	0.0176781	0.02483571
	0.01760441	0.02452853	3.576042e-05	1.869122e-06	0.01975075	-0.0340478	6.274405e-06	1.865029e-06
	1.038208e-05	6.15452e-06	0.01767812	0.02483569	6.274405e-06	1.865029e-06	0.01961024	-0.03410834
7e+07	0.01599499	-0.04057162	9.384893e-06	1.442773e-07	0.02263268	0.0261255	1.160927e-05	3.704278e-06
	9.384893e-06	1.442774e-07	0.01588003	-0.04076314	3.795601e-05	-4.103208e-06	0.02272203	0.02646709
	0.02263268	0.02612549	3.795601e-05	-4.103208e-06	0.01613108	-0.04043797	6.414703e-06	3.545226e-07
	1.160927e-05	3.704278e-06	0.02272203	0.02646708	6.414703e-06	3.545222e-07	0.01595772	-0.04050363
8e+07	0.01149809	-0.04638531	9.244166e-06	-1.81348e-06	0.02792776	0.02679184	1.22438e-05	1.108283e-06
	9.244166e-06	-1.813481e-06	0.0113211	-0.04656925	3.859335e-05	-1.058067e-05	0.02803047	0.02716243
	0.02792776	0.02679184	3.859335e-05	-1.058067e-05	0.01164849	-0.04623646	6.219971e-06	-1.098211e-06
	1.22438e-05	1.108283e-06	0.02803047	0.02716243	6.219971e-06	-1.098211e-06	0.01143762	-0.04630069
9e+07	0.006296332	-0.05146636	8.641758e-06	-3.706098e-06	0.03332956	0.02649453	1.225251e-05	-1.594111e-06
	8.641758e-06	-3.706098e-06	0.006056809	-0.05163175	3.759831e-05	-1.739178e-05	0.03344196	0.02688906
	0.03332957	0.02649454	3.759831e-05	-1.739178e-05	0.006462933	-0.05130583	5.683857e-06	-2.460011e-06
	1.225251e-05	-1.594111e-06	0.03344196	0.02688907	5.683857e-06	-2.460011e-06	0.006211511	-0.05136152
1e+08	0.0005948159	-0.05568735	7.404834e-06	-5.581339e-06	0.0386788	0.02522607	1.136633e-05	-4.564527e-06
	7.404834e-06	-5.581339e-06	0.0002950026	-0.05582315	3.425682e-05	-2.495162e-05	0.03879583	0.0256401
	0.0386788	0.02522607	3.425682e-05	-2.495162e-05	0.0007788421	-0.05551866	4.688303e-06	-3.742035e-06
	1.136633e-05	-4.564527e-06	0.03879583	0.0256401	4.688303e-06	-3.742035e-06	0.0004852727	-0.05555904
1.1e+08	-0.005403751	-0.05925355	5.521548e-06	-6.324175e-06	0.04382129	0.02298346	9.212112e-06	-6.084197e-06
	5.521548e-06	-6.324175e-06	-0.005761274	-0.059352	2.751248e-05	-2.860911e-05	0.04393632	0.02341425
	0.04382129	0.02298346	2.751248e-05	-2.860911e-05	-0.005149812	-0.05911591	3.313951e-06	-4.18272e-06
	9.212112e-06	-6.084197e-06	0.04393632	0.02341425	3.313951e-06	-4.18272e-06	-0.005489115	-0.05913128
1.2e+08	-0.01177062	-0.06197647	4.022555e-06	-6.623318e-06	0.04855207	0.01984368	7.512256e-06	-6.869507e-06
	4.022555e-06	-6.623318e-06	-0.01218326	-0.06202872	2.306501e-05	-2.943817e-05	0.04865832	0.02028958
	0.04855207	0.01984368	2.306501e-05	-2.943817e-05	-0.01151091	-0.06187281	2.231319e-06	-4.335731e-06
	7.512256e-06	-6.869507e-06	0.04865832	0.02028958	2.231319e-06	-4.335731e-06	-0.01189326	-0.06185352
1.3e+08	-0.01829477	-0.0638119	2.715491e-06	-6.76466e-06	0.05274402	0.01588089	6.008233e-06	-7.285962e-06
	2.715491e-06	-6.76466e-06	-0.01875786	-0.06380959	2.127945e-05	-2.806691e-05	0.052834	0.01634152
	0.05274402	0.01588089	2.127945e-05	-2.806691e-05	-0.01804839	-0.06372218	1.297693e-06	-4.411128e-06
	6.008233e-06	-7.285962e-06	0.052834	0.01634151	1.297693e-06	-4.411128e-06	-0.01846985	-0.06366031
1.4e+08	-0.02481829	-0.06477727	1.589647e-06	-6.655874e-06	0.0562737	0.01118976	4.665718e-06	-7.443411e-06
	1.589647e-06	-6.655874e-06	-0.0253258	-0.06471308	1.943854e-05	-2.687073e-05	0.05633959	0.01166619
	0.0562737	0.01118975	1.943854e-05	-2.687073e-05	-0.02458337	-0.06468971	4.583234e-07	-4.324728e-06
	4.665718e-06	-7.443411e-06	0.05633959	0.01166619	4.583235e-07	-4.324728e-06	-0.02503885	-0.06457856
1.5e+08	-0.03120241	-0.06491503	1.141745e-06	-6.103077e-06	0.05903105	0.005882713	3.466967e-06	-7.436128e-06
	1.141745e-06	-6.103077e-06	-0.03174726	-0.06478288	1.760226e-05	-2.576065e-05	0.05906494	0.006377626
	0.05903105	0.005882712	1.760226e-05	-2.576065e-05	-0.03097353	-0.06482766	-2.869238e-07	-4.106039e-06
	3.466967e-06	-7.436128e-06	0.05906494	0.006377625	-2.869238e-07	-4.106039e-06	-0.03145705	-0.06466176
1.6e+08	-0.03732521	-0.06428784	7.255799e-07	-5.555547e-06	0.06092373	8.764784e-05	2.58304e-06	-7.216546e-06
	7.2558e-07	-5.555547e-06	-0.03789957	-0.06408306	1.580404e-05	-2.467157e-05	0.06091795	0.0006053267
	0.06092372	8.764724e-05	1.580404e-05	-2.467157e-05	-0.03709884	-0.06420452	-5.709159e-07	-3.638831e-06
	2.58304e-06	-7.216546e-06	0.06091795	0.0006053261	-5.709159e-07	-3.638831e-06	-0.03760372	-0.06397973
1.7e+08	-0.04308188	-0.06297566	3.409212e-07	-5.027947e-06	0.0618796	-0.006055288	2.237818e-06	-6.753613e-06
	3.409212e-07	-5.027947e-06	-0.04367746	-0.06269509	1.407087e-05	-2.355374e-05	0.06182706	-0.005509002
	0.0618796	-0.006055289	1.407087e-05	-2.355374e-05	-0.04285833	-0.06290233	-8.254406e-07	-3.193445e-06
	2.237818e-06	-6.753613e-06	0.06182706	-0.005509002	-8.254406e-07	-3.193445e-06	-0.04337745	-0.06261587
1.8e+08	-0.04838716	-0.06107242	9.763274e-10	-4.48585e-06	0.06184849	-0.01239677	1.914159e-06	-6.30357e-06
	9.763431e-10	-4.48585e-06	-0.04899549	-0.06071436	1.242815e-05	-2.239044e-05	0.06174287	-0.01181451
	0.06184849	-0.01239677	1.242815e-05	-2.239044e-05	-0.04817013	-0.06101485	-1.041891e-06	-2.736515e-06
	1.914159e-06	-6.30357e-06	0.06174287	-0.01181451	-1.041891e-06	-2.736515e-06	-0.04869622	-0.06066535
1.9e+08	-0.05317613	-0.05868277	-2.873335e-07	-3.930539e-06	0.06080357	-0.01878162	1.616894e-06	-5.861867e-06
	-2.873335e-07	-3.930539e-06	-0.05378889	-0.05824701	1.089549e-05	-2.117515e-05	0.06063969	-0.01815466
	0.06080357	-0.01878162	1.089549e-05	-2.117515e-05	-0.05297206	-0.05864514	-1.213691e-06	-2.269131e-06
	1.616894e-06	-5.861867e-06	0.06063969	-0.01815466	-1.213691e-06	-2.269131e-06	-0.053498	-0.05823259
2e+08	-0.05740612	-0.05591783	-5.175415e-07	-3.365116e-06	0.0587415	-0.02505243	1.350269e-06	-5.425898e-06
	-5.175415e-07	-3.365116e-06	-0.05801561	-0.0554053	9.486491e-06	-1.990782e-05	0.05851548	-0.02437079
	0.05874149	-0.02505243	9.486491e-06	-1.990782e-05	-0.05722267	-0.05590214	-1.337212e-06	-1.795114e-06
	1.350269e-06	-5.425898e-06	0.05851548	-0.02437079	-1.337212e-06	-1.795114e-06	-0.0577415	-0.05542802
2.1e+08	-0.06105647	-0.05289037	-6.858485e-07	-2.795223e-06	0.0556824	-0.03105271	1.116866e-06	-4.995332e-06
	-6.858485e-07	-2.795223e-06	-0.06165535	-0.05230342	8.212938e-06	-1.859639e-05	0.05539199	-0.03030544
	0.0556824	-0.03105271	8.212938e-06	-1.859639e-05	-0.06090214	-0.05289676	-1.40878e-06	-1.319643e-06
	1.116866e-06	-4.995332e-06	0.05539199	-0.03030544	-1.40878e-06	-1.319642e-06	-0.06140784	-0.05236351
2.2e+08	-0.06412865	-0.04971191	-7.89827e-07	-2.22745e-06	0.05166944	-0.03663033	9.184456e-07	-4.570908e-06
	-7.89827e-07	-2.22745e-06	-0.06471041	-0.04905395	7.083017e-06	-1.724983e-05	0.05131415	-0.03580572
	0.05166944	-0.03663033	7.083017e-06	-1.724983e-05	-0.06401165	-0.04973809	-1.426624e-06	-8.485977e-07
	9.184456e-07	-4.570908e-06	0.05131415	-0.03580572	-1.426624e-06	-8.485977e-07	-0.06449909	-0.04914912
2.3e+08	-0.06664456	-0.04648783	-8.285679e-07	-1.669054e-06	0.04676804	-0.04164091	7.560207e-07	-4.154112e-06
	-8.285679e-07	-1.669054e-06	-0.06720367	-0.04576315	6.10238e-06	-1.587921e-05	0.04634932	-0.04072674
	0.04676804	-0.04164091	6.10238e-06	-1.587921e-05	-0.06657231	-0.04653013	-1.390249e-06	-3.883213e-07
	7.560207e-07	-4.154112e-06	0.04634932	-0.04072674	-1.390249e-06	-3.883213e-07	-0.06703744	-0.04588952
2.4e+08	-0.06864494	-0.04331411	-8.025882e-07	-1.127612e-06	0.04106459	-0.04595033	6.300047e-07	-3.746934e-06
	-8.025882e-07	-1.127612e-06	-0.06917704	-0.0425276	5.274362e-06	-1.449701e-05	0.04058595	-0.0449342
	0.04106459	-0.04595033	5.274362e-06	-1.449701e-05	-0.06862453	-0.04336724	-1.300362e-06	5.462412e-08
	6.300047e-07	-3.746934e-06	0.04058595	-0.0449342	-1.300362e-06	5.462412e-08	-0.06906445	-0.04267951
2.5e+08	-0.07018734	-0.0402739	-7.138042e-07	-6.107347e-07	0.03466463	-0.04943795	5.402242e-07	-3.351679e-06
	-7.138042e-07	-6.107347e-07	-0.07068928	-0.03943084	4.600138e-06	-1.31167e-05	0.03413176	-0.04830759
	0.03466463	-0.04943795	4.600138e-06	-1.31167e-05	-0.07022439	-0.04033167	-1.158831e-06	4.737201e-07
	5.402242e-07	-3.351679e-06	0.03413176	-0.04830759	-1.158831e-06	4.737201e-07	-0.07063741	-0.03960145
2.6e+08	-0.07134277	-0.03743522	-5.654222e-07	-1.257666e-07	0.02769121	-0.05199957	4.860233e-07	-2.970831e-06
	-5.654222e-07	-1.257666e-07	-0.07181268	-0.03654094	4.078868e-06	-1.175222e-05	0.02711196	-0.05074323
	0.02769121	-0.05199957	4.078868e-06	-1.175222e-05	-0.07144229	-0.03749046	-9.686192e-07	8.627079e-07
	4.860233e-07	-2.970831e-06	0.02711196	-0.05074323	-9.686192e-07	8.627079e-07	-0.07182795	-0.03672219
2.7e+08	-0.07219284	-0.03484859	-3.618083e-07	3.2039e-07	0.02028223	-0.05354893	4.662957e-07	-2.60694e-06
	-3.618083e-07	3.2039e-07	-0.07263002	-0.03390825	3.707703e-06	-1.041766e-05	0.01966667	-0.05215572
	0.02028223	-0.05354893	3.707703e-06	-1.041766e-05	-0.07235865	-0.0348935	-7.336625e-07	1.215751e-06
	4.662957e-07	-2.60694e-06	0.01966667	-0.05215572	-7.336625e-07	1.215751e-06	-0.07271762	-0.03409113
2.8e+08	-0.07282616	-0.0325449	-1.083711e-07	7.215054e-07	0.01258788	-0.05402073	4.795534e-07	-2.262584e-06
	-1.083711e-07	7.215054e-07	-0.07323109	-0.03156315	3.482013e-06	-9.127137e-06	0.01194815	-0.05248104
	0.01258788	-0.05402073	3.482013e-06	-9.127137e-06	-0.07306064	-0.03257135	-4.58761e-07	1.527593e-06
	4.795534e-07	-2.262584e-06	0.01194815	-0.05248104	-4.58761e-07	1.527593e-06	-0.07339461	-0.03173804
2.9e+08	-0.0733342	-0.0305353	1.886041e-07	1.07217e-06	0.004767648	-0.05337221	5.239507e-07	-1.940273e-06
	1.886041e-07	1.07217e-06	-0.07370835	-0.02951605	3.395354e-06	-7.894354e-06	0.004117832	-0.05167808
	0.004767648	-0.05337221	3.395354e-06	-7.894354e-06	-0.07363917	-0.03053467	-1.49449e-07	1.793697e-06
	5.239507e-07	-1.940273e-06	0.004117832	-0.05167808	-1.49449e-07	1.793697e-06	-0.07395049	-0.02967258
3e+08	-0.07380755	-0.02881039	5.221488e-07	1.367893e-06	-0.003012928	-0.05158397	5.973295e-07	-1.642432e-06
	5.221488e-07	1.367893e-06	-0.07415314	-0.02775654	3.439633e-06	-6.732477e-06	-0.00365701	-0.04972942
	-0.003012928	-0.05158397	3.439633e-06	-6.732477e-06	-0.07418366	-0.02877403	1.88155e-07	2.01031e-06
	5.973295e-07	-1.642432e-06	-0.003657011	-0.04972942	1.88155e-07	2.01031e-06	-0.07447521	-0.02788404
3.1e+08	-0.0743318	-0.02734094	8.84774e-07	1.605219e-06	-0.01058609	-0.0486616	6.972344e-07	-1.371353e-06
	8.84774e-07	1.605219e-06	-0.07465157	-0.02625425	3.605158e-06	-5.653884e-06	-0.01120719	-0.04664304
	-0.01058609	-0.0486616	3.605158e-06	-5.653884e-06	-0.07477914	-0.02725979	5.474828e-07	2.174555e-06
	6.972344e-07	-1.371353e-06	-0.01120719	-0.04664304	5.474828e-07	2.174555e-06	-0.07505389	-0.02634142
3.2e+08	-0.07498413	-0.02607878	1.268657e-06	1.781727e-06	-0.01778539	-0.04463569	8.209269e-07	-1.129177e-06
	1.268657e-06	1.781727e-06	-0.07528097	-0.02495966	3.880718e-06	-4.669973e-06	-0.01836519	-0.04245217
	-0.01778539	-0.04463569	3.880718e-06	-4.669973e-06	-0.07550086	-0.02594371	9.216714e-07	2.284474e-06
	8.209269e-07	-1.129177e-06	-0.01836519	-0.04245217	9.216714e-07	2.284474e-06	-0.07576154	-0.02499505
3.3e+08	-0.07582887	-0.02495908	1.66582e-06	1.896045e-06	-0.02444922	-0.03956125	9.654118e-07	-9.178682e-07
	1.66582e-06	1.896045e-06	-0.07610552	-0.02380658	4.253761e-06	-3.790971e-06	-0.02496878	-0.03721473
	-0.02444923	-0.03956125	4.253761e-06	-3.790971e-06	-0.0764126	-0.02476071	1.303687e-06	2.338987e-06
	9.654118e-07	-9.178682e-07	-0.02496878	-0.03721473	1.303687e-06	2.338987e-06	-0.07666124	-0.02377844
3.4e+08	-0.0769144	-0.02390239	2.068275e-06	1.947862e-06	-0.03042544	-0.03351744	1.127417e-06	-7.391684e-07
	2.068275e-06	1.947862e-06	-0.07717301	-0.02271427	4.710451e-06	-3.025688e-06	-0.03086561	-0.03101297
	-0.03042544	-0.03351744	4.710451e-06	-3.025688e-06	-0.07756126	-0.02363192	1.686487e-06	2.337954e-06
	1.127417e-06	-7.391684e-07	-0.03086561	-0.03101297	1.686487e-06	2.337954e-06	-0.07779885	-0.02261143
3.5e+08	-0.07827043	-0.0228187	2.468192e-06	1.937836e-06	-0.03557395	-0.02660553	1.303426e-06	-5.945785e-07
	2.468192e-06	1.937836e-06	-0.07851218	-0.02159147	5.23591e-06	-2.381404e-06	-0.03591592	-0.02395132
	-0.03557395	-0.02660553	5.23591e-06	-2.381404e-06	-0.07897578	-0.02246696	2.063097e-06	2.282088e-06
	1.303426e-06	-5.945785e-07	-0.03591592	-0.02395132	2.063097e-06	2.282088e-06	-0.07920181	-0.02140263
3.6e+08	-0.07990586	-0.02161053	2.857984e-06	1.867559e-06	-0.03977088	-0.01894737	1.489666e-06	-4.852984e-07
	2.857984e-06	1.867559e-06	-0.08013068	-0.02033974	5.814342e-06	-1.863665e-06	-0.03999676	-0.01615472
	-0.03977088	-0.01894737	5.814342e-06	-1.863665e-06	-0.08066335	-0.02116908	2.426763e-06	2.172979e-06
	1.489666e-06	-4.852984e-07	-0.03999676	-0.01615472	2.426763e-06	2.172979e-06	-0.08087556	-0.02005457
3.7e+08	-0.08180696	-0.02017807	3.230455e-06	1.73946e-06	-0.04291152	-0.01068191	1.682135e-06	-4.121818e-07
	3.230455e-06	1.73946e-06	-0.0820131	-0.01885861	6.429309e-06	-1.476133e-06	-0.04300484	-0.007765247
	-0.04291152	-0.01068191	6.429309e-06	-1.476133e-06	-0.0826091	-0.01963898	2.771033e-06	2.012978e-06
	1.682135e-06	-4.121818e-07	-0.04300484	-0.007765247	2.771033e-06	2.012978e-06	-0.08280312	-0.01846767
3.8e+08	-0.08393732	-0.01842292	3.578828e-06	1.556718e-06	-0.04491218	-0.001962598	1.876618e-06	-3.757001e-07
	3.578828e-06	1.556718e-06	-0.08412117	-0.01704941	7.063941e-06	-1.220529e-06	-0.04485841	0.001060862
	-0.04491218	-0.001962598	7.063941e-06	-1.220529e-06	-0.08477551	-0.01777868	3.089813e-06	1.805161e-06
	1.876618e-06	-3.757001e-07	-0.04485841	0.001060862	3.089813e-06	1.805161e-06	-0.08494474	-0.01654414
3.9e+08	-0.08623705	-0.01625265	3.896824e-06	1.323222e-06	-0.04571316	0.007046017	2.068713e-06	-3.758499e-07
	3.896824e-06	1.323222e-06	-0.08639297	-0.01481989	7.701131e-06	-1.096486e-06	-0.04550019	0.01015646
	-0.04571316	0.007046017	7.701131e-06	-1.096486e-06	-0.08710127	-0.01549757	3.377471e-06	1.553307e-06
	2.068713e-06	-3.758499e-07	-0.04550019	0.01015646	3.377471e-06	1.553307e-06	-0.08723681	-0.01419416
4e+08	-0.08862515	-0.01358648	4.17869e-06	1.043446e-06	-0.04527904	0.01617272	2.253903e-06	-4.1213e-07
	4.17869e-06	1.043446e-06	-0.08874544	-0.01209005	8.32392e-06	-1.101556e-06	-0.04489767	0.01934823
	-0.04527904	0.01617272	8.32392e-06	-1.101556e-06	-0.08950489	-0.0127155	3.628879e-06	1.261769e-06
	2.253903e-06	-4.1213e-07	-0.04489767	0.01934823	3.628879e-06	1.261769e-06	-0.08959559	-0.01133888
4.1e+08	-0.09100173	-0.01035938	4.419251e-06	7.224037e-07	-0.04359977	0.02524292	2.427624e-06	-4.83473e-07
	4.419251e-06	7.224037e-07	-0.09107668	-0.008796053	8.91579e-06	-1.231242e-06	-0.043044	0.02845984
	-0.04359977	0.02524292	8.91579e-06	-1.231242e-06	-0.09188521	-0.009368708	3.83947e-06	9.354525e-07
	2.427624e-06	-4.83473e-07	-0.043044	0.02845984	3.83947e-06	9.354525e-07	-0.09191785	-0.007916435
4.2e+08	-0.09324915	-0.00652496	4.613924e-06	3.65617e-07	-0.04069096	0.03408297	2.58531e-06	-5.881988e-07
	4.613924e-06	3.65617e-07	-0.09326728	-0.004893355	9.460758e-06	-1.478929e-06	-0.03995829	0.03731647
	-0.04069096	0.03408297	9.460758e-06	-1.478929e-06	-0.09412393	-0.005412543	4.005286e-06	5.797584e-07
	2.58531e-06	-5.881988e-07	-0.03995829	0.03731647	4.005286e-06	5.797584e-07	-0.09408355	-0.003884602
4.3e+08	-0.09523809	-0.002060232	4.758723e-06	-2.098145e-08	-0.03659225	0.04252383	2.722543e-06	-7.240055e-07
	4.758723e-06	-2.098145e-08	-0.09518642	-0.0003612251	9.943886e-06	-1.836137e-06	-0.03568392	0.04574841
	-0.03659225	0.04252383	9.943886e-06	-1.836137e-06	-0.09609153	-0.0008255124	4.12302e-06	2.00475e-07
	2.722543e-06	-7.240055e-07	-0.03568392	0.04574841	4.12302e-06	2.00475e-07	-0.09596189	0.0007751413
4.4e+08	-0.09683107	0.003032726	4.850313e-06	-4.310347e-07	-0.03136688	0.05040426	2.835119e-06	-8.879388e-07
	4.850313e-06	-4.310347e-07	-0.09669562	0.004795572	1.035139e-05	-2.292511e-06	-0.0302879	0.05359434
	-0.03136688	0.05040426	1.035139e-05	-2.292511e-06	-0.09764988	0.004388568	4.190041e-06	-1.962262e-07
	2.835119e-06	-8.879388e-07	-0.0302879	0.05359434	4.190041e-06	-1.962262e-07	-0.09741396	0.006055739
4.5e+08	-0.09788604	0.008724515	4.886037e-06	-8.57822e-07	-0.02509974	0.0575744	2.919165e-06	-1.076414e-06
	4.886037e-06	-8.57822e-07	-0.09765235	0.01054457	1.067084e-05	-2.836034e-06	-0.02385893	0.06070491
	-0.02509974	0.0575744	1.067084e-05	-2.836034e-06	-0.09865707	0.01019859	4.204456e-06	-6.038976e-07
	2.919165e-06	-1.076414e-06	-0.02385893	0.06070491	4.204456e-06	-6.038976e-07	-0.09829774	0.01192244
4.6e+08	-0.0982628	0.01495795	4.863959e-06	-1.294304e-06	-0.01789495	0.06389819	2.971276e-06	-1.285252e-06
	4.863959e-06	-1.294304e-06	-0.0979165	0.01682536	1.089151e-05	-3.453246e-06	-0.01650489	0.06694512
	-0.01789495	0.06389819	1.089151e-05	-3.453246e-06	-0.09897373	0.01654572	4.165131e-06	-1.015871e-06
	2.971276e-06	-1.285252e-06	-0.01650489	0.06694512	4.165131e-06	-1.015871e-06	-0.09847443	0.01831266
4.7e+08	-0.09782938	0.0216474	4.782962e-06	-1.733172e-06	-0.009873527	0.06925616	2.988626e-06	-1.50973e-06
	4.782962e-06	-1.733172e-06	-0.09735693	0.02354899	1.100449e-05	-4.129394e-06	-0.008350331	0.0721971
	-0.009873527	0.06925616	1.100449e-05	-4.129394e-06	-0.09846723	0.02334271	4.071743e-06	-1.425347e-06
	2.988626e-06	-1.50973e-06	-0.008350331	0.0721971	4.071743e-06	-1.425347e-06	-0.09781273	0.02513543
4.8e+08	-0.09646412	0.02868171	4.642736e-06	-2.166912e-06	-0.001170947	0.07354647	2.969045e-06	-1.744681e-06
