!$
! Info: Touchstone file created by Circ.  Input file=Intel_C2M_200G_5p0in_202208016_staggered.circ
!$
# Hz S RI R 50
0	0.01719903	6.153976e-24	-8.03815e-05	9.843895e-21	0.0003261572	4.858987e-22	-7.60471e-05	9.313084e-21
	-8.03816e-05	9.843906e-21	0.0166435	3.250128e-24	-8.757078e-05	1.072433e-20	0.0001015173	2.683811e-22
	0.0003262259	4.862382e-22	-8.757086e-05	1.072434e-20	0.01720025	6.27464e-24	-8.040701e-05	9.847019e-21
	-7.604709e-05	9.313082e-21	0.0001015752	2.685082e-22	-8.040691e-05	9.847007e-21	0.01664144	3.080552e-24
1e+07	0.02071143	-0.001470706	-0.0004491807	-7.912724e-05	0.001047295	0.005560035	-4.949216e-05	-0.0001059451
	-0.0004491807	-7.912724e-05	0.0203991	-0.001804436	-0.0006403528	3.308765e-05	0.001358442	0.005551324
	0.001047295	0.005560035	-0.0006403528	3.308765e-05	0.02046867	-0.001378325	-0.000332322	-9.066846e-05
	-4.949216e-05	-0.0001059451	0.001358442	0.005551324	-0.000332322	-9.066846e-05	0.02027988	-0.001775881
2e+07	0.02308246	-0.006265948	-0.0004076996	-0.0003323972	0.002457168	0.01068229	-7.220614e-05	-0.0001780863
	-0.0004076995	-0.0003323971	0.02302116	-0.006921814	-0.0006081499	-0.0001972096	0.003074895	0.01045521
	0.002457254	0.01068218	-0.0006081499	-0.0001972095	0.02295584	-0.006016786	-0.0003244167	-0.0002625814
	-7.220614e-05	-0.0001780863	0.003074905	0.0104552	-0.0003244168	-0.0002625814	0.02293313	-0.00682026
3e+07	0.02332489	-0.01252457	-0.0004059689	-0.0004643351	0.004630162	0.01542233	-0.0001083505	-0.0002448506
	-0.0004059689	-0.0004643351	0.02413635	-0.01343551	-0.0005973389	-0.0002975751	0.005623188	0.01503712
	0.004630139	0.01542231	-0.0005973389	-0.0002975751	0.02330539	-0.01221508	-0.0003477726	-0.0003740869
	-0.0001083505	-0.0002448506	0.005623162	0.01503715	-0.0003477726	-0.0003740869	0.02407283	-0.01328389
4e+07	0.02200569	-0.01886061	-0.000433071	-0.0005636356	0.007433231	0.01976437	-0.0001678482	-0.0003002426
	-0.000433071	-0.0005636356	0.02381931	-0.02045593	-0.0006028972	-0.0003726323	0.008994763	0.01902576
	0.007433232	0.01976437	-0.0006028972	-0.0003726323	0.02208047	-0.01852277	-0.0003939361	-0.0004601156
	-0.0001678482	-0.0003002426	0.008994759	0.01902579	-0.0003939362	-0.0004601156	0.0237879	-0.02026583
5e+07	0.01930337	-0.02494301	-0.0004816252	-0.0006409258	0.01082293	0.02360121	-0.0002367781	-0.0003455899
	-0.0004816252	-0.0006409257	0.02225464	-0.02751247	-0.0006214809	-0.000436732	0.01305421	0.02232711
	0.01082294	0.02360122	-0.0006214809	-0.0004367319	0.01946386	-0.02459847	-0.0004578265	-0.0005269835
	-0.0002367781	-0.0003455899	0.01305421	0.02232712	-0.0004578265	-0.0005269835	0.02225786	-0.02729221
6e+07	0.01536414	-0.03043795	-0.0005464558	-0.0006989669	0.01470714	0.02685646	-0.0003134138	-0.0003803032
	-0.0005464558	-0.0006989669	0.01957051	-0.03435176	-0.0006521785	-0.0004949571	0.0176781	0.02483571
	0.01470714	0.02685646	-0.0006521785	-0.0004949571	0.01560196	-0.03010392	-0.0005354324	-0.0005759548
	-0.0003134138	-0.0003803032	0.01767812	0.02483569	-0.0005354324	-0.0005759548	0.01961024	-0.03410834
7e+07	0.01039394	-0.03508274	-0.0006604256	-0.0007141321	0.0189851	0.0294722	-0.0003958362	-0.0004031395
	-0.0006604256	-0.000714132	0.01588003	-0.04076314	-0.0006946948	-0.0005486918	0.02272203	0.02646709
	0.0189851	0.0294722	-0.0006946948	-0.0005486918	0.01069926	-0.03477389	-0.0006231622	-0.0006070683
	-0.0003958362	-0.0004031395	0.02272203	0.02646708	-0.0006231622	-0.0006070683	0.01595772	-0.04050363
8e+07	0.00462154	-0.03868788	-0.0008183897	-0.0006733879	0.02354884	0.03140798	-0.0004821344	-0.0004134774
	-0.0008183897	-0.0006733879	0.0113211	-0.04656925	-0.0007493628	-0.0005979396	0.02803047	0.02716243
	0.02354884	0.03140798	-0.0007493628	-0.0005979396	0.00498274	-0.038417	-0.0007175108	-0.0006199827
	-0.0004821344	-0.0004134774	0.02803047	0.02716243	-0.0007175109	-0.0006199827	0.01143762	-0.04630069
9e+07	-0.001712671	-0.04111582	-0.0009649786	-0.0006045796	0.02828788	0.03264266	-0.0005714391	-0.0004112725
	-0.0009649787	-0.0006045796	0.006056809	-0.05163175	-0.0008172244	-0.0006419437	0.03344196	0.02688906
	0.02828788	0.03264266	-0.0008172244	-0.0006419437	-0.001309246	-0.04089349	-0.0008251183	-0.0006045135
	-0.0005714391	-0.0004112725	0.03344196	0.02688907	-0.0008251183	-0.0006045135	0.006211511	-0.05136152
1e+08	-0.008328814	-0.0422479	-0.00108817	-0.000502254	0.03309558	0.03317343	-0.0006609264	-0.0003957254
	-0.00108817	-0.000502254	0.0002950026	-0.05582315	-0.0008966076	-0.0006772828	0.03879583	0.0256401
	0.03309558	0.03317343	-0.0008966076	-0.0006772828	-0.007903941	-0.04208729	-0.0009497628	-0.00053995
	-0.0006609264	-0.0003957254	0.03879583	0.0256401	-0.0009497628	-0.00053995	0.0004852727	-0.05555904
1.1e+08	-0.0149033	-0.04224654	-0.001171849	-0.0004173783	0.03785487	0.03300017	-0.0007502682	-0.0003714331
	-0.001171849	-0.0004173783	-0.005761274	-0.059352	-0.0009980143	-0.0006977144	0.04393632	0.02341425
	0.03785487	0.03300017	-0.0009980143	-0.0006977144	-0.01448645	-0.04210812	-0.00105213	-0.0004761028
	-0.0007502682	-0.0003714331	0.04393632	0.02341425	-0.00105213	-0.0004761028	-0.005489115	-0.05913128
1.2e+08	-0.02142343	-0.04103492	-0.001263307	-0.0003313674	0.04245366	0.03216968	-0.0008426717	-0.0003354145
	-0.001263307	-0.0003313674	-0.01218326	-0.06202872	-0.001117139	-0.0007082735	0.04865832	0.02028958
	0.04245366	0.03216968	-0.001117139	-0.0007082735	-0.02100316	-0.04092039	-0.001156703	-0.000403712
	-0.0008426717	-0.0003354145	0.04865832	0.02028958	-0.001156703	-0.000403712	-0.01189326	-0.06185352
1.3e+08	-0.02760984	-0.03860163	-0.001352901	-0.000234941	0.04680383	0.03073316	-0.0009386805	-0.0002880678
	-0.001352901	-0.000234941	-0.01875786	-0.06380959	-0.001251335	-0.0007034156	0.052834	0.01634152
	0.04680383	0.03073316	-0.001251335	-0.0007034156	-0.02718807	-0.03851434	-0.001257489	-0.0003182412
	-0.0009386805	-0.0002880678	0.052834	0.01634151	-0.001257489	-0.0003182412	-0.01846985	-0.06366031
1.4e+08	-0.0332254	-0.03501495	-0.001437416	-0.000126662	0.05082561	0.02875312	-0.001032116	-0.0002258989
	-0.001437416	-0.000126662	-0.0253258	-0.06471308	-0.001398416	-0.000678992	0.05633959	0.01166619
	0.05082561	0.02875312	-0.001398416	-0.000678992	-0.03280703	-0.0349549	-0.001352028	-0.0002194896
	-0.001032116	-0.0002258989	0.05633959	0.01166619	-0.001352028	-0.0002194896	-0.02503885	-0.06457856
1.5e+08	-0.03805732	-0.03038893	-0.001514543	-6.151726e-06	0.05445214	0.02630174	-0.001121242	-0.0001490064
	-0.001514543	-6.151726e-06	-0.03174726	-0.06478288	-0.001555451	-0.0006312275	0.05906494	0.006377626
	0.05445214	0.02630174	-0.001555451	-0.0006312275	-0.03764757	-0.03035373	-0.001438444	-0.0001078215
	-0.001121242	-0.0001490064	0.05906494	0.006377625	-0.001438444	-0.0001078215	-0.03145705	-0.06466176
1.6e+08	-0.04192065	-0.02487454	-0.001582298	0.0001263475	0.05763045	0.02345896	-0.001204241	-5.772097e-05
	-0.001582298	0.0001263475	-0.03789957	-0.06408306	-0.001718637	-0.0005569579	0.06091795	0.0006053267
	0.05763045	0.02345896	-0.001718637	-0.0005569579	-0.04152406	-0.02485989	-0.001515166	1.606313e-05
	-0.001204241	-5.772097e-05	0.06091795	0.0006053261	-0.001515166	1.606313e-05	-0.03760372	-0.06397973
1.7e+08	-0.04466265	-0.01865227	-0.001638889	0.0002703084	0.06032187	0.02030918	-0.001279278	4.749949e-05
	-0.001638889	0.0002703084	-0.04367746	-0.06269509	-0.00188344	-0.0004537874	0.06182706	-0.005509002
	0.06032187	0.02030918	-0.00188344	-0.0004537874	-0.0442823	-0.01865302	-0.001580772	0.0001513068
	-0.001279278	4.749949e-05	0.06182706	-0.005509002	-0.001580772	0.0001513068	-0.04337745	-0.06261587
1.8e+08	-0.04616536	-0.01192515	-0.001682674	0.0004248858	0.06250259	0.01693957	-0.001344508	0.0001659749
	-0.001682674	0.0004248858	-0.04899549	-0.06071436	-0.002044735	-0.0003200627	0.06174287	-0.01181451
	0.06250259	0.01693957	-0.002044735	-0.0003200627	-0.04580341	-0.01193578	-0.001634081	0.000296886
	-0.001344508	0.0001659749	0.06174287	-0.01181451	-0.001634081	0.000296886	-0.04869622	-0.06066535
1.9e+08	-0.04634844	-0.004912962	-0.001712089	0.0005890689	0.06416317	0.01343795	-0.001398138	0.0002968262
	-0.001712089	0.0005890689	-0.05378889	-0.05824701	-0.002196982	-0.0001548999	0.06063969	-0.01815466
	0.06416317	0.01343795	-0.002196982	-0.0001548999	-0.04600588	-0.004927786	-0.001673919	0.0004517122
	-0.001398138	0.0002968262	0.06063969	-0.01815466	-0.001673919	0.0004517122	-0.053498	-0.05823259
2e+08	-0.04516954	0.002154906	-0.001724881	0.0007607723	0.06530763	0.009889889	-0.001438442	0.000438892
	-0.001724881	0.0007607723	-0.05801561	-0.0554053	-0.002331863	7.313814e-05	0.05851548	-0.02437079
	0.06530763	0.009889889	-0.002331863	7.313814e-05	-0.04484666	0.002142163	-0.001698775	0.0006134076
	-0.001438442	0.000438892	0.05851548	-0.02437079	-0.001698775	0.0006134076	-0.0577415	-0.05542802
2.1e+08	-0.04262655	0.009046049	-0.001720679	0.0009392418	0.06595399	0.006377545	-0.001463722	0.0005908468
	-0.001720679	0.0009392418	-0.06165535	-0.05230342	-0.002440879	0.0003285369	0.05539199	-0.03030544
	0.06595399	0.006377545	-0.002440879	0.0003285369	-0.04232177	0.00904106	-0.001708551	0.0007818896
	-0.001463722	0.0005908468	0.05539199	-0.03030544	-0.001708551	0.0007818896	-0.06140784	-0.05236351
2.2e+08	-0.03875491	0.01553073	-0.001698257	0.001122911	0.06613185	0.002977454	-0.001472416	0.0007511064
	-0.001698257	0.001122911	-0.06471041	-0.04905395	-0.002518924	0.0006079493	0.05131415	-0.03580572
	0.06613185	0.002977454	-0.002518924	0.0006079493	-0.03846625	0.01553931	-0.001702367	0.0009559712
	-0.001472416	0.0007511064	0.05131415	-0.03580572	-0.001702367	0.0009559712	-0.06449909	-0.04914912
2.3e+08	-0.03362825	0.02138797	-0.001656556	0.001309962	0.06588203	-0.0002409404	-0.001463152	0.0009178404
	-0.001656556	0.001309962	-0.06720367	-0.04576315	-0.002561552	0.0009068511	0.04634932	-0.04072674
	0.06588203	-0.0002409404	-0.002561552	0.0009068511	-0.0333523	0.02141576	-0.001679431	0.001134361
	-0.001463152	0.0009178404	0.04634932	-0.04072674	-0.001679431	0.001134361	-0.06703744	-0.04588952
2.4e+08	-0.02735534	0.02641237	-0.001594609	0.001498517	0.06525556	-0.003216555	-0.001434741	0.001089
	-0.001594609	0.001498517	-0.06917704	-0.0425276	-0.002565119	0.001219949	0.04058595	-0.0449342
	0.06525556	-0.003216555	-0.002565119	0.001219949	-0.02708789	0.0264644	-0.001638951	0.001315695
	-0.001434741	0.001089	0.04058595	-0.0449342	-0.001638951	0.001315695	-0.06906445	-0.04267951
2.5e+08	-0.0200774	0.0304183	-0.001511713	0.001686406	0.06431164	-0.005898245	-0.001386184	0.001262376
	-0.001511713	0.001686406	-0.07068928	-0.03943084	-0.002526924	0.001541258	0.03413176	-0.04830759
	0.06431164	-0.005898245	-0.002526924	0.001541258	-0.01981268	0.03049895	-0.001580246	0.001498502
	-0.001386184	0.001262376	0.03413176	-0.04830759	-0.001580246	0.001498502	-0.07063741	-0.03960145
2.6e+08	-0.01196441	0.03324568	-0.001407323	0.001871333	0.0631165	-0.008245833	-0.001316838	0.001435541
	-0.001407323	0.001871333	-0.07181268	-0.03654094	-0.002445424	0.001864355	0.02711196	-0.05074323
	0.0631165	-0.008245833	-0.002445424	0.001864355	-0.01169622	0.03335812	-0.001502661	0.001681202
	-0.001316838	0.001435541	0.02711196	-0.05074323	-0.001502661	0.001681202	-0.07182795	-0.03672219
2.7e+08	-0.003210327	0.03476332	-0.00128116	0.00205087	0.06174166	-0.01023059	-0.00122624	0.001605995
	-0.00128116	0.00205087	-0.07263002	-0.03390825	-0.002320321	0.00218254	0.01966667	-0.05215572
	0.06174166	-0.01023059	-0.002320321	0.00218254	-0.002931244	0.03491034	-0.001405626	0.001862092
	-0.00122624	0.001605995	0.01966667	-0.05215572	-0.001405626	0.001862092	-0.07271762	-0.03409113
2.8e+08	0.0059715	0.03487357	-0.001133231	0.002222473	0.06026219	-0.01183682	-0.001114351	0.001771063
	-0.001133231	0.002222473	-0.07323109	-0.03156315	-0.002152395	0.002489244	0.01194815	-0.05248104
	0.06026219	-0.01183682	-0.002152395	0.002489244	0.006269561	0.0350567	-0.001288715	0.002039315
	-0.001114351	0.001771063	0.01194815	-0.05248104	-0.001288715	0.002039315	-0.07339461	-0.03173804
2.9e+08	0.01535365	0.03351501	-0.0009638769	0.002383477	0.05875448	-0.01306167	-0.0009814505	0.00192807
	-0.0009638769	0.002383477	-0.07370835	-0.02951605	-0.001943636	0.002778164	0.004117832	-0.05167808
	0.05875448	-0.01306167	-0.001943636	0.002778164	0.01567952	0.03373395	-0.001151566	0.002210912
	-0.0009814505	0.00192807	0.004117832	-0.05167808	-0.001151566	0.002210912	-0.07395049	-0.02967258
3e+08	0.02470201	0.03066327	-0.0007737471	0.002531198	0.05729428	-0.01391592	-0.0008281783	0.002074348
	-0.0007737471	0.002531198	-0.07415314	-0.02775654	-0.001697128	0.003043485	-0.00365701	-0.04972942
	0.05729428	-0.01391592	-0.001697128	0.003043485	0.02506479	0.03091624	-0.0009940188	0.002374744
	-0.0008281783	0.002074348	-0.003657011	-0.04972942	-0.0009940188	0.002374744	-0.07447521	-0.02788404
3.1e+08	0.03378123	0.02633299	-0.0005638775	0.002662986	0.05595483	-0.01442313	-0.0006554772	0.00220728
	-0.0005638775	0.002662986	-0.07465157	-0.02625425	-0.001416763	0.003280128	-0.01120719	-0.04664304
	0.05595483	-0.01442313	-0.001416763	0.003280128	0.03418945	0.02661645	-0.0008161925	0.002528536
	-0.0006554772	0.00220728	-0.01120719	-0.04664304	-0.0008161925	0.002528536	-0.07505389	-0.02634142
3.2e+08	0.04236052	0.02057695	-0.0003356329	0.002776222	0.05480419	-0.01462029	-0.0004647714	0.002324332
	-0.0003356329	0.002776222	-0.07528097	-0.02495966	-0.001107331	0.003483864	-0.01836519	-0.04245217
	0.05480419	-0.01462029	-0.001107331	0.003483864	0.0428234	0.0208859	-0.0006183448	0.002669906
	-0.0004647714	0.002324332	-0.01836519	-0.04245217	-0.0006183448	0.002669906	-0.07576154	-0.02499505
3.3e+08	0.05022161	0.01348468	-9.076642e-05	0.002868407	0.05390277	-0.01455609	-0.0002577233	0.002423166
	-9.076642e-05	0.002868407	-0.07610552	-0.02380658	-0.0007739071	0.003651488	-0.02496878	-0.03721473
	0.05390277	-0.01455609	-0.0007739071	0.003651488	0.05074716	0.01381244	-0.000401039	0.002796374
	-0.0002577233	0.002423166	-0.02496878	-0.03721473	-0.000401039	0.002796374	-0.07666124	-0.02377844
3.4e+08	0.05716345	0.005180792	0.0001685838	0.002937235	0.05330216	-0.01428991	-3.634389e-05	0.002501687
	0.0001685838	0.002937235	-0.07717301	-0.02271427	-0.000422064	0.003780781	-0.03086561	-0.03101297
	0.05330216	-0.01428991	-0.000422064	0.003780781	0.05775931	0.005519026	-0.0001651507	0.00290542
	-3.634389e-05	0.002501687	-0.03086561	-0.03101297	-0.0001651507	0.00290542	-0.07779885	-0.02261143
3.5e+08	0.06300915	-0.004179387	0.0004399099	0.002980606	0.0530422	-0.01389072	0.0001970545	0.002558016
	0.0004399099	0.002980606	-0.07851218	-0.02159147	-5.733363e-05	0.003870619	-0.03591592	-0.02395132
	0.0530422	-0.01389072	-5.733363e-05	0.003870619	0.0636807	-0.003840909	8.803532e-05	0.002994465
	0.0001970545	0.002558016	-0.03591592	-0.02395132	8.803532e-05	0.002994465	-0.07920181	-0.02140263
3.6e+08	0.06760947	-0.0144142	0.0007204204	0.002996781	0.05314973	-0.01343407	0.000439925	0.002590644
	0.0007204204	0.002996781	-0.08013068	-0.02033974	0.000315047	0.003920784	-0.03999676	-0.01615472
	0.05314973	-0.01343407	0.000315047	0.003920784	0.0683614	-0.01408635	0.0003568905	0.003061017
	0.000439925	0.002590644	-0.03999676	-0.01615472	0.0003568905	0.003061017	-0.08087556	-0.02005457
3.7e+08	0.07084806	-0.02532064	0.00100709	0.002984311	0.05363741	-0.01300021	0.0006896388	0.00259836
	0.00100709	0.002984311	-0.0820131	-0.01885861	0.0006901234	0.003931936	-0.04300484	-0.007765247
	0.05363741	-0.01300021	0.0006901234	0.003931936	0.07168333	-0.02501571	0.0006394956	0.003102654
	0.0006896388	0.00259836	-0.04300484	-0.007765247	0.0006394956	0.003102654	-0.08280312	-0.01846767
3.8e+08	0.07264439	-0.03668035	0.001296589	0.002942211	0.0545026	-0.01267159	0.0009432942	0.002580342
	0.001296589	0.002942211	-0.08412117	-0.01704941	0.001063384	0.003905449	-0.04485841	0.001060862
	0.0545026	-0.01267159	0.001063384	0.003905449	0.07356348	-0.03641162	0.000933396	0.003117137
	0.0009432942	0.002580342	-0.04485841	0.001060862	0.000933396	0.003117137	-0.08494474	-0.01654414
3.9e+08	0.07295453	-0.04826643	0.001585482	0.002869927	0.05572747	-0.01252971	0.001198026	0.002536113
	0.001585482	0.002869927	-0.08639297	-0.01481989	0.001431039	0.003843227	-0.04550019	0.01015646
	0.05572747	-0.01252971	0.001431039	0.003843227	0.07395659	-0.04804658	0.001235845	0.003102493
	0.001198026	0.002536113	-0.04550019	0.01015646	0.001235845	0.003102493	-0.08723681	-0.01419416
4e+08	0.07177363	-0.05984926	0.001870248	0.002767383	0.05727896	-0.01265245	0.00145091	0.00246557
	0.001870248	0.002767383	-0.08874544	-0.01209005	0.001790055	0.003747424	-0.04489767	0.01934823
	0.05727896	-0.01265245	0.001790055	0.003747424	0.07285502	-0.05969211	0.00154378	0.003057004
	0.00145091	0.00246557	-0.04489767	0.01934823	0.00154378	0.003057004	-0.08959559	-0.01133888
4.1e+08	0.06913422	-0.07120477	0.002147387	0.002634962	0.05910991	-0.01311058	0.00169908	0.002368978
	0.002147387	0.002634962	-0.09107668	-0.008796053	0.002137859	0.003620465	-0.043044	0.02845984
	0.05910991	-0.01311058	0.002137859	0.003620465	0.07028939	-0.07112345	0.001853712	0.002979438
	0.00169908	0.002368978	-0.043044	0.02845984	0.001853712	0.002979438	-0.09191785	-0.007916435
4.2e+08	0.06510489	-0.08211876	0.002413459	0.00247357	0.06116007	-0.01396696	0.001939744	0.002246973
	0.002413459	0.00247357	-0.09326728	-0.004893355	0.00247279	0.003464542	-0.03995829	0.03731647
	0.06116007	-0.01396696	0.00247279	0.003464542	0.06632618	-0.08212521	0.002162049	0.002868918
	0.001939744	0.002246973	-0.03995829	0.03731647	0.002162049	0.002868918	-0.09408355	-0.003884602
4.3e+08	0.0597876	-0.09239443	0.002665223	0.002284534	0.06335844	-0.01527201	0.002170329	0.002100361
	0.002665223	0.002284534	-0.09518642	-0.0003612251	0.00279344	0.003281826	-0.03568392	0.04574841
	0.06335844	-0.01527201	0.00279344	0.003281826	0.06106493	-0.09250007	0.002465043	0.002725016
	0.002170329	0.002100361	-0.03568392	0.04574841	0.002465043	0.002725016	-0.09596189	0.0007751413
4.4e+08	0.05331347	-0.1018569	0.002899645	0.002069612	0.06562505	-0.01706362	0.002388325	0.001930352
	0.002899645	0.002069612	-0.09669562	0.004795572	0.003098997	0.003074003	-0.0302879	0.05359434
	0.06562505	-0.01706362	0.003098997	0.003074003	0.05463543	-0.1020714	0.002758706	0.002547945
	0.002388325	0.001930352	-0.0302879	0.05359434	0.002758706	0.002547945	-0.09741396	0.006055739
4.5e+08	0.04583874	-0.1103573	0.003114046	0.001830922	0.06787408	-0.01936521	0.002591432	0.001738391
	0.003114046	0.001830922	-0.09765235	0.01054457	0.003388883	0.002842373	-0.02385893	0.06070491
	0.06787408	-0.01936521	0.003388883	0.002842373	0.04719218	-0.1106886	0.003039176	0.002338369
	0.002591432	0.001738391	-0.02385893	0.06070491	0.003039176	0.002338369	-0.09829774	0.01192244
4.6e+08	0.0375392	-0.117777	0.003306015	0.001570932	0.07001606	-0.02218506	0.002777622	0.001526034
	0.003306015	0.001570932	-0.0979165	0.01682536	0.003662418	0.002587984	-0.01650489	0.06694512
	0.07001606	-0.02218506	0.003662418	0.002587984	0.03890954	-0.1182312	0.003302703	0.002097311
	0.002777622	0.001526034	-0.01650489	0.06694512	0.003302703	0.002097311	-0.09847443	0.01831266
4.7e+08	0.02860498	-0.1240297	0.003473641	0.001292203	0.07196098	-0.02551562	0.00294503	0.00129508
	0.003473641	0.001292203	-0.09735693	0.02354899	0.003918947	0.002311379	-0.008350331	0.0721971
	0.07196098	-0.02551562	0.003918947	0.002311379	0.02997686	-0.1246106	0.003545579	0.001826548
	0.00294503	0.00129508	-0.008350331	0.0721971	0.003545579	0.001826548	-0.09781273	0.02513543
4.8e+08	0.01923418	-0.1290626	0.003615375	0.0009975119	0.07362081	-0.0293345	0.003092062	0.001047352
	0.003615375	0.0009975119	-0.09585341	0.03060096	0.004157699	0.002012661	0.0004659008	0.07636115
	0.07362081	-0.0293345	0.004157699	0.002012661	0.02059198	-0.1297717	0.003764402	0.0015281
	0.003092062	0.001047352	0.0004659008	0.07636115	0.003764402	0.0015281	-0.09619467	0.03227353
4.9e+08	0.009627886	-0.1328565	0.003730023	0.0006897589	0.07491192	-0.03360487	0.003217345	0.0007847972
	0.003730023	0.0006897589	-0.09330352	0.03784063	0.004377349	0.001691969	0.009793947	0.07935818
