# GHz S RI R 45
0.000     0.057068074000    0.000000000000    0.000032524030    -0.000000000000    0.004688785600    0.000000000000    0.000038444527    -0.000000000000
            0.000032523820    -0.000000000000    0.056524505000    0.000000000000    0.000038451909    -0.000000000000    0.004048934800    0.000000000000
            0.004688785400    0.000000000000    0.000038452101    -0.000000000000    0.051200246000    0.000000000000    0.000046431932    -0.000000000000
            0.000038444532    -0.000000000000    0.004048916500    0.000000000000    0.000046431908    -0.000000000000    0.050696481000    0.000000000000
0.025     0.099132334822    0.039240946319    0.000077339451    0.000043536661    0.032836649427    0.038531133103    0.000092374489    0.000052617668
            0.000077339448    0.000043536659    0.099418912875    0.038981930159    0.000092515108    0.000052511293    0.031845616131    0.038302086586
            0.032836649427    0.038531133103    0.000092515108    0.000052511293    0.092788628532    0.039987022950    0.000114033917    0.000066327617
            0.000092374479    0.000052617665    0.031845613022    0.038302078767    0.000114033916    0.000066327618    0.093057945376    0.039960181062
0.050     0.156457768579    0.010946576390    0.000123679348    0.000001135474    0.080944098431    0.025843290368    0.000149657925    0.000001182877
            0.000123679348    0.000001135473    0.156391269016    0.010378624071    0.000149866475    0.000000596095    0.079499317139    0.026019028649
            0.080944098431    0.025843290368    0.000149866485    0.000000596095    0.149562968473    0.013050773866    0.000188322981    0.000001170746
            0.000149657925    0.000001182877    0.079499306273    0.026019029701    0.000188322981    0.000001170747    0.149708040907    0.012859928280
0.075     0.170458984923    -0.060935604364    0.000076745038    -0.000056114545    0.091560567253    -0.023537126537    0.000093127271    -0.000071313671
            0.000076745038    -0.000056114545    0.170020520628    -0.061820165688    0.000092802361    -0.000072558063    0.090444795611    -0.022853446087
            0.091560567253    -0.023537126537    0.000092802362    -0.000072558062    0.163579338335    -0.056453078463    0.000117463549    -0.000095623522
            0.000093127271    -0.000071313671    0.090444788480    -0.022853437568    0.000117463550    -0.000095623520    0.163609175403    -0.057028778888
0.100     0.128664133197    -0.124016557220    -0.000019076605    -0.000012422166    0.056780102579    -0.057274068268    -0.000026778894    -0.000021031560
            -0.000019076606    -0.000012422166    0.127029124562    -0.125562995998    -0.000028282275    -0.000022258946    0.055989770543    -0.057132511544
            0.056780102579    -0.057274068268    -0.000028282275    -0.000022258945    0.123212606299    -0.116789831843    -0.000040321979    -0.000036481618
            -0.000026778893    -0.000021031560    0.055989769929    -0.057132500944    -0.000040321978    -0.000036481618    0.122164927383    -0.118225436085
0.125     0.060193823071    -0.141761021695    -0.000025937141    0.000157292741    0.014854837886    -0.045469926587    -0.000041247816    0.000185821882
            -0.000025937141    0.000157292741    0.056054944935    -0.142766242633    -0.000043741219    0.000185800687    0.013020106200    -0.046197716061
            0.014854838196    -0.045469927537    -0.000043741186    0.000185800695    0.057821748619    -0.132621050473    -0.000068500870    0.000226818581
            -0.000041247816    0.000185821882    0.013020111294    -0.046197709430    -0.000068500870    0.000226818581    0.054237687223    -0.133673700758
0.150     0.006194872069    -0.116204172102    0.000179125864    0.000302648004    0.007536070279    -0.009750181743    0.000203469734    0.000368308025
            0.000179125858    0.000302648007    0.000304831128    -0.114109562839    0.000201774509    0.000369874978    0.003731858744    -0.009890195811
            0.007536070109    -0.009750181874    0.000201774515    0.000369874975    0.007685201836    -0.107031934874    0.000234898251    0.000467019001
            0.000203469735    0.000368308013    0.003731864441    -0.009890193662    0.000234898259    0.000467018997    0.002297951429    -0.105043197725
0.175     -0.011714947385    -0.073759912484    0.000495703361    0.000208111972    0.038246190786    0.003388976546    0.000589694900    0.000262586379
            0.000495703370    0.000208111975    -0.016026575817    -0.068361747454    0.000589729980    0.000264131623    0.035164315483    0.006072068456
            0.038246190780    0.003388976612    0.000589729985    0.000264131613    -0.007137592257    -0.066552813464    0.000725772987    0.000346359609
            0.000589694904    0.000262586368    0.035164317465    0.006072068735    0.000725772987    0.000346359609    -0.010906836972    -0.061304813003
0.200     0.003247475555    -0.042938269776    0.000656269962    -0.000148678664    0.061802860847    -0.008674854499    0.000793651113    -0.000167274852
            0.000656269964    -0.000148678652    0.001862335847    -0.037841052571    0.000794175790    -0.000167393369    0.057026267850    -0.005596887004
            0.061802861852    -0.008674854530    0.000794175790    -0.000167393369    0.009170142556    -0.038611655448    0.000995482280    -0.000191794668
            0.000793651110    -0.000167274866    0.057026268836    -0.005596887201    0.000995482280    -0.000191794668    0.008379403767    -0.033810980756
0.225     0.031334601771    -0.045163944091    0.000482375473    -0.000528896658    0.062968549263    -0.042529792396    0.000588535169    -0.000635663132
            0.000482375473    -0.000528896658    0.029028288260    -0.042856258355    0.000587472315    -0.000636928957    0.057417077755    -0.038440047851
            0.062968549263    -0.042529792396    0.000587472315    -0.000636928957    0.037136001052    -0.043025062706    0.000744336540    -0.000791604363
            0.000588535169    -0.000635663132    0.057417078266    -0.038440045290    0.000744336540    -0.000791604363    0.035274037849    -0.041284697124
0.250     0.041722271193    -0.081712628436    0.000084862913    -0.000647306589    0.038290009831    -0.068116206411    0.000100795819    -0.000786525566
            0.000084862913    -0.000647306589    0.034328589120    -0.078586719108    0.000097557108    -0.000786804410    0.031532357143    -0.061128631640
            0.038290009831    -0.068116206411    0.000097557108    -0.000786804410    0.046612292206    -0.080525532768    0.000121826717    -0.000990400066
            0.000100795819    -0.000786525566    0.031532359885    -0.061128629100    0.000121826717    -0.000990400066    0.039530056700    -0.078083086244
0.275     0.003495688325    -0.122810019096    -0.000222652253    -0.000408268505    0.002158856337    -0.070013524905    -0.000282797580    -0.000492783567
            -0.000222652253    -0.000408268505    -0.006615452634    -0.112352495539    -0.000286887623    -0.000490089268    -0.002975849492    -0.058384510898
            0.002158856337    -0.070013524905    -0.000286887623    -0.000490089268    0.008510780130    -0.121697647339    -0.000375377937    -0.000613302591
            -0.000282797580    -0.000492783567    -0.002975844295    -0.058384509160    -0.000375377937    -0.000613302591    -0.001457895311    -0.111953097772
0.300     -0.070938467700    -0.118417135733    -0.000164859513    -0.000043746078    -0.026336093878    -0.047786433653    -0.000215184065    -0.000038653637
            -0.000164859513    -0.000043746078    -0.075574765818    -0.100039703054    -0.000217054120    -0.000032949002    -0.025894390562    -0.033830163425
            -0.026336093878    -0.047786433653    -0.000217054120    -0.000032949002    -0.064706702343    -0.117827042811    -0.000291137576    -0.000023692480
            -0.000215184065    -0.000038653637    -0.025894388738    -0.033830161042    -0.000291137576    -0.000023692480    -0.069280270471    -0.100279268248
0.325     -0.122172596654    -0.049287528986    0.000239797328    0.000058233830    -0.028010979773    -0.012381245385    0.000281288202    0.000098215939
            0.000239797327    0.000058233834    -0.116807215752    -0.031127154638    0.000283652666    0.000104769362    -0.022372873810    -0.002072562242
            -0.028010979773    -0.012381245385    0.000283652666    0.000104769362    -0.114534366703    -0.050701442303    0.000344043707    0.000166429419
            0.000281288204    0.000098215934    -0.022372870461    -0.002072565871    0.000344043701    0.000166429409    -0.109377541165    -0.033674964358
0.350     -0.098624951463    0.035493070813    0.000600220755    -0.000361340692    0.001343119804    0.007390760021    0.000728269279    -0.000403042220
            0.000600220755    -0.000361340692    -0.089339485433    0.045392757646    0.000733424263    -0.000400408717    0.005276500572    0.011310327966
            0.001343119822    0.007390760120    0.000733424263    -0.000400408717    -0.090818581925    0.030711493829    0.000921032485    -0.000457821676
            0.000728269271    -0.000403042215    0.005276501447    0.011310323144    0.000921032485    -0.000457821676    -0.082437163942    0.039348666115
0.375     -0.021137017916    0.058078872674    0.000383214612    -0.001075904288    0.034474542156    -0.016986535834    0.000488073694    -0.001261512115
            0.000383214631    -0.001075904281    -0.018196147673    0.062870794114    0.000492046463    -0.001262596520    0.030292203375    -0.012645253261
            0.034474542452    -0.016986535232    0.000492046463    -0.001262596520    -0.015461885634    0.049847536765    0.000648886879    -0.001527391426
            0.000488073694    -0.001261512115    0.030292201830    -0.012645256962    0.000648886879    -0.001527391426    -0.014177002501    0.053861696057
0.400     0.024231601065    0.002277173837    -0.000505007074    -0.001359551932    0.023161447126    -0.071587946963    -0.000554232649    -0.001625745389
            -0.000505007074    -0.001359551932    0.020590168903    0.013072845473    -0.000553639755    -0.001627489422    0.015497772814    -0.056776924722
            0.023161447126    -0.071587946963    -0.000553639755    -0.001627489422    0.026037592851    -0.007601239444    -0.000613874122    -0.002012471169
            -0.000554232649    -0.001625745389    0.015497771096    -0.056776926227    -0.000613874122    -0.002012471169    0.020519476696    0.003284975235
0.425     -0.016827641892    -0.055363223394    -0.001293484955    -0.000732215293    -0.046533476830    -0.094153914824    -0.001513810108    -0.000917693598
            -0.001293484955    -0.000732215293    -0.016179325039    -0.034814568401    -0.001515081612    -0.000916806866    -0.044917043806    -0.069196504767
            -0.046533476830    -0.094153914824    -0.001515081612    -0.000916806866    -0.018840752453    -0.064267343496    -0.001823434203    -0.001196252284
            -0.001513810108    -0.000917693598    -0.044917044350    -0.069196505606    -0.001823434203    -0.001196252284    -0.019690774320    -0.042979799174
0.450     -0.093337386710    -0.034966098795    -0.001226537887    0.000204734490    -0.115229911987    -0.042361579910    -0.001486737070    0.000201681954
            -0.001226537887    0.000204734490    -0.080676627721    -0.012896553338    -0.001486519144    0.000205750122    -0.098497436946    -0.019227220848
            -0.115229911987    -0.042361579910    -0.001486519144    0.000205750122    -0.097269573643    -0.041324453070    -0.001866109705    0.000184868884
            -0.001486737070    0.000201681954    -0.098497436946    -0.019227220848    -0.001866109705    0.000184868884    -0.085752126115    -0.018534610504
0.475     -0.112422219894    0.049792663022    -0.000531420405    0.000588091283    -0.112464308793    0.046884837346    -0.000676039274    0.000711028057
            -0.000531420405    0.000588091283    -0.091498689792    0.062368050854    -0.000671619139    0.000716504261    -0.087910215779    0.056439522203
            -0.112464308793    0.046884837346    -0.000671619139    0.000716504261    -0.116264235495    0.045466127715    -0.000895092838    0.000889482983
            -0.000676039274    0.000711028057    -0.087910207364    0.056439516801    -0.000895092838    0.000889482983    -0.096604239326    0.058566877007
0.500     -0.049098963967    0.111299314343    0.000058757709    0.000224316005    -0.040434631274    0.092152468826    0.000062989042    0.000319137947
            0.000058757715    0.000224316014    -0.031474552777    0.111996422767    0.000073030292    0.000321833744    -0.022419776557    0.087663069429
            -0.040434631274    0.092152468826    0.000073030292    0.000321833744    -0.052250395180    0.107507053443    0.000070908209    0.000469134909
            0.000062989042    0.000319137947    -0.022419775814    0.087663066523    0.000070908209    0.000469134909    -0.036513666697    0.108968548714
0.525     0.030261883462    0.086908335925    -0.000078154438    -0.000522990700    0.027154456191    0.049429170597    -0.000032492508    -0.000572724428
            -0.000078154431    -0.000522990711    0.036586776035    0.085208983160    -0.000017528198    -0.000580398142    0.029594625183    0.043894510685
            0.027154456191    0.049429170597    -0.000017528209    -0.000580398142    0.026967293304    0.082526852276    0.000070252411    -0.000640819802
            -0.000032492518    -0.000572724427    0.029594622181    0.043894507885    0.000070252410    -0.000640819792    0.031025956222    0.082684681304
0.550     0.036141805786    0.011974829144    -0.001039358928    -0.000725005884    0.008854941390    -0.031094376198    -0.001119723115    -0.000883254501
            -0.001039358928    -0.000725005884    0.036618861575    0.019084071784    -0.001117295714    -0.000898481013    0.004178163786    -0.023174351014
            0.008854941390    -0.031094376198    -0.001117295714    -0.000898481013    0.031171275115    0.007323055419    -0.001211617371    -0.001130018328
            -0.001119723115    -0.000883254501    0.004178160146    -0.023174351671    -0.001211617371    -0.001130018328    0.030114613287    0.017660799450
0.575     -0.030230900239    -0.009789171698    -0.001735470095    0.000252405635    -0.086615203688    -0.042082932445    -0.001999834402    0.000157054990
            -0.001735470095    0.000252405635    -0.025129629645    0.002810639264    -0.002010329396    0.000149370701    -0.082106641479    -0.021437378251
            -0.086615203688    -0.042082932445    -0.002010329396    0.000149370701    -0.038400486887    -0.014862084618    -0.002378101680    -0.000016568930
            -0.001999834402    0.000157054990    -0.082106643414    -0.021437378756    -0.002378101680    -0.000016568930    -0.032147688758    0.003497204869
0.600     -0.074519957508    0.046636069030    -0.001253865957    0.001325274943    -0.148689092227    0.046620562922    -0.001581276729    0.001434726194
            -0.001253865957    0.001325274943    -0.059746708685    0.059515327165    -0.001587702841    0.001439703133    -0.128306256789    0.066346272140
            -0.148689092227    0.046620562922    -0.001587702841    0.001439703133    -0.082674907491    0.046302731812    -0.002078617086    0.001563226491
            -0.001581276729    0.001434726194    -0.128306254092    0.066346299127    -0.002078617086    0.001563226491    -0.067007742835    0.062012192199
0.625     -0.041519180310    0.110121385365    -0.000342631446    0.001565297970    -0.110705706484    0.151153086222    -0.000554326287    0.001856747949
            -0.000342631446    0.001565297970    -0.024339512365    0.115775336464    -0.000550377276    0.001861968025    -0.081327798018    0.157758903734
            -0.110705706484    0.151153086222    -0.000550377276    0.001861968025    -0.048814731733    0.112918585176    -0.000896083459    0.002276999659
            -0.000554326287    0.001856747949    -0.081327798018    0.157758903734    -0.000896083459    0.002276999659    -0.030663968584    0.120854327682
0.650     0.024861780114    0.114732344111    0.000290511188    0.001268578961    -0.012050164518    0.185892904593    0.000279753306    0.001603042854
            0.000290511188    0.001268578961    0.038491178845    0.114871792604    0.000288498468    0.001601639025    0.013704498743    0.177288185320
            -0.012050164518    0.185892904593    0.000288498468    0.001601639025    0.019923212782    0.119794449149    0.000248477199    0.002110605379
            0.000279753306    0.001603042854    0.013704498743    0.177288185320    0.000248477199    0.002110605379    0.034510419244    0.122249054230
0.675     0.057345639701    0.065751354125    0.000517673469    0.000755993160    0.063692392401    0.134564964257    0.000663394959    0.000979187782
            0.000517673469    0.000755993160    0.065509928721    0.064589594664    0.000672069037    0.000968649654    0.075949408393    0.118519703953
            0.063692392401    0.134564964257    0.000672069037    0.000968649654    0.055647626861    0.071391273915    0.000890161957    0.001317969035
            0.000663394959    0.000979187782    0.075949408393    0.118519703953    0.000890161957    0.001317969035    0.065127642241    0.072684190470
0.700     0.028075171465    0.023485743948    0.000253743941    0.000375624795    0.057501641220    0.061510953003    0.000404698114    0.000424995457
            0.000253743941    0.000375624795    0.030653502155    0.024342765110    0.000402765094    0.000405029106    0.055235293500    0.050329928397
            0.057501641220    0.061510953003    0.000402765094    0.000405029106    0.029131670968    0.027737297550    0.000644253898    0.000478979070
            0.000404698114    0.000424995457    0.055235291004    0.050329929652    0.000644253898    0.000478979070    0.033797827088    0.031086607448
0.725     -0.018604883047    0.039498605680    -0.000107880112    0.000630168267    -0.003367179172    0.050058384090    -0.000080299442    0.000620060123
            -0.000107880112    0.000630168267    -0.019710448008    0.047148117035    -0.000101331470    0.000608286581    -0.011795847357    0.056609423021
            -0.003367179172    0.050058384090    -0.000101331471    0.000608286590    -0.016772183039    0.041141359174    -0.000030853396    0.000591633802
            -0.000080299442    0.000620060123    -0.011795847765    0.056609424979    -0.000030853396    0.000591633802    -0.015023028103    0.050733085194
0.750     -0.020733542731    0.089884780128    0.000014160477    0.001148140480    -0.033922718978    0.101373442207    -0.000107930538    0.001220487319
            0.000014160477    0.001148140480    -0.019088573214    0.106744332304    -0.000127891973    0.001232066914    -0.031653258782    0.119426115685
            -0.033922718978    0.101373442207    -0.000127891951    0.001232066916    -0.020060033926    0.090349213450    -0.000325391691    0.001306919960
            -0.000107930538    0.001220487319    -0.031653258782    0.119426115685    -0.000325391691    0.001306919960    -0.015158852985    0.108105000569
0.775     0.016701365079    0.116879558972    0.000626781490    0.001385781610    -0.003847218399    0.161570792762    0.000532201105    0.001647313558
            0.000626781466    0.001385781621    0.028954364552    0.138640798577    0.000534899299    0.001663293676    0.016683123418    0.179328497376
            -0.003847218399    0.161570792762    0.000534899299    0.001663293676    0.016420825980    0.118040911619    0.000354116894    0.002039777635
            0.000532201105    0.001647313558    0.016683123418    0.179328497376    0.000354116894    0.002039777635    0.031748089619    0.139805402221
