# GHz S RI R 45
0.000     0.056488059000    0.000000000000    -0.000021903947    0.000000000000    0.004122949500    0.000000000000    -0.000033140909    0.000000000000
            -0.000021904251    0.000000000000    0.056524505000    0.000000000000    -0.000021963546    0.000000000000    0.004048934800    0.000000000000
            0.004123041300    0.000000000000    -0.000021961655    0.000000000000    0.050577298000    -0.000000000000    -0.000022423528    0.000000000000
            -0.000033140781    0.000000000000    0.004048916500    0.000000000000    -0.000022423541    0.000000000000    0.050696481000    0.000000000000
0.025     0.106648492985    0.037157924042    -0.000062275531    -0.000027466769    0.034658290136    0.035720237372    -0.000068457005    -0.000016488283
            -0.000062275530    -0.000027466755    0.099418912875    0.038981930159    -0.000062828202    -0.000031680164    0.031845616131    0.038302086586
            0.034658324141    0.035720175118    -0.000062828207    -0.000031680167    0.100414193061    0.038654229158    -0.000064044404    -0.000032515140
            -0.000068457007    -0.000016488270    0.031845613022    0.038302078767    -0.000064044403    -0.000032515139    0.093057945376    0.039960181062
0.050     0.168077637045    -0.012442685672    -0.000106686943    0.000015171281    0.082127049688    0.013347359508    -0.000104200137    0.000028832224
            -0.000106686943    0.000015171281    0.156391269016    0.010378624071    -0.000117789502    0.000008435776    0.079499317139    0.026019028649
            0.082127016083    0.013347304465    -0.000117789502    0.000008435776    0.161912945148    -0.008840818368    -0.000121350273    0.000008118217
            -0.000104200137    0.000028832224    0.079499306273    0.026019029701    -0.000121350273    0.000008118217    0.149708040907    0.012859928280
0.075     0.159336412342    -0.108510961756    -0.000110090762    0.000078034918    0.081111400679    -0.043789697559    -0.000095737788    0.000087448226
            -0.000110090748    0.000078034937    0.170020520628    -0.061820165688    -0.000129266478    0.000088021181    0.090444795611    -0.022853446087
            0.081111342160    -0.043789700703    -0.000129266478    0.000088021181    0.154455291340    -0.102150556200    -0.000133869192    0.000091932766
            -0.000095737795    0.000087448233    0.090444788480    -0.022853437568    -0.000133869192    0.000091932766    0.163609175403    -0.057028778888
0.100     0.075592252880    -0.167787776986    -0.000091395822    0.000157567998    0.030683151112    -0.071820141202    -0.000071540827    0.000150588993
            -0.000091395837    0.000157568024    0.127029124562    -0.125562995998    -0.000093209724    0.000182889244    0.055989770543    -0.057132511544
            0.030683117680    -0.071820101113    -0.000093209729    0.000182889253    0.073803633445    -0.159211583432    -0.000093332543    0.000191050568
            -0.000071540832    0.000150589003    0.055989769929    -0.057132500944    -0.000093332538    0.000191050559    0.122164927383    -0.118225436085
0.125     -0.017310279440    -0.146007670411    0.000010705777    0.000262601613    -0.013837177735    -0.043046854101    0.000015825910    0.000239945137
            0.000010705795    0.000262601603    0.056054944935    -0.142766242633    0.000026504546    0.000276542903    0.013020106200    -0.046197716061
            -0.013837164576    -0.043046813164    0.000026504518    0.000276541801    -0.014736193470    -0.137254377513    0.000033313508    0.000282852072
            0.000015825923    0.000239945136    0.013020111294    -0.046197709430    0.000033313468    0.000282852076    0.054237687223    -0.133673700758
0.150     -0.052702010723    -0.079237814769    0.000235858285    0.000260436650    -0.005986386934    0.000298729097    0.000220443683    0.000246860253
            0.000235858246    0.000260436780    0.000304831128    -0.114109562839    0.000247209927    0.000264509964    0.003731858744    -0.009890195811
            -0.005986357987    0.000298743364    0.000247212313    0.000264516330    -0.046236596212    -0.072920272291    0.000256942121    0.000264701267
            0.000220443692    0.000246860245    0.003731864441    -0.009890193662    0.000256942059    0.000264701203    0.002297951429    -0.105043197725
0.175     -0.031334913591    -0.036118223093    0.000415497624    0.000037550810    0.033340441008    -0.005214017604    0.000407946267    0.000042404105
            0.000415497620    0.000037550748    -0.016026575817    -0.068361747454    0.000434771692    0.000048933541    0.035164315483    0.006072068456
            0.033340446999    -0.005214018124    0.000434770109    0.000048932673    -0.023208214193    -0.033791580673    0.000443582082    0.000042729919
            0.000407946268    0.000042404093    0.035164317465    0.006072068735    0.000443582153    0.000042730015    -0.010906836972    -0.061304813003
0.200     -0.007559720516    -0.040974198371    0.000369949744    -0.000271759876    0.041787948734    -0.040205946533    0.000369929639    -0.000277256622
            0.000369949741    -0.000271759863    0.001862335847    -0.037841052571    0.000407731987    -0.000277390134    0.057026267850    -0.005596887004
            0.041787948809    -0.040205952224    0.000407732150    -0.000277389662    -0.000163514776    -0.042296432933    0.000411504806    -0.000289732689
            0.000369929639    -0.000277256622    0.057026268836    -0.005596887201    0.000411504696    -0.000289732601    0.008379403767    -0.033810980756
0.225     -0.020735296257    -0.062446258729    0.000124172293    -0.000458581534    0.001153888420    -0.068780007571    0.000101151007    -0.000469923996
            0.000124172246    -0.000458581485    0.029028288260    -0.042856258355    0.000150269395    -0.000505460139    0.057417077755    -0.038440047851
            0.001153890703    -0.068780000532    0.000150269605    -0.000505458522    -0.015044289288    -0.065869526548    0.000143401242    -0.000519276115
            0.000101151007    -0.000469923996    0.057417078266    -0.038440045290    0.000143401259    -0.000519276141    0.035274037849    -0.041284697124
0.250     -0.060175880521    -0.060859205464    -0.000169080340    -0.000458553588    -0.048361048547    -0.048922112634    -0.000204218202    -0.000429746828
            -0.000169080249    -0.000458553589    0.034328589120    -0.078586719108    -0.000194848895    -0.000515108235    0.031532357143    -0.061128631640
            -0.048361028761    -0.048922109696    -0.000194847391    -0.000515109691    -0.056058931635    -0.064916007823    -0.000211165974    -0.000520455978
            -0.000204218207    -0.000429746837    0.031532359885    -0.061128629100    -0.000211165838    -0.000520455904    0.039530056700    -0.078083086244
0.275     -0.094656802524    -0.023001343850    -0.000415785751    -0.000309106929    -0.060518227675    -0.000475540647    -0.000400135546    -0.000253090103
            -0.000415785730    -0.000309107026    -0.006615452634    -0.112352495539    -0.000475434732    -0.000323042886    -0.002975849492    -0.058384510898
            -0.060518205593    -0.000475551036    -0.000475435229    -0.000323043951    -0.091210531151    -0.027787153866    -0.000491640523    -0.000314921508
            -0.000400135563    -0.000253090113    -0.002975844295    -0.058384509160    -0.000491640418    -0.000314921561    -0.001457895311    -0.111953097772
0.300     -0.097784361172    0.034163108383    -0.000570676977    -0.000036480567    -0.035944622907    0.030502665297    -0.000512170471    -0.000028420020
            -0.000570676987    -0.000036480567    -0.075574765818    -0.100039703054    -0.000612572855    -0.000006256084    -0.025894390562    -0.033830163425
            -0.035944615255    0.030502637222    -0.000612572865    -0.000006256084    -0.095156236096    0.027891878145    -0.000619280891    0.000011265527
            -0.000512170486    -0.000028419931    -0.025894388738    -0.033830161042    -0.000619280881    0.000011265527    -0.069280270471    -0.100279268248
0.325     -0.063216742212    0.081006459717    -0.000560183943    0.000337766693    -0.009400915930    0.025774972233    -0.000537152168    0.000296875573
            -0.000560183943    0.000337766693    -0.116807215752    -0.031127154638    -0.000570702065    0.000370580020    -0.022372873810    -0.002072562242
            -0.009400931913    0.025774946179    -0.000570702065    0.000370580020    -0.062755751311    0.073023841789    -0.000563791995    0.000388795804
            -0.000537152168    0.000296875573    -0.022372870461    -0.002072565871    -0.000563792055    0.000388795700    -0.109377541165    -0.033674964358
0.350     -0.010073263979    0.092105587656    -0.000278283076    0.000698920210    -0.010235558509    0.006554831805    -0.000295821025    0.000683404716
            -0.000278282954    0.000698920259    -0.089339485433    0.045392757646    -0.000288427104    0.000725209339    0.005276500572    0.011310327966
            -0.010235585949    0.006554824187    -0.000288427104    0.000725209339    -0.013249603051    0.083686426064    -0.000269698454    0.000735408733
            -0.000295821025    0.000683404716    0.005276501447    0.011310323144    -0.000269698454    0.000735408733    -0.082437163942    0.039348666115
0.375     0.025667170853    0.065312105358    0.000262580453    0.000801623343    -0.036131130030    0.004190803408    0.000272289778    0.000812361309
            0.000262580467    0.000801623339    -0.018196147673    0.062870794114    0.000260011411    0.000857589634    0.030292203375    -0.012645253261
            -0.036131151152    0.004190812249    0.000260011423    0.000857589620    0.018691223043    0.058974304747    0.000282624781    0.000851200935
            0.000272289789    0.000812361295    0.030292201830    -0.012645256962    0.000282624769    0.000851200949    -0.014177002501    0.053861696057
0.400     0.020246926985    0.032531727470    0.000776054385    0.000461021166    -0.060269626816    0.032513085045    0.000805355360    0.000430827799
            0.000776054376    0.000461021143    0.020590168903    0.013072845473    0.000842924969    0.000524586022    0.015497772814    -0.056776924722
            -0.060269632583    0.032513101736    0.000842924708    0.000524585267    0.011407451479    0.030242626355    0.000853889238    0.000502334730
            0.000805355351    0.000430827794    0.015497771096    -0.056776926227    0.000853889300    0.000502334666    0.020519476696    0.003284975235
0.425     -0.008117650640    0.035184576982    0.000897921416    -0.000151253204    -0.054689749739    0.080005081850    0.000873110040    -0.000210537238
            0.000897921362    -0.000151253229    -0.016179325039    -0.034814568401    0.001012283885    -0.000180885186    -0.044917043806    -0.069196504767
            -0.054689751996    0.080005085152    0.001012282485    -0.000180885063    -0.015977509658    0.037108418571    0.001003231587    -0.000202830086
            0.000873110030    -0.000210537236    -0.044917044350    -0.069196505606    0.001003231678    -0.000202830141    -0.019690774320    -0.042979799174
0.450     -0.011368549942    0.074357192473    0.000608263676    -0.000647425456    -0.013216308044    0.114335985888    0.000534933265    -0.000655935617
            0.000608263682    -0.000647425395    -0.080676627721    -0.012896553338    0.000639210545    -0.000766255448    -0.098497436946    -0.019227220848
            -0.013216306048    0.114335986119    0.000639210871    -0.000766254589    -0.016264830298    0.078514292204    0.000620323223    -0.000774544267
            0.000534933258    -0.000655935609    -0.098497436946    -0.019227220848    0.000620323208    -0.000774544304    -0.085752126115    -0.018534610504
0.475     0.033819450868    0.102125476388    0.000152901243    -0.000874469615    0.039868051201    0.108213039808    0.000106859307    -0.000821934988
            0.000152901243    -0.000874469615    -0.091498689792    0.062368050854    0.000080343104    -0.000944022782    -0.087910215779    0.056439522203
            0.039868045535    0.108213041896    0.000080343104    -0.000944022782    0.031517518482    0.106224502933    0.000062129628    -0.000940504446
            0.000106859309    -0.000821934998    -0.087910207364    0.056439516801    0.000062129628    -0.000940504446    -0.096604239326    0.058566877007
0.500     0.090435173690    0.075044097258    -0.000358862064    -0.000883440694    0.066914759081    0.069133206633    -0.000353791740    -0.000826657087
            -0.000358862218    -0.000883440631    -0.031474552777    0.111996422767    -0.000413170985    -0.000871036344    -0.022419776557    0.087663069429
            0.066914755830    0.069133215346    -0.000413171411    -0.000871036065    0.089180220372    0.078450821855    -0.000427860880    -0.000857199063
            -0.000353791740    -0.000826657087    -0.022419775814    0.087663066523    -0.000427860880    -0.000857199063    -0.036513666697    0.108968548714
0.525     0.096442610670    0.010209619139    -0.000921066725    -0.000593762206    0.048704931108    0.035227329237    -0.000894788427    -0.000558763293
            -0.000921066725    -0.000593762206    0.036586776035    0.085208983160    -0.000936073219    -0.000601295835    0.029594625183    0.043894510685
            0.048704935298    0.035227343920    -0.000936074460    -0.000601295940    0.095518309218    0.013845734477    -0.000938157888    -0.000577660910
            -0.000894788427    -0.000558763293    0.029594622181    0.043894507885    -0.000938157888    -0.000577660910    0.031025956222    0.082684681304
0.550     0.043158495984    -0.020124553952    -0.001250175245    0.000164532311    0.012625978568    0.047266592825    -0.001212938784    0.000187528768
            -0.001250175245    0.000164532311    0.036618861575    0.019084071784    -0.001323662405    0.000147790897    0.004178163786    -0.023174351014
            0.012625992956    0.047266600367    -0.001323662405    0.000147790897    0.043638201587    -0.015439037718    -0.001303706811    0.000167997947
            -0.001212938685    0.000187528752    0.004178160146    -0.023174351671    -0.001303706811    0.000167997947    0.030114613287    0.017660799450
0.575     0.003252368035    0.020690842904    -0.000837597049    0.001045846971    0.022659267009    0.100809274964    -0.000784631361    0.001049154829
            -0.000837597049    0.001045846971    -0.025129629645    0.002810639264    -0.000921343183    0.001140305579    -0.082106641479    -0.021437378251
            0.022659282844    0.100809271405    -0.000921343183    0.001140305579    0.006752134298    0.025223831493    -0.000892383637    0.001134793491
            -0.000784631361    0.001049154829    -0.082106643414    -0.021437378756    -0.000892383637    0.001134793491    -0.032147688758    0.003497204869
0.600     0.036660861363    0.069275396269    0.000089774080    0.001293385628    0.096991006689    0.121162607636    0.000143918207    0.001260474975
            0.000089774103    0.001293385626    -0.059746708685    0.059515327165    0.000145023802    0.001431530602    -0.128306256789    0.066346272140
            0.096991011013    0.121162591365    0.000145024357    0.001431530345    0.042824269939    0.071885654794    0.000154529311    0.001407327097
            0.000143918207    0.001260474975    -0.128306254092    0.066346299127    0.000154529188    0.001407327110    -0.067007742835    0.062012192199
0.625     0.101960375190    0.052046505711    0.000798951683    0.000889914992    0.168159330380    0.059727287785    0.000825728327    0.000819644022
            0.000798951698    0.000889914978    -0.024339512365    0.115775336464    0.000937850870    0.000904157228    -0.081327798018    0.157758903734
            0.168159333507    0.059727278980    0.000937850741    0.000904157073    0.109272531371    0.050940399812    0.000927349239    0.000888744068
            0.000825728327    0.000819644022    -0.081327798018    0.157758903734    0.000927349058    0.000888744112    -0.030663968584    0.120854327682
0.650     0.117987246995    -0.023919004392    0.001090533138    0.000291313365    0.163160541868    -0.043782201772    0.001060637220    0.000208397179
            0.001090533138    0.000291313365    0.038491178845    0.114871792604    0.001151795004    0.000205564594    0.013704498743    0.177288185320
            0.163160540340    -0.043782207467    0.001151795004    0.000205564594    0.124150496525    -0.028723975324    0.001142528048    0.000203330414
            0.001060637220    0.000208397179    0.013704498743    0.177288185320    0.001142528052    0.000203330394    0.034510419244    0.122249054230
0.675     0.052451612486    -0.077765854818    0.001117366377    -0.000307174875    0.074168410527    -0.100402189342    0.001029015589    -0.000350999987
            0.001117366377    -0.000307174875    0.065509928721    0.064589594664    0.001101346971    -0.000358200813    0.075949408393    0.118519703953
            0.074168407022    -0.100402191931    0.001101346977    -0.000358200794    0.055794154240    -0.084721874654    0.001095319750    -0.000362465090
            0.001029015589    -0.000350999987    0.075949408393    0.118519703953    0.001095319750    -0.000362465090    0.065127642241    0.072684190470
0.700     -0.024618765038    -0.037448953858    0.000875447430    -0.000971028440    -0.012980061083    -0.052670303314    0.000777275853    -0.000937649962
            0.000875447430    -0.000971028440    0.030653502155    0.024342765110    0.000881452468    -0.000992280624    0.055235293500    0.050329928397
            -0.012980061562    -0.052670305256    0.000881452468    -0.000992280624    -0.024097244597    -0.044876172085    0.000865135700    -0.000993366148
            0.000777275853    -0.000937649962    0.055235291004    0.050329929652    0.000865135682    -0.000993366163    0.033797827088    0.031086607448
0.725     -0.005845586856    0.047380805444    0.000085180212    -0.001500855566    0.009544700383    0.033277443669    0.000037556366    -0.001411026682
            0.000085179970    -0.001500855479    -0.019710448008    0.047148117035    0.000080080698    -0.001565816250    -0.011795847357    0.056609423021
            0.009544696376    0.033277440657    0.000080082404    -0.001565813159    -0.007548482352    0.040639725179    0.000063447788    -0.001546000701
            0.000037556366    -0.001411026682    -0.011795847765    0.056609424979    0.000063447703    -0.001546000604    -0.015023028103    0.050733085194
0.750     0.086279439445    0.045485038338    -0.001023516416    -0.001264837751    0.100472277783    0.030115441340    -0.000999467024    -0.001176695494
            -0.001023516416    -0.001264837751    -0.019088573214    0.106744332304    -0.001104034138    -0.001312257385    -0.031653258782    0.119426115685
            0.100472277783    0.030115441340    -0.001104034138    -0.001312257385    0.083070005220    0.039567468773    -0.001089580607    -0.001287684727
            -0.000999467024    -0.001176695494    -0.031653258782    0.119426115685    -0.001089580607    -0.001287684727    -0.015158852985    0.108105000569
0.775     0.115885175198    -0.055396061622    -0.001618295444    -0.000248229785    0.126417277889    -0.080052845983    -0.001556186162    -0.000197315312
            -0.001618295444    -0.000248229785    0.028954364552    0.138640798577    -0.001708505077    -0.000204620330    0.016683123418    0.179328497376
            0.126417269441    -0.080052840633    -0.001708504609    -0.000204620879    0.111615218969    -0.060307246288    -0.001680665635    -0.000208262700
