# GHz S RI R 45
0.000     0.057147808000    0.000000000000    0.000001863423    -0.000000000000    0.004664574200    0.000000000000    0.000002688672    -0.000000000000
            0.000001863387    -0.000000000000    0.056524505000    0.000000000000    0.000002568717    -0.000000000000    0.004048934800    0.000000000000
            0.004664574000    0.000000000000    0.000002568736    -0.000000000000    0.051175689000    0.000000000000    0.000003537487    0.000000000000
            0.000002688637    -0.000000000000    0.004048916500    0.000000000000    0.000003537503    0.000000000000    0.050696481000    0.000000000000
0.025     0.098199775542    0.039770327616    0.000001891955    -0.000000896338    0.032485067222    0.038773615731    0.000002933671    0.000000048651
            0.000001891953    -0.000000896336    0.099418912875    0.038981930159    0.000003518078    -0.000000930650    0.031845616131    0.038302086586
            0.032485066545    0.038773616298    0.000003518078    -0.000000930656    0.091771767667    0.040441554103    0.000004350469    -0.000000296771
            0.000002933673    0.000000048649    0.031845613022    0.038302078767    0.000004350468    -0.000000296773    0.093057945376    0.039960181062
0.050     0.155044802605    0.014201224296    0.000000613787    -0.000002188658    0.080503984618    0.027185717422    0.000002273990    -0.000000708659
            0.000000613787    -0.000002188658    0.156391269016    0.010378624071    0.000002471314    -0.000004180304    0.079499317139    0.026019028649
            0.080503984618    0.027185717422    0.000002471314    -0.000004180304    0.147960664224    0.016314636901    0.000004167034    -0.000002702317
            0.000002273990    -0.000000708659    0.079499306273    0.026019029701    0.000004167034    -0.000002702317    0.149708040907    0.012859928280
0.075     0.171634154718    -0.054361390055    -0.000002106636    -0.000001787116    0.092272025511    -0.021177687775    -0.000000237627    -0.000000652919
            -0.000002106636    -0.000001787116    0.170020520628    -0.061820165688    -0.000002566493    -0.000004953815    0.090444795611    -0.022853446087
            0.092272025511    -0.021177687775    -0.000002566493    -0.000004953815    0.164601727548    -0.049744702042    0.000000314197    -0.000004278250
            -0.000000237627    -0.000000652919    0.090444788480    -0.022853437568    0.000000314197    -0.000004278250    0.163609175403    -0.057028778888
0.100     0.135131031747    -0.116927008991    -0.000003798495    0.000001285452    0.059178570145    -0.055316886919    -0.000003212611    0.000002189832
            -0.000003798496    0.000001285452    0.127029124562    -0.125562995998    -0.000006330420    0.000000368249    0.055989770543    -0.057132511544
            0.059178570145    -0.055316886919    -0.000006330420    0.000000368249    0.129635430692    -0.109570671337    -0.000004543577    -0.000000734019
            -0.000003212611    0.000002189832    0.055989769929    -0.057132500944    -0.000004543577    -0.000000734019    0.122164927383    -0.118225436085
0.125     0.071069650527    -0.138659440684    -0.000001896348    0.000004751255    0.017631026943    -0.045233155929    -0.000003411457    0.000007760156
            -0.000001896347    0.000004751256    0.056054944935    -0.142766242633    -0.000002503408    0.000007232773    0.013020106200    -0.046197716061
            0.017631026943    -0.045233155929    -0.000002503408    0.000007232773    0.068635478336    -0.129516038865    -0.000004190779    0.000007447212
            -0.000003411457    0.000007760156    0.013020111294    -0.046197709430    -0.000004190779    0.000007447212    0.054237687223    -0.133673700758
0.150     0.016888240773    -0.119043088740    0.000002082255    0.000004312577    0.008659739304    -0.010449009407    0.000001329474    0.000011993561
            0.000002082252    0.000004312576    0.000304831128    -0.114109562839    0.000006366868    0.000006405059    0.003731858744    -0.009890195811
            0.008659739121    -0.010449009559    0.000006366872    0.000006405058    0.018075557952    -0.109916488992    0.000004698189    0.000012608302
            0.000001329474    0.000011993561    0.003731864441    -0.009890193662    0.000004698189    0.000012608302    0.002297951429    -0.105043197725
0.175     -0.005547651227    -0.079455875487    0.000002611220    0.000000090241    0.038384381447    0.004316910970    0.000007550041    0.000010363225
            0.000002611221    0.000000090240    -0.016026575817    -0.068361747454    0.000009236674    -0.000002380832    0.035164315483    0.006072068456
            0.038384381439    0.004316911037    0.000009236673    -0.000002380831    -0.001560499947    -0.072036447705    0.000015231688    0.000007669947
            0.000007550041    0.000010363225    0.035164317465    0.006072068735    0.000015231688    0.000007669947    -0.010906836972    -0.061304813003
0.200     0.005325411712    -0.046024830694    -0.000002114209    -0.000001864642    0.062051730760    -0.004129866682    0.000009049035    0.000003947371
            -0.000002114209    -0.000001864642    0.001862335847    -0.037841052571    0.000002760805    -0.000008206743    0.057026267850    -0.005596887004
            0.062051730768    -0.004129866573    0.000002760805    -0.000008206743    0.010652374980    -0.040949197017    0.000017919998    -0.000004527566
            0.000009049035    0.000003947372    0.057026268836    -0.005596887201    0.000017919998    -0.000004527565    0.008379403767    -0.033810980756
0.225     0.034933398644    -0.043166133485    -0.000006406726    0.000001804979    0.067552280964    -0.036363794039    0.000003504316    -0.000001066969
            -0.000006406727    0.000001804979    0.029028288260    -0.042856258355    -0.000003780202    -0.000005256434    0.057417077755    -0.038440047851
            0.067552280964    -0.036363794039    -0.000003780200    -0.000005256434    0.040536028878    -0.039821617231    0.000009933818    -0.000014596777
            0.000003504316    -0.000001066969    0.057417078266    -0.038440045290    0.000009933818    -0.000014596777    0.035274037849    -0.041284697124
0.250     0.052539470732    -0.078116131582    -0.000005979347    0.000007084303    0.047608904795    -0.064541289022    -0.000005332865    0.000000787941
            -0.000005979346    0.000007084304    0.034328589120    -0.078586719108    -0.000003626889    -0.000000418447    0.031532357143    -0.061128631640
            0.047608904795    -0.064541289022    -0.000003626890    -0.000000418449    0.057894404038    -0.075710845324    -0.000003180624    -0.000015149638
            -0.000005332865    0.000000787941    0.031532359885    -0.061128629100    -0.000003180624    -0.000015149638    0.039530056700    -0.078083086244
0.275     0.021704951324    -0.125968170554    -0.000002961927    0.000009452953    0.012636677205    -0.071998077890    -0.000010459390    0.000010169594
            -0.000002961925    0.000009452954    -0.006615452634    -0.112352495539    -0.000001540665    -0.000000047914    -0.002975849492    -0.058384510898
            0.012636677205    -0.071998077890    -0.000001540666    -0.000000047914    0.027615736183    -0.124011706579    -0.000012223797    -0.000004824555
            -0.000010459390    0.000010169594    -0.002975844295    -0.058384509160    -0.000012223797    -0.000004824555    -0.001457895311    -0.111953097772
0.300     -0.052865618629    -0.134066091328    -0.000001096873    0.000009845340    -0.019387618204    -0.054114243954    -0.000006303184    0.000021494976
            -0.000001096873    0.000009845340    -0.075574765818    -0.100039703054    -0.000002967237    -0.000000240229    -0.025894390562    -0.033830163425
            -0.019387618541    -0.054114244895    -0.000002967237    -0.000000240229    -0.045730289392    -0.133076388641    -0.000008968546    0.000009385366
            -0.000006303184    0.000021494976    -0.025894388738    -0.033830161042    -0.000008968546    0.000009385366    -0.069280270471    -0.100279268248
0.325     -0.114707942281    -0.074125735521    0.000000330977    0.000010549609    -0.026498420346    -0.017746601546    0.000006335885    0.000025336631
            0.000000330977    0.000010549609    -0.116807215752    -0.031127154638    -0.000003226449    0.000004042906    -0.022372873810    -0.002072562242
            -0.026498420346    -0.017746601546    -0.000003226449    0.000004042906    -0.106420162559    -0.075269143450    0.000006683624    0.000015192224
            0.000006335885    0.000025336631    -0.022372870461    -0.002072565871    0.000006683624    0.000015192224    -0.109377541165    -0.033674964358
0.350     -0.105218751554    0.012666986401    0.000002530850    0.000010208730    0.001474462094    0.007893003831    0.000016680414    0.000015507037
            0.000002530850    0.000010208730    -0.089339485433    0.045392757646    0.000003623775    0.000006590223    0.005276500572    0.011310327966
            0.001474461975    0.007893003955    0.000003623775    0.000006590223    -0.096848789479    0.008429688403    0.000022151126    0.000002334253
            0.000016680414    0.000015507037    0.005276501447    0.011310323144    0.000022151126    0.000002334253    -0.082437163942    0.039348666115
0.375     -0.033745889409    0.046630470528    0.000002514166    0.000007580006    0.041259502849    -0.011552735770    0.000011317186    0.000000462115
            0.000002514166    0.000007580006    -0.018196147673    0.062870794114    0.000010518639    -0.000001508280    0.030292203375    -0.012645253261
            0.041259502849    -0.011552735770    0.000010518639    -0.000001508280    -0.027067679557    0.039243824645    0.000018620088    -0.000021540131
            0.000011317186    0.000000462115    0.030292201830    -0.012645256962    0.000018620088    -0.000021540131    -0.014177002501    0.053861696057
0.400     0.017501678981    0.000123540821    -0.000001313309    0.000008256741    0.040092280038    -0.070001976378    -0.000006969333    -0.000000956277
            -0.000001313310    0.000008256740    0.020590168903    0.013072845473    0.000003985707    -0.000014199262    0.015497772814    -0.056776924722
            0.040092280038    -0.070001976378    0.000003985709    -0.000014199261    0.021090433967    -0.009056683784    -0.000007061672    -0.000033043402
            -0.000006969333    -0.000000956277    0.015497771096    -0.056776926227    -0.000007061672    -0.000033043401    0.020519476696    0.003284975235
0.425     -0.013889894815    -0.060168870766    -0.000003248981    0.000014144123    -0.025604084603    -0.105921389305    -0.000017921919    0.000015755973
            -0.000003248982    0.000014144126    -0.016179325039    -0.034814568401    -0.000014084638    -0.000013610991    -0.044917043806    -0.069196504767
            -0.025604084603    -0.105921389305    -0.000014084636    -0.000013610993    -0.013496372066    -0.069190944223    -0.000032843294    -0.000016908431
            -0.000017921920    0.000015755973    -0.044917044350    -0.069196505606    -0.000032843294    -0.000016908431    -0.019690774320    -0.042979799174
0.450     -0.089484375943    -0.050864923751    0.000001366955    0.000021403486    -0.103379052526    -0.067322096487    -0.000010202737    0.000034461509
            0.000001366956    0.000021403486    -0.080676627721    -0.012896553338    -0.000023514254    0.000006207040    -0.098497436946    -0.019227220848
            -0.103379052526    -0.067322096487    -0.000023514256    0.000006207040    -0.091121114291    -0.058618917257    -0.000034654012    0.000014062095
            -0.000010202737    0.000034461509    -0.098497436946    -0.019227220848    -0.000034654012    0.000014062095    -0.085752126115    -0.018534610504
0.475     -0.119906695949    0.027034060100    0.000011894845    0.000023482544    -0.116976658918    0.021394977819    0.000008763771    0.000039450583
            0.000011894845    0.000023482544    -0.091498689792    0.062368050854    -0.000008369528    0.000026767726    -0.087910215779    0.056439522203
            -0.116976658918    0.021394977819    -0.000008369528    0.000026767726    -0.122318086431    0.020370391726    -0.000010309171    0.000032961167
            0.000008763771    0.000039450583    -0.087910207364    0.056439516801    -0.000010309171    0.000032961167    -0.096604239326    0.058566877007
0.500     -0.069866134075    0.094237638223    0.000022140031    0.000015611486    -0.053920849081    0.079113654613    0.000023595860    0.000027200847
            0.000022140031    0.000015611486    -0.031474552777    0.111996422767    0.000020320697    0.000022501523    -0.022419776557    0.087663069429
            -0.053920849081    0.079113654613    0.000020320697    0.000022501522    -0.072811567542    0.087895965354    0.000018526015    0.000022424801
            0.000023595861    0.000027200848    -0.022419775814    0.087663066523    0.000018526015    0.000022424801    -0.036513666697    0.108968548714
0.525     0.006003902444    0.083784081952    0.000020534022    0.000000758895    0.020836840423    0.049323410950    0.000020008212    0.000007328615
            0.000020534023    0.000000758895    0.036586776035    0.085208983160    0.000029788005    -0.000008864529    0.029594625183    0.043894510685
            0.020836840423    0.049323410950    0.000029788004    -0.000008864529    0.001835499120    0.077396796224    0.000023288624    -0.000010021227
            0.000020008212    0.000007328615    0.029594622181    0.043894507885    0.000023288624    -0.000010021227    0.031025956222    0.082684681304
0.550     0.020576926691    0.018273701296    0.000004534200    -0.000002834786    0.018448619682    -0.032973040958    -0.000001620437    0.000002953431
            0.000004534200    -0.000002834786    0.036618861575    0.019084071784    0.000001479297    -0.000030889520    0.004178163786    -0.023174351014
            0.018448619682    -0.032973040958    0.000001479296    -0.000030889520    0.014672080314    0.012518227012    -0.000007550681    -0.000029256915
            -0.000001620437    0.000002953431    0.004178160146    -0.023174351671    -0.000007550681    -0.000029256915    0.030114613287    0.017660799450
0.575     -0.037252919007    -0.008163297721    -0.000002897364    0.000013442544    -0.070402580752    -0.063573203981    -0.000013163661    0.000022476042
            -0.000002897364    0.000013442544    -0.025129629645    0.002810639264    -0.000029166637    -0.000010677774    -0.082106641479    -0.021437378251
            -0.070402580752    -0.063573203981    -0.000029166637    -0.000010677774    -0.044841617080    -0.012287486366    -0.000038672811    -0.000008513178
            -0.000013163661    0.000022476042    -0.082106643414    -0.021437378756    -0.000038672811    -0.000008513178    -0.032147688758    0.003497204869
0.600     -0.081719500867    0.041688912966    0.000013051844    0.000023926166    -0.148256197689    0.005659745680    -0.000001755810    0.000038677398
            0.000013051843    0.000023926167    -0.059746708685    0.059515327165    -0.000021794436    0.000023361140    -0.128306256789    0.066346272140
            -0.148256197689    0.005659745680    -0.000021794435    0.000023361139    -0.090022040841    0.039990720566    -0.000036761181    0.000026044688
            -0.000001755810    0.000038677398    -0.128306254092    0.066346299127    -0.000036761181    0.000026044688    -0.067007742835    0.062012192199
0.625     -0.056516660480    0.104595092033    0.000028523933    0.000015689778    -0.137567188367    0.110663677058    0.000013170783    0.000039008324
            0.000028523934    0.000015689778    -0.024339512365    0.115775336464    0.000009214422    0.000031765460    -0.081327798018    0.157758903734
            -0.137567188367    0.110663677058    0.000009214422    0.000031765460    -0.064595013877    0.105220223150    -0.000012660780    0.000043708532
            0.000013170783    0.000039008324    -0.081327798018    0.157758903734    -0.000012660781    0.000043708533    -0.030663968584    0.120854327682
0.650     0.005039737447    0.116112239042    0.000032375342    -0.000000761063    -0.057083711239    0.165570948999    0.000022615969    0.000031701078
            0.000032375342    -0.000000761063    0.038491178845    0.114871792604    0.000031852415    0.000010996913    0.013704498743    0.177288185320
            -0.057083711239    0.165570948999    0.000031852415    0.000010996913    -0.002182686599    0.118776916783    0.000014305830    0.000039970956
            0.000022615969    0.000031701077    0.013704498743    0.177288185320    0.000014305830    0.000039970956    0.034510419244    0.122249054230
0.675     0.040195756441    0.075597585798    0.000023350065    -0.000015993783    0.021288950176    0.139563837564    0.000025910637    0.000019482770
            0.000023350065    -0.000015993783    0.065509928721    0.064589594664    0.000026786849    -0.000019465739    0.075949408393    0.118519703953
            0.021288950176    0.139563837564    0.000026786848    -0.000019465739    0.034193414518    0.080109375339    0.000029906375    0.000017222090
            0.000025910637    0.000019482770    0.075949408393    0.118519703953    0.000029906375    0.000017222090    0.065127642241    0.072684190470
0.700     0.019439331472    0.036763727567    0.000003925062    -0.000018993126    0.034465161146    0.078340191212    0.000016747168    0.000007039452
            0.000003925062    -0.000018993126    0.030653502155    0.024342765110    -0.000003139329    -0.000029908429    0.055235293500    0.050329928397
            0.034465161146    0.078340191212    -0.000003139329    -0.000029908429    0.015706334549    0.042194043201    0.000019036876    -0.000008877343
            0.000016747168    0.000007039452    0.055235291004    0.050329929652    0.000019036876    -0.000008877343    0.033797827088    0.031086607448
0.725     -0.020424393606    0.046410648141    -0.000007333271    -0.000002352735    -0.009806147473    0.054940366599    -0.000000045765    0.000009545962
            -0.000007333269    -0.000002352734    -0.019710448008    0.047148117035    -0.000023203180    -0.000006328602    -0.011795847357    0.056609423021
            -0.009806147473    0.054940366599    -0.000023203184    -0.000006328599    -0.022107812752    0.051957716533    -0.000008610146    -0.000010623122
            -0.000000045765    0.000009545962    -0.011795847765    0.056609424979    -0.000008610146    -0.000010623122    -0.015023028103    0.050733085194
0.750     -0.026579543592    0.087916286554    0.000004337202    0.000011222372    -0.045741997674    0.086396887244    -0.000005534424    0.000024238385
            0.000004337202    0.000011222372    -0.019088573214    0.106744332304    -0.000007691112    0.000016285466    -0.031653258782    0.119426115685
            -0.045741997674    0.086396887244    -0.000007691112    0.000016285466    -0.026840699442    0.092659555903    -0.000021474549    0.000011436741
            -0.000005534424    0.000024238385    -0.031653258782    0.119426115685    -0.000021474549    0.000011436741    -0.015158852985    0.108105000569
0.775     0.000478116750    0.114489541679    0.000018405110    0.000001742445    -0.040788805443    0.141397358850    0.000002080099    0.000035514471
            0.000018405111    0.000001742444    0.028954364552    0.138640798577    0.000013816738    0.000008047151    0.016683123418    0.179328497376
            -0.040788805443    0.141397358850    0.000013816738    0.000008047152    0.000953150239    0.118796066301    -0.000012333165    0.000032731104
            0.000002080099    0.000035514471    0.016683123418    0.179328497376    -0.000012333165    0.000032731104    0.031748089619    0.139805402221
