# GHz S RI R 45
0.000     0.052108071000    0.000000000000    -0.000181650520    0.000000000000    0.003897769200    0.000000000000    -0.000041621569    0.000000000000
            -0.000181650740    -0.000000000000    0.056524505000    0.000000000000    -0.000376175580    0.000000000000    0.004048934800    0.000000000000
            0.003898038200    0.000000000000    -0.000376173850    0.000000000000    0.054489387000    -0.000000000000    -0.000439654310    0.000000000000
            -0.000041621424    -0.000000000000    0.004048916500    0.000000000000    -0.000439654150    0.000000000000    0.050696481000    0.000000000000
0.025     0.097571907280    0.037359841896    -0.000428296271    -0.000175099173    0.032853280879    0.035926415483    -0.000295128871    -0.000219593986
            -0.000428296090    -0.000175099273    0.099418912875    0.038981930159    -0.000685178996    -0.000116215963    0.031845616131    0.038302086586
            0.032853322784    0.035926409685    -0.000685178787    -0.000116216419    0.100187981102    0.037101877800    -0.000682122254    -0.000039595028
            -0.000295128448    -0.000219596312    0.031845613022    0.038302078767    -0.000682122463    -0.000039595399    0.093057945376    0.039960181062
0.050     0.156809578193    -0.002644763013    -0.000740514990    0.000107078869    0.080694038253    0.017427677264    -0.000607632027    0.000027316430
            -0.000740514909    0.000107078593    0.156391269016    0.010378624071    -0.000953229825    0.000368659563    0.079499317139    0.026019028649
            0.080694073271    0.017427628812    -0.000953230233    0.000368659338    0.159885254536    -0.003749345710    -0.000892628868    0.000386636299
            -0.000607633724    0.000027315656    0.079499306273    0.026019029701    -0.000892629437    0.000386636545    0.149708040907    0.012859928280
0.075     0.158193072855    -0.088407543847    -0.000733607050    0.000551284822    0.085678700020    -0.037970378984    -0.000619474897    0.000423135031
            -0.000733607227    0.000551284554    0.170020520628    -0.061820165688    -0.000713950794    0.000893511778    0.090444795611    -0.022853446087
            0.085678688459    -0.037970434689    -0.000713951199    0.000893511966    0.161002005571    -0.091019257842    -0.000688324397    0.000899238877
            -0.000619476128    0.000423136031    0.090444788480    -0.022853437568    -0.000688324665    0.000899239553    0.163609175403    -0.057028778888
0.100     0.091728557565    -0.150029490560    -0.000578745971    0.001001122519    0.041043635207    -0.071997501475    -0.000464832243    0.000811483890
            -0.000578746420    0.001001122490    0.127029124562    -0.125562995998    -0.000383461318    0.001216445985    0.055989770543    -0.057132511544
            0.041043597738    -0.071997526288    -0.000383461408    0.001216446271    0.093175494060    -0.153869214963    -0.000301500733    0.001268208455
            -0.000464832087    0.000811485259    0.055989769929    -0.057132500944    -0.000301500383    0.001268208949    0.122164927383    -0.118225436085
0.125     0.007639319549    -0.144400697366    -0.000070536858    0.001648445757    -0.006895901791    -0.052729129638    -0.000022359743    0.001286682233
            -0.000070537072    0.001648446048    0.056054944935    -0.142766242633    0.000124831587    0.001729727004    0.013020106200    -0.046197716061
            -0.006895931240    -0.052729125786    0.000124831850    0.001729727285    0.007194611205    -0.148295187593    0.000338252422    0.001659883582
            -0.000022358629    0.001286682752    0.013020111294    -0.046197709430    0.000338253166    0.001659883533    0.054237687223    -0.133673700758
0.150     -0.035264875411    -0.092529363223    0.001286501793    0.001908831063    -0.010347737059    -0.010017640334    0.001006657368    0.001430165848
            0.001286501838    0.001908831274    0.000304831128    -0.114109562839    0.001469165661    0.001984312718    0.003731858744    -0.009890195811
            -0.010347747549    -0.010017629498    0.001469165988    0.001984312725    -0.036982300800    -0.095360379222    0.001582110966    0.001639084773
            0.001006658414    0.001430165478    0.003731864441    -0.009890193662    0.001582111314    0.001639084159    0.002297951429    -0.105043197725
0.175     -0.026594489404    -0.049420644669    0.002823701240    0.000721069677    0.024047259442    0.001417865447    0.002119739813    0.000527387349
            0.002823701421    0.000721069776    -0.016026575817    -0.068361747454    0.003133342686    0.000763236086    0.035164315483    0.006072068456
            0.024047256452    0.001417865187    0.003133342753    0.000763235813    -0.028360479047    -0.051137723294    0.002848738207    0.000371976176
            0.002119740149    0.000527386411    0.035164317465    0.006072068735    0.002848738082    0.000371975588    -0.010906836972    -0.061304813003
0.200     -0.004566255910    -0.044969416596    0.002935186153    -0.001580762687    0.043930492757    -0.028633826631    0.002204347848    -0.001158825475
            0.002935186269    -0.001580762683    0.001862335847    -0.037841052571    0.003355378163    -0.001796635126    0.057026267850    -0.005596887004
            0.043930483570    -0.028633831569    0.003355378037    -0.001796635360    -0.005904121066    -0.046470822951    0.002790762045    -0.001806783537
            0.002204347423    -0.001158826283    0.057026268836    -0.005596887201    0.002790761593    -0.001806783867    0.008379403767    -0.033810980756
0.225     -0.006454735284    -0.064648071141    0.001233875034    -0.003282424841    0.019694085630    -0.064528463628    0.000989387898    -0.002443853506
            0.001233875127    -0.003282424913    0.029028288260    -0.042856258355    0.001440401412    -0.003864475014    0.057417077755    -0.038440047851
            0.019694070072    -0.064528461058    0.001440401209    -0.003864475089    -0.008105168888    -0.066690815576    0.001066168697    -0.003413383183
            0.000989387130    -0.002443853816    0.057417078266    -0.038440045290    0.001066168190    -0.003413383237    0.035274037849    -0.041284697124
0.250     -0.035561268681    -0.077069602816    -0.001058189787    -0.003355144604    -0.027660632216    -0.065031689644    -0.000720216866    -0.002585833440
            -0.001058189817    -0.003355144699    0.034328589120    -0.078586719108    -0.001381930173    -0.003983004686    0.031532357143    -0.061128631640
            -0.027660641217    -0.065031679295    -0.001381930173    -0.003983004686    -0.038573452755    -0.079176679972    -0.001289179958    -0.003448400516
            -0.000720217742    -0.002585833093    0.031532359885    -0.061128629100    -0.001289180525    -0.003448400198    0.039530056700    -0.078083086244
0.275     -0.076867213855    -0.062252306796    -0.002727758116    -0.002172938562    -0.057179233744    -0.030000064946    -0.002066869696    -0.001751262640
            -0.002727757815    -0.002172939100    -0.006615452634    -0.112352495539    -0.003390546599    -0.002348418349    -0.002975849492    -0.058384510898
            -0.057179239788    -0.030000042663    -0.003390547009    -0.002348417757    -0.081367992481    -0.062970557994    -0.003048693144    -0.002104578981
            -0.002066870155    -0.001751261789    -0.002975844295    -0.058384509160    -0.003048693347    -0.002104578336    -0.001457895311    -0.111953097772
0.300     -0.106528595188    -0.018355154043    -0.003541720221    -0.000490897342    -0.053328268025    0.008169011544    -0.002776674309    -0.000432445090
            -0.003541720419    -0.000490897369    -0.075574765818    -0.100039703054    -0.004008087353    -0.000227418139    -0.025894390562    -0.033830163425
            -0.053328264623    0.008169020549    -0.004008087353    -0.000227418139    -0.111272001687    -0.016624212445    -0.003764427802    -0.000188944919
            -0.002776674088    -0.000432444559    -0.025894388738    -0.033830161042    -0.003764427535    -0.000188944247    -0.069280270471    -0.100279268248
0.325     -0.103343532384    0.040331319375    -0.003699696103    0.001472381392    -0.030882410863    0.024661542394    -0.002903121398    0.001149127579
            -0.003699696289    0.001472381466    -0.116807215752    -0.031127154638    -0.003901063902    0.001705499813    -0.022372873810    -0.002072562242
            -0.030882410863    0.024661542394    -0.003901063811    0.001705499773    -0.106572702965    0.044203580252    -0.003664746040    0.001837130163
            -0.002903120826    0.001149127938    -0.022372870461    -0.002072565871    -0.003664745362    0.001837130623    -0.109377541165    -0.033674964358
0.350     -0.062632615184    0.084353341027    -0.002801453185    0.003793065355    -0.015041410014    0.019415824559    -0.002156309141    0.002981999610
            -0.002801453304    0.003793065516    -0.089339485433    0.045392757646    -0.003175664310    0.004014558627    0.005276500572    0.011310327966
            -0.015041408462    0.019415829555    -0.003175664248    0.004014558549    -0.063452704291    0.088887790437    -0.002582021549    0.004072661081
            -0.002156308328    0.002981999581    0.005276501447    0.011310323144    -0.002582021335    0.004072660743    -0.082437163942    0.039348666115
0.375     -0.008144060929    0.085957308734    0.000054073795    0.005722919244    -0.022162974579    0.011121638404    0.000112673831    0.004427037385
            0.000054073896    0.005722919343    -0.018196147673    0.062870794114    -0.000322546165    0.006526099896    0.030292203375    -0.012645253261
            -0.022162973531    0.011121642720    -0.000322546046    0.006526099802    -0.007042600877    0.089583376222    0.000411995085    0.005875614068
            0.000112674128    0.004427036877    0.030292201830    -0.012645256962    0.000411995262    0.005875613655    -0.014177002501    0.053861696057
0.400     0.017368564601    0.050411146605    0.004495366819    0.004991717389    -0.039077703503    0.005976999753    0.003518871685    0.003756847891
            0.004495366886    0.004991717463    0.020590168903    0.013072845473    0.005054124400    0.006201809762    0.015497772814    -0.056776924722
            -0.039077698505    0.005977005968    0.005054124445    0.006201809596    0.019060622606    0.052594560884    0.004961672621    0.004875456987
            0.003518871474    0.003756847404    0.015497771096    -0.056776926227    0.004961672505    0.004875456534    0.020519476696    0.003284975235
0.425     -0.005131680874    0.024343737499    0.007236912453    0.000478623405    -0.062603639367    0.031046992139    0.005485102368    0.000261645216
            0.007236912553    0.000478623399    -0.016179325039    -0.034814568401    0.008825083802    0.000809014791    -0.044917043806    -0.069196504767
            -0.062603626782    0.031046999511    0.008825083712    0.000809014674    -0.003898931337    0.025851886545    0.007515600681    0.000006956304
            0.005485101982    0.000261644919    -0.044917044350    -0.069196505606    0.007515600381    0.000006956087    -0.019690774320    -0.042979799174
0.450     -0.039226364819    0.048586292981    0.005430299191    -0.004560217533    -0.061975872745    0.079374346067    0.004032684580    -0.003443713287
            0.005430299267    -0.004560217597    -0.080676627721    -0.012896553338    0.006688008667    -0.005670702249    -0.098497436946    -0.019227220848
            -0.061975872745    0.079374346067    0.006688008667    -0.005670702249    -0.038401436876    0.050550809773    0.005279824145    -0.005068728630
            0.004032684095    -0.003443713238    -0.098497436946    -0.019227220848    0.005279823823    -0.005068728675    -0.085752126115    -0.018534610504
0.475     -0.026053761022    0.105970827892    0.001221288081    -0.006217814615    -0.020539216632    0.119212601599    0.000977841805    -0.004631250134
            0.001221288208    -0.006217814692    -0.091498689792    0.062368050854    0.001186688106    -0.007702621181    -0.087910215779    0.056439522203
            -0.020539208692    0.119212592819    0.001186688106    -0.007702621181    -0.024284159228    0.108959941328    0.000858631826    -0.006468959940
            0.000977841501    -0.004631249891    -0.087910207364    0.056439516801    0.000858631574    -0.006468959772    -0.096604239326    0.058566877007
0.500     0.042738515383    0.132730139271    -0.001816909531    -0.005319670739    0.039787633423    0.117791451254    -0.001257079483    -0.004134679130
            -0.001816909563    -0.005319670833    -0.031474552777    0.111996422767    -0.002593620698    -0.006165397769    -0.022419776557    0.087663069429
            0.039787639590    0.117791449171    -0.002593620698    -0.006165397769    0.046843438424    0.135740246291    -0.002204006257    -0.005425552585
            -0.001257080088    -0.004134678528    -0.022419775814    0.087663066523    -0.002204006145    -0.005425552307    -0.036513666697    0.108968548714
0.525     0.111588200793    0.089484680558    -0.004005532354    -0.004407742022    0.075068231317    0.073296088249    -0.003177994164    -0.003540335939
            -0.004005532422    -0.004407742096    0.036586776035    0.085208983160    -0.004823926390    -0.004779569072    0.029594625183    0.043894510685
            0.075068235154    0.073296084318    -0.004823926390    -0.004779569072    0.118129265586    0.090317626609    -0.004586243930    -0.004335555067
            -0.003177993897    -0.003540335641    0.029594622181    0.043894507885    -0.004586243712    -0.004335554861    0.031025956222    0.082684681304
0.550     0.114502415439    0.008843137748    -0.007313241661    -0.002347818053    0.057375128110    0.025970325499    -0.005884541977    -0.001632159085
            -0.007313241756    -0.002347818083    0.036618861575    0.019084071784    -0.008384710832    -0.002438848350    0.004178163786    -0.023174351014
            0.057375131740    0.025970319903    -0.008384710832    -0.002438848350    0.121578768989    0.005652123919    -0.007882569280    -0.001590187925
            -0.005884541592    -0.001632158978    0.004178160146    -0.023174351671    -0.007882568888    -0.001590187846    0.030114613287    0.017660799450
0.575     0.050632689296    -0.025429933187    -0.008865600411    0.003985203215    0.011483447892    0.033093387023    -0.006596952244    0.003525644099
            -0.008865600502    0.003985203256    -0.025129629645    0.002810639264    -0.010044796973    0.004750438271    -0.082106641479    -0.021437378251
            0.011483451700    0.033093379350    -0.010044796973    0.004750438271    0.054950203385    -0.032338344092    -0.008386673411    0.005174505586
            -0.006596951891    0.003525643910    -0.082106643414    -0.021437378756    -0.008386673156    0.005174505429    -0.032147688758    0.003497204869
0.600     0.006330131856    0.021829960850    -0.003431480506    0.010266182526    0.003673958160    0.095447963651    -0.001944172767    0.007726844427
            -0.003431480506    0.010266182526    -0.059746708685    0.059515327165    -0.003718848322    0.011810778646    -0.128306256789    0.066346272140
            0.003673956148    0.095447954722    -0.003718848322    0.011810778646    0.006024602485    0.014329110099    -0.001984601156    0.010360196243
            -0.001944172693    0.007726844136    -0.128306254092    0.066346299127    -0.001984601156    0.010360196243    -0.067007742835    0.062012192199
0.625     0.046070948945    0.075597694333    0.004996656078    0.009278520588    0.079184073865    0.134011912440    0.003859708249    0.006307453384
            0.004996656078    0.009278520588    -0.024339512365    0.115775336464    0.005866348285    0.010484493534    -0.081327798018    0.157758903734
            0.079184068778    0.134011903831    0.005866348285    0.010484493534    0.042863924270    0.070897343708    0.005646196134    0.008052052432
            0.003859708203    0.006307453061    -0.081327798018    0.157758903734    0.005646196160    0.008052052170    -0.030663968584    0.120854327682
0.650     0.121289261984    0.054766495311    0.008868873880    0.002963532160    0.167726503853    0.084035060075    0.006026616238    0.002013370321
            0.008868873975    0.002963532191    0.038491178845    0.114871792604    0.010063303527    0.003236306506    0.013704498743    0.177288185320
            0.167726496379    0.084035052668    0.010063302575    0.003236306199    0.118691495228    0.053196845090    0.008128678738    0.002059516890
            0.006026616083    0.002013370152    0.013704498743    0.177288185320    0.008128678580    0.002059516699    0.034510419244    0.122249054230
0.675     0.144552000610    -0.031593843542    0.007340291930    -0.002395642681    0.183460318710    -0.025051426360    0.005209141917    -0.001245588532
            0.007340291972    -0.002395642553    0.065509928721    0.064589594664    0.008252456649    -0.002642758390    0.075949408393    0.118519703953
            0.183460308365    -0.025051428209    0.008252456649    -0.002642758390    0.144454643039    -0.032932234954    0.006570087302    -0.002093182709
            0.005209141604    -0.001245588553    0.075949408393    0.118519703953    0.006570087075    -0.002093182763    0.065127642241    0.072684190470
0.700     0.080484475746    -0.104676286811    0.004764225764    -0.004444044087    0.106097085892    -0.106267405159    0.004053882532    -0.002993766690
            0.004764225837    -0.004444044155    0.030653502155    0.024342765110    0.005600697115    -0.004914605751    0.055235293500    0.050329928397
            0.106097075117    -0.106267401786    0.005600697115    -0.004914605751    0.081234586702    -0.108923804257    0.004962787373    -0.004040804327
            0.004053882239    -0.002993766583    0.055235291004    0.050329929652    0.004962787148    -0.004040804288    0.033797827088    0.031086607448
0.725     -0.015162225160    -0.085833487578    0.003460710223    -0.006526246394    0.001454906911    -0.084189753610    0.002890687308    -0.005352482741
            0.003460710223    -0.006526246394    -0.019710448008    0.047148117035    0.004139289632    -0.007600613860    -0.011795847357    0.056609423021
            0.001454899530    -0.084189751737    0.004139289452    -0.007600613844    -0.018037611691    -0.092993020643    0.003478082475    -0.006981941153
            0.002890687307    -0.005352482515    -0.011795847765    0.056609424979    0.003478082463    -0.006981940824    -0.015023028103    0.050733085194
0.750     -0.033018896925    0.003567531957    -0.000910044674    -0.009874671741    -0.015513087416    0.010926435928    -0.001234079227    -0.007611489121
            -0.000910044683    -0.009874671840    -0.019088573214    0.106744332304    -0.001143027870    -0.011401042311    -0.031653258782    0.119426115685
            -0.015513093139    0.010926439958    -0.001143027870    -0.011401042311    -0.041516285326    -0.002082406301    -0.001837411732    -0.009731227428
            -0.001234079179    -0.007611488825    -0.031653258782    0.119426115685    -0.001837411677    -0.009731227134    -0.015158852985    0.108105000569
0.775     0.044872596503    0.038309011424    -0.009142045913    -0.007969713219    0.070940504247    0.041969965085    -0.007001040020    -0.005246207365
            -0.009142045913    -0.007969713219    0.028954364552    0.138640798577    -0.010378941928    -0.008989491097    0.016683123418    0.179328497376
            0.070940499596    0.041969969019    -0.010378941928    -0.008989491097    0.033572845746    0.038929148419    -0.009102397534    -0.006592286653
