!$
! Info: Touchstone file created by Circ.  Input file=Intel_C2M_200G_5p5in_202208016_staggered.circ
!$
# Hz S RI R 50
0	0.01756522	3.456356e-24	0.9822344	-5.995752e-24	0.0001054763	2.75506e-22	-0.0002366296	2.897877e-20
	0.9822344	-5.993413e-24	0.01812036	6.480448e-24	-0.0002366853	2.898558e-20	0.0003298666	5.303025e-22
	0.000105534	2.75634e-22	-0.0002368223	2.900237e-20	0.01756316	3.275047e-24	0.9822347	-6.084987e-24
	-0.0002367667	2.899555e-20	0.0003299351	5.306761e-22	0.9822347	-6.087333e-24	0.01812178	6.610443e-24
1e+07	0.02152736	-0.002160833	0.9736525	-0.09492011	0.001460809	0.005782344	-0.0008690168	-0.0004368634
	0.9736525	-0.09492011	0.02134527	-0.001953025	-0.00086903	-0.0004368209	0.00134325	0.005811858
	0.001460809	0.005782344	-0.00086903	-0.0004368209	0.02139977	-0.002132238	0.9737835	-0.09492409
	-0.0008690168	-0.0004368634	0.00134325	0.005811858	0.9737835	-0.09492409	0.02121781	-0.001924253
2e+07	0.02422057	-0.007861361	0.9567819	-0.1852448	0.003349083	0.01085535	-0.00101597	-0.0004619691
	0.9567819	-0.1852448	0.02367563	-0.007214333	-0.001015921	-0.0004619854	0.002856137	0.01105588
	0.003349093	0.01085534	-0.001015922	-0.0004620961	0.02412645	-0.007756911	0.956891	-0.1853041
	-0.00101597	-0.0004620735	0.002856223	0.01105577	0.956891	-0.1853041	0.02357444	-0.007105773
3e+07	0.02519521	-0.01504314	0.9326399	-0.2720793	0.006157299	0.01553847	-0.001067651	-0.0004954954
	0.9326399	-0.2720793	0.02364223	-0.01401215	-0.001067698	-0.0004954426	0.005201651	0.01591188
	0.006157274	0.01553851	-0.001067739	-0.0004954395	0.02512818	-0.01488792	0.9327288	-0.2721666
	-0.001067663	-0.0004955001	0.005201627	0.01591185	0.9327288	-0.2721666	0.02357823	-0.01385682
4e+07	0.02454869	-0.02271262	0.9011686	-0.3556287	0.00985289	0.01953303	-0.001051814	-0.0005652902
	0.9011686	-0.3556287	0.02184984	-0.02081523	-0.001051962	-0.0005651019	0.008230239	0.02031591
	0.009852888	0.01953306	-0.001051966	-0.0005650978	0.02451642	-0.02251941	0.9012375	-0.3557371
	-0.001051814	-0.0005652769	0.00823024	0.02031591	0.9012375	-0.3557371	0.02182272	-0.02062384
5e+07	0.02248803	-0.03034938	0.8625794	-0.4354583	0.01427405	0.02272681	-0.000996456	-0.0006981895
	0.8625794	-0.4354583	0.0185136	-0.0272303	-0.0009967451	-0.0006978879	0.01188031	0.02414401
	0.01427405	0.02272681	-0.000996742	-0.0006978888	0.02249297	-0.0301275	0.8626284	-0.4355841
	-0.0009964529	-0.0006981909	0.01188031	0.02414402	0.8626284	-0.4355841	0.0185255	-0.02701143
6e+07	0.0191654	-0.03766212	0.8172035	-0.5110458	0.01926605	0.02500217	-0.0009344296	-0.0009162061
	0.8172035	-0.5110458	0.01382357	-0.0328802	-0.0009349424	-0.0009156888	0.01603927	0.02731031
	0.01926607	0.02500216	-0.000934941	-0.00091569	0.01920914	-0.0374195	0.8172318	-0.5111863
	-0.0009344277	-0.0009162067	0.01603927	0.02731031	0.8172318	-0.5111863	0.01387615	-0.03264197
7e+07	0.01472355	-0.04441015	0.7654453	-0.5818682	0.02465064	0.0262703	-0.0009054496	-0.001228849
	0.7654453	-0.5818682	0.008035983	-0.03747285	-0.0009061663	-0.001228058	0.02058463	0.02975326
	0.02465064	0.02627029	-0.0009061225	-0.001228113	0.0148071	-0.04415475	0.7654507	-0.5820206
	-0.0009054473	-0.001228851	0.02058463	0.02975326	0.7654507	-0.5820206	0.008129343	-0.03722331
8e+07	0.009334775	-0.05039512	0.7077642	-0.647429	0.03023769	0.02647595	-0.0009507595	-0.0016315
	0.7077642	-0.647429	0.001434632	-0.04080257	-0.0009516834	-0.001630332	0.02538663	0.03143434
	0.03023769	0.02647595	-0.0009516841	-0.001630329	0.00945831	-0.05013486	0.7077465	-0.6475915
	-0.0009507608	-0.001631498	0.02538663	0.03143434	0.7077465	-0.6475915	0.001567252	-0.04054968
9e+07	0.003198993	-0.05546701	0.6446608	-0.707275	0.03583214	0.02559794	-0.001109396	-0.002106045
	0.6446608	-0.707275	-0.00568224	-0.04272876	-0.001110486	-0.002104331	0.03031412	0.03233938
	0.03583214	0.02559795	-0.001110484	-0.002104322	0.003360915	-0.05520996	0.6446171	-0.7074436
	-0.001109396	-0.002106036	0.03031412	0.03233938	0.6446171	-0.7074436	-0.005513055	-0.04247914
1e+08	-0.003436157	-0.05949529	0.5766239	-0.7610345	0.04124237	0.02364802	-0.001417761	-0.002622265
	0.5766239	-0.7610345	-0.01296911	-0.04313972	-0.001419005	-0.002619721	0.03524296	0.03247676
	0.04124237	0.02364802	-0.001419005	-0.002619722	-0.003239639	-0.05924971	0.5765545	-0.7612063
	-0.001417761	-0.002622266	0.03524296	0.03247676	0.5765545	-0.7612063	-0.01276766	-0.04289973
1.1e+08	-0.01034304	-0.06270566	0.5041834	-0.8080219	0.04628241	0.02064916	-0.001889849	-0.003121687
	0.5041834	-0.8080219	-0.02005637	-0.04227242	-0.001890014	-0.003117079	0.04003588	0.03185842
	0.04628241	0.02064916	-0.001890014	-0.003117081	-0.0100713	-0.06251445	0.5040888	-0.8081977
	-0.001889849	-0.003121688	0.04003588	0.03185842	0.5040888	-0.8081977	-0.01982909	-0.04202842
1.2e+08	-0.01756386	-0.06490423	0.4282539	-0.848076	0.05072917	0.01671815	-0.002524955	-0.00358424
	0.4282539	-0.848076	-0.02692768	-0.04004413	-0.002523756	-0.003578914	0.04456861	0.03055724
	0.05072917	0.01671815	-0.002523756	-0.003578916	-0.01728176	-0.06476272	0.4281297	-0.8482518
	-0.002524956	-0.003584241	0.04456861	0.03055724	0.4281297	-0.8482518	-0.02667189	-0.03980943
1.3e+08	-0.02485334	-0.06606349	0.3494184	-0.881023	0.05444137	0.01196566	-0.003330837	-0.003961868
	0.3494184	-0.881023	-0.03325388	-0.03647603	-0.003328715	-0.003956529	0.04874802	0.02864604
	0.05444137	0.01196566	-0.003328716	-0.00395653	-0.02457899	-0.06594979	0.3492637	-0.881196
	-0.003330837	-0.003961869	0.04874802	0.02864604	0.3492637	-0.881196	-0.03297509	-0.0362589
1.4e+08	-0.03202782	-0.06622297	0.2683115	-0.9067004	0.05728904	0.006526874	-0.004297088	-0.004206408
	0.2683115	-0.9067004	-0.03876587	-0.03168273	-0.004294374	-0.004200691	0.05249295	0.02621009
	0.05728904	0.006526873	-0.004294375	-0.004200692	-0.03175946	-0.066126	0.2681255	-0.9068644
	-0.004297089	-0.004206409	0.05249295	0.02621009	0.2681255	-0.9068644	-0.03847143	-0.03148617
1.5e+08	-0.03892867	-0.06545114	0.1855763	-0.9249932	0.05916361	0.0005566869	-0.005399625	-0.004272262
	0.1855763	-0.9249932	-0.04323089	-0.02583151	-0.005396164	-0.004266033	0.05573985	0.02334423
	0.05916361	0.0005566862	-0.005396164	-0.004266034	-0.03866239	-0.06537008	0.1853597	-0.9251436
	-0.005399626	-0.004272263	0.05573985	0.02334423	0.1853597	-0.9251436	-0.04292787	-0.02565507
1.6e+08	-0.04542031	-0.0638394	0.1018596	-0.9358355	0.05998262	-0.005774344	-0.006602292	-0.004120173
	0.1018596	-0.9358355	-0.0464562	-0.01913067	-0.00659769	-0.004113305	0.0584435	0.02015015
	0.05998262	-0.005774344	-0.00659769	-0.004113306	-0.04515504	-0.06377888	0.1016118	-0.9359682
	-0.006602293	-0.004120173	0.0584435	0.02015015	0.1016118	-0.9359682	-0.04615053	-0.01897129
1.7e+08	-0.05139082	-0.06149795	0.01780383	-0.9392153	0.05969215	-0.01228468	-0.007859028	-0.003720007
	0.01780383	-0.9392153	-0.04829371	-0.01181937	-0.007852767	-0.003712504	0.06057722	0.01673215
	0.05969215	-0.01228468	-0.007852767	-0.003712504	-0.05112977	-0.06146384	0.01752595	-0.9393254
	-0.007859028	-0.003720007	0.06057722	0.01673215	0.01752595	-0.9393254	-0.04798938	-0.0116727
1.8e+08	-0.05675438	-0.05855081	-0.06595476	-0.9351702	0.05826813	-0.01878645	-0.009116531	-0.003052935
	-0.06595476	-0.9351702	-0.04864241	-0.004158149	-0.009108105	-0.003045167	0.06213282	0.01319485
	0.05826813	-0.01878645	-0.009108105	-0.003045167	-0.05650418	-0.05854808	-0.06626097	-0.9352519
	-0.009116531	-0.003052935	0.06213282	0.01319485	-0.06626097	-0.9352519	-0.04834218	-0.004019297
1.9e+08	-0.06145196	-0.05513145	-0.1487877	-0.9237845	0.05571744	-0.02509025	-0.01031715	-0.002112601
	-0.1487877	-0.9237845	-0.04745099	0.003579108	-0.01030618	-0.002105143	0.06311981	0.009640452
	0.05571744	-0.02509025	-0.01030618	-0.002105143	-0.06122175	-0.05516266	-0.1491183	-0.9238348
	-0.01031715	-0.002112601	0.06311981	0.009640452	-0.1491183	-0.9238348	-0.04715601	0.003715394
2e+08	-0.06545279	-0.05137664	-0.230079	-0.9051913	0.05207708	-0.03100984	-0.01140218	-0.0009062023
	-0.230079	-0.9051913	-0.04471726	0.01111507	-0.01138858	-0.0008999674	0.06356377	0.006165352
	0.05207708	-0.03100984	-0.01138858	-0.0008999676	-0.06525211	-0.05144219	-0.2304316	-0.9052035
	-0.01140218	-0.0009062023	0.06356377	0.006165352	-0.2304316	-0.9052035	-0.04442731	0.01125412
2.1e+08	-0.06875252	-0.04742152	-0.3092283	-0.87957	0.04741355	-0.03636676	-0.01231543	0.0005456033
	-0.3092283	-0.87957	-0.04048883	0.01817692	-0.0122992	0.0005500006	0.06350627	0.002858652
	0.04741355	-0.03636676	-0.0122992	0.0005500006	-0.06859187	-0.04751896	-0.3095972	-0.8795403
	-0.01231543	0.0005456033	0.06350627	0.002858652	-0.3095972	-0.8795403	-0.04020206	0.01832369
2.2e+08	-0.07137337	-0.04339468	-0.3856511	-0.847144	0.04182108	-0.04099451	-0.01300559	0.002210199
	-0.3856511	-0.847144	-0.03485934	0.02450446	-0.01298708	0.002211827	0.06300188	-0.0002004304
	0.04182108	-0.04099451	-0.01298708	0.002211827	-0.07126242	-0.04351891	-0.3860308	-0.8470687
	-0.01300559	0.002210199	0.06300188	-0.0002004304	-0.3860308	-0.8470687	-0.03457334	0.02466388
2.3e+08	-0.0733608	-0.03941307	-0.4587794	-0.8081813	0.03541972	-0.04474306	-0.01342982	0.004043618
	-0.4587794	-0.8081813	-0.02796713	0.02985776	-0.01340951	0.004041961	0.06211713	-0.002944267
	0.03541972	-0.04474306	-0.01340951	0.004041961	-0.07330799	-0.03955733	-0.4591649	-0.8080579
	-0.01342982	0.004043618	0.06211713	-0.002944267	-0.4591649	-0.8080579	-0.02767797	0.03003435
2.4e+08	-0.07478062	-0.03557795	-0.5280713	-0.7629954	0.02835275	-0.047482	-0.01355532	0.005994178
	-0.5280713	-0.7629954	-0.01998981	0.03402516	-0.01353401	0.005988446	0.06092875	-0.005318259
	0.02835275	-0.047482	-0.01353401	0.005988446	-0.07479349	-0.03573354	-0.5284556	-0.7628236
	-0.01355532	0.005994178	0.06092875	-0.005318258	-0.5284556	-0.7628236	-0.01969275	0.03422261
2.5e+08	-0.07571548	-0.03197122	-0.5930067	-0.7119447	0.02078328	-0.04910435	-0.01336138	0.008003887
	-0.5930067	-0.7119447	-0.01113928	0.03682843	-0.01333991	0.007993575	0.05952094	-0.007282505
	0.02078328	-0.04910435	-0.01333991	0.007993575	-0.0757996	-0.03212853	-0.5933832	-0.7117216
	-0.01336138	0.008003887	0.05952094	-0.007282505	-0.5933832	-0.7117216	-0.01082811	0.03704944
2.6e+08	-0.07626013	-0.0286533	-0.6530948	-0.6554268	0.01289081	-0.04952983	-0.01284046	0.01001196
	-0.6530948	-0.6554268	-0.001655324	0.03812882	-0.0128197	0.009996994	0.05798333	-0.00881284
	0.01289081	-0.04952983	-0.0128197	0.009996994	-0.07641988	-0.02880148	-0.6534551	-0.655154
	-0.01284046	0.01001196	0.05798333	-0.00881284	-0.6534551	-0.655154	-0.00132355	0.0383747
2.7e+08	-0.07651701	-0.02566094	-0.7078755	-0.5938828	0.004867048	-0.04870646	-0.01199777	0.01195803
	-0.7078755	-0.5938828	0.008201858	0.03783059	-0.011979	0.01193821	0.05640833	-0.009901169
	0.004867048	-0.04870646	-0.011979	0.01193821	-0.07675495	-0.02578849	-0.7082143	-0.5935621
	-0.01199777	0.01195803	0.05640833	-0.009901169	-0.7082143	-0.5935621	0.0085618	0.03810193
2.8e+08	-0.07659099	-0.02300582	-0.7569262	-0.5277955	-0.003088756	-0.04661325	-0.0108512	0.01378486
	-0.7569262	-0.5277955	0.01815917	0.03588485	-0.01083537	0.01376056	0.05488857	-0.01055685
	-0.003088756	-0.04661325	-0.01083537	0.01376056	-0.07690771	-0.02310098	-0.7572372	-0.5274293
	-0.0108512	0.01378486	0.05488857	-0.01055685	-0.7572372	-0.5274293	0.01855515	0.03618077
2.9e+08	-0.07658419	-0.02067548	-0.7998646	-0.4576862	-0.01077463	-0.04326129	-0.009429295	0.01544163
	-0.7998646	-0.4576862	0.02793854	0.03229125	-0.009417781	0.01541333	0.05351365	-0.0108059
	-0.01077463	-0.04326129	-0.009417781	0.01541333	-0.07697881	-0.02072602	-0.800142	-0.457278
	-0.009429295	0.01544163	0.05351365	-0.0108059	-0.800142	-0.457278	0.02837882	0.03260895
3e+08	-0.07659076	-0.01863385	-0.8363524	-0.3841105	-0.01799081	-0.03869357	-0.007770536	0.01688551
	-0.8363524	-0.3841105	0.03726681	0.02709698	-0.007764419	0.01685406	0.05236728	-0.0106912
	-0.01799081	-0.03869356	-0.007764419	0.01685406	-0.07706065	-0.01862772	-0.8365904	-0.3836636
	-0.007770536	0.01688551	0.05236728	-0.0106912	-0.8365904	-0.3836636	0.03775948	0.02743201
3.1e+08	-0.07669213	-0.01682368	-0.8661033	-0.3076564	-0.02454552	-0.03298518	-0.005919884	0.018084
	-0.8661033	-0.3076564	0.04588353	0.02039651	-0.005919762	0.01805043	0.05152469	-0.01027059
	-0.02454552	-0.03298518	-0.005919762	0.01805043	-0.07723316	-0.0167486	-0.8662953	-0.3071765
	-0.005919884	0.018084	0.05152469	-0.01027059	-0.8662953	-0.3071765	0.04643563	0.02074262
3.2e+08	-0.07695279	-0.01516907	-0.8888816	-0.2289424	-0.03025981	-0.02624174	-0.003926205	0.01901576
	-0.8888816	-0.2289424	0.0535484	0.01232805	-0.003932719	0.01898143	0.05104918	-0.009616427
	-0.03025981	-0.02624174	-0.003932719	0.01898143	-0.07755818	-0.01501351	-0.889026	-0.228433
	-0.003926205	0.01901576	0.05104918	-0.009616427	-0.889026	-0.228433	0.05416717	0.01267752
3.3e+08	-0.07741594	-0.01358018	-0.904511	-0.1486049	-0.03497227	-0.0185968	-0.001839203	0.01967075
	-0.904511	-0.1486049	0.06005041	0.003068786	-0.001853266	0.01963718	0.05098941	-0.00881255
	-0.03497227	-0.0185968	-0.001853266	0.01963718	-0.07807752	-0.01333291	-0.9046037	-0.1480734
	-0.001839203	0.01967075	0.05098941	-0.00881255	-0.9046037	-0.1480734	0.06074138	0.003412508
3.4e+08	-0.07810066	-0.01195742	-0.912876	-0.06730238	-0.03854445	-0.01020907	0.0002923009	0.0200499
	-0.912876	-0.06730238	0.06521327	-0.007169864	0.0002712181	0.02001871	0.05137796	-0.007951621
	-0.03854445	-0.01020907	0.0002712181	0.02001871	-0.07880827	-0.01160867	-0.9129166	-0.06675226
	0.0002923008	0.0200499	0.05137796	-0.007951621	-0.9129166	-0.06675226	0.06598099	-0.006842576
3.5e+08	-0.07900021	-0.01019742	-0.9139262	0.01430244	-0.04086375	-0.001258246	0.002424504	0.02016401
	-0.9139262	0.01430244	0.06890196	-0.01815057	0.002396838	0.02013685	0.05222879	-0.007132594
	-0.04086375	-0.001258246	0.002396838	0.02013685	-0.07974216	-0.009738118	-0.9139099	0.01486244
	0.002424504	0.02016401	0.05222879	-0.007132594	-0.9139099	0.01486244	0.06974823	-0.01785169
3.6e+08	-0.08008124	-0.008198291	-0.9076728	0.09553957	-0.04184745	0.008059421	0.00451977	0.02003176
	-0.9076728	0.09553957	0.07102533	-0.0296176	0.004486063	0.02001042	0.05353654	-0.006456134
	-0.04184745	0.008059422	0.004486063	0.02001042	-0.08084393	-0.007621385	-0.9075994	0.09610412
	0.00451977	0.02003176	0.05353654	-0.006456134	-0.9075994	0.09610412	0.07195088	-0.02935936
3.7e+08	-0.08128411	-0.005866402	-0.8941925	0.175747	-0.04144483	0.01753674	0.006547982	0.01967771
	-0.8941925	0.175747	0.07153972	-0.04130522	0.006509743	0.01966355	0.05527642	-0.00602133
	-0.04144483	0.01753674	0.006509743	0.01966355	-0.08205262	-0.005166657	-0.8940626	0.176311
	0.006547982	0.01967771	0.05527642	-0.00602133	-0.8940626	0.176311	0.07254306	-0.04110078
3.8e+08	-0.08252498	-0.00312123	-0.8736267	0.2542746	-0.03963793	0.02696056	0.00848861	0.01912933
	-0.8736267	0.2542746	0.07044939	-0.05294668	0.00844682	0.01912377	0.05740432	-0.005922006
	-0.03963793	0.02696056	0.00844682	0.01912377	-0.08328327	-0.002295262	-0.873439	0.2548306
	0.00848861	0.01912933	0.05740432	-0.005922006	-0.873439	0.2548306	0.0715263	-0.05280931
3.9e+08	-0.0836977	9.895467e-05	-0.8461776	0.3304886	-0.036443	0.03611731	0.01032838	0.01841544
	-0.8461776	0.3304886	0.06780459	-0.06428325	0.01028577	0.01841885	0.05985858	-0.006242804
	-0.036443	0.03611731	0.01028577	0.01841885	-0.08442908	0.001051224	-0.845936	0.331032
	0.01032838	0.01841544	0.05985858	-0.006242804	-0.845936	0.331032	0.06894925	-0.064225
4e+08	-0.08467946	0.003831773	-0.8121083	0.4037827	-0.03190865	0.04479891	0.01206352	0.01756228
	-0.8121083	0.4037827	0.06370032	-0.0750717	0.0120218	0.01757542	0.06256172	-0.007055944
	-0.03190865	0.04479891	0.0120218	0.01757542	-0.08536713	0.004908594	-0.8118116	0.4043084
	0.01206352	0.01756228	0.06256172	-0.007055944	-0.8118116	0.4043084	0.0649041	-0.07510484
4.1e+08	-0.08533581	0.008087375	-0.7717307	0.4735862	-0.02611498	0.05280721	0.01369665	0.01659264
	-0.7717307	0.4735862	0.05827101	-0.08509355	0.0136579	0.0166154	0.06542351	-0.008417858
	-0.02611498	0.05280721	0.0136579	0.0166154	-0.08596262	0.009284266	-0.7713814	0.4740899
	0.01369665	0.01659264	0.06542351	-0.008417858	-0.7713814	0.4740899	0.05952345	-0.08522874
4.2e+08	-0.08552439	0.01284584	-0.7254126	0.5393605	-0.01917129	0.05995939	0.01523512	0.01552428
	-0.7254126	0.5393605	0.0516857	-0.09415962	0.01520177	0.01555576	0.06834361	-0.01036857
	-0.01917129	0.05995939	0.01520177	0.01555576	-0.08607383	0.01415547	-0.7250134	0.5398359
	0.01523512	0.01552428	0.06834361	-0.01036857	-0.7250134	0.5398359	0.05297456	-0.09440552
4.3e+08	-0.08510399	0.01805545	-0.6735616	0.6006115	-0.01121239	0.06609153	0.01669013	0.01436755
	-0.6735616	0.6006115	0.04414127	-0.1021168	0.01666422	0.01440695	0.0712158	-0.01292817
	-0.01121239	0.06609153	0.01666422	0.01440695	-0.08556066	0.0194681	-0.6731147	0.6010549
	0.01669013	0.01436755	0.0712158	-0.01292817	-0.6731147	0.6010549	0.04545225	-0.1024806
4.4e+08	-0.08393996	0.02363301	-0.6166242	0.656889	-0.002395752	0.07106203	0.01807316	0.01312664
	-0.6166242	0.656889	0.03585502	-0.1088512	0.01805658	0.01317197	0.07393106	-0.01609782
	-0.002395752	0.07106203	0.01805658	0.01317197	-0.0842894	0.02513636	-0.616133	0.6572958
	0.01807316	0.01312664	0.07393106	-0.01609782	-0.616133	0.6572958	0.03717317	-0.1093375
4.5e+08	-0.0819098	0.02946399	-0.5550827	0.7077866	0.007102593	0.07475471	0.0193945	0.01179888
	-0.5550827	0.7077866	0.0270574	-0.1142906	0.0193888	0.01184802	0.07638178	-0.01985899
	0.007102593	0.07475471	0.0193888	0.01184802	-0.08213937	0.03104356	-0.5545502	0.708153
	0.0193945	0.01179888	0.07638178	-0.01985899	-0.5545502	0.708153	0.02836677	-0.1149018
4.6e+08	-0.0789104	0.03540586	-0.4894452	0.7529473	0.01709229	0.07708041	0.02066119	0.0103753
	-0.4894452	0.7529473	0.0179839	-0.1184062	0.02066729	0.01042617	0.07846488	-0.02417471
	0.01709229	0.07708041	0.02066729	0.01042617	-0.07900995	0.03704551	-0.4888734	0.7532698
	0.02066119	0.0103753	0.07846488	-0.02417471	-0.4888734	0.7532698	0.01926798	-0.1191418
4.7e+08	-0.07486515	0.04129148	-0.4202411	0.7920666	0.02737301	0.07797888	0.02187474	0.008843593
	-0.4202411	0.7920666	0.00886737	-0.1212111	0.0218932	0.008893157	0.08008526	-0.02899021
	0.02737301	0.07797888	0.0218932	0.008893157	-0.07482578	0.04297303	-0.4196341	0.7923398
	0.02187474	0.008843593	0.08008526	-0.02899021	-0.4196341	0.7923398	0.01011011	-0.1220681
4.8e+08	-0.0697253	0.04693397	-0.348017	0.8248795	0.03773801	0.07741889	0.02303105	0.007187347
	-0.348017	0.8248795	-6.917276e-05	-0.1227593	0.02306146	0.007233233	0.0811583	-0.0342358
	0.03773801	0.07741889	0.02306146	0.007233233	-0.06954181	0.04863764	-0.34738	0.8251029
	0.02303105	0.007187346	0.0811583	-0.0342358	-0.34738	0.8251029	0.001116717	-0.1237322
4.9e+08	-0.06347699	0.05213056	-0.2733399	0.851174	0.04797915	0.07539933	0.02411832	0.005390887
	-0.2733399	0.851174	-0.008619264	-0.1231422	0.02416006	0.005429848	0.08161228	-0.03982845
	0.04797915	0.07539933	0.02416006	0.005429848	-0.06314648	0.05383621	-0.2726742	0.8513446
	0.02411832	0.005390887	0.08161228	-0.03982845	-0.2726742	0.8513446	-0.007505019	-0.1242231
5e+08	-0.05614434	0.05667169	-0.1967774	0.8707877	0.05789027	0.07194772	0.02511782	0.003438392
	-0.1967774	0.8707877	-0.0165997	-0.1224858	0.02516952	0.003468283	0.08139036	-0.04567449
	0.05789027	0.07194772	0.02516952	0.003468283	-0.05566651	0.0583579	-0.19609	0.8709006
	0.02511782	0.003438392	0.08139036	-0.04567449	-0.19609	0.8709006	-0.01557001	-0.1236642
5.1e+08	-0.04778866	0.06034484	-0.1189118	0.8835966	0.06727063	0.06712062	0.02600425	0.00131917
	-0.1189118	0.8835966	-0.02385482	-0.1209443	0.02606385	0.00133764	0.08045149	-0.05167263
	0.06727063	0.06712062	0.02606385	0.00133764	-0.04716698	0.06199067	-0.1182065	0.8836519
	0.02600425	0.00131917	0.08045149	-0.05167263	-0.1182065	0.8836519	-0.02292088	-0.1222078
5.2e+08	-0.03851257	0.06294326	-0.04032905	0.8895289	0.07593037	0.06100202	0.02674613	-0.0009734179
	-0.04032905	0.8895289	-0.03026132	-0.1186954	0.02681117	-0.0009686311	0.07877173	-0.05771632
