!$
! Info: Touchstone file created by Circ.  Input file=Intel_C2M_200G_5p5in_202208016_staggered.circ
!$
# Hz S RI R 50
0	0.01812037	6.479934e-24	-8.437828e-05	1.033336e-20	0.0003298684	5.302972e-22	-8.005208e-05	9.803552e-21
	-8.437837e-05	1.033337e-20	0.01756522	3.456356e-24	-9.155411e-05	1.121214e-20	0.0001054763	2.75506e-22
	0.0003299368	5.306684e-22	-9.155419e-05	1.121215e-20	0.01812159	6.612196e-24	-8.440376e-05	1.033648e-20
	-8.005207e-05	9.803551e-21	0.000105534	2.75634e-22	-8.440367e-05	1.033647e-20	0.01756316	3.275047e-24
1e+07	0.02185207	-0.001793747	-0.0004778654	-7.424392e-05	0.001119786	0.005795347	-5.127966e-05	-0.0001066296
	-0.0004778654	-7.424392e-05	0.02152736	-0.002160833	-0.0006805241	4.924904e-05	0.001460809	0.005782344
	0.001119786	0.005795347	-0.0006805241	4.924904e-05	0.02159264	-0.001695963	-0.0003530314	-8.71848e-05
	-5.127966e-05	-0.0001066296	0.001460809	0.005782344	-0.0003530314	-8.71848e-05	0.02139977	-0.002132238
2e+07	0.02423604	-0.007141427	-0.0004340267	-0.0003363992	0.002662925	0.01110982	-7.476948e-05	-0.0001778868
	-0.0004340266	-0.0003363992	0.02422057	-0.007861361	-0.0006441513	-0.0001853339	0.003349083	0.01085535
	0.002663011	0.01110971	-0.0006441513	-0.0001853339	0.02410258	-0.006878747	-0.0003443312	-0.0002625625
	-7.476947e-05	-0.0001778868	0.003349093	0.01085534	-0.0003443312	-0.0002625625	0.02412645	-0.007756911
3e+07	0.02424144	-0.01399574	-0.000432378	-0.0004691847	0.005034375	0.01599267	-0.0001124058	-0.0002434128
	-0.0004323779	-0.0004691847	0.02519521	-0.01504314	-0.000629199	-0.0002822638	0.006157299	0.01553847
	0.005034351	0.01599264	-0.000629199	-0.0002822638	0.02422308	-0.01367209	-0.0003688706	-0.0003734102
	-0.0001124058	-0.0002434128	0.006157274	0.01553851	-0.0003688706	-0.0003734102	0.02512818	-0.01488792
4e+07	0.02247509	-0.02085883	-0.000461143	-0.000567093	0.008086916	0.02041222	-0.0001745809	-0.0002964742
	-0.000461143	-0.000567093	0.02454869	-0.02271262	-0.0006306522	-0.0003535292	0.00985289	0.01953303
	0.008086916	0.02041222	-0.0006306522	-0.0003535292	0.02255756	-0.02050915	-0.0004172986	-0.0004568269
	-0.0001745809	-0.0002964742	0.009852888	0.01953306	-0.0004172986	-0.0004568269	0.02451642	-0.02251941
5e+07	0.01915288	-0.02733828	-0.0005122366	-0.0006413702	0.01175905	0.02424914	-0.0002463635	-0.0003385992
	-0.0005122366	-0.0006413702	0.02248803	-0.03034938	-0.0006453568	-0.0004146212	0.01427405	0.02272681
	0.01175905	0.02424915	-0.0006453568	-0.0004146212	0.01932604	-0.02698626	-0.0004839512	-0.0005194833
	-0.0002463635	-0.0003385991	0.01427405	0.02272681	-0.0004839512	-0.0005194833	0.02249297	-0.0301275
6e+07	0.01446498	-0.03305586	-0.0005799385	-0.0006949474	0.01593795	0.02741947	-0.0003258347	-0.0003691522
	-0.0005799385	-0.0006949474	0.0191654	-0.03766212	-0.0006728541	-0.0004709654	0.01926605	0.02500217
	0.01593795	0.02741947	-0.0006728541	-0.0004709654	0.01471861	-0.03272008	-0.0005643118	-0.0005627454
	-0.0003258347	-0.0003691522	0.01926607	0.02500216	-0.0005643118	-0.0005627454	0.01920914	-0.0374195
7e+07	0.008667428	-0.03771809	-0.0006982932	-0.0007012781	0.02050082	0.02986281	-0.0004107967	-0.0003868382
	-0.0006982932	-0.0007012781	0.01472355	-0.04441015	-0.0007133165	-0.000523868	0.02465064	0.0262703
	0.02050082	0.02986281	-0.0007133165	-0.000523868	0.008989693	-0.03741406	-0.0006543301	-0.0005867567
	-0.0004107967	-0.0003868382	0.02465064	0.02627029	-0.0006543301	-0.0005867567	0.0148071	-0.04415475
8e+07	0.002043541	-0.04111802	-0.0008607389	-0.0006460059	0.02531754	0.03154155	-0.0004990964	-0.0003910798
	-0.0008607389	-0.0006460059	0.009334775	-0.05039512	-0.0007675402	-0.0005729896	0.03023769	0.02647595
	0.02531754	0.03154155	-0.0007675402	-0.0005729896	0.002420641	-0.04085888	-0.000750076	-0.0005913356
	-0.0004990964	-0.0003910798	0.03023769	0.02647595	-0.000750076	-0.0005913356	0.00945831	-0.05013486
9e+07	-0.005109518	-0.0431141	-0.001008702	-0.0005609009	0.03025672	0.03244247	-0.0005897854	-0.0003818619
	-0.001008702	-0.0005609009	0.003198993	-0.05546701	-0.0008369869	-0.0006169896	0.03583214	0.02559794
	0.03025672	0.03244247	-0.0008369869	-0.0006169896	-0.004693558	-0.04291017	-0.0008580388	-0.0005653618
	-0.0005897854	-0.000381862	0.03583214	0.02559795	-0.0008580388	-0.0005653617	0.003360915	-0.05520996
1e+08	-0.0124528	-0.0435974	-0.001128756	-0.0004410397	0.03519331	0.03257508	-0.0006797504	-0.0003584819
	-0.001128756	-0.0004410397	-0.003436157	-0.05949529	-0.0009199054	-0.0006517109	0.04124237	0.02364802
	0.03519331	0.03257508	-0.0009199054	-0.0006517109	-0.01202159	-0.04346088	-0.0009809226	-0.0004864381
	-0.0006797504	-0.0003584819	0.04124237	0.02364802	-0.0009809226	-0.0004864381	-0.003239639	-0.05924971
1.1e+08	-0.01962135	-0.04276685	-0.001206269	-0.000342326	0.039993	0.03195554	-0.0007688754	-0.0003257739
	-0.001206269	-0.000342326	-0.01034304	-0.06270566	-0.001027185	-0.0006691923	0.04628241	0.02064916
	0.039993	0.03195555	-0.001027185	-0.0006691923	-0.01920534	-0.04265451	-0.00107903	-0.0004099714
	-0.0007688754	-0.0003257739	0.04628241	0.02064916	-0.00107903	-0.0004099714	-0.0100713	-0.06251445
1.2e+08	-0.02656331	-0.04055818	-0.001291158	-0.0002425677	0.04453307	0.03065259	-0.0008602859	-0.0002803632
	-0.001291158	-0.0002425677	-0.01756386	-0.06490423	-0.001154335	-0.0006742623	0.05072917	0.01671815
	0.04453307	0.03065259	-0.001154335	-0.0006742623	-0.02615067	-0.04047052	-0.001178268	-0.000324932
	-0.0008602859	-0.0002803632	0.05072917	0.01671815	-0.001178268	-0.000324932	-0.01728176	-0.06476272
1.3e+08	-0.03295566	-0.03699996	-0.001372681	-0.0001323751	0.04871943	0.02873912	-0.000954521	-0.0002225882
	-0.001372681	-0.0001323751	-0.02485334	-0.06606349	-0.001297808	-0.0006604535	0.05444137	0.01196566
	0.04871943	0.02873912	-0.001297808	-0.0006604535	-0.03254841	-0.03693907	-0.001272081	-0.0002268698
	-0.000954521	-0.0002225882	0.05444137	0.01196566	-0.001272081	-0.0002268698	-0.02457899	-0.06594979
1.4e+08	-0.03853034	-0.03220875	-0.001447361	-1.043344e-05	0.05247078	0.02630053	-0.00104463	-0.0001490956
	-0.001447361	-1.043344e-05	-0.03202782	-0.06622297	-0.001454406	-0.0006229142	0.05728904	0.006526874
	0.05247078	0.02630053	-0.001454406	-0.0006229142	-0.0381334	-0.03217329	-0.001357916	-0.0001157785
	-0.00104463	-0.0001490956	0.05728904	0.006526873	-0.001357916	-0.0001157785	-0.03175946	-0.066126
1.5e+08	-0.0430549	-0.02635292	-0.001512713	0.0001234789	0.05572349	0.02343176	-0.001128615	-6.015084e-05
	-0.001512713	0.0001234789	-0.03892867	-0.06545114	-0.001619977	-0.0005574404	0.05916361	0.0005566869
	0.05572349	0.02343176	-0.001619977	-0.0005574404	-0.04267333	-0.02633911	-0.001433876	7.796932e-06
	-0.001128615	-6.015084e-05	0.05916361	0.0005566862	-0.001433876	7.796907e-06	-0.03866239	-0.06537008
1.6e+08	-0.04633668	-0.01964146	-0.001566617	0.0002689303	0.05843237	0.02023456	-0.001204405	4.369622e-05
	-0.001566617	0.0002689303	-0.04542031	-0.0638394	-0.001789359	-0.0004607737	0.05998262	-0.005774344
	0.05843237	0.02023456	-0.001789359	-0.0004607737	-0.04597459	-0.01964351	-0.001498398	0.0001429923
	-0.001204405	4.369622e-05	0.05998262	-0.005774344	-0.001498398	0.0001429923	-0.04515504	-0.06377888
1.7e+08	-0.04822747	-0.01231401	-0.001607164	0.0004251726	0.06057072	0.01681334	-0.001269928	0.0001617141
	-0.001607164	0.0004251726	-0.05139082	-0.06149795	-0.001956613	-0.0003307926	0.05969215	-0.01228468
	0.06057072	0.01681334	-0.001956613	-0.0003307926	-0.04788727	-0.0123253	-0.001550079	0.0002887976
	-0.001269928	0.0001617141	0.05969215	-0.01228468	-0.001550079	0.0002887976	-0.05112977	-0.06146384
1.8e+08	-0.04862613	-0.00463155	-0.001632611	0.0005911066	0.06213045	0.01327278	-0.001323126	0.0002928912
	-0.001632611	0.0005911066	-0.05675438	-0.05855081	-0.002115243	-0.0001665019	0.05826813	-0.01878645
	0.06213045	0.01327278	-0.002115243	-0.0001665019	-0.04830895	-0.004645166	-0.001587755	0.000444057
	-0.001323126	0.0002928912	0.05826813	-0.01878645	-0.001587755	0.000444057	-0.05650418	-0.05854808
1.9e+08	-0.047481	0.003131745	-0.001641308	0.0007654242	0.0631211	0.009715126	-0.001362033	0.0004359632
	-0.001641308	0.0007654242	-0.06145196	-0.05513145	-0.002258458	3.19895e-05	0.05571744	-0.02509025
	0.0631211	0.009715126	-0.002258458	3.19895e-05	-0.04718657	0.003122765	-0.001610259	0.0006075395
	-0.001362033	0.0004359632	0.05571744	-0.02509025	-0.001610259	0.0006075395	-0.06122175	-0.05516266
2e+08	-0.04478946	0.01069793	-0.001631011	0.0009455416	0.0635683	0.006236829	-0.001384813	0.0005893403
	-0.001631011	0.0009455416	-0.06545279	-0.05137664	-0.002373233	0.0002966358	0.05207708	-0.03100984
	0.0635683	0.00623683	-0.002373233	0.0002966358	-0.04451641	0.01070097	-0.001616268	0.0007765692
	-0.001384813	0.0005893403	0.05207708	-0.03100984	-0.001616268	0.0007765692	-0.06525211	-0.05144219
2.1e+08	-0.04059896	0.01779402	-0.001601311	0.001130488	0.06351367	0.002926989	-0.001389704	0.0007512037
	-0.001601311	0.001130488	-0.06875252	-0.04742152	-0.002453628	0.0005876154	0.04741355	-0.03636676
	0.06351367	0.002926989	-0.002453628	0.0005876154	-0.04034379	0.01781553	-0.00160553	0.0009511268
	-0.001389704	0.0007512037	0.04741355	-0.03636676	-0.00160553	0.0009511268	-0.06859187	-0.04751896
2.2e+08	-0.03500277	0.02415946	-0.001551018	0.001318275	0.06301183	-0.0001351802	-0.001375167	0.0009194421
	-0.001551018	0.001318275	-0.07137337	-0.04339468	-0.002494417	0.0008996951	0.04182108	-0.04099451
	0.06301183	-0.0001351801	-0.002494417	0.0008996951	-0.03476135	0.0242057	-0.001577117	0.001129855
	-0.001375167	0.0009194421	0.04182108	-0.04099451	-0.001577117	0.001129855	-0.07126242	-0.04351891
2.3e+08	-0.02813885	0.0295538	-0.001479173	0.001506629	0.06212935	-0.002882037	-0.001339945	0.001091677
	-0.001479173	0.001506629	-0.0733608	-0.03941307	-0.0024915	0.001226424	0.03541972	-0.04474306
	0.06212935	-0.002882037	-0.0024915	0.001226424	-0.02790544	0.02963041	-0.00153019	0.001311258
	-0.001339945	0.001091677	0.03541972	-0.04474306	-0.00153019	0.001311258	-0.07330799	-0.03955733
2.4e+08	-0.02018443	0.03376486	-0.001384985	0.001693185	0.060943	-0.005258976	-0.001283069	0.001265303
	-0.001384985	0.001693185	-0.07478062	-0.03557795	-0.002442029	0.001560654	0.02835275	-0.047482
	0.060943	-0.005258976	-0.002442029	0.001560654	-0.01995241	0.03387647	-0.001463912	0.001493715
	-0.001283069	0.001265303	0.02835275	-0.047482	-0.001463912	0.001493715	-0.07479349	-0.03573354
2.5e+08	-0.01135108	0.03661379	-0.001268025	0.001875281	0.05953698	-0.007226119	-0.001203858	0.001437554
	-0.001268025	0.001875281	-0.07571548	-0.03197122	-0.002344532	0.001894728	0.02078328	-0.04910435
	0.05953698	-0.007226119	-0.002344532	0.001894728	-0.01111226	0.03676381	-0.001377575	0.001675454
	-0.001203858	0.001437554	0.02078328	-0.04910435	-0.001377575	0.001675454	-0.0757996	-0.03212853
2.6e+08	-0.001878286	0.03796119	-0.001128121	0.002050126	0.05800093	-0.008759291	-0.001102108	0.001605496
	-0.001128121	0.002050126	-0.07626013	-0.0286533	-0.002199071	0.002220853	0.01289081	-0.04952983
	0.05800093	-0.008759291	-0.002199071	0.002220853	-0.001624177	0.03815134	-0.001270535	0.00185453
	-0.001102108	0.001605496	0.01289081	-0.04952983	-0.001270535	0.00185453	-0.07641988	-0.02880148
2.7e+08	0.007973938	0.0377105	-0.0009654683	0.002214824	0.05642729	-0.009850419	-0.0009778908	0.001766158
	-0.0009654683	0.002214824	-0.07651701	-0.02566094	-0.002007254	0.002531351	0.004867048	-0.04870646
	0.05642729	-0.009850419	-0.002007254	0.002531351	0.008252944	0.0379416	-0.001142278	0.002028825
	-0.0009778908	0.001766158	0.004867048	-0.04870646	-0.001142278	0.002028825	-0.07675495	-0.02578849
2.8e+08	0.01793261	0.03581204	-0.0007806609	0.002366412	0.05490867	-0.01050884	-0.0008318157	0.001916488
	-0.0007806609	0.002366412	-0.07659099	-0.02300582	-0.001771946	0.002819114	-0.003088756	-0.04661325
	0.05490867	-0.01050884	-0.001771946	0.002819114	0.01824639	0.03608314	-0.000992512	0.002196019
	-0.0008318157	0.001916488	-0.003088756	-0.04661325	-0.000992512	0.002196019	-0.07690771	-0.02310098
2.9e+08	0.02771962	0.03226459	-0.0005747313	0.00250188	0.05353467	-0.01076058	-0.0006648883	0.002053533
	-0.0005747313	0.00250188	-0.07658419	-0.02067548	-0.001497296	0.003077792	-0.01077463	-0.04326129
	0.05353467	-0.01076058	-0.001497296	0.003077792	0.0280784	0.03257246	-0.000821088	0.00235364
	-0.0006648883	0.002053533	-0.01077463	-0.04326129	-0.000821088	0.00235364	-0.07697881	-0.02072602
3e+08	0.0370617	0.02711445	-0.0003491179	0.002618292	0.05238903	-0.01064847	-0.0004785408	0.002174466
	-0.0003491179	0.002618292	-0.07659076	-0.01863385	-0.001188485	0.003302021	-0.01799081	-0.03869357
	0.05238903	-0.01064847	-0.001188485	0.003302021	0.03747537	0.02745401	-0.0006281753	0.002499017
	-0.0004785408	0.002174466	-0.01799081	-0.03869356	-0.0006281753	0.002499017	-0.07706065	-0.01862772
3.1e+08	0.04569805	0.02045518	-0.0001057217	0.002712866	0.05154697	-0.01023038	-0.0002745523	0.002276641
	-0.0001057217	0.002712866	-0.07669213	-0.01682368	-0.0008513182	0.003487615	-0.02454552	-0.03298518
	0.05154697	-0.01023038	-0.0008513182	0.003487615	0.04617538	0.02081938	-0.0004143465	0.002629351
	-0.0002745523	0.002276641	-0.02454552	-0.03298518	-0.0004143465	0.002629351	-0.07723316	-0.0167486
3.2e+08	0.05338796	0.01242413	0.0001531589	0.002782986	0.0510718	-0.009578647	-5.520155e-05	0.002357661
	0.0001531589	0.002782986	-0.07695279	-0.01516907	-0.0004922019	0.003631653	-0.03025981	-0.02624174
	0.0510718	-0.009578647	-0.0004922019	0.003631653	0.05393766	0.01280415	-0.0001804508	0.002741743
	-5.520155e-05	0.002357661	-0.03025981	-0.02624174	-0.0001804508	0.002741743	-0.07755818	-0.01501351
3.3e+08	0.05991983	0.003197737	0.0004247991	0.002826323	0.0510122	-0.008777051	0.0001770135	0.002415453
	0.0004247991	0.002826323	-0.07741594	-0.01358018	-0.0001174339	0.003732494	-0.03497227	-0.0185968
	0.0510122	-0.008777051	-0.0001174339	0.003732494	0.06054866	0.003583204	7.221334e-05	0.00283326
	0.0001770135	0.002415453	-0.03497227	-0.0185968	7.221334e-05	0.00283326	-0.07807752	-0.01333291
3.4e+08	0.06511664	-0.007013361	0.0007060858	0.002840914	0.0514008	-0.007918293	0.0004192966	0.002448341
	0.0007060858	0.002840914	-0.07810066	-0.01195742	0.0002666337	0.00378969	-0.03854445	-0.01020907
	0.0514008	-0.007918293	0.0002666337	0.00378969	0.06583016	-0.006634481	0.0003418975	0.002901021
	0.0004192966	0.002448341	-0.03854445	-0.01020907	0.0003418975	0.002901021	-0.07880827	-0.01160867
3.5e+08	0.06884247	-0.01797241	0.0009935589	0.002825191	0.05225156	-0.007101309	0.0006686173	0.002455
	0.0009935589	0.002825191	-0.07900021	-0.01019742	0.0006541657	0.003803909	-0.04086375	-0.001258246
	0.05225156	-0.007101309	0.0006541657	0.003803909	0.0696433	-0.0176135	0.0006263082	0.002942233
	0.0006686173	0.002455	-0.04086375	-0.001258246	0.0006263082	0.002942233	-0.07974216	-0.009738118
3.6e+08	0.07100528	-0.02942411	0.001283554	0.002778122	0.05355915	-0.00642677	0.0009218213	0.002434587
	0.001283554	0.002778122	-0.08008124	-0.008198291	0.001040062	0.00377661	-0.04184745	0.008059421
	0.05355915	-0.00642677	0.001040062	0.00377661	0.07189459	-0.02909889	0.0009227112	0.002954355
	0.0009218213	0.002434587	-0.04184745	0.008059422	0.0009227112	0.002954355	-0.08084393	-0.007621385
3.7e+08	0.07156033	-0.04110308	0.001572271	0.002699133	0.0552988	-0.005993771	0.001175783	0.00238663
	0.001572271	0.002699133	-0.08128411	-0.005866402	0.001419898	0.003709922	-0.04144483	0.01753674
	0.0552988	-0.005993771	0.001419898	0.003709922	0.07253688	-0.04082609	0.001228002	0.002935096
	0.001175783	0.00238663	-0.04144483	0.01753674	0.001228002	0.002935096	-0.08205262	-0.005166657
3.8e+08	0.07051078	-0.05274267	0.001855764	0.002588274	0.05742643	-0.005896177	0.001427247	0.002311136
	0.001855764	0.002588274	-0.08252498	-0.00312123	0.00179	0.003606381	-0.03963793	0.02696056
	0.05742643	-0.005896177	0.00179	0.003606381	0.07157042	-0.05252852	0.00153852	0.002882606
	0.001427247	0.002311136	-0.03963793	0.02696056	0.00153852	0.002882606	-0.08328327	-0.002295262
3.9e+08	0.06790573	-0.06408401	0.002130164	0.002446142	0.05988038	-0.006218641	0.001673127	0.002208467
	0.002130164	0.002446142	-0.0836977	9.895467e-05	0.002147595	0.003468649	-0.036443	0.03611731
	0.05988038	-0.006218641	0.002147595	0.003468649	0.06904253	-0.06394605	0.001850336	0.002795516
	0.001673127	0.002208467	-0.036443	0.03611731	0.001850336	0.002795516	-0.08442908	0.001051224
4e+08	0.06383912	-0.07488373	0.002391727	0.002273885	0.06258314	-0.00703342	0.001910417	0.00207937
	0.002391727	0.002273885	-0.08467946	0.003831773	0.002490693	0.0032992	-0.03190865	0.04479891
	0.06258314	-0.00703342	0.002490693	0.0032992	0.06504417	-0.07483526	0.002159268	0.002672945
	0.001910417	0.00207937	-0.03190865	0.04479891	0.002159268	0.002672945	-0.08536713	0.004908594
4.1e+08	0.05844435	-0.08492279	0.002636955	0.002073141	0.06544448	-0.008396976	0.002136302	0.001924933
	0.002636955	0.002073141	-0.08533581	0.008087375	0.002817712	0.003100417	-0.02611498	0.05280721
	0.06544448	-0.008396976	0.002817712	0.003100417	0.05970678	-0.08497551	0.002460861	0.002514737
	0.002136302	0.001924933	-0.02611498	0.05280721	0.002460861	0.002514737	-0.08596262	0.009284266
4.2e+08	0.05188948	-0.09401145	0.002862647	0.001846045	0.06836402	-0.01034935	0.002348168	0.001746571
	0.002862647	0.001846045	-0.08552439	0.01284584	0.003127716	0.002874039	-0.01917129	0.05995939
	0.06836402	-0.01034935	0.003127716	0.002874039	0.05319658	-0.09417487	0.002750706	0.002321257
	0.002348168	0.001746571	-0.01917129	0.05995939	0.002750706	0.002321257	-0.08607383	0.01415547
4.3e+08	0.04437054	-0.1019957	0.003066009	0.001595074	0.07123549	-0.01291064	0.002543685	0.001545777
	0.003066009	0.001595074	-0.08510399	0.01805545	0.003419743	0.002621577	-0.01121239	0.06609153
	0.07123549	-0.01291064	0.003419743	0.002621577	0.0457075	-0.1022778	0.003024446	0.002093468
	0.002543685	0.001545777	-0.01121239	0.06609153	0.003024446	0.002093468	-0.08556066	0.0194681
4.4e+08	0.03610414	-0.1087609	0.003244661	0.001323014	0.07394981	-0.01608198	0.002720689	0.001324394
	0.003244661	0.001323014	-0.08393996	0.02363301	0.003692992	0.002343871	-0.002395752	0.07106203
	0.07394981	-0.01608198	0.003692992	0.002343871	0.03745543	-0.1091668	0.003277751	0.001833104
	0.002720689	0.001324394	-0.002395752	0.07106203	0.003277751	0.001833104	-0.0842894	0.02513636
4.5e+08	0.02732022	-0.1142337	0.003396721	0.001032832	0.07639934	-0.01984484	0.002877285	0.001084402
	0.003396721	0.001032832	-0.0819098	0.02946399	0.003946447	0.002041365	0.007102593	0.07475471
	0.07639934	-0.01984484	0.003946447	0.002041365	0.02866934	-0.1147662	0.003506652	0.001542377
	0.002877285	0.001084402	0.007102593	0.07475471	0.003506652	0.001542377	-0.08213937	0.03104356
4.6e+08	0.01825389	-0.1183841	0.003520705	0.000727669	0.07848093	-0.02416213	0.003011845	0.000827788
	0.003520705	0.000727669	-0.0789104	0.03540586	0.004178607	0.001714422	0.01709229	0.07708041
	0.07848093	-0.02416213	0.004178607	0.001714422	0.01958379	-0.1190433	0.003707501	0.001223861
	0.003011845	0.000827788	0.01709229	0.07708041	0.003707501	0.001223861	-0.07900995	0.03704551
4.7e+08	0.009137882	-0.1212242	0.003615647	0.0004105219	0.08009945	-0.02897908	0.003122937	0.0005567084
	0.003615647	0.0004105219	-0.07486515	0.04129148	0.004387569	0.001363152	0.02737301	0.07797888
	0.08009945	-0.02897908	0.004387569	0.001363152	0.01043194	-0.1220073	0.003877002	0.000880854
	0.003122937	0.0005567084	0.02737301	0.07797888	0.003877002	0.000880854	-0.07482578	0.04297303
4.8e+08	0.0001952968	-0.1228066	0.003680961	8.440149e-05	0.08117028	-0.03422584	0.003209351	0.0002732567
	0.003680961	8.440149e-05	-0.0697253	0.04693397	0.004570973	0.0009875987	0.03773801	0.07741889
	0.08117028	-0.03422584	0.004570973	0.0009875987	0.001437518	-0.1237083	0.004012326	0.000516802
	0.003209351	0.0002732567	0.03773801	0.07741889	0.004012326	0.000516802	-0.06954181	0.04863764
4.9e+08	-0.008367175	-0.1232218	0.003716372	-0.0002477484	0.08162166	-0.03981932	0.00327007	-2.04098e-05
	0.003716372	-0.0002477484	-0.06347699	0.05213056	0.004725774	0.0005883769	0.04797915	0.07539933
