# GHz S RI R 45
0.000     0.028290174624    0.001384508983    -0.000000326403    -0.000000212517    0.000821090353    0.001192014792    -0.000000082963    0.000000299624
            -0.000000326402    -0.000000212517    0.029155880913    0.001576692513    -0.000000657562    -0.000000883303    0.000908966254    0.001637554451
            0.000821090353    0.001192014792    -0.000000657562    -0.000000883303    0.028214291720    0.001376445732    -0.000000326139    -0.000000191771
            -0.000000083043    0.000000299625    0.000908966445    0.001637554459    -0.000000326144    -0.000000191769    0.029094355971    0.001588512158
0.025     0.034527335374    0.006821167843    -0.000000581045    -0.000000376637    0.003412864440    0.009084369200    0.000000041145    0.000000687210
            -0.000000581045    -0.000000376637    0.034098542434    0.007940716179    -0.000001418636    -0.000001761358    0.002681209671    0.010997542017
            0.003412707628    0.009084432917    -0.000001418636    -0.000001761358    0.034442672896    0.006715998607    -0.000000569816    -0.000000326261
            0.000000041144    0.000000687211    0.002681464449    0.010996967308    -0.000000569816    -0.000000326262    0.034011804985    0.007896463497
0.050     0.042686663945    0.006354066558    -0.000000982528    -0.000000397978    0.010562853932    0.015533736490    0.000000429243    0.000001291249
            -0.000000982528    -0.000000397978    0.038847034113    0.010022204797    -0.000002836206    -0.000002587970    0.007700885452    0.020435217184
            0.010562828387    0.015533750232    -0.000002836206    -0.000002587970    0.042561499022    0.006176548458    -0.000000937091    -0.000000302863
            0.000000429243    0.000001291249    0.007700982704    0.020435211525    -0.000000937091    -0.000000302863    0.038668944849    0.009969894871
0.075     0.050824107921    0.000958586417    -0.000001331305    -0.000000217498    0.020318131522    0.017363072507    0.000001053879    0.000001751991
            -0.000001331305    -0.000000217498    0.042439222008    0.009920222198    -0.000004431100    -0.000002766752    0.014785332593    0.027177837357
            0.020318125456    0.017363076527    -0.000004431100    -0.000002766752    0.050656883648    0.000734133428    -0.000001228474    -0.000000092626
            0.000001053879    0.000001751991    0.014785328320    0.027177838543    -0.000001228474    -0.000000092626    0.042159103026    0.009928816088
0.100     0.056841267885    -0.009401315103    -0.000001605570    0.000000111116    0.030154532193    0.013807724355    0.000001866258    0.000001997355
            -0.000001605570    0.000000111116    0.044313730930    0.008235048592    -0.000006084275    -0.000002346176    0.022501118255    0.030841053170
            0.030154532193    0.013807724355    -0.000006084275    -0.000002346176    0.056645922316    -0.009647083775    -0.000001425719    0.000000238885
            0.000001866258    0.000001997355    0.022501092495    0.030841060822    -0.000001425720    0.000000238885    0.043953124226    0.008373631980
0.125     0.058320058083    -0.023641746751    -0.000001765849    0.000000557384    0.037472366529    0.005277337431    0.000002802939    0.000001978022
            -0.000001765849    0.000000557384    0.043744463453    0.005935602048    -0.000007639069    -0.000001340064    0.029473537190    0.031706437342
            0.037472366520    0.005277337496    -0.000007639069    -0.000001340064    0.058123913040    -0.023894221505    -0.000001503512    0.000000648200
            0.000002802939    0.000001978022    0.029473537190    0.031706437342    -0.000001503512    0.000000648200    0.043365152502    0.006256137611
0.150     0.053445220040    -0.039538659845    -0.000001784967    0.000001076870    0.040089261823    -0.006705981572    0.000003792059    0.000001657399
            -0.000001784967    0.000001076870    0.040679849085    0.004390030911    -0.000008962000    0.000000191738    0.034615815402    0.030619189442
            0.040089261823    -0.006705981572    -0.000008962000    0.000000191738    0.053285439844    -0.039801287696    -0.000001456902    0.000001087873
            0.000003792059    0.000001657399    0.034615815402    0.030619189442    -0.000001456902    0.000001087873    0.040362615396    0.004908727966
0.175     0.041499802566    -0.054170354198    -0.000001644500    0.000001630262    0.036644022136    -0.019760742467    0.000004754580    0.000001016172
            -0.000001644500    0.000001630262    0.035536446008    0.004890293565    -0.000009931905    0.000002200666    0.037376341087    0.028819987953
            0.036644022136    -0.019760742467    -0.000009931905    0.000002200666    0.041409351761    -0.054469627839    -0.000001292560    0.000001530945
            0.000004754580    0.000001016172    0.037376341087    0.028819987953    -0.000001292560    0.000001530945    0.035370096568    0.005578902969
0.200     0.023100971796    -0.064393689571    -0.000001332965    0.000002174531    0.026922815125    -0.031056899463    0.000005603999    0.000000050133
            -0.000001332965    0.000002174531    0.029365220327    0.008498209045    -0.000010425894    0.000004623526    0.037847376148    0.027663275195
            0.026922815125    -0.031056899463    -0.000010425894    0.000004623526    0.023097293446    -0.064774705454    -0.000001012623    0.000001962200
            0.000005603999    0.000000050133    0.037847376148    0.027663275195    -0.000001012623    0.000001962200    0.029419372153    0.009284779134
0.225     0.000227816536    -0.067442435226    -0.000000844146    0.000002662285    0.011974933052    -0.037830846909    0.000006250092    -0.000001225538
            -0.000000844146    0.000002662285    0.023691856381    0.015725805438    -0.000010302213    0.000007372345    0.036756547749    0.028304191991
            0.011974933052    -0.037830846909    -0.000010302213    0.000007372345    0.000303132715    -0.067960455953    -0.000000604749    0.000002369153
            0.000006250092    -0.000001225538    0.036756547749    0.028304191991    -0.000000604749    0.000002369153    0.023995951206    0.016508107680
0.250     -0.023989998487    -0.061526849040    -0.000000183149    0.000003037790    -0.005987651364    -0.037937783374    0.000006597440    -0.000002773003
            -0.000000183149    0.000003037790    0.020226674116    0.026363416942    -0.000009417033    0.000010301931    0.035321302373    0.031428043550
            -0.005987651364    -0.037937783374    -0.000009417033    0.000010301931    -0.023872811166    -0.062233390093    -0.000000044197    0.000002720659
            0.000006597440    -0.000002773003    0.035321302373    0.031428043550    -0.000000044197    0.000002720659    0.020757333403    0.027031474867
0.275     -0.045770681857    -0.046278779636    0.000000627497    0.000003238703    -0.023931043405    -0.030320165506    0.000006554345    -0.000004526955
            0.000000627497    0.000003238703    0.020511984483    0.039407034578    -0.000007649573    0.000013190241    0.034972134132    0.037048860596
            -0.023931043405    -0.030320165506    -0.000007649573    0.000013190241    -0.045675497747    -0.047206849097    0.000000688493    0.000002956177
            0.000006554345    -0.000004526955    0.034972134132    0.037048860596    0.000000688493    0.000002956177    0.021193480090    0.039869631898
0.300     -0.061339830856    -0.022977510210    0.000001537471    0.000003203938    -0.038537452411    -0.015306386203    0.000006037546    -0.000006387944
            0.000001537471    0.000003203938    0.025556585741    0.053202365005    -0.000004959204    0.000015743820    0.037011021438    0.044483794881
            -0.038537452411    -0.015306386203    -0.000004959204    0.000015743820    -0.061347459562    -0.024128543932    0.000001579985    0.000002985076
            0.000006037546    -0.000006387944    0.037011021438    0.044483794881    0.000001579985    0.000002985076    0.026274265861    0.053412075117
0.325     -0.067646992348    0.005565993163    0.000002467669    0.000002889941    -0.046831243137    0.005368387307    0.000004990624    -0.000008223616
            0.000002467669    0.000002889941    0.035562642348    0.065726716415    -0.000001425191    0.000017634580    0.042282813216    0.052484673006
            -0.046831243137    0.005368387307    -0.000001425191    0.000017634580    -0.067838339713    0.004229538186    0.000002562770    0.000002714206
            0.000004990624    -0.000008223616    0.042282813216    0.052484673006    0.000002562770    0.000002714206    0.036187546823    0.065695358380
0.350     -0.062986916195    0.035421756632    0.000003318995    0.000002287928    -0.046769475428    0.028824356425    0.000003398553    -0.000009871477
            0.000003318995    0.000002287928    0.049826442092    0.075012825238    0.000002733676    0.000018571773    0.050971442321    0.059531930839
            -0.046769475428    0.028824356425    0.000002733676    0.000018571773    -0.063424265212    0.033974976882    0.000003512401    0.000002081918
            0.000003398553    -0.000009871477    0.050971442321    0.059531930839    0.000003512401    0.000002081918    0.050244626698    0.074812518409
0.375     -0.047359932409    0.062200500900    0.000003994482    0.000001432280    -0.037638624899    0.051533718403    0.000001305627    -0.000011162038
            0.000003994482    0.000001432280    0.066846500464    0.079541622224    0.000007190693    0.000018363801    0.062550898697    0.064164026415
            -0.037638624899    0.051533718403    0.000007190693    0.000018363801    -0.048070446658    0.060745581674    0.000004274815    0.000001093755
            0.000001305627    -0.000011162038    0.062550898697    0.064164026415    0.000004274815    0.000001093755    0.066986003945    0.079293286624
0.400     -0.022525926367    0.081799376853    0.000004421243    0.000000393335    -0.020201275995    0.069934993200    -0.000001181776    -0.000011941281
            0.000004421243    0.000000393335    0.084612066995    0.078560013910    0.000011572568    0.000016964501    0.075913809401    0.065291456301
            -0.020201275995    0.069934993200    0.000011572568    0.000016964501    -0.023490509648    0.080448382778    0.000004704481    -0.000000169626
            -0.000001181776    -0.000011941281    0.075913809401    0.065291456301    0.000004704481    -0.000000169626    0.084462097678    0.078409622233
0.425     0.008272014848    0.091074173490    0.000004564462    -0.000000743354    0.003438014509    0.081013715552    -0.000003908214    -0.000012104462
            0.000004564462    -0.000000743354    0.100980334415    0.072201136220    0.000015530020    0.000014465295    0.089591986886    0.062384812172
            0.003438014509    0.081013715552    0.000015530021    0.000014465295    0.007120743486    0.089928882363    0.000004707647    -0.000001566221
            -0.000003908214    -0.000012104462    0.089591986886    0.062384812172    0.000004707647    -0.000001566221    0.100597147707    0.072290358644
0.450     0.040806880391    0.088332144877    0.000004422429    -0.000001899326    0.030166191520    0.082768130434    -0.000006695256    -0.000011606513
            0.000004422429    -0.000001899326    0.114060489002    0.061446138276    0.000018794786    0.000011063160    0.102033451780    0.055560816188
            0.030166191520    0.082768130434    0.000018794786    0.000011063160    0.039578261465    0.087462949988    0.000004260058    -0.000002928571
            -0.000006695256    -0.000011606513    0.102033451780    0.055560816188    0.000004260058    -0.000002928571    0.113559338823    0.061884217535
0.475     0.070489132149    0.073565870885    0.000004011232    -0.000003015926    0.056315147128    0.074479451853    -0.000009375551    -0.000010466118
            0.000004011232    -0.000003015926    0.122509680106    0.047930312720    0.000021199250    0.000007000614    0.111847827188    0.045542277392
            0.056315147128    0.074479451853    0.000021199250    0.000007000614    0.069319860125    0.072996942136    0.000003411888    -0.000004100470
            -0.000009375551    -0.000010466118    0.111847827188    0.045542277392    0.000003411888    -0.000004100470    0.122048273956    0.048771323759
0.500     0.093001623790    0.048459559215    0.000003345122    -0.000004051300    0.078157739075    0.056820295300    -0.000011812060    -0.000008741629
            0.000003345122    -0.000004051300    0.125739863065    0.033678967747    0.000022672542    0.000002521943    0.118033688165    0.033556855059
            0.078157739075    0.056820295300    0.000022672542    0.000002521943    0.092037035178    0.048158070775    0.000002265194    -0.000004966775
            -0.000011812060    -0.000008741629    0.118033688165    0.033556855059    0.000002265194    -0.000004966775    0.125492164606    0.034906400331
0.525     0.104871854302    0.016180278079    0.000002428294    -0.000004966216    0.092383182563    0.031791049017    -0.000013909385    -0.000006508754
            0.000002428294    -0.000004966216    0.123995989424    0.020791481634    0.000023208029    -0.000002166944    0.120136936893    0.021157091458
            0.092383182563    0.031791049017    0.000023208029    -0.000002166944    0.104242913665    0.016054835239    0.000000951960    -0.000005471051
            -0.000013909385    -0.000006508754    0.120136936893    0.021157091458    0.000000951960    -0.000005471051    0.124122680010    0.022315882932
0.550     0.103950692153    -0.018989334403    0.000001257900    -0.000005706588    0.096550600748    0.002528168317    -0.000015597562    -0.000003834818
            0.000001257900    -0.000005706588    0.118346400975    0.011127601608    0.000022832428    -0.000006906929    0.118374277209    0.010000292784
            0.096550600748    0.002528168317    0.000022832428    -0.000006906929    0.103750916599    -0.019083297139    -0.000000400770    -0.000005615560
            -0.000015597562    -0.000003834818    0.118374277209    0.010000292784    -0.000000400770    -0.000005615560    0.118963957572    0.012794128606
0.575     0.089753128893    -0.052158030146    -0.000000157731    -0.000006194722    0.089463423673    -0.027030404134    -0.000016816914    -0.000000771308
            -0.000000157731    -0.000006194722    0.110549197202    0.005996107119    0.000021564231    -0.000011578588    0.113651550571    0.001562440657
            0.089463423673    -0.027030404134    0.000021564231    -0.000011578588    0.090017869800    -0.052403037133    -0.000001695241    -0.000005453186
            -0.000016816914    -0.000000771308    0.113651550571    0.001562440657    -0.000001695241    -0.000005453186    0.111703764081    0.007605941303
0.600     0.063640170447    -0.078450572316    -0.000001778775    -0.000006331869    0.071459397814    -0.052622642647    -0.000017489316    0.000002639440
            -0.000001778775    -0.000006331869    0.102818656661    0.005888710174    0.000019397039    -0.000016075017    0.107485289388    -0.003159987650
            0.071459397814    -0.052622642647    0.000019397039    -0.000016075017    0.064330108068    -0.079043187094    -0.000002885660    -0.000005056854
            -0.000017489316    0.000002639440    0.107485289388    -0.003159987650    -0.000002885660    -0.000005056854    0.104469133665    0.007231762823
0.625     0.028770888767    -0.093700460200    -0.000003515716    -0.000006018701    0.044511997643    -0.070257815817    -0.000017511669    0.000006343378
            -0.000003515716    -0.000006018701    0.097453482258    0.010302762712    0.000016292483    -0.000020258964    0.101747905170    -0.003927284777
            0.044511997643    -0.070257815817    0.000016292483    -0.000020258964    0.029766556808    -0.094821115240    -0.000003978883    -0.000004489069
            -0.000017511669    0.000006343378    0.101747905170    -0.003927284777    -0.000003978883    -0.000004489069    0.099469318016    0.011196619122
0.650     -0.010221863837    -0.095147443467    -0.000005224336    -0.000005181136    0.012088903235    -0.076886595114    -0.000016752938    0.000010244026
            -0.000005224336    -0.000005181136    0.096390329709    0.017734884018    0.000012215927    -0.000023929032    0.098299865950    -0.001392540961
            0.012088903235    -0.076886595114    0.000012215927    -0.000023929032    -0.009111964059    -0.096925545607    -0.000005012893    -0.000003761452
            -0.000016752938    0.000010244026    0.098299865949    -0.001392540978    -0.000005012893    -0.000003761452    0.098569208055    0.018064819581
0.675     -0.047852596990    -0.081986091420    -0.000006716991    -0.000003804633    -0.021293022484    -0.070986798968    -0.000015081775    0.000014179720
            -0.000006716991    -0.000003804633    0.100742020040    0.025901455924    0.000007190385    -0.000026803133    0.098531036732    0.002962668902
            -0.021293022484    -0.070986798968    0.000007190385    -0.000026803133    -0.046869758505    -0.084470773854    -0.000006011965    -0.000002827907
            -0.000015081775    0.000014179720    0.098531036732    0.002962668902    -0.000006011965    -0.000002827907    0.102845024172    0.025649196990
0.700     -0.078645393807    -0.055629224366    -0.000007791282    -0.000001956973    -0.050781424982    -0.052940377167    -0.000012400712    0.000017906445
            -0.000007791282    -0.000001956973    0.110491192465    0.032188068893    0.000001362528    -0.000028559752    0.103008928984    0.007138628754
            -0.050781424982    -0.052940377167    0.000001362528    -0.000028559752    -0.078043785144    -0.058770626140    -0.000006936823    -0.000001602122
            -0.000012400712    0.000017906445    0.103008928984    0.007138628754    -0.000006936823    -0.000001602122    0.112290370117    0.031441294213
0.725     -0.098061476301    -0.019555089501    -0.000008276762    0.000000200489    -0.072018135895    -0.025031318350    -0.000008698973    0.000021115207
            -0.000008276762    0.000000200489    0.124431968904    0.034221545010    -0.000004968009    -0.000028909510    0.111306221938    0.009080045893
            -0.072018135895    -0.025031318350    -0.000004968009    -0.000028909510    -0.098066334082    -0.023203171105    -0.000007667566    -0.000000019592
            -0.000008698973    0.000021115207    0.111306221938    0.009080045893    -0.000007667566    -0.000000019592    0.125757237671    0.033158447261
0.750     -0.103288164602    0.021260091657    -0.000008082641    0.000002435078    -0.081905335531    0.008934854025    -0.000004090887    0.000023467509
            -0.000008082641    0.000002435078    0.140427120298    0.030392918580    -0.000011375983    -0.000027690518    0.122125986893    0.007149484182
            -0.081905335531    0.008934854025    -0.000011375983    -0.000027690518    -0.104054529752    0.017336444628    -0.000008024596    0.000001908406
            -0.000004090887    0.000023467509    0.122125986893    0.007149484182    -0.000008024596    0.000001908406    0.141200488391    0.029248581406
0.775     -0.093673638755    0.061197115693    -0.000007234550    0.000004491275    -0.079079310059    0.044313034198    0.000001168400    0.000024670609
            -0.000007234550    0.000004491275    0.155866004200    0.020178058303    -0.000017389699    -0.000024915657    0.133602927853    0.000454227663
            -0.079079310059    0.044313034198    -0.000017389699    -0.000024915657    -0.095259511292    0.057276458399    -0.000007835159    0.000004063892
            0.000001168400    0.000024670609    0.133602927853    0.000454227663    -0.000007835159    0.000004063892    0.156115890371    0.019197536629
