# GHz S RI R 45
0.000     0.030189086378    0.001445396498    0.000000197055    0.000000397704    0.000960226013    0.001468572939    0.000000211252    0.000000415591
            0.000000197055    0.000000397704    0.029155880913    0.001576692513    0.000000205578    0.000000411835    0.000908966254    0.001637554451
            0.000960226144    0.001468572973    0.000000205578    0.000000411835    0.030150173291    0.001434233183    0.000000220511    0.000000431046
            0.000000211252    0.000000415591    0.000908966445    0.001637554459    0.000000220511    0.000000431046    0.029094355971    0.001588512158
0.025     0.036010397442    0.008482964898    0.000000361081    0.000000874920    0.003209801750    0.011672162737    0.000000382773    0.000000914159
            0.000000361081    0.000000874918    0.034098542434    0.007940716179    0.000000375028    0.000000907011    0.002681209671    0.010997542017
            0.003208428331    0.011672165946    0.000000375029    0.000000907010    0.035923945702    0.008439442317    0.000000397927    0.000000949323
            0.000000382774    0.000000914158    0.002681464449    0.010996967308    0.000000397927    0.000000949325    0.034011804985    0.007896463497
0.050     0.041944714240    0.010143705821    0.000000656299    0.000001561155    0.009432681823    0.021123743294    0.000000691127    0.000001631922
            0.000000656299    0.000001561155    0.038847034113    0.010022204797    0.000000680511    0.000001619510    0.007700885452    0.020435217184
            0.009432687758    0.021123648649    0.000000680511    0.000001619510    0.041792564004    0.010103230901    0.000000717367    0.000001695994
            0.000000691127    0.000001631922    0.007700982704    0.020435211525    0.000000717367    0.000001695994    0.038668944849    0.009969894871
0.075     0.046627778020    0.008614388915    0.000000997613    0.000002155789    0.017879984881    0.026844223512    0.000001048619    0.000002254476
            0.000000997613    0.000002155789    0.042439222008    0.009920222198    0.000001034228    0.000002237562    0.014785332593    0.027177837357
            0.017879989394    0.026844218102    0.000001034228    0.000002237562    0.046424276155    0.008631030006    0.000001088301    0.000002344471
            0.000001048619    0.000002254476    0.014785328320    0.027177838543    0.000001088301    0.000002344471    0.042159103026    0.009928816088
0.100     0.048867410469    0.004585870355    0.000001371403    0.000002692550    0.026436741859    0.028440163223    0.000001441397    0.000002816738
            0.000001371403    0.000002692550    0.044313730930    0.008235048592    0.000001422639    0.000002795928    0.022501118255    0.030841053170
            0.026436764055    0.028440156243    0.000001422639    0.000002795928    0.048650928478    0.004700252595    0.000001497032    0.000002930751
            0.000001441397    0.000002816738    0.022501092495    0.030841060822    0.000001497032    0.000002930751    0.043953124226    0.008373631980
0.125     0.047401453065    -0.000502171944    0.000001774760    0.000003198258    0.033113344716    0.026560380307    0.000001866734    0.000003345966
            0.000001774760    0.000003198258    0.043744463453    0.005935602048    0.000001842974    0.000003321589    0.029473537190    0.031706437342
            0.033113344716    0.026560380307    0.000001842974    0.000003321589    0.047229775058    -0.000269332572    0.000001941015    0.000003482197
            0.000001866734    0.000003345966    0.029473537190    0.031706437342    0.000001941015    0.000003482197    0.043365152502    0.006256137611
0.150     0.041895140582    -0.004546205861    0.000002221027    0.000003701026    0.036482365610    0.022729728051    0.000002338306    0.000003870485
            0.000002221027    0.000003701026    0.040679849085    0.004390030911    0.000002308626    0.000003842705    0.034615815402    0.030619189442
            0.036482365610    0.022729728051    0.000002308626    0.000003842705    0.041848926665    -0.004224446961    0.000002433998    0.000004027143
            0.000002338306    0.000003870485    0.034615815402    0.030619189442    0.000002433998    0.000004027143    0.040362615396    0.004908727966
0.175     0.032955325869    -0.005410740761    0.000002743267    0.000004214127    0.036024227580    0.018997903619    0.000002889934    0.000004403463
            0.000002743267    0.000004214127    0.035536446008    0.004890293565    0.000002852950    0.000004372495    0.037376341087    0.028819987953
            0.036024227580    0.018997903619    0.000002852950    0.000004372495    0.033096411935    -0.005065304523    0.000003010022    0.000004578609
            0.000002889934    0.000004403463    0.037376341087    0.028819987953    0.000003010022    0.000004578609    0.035370096568    0.005578902969
0.200     0.022266608036    -0.001326917450    0.000003385537    0.000004730028    0.032299874457    0.017470330590    0.000003566492    0.000004936631
            0.000003385537    0.000004730028    0.029365220327    0.008498209045    0.000003520294    0.000004903162    0.037847376148    0.027663275195
            0.032299874457    0.017470330590    0.000003520294    0.000004903162    0.022618715529    -0.001056260545    0.000003714275    0.000005128002
            0.000003566492    0.000004936631    0.037847376148    0.027663275195    0.000003714275    0.000005128002    0.029419372153    0.009284779134
0.225     0.012339064868    0.008552186804    0.000004191042    0.000005209411    0.026888636308    0.019762167253    0.000004411712    0.000005429049
            0.000004191042    0.000005209411    0.023691856381    0.015725805438    0.000004354106    0.000005394678    0.036756547749    0.028304191991
            0.026888636308    0.019762167253    0.000004354106    0.000005394678    0.012872596298    0.008637297314    0.000004590589    0.000005633657
            0.000004411712    0.000005429049    0.036756547749    0.028304191991    0.000004590589    0.000005633657    0.023995951206    0.016508107680
0.250     0.005996549521    0.023805012953    0.000005183558    0.000005583897    0.022057825325    0.026531915555    0.000005449000    0.000005810380
            0.000005183558    0.000005583897    0.020226674116    0.026363416942    0.000005378132    0.000005777858    0.035321302373    0.031428043550
            0.022057825325    0.026531915555    0.000005378132    0.000005777858    0.006624684885    0.023610257118    0.000005662271    0.000006024397
            0.000005449000    0.000005810380    0.035321302373    0.031428043550    0.000005662271    0.000006024397    0.020757333403    0.027031474867
0.275     0.005714085502    0.042632475399    0.000006348062    0.000005764594    0.020200795789    0.037207455158    0.000006661922    0.000005989749
            0.000006348062    0.000005764594    0.020511984483    0.039407034578    0.000006576896    0.000005962785    0.034972134132    0.037048860596
            0.020200795789    0.037207455158    0.000006576896    0.000005962785    0.006304707364    0.042109612163    0.000006912371    0.000006208420
            0.000006661922    0.000005989749    0.034972134132    0.037048860596    0.000006912371    0.000006208420    0.021193480090    0.039869631898
0.300     0.012943234566    0.062154032697    0.000007619214    0.000005669309    0.023191244699    0.050061454110    0.000007982822    0.000005883712
            0.000007619214    0.000005669309    0.025556585741    0.053202365005    0.000007884202    0.000005866444    0.037011021438    0.044483794881
            0.023191244699    0.050061454110    0.000007884202    0.000005866444    0.013346311496    0.061321381853    0.000008272352    0.000006101459
            0.000007982822    0.000005883712    0.037011021438    0.044483794881    0.000008272352    0.000006101459    0.026274265861    0.053412075117
0.325     0.027658792725    0.079003020161    0.000008886231    0.000005251418    0.031854142512    0.062611819661    0.000009298153    0.000005445433
            0.000008886231    0.000005251418    0.035562642348    0.065726716415    0.000009188071    0.000005441655    0.042282813216    0.052484673006
            0.031854142512    0.062611819661    0.000009188071    0.000005441655    0.027740539861    0.077949170491    0.000009627467    0.000005656201
            0.000009298153    0.000005445433    0.042282813216    0.052484673006    0.000009627467    0.000005656201    0.036187546823    0.065695358380
0.350     0.048284530360    0.090119938552    0.000010020120    0.000004526509    0.045744833479    0.072252128875    0.000010476275    0.000004691492
            0.000010020120    0.000004526509    0.049826442092    0.075012825238    0.000010358126    0.000004703931    0.050971442321    0.059531930839
            0.045744833479    0.072252128875    0.000010358126    0.000004703931    0.047960530301    0.088989966890    0.000010844738    0.000004889133
            0.000010476275    0.000004691492    0.050971442321    0.059531930839    0.000010844738    0.000004889133    0.050244626698    0.074812518409
0.375     0.072024830690    0.093431441825    0.000010909879    0.000003574300    0.063271479136    0.076857708739    0.000011404316    0.000003703411
            0.000010909879    0.000003574300    0.066846500464    0.079541622224    0.000011281991    0.000003733276    0.062550898697    0.064164026415
            0.063271479136    0.076857708739    0.000011281991    0.000003733276    0.071281027452    0.092398196192    0.000011809982    0.000003882195
            0.000011404316    0.000003703411    0.062550898697    0.064164026415    0.000011809982    0.000003882195    0.066986003945    0.079293286624
0.400     0.095471962261    0.088277242335    0.000011497512    0.000002520784    0.082089284275    0.075227942053    0.000012023003    0.000002609607
            0.000011497512    0.000002520784    0.084612066995    0.078560013910    0.000011900534    0.000002656637    0.075913809401    0.065291456301
            0.082089284275    0.075227942053    0.000011900534    0.000002656637    0.094371714500    0.087507316875    0.000012462772    0.000002764549
            0.000012023003    0.000002609607    0.075913809401    0.065291456301    0.000012462772    0.000002764549    0.084462097678    0.078409622233
0.425     0.115277204565    0.075470327758    0.000011791276    0.000001502578    0.099578326833    0.067254382676    0.000012340669    0.000001549299
            0.000011791276    0.000001502578    0.100980334415    0.072201136220    0.000012221209    0.000001611760    0.089591986886    0.062384812172
            0.099578326833    0.067254382676    0.000012221209    0.000001611760    0.113950588520    0.075091363653    0.000012810643    0.000001676531
            0.000012340669    0.000001549299    0.089591986886    0.062384812172    0.000012810643    0.000001676531    0.100597147707    0.072290358644
0.450     0.128732482773    0.057097719395    0.000011861793    0.000000633806    0.113302774465    0.053897506639    0.000012428671    0.000000638973
            0.000011861793    0.000000633806    0.114060489002    0.061446138276    0.000012314332    0.000000714184    0.102033451780    0.055560816188
            0.113302774465    0.053897506639    0.000012314332    0.000000714184    0.127354851560    0.057172723432    0.000012924770    0.000000735991
            0.000012428671    0.000000638973    0.102033451780    0.055560816188    0.000012924770    0.000000735991    0.113559338823    0.061884217535
0.475     0.134169420968    0.036139348100    0.000011819303    -0.000000018214    0.121368701791    0.037015701606    0.000012399388    -0.000000052179
            0.000011819303    -0.000000018214    0.122509680106    0.047930312720    0.000012290399    0.000000032595    0.111847827188    0.045542277392
            0.121368701791    0.037015701606    0.000012290399    0.000000032595    0.132931841814    0.036653523398    0.000012917626    0.000000013358
            0.000012399388    -0.000000052179    0.111847827188    0.045542277392    0.000012917626    0.000000013358    0.122048273956    0.048771323759
0.500     0.131205930466    0.016031889696    0.000011790293    -0.000000441374    0.122724850303    0.019136252280    0.000012381881    -0.000000511316
            0.000011790293    -0.000000441374    0.125739863065    0.033678967747    0.000012276838    -0.000000419826    0.118033688165    0.033556855059
            0.122724850303    0.019136252280    0.000012276838    -0.000000419826    0.130281894853    0.016888761276    0.000012919029    -0.000000477488
            0.000012381881    -0.000000511316    0.118033688165    0.033556855059    0.000012919029    -0.000000477488    0.125492164606    0.034906400331
0.525     0.120847341057    0.000183253527    0.000011892820    -0.000000676975    0.117394785518    0.003130960158    0.000012497248    -0.000000780391
            0.000011892820    -0.000000676975    0.123995989424    0.020791481634    0.000012392821    -0.000000683813    0.120136936893    0.021157091458
            0.117394785518    0.003130960158    0.000012392821    -0.000000683813    0.120359553430    0.001215412353    0.000013051156    -0.000000777999
            0.000012497248    -0.000000780391    0.120136936893    0.021157091458    0.000013051156    -0.000000777999    0.124122680010    0.022315882932
0.550     0.105472742716    -0.008547869206    0.000012222037    -0.000000811825    0.106651518849    -0.008208909688    0.000012843197    -0.000000948731
            0.000012222037    -0.000000811825    0.118346400975    0.011127601608    0.000012734771    -0.000000846201    0.118374277209    0.010000292784
            0.106651518849    -0.008208909688    0.000012734771    -0.000000846201    0.105462005797    -0.007554735161    0.000013412812    -0.000000977496
            0.000012843197    -0.000000948731    0.118374277209    0.010000292784    0.000013412812    -0.000000977496    0.118963957572    0.012794128606
0.575     0.088618253244    -0.008428943092    0.000012834776    -0.000000969603    0.093005610374    -0.012747587123    0.000013477544    -0.000001143961
            0.000012834776    -0.000000969603    0.110549197202    0.005996107119    0.000013360898    -0.000001031434    0.113651550571    0.001562440657
            0.093005610374    -0.012747587123    0.000013360898    -0.000001031434    0.089024626768    -0.007697643386    0.000014063042    -0.000001204270
            0.000013477544    -0.000001143961    0.113651550571    0.001562440657    0.000014063042    -0.000001204270    0.111703764081    0.007605941303
0.600     0.074489130179    0.000601785211    0.000013737767    -0.000001301327    0.079910277584    -0.009625072308    0.000014405578    -0.000001521618
            0.000013737767    -0.000001301327    0.102818656661    0.005888710174    0.000014278582    -0.000001391830    0.107485289388    -0.003159987650
            0.079910277584    -0.009625072308    0.000014278582    -0.000001391830    0.075150441743    0.000889268914    0.000015007570    -0.000001614941
            0.000014405578    -0.000001521618    0.107485289388    -0.003159987650    0.000015007570    -0.000001614941    0.104469133665    0.007231762823
0.625     0.067123110628    0.016606666864    0.000014867881    -0.000001967790    0.071058294688    0.000256601969    0.000015559979    -0.000002246063
            0.000014867881    -0.000001967790    0.097453482258    0.010302762712    0.000015424571    -0.000002089914    0.101747905170    -0.003927284777
            0.071058294688    0.000256601969    0.000015424571    -0.000002089914    0.067799858190    0.016357543309    0.000016179132    -0.000002375383
            0.000015559979    -0.000002246063    0.101747905170    -0.003927284777    0.000016179132    -0.000002375383    0.099469318016    0.011196619122
0.650     0.069359720202    0.035808160745    0.000016080578    -0.000003107072    0.069416895124    0.014202528253    0.000016790377    -0.000003455982
            0.000016080578    -0.000003107072    0.096390329709    0.017734884018    0.000016653763    -0.000003265248    0.098299865950    -0.001392540961
            0.069416895124    0.014202528253    0.000016653763    -0.000003265249    0.069785122990    0.035052319295    0.000017426595    -0.000003625631
            0.000016790377    -0.000003455982    0.098299865949    -0.001392540978    0.000017426595    -0.000003625631    0.098569208055    0.018064819581
0.675     0.081943794759    0.053365648692    0.000017154949    -0.000004784492    0.076299545068    0.028293917171    0.000017870045    -0.000005214281
            0.000017154949    -0.000004784492    0.100742020040    0.025901455924    0.000017743331    -0.000004984444    0.098531036732    0.002962668902
            0.076299545068    0.028293917171    0.000017743331    -0.000004984444    0.081889313059    0.052257775238    0.000018521944    -0.000005429695
            0.000017870045    -0.000005214281    0.098531036732    0.002962668902    0.000018521944    -0.000005429695    0.102845024172    0.025649196990
0.700     0.103217671169    0.064598313003    0.000017838603    -0.000006947972    0.090949987372    0.038444981453    0.000018543292    -0.000007463780
            0.000017838603    -0.000006947972    0.110491192465    0.032188068893    0.000018439050    -0.000007195964    0.103008928984    0.007138628754
            0.090949987372    0.038444981453    0.000018439050    -0.000007195964    0.102548802837    0.063385268765    0.000019207480    -0.000007731029
            0.000018543292    -0.000007463780    0.103008928984    0.007138628754    0.000019207480    -0.000007731029    0.112290370117    0.031441294213
0.725     0.129552464605    0.066177887368    0.000017918539    -0.000009414107    0.110796287463    0.041485348824    0.000018596213    -0.000010015613
            0.000017918539    -0.000009414107    0.124431968904    0.034221545010    0.000018525334    -0.000009716166    0.111306221938    0.009080045893
            0.110796287463    0.041485348824    0.000018525334    -0.000009716166    0.128261620224    0.065141024144    0.000019267010    -0.000010340499
            0.000018596213    -0.000010015613    0.111306221938    0.009080045893    0.000019267010    -0.000010340499    0.125757237671    0.033158447261
0.750     0.156345141880    0.056826177575    0.000017293714    -0.000011907455    0.132254553515    0.035844568431    0.000017929644    -0.000012589475
            0.000017293714    -0.000011907455    0.140427120298    0.030392918580    0.000017898922    -0.000012268163    0.122125986893    0.007149484182
            0.132254553515    0.035844568431    0.000017898922    -0.000012268163    0.154547694589    0.056219464207    0.000018599182    -0.000012976666
            0.000017929644    -0.000012589475    0.122125986893    0.007149484182    0.000018599182    -0.000012976666    0.141200488391    0.029248581406
0.775     0.179093689992    0.037356998190    0.000016007858    -0.000014132490    0.151616187873    0.021652539001    0.000016589785    -0.000014886696
            0.000016007858    -0.000014132490    0.155866004200    0.020178058303    0.000016601637    -0.000014554063    0.133602927853    0.000454227663
            0.151616187873    0.021652539001    0.000016601637    -0.000014554063    0.176999602702    0.037358742965    0.000017248383    -0.000015338488
            0.000016589785    -0.000014886696    0.133602927853    0.000454227663    0.000017248383    -0.000015338488    0.156115890371    0.019197536629
0.800     0.194217109903    0.010229130390    0.000014235814    -0.000015852404    0.165738879890    0.000430887761    0.000014754663    -0.000016668423
            0.000014235814    -0.000015852404    0.168199235831    0.004182116378    0.000014807728    -0.000016334034    0.143718831280    -0.011035618291
