# GHz S RI R 45
0.000     0.030248355320    0.001557501392    0.000000423705    0.000000903689    0.001053969821    0.001633818772    0.000000438173    0.000000977779
            0.000000423796    0.000000903687    0.029155880913    0.001576692513    0.000000464274    0.000000980820    0.000908966254    0.001637554451
            0.001053969120    0.001633818748    0.000000464120    0.000000980822    0.030184201195    0.001544054911    0.000000469698    0.000001065185
            0.000000438260    0.000000977778    0.000908966445    0.001637554459    0.000000469629    0.000001065186    0.029094355971    0.001588512158
0.025     0.035799500334    0.008351104339    0.000000784592    0.000002031420    0.003192789213    0.011775886316    0.000000812769    0.000002174697
            0.000000784596    0.000002031417    0.034098542434    0.007940716179    0.000000869197    0.000002234127    0.002681209671    0.010997542017
            0.003193355526    0.011774893500    0.000000869190    0.000002234133    0.035738615127    0.008304783093    0.000000873254    0.000002368380
            0.000000812767    0.000002174694    0.002681464449    0.010996967308    0.000000873261    0.000002368396    0.034011804985    0.007896463497
0.050     0.041400997706    0.010234149482    0.000001489970    0.000003679614    0.009240020790    0.021509366131    0.000001534508    0.000003955974
            0.000001489970    0.000003679614    0.038847034113    0.010022204797    0.000001662555    0.000004034673    0.007700885452    0.020435217184
            0.009240084352    0.021509387803    0.000001662555    0.000004034673    0.041271275654    0.010167781427    0.000001650835    0.000004316210
            0.000001534508    0.000003955973    0.007700982704    0.020435211525    0.000001650835    0.000004316210    0.038668944849    0.009969894871
0.075     0.045797362581    0.009171498132    0.000002364600    0.000005093074    0.017551579091    0.027686187033    0.000002437457    0.000005519011
            0.000002364600    0.000005093074    0.042439222008    0.009920222198    0.000002646356    0.000005560008    0.014785332593    0.027177837357
            0.017551584511    0.027686185966    0.000002646356    0.000005560008    0.045616089629    0.009135426149    0.000002626904    0.000006034237
            0.000002437457    0.000005519011    0.014785328320    0.027177838543    0.000002626904    0.000006034237    0.042159103026    0.009928816088
0.100     0.047926623942    0.005835786642    0.000003342375    0.000006327511    0.026114871151    0.029903439584    0.000003471995    0.000006921218
            0.000003342375    0.000006327511    0.044313730930    0.008235048592    0.000003735501    0.000006866716    0.022501118255    0.030841053170
            0.026114870107    0.029903440496    0.000003735501    0.000006866716    0.047724135357    0.005868050088    0.000003753489    0.000007583057
            0.000003471995    0.000006921218    0.022501092495    0.030841060822    0.000003753489    0.000007583057    0.043953124226    0.008373631980
0.125     0.046699463802    0.001621061760    0.000004391501    0.000007445223    0.033034749534    0.028745367196    0.000004622265    0.000008215805
            0.000004391501    0.000007445223    0.043744463453    0.005935602048    0.000004880677    0.000008027130    0.029473537190    0.031706437342
            0.033034749534    0.028745367196    0.000004880677    0.000008027130    0.046526831597    0.001734551708    0.000005016734    0.000009015839
            0.000004622265    0.000008215805    0.029473537190    0.031706437342    0.000005016734    0.000009015839    0.043365152502    0.006256137611
0.150     0.041730886523    -0.001612583881    0.000005524672    0.000008527641    0.036950323553    0.025634701356    0.000005911319    0.000009467473
            0.000005524672    0.000008527641    0.040679849085    0.004390030911    0.000006084783    0.000009142146    0.034615815402    0.030619189442
            0.036950323553    0.025634701356    0.000006084783    0.000009142146    0.041653666971    -0.001431858263    0.000006441265    0.000010394039
            0.000005911319    0.000009467473    0.034615815402    0.030619189442    0.000006441265    0.000010394039    0.040362615396    0.004908727966
0.175     0.033690907286    -0.001827527073    0.000006814976    0.000009622470    0.037351869865    0.022480807188    0.000007414056    0.000010701620
            0.000006814976    0.000009622470    0.035536446008    0.004890293565    0.000007423314    0.000010281368    0.037376341087    0.028819987953
            0.037351869865    0.022480807188    0.000007423314    0.000010281368    0.033761838269    -0.001635898413    0.000008102723    0.000011740102
            0.000007414056    0.000010701620    0.037376341087    0.028819987953    0.000008102723    0.000011740102    0.035370096568    0.005578902969
0.200     0.024203784336    0.002578156270    0.000008371515    0.000010727910    0.034743468597    0.021247885676    0.000009230640    0.000011893699
            0.000008371515    0.000010727910    0.029365220327    0.008498209045    0.000009020516    0.000011461961    0.037847376148    0.027663275195
            0.034743468597    0.021247885676    0.000009020516    0.000011461961    0.024441494549    0.002693672381    0.000010101979    0.000013025569
            0.000009230640    0.000011893699    0.037847376148    0.027663275195    0.000010101979    0.000013025569    0.029419372153    0.009284779134
0.225     0.015624569810    0.012317241670    0.000010310785    0.000011761820    0.030580690619    0.023439619932    0.000011457800    0.000012942714
            0.000010310785    0.000011761820    0.023691856381    0.015725805438    0.000011017840    0.000012609887    0.036756547749    0.028304191991
            0.030580690210    0.023439620466    0.000011017840    0.000012609887    0.015998466811    0.012259761238    0.000012535099    0.000014143430
            0.000011457800    0.000012942714    0.036756547749    0.028304191991    0.000012535099    0.000014143430    0.023995951206    0.016508107680
0.250     0.010559923305    0.026918355470    0.000012709781    0.000012562947    0.026956638649    0.029667096184    0.000014144397    0.000013678898
            0.000012709781    0.000012562947    0.020226674116    0.026363416942    0.000013520247    0.000013557625    0.035321302373    0.031428043550
            0.026956638649    0.029667096184    0.000013520247    0.000013557625    0.010988283137    0.026608801957    0.000015447678    0.000014917320
            0.000014144397    0.000013678898    0.035321302373    0.031428043550    0.000015447678    0.000014917320    0.020757333403    0.027031474867
0.275     0.011258298049    0.044641677605    0.000015552748    0.000012908288    0.026075748144    0.039398191331    0.000017243612    0.000013884195
            0.000015552748    0.000012908288    0.020511984483    0.039407034578    0.000016535732    0.000014060822    0.034972134132    0.037048860596
            0.026075748144    0.039398191331    0.000016535732    0.000014060822    0.011620101106    0.044045509163    0.000018787119    0.000015123037
            0.000017243612    0.000013884195    0.034972134132    0.037048860596    0.000018787119    0.000015123037    0.021193480090    0.039869631898
0.300     0.018991281436    0.062772232472    0.000018698281    0.000012578619    0.029656718379    0.051034559325    0.000020587769    0.000013358977
            0.000018698281    0.000012578619    0.025556585741    0.053202365005    0.000019934359    0.000013867087    0.037011021438    0.044483794881
            0.029656718379    0.051034559325    0.000019934359    0.000013867087    0.019152729706    0.061916390750    0.000022376868    0.000014556605
            0.000020587769    0.000013358977    0.037011021438    0.044483794881    0.000022376868    0.000014556605    0.026274265861    0.053412075117
0.325     0.033648835605    0.078178749284    0.000021882960    0.000011431475    0.038444391900    0.062283588884    0.000023898803    0.000011990642
            0.000021882960    0.000011431475    0.035562642348    0.065726716415    0.000023446922    0.000012796379    0.042282813216    0.052484673006
            0.038444391900    0.062283588884    0.000023446922    0.000012796379    0.033495473043    0.077154296300    0.000025928001    0.000013104453
            0.000023898803    0.000011990642    0.042282813216    0.052484673006    0.000025928001    0.000013104453    0.036187546823    0.065695358380
0.350     0.053688719726    0.088052823412    0.000024784155    0.000009472219    0.052010490149    0.070744487634    0.000026855195    0.000009817769
            0.000024784155    0.000009472219    0.049826442092    0.075012825238    0.000026727535    0.000010820771    0.050971442321    0.059531930839
            0.052010490149    0.070744487634    0.000026727535    0.000010820771    0.053155301287    0.086998954276    0.000029108139    0.000010808929
            0.000026855195    0.000009817769    0.050971442321    0.059531930839    0.000029108139    0.000010808929    0.050244626698    0.074812518409
0.375     0.076455080678    0.090528730492    0.000027106681    0.000006867165    0.068866047769    0.074466589765    0.000029177168    0.000007035091
            0.000027106681    0.000006867165    0.066846500464    0.079541622224    0.000029443272    0.000008085762    0.062550898697    0.064164026415
            0.068866047769    0.074466589765    0.000029443272    0.000008085762    0.075544357528    0.089606336610    0.000031628872    0.000007872812
            0.000029177168    0.000007035091    0.062550898697    0.064164026415    0.000031628872    0.000007872812    0.066986003945    0.079293286624
0.400     0.098754761335    0.085073780647    0.000028672940    0.000003907436    0.086829821079    0.072361219274    0.000030713020    0.000003952033
            0.000028672940    0.000003907436    0.084612066995    0.078560013910    0.000031371758    0.000004879670    0.075913809401    0.065291456301
            0.086829821079    0.072361219274    0.000031371758    0.000004879670    0.097540934181    0.084431728019    0.000033334527    0.000004616274
            0.000030713020    0.000003952033    0.075913809401    0.065291456301    0.000033334527    0.000004616274    0.084462097678    0.078409622233
0.425     0.117485589009    0.072530465190    0.000029461473    0.000000926138    0.103472730182    0.064356826934    0.000031471801    0.000000907389
            0.000029461473    0.000000926138    0.100980334415    0.072201136220    0.000032447893    0.000001552215    0.089591986886    0.062384812172
            0.103472730182    0.064356826934    0.000032447893    0.000001552215    0.116102713904    0.072275042105    0.000034235392    0.000001389202
            0.000031471801    0.000000907389    0.089591986886    0.062384812172    0.000034235392    0.000001389202    0.100597147707    0.072290358644
0.450     0.130179756814    0.054916155903    0.000029605789    -0.000001783180    0.116550854070    0.051376801655    0.000031617229    -0.000001811936
            0.000029605789    -0.000001783180    0.114060489002    0.061446138276    0.000032771677    -0.000001568304    0.102033451780    0.055560816188
            0.116550854070    0.051376801655    0.000032771677    -0.000001568304    0.128800060475    0.055088789292    0.000034501109    -0.000001513386
            0.000031617229    -0.000001811936    0.102033451780    0.055560816188    0.000034501109    -0.000001513386    0.113559338823    0.061884217535
0.475     0.135372734589    0.035051523490    0.000029342503    -0.000004028136    0.124341084197    0.035171889774    0.000031412769    -0.000004032192
            0.000029342503    -0.000004028136    0.122509680106    0.047930312720    0.000032562942    -0.000004243371    0.111847827188    0.045542277392
            0.124341084197    0.035171889774    0.000032562942    -0.000004243371    0.134176348098    0.035617483461    0.000034403578    -0.000003913619
            0.000031412769    -0.000004032192    0.111847827188    0.045542277392    0.000034403578    -0.000003913619    0.122048273956    0.048771323759
0.500     0.132821957464    0.016136033271    0.000028959426    -0.000005742948    0.125923596326    0.018095119012    0.000031165265    -0.000005716449
            0.000028959426    -0.000005742948    0.125739863065    0.033678967747    0.000032113270    -0.000006356146    0.118033688165    0.033556855059
            0.125923596326    0.018095119012    0.000032113270    -0.000006356146    0.131964361031    0.016983336450    0.000034258295    -0.000005775450
            0.000031165265    -0.000005716449    0.118033688165    0.033556855059    0.000034258295    -0.000005775450    0.125492164606    0.034906400331
0.525     0.123575800835    0.001280020597    0.000028733835    -0.000006986254    0.121383583142    0.002784643693    0.000031159861    -0.000006961843
            0.000028733835    -0.000006986254    0.123995989424    0.020791481634    0.000031725773    -0.000007919583    0.120136936893    0.021157091458
            0.121383583142    0.002784643693    0.000031725773    -0.000007919583    0.123156787341    0.002232484671    0.000034357511    -0.000007200885
            0.000031159861    -0.000006961843    0.120136936893    0.021157091458    0.000034357511    -0.000007200885    0.124122680010    0.022315882932
0.550     0.109928138056    -0.006981636606    0.000028900436    -0.000007925722    0.111954394331    -0.008239965539    0.000031622036    -0.000007979705
            0.000028900436    -0.000007925722    0.118346400975    0.011127601608    0.000031679173    -0.000009069390    0.118374277209    0.010000292784
            0.111954394331    -0.008239965539    0.000031679173    -0.000009069390    0.109962695976    -0.006137981331    0.000034930615    -0.000008408687
            0.000031622036    -0.000007979705    0.118374277209    0.010000292784    0.000034930615    -0.000008408687    0.118963957572    0.012794128606
0.575     0.095176553104    -0.007207505148    0.000029613363    -0.000008818096    0.099972896953    -0.013103566013    0.000032675055    -0.000009068302
            0.000029613363    -0.000008818096    0.110549197202    0.005996107119    0.000032183534    -0.000010052118    0.113651550571    0.001562440657
            0.099972896953    -0.013103566013    0.000032183534    -0.000010052118    0.095580121736    -0.006685266579    0.000036101454    -0.000009706275
            0.000032675055    -0.000009068302    0.113651550571    0.001562440657    0.000036101454    -0.000009706275    0.111703764081    0.007605941303
0.600     0.083144367424    0.000488251617    0.000030920960    -0.000009991088    0.088585157130    -0.011121172307    0.000034315033    -0.000010582261
            0.000030920960    -0.000009991088    0.102818656661    0.005888710174    0.000033344517    -0.000011211538    0.107485289388    -0.003159987650
            0.088585157130    -0.011121172307    0.000033344517    -0.000011211538    0.083735558050    0.000526299974    0.000037863017    -0.000011458071
            0.000034315033    -0.000010582261    0.107485289388    -0.003159987650    0.000037863017    -0.000011458071    0.104469133665    0.007231762823
0.625     0.077406669709    0.014190513663    0.000032717961    -0.000011806715    0.081091754762    -0.003203357145    0.000036370123    -0.000012883678
            0.000032717961    -0.000011806715    0.097453482258    0.010302762712    0.000035103027    -0.000012951635    0.101747905170    -0.003927284777
            0.081091754762    -0.003203357145    0.000035103027    -0.000012951635    0.077936110337    0.013676780683    0.000040036016    -0.000014035762
            0.000036370123    -0.000012883678    0.101747905170    -0.003927284777    0.000040036016    -0.000014035762    0.099469318016    0.011196619122
0.650     0.080380826172    0.030377949229    0.000034715679    -0.000014593802    0.080091606957    0.008153043507    0.000038488622    -0.000016266562
            0.000034715679    -0.000014593802    0.096390329709    0.017734884018    0.000037194142    -0.000015662214    0.098299865950    -0.001392540961
            0.080091606957    0.008153043507    0.000037194142    -0.000015662215    0.080582606555    0.029368800554    0.000042255961    -0.000017740931
            0.000038488622    -0.000016266563    0.098299865949    -0.001392540978    0.000042255961    -0.000017740931    0.098569208055    0.018064819581
0.675     0.092558534074    0.044651980425    0.000036440210    -0.000018535026    0.086670263445    0.019393499809    0.000040156016    -0.000020850044
            0.000036440210    -0.000018535026    0.100742020040    0.025901455924    0.000039137204    -0.000019594585    0.098531036732    0.002962668902
            0.086670263445    0.019393499809    0.000039137204    -0.000019594585    0.092214331122    0.043324770281    0.000043990439    -0.000022695271
            0.000040156016    -0.000020850044    0.098531036732    0.002962668902    0.000043990439    -0.000022695271    0.102845024172    0.025649196990
0.700     0.112272993006    0.052835140348    0.000037325073    -0.000023560732    0.100054498615    0.026852496237    0.000040801161    -0.000026488362
            0.000037325073    -0.000023560732    0.110491192465    0.032188068893    0.000040327395    -0.000024739565    0.103008928984    0.007138628754
            0.100054498615    0.026852496237    0.000040327395    -0.000024739565    0.111265535502    0.051452711853    0.000044648433    -0.000028747253
            0.000040801161    -0.000026488362    0.103008928984    0.007138628754    0.000044648433    -0.000028747253    0.112290370117    0.031441294213
0.725     0.136110393313    0.052027240119    0.000036861857    -0.000029300386    0.117844946648    0.027714300726    0.000039946053    -0.000032744301
            0.000036861857    -0.000029300386    0.124431968904    0.034221545010    0.000040192077    -0.000030765478    0.111306221938    0.009080045893
            0.117844956383    0.027714303015    0.000040192077    -0.000030765478    0.134452093989    0.050878825099    0.000043733126    -0.000035444051
            0.000039946053    -0.000032744301    0.111306221938    0.009080045893    0.000043733126    -0.000035444051    0.125757237671    0.033158447261
0.750     0.159817425869    0.041217145506    0.000034772456    -0.000035154796    0.136739166158    0.020622853206    0.000037366610    -0.000038976172
            0.000034772456    -0.000035154796    0.140427120298    0.030392918580    0.000038376875    -0.000037079798    0.122125986893    0.007149484182
            0.136739166158    0.020622853206    0.000038376875    -0.000037079798    0.157643921715    0.040557190036    0.000041010297    -0.000042119541
            0.000037366610    -0.000038976172    0.122125986893    0.007149484182    0.000041010297    -0.000042119541    0.141200488391    0.029248581406
0.775     0.179276715734    0.021314607274    0.000031096792    -0.000040446680    0.153327213003    0.005784004160    0.000033162915    -0.000044492540
            0.000031096792    -0.000040446680    0.155866004200    0.020178058303    0.000034848115    -0.000042978282    0.133602927853    0.000454227663
            0.153327213003    0.005784004160    0.000034848115    -0.000042978282    0.176816057031    0.021314463946    0.000036581191    -0.000048054194
            0.000033162915    -0.000044492540    0.133602927853    0.000454227663    0.000036581191    -0.000048054194    0.156115890371    0.019197536629
0.800     0.191261814529    -0.005263273333    0.000026183673    -0.000044602964    0.164734632250    -0.015307859930    0.000027738423    -0.000048728791
            0.000026183673    -0.000044602964    0.168199235831    0.004182116378    0.000029897677    -0.000047831368    0.143718831280    -0.011035618291
