# GHz S RI R 45
0.000     0.028832354214    0.001698520575    -0.000014415987    -0.000038110887    0.000886031560    0.001432049821    -0.000011136473    -0.000028621894
            -0.000014416025    -0.000038110887    0.029155880913    0.001576692513    -0.000020310729    -0.000053038412    0.000908966254    0.001637554451
            0.000886032167    0.001432049798    -0.000020310772    -0.000053038414    0.028761986538    0.001712737277    -0.000014679802    -0.000038511886
            -0.000011136478    -0.000028621893    0.000908966445    0.001637554459    -0.000014679695    -0.000038511888    0.029094355971    0.001588512158
0.025     0.035383490791    0.007358734236    -0.000041325791    -0.000080418197    0.003742200270    0.009818488470    -0.000031953266    -0.000060978087
            -0.000041325797    -0.000080418208    0.034098542434    0.007940716179    -0.000057524490    -0.000111575954    0.002681209671    0.010997542017
            0.003739702655    0.009817274196    -0.000057524508    -0.000111575989    0.035325661236    0.007371018489    -0.000042068080    -0.000081094150
            -0.000031953817    -0.000060977922    0.002681464449    0.010996967308    -0.000042068137    -0.000081094224    0.034011804985    0.007896463497
0.050     0.044073836119    0.006929678703    -0.000100828569    -0.000132101305    0.011511997171    0.016676578722    -0.000077581108    -0.000099522406
            -0.000100828569    -0.000132101305    0.038847034113    0.010022204797    -0.000139329453    -0.000183268821    0.007700885452    0.020435217184
            0.011511976688    0.016676577065    -0.000139329453    -0.000183268821    0.044064360423    0.006959545578    -0.000102381631    -0.000132561482
            -0.000077581108    -0.000099522406    0.007700982704    0.020435211525    -0.000102382201    -0.000132562267    0.038668944849    0.009969894871
0.075     0.052664707586    0.001160717495    -0.000178813059    -0.000156082853    0.022014498348    0.018428809630    -0.000136844227    -0.000116464884
            -0.000178813059    -0.000156082853    0.042439222008    0.009920222198    -0.000246151993    -0.000217325650    0.014785332593    0.027177837357
            0.022014492312    0.018428813725    -0.000246151993    -0.000217325650    0.052724331058    0.001189040928    -0.000180589580    -0.000155579578
            -0.000136844227    -0.000116464884    0.014785328320    0.027177838543    -0.000180589580    -0.000155579578    0.042159103026    0.009928816088
0.100     0.058817248435    -0.009933157872    -0.000266835580    -0.000149720446    0.032417954335    0.014292358114    -0.000202872933    -0.000110167933
            -0.000266835580    -0.000149720446    0.044313730930    0.008235048592    -0.000366902774    -0.000210460602    0.022501118255    0.030841053170
            0.032417954335    0.014292358114    -0.000366902782    -0.000210460607    0.058969859065    -0.009939097002    -0.000267713429    -0.000148215228
            -0.000202872933    -0.000110167933    0.022501092495    0.030841060822    -0.000267713429    -0.000148215228    0.043953124226    0.008373631980
0.125     0.059883403503    -0.025021736201    -0.000356058716    -0.000111492027    0.039840447602    0.004812505552    -0.000268909429    -0.000080141670
            -0.000356058735    -0.000111492033    0.043744463453    0.005935602048    -0.000489949968    -0.000160615886    0.029473537190    0.031706437342
            0.039840447602    0.004812505552    -0.000489949968    -0.000160615886    0.060141150124    -0.025105298573    -0.000355033781    -0.000109977438
            -0.000268909429    -0.000080141670    0.029473537190    0.031706437342    -0.000355033791    -0.000109977441    0.043365152502    0.006256137611
0.150     0.053996298035    -0.041689650614    -0.000438134217    -0.000041741251    0.041909907766    -0.008209286719    -0.000329045306    -0.000027172019
            -0.000438134217    -0.000041741251    0.040679849085    0.004390030911    -0.000604360923    -0.000068092329    0.034615815402    0.030619189442
            0.041909907766    -0.008209286719    -0.000604360923    -0.000068092329    0.054349600720    -0.041905638092    -0.000435109052    -0.000041988442
            -0.000329045306    -0.000027172019    0.034615815402    0.030619189442    -0.000435109052    -0.000041988442    0.040362615396    0.004908727966
0.175     0.040446931709    -0.056609663332    -0.000504735016    0.000058460451    0.037231331066    -0.022037573337    -0.000377683752    0.000047807319
            -0.000504735016    0.000058460451    0.035536446008    0.004890293565    -0.000699207250    0.000066038523    0.037376341087    0.028819987953
            0.037231331066    -0.022037573337    -0.000699207250    0.000066038523    0.040863522295    -0.057009853116    -0.000501023476    0.000054667202
            -0.000377683752    0.000047807319    0.037376341087    0.028819987953    -0.000501023476    0.000054667202    0.035370096568    0.005578902969
0.200     0.020117257155    -0.066308072796    -0.000546884140    0.000186669214    0.025737653986    -0.033483778005    -0.000408657104    0.000143359392
            -0.000546884140    0.000186669214    0.029365220327    0.008498209045    -0.000762558404    0.000239125821    0.037847376148    0.027663275195
            0.025737653986    -0.033483778005    -0.000762558404    0.000239125821    0.020540844190    -0.066933183096    -0.000545088239    0.000178571583
            -0.000408657104    0.000143359392    0.037847376148    0.027663275195    -0.000545088239    0.000178571583    0.029419372153    0.009284779134
0.225     -0.004595348188    -0.067848388380    -0.000554430518    0.000337982636    0.008803602117    -0.039510762509    -0.000414431610    0.000256575913
            -0.000554430518    0.000337982636    0.023691856381    0.015725805438    -0.000780628254    0.000445404074    0.036756547749    0.028304191991
            0.008803602806    -0.039510762355    -0.000780628254    0.000445404074    -0.004242857385    -0.068717157564    -0.000557583901    0.000326671446
            -0.000414431610    0.000256575913    0.036756547749    0.028304191991    -0.000557583901    0.000326671446    0.023995951206    0.016508107680
0.250     -0.030073140613    -0.059486371686    -0.000517226780    0.000503232822    -0.010903556548    -0.037875928247    -0.000386852855    0.000381230985
            -0.000517226780    0.000503232822    0.020226674116    0.026363416942    -0.000739187175    0.000673485917    0.035321302373    0.031428043550
            -0.010903556548    -0.037875928247    -0.000739187175    0.000673485917    -0.029881557161    -0.060583620792    -0.000527527803    0.000491753979
            -0.000386852855    0.000381230985    0.035321302373    0.031428043550    -0.000527527803    0.000491753979    0.020757333403    0.027031474867
0.275     -0.052078536382    -0.041140618378    -0.000427412751    0.000668021744    -0.029861490072    -0.027659198049    -0.000319007953    0.000506632311
            -0.000427412751    0.000668021744    0.020511984483    0.039407034578    -0.000626482680    0.000904808526    0.034972134132    0.037048860596
            -0.029861490072    -0.027659198049    -0.000626482680    0.000904808526    -0.052134465835    -0.042411063947    -0.000444970662    0.000660648556
            -0.000319007953    0.000506632311    0.034972134132    0.037048860596    -0.000444970662    0.000660648556    0.021193480090    0.039869631898
0.300     -0.066538932833    -0.014596738147    -0.000282826032    0.000813620356    -0.044357598382    -0.009567261777    -0.000208331566    0.000618011582
            -0.000282826032    0.000813620356    0.025556585741    0.053202365005    -0.000437931635    0.001114423947    0.037011021438    0.044483794881
            -0.044357598382    -0.009567261777    -0.000437931635    0.001114423947    -0.066906989190    -0.015945441288    -0.000305145092    0.000814358512
            -0.000208331566    0.000618011582    0.037011021438    0.044483794881    -0.000305145092    0.000814358512    0.026274265861    0.053412075117
0.325     -0.070367985067    0.016700735023    -0.000089439839    0.000919923961    -0.051233116953    0.014113413835    -0.000058947032    0.000698938288
            -0.000089439839    0.000919923961    0.035562642348    0.065726716415    -0.000179611434    0.001274720531    0.042282813216    0.052484673006
            -0.051233116953    0.014113413835    -0.000179611434    0.001274720531    -0.071072274725    0.015398223164    -0.000111854833    0.000930914585
            -0.000058947032    0.000698938288    0.042282813216    0.052484673006    -0.000111854833    0.000930914585    0.036187546823    0.065695358380
0.350     -0.062136763194    0.048206309053    0.000138229372    0.000970069331    -0.048542853282    0.039904816838    0.000117593987    0.000735295077
            0.000138229372    0.000970069331    0.049826442092    0.075012825238    0.000130625517    0.001361396722    0.050971442321    0.059531930839
            -0.048542853282    0.039904816838    0.000130625517    0.001361396722    -0.063147971912    0.047085577248    0.000121072020    0.000990501362
            0.000117593987    0.000735295077    0.050971442321    0.059531930839    0.000121072020    0.000990501362    0.050244626698    0.074812518409
0.375     -0.042394058622    0.075088399267    0.000379584367    0.000954346153    -0.035941394305    0.063777708539    0.000304260748    0.000718904877
            0.000379584367    0.000954346153    0.066846500464    0.079541622224    0.000465857967    0.001358999986    0.062550898697    0.064164026415
            -0.035941394305    0.063777708539    0.000465857967    0.001358999986    -0.043625520030    0.074272544709    0.000371840781    0.000980466542
            0.000304260748    0.000718904877    0.062550898697    0.064164026415    0.000371840781    0.000980466542    0.066986003945    0.079293286624
0.400     -0.013606601970    0.093088024573    0.000612286937    0.000872391396    -0.014747990400    0.081880932954    0.000482381704    0.000649648198
            0.000612286937    0.000872391396    0.084612066995    0.078560013910    0.000795616407    0.001264452057    0.075913809401    0.065291456301
            -0.014747990400    0.081880932954    0.000795616407    0.001264452057    -0.014921324907    0.092663225878    0.000615357051    0.000898657787
            0.000482381704    0.000649648198    0.075913809401    0.065291456301    0.000615357051    0.000898657787    0.084462097678    0.078409622233
0.425     0.020268150821    0.099227164820    0.000816866146    0.000732242494    0.012308388126    0.091172510495    0.000635675216    0.000534834394
            0.000816866146    0.000732242494    0.100980334415    0.072201136220    0.001092103998    0.001086523172    0.089591986886    0.062384812172
            0.012308388126    0.091172510495    0.001092103998    0.001086523172    0.019041482859    0.099223144915    0.000828768693    0.000753244711
            0.000635675216    0.000534834394    0.089591986886    0.062384812172    0.000828768693    0.000753244711    0.100597147707    0.072290358644
0.450     0.054419943323    0.092260807360    0.000980017610    0.000547511099    0.041537141560    0.089873900843    0.000753375866    0.000386735567
            0.000980017610    0.000547511099    0.114060489002    0.061446138276    0.001335152433    0.000842564478    0.102033451780    0.055560816188
            0.041537141560    0.089873900843    0.001335152433    0.000842564478    0.053463108632    0.092638753611    0.000995941800    0.000560025260
            0.000753375866    0.000386735567    0.102033451780    0.055560816188    0.000995941800    0.000560025260    0.113559338823    0.061884217535
0.475     0.083899699238    0.072823222090    0.001095437737    0.000333376462    0.068822123089    0.077686954953    0.000831166223    0.000219004031
            0.001095437737    0.000333376462    0.122509680106    0.047930312720    0.001514152303    0.000553251316    0.111847827188    0.045542277392
            0.068822123089    0.077686954953    0.001514152303    0.000553251316    0.083378286072    0.073472735146    0.001109553502    0.000337664169
            0.000831166223    0.000219004031    0.111847827188    0.045542277392    0.001109553502    0.000337664169    0.122048273956    0.048771323759
0.500     0.104297114856    0.043330090054    0.001162878046    0.000103229129    0.090165281455    0.055839430576    0.000870419308    0.000043473418
            0.001162878046    0.000103229129    0.125739863065    0.033678967747    0.001627418960    0.000237668698    0.118033688165    0.033556855059
            0.090165281455    0.055839430576    0.001627418960    0.000237668698    0.104333210045    0.044076571254    0.001170580299    0.000103192913
            0.000870419308    0.000043473418    0.118033688165    0.033556855059    0.001170580299    0.000103192913    0.125492164606    0.034906400331
0.525     0.112315264781    0.007677306184    0.001185485844    -0.000133596317    0.102186155094    0.026963335674    0.000875822704    -0.000132060192
            0.001185485844    -0.000133596317    0.123995989424    0.020791481634    0.001678826848    -0.000090392993    0.120136936893    0.021157091458
            0.102186155094    0.026963335674    0.001678826848    -0.000090392993    0.112963330817    0.008298466730    0.001185511865    -0.000131659305
            0.000875822704    -0.000132060192    0.120136936893    0.021157091458    0.001185511865    -0.000131659305    0.124122680010    0.022315882932
0.550     0.106236548717    -0.029206815688    0.001166727496    -0.000372309361    0.102598322100    -0.005151100006    0.000852447603    -0.000304522742
            0.001166727496    -0.000372309361    0.118346400975    0.011127601608    0.001673565121    -0.000423808868    0.118374277209    0.010000292784
            0.102598322100    -0.005151100006    0.001673565121    -0.000423808868    0.107464581614    -0.028955547801    0.001162256453    -0.000362034618
            0.000852447603    -0.000304522742    0.118374277209    0.010000292784    0.001162256453    -0.000362034618    0.118963957572    0.012794128606
0.575     0.086241333660    -0.061945173491    0.001107252322    -0.000611179465    0.090606465410    -0.035956630314    0.000802676994    -0.000474453778
            0.001107252322    -0.000611179465    0.110549197202    0.005996107119    0.001613340092    -0.000760544767    0.113651550571    0.001562440657
            0.090606465410    -0.035956630314    0.001613340092    -0.000760544767    0.087921265610    -0.062296407417    0.001105527862    -0.000589035624
            0.000802676994    -0.000474453778    0.113651550571    0.001562440657    0.001105527862    -0.000589035624    0.111703764081    0.007605941303
0.600     0.054550830735    -0.085424379775    0.001003321321    -0.000848524815    0.067206033026    -0.060726252468    0.000724266758    -0.000643223348
            0.001003321321    -0.000848524815    0.102818656661    0.005888710174    0.001493419099    -0.001099746826    0.107485289388    -0.003159987650
            0.067206033026    -0.060726252468    0.001493419099    -0.001099746826    0.056461767815    -0.086559894737    0.001013458902    -0.000816064383
            0.000724266758    -0.000643223348    0.107485289388    -0.003159987650    0.001013458902    -0.000816064383    0.104469133665    0.007231762823
0.625     0.015298921613    -0.095586060087    0.000847215649    -0.001078502260    0.035244764513    -0.075274934334    0.000610342577    -0.000809036050
            0.000847215649    -0.001078502260    0.097453482258    0.010302762712    0.001302487494    -0.001435615355    0.101747905170    -0.003927284777
            0.035244764513    -0.075274934334    0.001302487494    -0.001435615355    0.017148186306    -0.097598241062    0.000876805518    -0.001043158272
            0.000610342577    -0.000809036050    0.101747905170    -0.003927284777    0.000876805518    -0.001043158272    0.099469318016    0.011196619122
0.650     -0.025939734267    -0.090202001302    0.000630848822    -0.001287880709    -0.000839634056    -0.076755468726    0.000452340506    -0.000963368970
            0.000630848844    -0.001287880698    0.096390329709    0.017734884018    0.001027090243    -0.001752171314    0.098299865950    -0.001392540961
            -0.000839634056    -0.076755468726    0.001027090243    -0.001752171314    -0.024477948504    -0.093063276834    0.000682447526    -0.001261476154
            0.000452340506    -0.000963368970    0.098299865949    -0.001392540978    0.000682447526    -0.001261476154    0.098569208055    0.018064819581
0.675     -0.062982183277    -0.069425329097    0.000351535257    -0.001455334382    -0.035670251322    -0.064300329007    0.000245309763    -0.001089770068
            0.000351535257    -0.001455334382    0.100742020040    0.025901455924    0.000659387672    -0.002021277384    0.098531036732    0.002962668902
            -0.035670251322    -0.064300329007    0.000659387672    -0.002021277384    -0.062214946044    -0.072976395343    0.000420352175    -0.001450591568
            0.000245309763    -0.001089770068    0.098531036732    0.002962668902    0.000420352175    -0.001450591568    0.102845024172    0.025649196990
0.700     -0.090119948026    -0.035926867733    0.000017534933    -0.001555502169    -0.063883609569    -0.039327792011    -0.000006530146    -0.001166905028
            0.000017534933    -0.001555502169    0.110491192465    0.032188068893    0.000205633384    -0.002206886747    0.103008928984    0.007138628754
            -0.063883609569    -0.039327792011    0.000205633384    -0.002206886747    -0.090278510989    -0.039890090188    0.000091795927    -0.001581490041
            -0.000006530146    -0.001166905028    0.103008928984    0.007138628754    0.000091795927    -0.001581490041    0.112290370117    0.031441294213
0.725     -0.103183738969    0.005513169718    -0.000349542537    -0.001566011306    -0.081136309240    -0.005326402470    -0.000287143535    -0.001174831734
            -0.000349542537    -0.001566011306    0.124431968904    0.034221545010    -0.000309404676    -0.002274199259    0.111306221938    0.009080045893
            -0.081136309240    -0.005326402470    -0.000309404676    -0.002274199259    -0.104377646043    0.001495563438    -0.000285840743    -0.001624493780
            -0.000287143535    -0.001174831734    0.111306221938    0.009080045893    -0.000285840743    -0.001624493780    0.125757237671    0.033158447261
0.750     -0.100304639459    0.048887302635    -0.000718067657    -0.001475367796    -0.084900586767    0.032816994185    -0.000570760475    -0.001102298685
            -0.000718067657    -0.001475367796    0.140427120298    0.030392918580    -0.000844755355    -0.002200703118    0.122125986893    0.007149484182
            -0.084900586767    0.032816994185    -0.000844755355    -0.002200703118    -0.102496260607    0.045195831049    -0.000680323310    -0.001559321939
            -0.000570760475    -0.001102298685    0.122125986893    0.007149484182    -0.000680323310    -0.001559321939    0.141200488391    0.029248581406
0.775     -0.082147933286    0.088071945528    -0.001053356680    -0.001286962753    -0.074795452695    0.069755576315    -0.000828127130    -0.000950917976
            -0.001053356680    -0.001286962753    0.155866004200    0.020178058303    -0.001351836091    -0.001983260833    0.133602927853    0.000454227663
            -0.074795452695    0.069755576315    -0.001351836091    -0.001983260833    -0.085154958929    0.085048551605    -0.001051662785    -0.001382073341
            -0.000828127130    -0.000950917976    0.133602927853    0.000454227663    -0.001051662785    -0.001382073341    0.156115890371    0.019197536629
