# GHz S RI R 45
0.000     0.029535191052    0.001573578994    0.000001820462    0.000003658653    0.000943423553    0.001639843941    0.000001980266    0.000004282658
            0.000001820311    0.000003658655    0.029155880913    0.001576692513    0.000002191834    0.000004301618    0.000908966254    0.001637554451
            0.000943423332    0.001639843953    0.000002191842    0.000004301617    0.029507351851    0.001561112284    0.000002393316    0.000005106229
            0.000001980599    0.000004282652    0.000908966445    0.001637554459    0.000002393238    0.000005106230    0.029094355971    0.001588512158
0.025     0.034864242187    0.008234155742    0.000003443951    0.000008521089    0.002907634996    0.011354481111    0.000003640368    0.000009603731
            0.000003443973    0.000008521088    0.034098542434    0.007940716179    0.000004382959    0.000010468719    0.002681209671    0.010997542017
            0.002899712398    0.011352294992    0.000004382963    0.000010468734    0.034791307216    0.008181376140    0.000004443487    0.000011631669
            0.000003640386    0.000009603741    0.002681464449    0.010996967308    0.000004443480    0.000011631659    0.034011804985    0.007896463497
0.050     0.040067017555    0.010256878155    0.000006632383    0.000015271592    0.008367885204    0.020916908977    0.000006842667    0.000017448916
            0.000006632383    0.000015271596    0.038847034113    0.010022204797    0.000008639437    0.000018497583    0.007700885452    0.020435217184
            0.008367945551    0.020916841753    0.000008639438    0.000018497582    0.039947466292    0.010222702052    0.000008431319    0.000021076710
            0.000006842667    0.000017448916    0.007700982704    0.020435211525    0.000008431319    0.000021076710    0.038668944849    0.009969894871
0.075     0.044083503777    0.009719667898    0.000010519279    0.000020825465    0.015980062058    0.027418535445    0.000010817566    0.000024316034
            0.000010519277    0.000020825470    0.042439222008    0.009920222198    0.000013752877    0.000024740299    0.014785332593    0.027177837357
            0.015980060286    0.027418587405    0.000013752878    0.000024740299    0.043935580061    0.009720801834    0.000013371333    0.000029229939
            0.000010817566    0.000024316034    0.014785328320    0.027177838543    0.000013371333    0.000029229939    0.042159103026    0.009928816088
0.100     0.046114303653    0.007268262530    0.000014711790    0.000025421939    0.024061729983    0.030475254969    0.000015366692    0.000030462609
            0.000014711791    0.000025421939    0.044313730930    0.008235048592    0.000019037844    0.000029478305    0.022501118255    0.030841053170
            0.024061729983    0.030475254969    0.000019037844    0.000029478305    0.045965533653    0.007327521466    0.000018959386    0.000036381118
            0.000015366693    0.000030462609    0.022501092495    0.030841060822    0.000018959386    0.000036381118    0.043953124226    0.008373631980
0.125     0.045303206668    0.004101951865    0.000018960269    0.000029377815    0.031021919039    0.030493381961    0.000020416428    0.000036098256
            0.000018960267    0.000029377815    0.043744463453    0.005935602048    0.000023985494    0.000033209025    0.029473537190    0.031706437342
            0.031021919039    0.030493381961    0.000023985494    0.000033209025    0.045193748180    0.004221952777    0.000025023989    0.000042798405
            0.000020416428    0.000036098256    0.029473537190    0.031706437342    0.000025023989    0.000042798405    0.043365152502    0.006256137611
0.150     0.041371285337    0.001767348665    0.000023225769    0.000033143697    0.035673111272    0.028565928478    0.000026033400    0.000041489836
            0.000023225769    0.000033143697    0.040679849085    0.004390030911    0.000028417256    0.000036697025    0.034615815402    0.030619189442
            0.035673111272    0.028565928478    0.000028417256    0.000036697025    0.041350915391    0.001933621347    0.000031572330    0.000048863904
            0.000026033400    0.000041489836    0.034615815402    0.030619189442    0.000031572330    0.000048863904    0.040362615396    0.004908727966
0.175     0.034893640638    0.001937699579    0.000027776875    0.000037075776    0.037481597888    0.026201071772    0.000032496984    0.000046753366
            0.000027776874    0.000037075777    0.035536446008    0.004890293565    0.000032649190    0.000040651780    0.037376341087    0.028819987953
            0.037481597888    0.026201071772    0.000032649190    0.000040651780    0.035002353644    0.002103506598    0.000038899395    0.000054815997
            0.000032496979    0.000046753357    0.037376341087    0.028819987953    0.000038899395    0.000054815997    0.035370096568    0.005578902969
0.200     0.027201194479    0.005926934079    0.000033104717    0.000041341326    0.036707291319    0.025001763504    0.000040191066    0.000051820585
            0.000033104717    0.000041341326    0.029365220327    0.008498209045    0.000037409646    0.000045543920    0.037847376148    0.027663275195
            0.036707291319    0.025001763504    0.000037409646    0.000045543920    0.027452544721    0.006021907652    0.000047475037    0.000060691204
            0.000040191062    0.000051820580    0.037847376148    0.027663275195    0.000047475037    0.000060691204    0.029419372153    0.009284779134
0.225     0.020207431648    0.014337171262    0.000039814571    0.000045760172    0.034375981639    0.026266477349    0.000049502617    0.000056330154
            0.000039814571    0.000045760172    0.023691856381    0.015725805438    0.000043690908    0.000051343789    0.036756547749    0.028304191991
            0.034375981639    0.026266477349    0.000043690908    0.000051343789    0.020578176899    0.014283095515    0.000057830046    0.000066168461
            0.000049502618    0.000056330155    0.036756547749    0.028304191991    0.000057830046    0.000066168461    0.023995951206    0.016508107680
0.250     0.016039103519    0.026837842111    0.000048427887    0.000049768371    0.032065717064    0.030650862314    0.000060656132    0.000059650307
            0.000048427887    0.000049768371    0.020226674116    0.026363416942    0.000052462111    0.000057424012    0.035321302373    0.031428043550
            0.032065717064    0.030650862314    0.000052462111    0.000057424012    0.016466032255    0.026568233260    0.000070352825    0.000070571859
            0.000060656132    0.000059650307    0.035321302373    0.031428043550    0.000070352825    0.000070571859    0.020757333403    0.027031474867
0.275     0.016571495241    0.042085335258    0.000059137778    0.000052447242    0.031527324578    0.037944934847    0.000073529572    0.000060938497
            0.000059137778    0.000052447242    0.020511984483    0.039407034578    0.000064307063    0.000062567434    0.034972134132    0.037048860596
            0.031527324578    0.037944934847    0.000064307063    0.000062567434    0.016959900896    0.041565233058    0.000085054693    0.000072917534
            0.000073529572    0.000060938497    0.034972134132    0.037048860596    0.000085054693    0.000072917534    0.021193480090    0.039869631898
0.300     0.022947347225    0.057932007454    0.000071617387    0.000052762445    0.034238386479    0.047087615541    0.000087540124    0.000059382373
            0.000071617387    0.000052762445    0.025556585741    0.053202365005    0.000079117871    0.000065257197    0.037011021438    0.044483794881
            0.034238386479    0.047087615541    0.000079117871    0.000065257197    0.023188897907    0.057172496716    0.000101406810    0.000072182847
            0.000087540124    0.000059382373    0.037011021438    0.044483794881    0.000101406810    0.000072182847    0.026274265861    0.053412075117
0.325     0.035239609074    0.071828194473    0.000084964049    0.000049868202    0.041006348897    0.056395211877    0.000101654636    0.000054459272
            0.000084964049    0.000049868202    0.035562642348    0.065726716415    0.000095958001    0.000064079755    0.042282813216    0.052484673006
            0.041006348897    0.056395211877    0.000095958001    0.000064079755    0.035234359078    0.070889275065    0.000118318972    0.000067613648
            0.000101654636    0.000054459272    0.042282813216    0.052484673006    0.000118318972    0.000067613648    0.036187546823    0.065695358380
0.350     0.052363213752    0.081389143124    0.000097890893    0.000043446704    0.051762538743    0.063975719164    0.000114620256    0.000046204314
            0.000097890893    0.000043446704    0.049826442092    0.075012825238    0.000113236864    0.000058200590    0.050971442321    0.059531930839
            0.051762538743    0.063975719164    0.000113236864    0.000058200590    0.052043665466    0.080372572034    0.000134370879    0.000059053962
            0.000114620256    0.000046204314    0.050971442321    0.059531930839    0.000134370879    0.000059053962    0.050244626698    0.074812518409
0.375     0.072271528931    0.084901353759    0.000109051516    0.000033846438    0.065577035818    0.068156983296    0.000125279231    0.000035265903
            0.000109051516    0.000033846438    0.066846500464    0.079541622224    0.000129078789    0.000047623797    0.062550898697    0.064164026415
            0.065577035818    0.068156983296    0.000129078789    0.000047623797    0.071618037319    0.083932171274    0.000148162025    0.000047050395
            0.000125279231    0.000035265903    0.062550898697    0.064164026415    0.000148162025    0.000047050395    0.066986003945    0.079293286624
0.400     0.092373954957    0.081686019870    0.000117433626    0.000022021637    0.080887298513    0.067845617727    0.000132923260    0.000022783913
            0.000117433626    0.000022021637    0.084612066995    0.078560013910    0.000141826060    0.000033222051    0.075913809401    0.065291456301
            0.080887298513    0.067845617727    0.000141826060    0.000033222051    0.091421652660    0.080889116313    0.000158715626    0.000032754521
            0.000132923260    0.000022783913    0.075913809401    0.065291456301    0.000158715626    0.000032754521    0.084462097678    0.078409622233
0.425     0.110036120463    0.072196711488    0.000122583855    0.000009249659    0.095815581704    0.062704540808    0.000137449604    0.000010073829
            0.000122583855    0.000009249659    0.100980334415    0.072201136220    0.000150384496    0.000016480662    0.089591986886    0.062384812172
            0.095815581704    0.062704540808    0.000150384496    0.000016480662    0.108869916014    0.071673641467    0.000165692402    0.000017601946
            0.000137449604    0.000010073829    0.089591986886    0.062384812172    0.000165692402    0.000017601946    0.100597147707    0.072290358644
0.450     0.123052347658    0.057912649195    0.000124676710    -0.000003189463    0.108515562483    0.053192238576    0.000139374189    -0.000001692875
            0.000124676710    -0.000003189463    0.114060489002    0.061446138276    0.000154420240    -0.000000850140    0.102033451780    0.055560816188
            0.108515562483    0.053192238576    0.000154420240    -0.000000850140    0.121792956181    0.057722546755    0.000169442375    0.000002964730
            0.000139374189    -0.000001692875    0.102033451780    0.055560816188    0.000169442375    0.000002964730    0.113559338823    0.061884217535
0.475     0.129989552093    0.041058081413    0.000124369864    -0.000014284590    0.117456111466    0.040466036879    0.000139635830    -0.000011747209
            0.000124369864    -0.000014284590    0.122509680106    0.047930312720    0.000154318544    -0.000017103934    0.111847827188    0.045542277392
            0.117456111466    0.040466036879    0.000154318544    -0.000017103934    0.128773866061    0.041206104393    0.000170822850    -0.000010144061
            0.000139635830    -0.000011747209    0.111847827188    0.045542277392    0.000170822850    -0.000010144062    0.122048273956    0.048771323759
0.500     0.130407766259    0.024252345462    0.000122632901    -0.000023431522    0.121669936066    0.026226578873    0.000139378029    -0.000019833421
            0.000122632901    -0.000023431520    0.125739863065    0.033678967747    0.000151065966    -0.000030942656    0.118033688165    0.033556855059
            0.121669936066    0.026226578873    0.000151065966    -0.000030942656    0.129365691470    0.024686081151    0.000170997733    -0.000021213645
            0.000139378030    -0.000019833418    0.118033688165    0.033556855059    0.000170997723    -0.000021213644    0.125492164606    0.034906400331
0.525     0.124934535355    0.010111729455    0.000120528565    -0.000030462346    0.120925601892    0.012480108876    0.000139694741    -0.000026204742
            0.000120528565    -0.000030462346    0.123995989424    0.020791481634    0.000146058815    -0.000041515335    0.120136936893    0.021157091458
            0.120925601892    0.012480108876    0.000146058815    -0.000041515335    0.124165967041    0.010726169651    0.000171174252    -0.000030264589
            0.000139694741    -0.000026204742    0.120136936893    0.021157091458    0.000171174252    -0.000030264589    0.124122680010    0.022315882932
0.550     0.115230940513    0.000846538811    0.000119106556    -0.000035623670    0.115856779188    0.001246079437    0.000141487210    -0.000031547529
            0.000119106556    -0.000035623670    0.118346400975    0.011127601608    0.000140957355    -0.000048562152    0.118374277209    0.010000292784
            0.115856779188    0.001246079437    0.000140957355    -0.000048562152    0.114783805410    0.001499538749    0.000172456051    -0.000037805106
            0.000141487210    -0.000031547529    0.118374277209    0.010000292784    0.000172456051    -0.000037805106    0.118963957572    0.012794128606
0.575     0.103800760849    -0.002144939260    0.000119274766    -0.000039553075    0.107956185050    -0.005822014426    0.000145313320    -0.000036880990
            0.000119274766    -0.000039553075    0.110549197202    0.005996107119    0.000137473875    -0.000052510806    0.113651550571    0.001562440657
            0.107956185050    -0.005822014426    0.000137473875    -0.000052510806    0.103656588886    -0.001609263382    0.000175673938    -0.000044770180
            0.000145313320    -0.000036880990    0.113651550571    0.001562440657    0.000175673938    -0.000044770180    0.111703764081    0.007605941303
0.600     0.093642004801    0.001371506968    0.000121702498    -0.000043289787    0.099416233691    -0.007833940774    0.000151313878    -0.000043464528
            0.000121702498    -0.000043289787    0.102818656661    0.005888710174    0.000137138854    -0.000054561569    0.107485289388    -0.003159987650
            0.099416233691    -0.007833940774    0.000137138854    -0.000054561569    0.093711978973    0.001651377550    0.000181275447    -0.000052464878
            0.000151313878    -0.000043464528    0.107485289388    -0.003159987650    0.000181275447    -0.000052464878    0.104469133665    0.007231762823
0.625     0.087697731659    0.010256997977    0.000126586344    -0.000048229183    0.092720010555    -0.004998473850    0.000159055950    -0.000052659195
            0.000126586344    -0.000048229183    0.097453482258    0.010302762712    0.000140892797    -0.000056663045    0.101747905170    -0.003927284777
            0.092720010555    -0.004998473850    0.000140892797    -0.000056663045    0.087833846145    0.010192113834    0.000189097381    -0.000062448029
            0.000159055950    -0.000052659195    0.101747905170    -0.003927284777    0.000189097381    -0.000062448029    0.099469318016    0.011196619122
0.650     0.088203251399    0.022071347184    0.000133421728    -0.000055944685    0.090077327231    0.001282588742    0.000167446356    -0.000065697390
            0.000133421728    -0.000055944685    0.096390329709    0.017734884018    0.000148674418    -0.000061255496    0.098299865950    -0.001392540961
            0.090077327231    0.001282588742    0.000148674418    -0.000061255496    0.088225462945    0.021648170845    0.000198208241    -0.000076281588
            0.000167446355    -0.000065697393    0.098299865949    -0.001392540978    0.000198208241    -0.000076281588    0.098569208055    0.018064819581
0.675     0.096071551864    0.033503053076    0.000140815601    -0.000067759717    0.092807427643    0.008650838404    0.000174707669    -0.000083301424
            0.000140815601    -0.000067759717    0.100742020040    0.025901455924    0.000159098180    -0.000070683858    0.098531036732    0.002962668902
            0.092807427643    0.008650838404    0.000159098180    -0.000070683858    0.095806870135    0.032792964907    0.000206802104    -0.000095081396
            0.000174707669    -0.000083301424    0.098531036732    0.002962668902    0.000206802104    -0.000095081396    0.102845024172    0.025649196990
0.700     0.110583305580    0.041105527414    0.000146665711    -0.000084216736    0.100960482194    0.014357955142    0.000178673741    -0.000105287827
            0.000146665711    -0.000084216736    0.110491192465    0.032188068893    0.000169591476    -0.000086442859    0.103008928984    0.007138628754
            0.100960482194    0.014357955142    0.000169591476    -0.000086442859    0.109905697367    0.040253417213    0.000212485870    -0.000119013935
            0.000178673741    -0.000105287827    0.103008928984    0.007138628754    0.000212485870    -0.000119013935    0.112290370117    0.031441294213
0.725     0.129502179967    0.042116172305    0.000148662605    -0.000104664836    0.113282659468    0.015956632998    0.000177305818    -0.000130337510
            0.000148662605    -0.000104664836    0.124431968904    0.034221545010    0.000176969520    -0.000108539464    0.111306221938    0.009080045893
            0.113282659496    0.015956632800    0.000176969520    -0.000108539464    0.128361246484    0.041310225854    0.000212833570    -0.000146961965
            0.000177305818    -0.000130337510    0.111306221938    0.009080045893    0.000212833570    -0.000146961965    0.125757237671    0.033158447261
0.750     0.149614961845    0.035073387438    0.000145042456    -0.000127300031    0.127589033014    0.011868221733    0.000169364448    -0.000156187191
            0.000145042456    -0.000127300031    0.140427120298    0.030392918580    0.000178374472    -0.000135377465    0.122125986893    0.007149484182
            0.127589033014    0.011868221733    0.000178374472    -0.000135377465    0.148046590991    0.034506304251    0.000206164913    -0.000176654562
            0.000169364448    -0.000156187191    0.122125986893    0.007149484182    0.000206164913    -0.000176654562    0.141200488391    0.029248581406
0.775     0.167455137664    0.020056936958    0.000135131664    -0.000149617218    0.141294580171    0.001642793161    0.000154807115    -0.000180149369
            0.000135131664    -0.000149617218    0.155866004200    0.020178058303    0.000172046522    -0.000164161899    0.133602927853    0.000454227663
            0.141294580171    0.001642793161    0.000172046522    -0.000164161899    0.165572460099    0.019887899610    0.000192051475    -0.000205196581
            0.000154807115    -0.000180149369    0.133602927853    0.000454227663    0.000192051475    -0.000205196581    0.156115890371    0.019197536629
0.800     0.179991217014    -0.001456504767    0.000119538825    -0.000169142436    0.151956766815    -0.014082551821    0.000134849941    -0.000199829199
            0.000119538825    -0.000169142436    0.168199235831    0.004182116378    0.000157725946    -0.000191693617    0.143718831280    -0.011035618291
