# GHz S RI R 45
0.000     0.028871577485    0.001383342991    -0.000008319305    -0.000020938396    0.000849185949    0.001192959966    -0.000008373534    -0.000022085950
            -0.000008319280    -0.000020938397    0.029155880913    0.001576692513    -0.000007660633    -0.000018735614    0.000908966254    0.001637554451
            0.000849185949    0.001192959966    -0.000007660637    -0.000018735615    0.028705340387    0.001378754709    -0.000008637246    -0.000021473109
            -0.000008373604    -0.000022085949    0.000908966445    0.001637554459    -0.000008637207    -0.000021473111    0.029094355971    0.001588512158
0.025     0.035252701585    0.007084362357    -0.000024519405    -0.000047522773    0.003537993190    0.009627103650    -0.000024795654    -0.000048773402
            -0.000024519402    -0.000047522769    0.034098542434    0.007940716179    -0.000022529793    -0.000043992252    0.002681209671    0.010997542017
            0.003537802071    0.009627407203    -0.000022529829    -0.000043992303    0.035192466688    0.007044788560    -0.000025256384    -0.000049047217
            -0.000024795663    -0.000048773397    0.002681464449    0.010996967308    -0.000025256369    -0.000049047209    0.034011804985    0.007896463497
0.050     0.043517003159    0.006634810585    -0.000059927249    -0.000077688267    0.010923762523    0.016458834470    -0.000061034371    -0.000079986258
            -0.000059927247    -0.000077688264    0.038847034113    0.010022204797    -0.000055356178    -0.000072117023    0.007700885452    0.020435217184
            0.010923753022    0.016458841976    -0.000055356179    -0.000072117024    0.043446014806    0.006584860424    -0.000061627891    -0.000080364711
            -0.000061034371    -0.000079986258    0.007700982704    0.020435211525    -0.000061627952    -0.000080364791    0.038668944849    0.009969894871
0.075     0.051553214373    0.001098663910    -0.000105911182    -0.000091263036    0.020896153852    0.018443384874    -0.000108302759    -0.000094273130
            -0.000105911182    -0.000091263036    0.042439222008    0.009920222198    -0.000098113881    -0.000084741759    0.014785332593    0.027177837357
            0.020896147846    0.018443388656    -0.000098113881    -0.000084741759    0.051487728004    0.001049689691    -0.000109022854    -0.000094775629
            -0.000108302759    -0.000094273130    0.014785328320    0.027177838543    -0.000109022854    -0.000094775629    0.042159103026    0.009928816088
0.100     0.057146410901    -0.009451063968    -0.000157362651    -0.000086931500    0.030759873250    0.014847856573    -0.000161425424    -0.000090157066
            -0.000157362651    -0.000086931500    0.044313730930    0.008235048592    -0.000145925212    -0.000080643692    0.022501118255    0.030841053170
            0.030759873250    0.014847856573    -0.000145925212    -0.000080643692    0.057112575027    -0.009494657861    -0.000162343453    -0.000090797335
            -0.000161425424    -0.000090157066    0.022501092495    0.030841060822    -0.000162343453    -0.000090797335    0.043953124226    0.008373631980
0.125     0.057790910461    -0.023711833604    -0.000209121317    -0.000064163598    0.037777100960    0.006219247185    -0.000215068085    -0.000066936180
            -0.000209121317    -0.000064163598    0.043744463453    0.005935602048    -0.000193969552    -0.000059410258    0.029473537190    0.031706437342
            0.037777101817    0.006219248139    -0.000193969552    -0.000059410258    0.057820365503    -0.023762409837    -0.000216286026    -0.000067661883
            -0.000215068085    -0.000066936180    0.029473537190    0.031706437342    -0.000216286026    -0.000067661883    0.043365152502    0.006256137611
0.150     0.051745016514    -0.039267409166    -0.000256588849    -0.000023446332    0.039714333866    -0.005706134451    -0.000264383316    -0.000024979477
            -0.000256588849    -0.000023446332    0.040679849085    0.004390030911    -0.000237943485    -0.000021496953    0.034615815402    0.030619189442
            0.039714336065    -0.005706133211    -0.000237943485    -0.000021496953    0.051866097456    -0.039353012418    -0.000265975631    -0.000025680726
            -0.000264383316    -0.000024979477    0.034615815402    0.030619189442    -0.000265975631    -0.000025680726    0.040362615396    0.004908727966
0.175     0.038431445159    -0.052936700105    -0.000295350463    0.000034636131    0.035281792426    -0.018305254180    -0.000304639612    0.000035117619
            -0.000295350463    0.000034636131    0.035536446008    0.004890293565    -0.000273766405    0.000032488344    0.037376341087    0.028819987953
            0.035281806804    -0.018305246009    -0.000273766405    0.000032488344    0.038659782573    -0.053105710137    -0.000306607047    0.000034584462
            -0.000304639612    0.000035117619    0.037376341087    0.028819987953    -0.000306607047    0.000034584462    0.035370096568    0.005578902969
0.200     0.018777438104    -0.061410354810    -0.000320490689    0.000109030344    0.024472821154    -0.028542551461    -0.000330616026    0.000112168208
            -0.000320490689    0.000109030344    0.029365220327    0.008498209045    -0.000296911862    0.000101560828    0.037847376148    0.027663275195
            0.024472821154    -0.028542551461    -0.000296911862    0.000101560828    0.019104488095    -0.061723203819    -0.000332888763    0.000111907214
            -0.000330616026    0.000112168208    0.037847376148    0.027663275195    -0.000332888763    0.000111907214    0.029419372153    0.009284779134
0.225     -0.004827842533    -0.061920124445    -0.000326063970    0.000197467471    0.008661731378    -0.033558276017    -0.000336133398    0.000203632010
            -0.000326063970    0.000197467471    0.023691856381    0.015725805438    -0.000301885319    0.000183619305    0.036756547749    0.028304191991
            0.008661731378    -0.033558276017    -0.000301885319    0.000183619305    -0.004442160665    -0.062436473519    -0.000338632008    0.000203658754
            -0.000336133398    0.000203632010    0.036756547749    0.028304191991    -0.000338632008    0.000203658754    0.023995951206    0.016508107680
0.250     -0.028832379251    -0.052888166447    -0.000305685776    0.000295094852    -0.009554869141    -0.031286254671    -0.000314706457    0.000304313605
            -0.000305685776    0.000295094852    0.020226674116    0.026363416942    -0.000282752986    0.000274180251    0.035321302373    0.031428043550
            -0.009554869141    -0.031286254671    -0.000282752986    0.000274180251    -0.028459004207    -0.053650217875    -0.000317409847    0.000304592112
            -0.000314706457    0.000304313605    0.035321302373    0.031428043550    -0.000317409847    0.000304592112    0.020757333403    0.027031474867
0.275     -0.049129417086    -0.034381048678    -0.000253964721    0.000393638106    -0.026795652318    -0.020957442957    -0.000260998474    0.000405584739
            -0.000253964721    0.000393638106    0.020511984483    0.039407034578    -0.000234490170    0.000365546127    0.034972134132    0.037048860596
            -0.026795652318    -0.020957442957    -0.000234490170    0.000365546127    -0.048861244002    -0.035398047211    -0.000264007540    0.000406082421
            -0.000260998474    0.000405584739    0.034972134132    0.037048860596    -0.000264007540    0.000406082421    0.021193480090    0.039869631898
0.300     -0.061839627780    -0.008284312683    -0.000168852616    0.000481702955    -0.039550718498    -0.003374240936    -0.000173142765    0.000495773322
            -0.000168852616    0.000481702955    0.025556585741    0.053202365005    -0.000155172497    0.000447100198    0.037011021438    0.044483794881
            -0.039550718498    -0.003374240936    -0.000155172497    0.000447100198    -0.061775390993    -0.009521795616    -0.000176632395    0.000496589579
            -0.000173142765    0.000495773322    0.037011021438    0.044483794881    -0.000176632395    0.000496589579    0.026274265861    0.053412075117
0.325     -0.064115391883    0.021934691298    -0.000053392695    0.000546628186    -0.044905330851    0.019162038015    -0.000054435803    0.000562059251
            -0.000053392695    0.000546628186    0.035562642348    0.065726716415    -0.000047647117    0.000507022206    0.042282813216    0.052484673006
            -0.044905330851    0.019162038015    -0.000047647117    0.000507022206    -0.064337409629    0.020556419882    -0.000058577832    0.000563477896
            -0.000054435803    0.000562059251    0.042282813216    0.052484673006    -0.000058577832    0.000563477896    0.036187546823    0.065695358380
0.350     -0.054775861893    0.051806310578    0.000083728514    0.000577457349    -0.041163728909    0.043258333555    0.000086182221    0.000593447440
            0.000083728514    0.000577457349    0.049826442092    0.075012825238    0.000079934581    0.000535082707    0.050971442321    0.059531930839
            -0.041163728909    0.043258333555    0.000079934581    0.000535082707    -0.055329742501    0.050403468433    0.000081383110    0.000595939602
            0.000086182221    0.000593447440    0.050971442321    0.059531930839    0.000081383110    0.000595939602    0.050244626698    0.074812518409
0.375     -0.034584769270    0.076676650420    0.000229614290    0.000567676717    -0.028193135816    0.065071706539    0.000235649814    0.000583461002
            0.000229614290    0.000567676717    0.066846500464    0.079541622224    0.000215489208    0.000525234505    0.062550898697    0.064164026415
            -0.028193135816    0.065071706539    0.000215489208    0.000525234505    -0.035464024654    0.075383090238    0.000230456586    0.000587577381
            0.000235649814    0.000583461002    0.062550898697    0.064164026415    0.000230456586    0.000587577381    0.066986003945    0.079293286624
0.400     -0.006145881030    0.092546655243    0.000369981896    0.000516838452    -0.007444066457    0.081017830535    0.000379567906    0.000531700535
            0.000369981896    0.000516838452    0.084612066995    0.078560013910    0.000345659817    0.000477117489    0.075913809401    0.065291456301
            -0.007444066457    0.081017830535    0.000345659817    0.000477117489    -0.007286262185    0.091490715956    0.000374591245    0.000537889913
            0.000379567906    0.000531700535    0.075913809401    0.065291456301    0.000374591245    0.000537889913    0.084462097678    0.078409622233
0.425     0.026553427154    0.096742369849    0.000492278728    0.000430133711    0.018331720686    0.088363704767    0.000505321400    0.000443366213
            0.000492278728    0.000430133711    0.100980334415    0.072201136220    0.000458697601    0.000395668653    0.089591986886    0.062384812172
            0.018331720686    0.088363704767    0.000458697601    0.000395668653    0.025269129037    0.096022028710    0.000501430535    0.000451791672
            0.000505321400    0.000443366213    0.089591986886    0.062384812172    0.000501430535    0.000451791672    0.100597147707    0.072290358644
0.450     0.058789026007    0.088319996084    0.000587962912    0.000316613381    0.045538290491    0.085633104439    0.000604285615    0.000327471927
            0.000587962912    0.000316613381    0.114060489002    0.061446138276    0.000546661615    0.000289419522    0.102033451780    0.055560816188
            0.045538290491    0.085633104439    0.000546661615    0.000289419522    0.057516436777    0.087982174054    0.000602438671    0.000337879558
            0.000604285615    0.000327471927    0.102033451780    0.055560816188    0.000602438671    0.000337879558    0.113559338823    0.061884217535
0.475     0.085801609052    0.068169743377    0.000653336268    0.000186503109    0.070257256657    0.072783386134    0.000672640209    0.000194147976
            0.000653336268    0.000186503109    0.122509680106    0.047930312720    0.000606142098    0.000167992292    0.111847827188    0.045542277392
            0.070257256657    0.072783386134    0.000606142098    0.000167992292    0.084712325784    0.068196804463    0.000673673670    0.000205836386
            0.000672640209    0.000194147976    0.111847827188    0.045542277392    0.000673673670    0.000205836386    0.122048273956    0.048771323759
0.500     0.103447904537    0.038887813578    0.000689011102    0.000048767037    0.088765638166    0.051218818124    0.000710757526    0.000052291058
            0.000689011102    0.000048767037    0.125739863065    0.033678967747    0.000637774420    0.000039830282    0.118033688165    0.033556855059
            0.088765638166    0.051218818124    0.000637774420    0.000039830282    0.102704903434    0.039192311546    0.000715149588    0.000064237365
            0.000710757526    0.000052291058    0.118033688165    0.033556855059    0.000715149588    0.000064237365    0.125492164606    0.034906400331
0.525     0.108747498678    0.004460293134    0.000698120978    -0.000090656890    0.098005810535    0.023656080079    0.000721438414    -0.000092106137
            0.000698120978    -0.000090656890    0.123995989424    0.020791481634    0.000644570614    -0.000089404759    0.120136936893    0.021157091458
            0.098005810535    0.023656080079    0.000644570614    -0.000089404759    0.108477218410    0.004889119993    0.000729194861    -0.000081070752
            0.000721438414    -0.000092106137    0.120136936893    0.021157091458    0.000729194861    -0.000081070752    0.124122680010    0.022315882932
0.550     0.100323689232    -0.030192231230    0.000684069187    -0.000229315586    0.096036268626    -0.006129939284    0.000707721252    -0.000236444304
            0.000684069187    -0.000229315586    0.118346400975    0.011127601608    0.000629861962    -0.000217395512    0.118374277209    0.010000292784
            0.096036268626    -0.006129939284    0.000629861962    -0.000217395512    0.100589611915    -0.029843264965    0.000718356784    -0.000227349820
            0.000707721252    -0.000236444304    0.118374277209    0.010000292784    0.000718356784    -0.000227349820    0.118963957572    0.012794128606
0.575     0.078702246247    -0.059803401527    0.000648151509    -0.000367405256    0.082408989240    -0.033711491176    0.000670571412    -0.000380539072
            0.000648151509    -0.000367405256    0.110549197202    0.005996107119    0.000595049498    -0.000344308432    0.113651550571    0.001562440657
            0.082408989240    -0.033711491176    0.000595049498    -0.000344308432    0.079484192689    -0.059764382080    0.000683255068    -0.000374070030
            0.000670571412    -0.000380539072    0.113651550571    0.001562440657    0.000683255068    -0.000374070030    0.111703764081    0.007605941303
0.600     0.046430726488    -0.079485892259    0.000588118531    -0.000505567556    0.058444982531    -0.054596741141    0.000607537158    -0.000524512603
            0.000588118531    -0.000505567556    0.102818656661    0.005888710174    0.000538245104    -0.000470810479    0.107485289388    -0.003159987650
            0.058444982531    -0.054596741141    0.000538245104    -0.000470810479    0.047613433559    -0.079977408437    0.000621372705    -0.000520841328
            0.000607537158    -0.000524512603    0.107485289388    -0.003159987650    0.000621372705    -0.000520841328    0.104469133665    0.007231762823
0.625     0.007913630560    -0.085536340340    0.000498256343    -0.000641729099    0.027257931937    -0.064964452661    0.000512960590    -0.000665641456
            0.000498256343    -0.000641729099    0.097453482258    0.010302762712    0.000454311440    -0.000595128387    0.101747905170    -0.003927284777
            0.027257931937    -0.064964452661    0.000454311440    -0.000595128387    0.009290249492    -0.086729323908    0.000527270593    -0.000664561237
            0.000512960590    -0.000665641456    0.101747905170    -0.003927284777    0.000527270593    -0.000664561237    0.099469318016    0.011196619122
0.650     -0.031122696064    -0.076209614647    0.000371863372    -0.000768450963    -0.006569711104    -0.062456565577    0.000380472266    -0.000795892705
            0.000371863372    -0.000768450963    0.096390329709    0.017734884018    0.000337083669    -0.000710583702    0.098299865950    -0.001392540961
            -0.006569711104    -0.062456565577    0.000337083669    -0.000710583702    -0.029826304947    -0.078184954233    0.000394996458    -0.000797047771
            0.000380472266    -0.000795892705    0.098299865949    -0.001392540978    0.000394996458    -0.000797047771    0.098569208055    0.018064819581
0.675     -0.064537785082    -0.052230846122    0.000205408894    -0.000872166325    -0.037711488541    -0.046781535719    0.000207097555    -0.000901291022
            0.000205408894    -0.000872166325    0.100742020040    0.025901455924    0.000183291953    -0.000804768963    0.098531036732    0.002962668902
            -0.037711488541    -0.046781535719    0.000183291953    -0.000804768963    -0.063621855714    -0.054952441462    0.000221963213    -0.000904535761
            0.000207097555    -0.000901291022    0.098531036732    0.002962668902    0.000221963213    -0.000904535761    0.102845024172    0.025649196990
0.700     -0.086918380896    -0.016836758481    0.000002796156    -0.000935747552    -0.061107806187    -0.019923825022    -0.000002552953    -0.000964575702
            0.000002796156    -0.000935747552    0.110491192465    0.032188068893    -0.000003534807    -0.000861962232    0.103008928984    0.007138628754
            -0.061107806187    -0.019923825022    -0.000003534807    -0.000861962232    -0.086655380569    -0.020145570123    0.000012919144    -0.000970228251
            -0.000002552953    -0.000964575702    0.103008928984    0.007138628754    0.000012919144    -0.000970228251    0.112290370117    0.031441294213
0.725     -0.094641658734    0.024764397542    -0.000222775168    -0.000943532091    -0.072969248321    0.014201245132    -0.000234642853    -0.000970275185
            -0.000222775168    -0.000943532091    0.124431968904    0.034221545010    -0.000211222242    -0.000867752496    0.111306221938    0.009080045893
            -0.072969248321    0.014201245132    -0.000211222242    -0.000867752496    -0.095225081668    0.021130526999    -0.000218572155    -0.000979133528
            -0.000234642853    -0.000970275185    0.111306221938    0.009080045893    -0.000218572155    -0.000979133528    0.125757237671    0.033158447261
0.750     -0.086552331414    0.066400212452    -0.000450737289    -0.000886865606    -0.071487249685    0.050544403501    -0.000468172015    -0.000910113860
            -0.000450737289    -0.000886865606    0.140427120298    0.030392918580    -0.000420815093    -0.000814220894    0.122125986893    0.007149484182
            -0.071487249685    0.050544403501    -0.000420815093    -0.000814220894    -0.088058552285    0.062763636151    -0.000452099960    -0.000923271317
            -0.000468172015    -0.000910113860    0.122125986893    0.007149484182    -0.000452099960    -0.000923271317    0.141200488391    0.029248581406
0.775     -0.064049541523    0.102102451171    -0.000657974405    -0.000767197007    -0.057020658101    0.083916014710    -0.000679787246    -0.000786016931
            -0.000657974405    -0.000767197007    0.155866004200    0.020178058303    -0.000611026407    -0.000702776894    0.133602927853    0.000454227663
            -0.057020658101    0.083916014710    -0.000611026407    -0.000702776894    -0.066424734124    0.098792616124    -0.000665121925    -0.000804374106
            -0.000679787246    -0.000786016931    0.133602927853    0.000454227663    -0.000665121925    -0.000804374106    0.156115890371    0.019197536629
