# GHz S RI R 45
0.000     0.030238046633    0.001250284191    -0.000000000449    -0.000000055548    0.000944414875    0.001382883840    0.000000014141    -0.000000030050
            -0.000000000449    -0.000000055548    0.029155880913    0.001576692513    -0.000000004758    -0.000000063023    0.000908966254    0.001637554451
            0.000944414295    0.001382883872    -0.000000004758    -0.000000063023    0.030174224855    0.001254676880    0.000000009786    -0.000000037622
            0.000000014141    -0.000000030050    0.000908966445    0.001637554459    0.000000009786    -0.000000037622    0.029094355971    0.001588512158
0.025     0.035691774219    0.007943006926    -0.000000012334    -0.000000129248    0.003128450725    0.011437046618    0.000000014451    -0.000000073445
            -0.000000012334    -0.000000129248    0.034098542434    0.007940716179    -0.000000019288    -0.000000145884    0.002681209671    0.010997542017
            0.003130846891    0.011436719573    -0.000000019288    -0.000000145884    0.035652914009    0.008014436427    0.000000007419    -0.000000090324
            0.000000014451    -0.000000073446    0.002681464449    0.010996967308    0.000000007419    -0.000000090324    0.034011804985    0.007896463497
0.050     0.041307663994    0.009320717317    -0.000000039513    -0.000000243069    0.009209015567    0.020746620080    0.000000006621    -0.000000146046
            -0.000000039513    -0.000000243069    0.038847034113    0.010022204797    -0.000000051302    -0.000000273460    0.007700885452    0.020435217184
            0.009209049390    0.020746626948    -0.000000051302    -0.000000273460    0.041312717771    0.009456562047    -0.000000005255    -0.000000176816
            0.000000006621    -0.000000146046    0.007700982704    0.020435211525    -0.000000005255    -0.000000176816    0.038668944849    0.009969894871
0.075     0.045693341815    0.007670972017    -0.000000070445    -0.000000349669    0.017501878556    0.026410085521    -0.000000002785    -0.000000215821
            -0.000000070445    -0.000000349669    0.042439222008    0.009920222198    -0.000000088177    -0.000000392696    0.014785332593    0.027177837357
            0.017501893760    0.026410087442    -0.000000088177    -0.000000392696    0.045773115090    0.007847538769    -0.000000020696    -0.000000259441
            -0.000000002785    -0.000000215821    0.014785328320    0.027177838543    -0.000000020696    -0.000000259441    0.042159103026    0.009928816088
0.100     0.047714996676    0.003636365693    -0.000000104434    -0.000000453273    0.025941654113    0.028020864953    -0.000000012063    -0.000000285023
            -0.000000104434    -0.000000453273    0.044313730930    0.008235048592    -0.000000129328    -0.000000508312    0.022501118255    0.030841053170
            0.025941654113    0.028020864953    -0.000000129328    -0.000000508312    0.047882486045    0.003810109061    -0.000000037277    -0.000000340863
            -0.000000012063    -0.000000285023    0.022501092495    0.030841060822    -0.000000037277    -0.000000340863    0.043953124226    0.008373631980
0.125     0.046149051097    -0.001409867037    -0.000000141271    -0.000000557693    0.032573855264    0.026185608015    -0.000000019909    -0.000000357033
            -0.000000141271    -0.000000557693    0.043744463453    0.005935602048    -0.000000174800    -0.000000624305    0.029473537190    0.031706437342
            0.032573855264    0.026185608015    -0.000000174800    -0.000000624305    0.046392249254    -0.001287554965    -0.000000053922    -0.000000424460
            -0.000000019909    -0.000000357033    0.029473537190    0.031706437342    -0.000000053922    -0.000000424460    0.043365152502    0.006256137611
0.150     0.040674986125    -0.005487621122    -0.000000182259    -0.000000667270    0.035978644755    0.022370392961    -0.000000027144    -0.000000435719
            -0.000000182259    -0.000000667270    0.040679849085    0.004390030911    -0.000000226018    -0.000000744727    0.034615815402    0.030619189442
            0.035978675727    0.022370379132    -0.000000226018    -0.000000744727    0.040962314137    -0.005454816166    -0.000000071639    -0.000000514151
            -0.000000027144    -0.000000435719    0.034615815402    0.030619189442    -0.000000071639    -0.000000514151    0.040362615396    0.004908727966
0.175     0.031839180410    -0.006532854429    -0.000000232177    -0.000000785727    0.035605774408    0.018565903376    -0.000000036875    -0.000000525392
            -0.000000232177    -0.000000785727    0.035536446008    0.004890293565    -0.000000288014    -0.000000873200    0.037376341087    0.028819987953
            0.035605792501    0.018565894631    -0.000000288014    -0.000000873200    0.032118499922    -0.006612242587    -0.000000093830    -0.000000613974
            -0.000000036875    -0.000000525392    0.037376341087    0.028819987953    -0.000000093830    -0.000000613974    0.035370096568    0.005578902969
0.200     0.021217488097    -0.002826294902    -0.000000298037    -0.000000914035    0.031949782335    0.016840461241    -0.000000054667    -0.000000628533
            -0.000000298037    -0.000000914035    0.029365220327    0.008498209045    -0.000000368058    -0.000001010402    0.037847376148    0.027663275195
            0.031949782335    0.016840461241    -0.000000368058    -0.000001010402    0.021425173178    -0.003014216920    -0.000000126237    -0.000000726033
            -0.000000054667    -0.000000628533    0.037847376148    0.027663275195    -0.000000126237    -0.000000726033    0.029419372153    0.009284779134
0.225     0.011185182007    0.006491759465    -0.000000388259    -0.000001049536    0.026502951751    0.018815901984    -0.000000088174    -0.000000745508
            -0.000000388259    -0.000001049536    0.023691856381    0.015725805438    -0.000000474694    -0.000001153066    0.036756547749    0.028304191991
            0.026502951751    0.018815901984    -0.000000474694    -0.000001153066    0.011259623268    0.006230629669    -0.000000176582    -0.000000850041
            -0.000000088174    -0.000000745508    0.036756547749    0.028304191991    -0.000000176582    -0.000000850041    0.023995951206    0.016508107680
0.250     0.004442621121    0.021089920664    -0.000000510083    -0.000001184428    0.021451928820    0.025210936425    -0.000000145504    -0.000000871991
            -0.000000510083    -0.000001184428    0.020226674116    0.026363416942    -0.000000614987    -0.000001292668    0.035321302373    0.031428043550
            0.021451928820    0.025210936425    -0.000000614987    -0.000001292668    0.004339815666    0.020821170296    -0.000000252721    -0.000000980989
            -0.000000145504    -0.000000871991    0.035321302373    0.031428043550    -0.000000252721    -0.000000980989    0.020757333403    0.027031474867
0.275     0.003399212757    0.039329742782    -0.000000667260    -0.000001306815    0.019149598065    0.035561118284    -0.000000233247    -0.000000999653
            -0.000000667260    -0.000001306815    0.020511984483    0.039407034578    -0.000000792138    -0.000001416568    0.034972134132    0.037048860596
            0.019149598065    0.035561118284    -0.000000792138    -0.000001416568    0.003107324143    0.039139746736    -0.000000360664    -0.000001109837
            -0.000000233247    -0.000000999653    0.034972134132    0.037048860596    -0.000000360664    -0.000001109837    0.021193480090    0.039869631898
0.300     0.009535297913    0.058519240308    -0.000000856697    -0.000001402252    0.021495827051    0.048264826578    -0.000000352952    -0.000001115822
            -0.000000856697    -0.000001402252    0.025556585741    0.053202365005    -0.000001002154    -0.000001509847    0.037011021438    0.044483794881
            0.021495827051    0.048264826578    -0.000001002154    -0.000001509847    0.009083922400    0.058498991980    -0.000000501050    -0.000001223524
            -0.000000352952    -0.000001115822    0.037011021438    0.044483794881    -0.000000501050    -0.000001223524    0.026274265861    0.053412075117
0.325     0.022955859013    0.075453795772    -0.000001068149    -0.000001458456    0.029411071808    0.060941166865    -0.000000499779    -0.000001207927
            -0.000001068149    -0.000001458456    0.035562642348    0.065726716415    -0.000001233675    -0.000001560130    0.042282813216    0.052484673006
            0.029411071808    0.060941166865    -0.000001233675    -0.000001560130    0.022416385122    0.075678378335    -0.000000667970    -0.000001309418
            -0.000000499779    -0.000001207927    0.042282813216    0.052484673006    -0.000000667970    -0.000001309418    0.036187546823    0.065695358380
0.350     0.042287709668    0.087153890904    -0.000001284857    -0.000001468876    0.042592083514    0.071023140695    -0.000000661688    -0.000001266268
            -0.000001284857    -0.000001468876    0.049826442092    0.075012825238    -0.000001468891    -0.000001561305    0.050971442321    0.059531930839
            0.042592083514    0.071023140695    -0.000001468891    -0.000001561305    0.041763155940    0.087663827087    -0.000000848372    -0.000001358307
            -0.000000661688    -0.000001266268    0.050971442321    0.059531930839    -0.000000848372    -0.000001358307    0.050244626698    0.074812518409
0.375     0.064956947082    0.091519003426    -0.000001488618    -0.000001436256    0.059593207317    0.076349963543    -0.000000823325    -0.000001288947
            -0.000001488618    -0.000001436256    0.066846500464    0.079541622224    -0.000001688811    -0.000001516920    0.062550898697    0.064164026415
            0.059593207317    0.076349963543    -0.000001688811    -0.000001516920    0.064565546324    0.092308125521    -0.000001026185    -0.000001369068
            -0.000000823325    -0.000001288947    0.062550898697    0.064164026415    -0.000001026185    -0.000001369068    0.066986003945    0.079293286624
0.400     0.087742982809    0.087762121320    -0.000001663731    -0.000001371997    0.078181126240    0.075619601933    -0.000000969278    -0.000001281799
            -0.000001663731    -0.000001371997    0.084612066995    0.078560013910    -0.000001877392    -0.000001439427    0.075913809401    0.065291456301
            0.078181126240    0.075619601933    -0.000001877392    -0.000001439427    0.087595927066    0.088773517418    -0.000001185688    -0.000001348599
            -0.000000969278    -0.000001281799    0.075913809401    0.065291456301    -0.000001185688    -0.000001348599    0.084462097678    0.078409622233
0.425     0.107410690849    0.076502224024    -0.000001802345    -0.000001293909    0.095791923411    0.068585086235    -0.000001089755    -0.000001258062
            -0.000001802345    -0.000001293909    0.100980334415    0.072201136220    -0.000002026894    -0.000001347657    0.089591986886    0.062384812172
            0.095791923411    0.068585086235    -0.000002026894    -0.000001347657    0.107591378658    0.077633825794    -0.000001317228    -0.000001311066
            -0.000001089755    -0.000001258062    0.089591986886    0.062384812172    -0.000001317228    -0.000001311066    0.100597147707    0.072290358644
0.450     0.121275027910    0.059602246190    -0.000001905065    -0.000001221480    0.109983675568    0.056058521850    -0.000001181628    -0.000001233783
            -0.000001905065    -0.000001221480    0.114060489002    0.061446138276    -0.000002138443    -0.000001261968    0.102033451780    0.055560816188
            0.109983675568    0.056058521850    -0.000002138443    -0.000001261968    0.121822225079    0.060720028180    -0.000001418197    -0.000001273372
            -0.000001181628    -0.000001233783    0.102033451780    0.055560816188    -0.000001418197    -0.000001273372    0.113559338823    0.061884217535
0.475     0.127601915501    0.039824685055    -0.000001981763    -0.000001172027    0.118801107667    0.039761278780    -0.000001250259    -0.000001225002
            -0.000001981763    -0.000001172027    0.122509680106    0.047930312720    -0.000002222692    -0.000001200191    0.111847827188    0.045542277392
            0.118801107667    0.039761278780    -0.000002222692    -0.000001200191    0.128497342966    0.040781906062    -0.000001494750    -0.000001252005
            -0.000001250259    -0.000001225002    0.111847827188    0.045542277392    -0.000001494750    -0.000001252005    0.122048273956    0.048771323759
0.500     0.125861237002    0.020421936081    -0.000002048303    -0.000001157418    0.121080820091    0.022108283489    -0.000001306638    -0.000001243967
            -0.000002048303    -0.000001157418    0.125739863065    0.033678967747    -0.000002296444    -0.000001174372    0.118033688165    0.033556855059
            0.121080820091    0.022108283489    -0.000002296444    -0.000001174372    0.127024670802    0.021081739293    -0.000001558746    -0.000001259340
            -0.000001306638    -0.000001243967    0.118033688165    0.033556855059    -0.000001558746    -0.000001259340    0.125492164606    0.034906400331
0.525     0.116836777989    0.004678221164    -0.000002125317    -0.000001182454    0.116686865712    0.005900388359    -0.000001366955    -0.000001298167
            -0.000002125317    -0.000001182454    0.123995989424    0.020791481634    -0.000002381263    -0.000001189052    0.120136936893    0.021157091458
            0.116686865712    0.005900388359    -0.000002381263    -0.000001189052    0.118131199753    0.004940122641    -0.000001627276    -0.000001302554
            -0.000001366955    -0.000001298167    0.120136936893    0.021157091458    -0.000001627276    -0.000001302554    0.124122680010    0.022315882932
0.550     0.102628419766    -0.004578097581    -0.000002234709    -0.000001243830    0.106691745020    -0.006077119069    -0.000001449554    -0.000001388807
            -0.000002234709    -0.000001243830    0.118346400975    0.011127601608    -0.000002499860    -0.000001240277    0.118374277209    0.010000292784
            0.106691745020    -0.006077119069    -0.000002499860    -0.000001240277    0.103873699061    -0.004753111985    -0.000001719378    -0.000001382199
            -0.000001449554    -0.000001388807    0.118374277209    0.010000292784    -0.000001719378    -0.000001382199    0.118963957572    0.012794128606
0.575     0.086471374770    -0.005514873720    -0.000002398495    -0.000001329191    0.093389691731    -0.011596954396    -0.000001575093    -0.000001510287
            -0.000002398495    -0.000001329191    0.110549197202    0.005996107119    -0.000002674796    -0.000001314665    0.113651550571    0.001562440657
            0.093389691731    -0.011596954396    -0.000002674796    -0.000001314665    0.087472377409    -0.006084467878    -0.000001856166    -0.000001491642
            -0.000001575093    -0.000001510287    0.113651550571    0.001562440657    -0.000001856166    -0.000001491642    0.111703764081    0.007605941303
0.600     0.072314357007    0.002183983546    -0.000002634504    -0.000001416066    0.080054991486    -0.009588274626    -0.000001763247    -0.000001647806
            -0.000002634504    -0.000001416066    0.102818656661    0.005888710174    -0.000002923947    -0.000001388418    0.107485289388    -0.003159987650
            0.080054991486    -0.009588274626    -0.000002923947    -0.000001388418    0.072899380544    0.001351318332    -0.000002057235    -0.000001614847
            -0.000001763247    -0.000001647806    0.107485289388    -0.003159987650    -0.000002057235    -0.000001614847    0.104469133665    0.007231762823
0.625     0.064076718260    0.016971535851    -0.000002952344    -0.000001471780    0.070318432377    -0.000637050446    -0.000002029888    -0.000001775952
            -0.000002952344    -0.000001471780    0.097453482258    0.010302762712    -0.000003256313    -0.000001427409    0.101747905170    -0.003927284777
            0.070318433388    -0.000637049302    -0.000003256313    -0.000001427409    0.064140273049    0.016083581103    -0.000002337819    -0.000001725086
            -0.000002029888    -0.000001775952    0.101747905170    -0.003927284777    -0.000002337819    -0.000001725086    0.099469318016    0.011196619122
0.650     0.064699444049    0.035511311483    -0.000003345558    -0.000001456652    0.067269396293    0.012905204827    -0.000002378795    -0.000001858867
            -0.000003345558    -0.000001456652    0.096390329709    0.017734884018    -0.000003664145    -0.000001390816    0.098299865950    -0.001392540961
            0.067269396293    0.012905204827    -0.000003664145    -0.000001390816    0.064238202664    0.034816556497    -0.000002700343    -0.000001785510
            -0.000002378795    -0.000001858867    0.098299865949    -0.001392540978    -0.000002700343    -0.000001785510    0.098569208055    0.018064819581
0.675     0.075265468464    0.053312968276    -0.000003787458    -0.000001332647    0.072533213596    0.027368291036    -0.000002795581    -0.000001856870
            -0.000003787458    -0.000001332647    0.100742020040    0.025901455924    -0.000004118790    -0.000001240031    0.098531036732    0.002962668902
            0.072533213596    0.027368291036    -0.000004118790    -0.000001240031    0.074391530428    0.053047707950    -0.000003128607    -0.000001756019
            -0.000002795581    -0.000001856870    0.098531036732    0.002962668902    -0.000003128607    -0.000001756019    0.102845024172    0.025649196990
0.700     0.094603404636    0.065826422611    -0.000004230662    -0.000001076016    0.085769189362    0.038713971408    -0.000003243486    -0.000001737986
            -0.000004230662    -0.000001076016    0.110491192465    0.032188068893    -0.000004570699    -0.000000951736    0.103008928984    0.007138628754
            0.085769189362    0.038713971408    -0.000004570699    -0.000000951736    0.093529094565    0.066159997317    -0.000003583812    -0.000001605181
            -0.000003243486    -0.000001737986    0.103008928984    0.007138628754    -0.000003583812    -0.000001605181    0.112290370117    0.031441294213
0.725     0.119569008888    0.069588112237    -0.000004617940    -0.000000688638    0.104787113539    0.043593722939    -0.000003671009    -0.000001491343
            -0.000004617940    -0.000000688638    0.124431968904    0.034221545010    -0.000004960765    -0.000000529199    0.111306221938    0.009080045893
            0.104787113539    0.043593722939    -0.000004960765    -0.000000529199    0.118565761735    0.070582998348    -0.000004012759    -0.000001323487
            -0.000003671009    -0.000001491343    0.111306221938    0.009080045893    -0.000004012759    -0.000001323487    0.125757237671    0.033158447261
0.750     0.145902559828    0.062978260898    -0.000004896863    -0.000000201601    0.126234145665    0.040102731345    -0.000004024469    -0.000001133917
            -0.000004896863    -0.000000201601    0.140427120298    0.030392918580    -0.000005235407    -0.000000005725    0.122125986893    0.007149484182
            0.126234145665    0.040102731345    -0.000005235407    -0.000000005725    0.145245951871    0.064576671759    -0.000004360789    -0.000000930070
            -0.000004024469    -0.000001133917    0.122125986893    0.007149484182    -0.000004360789    -0.000000930070    0.141200488391    0.029248581406
0.775     0.169240954396    0.046378079878    -0.000005036240    0.000000332004    0.146445093718    0.027992817941    -0.000004265495    -0.000000707294
            -0.000005036240    0.000000332004    0.155866004200    0.020178058303    -0.000005363351    0.000000563116    0.133602927853    0.000454227663
            0.146445093718    0.027992817941    -0.000005363351    0.000000563116    0.169162035874    0.048413364452    -0.000004589541    -0.000000468816
