# GHz S RI R 45
0.000     0.028071506030    0.001705374516    -0.000001704454    -0.000003680553    0.000811702052    0.001438737728    -0.000001549007    -0.000003388564
            -0.000001704454    -0.000003680553    0.029155880913    0.001576692513    -0.000001899816    -0.000004051142    0.000908966254    0.001637554451
            0.000811702252    0.001438737730    -0.000001899816    -0.000004051142    0.028021452710    0.001718216567    -0.000001706826    -0.000003694048
            -0.000001549009    -0.000003388565    0.000908966445    0.001637554459    -0.000001706829    -0.000003694048    0.029094355971    0.001588512158
0.025     0.034593958463    0.006979566052    -0.000004384230    -0.000007635279    0.003582625459    0.009253964236    -0.000004019271    -0.000007033514
            -0.000004384227    -0.000007635276    0.034098542434    0.007940716179    -0.000004843559    -0.000008408081    0.002681209671    0.010997542017
            0.003580891568    0.009252851181    -0.000004843564    -0.000008408091    0.034532900031    0.006933431112    -0.000004394312    -0.000007669797
            -0.000004019276    -0.000007033525    0.002681464449    0.010996967308    -0.000004394315    -0.000007669800    0.034011804985    0.007896463497
0.050     0.043225451410    0.006397659171    -0.000010023587    -0.000012318463    0.011159184398    0.015679304468    -0.000009224882    -0.000011341654
            -0.000010023587    -0.000012318463    0.038847034113    0.010022204797    -0.000011037493    -0.000013573296    0.007700885452    0.020435217184
            0.011159146036    0.015679267946    -0.000011037494    -0.000013573296    0.043178226974    0.006312999956    -0.000010059286    -0.000012374193
            -0.000009224882    -0.000011341654    0.007700982704    0.020435211525    -0.000010059286    -0.000012374193    0.038668944849    0.009969894871
0.075     0.051946033345    0.000621990425    -0.000017214881    -0.000014438442    0.021475637960    0.017226473622    -0.000015856513    -0.000013272324
            -0.000017214881    -0.000014438442    0.042439222008    0.009920222198    -0.000018931621    -0.000015931709    0.014785332593    0.027177837357
            0.021475631411    0.017226476993    -0.000018931621    -0.000015931709    0.051928250532    0.000491447260    -0.000017271960    -0.000014496178
            -0.000015856513    -0.000013272324    0.014785328320    0.027177838543    -0.000017271960    -0.000014496178    0.042159103026    0.009928816088
0.100     0.058558597488    -0.010421754006    -0.000025255405    -0.000013828483    0.031894111511    0.013081967249    -0.000023251099    -0.000012679880
            -0.000025255405    -0.000013828483    0.044313730930    0.008235048592    -0.000027765138    -0.000015307023    0.022501118255    0.030841053170
            0.031894111283    0.013081967806    -0.000027765138    -0.000015307023    0.058583399938    -0.010614667938    -0.000025317478    -0.000013884269
            -0.000023251099    -0.000012679880    0.022501092495    0.030841060822    -0.000025317478    -0.000013884269    0.043953124226    0.008373631980
0.125     0.060485472735    -0.025600782597    -0.000033387461    -0.000010383300    0.039676825386    0.003650148907    -0.000030709569    -0.000009483715
            -0.000033387461    -0.000010383300    0.043744463453    0.005935602048    -0.000036715538    -0.000011581254    0.029473537190    0.031706437342
            0.039676822601    0.003650135522    -0.000036715538    -0.000011581254    0.060566399929    -0.025881885817    -0.000033442321    -0.000010451440
            -0.000030709569    -0.000009483715    0.029473537190    0.031706437342    -0.000033442321    -0.000010451440    0.043365152502    0.006256137611
0.150     0.055869215962    -0.042747930541    -0.000040894958    -0.000004147836    0.042507816208    -0.009488562520    -0.000037578905    -0.000003740275
            -0.000040894958    -0.000004147836    0.040679849085    0.004390030911    -0.000045005370    -0.000004799534    0.034615815402    0.030619189442
            0.042507816208    -0.009488562520    -0.000045005370    -0.000004799534    0.055990749533    -0.043149912920    -0.000040945320    -0.000004257225
            -0.000037578905    -0.000003740275    0.034615815402    0.030619189442    -0.000040945320    -0.000004257225    0.040362615396    0.004908727966
0.175     0.043811828226    -0.058796053820    -0.000047085522    0.000004784409    0.038922049066    -0.023850958695    -0.000043241863    0.000004460023
            -0.000047085522    0.000004784409    0.035536446008    0.004890293565    -0.000051881179    0.000004943850    0.037376341087    0.028819987953
            0.038922049066    -0.023850958695    -0.000051881179    0.000004943850    0.043953659383    -0.059348679940    -0.000047163323    0.000004604144
            -0.000043241863    0.000004460023    0.037376341087    0.028819987953    -0.000047163323    0.000004604144    0.035370096568    0.005578902969
0.200     0.024881538653    -0.070440671129    -0.000051208768    0.000016228896    0.028642534943    -0.036467866026    -0.000047024528    0.000014959129
            -0.000051208768    0.000016228896    0.029365220327    0.008498209045    -0.000056524843    0.000017457770    0.037847376148    0.027663275195
            0.028642534943    -0.036467866026    -0.000056524843    0.000017457770    0.025007899084    -0.071170490244    -0.000051371034    0.000015974923
            -0.000047024528    0.000014959129    0.037847376148    0.027663275195    -0.000051371034    0.000015974923    0.029419372153    0.009284779134
0.225     0.001061692133    -0.074765341193    -0.000052389783    0.000029821388    0.012707350497    -0.044415231107    -0.000048125903    0.000027442861
            -0.000052389783    0.000029821388    0.023691856381    0.015725805438    -0.000057978040    0.000032358279    0.036756547749    0.028304191991
            0.012707350497    -0.044415231107    -0.000057978040    0.000032358279    0.001119143008    -0.075685139166    -0.000052700442    0.000029527707
            -0.000048125903    0.000027442861    0.036756547749    0.028304191991    -0.000052700442    0.000029527707    0.023995951206    0.016508107680
0.250     -0.024474597054    -0.069834123526    -0.000049718964    0.000044839015    -0.006625304543    -0.045384384613    -0.000045696040    0.000041266165
            -0.000049718964    0.000044839015    0.020226674116    0.026363416942    -0.000055238082    0.000048872795    0.035321302373    0.031428043550
            -0.006625304543    -0.045384384613    -0.000055238082    0.000048872795    -0.024549826388    -0.070932542021    -0.000050222487    0.000044582212
            -0.000045696040    0.000041266165    0.035321302373    0.031428043550    -0.000050222487    0.000044582212    0.020757333403    0.027031474867
0.275     -0.047853609659    -0.055136641838    -0.000042434117    0.000060103361    -0.026216407648    -0.038166097749    -0.000039004985    0.000055353267
            -0.000042434117    0.000060103361    0.020511984483    0.039407034578    -0.000047453997    0.000065728186    0.034972134132    0.037048860596
            -0.026216407648    -0.038166097749    -0.000047453997    0.000065728186    -0.048124661381    -0.056373231579    -0.000043127164    0.000059987791
            -0.000039004985    0.000055353267    0.034972134132    0.037048860596    -0.000043127164    0.000059987791    0.021193480090    0.039869631898
0.300     -0.065151785712    -0.031832775609    -0.000030218544    0.000074023390    -0.042583293589    -0.022970106493    -0.000027735047    0.000068223273
            -0.000030218544    0.000074023390    0.025556585741    0.053202365005    -0.000034251812    0.000081194526    0.037011021438    0.044483794881
            -0.042583293589    -0.022970106493    -0.000034251812    0.000081194526    -0.065667720560    -0.033136461750    -0.000031039412    0.000074147971
            -0.000027735047    0.000068223273    0.037011021438    0.044483794881    -0.000031039412    0.000074147971    0.026274265861    0.053412075117
0.325     -0.073112740933    -0.002663429935    -0.000013426935    0.000084821077    -0.052531668286    -0.001470076709    -0.000012196240    0.000078208088
            -0.000013426935    0.000084821077    0.035562642348    0.065726716415    -0.000015983869    0.000093325037    0.042282813216    0.052484673006
            -0.052531668286    -0.001470076709    -0.000015983869    0.000093325037    -0.073893199152    -0.003939260152    -0.000014266069    0.000085244773
            -0.000012196240    0.000078208088    0.042282813216    0.052484673006    -0.000014266069    0.000085244773    0.036187546823    0.065695358380
0.350     -0.069786139779    0.028428413917    0.000006822576    0.000090910091    -0.053766445285    0.023428768029    0.000006572011    0.000083807251
            0.000006822576    0.000090910091    0.049826442092    0.075012825238    0.000006160818    0.000100364749    0.050971442321    0.059531930839
            -0.053766445285    0.023428768029    0.000006160818    0.000100364749    -0.070811218154    0.027287133655    0.000006098812    0.000091629473
            0.000006572011    0.000083807251    0.050971442321    0.059531930839    0.000006098812    0.000091629473    0.050244626698    0.074812518409
0.375     -0.054926525352    0.056936142146    0.000028820005    0.000091255967    -0.045326248489    0.048067000164    0.000026964085    0.000084038403
            0.000028820005    0.000091255967    0.066846500464    0.079541622224    0.000030337733    0.000101146719    0.062550898697    0.064164026415
            -0.045326248489    0.048067000164    0.000030337733    0.000101146719    -0.056130654042    0.056029878281    0.000028324439    0.000092200379
            0.000026964085    0.000084038403    0.062550898697    0.064164026415    0.000028324439    0.000092200379    0.066986003945    0.079293286624
0.400     -0.030099143967    0.078533299310    0.000050602654    0.000085613677    -0.027782963030    0.068646141874    0.000047120891    0.000078669774
            0.000050602654    0.000085613677    0.084612066995    0.078560013910    0.000054405756    0.000095357162    0.075913809401    0.065291456301
            -0.027782963030    0.068646141874    0.000054405756    0.000095357162    -0.031374484942    0.077937073721    0.000050396370    0.000086666293
            0.000047120891    0.000078669774    0.075913809401    0.065291456301    0.000050396370    0.000086666293    0.084462097678    0.078409622233
0.425     0.001548160952    0.089776917336    0.000070359970    0.000074509035    -0.003153336330    0.081840767283    0.000065327532    0.000068210931
            0.000070359970    0.000074509035    0.100980334415    0.072201136220    0.000076371529    0.000083529740    0.089591986886    0.062384812172
            -0.003153336330    0.081840767283    0.000076371529    0.000083529740    0.000340977904    0.089522523635    0.000070435067    0.000075546947
            0.000065327532    0.000068210931    0.089591986886    0.062384812172    0.000070435067    0.000075546947    0.100597147707    0.072290358644
0.450     0.035756430100    0.088650361616    0.000086761476    0.000059041895    0.025405773054    0.085316740140    0.000080332182    0.000053720026
            0.000086761476    0.000059041895    0.114060489002    0.061446138276    0.000094750566    0.000066836326    0.102033451780    0.055560816188
            0.025405773054    0.085316740140    0.000094750566    0.000066836326    0.034770363688    0.088714354222    0.000087046648    0.000059974086
            0.000080332182    0.000053720026    0.102033451780    0.055560816188    0.000087046648    0.000059974086    0.113559338823    0.061884217535
0.475     0.067781224816    0.074856732293    0.000099099046    0.000040543865    0.054056883351    0.078061087743    0.000091479646    0.000036483590
            0.000099099046    0.000040543865    0.122509680106    0.047930312720    0.000108733737    0.000046718899    0.111847827188    0.045542277392
            0.054056883351    0.078061087743    0.000108733737    0.000046718899    0.067160323496    0.075155779647    0.000099495505    0.000041338310
            0.000091479646    0.000036483590    0.111847827188    0.045542277392    0.000099495505    0.000041338310    0.122048273956    0.048771323759
0.500     0.093058485639    0.049869673824    0.000107254276    0.000020247442    0.078810254386    0.060536312056    0.000098693038    0.000017690194
            0.000107254276    0.000020247442    0.125739863065    0.033678967747    0.000118161967    0.000024529902    0.118033688165    0.033556855059
            0.078810254386    0.060536312056    0.000118161967    0.000024529902    0.092915447887    0.050264339152    0.000107673024    0.000020949959
            0.000098693038    0.000017690194    0.118033688165    0.033556855059    0.000107673024    0.000020949959    0.125492164606    0.034906400331
0.525     0.107819500908    0.016743881902    0.000111483557    -0.000000957600    0.096043759095    0.034636185236    0.000102262852    -0.000001807263
            0.000111483557    -0.000000957600    0.123995989424    0.020791481634    0.000123295198    0.000001252511    0.120136936893    0.021157091458
            0.096043759095    0.034636185236    0.000123295198    0.000001252511    0.108214729496    0.017051285495    0.000111892028    -0.000000255789
            0.000102262852    -0.000001807263    0.120136936893    0.021157091458    0.000111892028    -0.000000255789    0.124122680010    0.022315882932
0.550     0.109609085839    -0.020256388576    0.000112133818    -0.000022621723    0.102997210077    0.003490253499    0.000102577164    -0.000021599620
            0.000112133818    -0.000022621723    0.118346400975    0.011127601608    0.000124510186    -0.000022611411    0.118374277209    0.010000292784
            0.102997210077    0.003490253499    0.000124510186    -0.000022611411    0.110533457781    -0.020243150349    0.000112582806    -0.000021816781
            0.000102577164    -0.000021599620    0.118374277209    0.010000292784    0.000112582806    -0.000021816781    0.118963957572    0.012794128606
0.575     0.097644207480    -0.056180419746    0.000109332363    -0.000044652238    0.098166997393    -0.028887991075    0.000099810610    -0.000041632997
            0.000109332363    -0.000044652238    0.110549197202    0.005996107119    0.000121948609    -0.000046963850    0.113651550571    0.001562440657
            0.098166997393    -0.028887991075    0.000121948609    -0.000046963850    0.099010447232    -0.056665704410    0.000109952139    -0.000043690527
            0.000099810610    -0.000041632997    0.113651550571    0.001562440657    0.000109952139    -0.000043690527    0.111703764081    0.007605941303
0.600     0.072998753187    -0.086022959808    0.000102783254    -0.000067047184    0.081602201432    -0.058088296422    0.000093721166    -0.000061973719
            0.000102783254    -0.000067047184    0.102818656661    0.005888710174    0.000115288970    -0.000071816914    0.107485289388    -0.003159987650
            0.081602201432    -0.058088296422    0.000115288970    -0.000071816914    0.074641548004    -0.087178678376    0.000103748158    -0.000065970207
            0.000093721166    -0.000061973719    0.107485289388    -0.003159987650    0.000103748158    -0.000065970207    0.104469133665    0.007231762823
0.625     0.038555072831    -0.105406815028    0.000091746342    -0.000089518214    0.055003333263    -0.079890802760    0.000083612270    -0.000082427577
            0.000091746342    -0.000089518214    0.097453482258    0.010302762712    0.000103703881    -0.000096889938    0.101747905170    -0.003927284777
            0.055003333263    -0.079890802760    0.000103703881    -0.000096889938    0.040243116114    -0.107341958989    0.000093202560    -0.000088490017
            0.000083612270    -0.000082427577    0.101747905170    -0.003927284777    0.000093202560    -0.000088490017    0.099469318016    0.011196619122
0.650     -0.001298695380    -0.111251070063    0.000075288300    -0.000111146188    0.021604432990    -0.090909962412    0.000068574643    -0.000102198548
            0.000075288300    -0.000111146188    0.096390329709    0.017734884018    0.000086132342    -0.000121205333    0.098299865950    -0.001392540961
            0.021604433221    -0.090909963384    0.000086132340    -0.000121205334    0.000162921535    -0.113985273566    0.000077289057    -0.000110423757
            0.000068574643    -0.000102198548    0.098299865949    -0.001392540978    0.000077289057    -0.000110423757    0.098569208055    0.018064819581
0.675     -0.041232518916    -0.102300010514    0.000052765095    -0.000130218052    -0.014218394019    -0.089161934163    0.000047942099    -0.000119717008
            0.000052765095    -0.000130218052    0.100742020040    0.025901455924    0.000061802060    -0.000142901812    0.098531036732    0.002962668902
            -0.014218394019    -0.089161934163    0.000061802060    -0.000142901812    -0.040274081763    -0.105747802701    0.000055208985    -0.000130088766
            0.000047942099    -0.000119717008    0.098531036732    0.002962668902    0.000055208985    -0.000130088766    0.102845024172    0.025649196990
0.700     -0.075749128963    -0.079409880565    0.000024355456    -0.000144446333    -0.047573585417    -0.074467750356    0.000021817652    -0.000132837675
            0.000024355456    -0.000144446333    0.110491192465    0.032188068893    0.000030826264    -0.000159456400    0.103008928984    0.007138628754
            -0.047573585417    -0.074467750356    0.000030826264    -0.000159456400    -0.075531695554    -0.083380681166    0.000026991455    -0.000145136189
            0.000021817652    -0.000132837675    0.103008928984    0.007138628754    0.000026991455    -0.000145136189    0.112290370117    0.031441294213
0.725     -0.100036618675    -0.045483884278    -0.000008599798    -0.000151501348    -0.073812412151    -0.048536569803    -0.000008592689    -0.000139345308
            -0.000008599798    -0.000151501348    0.124431968904    0.034221545010    -0.000005406206    -0.000168253178    0.111306221938    0.009080045893
            -0.073812412151    -0.048536569803    -0.000005406206    -0.000168253178    -0.100718559319    -0.049700741698    -0.000006129726    -0.000153092354
            -0.000008592689    -0.000139345308    0.111306221938    0.009080045893    -0.000006129726    -0.000153092354    0.125757237671    0.033158447261
0.750     -0.110742314196    -0.005045435686    -0.000043668189    -0.000149702830    -0.089281829641    -0.014726259541    -0.000041021389    -0.000137617990
            -0.000043668189    -0.000149702830    0.140427120298    0.030392918580    -0.000044279374    -0.000167347886    0.122125986893    0.007149484182
            -0.089281829641    -0.014726259541    -0.000044279374    -0.000167347886    -0.112370304625    -0.009180769381    -0.000041736119    -0.000152092962
            -0.000041021389    -0.000137617990    0.122125986893    0.007149484182    -0.000041736119    -0.000152092962    0.141200488391    0.029248581406
0.775     -0.106483920262    0.036479792275    -0.000077789690    -0.000138533187    -0.091873134194    0.022503103693    -0.000072589937    -0.000127132254
            -0.000077789690    -0.000138533187    0.155866004200    0.020178058303    -0.000082440527    -0.000156048788    0.133602927853    0.000454227663
            -0.091873134194    0.022503103693    -0.000082440527    -0.000156048788    -0.108978425451    0.032757342712    -0.000076683100    -0.000141452813
            -0.000072589937    -0.000127132254    0.133602927853    0.000454227663    -0.000076683100    -0.000141452813    0.156115890371    0.019197536629
