# GHz S RI R 45
0.000     0.029727896665    0.001261772814    0.000000038510    -0.000000030740    0.000975614063    0.001384637011    0.000000078820    0.000000031998
            0.000000038510    -0.000000030740    0.029155880913    0.001576692513    0.000000057716    -0.000000009166    0.000908966254    0.001637554451
            0.000975613754    0.001384636984    0.000000057716    -0.000000009166    0.029684840130    0.001271595125    0.000000105950    0.000000063747
            0.000000078820    0.000000031998    0.000908966445    0.001637554459    0.000000105950    0.000000063747    0.029094355971    0.001588512158
0.025     0.034859289537    0.007565403815    0.000000052567    -0.000000073133    0.002882371854    0.010924954607    0.000000121487    0.000000064655
            0.000000052567    -0.000000073133    0.034098542434    0.007940716179    0.000000083521    -0.000000025050    0.002681209671    0.010997542017
            0.002884729656    0.010923355906    0.000000083521    -0.000000025050    0.034801903485    0.007631661182    0.000000166072    0.000000135084
            0.000000121487    0.000000064655    0.002681464449    0.010996967308    0.000000166072    0.000000135084    0.034011804985    0.007896463497
0.050     0.039884136599    0.009127456726    0.000000063968    -0.000000164311    0.008328326195    0.020086030160    0.000000183528    0.000000076091
            0.000000063968    -0.000000164311    0.038847034113    0.010022204797    0.000000115672    -0.000000083758    0.007700885452    0.020435217184
            0.008328458611    0.020086088924    0.000000115672    -0.000000083758    0.039847378382    0.009270544534    0.000000255839    0.000000196096
            0.000000183528    0.000000076091    0.007700982704    0.020435211525    0.000000255839    0.000000196096    0.038668944849    0.009969894871
0.075     0.043776766238    0.008114179443    0.000000068988    -0.000000261993    0.015910813481    0.026105752599    0.000000241936    0.000000068573
            0.000000068988    -0.000000261993    0.042439222008    0.009920222198    0.000000141268    -0.000000154250    0.014785332593    0.027177837357
            0.015910811918    0.026105758236    0.000000141268    -0.000000154250    0.043791876263    0.008327735033    0.000000342869    0.000000230634
            0.000000241936    0.000000068573    0.014785328320    0.027177838543    0.000000342869    0.000000230634    0.042159103026    0.009928816088
0.100     0.045664526079    0.005097559086    0.000000068456    -0.000000364661    0.023879830915    0.028566800704    0.000000302511    0.000000049034
            0.000000068456    -0.000000364661    0.044313730930    0.008235048592    0.000000162978    -0.000000233159    0.022501118255    0.030841053170
            0.023879808689    0.028566807553    0.000000162978    -0.000000233159    0.045752793324    0.005358436174    0.000000435373    0.000000249401
            0.000000302511    0.000000049034    0.022501092495    0.030841060822    0.000000435373    0.000000249401    0.043953124226    0.008373631980
0.125     0.044540307537    0.001224052157    0.000000063508    -0.000000473044    0.030559529232    0.027895202783    0.000000367535    0.000000018481
            0.000000063508    -0.000000473044    0.043744463453    0.005935602048    0.000000182792    -0.000000320224    0.029473537190    0.031706437342
            0.030559529232    0.027895202783    0.000000182792    -0.000000320224    0.044713412861    0.001503038497    0.000000536340    0.000000253476
            0.000000367535    0.000000018481    0.029473537190    0.031706437342    0.000000536340    0.000000253476    0.043365152502    0.006256137611
0.150     0.040172981999    -0.001861756193    0.000000053452    -0.000000587761    0.034684925085    0.025240277412    0.000000437809    -0.000000022824
            0.000000053452    -0.000000587761    0.040679849085    0.004390030911    0.000000199885    -0.000000415558    0.034615815402    0.030619189442
            0.034684925085    0.025240277412    0.000000199885    -0.000000415558    0.040429210666    -0.001600137659    0.000000647273    0.000000244033
            0.000000437809    -0.000000022824    0.034615815402    0.030619189442    0.000000647273    0.000000244033    0.040362615396    0.004908727966
0.175     0.032993898157    -0.002457780891    0.000000037491    -0.000000711567    0.035678300418    0.022214689780    0.000000516156    -0.000000077740
            0.000000037491    -0.000000711567    0.035536446008    0.004890293565    0.000000214949    -0.000000521828    0.037376341087    0.028819987953
            0.035678300418    0.022214689780    0.000000214949    -0.000000521828    0.033316920164    -0.002247465992    0.000000771872    0.000000217575
            0.000000516156    -0.000000077740    0.037376341087    0.028819987953    0.000000771872    0.000000217575    0.035370096568    0.005578902969
0.200     0.024277029212    0.000866165599    0.000000012641    -0.000000846366    0.033803669901    0.020545242647    0.000000602239    -0.000000151912
            0.000000012641    -0.000000846366    0.029365220327    0.008498209045    0.000000225562    -0.000000641754    0.037847376148    0.027663275195
            0.033803669901    0.020545242647    0.000000225562    -0.000000641754    0.024635355146    0.000999979621    0.000000911064    0.000000167346
            0.000000602239    -0.000000151912    0.037847376148    0.027663275195    0.000000911064    0.000000167346    0.029419372153    0.009284779134
0.225     0.015952183185    0.008855720550    -0.000000025880    -0.000000994266    0.030148880534    0.021654921296    0.000000693806    -0.000000252374
            -0.000000025880    -0.000000994266    0.023691856381    0.015725805438    0.000000228018    -0.000000778982    0.036756547749    0.028304191991
            0.030148880534    0.021654921296    0.000000228018    -0.000000778982    0.016302999968    0.008903748414    0.000001062668    0.000000084255
            0.000000693806    -0.000000252374    0.036756547749    0.028304191991    0.000001062668    0.000000084255    0.023995951206    0.016508107680
0.250     0.010232971042    0.021312200715    -0.000000084498    -0.000001154132    0.026411369272    0.026295815022    0.000000782609    -0.000000385941
            -0.000000084498    -0.000001154132    0.020226674116    0.026363416942    0.000000215362    -0.000000934468    0.035321302373    0.031428043550
            0.026411369272    0.026295815022    0.000000215362    -0.000000934468    0.010529910648    0.021286269095    0.000001218160    -0.000000041052
            0.000000782609    -0.000000385941    0.035321302373    0.031428043550    0.000001218160    -0.000000041052    0.020757333403    0.027031474867
0.275     0.009141454416    0.036984767837    -0.000000170391    -0.000001322847    0.024506111714    0.034299199344    0.000000857387    -0.000000556275
            -0.000000170391    -0.000001322847    0.020511984483    0.039407034578    0.000000179524    -0.000001107428    0.034972134132    0.037048860596
            0.024506111714    0.034299199344    0.000000179524    -0.000001107428    0.009345300876    0.036919152317    0.000001364164    -0.000000214583
            0.000000857387    -0.000000556275    0.034972134132    0.037048860596    0.000001364164    -0.000000214583    0.021193480090    0.039869631898
0.300     0.014005187756    0.053747476705    -0.000000289305    -0.000001492197    0.026088911515    0.044567994948    0.000000902686    -0.000000760638
            -0.000000289305    -0.000001492197    0.025556585741    0.053202365005    0.000000111944    -0.000001291286    0.037011021438    0.044483794881
            0.026088911515    0.044567994948    0.000000111944    -0.000001291286    0.014094883849    0.053694650223    0.000001482400    -0.000000435526
            0.000000902686    -0.000000760638    0.037011021438    0.044483794881    0.000001482400    -0.000000435526    0.026274265861    0.053412075117
0.325     0.025084803146    0.068989764007    -0.000000443838    -0.000001651875    0.032122421697    0.055303076718    0.000000906007    -0.000000988948
            -0.000000443838    -0.000001651875    0.035562642348    0.065726716415    0.000000007082    -0.000001476402    0.042282813216    0.052484673006
            0.032122421697    0.055303076718    0.000000007082    -0.000001476402    0.025064727425    0.069010256161    0.000001556374    -0.000000693905
            0.000000906007    -0.000000988948    0.042282813216    0.052484673006    0.000001556374    -0.000000693905    0.036187546823    0.065695358380
0.350     0.041444251176    0.080185847976    -0.000000630479    -0.000001789047    0.042630267714    0.064433317847    0.000000859395    -0.000001224224
            -0.000000630479    -0.000001789047    0.049826442092    0.075012825238    -0.000000135255    -0.000001648836    0.050971442321    0.059531930839
            0.042630267714    0.064433317847    -0.000000135255    -0.000001648836    0.041348059174    0.080336034673    0.000001574456    -0.000000971681
            0.000000859395    -0.000001224224    0.050971442321    0.059531930839    0.000001574456    -0.000000971681    0.050244626698    0.074812518409
0.375     0.061115471111    0.085427019128    -0.000000840163    -0.000001894269    0.056690123843    0.070080171375    0.000000765580    -0.000001448188
            -0.000000840163    -0.000001894269    0.066846500464    0.079541622224    -0.000000308384    -0.000001796877    0.062550898697    0.064164026415
            0.056690123843    0.070080171375    -0.000000308384    -0.000001796877    0.061001162940    0.085745268134    0.000001536418    -0.000001247419
            0.000000765580    -0.000001448188    0.062550898697    0.064164026415    0.000001536418    -0.000001247419    0.066986003945    0.079293286624
0.400     0.081497688796    0.083819480956    -0.000001058523    -0.000001962494    0.072655848880    0.070957537894    0.000000635073    -0.000001645153
            -0.000001058523    -0.000001962494    0.084612066995    0.078560013910    -0.000000499567    -0.000001912001    0.075913809401    0.065291456301
            0.072655848880    0.070957537894    -0.000000499567    -0.000001912001    0.081438675962    0.084316551830    0.000001451429    -0.000001502015
            0.000000635073    -0.000001645153    0.075913809401    0.065291456301    0.000001451429    -0.000001502015    0.084462097678    0.078409622233
0.425     0.099859266096    0.075621908674    -0.000001271134    -0.000001997443    0.088493978110    0.066586437930    0.000000485376    -0.000001808381
            -0.000001271134    -0.000001997443    0.100980334415    0.072201136220    -0.000000693906    -0.000001994664    0.089591986886    0.062384812172
            0.088493978110    0.066586437930    -0.000000693906    -0.000001994664    0.099931073879    0.076275544748    0.000001337444    -0.000001724656
            0.000000485376    -0.000001808381    0.089591986886    0.062384812172    0.000001337444    -0.000001724656    0.100597147707    0.072290358644
0.450     0.113822869896    0.062169161563    -0.000001465761    -0.000002009057    0.102154354964    0.057357150448    0.000000333783    -0.000001939480
            -0.000001465761    -0.000002009057    0.114060489002    0.061446138276    -0.000000877779    -0.000002051722    0.102033451780    0.055560816188
            0.102154354964    0.057357150448    -0.000000877779    -0.000002051722    0.114088450095    0.062924557042    0.000001213556    -0.000001914188
            0.000000333783    -0.000001939480    0.102033451780    0.055560816188    0.000001213556    -0.000001914188    0.113559338823    0.061884217535
0.475     0.121733826287    0.045616814198    -0.000001637654    -0.000002013137    0.111888390500    0.044443873065    0.000000194705    -0.000002049554
            -0.000001637654    -0.000002013137    0.122509680106    0.047930312720    -0.000001043574    -0.000002097345    0.111847827188    0.045542277392
            0.111888390500    0.044443873065    -0.000001043574    -0.000002097345    0.122230082918    0.046394290557    0.000001097286    -0.000002079747
            0.000000194705    -0.000002049554    0.111847827188    0.045542277392    0.000001097286    -0.000002079747    0.122048273956    0.048771323759
0.500     0.122905912194    0.028608946175    -0.000001788983    -0.000002026088    0.116523413361    0.029649587642    0.000000075153    -0.000002153991
            -0.000001788983    -0.000002026088    0.125739863065    0.033678967747    -0.000001190582    -0.000002147275    0.118033688165    0.033556855059
            0.116523413361    0.029649587642    -0.000001190582    -0.000002147275    0.123633773689    0.029314288187    0.000000998744    -0.000002236736
            0.000000075153    -0.000002153991    0.118033688165    0.033556855059    0.000000998744    -0.000002236736    0.125492164606    0.034906400331
0.525     0.117732455252    0.013889484672    -0.000001930983    -0.000002063013    0.115666592214    0.015163655282    -0.000000025309    -0.000002271727
            -0.000001930983    -0.000002063013    0.123995989424    0.020791481634    -0.000001326832    -0.000002217752    0.120136936893    0.021157091458
            0.115666592214    0.015163655282    -0.000001326832    -0.000002217752    0.118652006286    0.014431026630    0.000000920761    -0.000002405260
            -0.000000025309    -0.000002271727    0.120136936893    0.021157091458    0.000000920761    -0.000002405260    0.124122680010    0.022315882932
0.550     0.107693635262    0.003903338939    -0.000002080650    -0.000002133260    0.109862940123    0.003259763342    -0.000000116046    -0.000002420033
            -0.000002080650    -0.000002133260    0.118346400975    0.011127601608    -0.000001467055    -0.000002320234    0.118374277209    0.010000292784
            0.109862940123    0.003259763342    -0.000001467055    -0.000002320234    0.108724213200    0.004209428486    0.000000855949    -0.000002605523
            -0.000000116046    -0.000002420033    0.118374277209    0.010000292784    0.000000855949    -0.000002605523    0.118963957572    0.012794128606
0.575     0.095217886183    0.000369985099    -0.000002260957    -0.000002239075    0.100626035171    -0.004109381697    -0.000000214726    -0.000002614017
            -0.000002260957    -0.000002239075    0.110549197202    0.005996107119    -0.000001632844    -0.000002460611    0.113651550571    0.001562440657
            0.100626035171    -0.004109381697    -0.000001632844    -0.000002460611    0.096248213151    0.000407548967    0.000000787718    -0.000002856360
            -0.000000214726    -0.000002614017    0.113651550571    0.001562440657    0.000000787718    -0.000002856360    0.111703764081    0.007605941303
0.600     0.083380641386    0.003885810231    -0.000002496193    -0.000002372079    0.090306198929    -0.005754585225    -0.000000347868    -0.000002860516
            -0.000002496193    -0.000002372079    0.102818656661    0.005888710174    -0.000001849077    -0.000002634447    0.107485289388    -0.003159987650
            0.090306198929    -0.005754585225    -0.000001849077    -0.000002634447    0.084287280530    0.003675043249    0.000000688167    -0.000003169039
            -0.000000347868    -0.000002860516    0.107485289388    -0.003159987650    0.000000688167    -0.000003169039    0.104469133665    0.007231762823
0.625     0.075381898069    0.013636068013    -0.000002809925    -0.000002512221    0.081692932765    -0.001656766836    -0.000000548306    -0.000003155136
            -0.000002809926    -0.000002512221    0.097453482258    0.010302762712    -0.000002141861    -0.000002825850    0.101747905170    -0.003927284777
            0.081692932765    -0.001656766836    -0.000002141861    -0.000002825850    0.076054933043    0.013254549974    0.000000521381    -0.000003543045
            -0.000000548306    -0.000003155136    0.101747905170    -0.003927284777    0.000000521381    -0.000003543045    0.099469318016    0.011196619122
0.650     0.073869136875    0.027370402482    -0.000003216847    -0.000002626136    0.077411172298    0.006858327864    -0.000000849582    -0.000003474460
            -0.000003216847    -0.000002626136    0.096390329709    0.017734884018    -0.000002530768    -0.000003003968    0.098299865950    -0.001392540961
            0.077411172298    0.006858327864    -0.000002530768    -0.000003003968    0.074240131089    0.026945247471    0.000000248056    -0.000003957453
            -0.000000849582    -0.000003474460    0.098299865949    -0.001392540978    0.000000248056    -0.000003957453    0.098569208055    0.018064819581
0.675     0.080243226394    0.041754905328    -0.000003717048    -0.000002671055    0.079220260869    0.017299459462    -0.000001274812    -0.000003776699
            -0.000003717048    -0.000002671055    0.100742020040    0.025901455924    -0.000003021991    -0.000003126395    0.098531036732    0.002962668902
            0.079220260869    0.017299459462    -0.000003021991    -0.000003126395    0.080307531401    0.041439456402    -0.000000161434    -0.000004370113
            -0.000001274812    -0.000003776699    0.098531036732    0.002962668902    -0.000000161434    -0.000004370113    0.102845024172    0.025649196990
0.700     0.094227103001    0.053089401353    -0.000004287393    -0.000002602477    0.087515413207    0.026581731128    -0.000001824251    -0.000004005277
            -0.000004287393    -0.000002602477    0.110491192465    0.032188068893    -0.000003598641    -0.000003145493    0.103008928984    0.007138628754
            0.087515413207    0.026581731128    -0.000003598641    -0.000003145493    0.094051809821    0.053030802360    -0.000000714209    -0.000004720848
            -0.000001824251    -0.000004005277    0.103008928984    0.007138628754    -0.000000714209    -0.000004720848    0.112290370117    0.031441294213
0.725     0.113870608818    0.058178852390    -0.000004882915    -0.000002388112    0.101201712507    0.031789878157    -0.000002467873    -0.000004106258
            -0.000004882915    -0.000002388112    0.124431968904    0.034221545010    -0.000004220076    -0.000003023278    0.111306221938    0.009080045893
            0.101201712507    0.031789878157    -0.000004220076    -0.000003023278    0.113586783260    0.058483964361    -0.000001384557    -0.000004949112
            -0.000002467873    -0.000004106258    0.111306221938    0.009080045893    -0.000001384557    -0.000004949112    0.125757237671    0.033158447261
0.750     0.136032589158    0.055054087338    -0.000005442716    -0.000002019996    0.118027218146    0.030863187699    -0.000003148707    -0.000004044088
            -0.000005442716    -0.000002019996    0.140427120298    0.030392918580    -0.000004826754    -0.000002744092    0.122125986893    0.007149484182
            0.118027218146    0.030863187699    -0.000004826754    -0.000002744092    0.135809344328    0.055765446309    -0.000002117019    -0.000005011012
            -0.000003148707    -0.000004044088    0.122125986893    0.007149484182    -0.000002117019    -0.000005011012    0.141200488391    0.029248581406
0.775     0.157110130087    0.043314691136    -0.000005907698    -0.000001520995    0.135152458002    0.022956928723    -0.000003798333    -0.000003816794
            -0.000005907698    -0.000001520995    0.155866004200    0.020178058303    -0.000005357312    -0.000002323638    0.133602927853    0.000454227663
            0.135152458002    0.022956928723    -0.000005357312    -0.000002323638    0.157123870068    0.044399563454    -0.000002840387    -0.000004896612
            -0.000003798333    -0.000003816794    0.133602927853    0.000454227663    -0.000002840387    -0.000004896612    0.156115890371    0.019197536629
