# GHz S RI R 45
0.000     0.029333305757    0.001132800856    0.000000282442    0.000000345227    0.000874444328    0.001226398400    0.000000413234    0.000000553817
            0.000000282420    0.000000345228    0.029155880913    0.001576692513    0.000000410913    0.000000538076    0.000908966254    0.001637554451
            0.000874444206    0.001226398365    0.000000410926    0.000000538076    0.029334528785    0.001145502757    0.000000582675    0.000000811663
            0.000000413282    0.000000553817    0.000908966445    0.001637554459    0.000000582668    0.000000811663    0.029094355971    0.001588512158
0.025     0.034357499418    0.007258342760    0.000000487122    0.000000756171    0.002667639203    0.010353660624    0.000000712990    0.000001213732
            0.000000487123    0.000000756174    0.034098542434    0.007940716179    0.000000711156    0.000001183800    0.002681209671    0.010997542017
            0.002664405087    0.010353895499    0.000000711151    0.000001183800    0.034297628099    0.007287383654    0.000001002925    0.000001783170
            0.000000712991    0.000001213731    0.002681464449    0.010996967308    0.000001002924    0.000001783170    0.034011804985    0.007896463497
0.050     0.039196955001    0.008620275102    0.000000834844    0.000001263072    0.007723174550    0.019089379603    0.000001221373    0.000002064493
            0.000000834844    0.000001263072    0.038847034113    0.010022204797    0.000001219432    0.000002002872    0.007700885452    0.020435217184
            0.007723219523    0.019089335518    0.000001219432    0.000002002872    0.039108399379    0.008707897022    0.000001715725    0.000003057128
            0.000001221373    0.000002064493    0.007700982704    0.020435211525    0.000001715725    0.000003057128    0.038668944849    0.009969894871
0.075     0.042890446302    0.007565134895    0.000001202044    0.000001651992    0.014802992512    0.024958875203    0.000001764795    0.000002755667
            0.000001202044    0.000001651992    0.042439222008    0.009920222198    0.000001759578    0.000002656382    0.014785332593    0.027177837357
            0.014802997155    0.024958870124    0.000001759578    0.000002656382    0.042793492221    0.007736369497    0.000002481218    0.000004115876
            0.000001764795    0.000002755667    0.014785328320    0.027177838543    0.000002481218    0.000004115876    0.042159103026    0.009928816088
0.100     0.044685036321    0.004634038440    0.000001585668    0.000001968193    0.022340464952    0.027563809900    0.000002348571    0.000003351209
            0.000001585668    0.000001968193    0.044313730930    0.008235048592    0.000002332107    0.000003209119    0.022501118255    0.030841053170
            0.022340464952    0.027563809900    0.000002332107    0.000003209119    0.044606692923    0.004905126683    0.000003314096    0.000005047503
            0.000002348571    0.000003351209    0.022501092495    0.030841060822    0.000003314096    0.000005047503    0.043953124226    0.008373631980
0.125     0.043715397818    0.000880337191    0.000001983705    0.000002235686    0.028824474149    0.027236500187    0.000002975318    0.000003878658
            0.000001983705    0.000002235686    0.043744463453    0.005935602048    0.000002936111    0.000003691808    0.029473537190    0.031706437342
            0.028824474149    0.027236500187    0.000002936111    0.000003691808    0.043696838100    0.001245890654    0.000004220590    0.000005884508
            0.000002975318    0.000003878658    0.029473537190    0.031706437342    0.000004220590    0.000005884508    0.043365152502    0.006256137611
0.150     0.039629750204    -0.002211902842    0.000002404575    0.000002484466    0.033086502930    0.024951768255    0.000003657579    0.000004373506
            0.000002404575    0.000002484466    0.040679849085    0.004390030911    0.000003582986    0.000004143825    0.034615815402    0.030619189442
            0.033086502930    0.024951768255    0.000003582986    0.000004143825    0.039707010800    -0.001758907405    0.000005218854    0.000006669754
            0.000003657579    0.000004373506    0.034615815402    0.030619189442    0.000005218854    0.000006669754    0.040362615396    0.004908727966
0.175     0.032851583347    -0.003055238753    0.000002877563    0.000002725693    0.034533285403    0.022108426256    0.000004434089    0.000004844762
            0.000002877563    0.000002725693    0.035536446008    0.004890293565    0.000004311184    0.000004578846    0.037376341087    0.028819987953
            0.034533285017    0.022108426859    0.000004311184    0.000004578846    0.033061650849    -0.002552507982    0.000006356711    0.000007410423
            0.000004434089    0.000004844762    0.037376341087    0.028819987953    0.000006356711    0.000007410423    0.035370096568    0.005578902969
0.200     0.024516865278    -0.000320187893    0.000003439036    0.000002951849    0.033294189677    0.020244041828    0.000005350575    0.000005277559
            0.000003439036    0.000002951849    0.029365220327    0.008498209045    0.000005168181    0.000004986848    0.037847376148    0.027663275195
            0.033294189677    0.020244041828    0.000005168181    0.000004986848    0.024875303327    0.000173874846    0.000007689060    0.000008085548
            0.000005350575    0.000005277559    0.037847376148    0.027663275195    0.000007689060    0.000008085548    0.029419372153    0.009284779134
0.225     0.016346665926    0.006731152581    0.000004122951    0.000003127985    0.030224559385    0.020680260846    0.000006447383    0.000005621180
            0.000004122951    0.000003127985    0.023691856381    0.015725805438    0.000006198192    0.000005321542    0.036756547749    0.028304191991
            0.030224559385    0.020680260846    0.000006198192    0.000005321542    0.016838994530    0.007151988117    0.000009263374    0.000008629749
            0.000006447383    0.000005621180    0.036756547749    0.028304191991    0.000009263374    0.000008629749    0.023995951206    0.016508107680
0.250     0.010343581887    0.018016995968    0.000004945332    0.000003195431    0.026744919462    0.024203378425    0.000007739539    0.000005796712
            0.000004945332    0.000003195431    0.020226674116    0.026363416942    0.000007422421    0.000005506720    0.035321302373    0.031428043550
            0.026744919462    0.024203378425    0.000007422421    0.000005506720    0.010923625975    0.018310077140    0.000011095587    0.000008944695
            0.000007739539    0.000005796712    0.035321302373    0.031428043550    0.000011095587    0.000008944695    0.020757333403    0.027031474867
0.275     0.008392754915    0.032519488220    0.000005888376    0.000003078830    0.024528958307    0.030830443053    0.000009197454    0.000005706315
            0.000005888376    0.000003078830    0.020511984483    0.039407034578    0.000008818940    0.000005444225    0.034972134132    0.037048860596
            0.024528958307    0.030830443053    0.000008818940    0.000005444225    0.008989324215    0.032655528082    0.000013147331    0.000008909398
            0.000009197454    0.000005706315    0.034972134132    0.037048860596    0.000013147331    0.000008909398    0.021193480090    0.039869631898
0.300     0.011819974569    0.048411444068    0.000006890656    0.000002709922    0.025108140067    0.039768056688    0.000010737088    0.000005264952
            0.000006890656    0.000002709922    0.025556585741    0.053202365005    0.000010311044    0.000005044737    0.037011021438    0.044483794881
            0.025108140067    0.039768056688    0.000010311044    0.000005044737    0.012351398253    0.048397605106    0.000015314401    0.000008419184
            0.000010737088    0.000005264952    0.037011021438    0.044483794881    0.000015314401    0.000008419184    0.026274265861    0.053412075117
0.325     0.021046051800    0.063363627365    0.000007851592    0.000002052527    0.029490575969    0.049561964763    0.000012227178    0.000004429677
            0.000007851592    0.000002052527    0.035562642348    0.065726716415    0.000011771888    0.000004257361    0.042282813216    0.052484673006
            0.029490575969    0.049561964763    0.000011771888    0.000004257361    0.021437382746    0.063246432298    0.000017436116    0.000007419538
            0.000012227178    0.000004429677    0.042282813216    0.052484673006    0.000017436116    0.000007419538    0.036187546823    0.065695358380
0.350     0.035428825269    0.075025887471    0.000008655099    0.000001126263    0.037914783359    0.058431043211    0.000013520262    0.000003227990
            0.000008655099    0.000001126263    0.049826442092    0.075012825238    0.000013053959    0.000003100146    0.050971442321    0.059531930839
            0.037914783359    0.058431043211    0.000013053959    0.000003100146    0.035631472452    0.074885256541    0.000019331565    0.000005940521
            0.000013520262    0.000003227990    0.050971442321    0.059531930839    0.000019331565    0.000005940521    0.050244626698    0.074812518409
0.375     0.053354700577    0.081502311307    0.000009202877    0.000000008608    0.049791447967    0.064654791651    0.000014491643    0.000001757553
            0.000009202877    0.000000008608    0.066846500464    0.079541622224    0.000014027800    0.000001662570    0.062550898697    0.064164026415
            0.049791447967    0.064654791651    0.000014027800    0.000001662570    0.053360108575    0.081437347084    0.000020845555    0.000004095990
            0.000014491643    0.000001757553    0.062550898697    0.064164026415    0.000020845555    0.000004095990    0.066986003945    0.079293286624
0.400     0.072547613780    0.081742313215    0.000009446163    -0.000001181713    0.063844772392    0.066937230899    0.000015078519    0.000000166753
            0.000009446163    -0.000001181713    0.084612066995    0.078560013910    0.000014622096    0.000000088416    0.075913809401    0.065291456301
            0.063844772392    0.066937230899    0.000014622096    0.000000088416    0.072392373169    0.081851595554    0.000021894989    0.000002062284
            0.000015078519    0.000000166753    0.075913809401    0.065291456301    0.000021894989    0.000002062284    0.084462097678    0.078409622233
0.425     0.090495409719    0.075718382249    0.000009398771    -0.000002318552    0.078370927694    0.064631301740    0.000015293481    -0.000001386799
            0.000009398771    -0.000002318552    0.100980334415    0.072201136220    0.000014840648    -0.000001464624    0.089591986886    0.062384812172
            0.078370927694    0.064631301740    0.000014840648    -0.000001464624    0.090258667984    0.076080051970    0.000022485945    0.000000029969
            0.000015293481    -0.000001386799    0.089591986886    0.062384812172    0.000022485945    0.000000029969    0.100597147707    0.072290358644
0.450     0.104896084258    0.064415127911    0.000009131295    -0.000003300539    0.091551860130    0.057839068621    0.000015219709    -0.000002773147
            0.000009131295    -0.000003300539    0.114060489002    0.061446138276    0.000014759148    -0.000002862864    0.102033451780    0.055560816188
            0.091551860130    0.057839068621    0.000014759148    -0.000002862864    0.104687660723    0.065069796624    0.000022710387    -0.000001839809
            0.000015219709    -0.000002773147    0.102033451780    0.055560816188    0.000022710387    -0.000001839809    0.113559338823    0.061884217535
0.475     0.114021526711    0.049638931373    0.000008748042    -0.000004073711    0.101742108412    0.047373999668    0.000014983799    -0.000003918355
            0.000008748042    -0.000004073711    0.122509680106    0.047930312720    0.000014499222    -0.000004026418    0.111847827188    0.045542277392
            0.101742108412    0.047373999668    0.000014499222    -0.000004026418    0.113964978228    0.050579694857    0.000022715293    -0.000003450241
            0.000014983799    -0.000003918355    0.111847827188    0.045542277392    0.000022715293    -0.000003450241    0.122048273956    0.048771323759
0.500     0.116981735005    0.033736459222    0.000008361505    -0.000004637419    0.107725265285    0.034652352184    0.000014727898    -0.000004812990
            0.000008361505    -0.000004637419    0.125739863065    0.033678967747    0.000014200781    -0.000004939130    0.118033688165    0.033556855059
            0.107725265285    0.034652352184    0.000014200781    -0.000004939130    0.117193476197    0.034904228915    0.000022670824    -0.000004780899
            0.000014727898    -0.000004812990    0.118033688165    0.033556855059    0.000022670824    -0.000004780899    0.125492164606    0.034906400331
0.525     0.113859699093    0.019245556082    0.000008068475    -0.000005038316    0.108910813013    0.021501805472    0.000014579914    -0.000005508737
            0.000008068475    -0.000005038316    0.123995989424    0.020791481634    0.000013991138    -0.000005645918    0.120136936893    0.021157091458
            0.108910813013    0.021501805472    0.000013991138    -0.000005645918    0.114428166975    0.020534622951    0.000022734608    -0.000005886799
            0.000014579914    -0.000005508737    0.120136936893    0.021157091458    0.000022734608    -0.000005886799    0.124122680010    0.022315882932
0.550     0.105746391619    0.008528772377    0.000007936927    -0.000005357868    0.105490266247    0.009917610231    0.000014636730    -0.000006106778
            0.000007936927    -0.000005357868    0.118346400975    0.011127601608    0.000013968151    -0.000006240937    0.118374277209    0.010000292784
            0.105490266247    0.009917610231    0.000013968151    -0.000006240937    0.106712701350    0.009799236242    0.000023029557    -0.000006886159
            0.000014636730    -0.000006106778    0.118374277209    0.010000292784    0.000023029557    -0.000006886159    0.118963957572    0.012794128606
0.575     0.094640558723    0.003386150649    0.000007997473    -0.000005700059    0.098495404959    0.001732510379    0.000014947394    -0.000006744990
            0.000007997473    -0.000005700059    0.110549197202    0.005996107119    0.000014183675    -0.000006854233    0.113651550571    0.001562440657
            0.098495404959    0.001732510379    0.000014183675    -0.000006854233    0.095985173565    0.004485612421    0.000023620700    -0.000007946363
            0.000014947394    -0.000006744990    0.113651550571    0.001562440657    0.000023620700    -0.000007946363    0.111703764081    0.007605941303
0.600     0.083214311846    0.004692337695    0.000008237870    -0.000006181123    0.089734654307    -0.001750672563    0.000015502017    -0.000007583841
            0.000008237870    -0.000006181123    0.102818656661    0.005888710174    0.000014634182    -0.000007638181    0.107485289388    -0.003159987650
            0.089734654307    -0.001750672563    0.000014634182    -0.000007638181    0.084853010422    0.005482936306    0.000024500107    -0.000009264955
            0.000015502017    -0.000007583841    0.107485289388    -0.003159987650    0.000024500107    -0.000009264955    0.104469133665    0.007231762823
0.625     0.074393743604    0.012112854517    0.000008593586    -0.000006916384    0.081521326929    -0.000125804391    0.000016214569    -0.000008785048
            0.000008593586    -0.000006916384    0.097453482258    0.010302762712    0.000015244868    -0.000008748125    0.101747905170    -0.003927284777
            0.081521326929    -0.000125804392    0.000015244868    -0.000008748125    0.076186126857    0.012499868998    0.000025564393    -0.000011042321
            0.000016214569    -0.000008785048    0.101747905170    -0.003927284777    0.000025564393    -0.000011042321    0.099469318016    0.011196619122
0.650     0.070801516767    0.024016729835    0.000008940511    -0.000007997871    0.076225219744    0.005904465398    0.000016916276    -0.000010476607
            0.000008940511    -0.000007997871    0.096390329709    0.017734884018    0.000015862023    -0.000010310737    0.098299865950    -0.001392540961
            0.076225219744    0.005904465398    0.000015862023    -0.000010310737    0.072573702472    0.023973095467    0.000026608509    -0.000013437147
            0.000016916276    -0.000010476607    0.098299865949    -0.001392540978    0.000026608509    -0.000013437147    0.098569208055    0.018064819581
0.675     0.074142710803    0.037680217323    0.000009099310    -0.000009457702    0.075697896403    0.014563195383    0.000017363817    -0.000012702828
            0.000009099310    -0.000009457702    0.100742020040    0.025901455924    0.000016258875    -0.000012377349    0.098531036732    0.002962668902
            0.075697896403    0.014563195383    0.000016258875    -0.000012377349    0.075720945723    0.037258048967    0.000027336842    -0.000016506705
            0.000017363817    -0.000012702828    0.098531036732    0.002962668902    0.000027336842    -0.000016506705    0.102845024172    0.025649196990
0.700     0.084746776063    0.049810647737    0.000008868679    -0.000011231233    0.080790024838    0.023364311436    0.000017289603    -0.000015379901
            0.000008868679    -0.000011231233    0.110491192465    0.032188068893    0.000016179559    -0.000014879658    0.103008928984    0.007138628754
            0.080790024838    0.023364311436    0.000016179559    -0.000014879658    0.085993546839    0.049135185218    0.000027424529    -0.000020155567
            0.000017289603    -0.000015379901    0.103008928984    0.007138628754    0.000027424529    -0.000020155567    0.112290370117    0.031441294213
0.725     0.101420167787    0.057266241733    0.000008085584    -0.000013144455    0.091108697536    0.029687147545    0.000016476230    -0.000018283410
            0.000008085584    -0.000013144455    0.124431968904    0.034221545010    0.000015409131    -0.000017613311    0.111306221938    0.009080045893
            0.091108697536    0.029687147545    0.000015409131    -0.000017613311    0.102266135377    0.056512064229    0.000026603157    -0.000024120788
            0.000016476230    -0.000018283410    0.111306221938    0.009080045893    0.000026603157    -0.000024120788    0.125757237671    0.033158447261
0.750     0.121710593876    0.057750153093    0.000006689346    -0.000014945329    0.105144081173    0.031390164447    0.000014837278    -0.000021091361
            0.000006689346    -0.000014945329    0.140427120298    0.030392918580    0.000013853257    -0.000020275005    0.122125986893    0.007149484182
            0.105144081173    0.031390164447    0.000013853257    -0.000020275005    0.122167957111    0.057106572824    0.000024756437    -0.000028021584
            0.000014837278    -0.000021091361    0.122125986893    0.007149484182    0.000024756437    -0.000028021584    0.141200488391    0.029248581406
0.775     0.142453630865    0.050258897143    0.000004754624    -0.000016372568    0.120650955972    0.027228802402    0.000012453355    -0.000023467932
            0.000004754624    -0.000016372568    0.155866004200    0.020178058303    0.000011577190    -0.000022540292    0.133602927853    0.000454227663
            0.120650955972    0.027228802402    0.000011577190    -0.000022540292    0.142614539422    0.049892455053    0.000021961859    -0.000031454200
            0.000012453355    -0.000023467932    0.133602927853    0.000454227663    0.000021961859    -0.000031454200    0.156115890371    0.019197536629
0.800     0.160431183092    0.035186381134    0.000002476223    -0.000017232047    0.135156756077    0.017012819435    0.000009555281    -0.000025156307
            0.000002476223    -0.000017232047    0.168199235831    0.004182116378    0.000008794583    -0.000024154577    0.143718831280    -0.011035618291
