# GHz S RI R 45
0.000     0.028472392027    0.001861381095    -0.000004774027    -0.000010530210    0.000881908695    0.001593565576    -0.000004130432    -0.000008985176
            -0.000004774279    -0.000010530209    0.029155880913    0.001576692513    -0.000005398421    -0.000012690249    0.000908966254    0.001637554451
            0.000881908536    0.001593565550    -0.000005398504    -0.000012690246    0.028424419152    0.001869863072    -0.000004352797    -0.000010640442
            -0.000004130430    -0.000008985176    0.000908966445    0.001637554459    -0.000004352827    -0.000010640442    0.029094355971    0.001588512158
0.025     0.035156139692    0.007586001795    -0.000012271459    -0.000022304012    0.003841089656    0.009905086155    -0.000010559538    -0.000018740688
            -0.000012271434    -0.000022304013    0.034098542434    0.007940716179    -0.000014338088    -0.000026577013    0.002681209671    0.010997542017
            0.003839867797    0.009905008622    -0.000014338093    -0.000026577012    0.035092453196    0.007567561130    -0.000011540604    -0.000020848316
            -0.000010559566    -0.000018740730    0.002681464449    0.010996967308    -0.000011540601    -0.000020848310    0.034011804985    0.007896463497
0.050     0.044228917932    0.007266211448    -0.000028803263    -0.000036684137    0.011908302847    0.016731871294    -0.000024566467    -0.000030587819
            -0.000028803257    -0.000036684143    0.038847034113    0.010022204797    -0.000033872417    -0.000043650089    0.007700885452    0.020435217184
            0.011908299626    0.016731876041    -0.000033872417    -0.000043650090    0.044188664567    0.007268857543    -0.000027139098    -0.000033890172
            -0.000024566468    -0.000030587820    0.007700982704    0.020435211525    -0.000027139097    -0.000033890171    0.038668944849    0.009969894871
0.075     0.053347985481    0.001377587067    -0.000050505745    -0.000043363577    0.022811078035    0.018275447077    -0.000042774865    -0.000035837538
            -0.000050505747    -0.000043363578    0.042439222008    0.009920222198    -0.000059451981    -0.000051710557    0.014785332593    0.027177837357
            0.022811030510    0.018275431226    -0.000059451982    -0.000051710558    0.053366917983    0.001381333380    -0.000047260751    -0.000039573380
            -0.000042774866    -0.000035837539    0.014785328320    0.027177838543    -0.000047260750    -0.000039573379    0.042159103026    0.009928816088
0.100     0.060081894249    -0.010107207558    -0.000075012666    -0.000041593225    0.033641563843    0.013705543107    -0.000063102004    -0.000033983933
            -0.000075012668    -0.000041593226    0.044313730930    0.008235048592    -0.000088361148    -0.000049906191    0.022501118255    0.030841053170
            0.033641564769    0.013705543484    -0.000088361148    -0.000049906191    0.060189633340    -0.010128014412    -0.000069602034    -0.000037435680
            -0.000063102004    -0.000033983933    0.022501092495    0.030841060822    -0.000069602035    -0.000037435680    0.043953124226    0.008373631980
0.125     0.061671966050    -0.025926121032    -0.000099866754    -0.000030959866    0.041416345232    0.003557266011    -0.000083513190    -0.000024852390
            -0.000099866754    -0.000030959866    0.043744463453    0.005935602048    -0.000117759824    -0.000037751736    0.029473537190    0.031706437342
            0.041416345232    0.003557266011    -0.000117759824    -0.000037751736    0.061889360939    -0.026011719057    -0.000091940366    -0.000027361007
            -0.000083513190    -0.000024852390    0.029473537190    0.031706437342    -0.000091940366    -0.000027361007    0.043365152502    0.006256137611
0.150     0.056107346781    -0.043529573124    -0.000122722774    -0.000011579021    0.043663367250    -0.010339043591    -0.000102185906    -0.000008665372
            -0.000122722774    -0.000011579021    0.040679849085    0.004390030911    -0.000144953658    -0.000015366858    0.034615815402    0.030619189442
            0.043663367250    -0.010339043591    -0.000144953658    -0.000015366858    0.056439651182    -0.043728797878    -0.000112336936    -0.000009655223
            -0.000102185906    -0.000008665372    0.034615815402    0.030619189442    -0.000112336936    -0.000009655223    0.040362615396    0.004908727966
0.175     0.042617402517    -0.059583167528    -0.000141315538    0.000016227131    0.038898323060    -0.025179171471    -0.000117438230    0.000014330623
            -0.000141315538    0.000016227131    0.035536446008    0.004890293565    -0.000167331824    0.000016911914    0.037376341087    0.028819987953
            0.038898323060    -0.025179171471    -0.000167331824    0.000016911914    0.043048522144    -0.059952834980    -0.000129036667    0.000015389775
            -0.000117438230    0.000014330623    0.037376341087    0.028819987953    -0.000129036667    0.000015389775    0.035370096568    0.005578902969
0.200     0.021977516310    -0.070527342748    -0.000153202937    0.000051798225    0.026992839629    -0.037673571690    -0.000127375735    0.000043766498
            -0.000153202937    0.000051798225    0.029365220327    0.008498209045    -0.000182082880    0.000058373387    0.037847376148    0.027663275195
            0.026992839629    -0.037673571690    -0.000182082880    0.000058373387    0.022465739959    -0.071120839561    -0.000140064118    0.000047413856
            -0.000127375735    0.000043766498    0.037847376148    0.027663275195    -0.000140064118    0.000047413856    0.029419372153    0.009284779134
0.225     -0.003480216293    -0.073275711442    -0.000155601853    0.000093833409    0.009296465568    -0.044660451608    -0.000129642639    0.000078823650
            -0.000155601853    0.000093833409    0.023691856381    0.015725805438    -0.000185978626    0.000107603229    0.036756547749    0.028304191991
            0.009296465568    -0.044660451608    -0.000185978626    0.000107603229    -0.003002463170    -0.074131488243    -0.000142903251    0.000085623353
            -0.000129642639    0.000078823650    0.036756547749    0.028304191991    -0.000142903251    0.000085623353    0.023995951206    0.016508107680
0.250     -0.030135322038    -0.065905323403    -0.000145695569    0.000139870675    -0.011503941488    -0.043759514831    -0.000121645396    0.000117648604
            -0.000145695569    0.000139870675    0.020226674116    0.026363416942    -0.000175700163    0.000161871878    0.035321302373    0.031428043550
            -0.011503941488    -0.043759514831    -0.000175700163    0.000161871878    -0.029755539337    -0.067033512697    -0.000134705082    0.000128138832
            -0.000121645396    0.000117648604    0.035321302373    0.031428043550    -0.000134705082    0.000128138832    0.020757333403    0.027031474867
0.275     -0.053675963579    -0.048154634195    -0.000121246553    0.000186006456    -0.031812692329    -0.033912583137    -0.000101141809    0.000156966575
            -0.000121246553    0.000186006456    0.020511984483    0.039407034578    -0.000148514653    0.000216780605    0.034972134132    0.037048860596
            -0.031812692329    -0.033912583137    -0.000148514653    0.000216780605    -0.053488578381    -0.049527394602    -0.000112903418    0.000171511002
            -0.000101141804    0.000156966567    0.034972134132    0.037048860596    -0.000112903418    0.000171511002    0.021193480090    0.039869631898
0.300     -0.069879461268    -0.021655660014    -0.000081542834    0.000227103017    -0.047784873764    -0.015710294127    -0.000067205442    0.000192198166
            -0.000081542834    0.000227103017    0.025556585741    0.053202365005    -0.000103372254    0.000266443098    0.037011021438    0.044483794881
            -0.047784873764    -0.015710294127    -0.000103372254    0.000266443098    -0.069968786269    -0.023202813909    -0.000076296340    0.000210784589
            -0.000067205442    0.000192198166    0.037011021438    0.044483794881    -0.000076296340    0.000210784589    0.026274265861    0.053412075117
0.325     -0.075440644841    0.010243244907    -0.000028078089    0.000257580223    -0.056072473962    0.008627824532    -0.000020991169    0.000218170207
            -0.000028078089    0.000257580223    0.035562642348    0.065726716415    -0.000041723147    0.000304339576    0.042282813216    0.052484673006
            -0.056072473962    0.008627824532    -0.000041723147    0.000304339576    -0.075861077119    0.008628672473    -0.000025940601    0.000240233536
            -0.000020991169    0.000218170207    0.042282813216    0.052484673006    -0.000025940601    0.000240233536    0.036187546823    0.065695358380
0.350     -0.068666306166    0.042999294233    0.000035262511    0.000272656496    -0.054506909247    0.035609668748    0.000033993566    0.000230362559
            0.000035262511    0.000272656496    0.049826442092    0.075012825238    0.000032200886    0.000324735158    0.050971442321    0.059531930839
            -0.054506909247    0.035609668748    0.000032200886    0.000324735158    -0.069425921422    0.041447289077    0.000034483096    0.000254728797
            0.000033993566    0.000230362559    0.050971442321    0.059531930839    0.000034483096    0.000254728797    0.050244626698    0.074812518409
0.375     -0.049839298915    0.071668001456    0.000102843189    0.000269463762    -0.042522569649    0.061093000756    0.000092452587    0.000226064233
            0.000102843189    0.000269463762    0.066846500464    0.079541622224    0.000112026735    0.000323973445    0.062550898697    0.064164026415
            -0.042522569649    0.061093000756    0.000112026735    0.000323973445    -0.050891173084    0.070310580291    0.000099217796    0.000251046714
            0.000092452587    0.000226064233    0.062550898697    0.064164026415    0.000099217796    0.000251046714    0.066986003945    0.079293286624
0.400     -0.021215642850    0.091765116221    0.000168449576    0.000247699650    -0.021272258180    0.081020094635    0.000148472083    0.000205098820
            0.000168449576    0.000247699650    0.084612066995    0.078560013910    0.000190553739    0.000301311057    0.075913809401    0.065291456301
            -0.021272258180    0.081020094635    0.000190553739    0.000301311057    -0.022458747678    0.090712481149    0.000161669646    0.000228747668
            0.000148472083    0.000205098820    0.075913809401    0.065291456301    0.000161669646    0.000228747668    0.084462097678    0.078409622233
0.425     0.013355271545    0.100006573061    0.000226559623    0.000209428953    0.006588207225    0.092078994366    0.000196823372    0.000169691979
            0.000226559623    0.000209428953    0.100980334415    0.072201136220    0.000261188878    0.000258796019    0.089591986886    0.062384812172
            0.006588207225    0.092078994366    0.000261188878    0.000258796019    0.012064943209    0.099325657567    0.000215878619    0.000190121613
            0.000196823372    0.000169691979    0.089591986886    0.062384812172    0.000215878619    0.000190121613    0.100597147707    0.072290358644
0.450     0.049041244815    0.094814799962    0.000273281495    0.000158366468    0.037328036465    0.092207427313    0.000233996648    0.000123740181
            0.000273281503    0.000158366473    0.114060489002    0.061446138276    0.000319112142    0.000200509521    0.102033451780    0.055560816188
            0.037328036465    0.092207427313    0.000319112142    0.000200509521    0.047872087257    0.094512993156    0.000257714147    0.000139447159
            0.000233996648    0.000123740181    0.102033451780    0.055560816188    0.000257714147    0.000139447159    0.113559338823    0.061884217535
0.475     0.080745102071    0.076518945340    0.000306690805    0.000098765094    0.066685908209    0.080856538858    0.000258582287    0.000071666129
            0.000306690805    0.000098765094    0.122509680106    0.047930312720    0.000361741436    0.000131339258    0.111847827188    0.045542277392
            0.066685908209    0.080856538858    0.000361741436    0.000131339258    0.079865270082    0.076537428117    0.000285400460    0.000081742714
            0.000258582287    0.000071666129    0.111847827188    0.045542277392    0.000285400460    0.000081742714    0.122048273956    0.048771323759
0.500     0.103807613449    0.047303572991    0.000326606819    0.000034476870    0.090440866712    0.059072412731    0.000271087509    0.000017337238
            0.000326606819    0.000034476870    0.125739863065    0.033678967747    0.000388586318    0.000055849414    0.118033688165    0.033556855059
            0.090440866712    0.059072412731    0.000388586318    0.000055849414    0.103360097692    0.047518039727    0.000299413832    0.000021511245
            0.000271087509    0.000017337238    0.118033688165    0.033556855059    0.000299413832    0.000021511245    0.125492164606    0.034906400331
0.525     0.114618449443    0.010929560542    0.000333899854    -0.000031748680    0.104944162981    0.029387750288    0.000273171601    -0.000036725389
            0.000333899854    -0.000031748680    0.123995989424    0.020791481634    0.000400494922    -0.000022583195    0.120136936893    0.021157091458
            0.104944162981    0.029387750288    0.000400494922    -0.000022583195    0.114696607888    0.011160992542    0.000301663070    -0.000038188460
            0.000273171601    -0.000036725389    0.120136936893    0.021157091458    0.000301663070    -0.000038188460    0.124122680010    0.022315882932
0.550     0.111117207270    -0.027705589235    0.000329643874    -0.000098455003    0.107624083766    -0.004423465501    0.000266676176    -0.000089612988
            0.000329643883    -0.000098455006    0.118346400975    0.011127601608    0.000398698576    -0.000102107509    0.118374277209    0.010000292784
            0.107624083766    -0.004423465501    0.000398698576    -0.000102107509    0.111743463280    -0.027671445555    0.000294432846    -0.000096191125
            0.000266676176    -0.000089612988    0.118374277209    0.010000292784    0.000294432846    -0.000096191125    0.118963957572    0.012794128606
0.575     0.093134838547    -0.063151203802    0.000314222379    -0.000165131124    0.097395202812    -0.037752113168    0.000252566877    -0.000141704889
            0.000314222379    -0.000165131124    0.110549197202    0.005996107119    0.000383711662    -0.000182074683    0.113651550571    0.001562440657
            0.097395202812    -0.037752113168    0.000383711662    -0.000182074683    0.094247537802    -0.063536672776    0.000279123324    -0.000152940139
            0.000252566877    -0.000141704889    0.113651550571    0.001562440657    0.000279123324    -0.000152940139    0.111703764081    0.007605941303
0.600     0.062558043217    -0.090112258997    0.000286804533    -0.000231457972    0.074969566163    -0.065725862824    0.000230251442    -0.000193781904
            0.000286804533    -0.000231457972    0.102818656661    0.005888710174    0.000354644082    -0.000262185366    0.107485289388    -0.003159987650
            0.074969566163    -0.065725862824    0.000354644082    -0.000262185366    0.064007593720    -0.091113390986    0.000255371615    -0.000209545616
            0.000230251442    -0.000193781904    0.107485289388    -0.003159987650    0.000255371615    -0.000209545616    0.104469133665    0.007231762823
0.625     0.023226888482    -0.104228867390    0.000245359789    -0.000296133099    0.042931230426    -0.083913228236    0.000197492497    -0.000245710479
            0.000245359789    -0.000296133099    0.097453482258    0.010302762712    0.000309107631    -0.000341131284    0.101747905170    -0.003927284777
            0.042931230426    -0.083913228236    0.000309107625    -0.000341131289    0.024786292503    -0.105979994255    0.000220827973    -0.000266275030
            0.000197492497    -0.000245710479    0.101747905170    -0.003927284777    0.000220827973    -0.000266275030    0.099469318016    0.011196619122
0.650     -0.019486816648    -0.102842763067    0.000187552773    -0.000355895077    0.005519250318    -0.089101873796    0.000151316063    -0.000295232341
            0.000187552773    -0.000355895077    0.096390329709    0.017734884018    0.000244151112    -0.000415385324    0.098299865950    -0.001392540961
            0.005519250318    -0.089101873796    0.000244151112    -0.000415385324    -0.018094415678    -0.105383917897    0.000172029436    -0.000321127554
            0.000151316063    -0.000295232341    0.098299865949    -0.001392540978    0.000172029436    -0.000321127554    0.098569208055    0.018064819581
0.675     -0.059440604706    -0.085567600438    0.000112235087    -0.000405229165    -0.031954282824    -0.079945626145    0.000089611277    -0.000337491357
            0.000112235087    -0.000405229165    0.100742020040    0.025901455924    0.000157976561    -0.000478682965    0.098531036732    0.002962668902
            -0.031954282824    -0.079945626145    0.000157976561    -0.000478682965    -0.058501178089    -0.088825624483    0.000106202713    -0.000369073666
            0.000089611277    -0.000337491357    0.098531036732    0.002962668902    0.000106202713    -0.000369073666    0.102845024172    0.025649196990
0.700     -0.090732038789    -0.054498732023    0.000021053053    -0.000437244247    -0.063981693166    -0.057332066809    0.000012969295    -0.000365795449
            0.000021053053    -0.000437244247    0.110491192465    0.032188068893    0.000051846322    -0.000522900770    0.103008928984    0.007138628754
            -0.063981693166    -0.057332066809    0.000051846322    -0.000522900770    -0.090491382191    -0.058287566339    0.000023367718    -0.000402775711
            0.000012969289    -0.000365795449    0.103008928984    0.007138628754    0.000023367718    -0.000402775711    0.112290370117    0.031441294213
0.725     -0.108736409942    -0.013926137585    -0.000080802670    -0.000445497258    -0.085828172709    -0.024278123505    -0.000074301328    -0.000373490648
            -0.000080802670    -0.000445497258    0.124431968904    0.034221545010    -0.000068791185    -0.000540047271    0.111306221938    0.009080045893
            -0.085828172709    -0.024278123505    -0.000068791185    -0.000540047271    -0.109354101261    -0.017969766796    -0.000072354289    -0.000414554082
            -0.000074301328    -0.000373490648    0.111306221938    0.009080045893    -0.000072354289    -0.000414554082    0.125757237671    0.033158447261
0.750     -0.110920445775    0.030410205420    -0.000185129395    -0.000426106018    -0.094369416522    0.014606745808    -0.000164624325    -0.000356247023
            -0.000185129395    -0.000426106018    0.140427120298    0.030392918580    -0.000194795492    -0.000524766888    0.122125986893    0.007149484182
            -0.094369416522    0.014606745808    -0.000194795492    -0.000524766888    -0.112438038954    0.026435113214    -0.000172941595    -0.000398972545
            -0.000164624325    -0.000356247023    0.122125986893    0.007149484182    -0.000172941595    -0.000398972545    0.141200488391    0.029248581406
0.775     -0.097204528421    0.072340366790    -0.000282520285    -0.000379031697    -0.088535137937    0.053968932456    -0.000248831218    -0.000313570620
            -0.000282520285    -0.000379031697    0.155866004200    0.020178058303    -0.000315152032    -0.000475992769    0.133602927853    0.000454227663
            -0.088535137937    0.053968932456    -0.000315152032    -0.000475992769    -0.099535665013    0.068752985042    -0.000268226729    -0.000354703829
            -0.000248831218    -0.000313570620    0.133602927853    0.000454227663    -0.000268226729    -0.000354703829    0.156115890371    0.019197536629
