# GHz S RI R 45
0.000     0.028798296750    0.001525637063    -0.000003932677    -0.000008628386    0.000879611590    0.001354818239    -0.000002554945    -0.000006185781
            -0.000003932671    -0.000008628386    0.029155880913    0.001576692513    -0.000033809190    -0.000011393286    0.000908966254    0.001637554451
            0.000879612006    0.001354818208    -0.000033809191    -0.000011393286    0.028671233811    0.001516183480    -0.000003987336    -0.000008718238
            -0.000002554930    -0.000006185781    0.000908966445    0.001637554459    -0.000003987358    -0.000008718238    0.029094355971    0.001588512158
0.025     0.035206507834    0.007118173443    -0.000011669074    -0.000018897950    0.003668019891    0.009691761900    -0.000007171997    -0.000013033671
            -0.000011668983    -0.000018897788    0.034098542434    0.007940716179    -0.000045064878    -0.000018626937    0.002681209671    0.010997542017
            0.003669434515    0.009691388923    -0.000045065046    -0.000018626730    0.035131971246    0.007097655579    -0.000011263576    -0.000019404874
            -0.000007172001    -0.000013033679    0.002681464449    0.010996967308    -0.000011263575    -0.000019404895    0.034011804985    0.007896463497
0.050     0.043698750799    0.006652256324    -0.000028290157    -0.000028662569    0.011337760550    0.016488204527    -0.000017148045    -0.000020916815
            -0.000028290175    -0.000028662567    0.038847034113    0.010022204797    -0.000071258021    -0.000031886896    0.007700885452    0.020435217184
            0.011337753518    0.016488226353    -0.000071258021    -0.000031886896    0.043606544363    0.006663387798    -0.000027083340    -0.000030931168
            -0.000017148046    -0.000020916817    0.007700982704    0.020435211525    -0.000027083347    -0.000030931165    0.038668944849    0.009969894871
0.075     0.052125249916    0.000945366327    -0.000047428940    -0.000028500751    0.021712630325    0.018243833061    -0.000029758428    -0.000024036568
            -0.000047428948    -0.000028500745    0.042439222008    0.009920222198    -0.000100359055    -0.000025102766    0.014785332593    0.027177837357
            0.021712624336    0.018243837080    -0.000100359055    -0.000025102766    0.052036003833    0.001000745153    -0.000046689416    -0.000034072802
            -0.000029758428    -0.000024036569    0.014785328320    0.027177838543    -0.000046689416    -0.000034072802    0.042159103026    0.009928816088
0.100     0.058163889079    -0.010006179623    -0.000064478420    -0.000019639296    0.031992234505    0.014174340944    -0.000043567602    -0.000022206389
            -0.000064478419    -0.000019639308    0.044313730930    0.008235048592    -0.000122542620    -0.000003589158    0.022501118255    0.030841053170
            0.031992234505    0.014174340944    -0.000122542630    -0.000003589159    0.058110801181    -0.009897152341    -0.000066919356    -0.000028895602
            -0.000043567603    -0.000022206389    0.022501092495    0.030841060822    -0.000066919356    -0.000028895602    0.043953124226    0.008373631980
0.125     0.059198600327    -0.024896528451    -0.000076390124    -0.000005070063    0.039319922450    0.004823305130    -0.000057156266    -0.000015412345
            -0.000076390120    -0.000005070077    0.043744463453    0.005935602048    -0.000133325060    0.000025103016    0.029473537190    0.031706437342
            0.039319920684    0.004823303102    -0.000133325060    0.000025103016    0.059223435851    -0.024740227319    -0.000085056884    -0.000016294144
            -0.000057156266    -0.000015412345    0.029473537190    0.031706437342    -0.000085056884    -0.000016294144    0.043365152502    0.006256137611
0.150     0.053379261441    -0.041343852162    -0.000082593900    0.000011575316    0.041347029883    -0.008019180948    -0.000069328122    -0.000003914947
            -0.000082593899    0.000011575315    0.040679849085    0.004390030911    -0.000133473894    0.000053832431    0.034615815402    0.030619189442
            0.041347029883    -0.008019180948    -0.000133473894    0.000053832431    0.053524823725    -0.041171598579    -0.000099352360    0.000002217528
            -0.000069328122    -0.000003914947    0.034615815402    0.030619189442    -0.000099352360    0.000002217528    0.040362615396    0.004908727966
0.175     0.040007119177    -0.056060185236    -0.000084611795    0.000027745848    0.036700766181    -0.021635529241    -0.000078960749    0.000012046843
            -0.000084611795    0.000027745848    0.035536446008    0.004890293565    -0.000127096828    0.000078604049    0.037376341087    0.028819987953
            0.036700766181    -0.021635529241    -0.000127096828    0.000078604049    0.040302681915    -0.055926961106    -0.000108817770    0.000025242518
            -0.000078960746    0.000012046842    0.037376341087    0.028819987953    -0.000108817770    0.000025242518    0.035370096568    0.005578902969
0.200     0.019958830861    -0.065614470160    -0.000084887971    0.000042932733    0.025331503358    -0.032865501148    -0.000084822491    0.000032143494
            -0.000084887964    0.000042932748    0.029365220327    0.008498209045    -0.000119054922    0.000099355852    0.037847376148    0.027663275195
            0.025331503358    -0.032865501148    -0.000119054922    0.000099355852    0.020408135030    -0.065592820011    -0.000112857005    0.000051723709
            -0.000084822503    0.000032143482    0.037847376148    0.027663275195    -0.000112857005    0.000051723709    0.029419372153    0.009284779134
0.225     -0.004388613097    -0.067112274739    -0.000085102844    0.000058777117    0.008620784865    -0.038710010197    -0.000085400630    0.000055764705
            -0.000085102844    0.000058777117    0.023691856381    0.015725805438    -0.000112323930    0.000119443615    0.036756547749    0.028304191991
            0.008620784865    -0.038710010197    -0.000112323930    0.000119443615    -0.003817386470    -0.067279729622    -0.000110706741    0.000080916182
            -0.000085400630    0.000055764705    0.036756547749    0.028304191991    -0.000110706741    0.000080916182    0.023995951206    0.016508107680
0.250     -0.029454166662    -0.058844569547    -0.000084850639    0.000078002519    -0.010774018288    -0.036968713552    -0.000079030428    0.000081647149
            -0.000084850639    0.000078002519    0.020226674116    0.026363416942    -0.000106259015    0.000143617592    0.035321302373    0.031428043550
            -0.010774018288    -0.036968713552    -0.000106259015    0.000143617592    -0.028830720000    -0.059265869411    -0.000101185617    0.000111921613
            -0.000079030428    0.000081647149    0.035321302373    0.031428043550    -0.000101185617    0.000111921613    0.020757333403    0.027031474867
0.275     -0.051052018691    -0.040752204990    -0.000081180595    0.000102667919    -0.029359102748    -0.026760792281    -0.000064252212    0.000107592468
            -0.000081180595    0.000102667919    0.020511984483    0.039407034578    -0.000096264116    0.000175288962    0.034972134132    0.037048860596
            -0.029359102748    -0.026760792281    -0.000096264116    0.000175288962    -0.050477397910    -0.041460507042    -0.000082790482    0.000143089980
            -0.000064252212    0.000107592468    0.034972134132    0.037048860596    -0.000082790482    0.000143089980    0.021193480090    0.039869631898
0.300     -0.065170814597    -0.014622492940    -0.000069536701    0.000132417349    -0.043467450481    -0.008819332366    -0.000040475002    0.000130497005
            -0.000069536701    0.000132417349    0.025556585741    0.053202365005    -0.000075421542    0.000214038000    0.037011021438    0.044483794881
            -0.043467450481    -0.008819332366    -0.000075421542    0.000214038000    -0.064761981079    -0.015604161718    -0.000054381062    0.000171642116
            -0.000040475002    0.000130497005    0.037011021438    0.044483794881    -0.000054381062    0.000171642116    0.026274265861    0.053412075117
0.325     -0.068786630527    0.016123512089    -0.000045605398    0.000163666246    -0.049995676662    0.014562707451    -0.000008546937    0.000146815308
            -0.000045605398    0.000163666246    0.035562642348    0.065726716415    -0.000037329789    0.000254587316    0.042282813216    0.052484673006
            -0.049995676662    0.014562707451    -0.000037329789    0.000254587316    -0.068653413731    0.014934338246    -0.000015990802    0.000193834520
            -0.000008546937    0.000146815308    0.042282813216    0.052484673006    -0.000015990802    0.000193834520    0.036187546823    0.065695358380
0.350     -0.060521753680    0.046987202561    -0.000007449621    0.000190214566    -0.047054644790    0.039922384500    0.000029011049    0.000153463904
            -0.000007449621    0.000190214566    0.049826442092    0.075012825238    0.000020815591    0.000287821558    0.050971442321    0.059531930839
            -0.047054644790    0.039922384500    0.000020815591    0.000287821558    -0.060742923449    0.045703884428    0.000030505392    0.000205779814
            0.000029011049    0.000153463904    0.050971442321    0.059531930839    0.000030505392    0.000205779814    0.050244626698    0.074812518409
0.375     -0.040957175721    0.073201653620    0.000043222741    0.000205025434    -0.034346851610    0.063265693164    0.000068418014    0.000148686898
            0.000043222741    0.000205025434    0.066846500464    0.079541622224    0.000096392724    0.000303456672    0.062550898697    0.064164026415
            -0.034346851610    0.063265693164    0.000096392724    0.000303456672    -0.041560938435    0.071969382320    0.000081482423    0.000204508512
            0.000068418014    0.000148686898    0.062550898697    0.064164026415    0.000081482423    0.000204508512    0.066986003945    0.079293286624
0.400     -0.012568339989    0.090581752665    0.000101085279    0.000202487510    -0.013225895004    0.080791314677    0.000105507593    0.000132604607
            0.000101085279    0.000202487510    0.084612066995    0.078560013910    0.000181459630    0.000293354675    0.075913809401    0.065291456301
            -0.013225895004    0.080791314677    0.000181459630    0.000293354675    -0.013520468947    0.089553158727    0.000132264455    0.000188862087
            0.000105507593    0.000132604607    0.075913809401    0.065291456301    0.000132264455    0.000188862087    0.084462097678    0.078409622233
0.425     0.020703144094    0.096223598572    0.000158503729    0.000180126109    0.013560436746    0.089517016987    0.000136766902    0.000107044549
            0.000158503736    0.000180126117    0.100980334415    0.072201136220    0.000264669881    0.000254056674    0.089591986886    0.062384812172
            0.013560436746    0.089517016987    0.000264669881    0.000254056674    0.019499283199    0.095533225468    0.000178212068    0.000159684227
            0.000136766902    0.000107044549    0.089591986886    0.062384812172    0.000178212068    0.000159684227    0.100597147707    0.072290358644
0.450     0.054085338002    0.088951018512    0.000207520063    0.000139325342    0.042320063691    0.087730985285    0.000160047620    0.000074895707
            0.000207520063    0.000139325342    0.114060489002    0.061446138276    0.000334241678    0.000187845307    0.102033451780    0.055560816188
            0.042320063691    0.087730985285    0.000334241678    0.000187845307    0.052778349515    0.088689417612    0.000215672657    0.000119429543
            0.000160047620    0.000074895707    0.102033451780    0.055560816188    0.000215672657    0.000119429543    0.113559338823    0.061884217535
0.475     0.082688098448    0.069456375000    0.000241757854    0.000084863768    0.068955411723    0.075206278167    0.000174724687    0.000039181259
            0.000241757854    0.000084863768    0.122509680106    0.047930312720    0.000380801990    0.000102066879    0.111847827188    0.045542277392
            0.068955411723    0.075206278167    0.000380801990    0.000102066879    0.081459564557    0.069652213696    0.000242416878    0.000071348257
            0.000174724687    0.000039181262    0.111847827188    0.045542277392    0.000242416878    0.000071348257    0.122048273956    0.048771323759
0.500     0.102180307296    0.040199038151    0.000257824109    0.000023646878    0.089512556967    0.053241760567    0.000181372860    0.000002330358
            0.000257824110    0.000023646877    0.125739863065    0.033678967747    0.000399497815    0.000007179357    0.118033688165    0.033556855059
            0.089512556967    0.053241760567    0.000399497815    0.000007179357    0.101218732552    0.040807089926    0.000257627653    0.000018736369
            0.000181372860    0.000002330359    0.118033688165    0.033556855059    0.000257627653    0.000018736369    0.125492164606    0.034906400331
0.525     0.109363634692    0.005096234881    0.000255823078    -0.000037035073    0.100685225741    0.024531803287    0.000181112961    -0.000034224658
            0.000255823078    -0.000037035073    0.123995989424    0.020791481634    0.000390707016    -0.000085886653    0.120136936893    0.021157091458
            0.100685225741    0.024531803287    0.000390707016    -0.000085886653    0.108835849073    0.005997087415    0.000261489469    -0.000035664655
            0.000181112961    -0.000034224658    0.120136936893    0.021157091458    0.000261489469    -0.000035664655    0.124122680010    0.022315882932
0.550     0.102634891273    -0.030934920736    0.000239029900    -0.000091283541    0.100293229801    -0.007095484065    0.000174957767    -0.000070031527
            0.000239029900    -0.000091283541    0.118346400975    0.011127601608    0.000359461574    -0.000168348280    0.118374277209    0.010000292784
            0.100293229801    -0.007095484065    0.000359461574    -0.000168348280    0.102656582566    -0.029925963201    0.000254690140    -0.000089847535
            0.000174957767    -0.000070031527    0.118374277209    0.010000292784    0.000254690140    -0.000089847535    0.118963957572    0.012794128606
0.575     0.082294301869    -0.062572537594    0.000212633415    -0.000135946213    0.087672106212    -0.037097768556    0.000163246450    -0.000105241591
            0.000212633415    -0.000135946213    0.110549197202    0.005996107119    0.000313523830    -0.000235507978    0.113651550571    0.001562440657
            0.087672106212    -0.037097768556    0.000313523830    -0.000235507978    0.082904949466    -0.061683401157    0.000237854658    -0.000142536885
            0.000163246450    -0.000105241591    0.113651550571    0.001562440657    0.000237854658    -0.000142536885    0.111703764081    0.007605941303
0.600     0.050669198325    -0.084811647814    0.000181923959    -0.000171198274    0.063952741591    -0.060811802132    0.000145402391    -0.000140025218
            0.000181923959    -0.000171198274    0.102818656661    0.005888710174    0.000260755122    -0.000287443095    0.107485289388    -0.003159987650
            0.063952741591    -0.060811802132    0.000260755122    -0.000287443095    0.051814281222    -0.084281899756    0.000211162783    -0.000192814941
            0.000145402391    -0.000140025218    0.107485289388    -0.003159987650    0.000211162783    -0.000192814941    0.104469133665    0.007231762823
0.625     0.011958504569    -0.093753618773    0.000150329342    -0.000199902247    0.032091724063    -0.074181130908    0.000120010227    -0.000173830625
            0.000150329342    -0.000199902247    0.097453482258    0.010302762712    0.000206364938    -0.000328059437    0.101747905170    -0.003927284777
            0.032091724063    -0.074181130908    0.000206364938    -0.000328059437    0.013486200974    -0.093795417598    0.000174138172    -0.000239550272
            0.000120010227    -0.000173830625    0.101747905170    -0.003927284777    0.000174138172    -0.000239550272    0.099469318016    0.011196619122
0.650     -0.028268213299    -0.087363386755    0.000118134872    -0.000225900871    -0.003425139333    -0.074537267434    0.000085423208    -0.000204766109
            0.000118134872    -0.000225900871    0.096390329709    0.017734884018    0.000151237216    -0.000362637382    0.098299865950    -0.001392540961
            -0.003425139379    -0.074537268433    0.000151237216    -0.000362637382    -0.026592140351    -0.088119270852    0.000125956531    -0.000280722183
            0.000085423208    -0.000204766109    0.098299865949    -0.001392540978    0.000125956531    -0.000280722183    0.098569208055    0.018064819581
0.675     -0.063920243251    -0.065983268612    0.000082564089    -0.000251675515    -0.037257386463    -0.061207656363    0.000040757034    -0.000229367915
            0.000082564089    -0.000251675515    0.100742020040    0.025901455924    0.000092032500    -0.000394694650    0.098531036732    0.002962668902
            -0.037257386463    -0.061207656363    0.000092032500    -0.000394694650    -0.062379786546    -0.067494195508    0.000066244353    -0.000312953046
            0.000040757034    -0.000229367915    0.098531036732    0.002962668902    0.000066244353    -0.000312953046    0.102845024172    0.025649196990
0.700     -0.089462901113    -0.032425636737    0.000039368019    -0.000276591519    -0.064165100588    -0.035775806498    -0.000012994976    -0.000243168961
            0.000039368019    -0.000276591519    0.110491192465    0.032188068893    0.000023384604    -0.000423596318    0.103008928984    0.007138628754
            -0.064165100588    -0.035775806498    0.000023384596    -0.000423596319    -0.088344985793    -0.034614728792    -0.000003766273    -0.000331802265
            -0.000012994976    -0.000243168961    0.103008928984    0.007138628754    -0.000003766273    -0.000331802265    0.112290370117    0.031441294213
0.725     -0.100951616130    0.008472317810    -0.000014707956    -0.000296528093    -0.079988540603    -0.001827178350    -0.000072311570    -0.000241957721
            -0.000014707956    -0.000296528093    0.124431968904    0.034221545010    -0.000058840640    -0.000444038093    0.111306221938    0.009080045893
            -0.079988540603    -0.001827178350    -0.000058840640    -0.000444038093    -0.100496238879    0.005793415193    -0.000080431487    -0.000332855853
            -0.000072311570    -0.000241957721    0.111306221938    0.009080045893    -0.000080431487    -0.000332855853    0.125757237671    0.033158447261
0.750     -0.096747320416    0.050745045539    -0.000079860173    -0.000305240452    -0.082403283890    0.035741042267    -0.000131522245    -0.000223383247
            -0.000079860173    -0.000305240452    0.140427120298    0.030392918580    -0.000154752467    -0.000447812028    0.122125986893    0.007149484182
            -0.082403283890    0.035741042267    -0.000154752467    -0.000447812028    -0.097104554322    0.047846704392    -0.000157794776    -0.000313360033
            -0.000131522240    -0.000223383239    0.122125986893    0.007149484182    -0.000157794776    -0.000313360033    0.141200488391    0.029248581406
0.775     -0.077705442877    0.088396623516    -0.000152472128    -0.000296612456    -0.071210327372    0.071649161600    -0.000184122860    -0.000187995984
            -0.000152472128    -0.000296612456    0.155866004200    0.020178058303    -0.000259313212    -0.000426782865    0.133602927853    0.000454227663
            -0.071210327372    0.071649161600    -0.000259313212    -0.000426782865    -0.078911269380    0.085588637655    -0.000228802355    -0.000273411249
            -0.000184122860    -0.000187995984    0.133602927853    0.000454227663    -0.000228802355    -0.000273411249    0.156115890371    0.019197536629
