# GHz S RI R 45
0.000     0.028965763079    0.001861381733    0.970712276894    -0.008147668714    0.000910565729    0.001595156625    -0.000896959320    -0.000556875065
            0.970712276894    -0.008147668714    0.029155880913    0.001576692513    -0.000896765418    -0.000556794365    0.000908966254    0.001637554451
            0.000910565918    0.001595156632    -0.000896765418    -0.000556794365    0.028930370990    0.001871882963    0.970762363287    -0.008149499887
            -0.000896959404    -0.000556875118    0.000908966445    0.001637554459    0.970762363287    -0.008149499887    0.029094355971    0.001588512158
0.025     0.035915194667    0.007910414638    0.942944595093    -0.213770677372    0.003977683555    0.010442515047    -0.001415928377    -0.001752989936
            0.942944577878    -0.213770708077    0.034098542434    0.007940716179    -0.001413417178    -0.001752516892    0.002681209671    0.010997542017
            0.003976915594    0.010442639540    -0.001413567091    -0.001752930030    0.035849066991    0.007855409489    0.943095904592    -0.213492955969
            -0.001415753044    -0.001752590758    0.002681464449    0.010996967308    0.943095882235    -0.213493054730    0.034011804985    0.007896463497
0.050     0.045125834041    0.007637133814    0.871188126060    -0.411607497251    0.012293980357    0.017624012440    -0.002867736465    -0.002967363630
            0.871188126060    -0.411607497251    0.038847034113    0.010022204797    -0.002867527315    -0.002964895108    0.007700885452    0.020435217184
            0.012293968090    0.017624011243    -0.002867492457    -0.002964906701    0.045063805916    0.007527392290    0.871529889770    -0.411035644130
            -0.002867652592    -0.002967365973    0.007700982704    0.020435211525    0.871529889770    -0.411035644130    0.038668944849    0.009969894871
0.075     0.054191989429    0.001607403271    0.759557465885    -0.588426920628    0.023414364929    0.019271251797    -0.004751968011    -0.003343647259
            0.759557465885    -0.588426920628    0.042439222008    0.009920222198    -0.004749047527    -0.003338476588    0.014785332593    0.027177837357
            0.023414357903    0.019271255611    -0.004749041617    -0.003338474910    0.054141341646    0.001446786538    0.760214737236    -0.587688509018
            -0.004751962100    -0.003343645580    0.014785328320    0.027177838543    0.760214737236    -0.587688509018    0.042159103026    0.009928816088
0.100     0.060530105988    -0.010097298267    0.613213637877    -0.736396332732    0.034235891373    0.014594347749    -0.006680273539    -0.002952518028
            0.613213637877    -0.736396332732    0.044313730930    0.008235048592    -0.006670565890    -0.002946553475    0.022501118255    0.030841053170
            0.034235892038    0.014594348739    -0.006670563615    -0.002946556644    0.060501573341    -0.010317556238    0.614260795784    -0.735611514801
            -0.006680272667    -0.002952523217    0.022501092495    0.030841060822    0.614260795784    -0.735611514801    0.043953124226    0.008373631980
0.125     0.061284740956    -0.025996635245    0.439204982832    -0.849041380516    0.041622397459    0.004290755951    -0.008460129081    -0.001963628964
            0.439204982832    -0.849041380516    0.043744463453    0.005935602048    -0.008441033648    -0.001962575606    0.029473537190    0.031706437342
            0.041622398454    0.004290756053    -0.008441034377    -0.001962577328    0.061284178105    -0.026293200534    0.440678507040    -0.848350780949
            -0.008460128543    -0.001963630396    0.029473537190    0.031706437342    0.440678507040    -0.848350780949    0.043365152502    0.006256137611
0.150     0.054488541780    -0.043274964636    0.245703160919    -0.921445971052    0.043051254917    -0.009561869584    -0.010076208534    -0.000507085262
            0.245703160919    -0.921445971052    0.040679849085    0.004390030911    -0.010049618010    -0.000518832444    0.034615815402    0.030619189442
            0.043051254917    -0.009561869584    -0.010049618010    -0.000518832444    0.054518341839    -0.043674592511    0.247597465214    -0.921000236674
            -0.010076208534    -0.000507085262    0.034615815402    0.030619189442    0.247597465214    -0.921000236674    0.040362615396    0.004908727966
0.175     0.039551683882    -0.058327748226    0.041683846636    -0.950512695942    0.037131019270    -0.023882657835    -0.011565469457    0.001443259231
            0.041683846636    -0.950512695942    0.035536446008    0.004890293565    -0.011539225055    0.001411910038    0.037376341087    0.028819987953
            0.037131019270    -0.023882657835    -0.011539225055    0.001411910038    0.039595962835    -0.058862493607    0.043949750563    -0.950462846292
            -0.011565469709    0.001443257212    0.037376341087    0.028819987953    0.043949750563    -0.950462846292    0.035370096568    0.005578902969
0.200     0.017590921298    -0.067419647278    -0.163388969369    -0.934987777539    0.023982785585    -0.035152965107    -0.012869846718    0.004056333321
            -0.163388969369    -0.934987777539    0.029365220327    0.008498209045    -0.012856582482    0.004003946291    0.037847376148    0.027663275195
            0.023982785585    -0.035152965107    -0.012856582482    0.004003946291    0.017615230463    -0.068116951143    -0.160844303754    -0.935474398773
            -0.012869846718    0.004056333321    0.037847376148    0.027663275195    -0.160844303754    -0.935474398773    0.029419372153    0.009284779134
0.225     -0.008610555643    -0.067463684598    -0.359854610839    -0.875619180928    0.005339464039    -0.040113819989    -0.013712195441    0.007529993066
            -0.359854610839    -0.875619180928    0.023691856381    0.015725805438    -0.013725052426    0.007463609758    0.036756547749    0.028304191991
            0.005339464039    -0.040113819989    -0.013725052426    0.007463609758    -0.008658249183    -0.068337251720    -0.357170362016    -0.876759024363
            -0.013712196755    0.007529990673    0.036756547749    0.028304191991    -0.357170362016    -0.876759024363    0.023995951206    0.016508107680
0.250     -0.034964803195    -0.056776175538    -0.538295855688    -0.775293938773    -0.015665689519    -0.036496894688    -0.013586990778    0.011899320823
            -0.538295855688    -0.775293938773    0.020226674116    0.026363416942    -0.013633975470    0.011833831471    0.035321302373    0.031428043550
            -0.015665689519    -0.036496894688    -0.013633975470    0.011833831471    -0.035147736229    -0.057816190096    -0.535651292473    -0.777169342935
            -0.013586990778    0.011899320823    0.035321302373    0.031428043550    -0.535651292473    -0.777169342935    0.020757333403    0.027031474867
0.275     -0.056805739340    -0.035589384195    -0.690083280810    -0.639051195361    -0.035045872167    -0.023603033514    -0.011890203295    0.016861016146
            -0.690083280810    -0.639051195361    0.020511984483    0.039407034578    -0.011969195514    0.016815199401    0.034972134132    0.037048860596
            -0.035045872167    -0.023603033514    -0.011969195514    0.016815199401    -0.057186622787    -0.036755006001    -0.687685882790    -0.641694511664
            -0.011890203295    0.016861016146    0.034972134132    0.037048860596    -0.687685882790    -0.641694511664    0.021193480090    0.039869631898
0.300     -0.069813934891    -0.006219330273    -0.807981110607    -0.473887308359    -0.048761152420    -0.002592143440    -0.008165853041    0.021716636439
            -0.807981110607    -0.473887308359    0.025556585741    0.053202365005    -0.008263965267    0.021705830653    0.037011021438    0.044483794881
            -0.048761152420    -0.002592143440    -0.008263965267    0.021705830653    -0.070440103226    -0.007438495517    -0.806056957622    -0.477264515646
            -0.008165853041    0.021716636439    0.037011021438    0.044483794881    -0.806056957622    -0.477264515646    0.026274265861    0.053412075117
0.325     -0.070943762426    0.027257168540    -0.886688345266    -0.288317246517    -0.053576158597    0.023655842360    -0.002359437361    0.025490264430
            -0.886688345266    -0.288317246517    0.035562642348    0.065726716415    -0.002456756419    0.025519899884    0.042282813216    0.052484673006
            -0.053576158597    0.023655842360    -0.002456756419    0.025519899884    -0.071830755578    0.026080910813    -0.885455584855    -0.292325278469
            -0.002359437361    0.025490264430    0.042282813216    0.052484673006    -0.885455584855    -0.292325278469    0.036187546823    0.065695358380
0.350     -0.059123327398    0.059724648017    -0.923196107585    -0.091726737690    -0.047769648806    0.051076395275    0.005038944712    0.027205485441
            -0.923196107585    -0.091726737690    0.049826442092    0.075012825238    0.004962653604    0.027268508638    0.050971442321    0.059531930839
            -0.047769648806    0.051076395275    0.004962653604    0.027268508638    -0.060242708442    0.058695972373    -0.922839569794    -0.096201036305
            0.005038944712    0.027205485441    0.050971442321    0.059531930839    -0.922839569794    -0.096201036305    0.050244626698    0.074812518409
0.375     -0.035506644871    0.085998264716    -0.916833215041    0.106335496969    -0.031478478841    0.075210168586    0.013051114829    0.026207747505
            -0.916833215041    0.106335496969    0.066846500464    0.079541622224    0.013007703113    0.026286295134    0.062550898697    0.064164026415
            -0.031478478841    0.075210168586    0.013007703113    0.026286295134    -0.036783606415    0.085209912701    -0.917490197529    0.101609719569
            0.013051114829    0.026207747505    0.062550898697    0.064164026415    -0.917490197529    0.101609719569    0.066986003945    0.079293286624
0.400     -0.003277098911    0.101776564089    -0.869076221068    0.296790274011    -0.006652575970    0.092034010227    0.020456354086    0.022406067905
            -0.869076221068    0.296790274011    0.084612066995    0.078560013910    0.020444641257    0.022478872089    0.075913809401    0.065291456301
            -0.006652575970    0.092034010227    0.020444641257    0.022478872089    -0.004596611397    0.101288713593    -0.870822343015    0.292060577661
            0.020456354086    0.022406067905    0.075913809401    0.065291456301    -0.870822343015    0.292060577661    0.084462097678    0.078409622233
0.425     0.032936940793    0.104356776062    -0.783160213215    0.471473795186    0.023334743411    0.098616429790    0.026135035081    0.016325263976
            -0.783160213215    0.471473795186    0.100980334415    0.072201136220    0.026139968536    0.016376504948    0.089591986886    0.062384812172
            0.023334743411    0.098616429790    0.026139968536    0.016376504948    0.031715219933    0.104180596004    -0.786005612419    0.467000330151
            0.026135035081    0.016325263976    0.089591986886    0.062384812172    -0.786005612419    0.467000330151    0.100597147707    0.072290358644
0.450     0.067827468511    0.093022553907    -0.663648458923    0.623361289823    0.054249026975    0.093535438734    0.029385844251    0.008957548924
            -0.663648458923    0.623361289823    0.114060489002    0.061446138276    0.029384940459    0.008984606358    0.102033451780    0.055560816188
            0.054249026975    0.093535438734    0.029384940459    0.008984606358    0.066847751780    0.093110683090    -0.667545048147    0.619394911802
            0.029385844251    0.008957548924    0.102033451780    0.055560816188    -0.667545048147    0.619394911802    0.113559338823    0.061884217535
0.475     0.096190585668    0.069089408863    -0.516085963780    0.746594427681    0.081600264434    0.077026912416    0.030102383034    0.001463215202
            -0.516085963780    0.746594427681    0.122509680106    0.047930312720    0.030075131369    0.001479657792    0.111847827188    0.045542277392
            0.081600264434    0.077026912416    0.030075131369    0.001479657792    0.095578109615    0.069336044099    -0.520936743219    0.743372903555
            0.030102383034    0.001463215202    0.111847827188    0.045542277392    -0.520936743219    0.743372903555    0.122048273956    0.048771323759
0.500     0.113628715274    0.035708971962    -0.346767723919    0.836455250404    0.101224340378    0.050961391503    0.028762527262    -0.005175211555
            -0.346767723919    0.836455250404    0.125739863065    0.033678967747    0.028700279823    -0.005142606020    0.118033688165    0.033556855059
            0.101224340378    0.050961391503    0.028700279823    -0.005142606020    0.113466790983    0.035956849066    -0.352426631136    0.834193704515
            0.028762527262    -0.005175211555    0.118033688165    0.033556855059    -0.352426631136    0.834193704515    0.125492164606    0.034906400331
0.525     0.117120229149    -0.002515970310    -0.162639836295    0.889318978112    0.109802442903    0.018664163278    0.026225296929    -0.010436625467
            -0.162639836295    0.889318978112    0.123995989424    0.020791481634    0.026138886005    -0.010356670102    0.120136936893    0.021157091458
            0.109802442903    0.018664163278    0.026138886005    -0.010356670102    0.117430008591    -0.002458920593    -0.168924216349    0.888209745544
            0.026225296929    -0.010436625467    0.120136936893    0.021157091458    -0.168924216349    0.888209745544    0.124122680010    0.022315882932
0.550     0.105476043185    -0.040053075226    0.028730442591    0.902718689949    0.105363511554    -0.015393420844    0.023404796982    -0.014392939761
            0.028730442591    0.902718689949    0.118346400975    0.011127601608    0.023325377815    -0.014243469407    0.118374277209    0.010000292784
            0.105363511554    -0.015393420844    0.023325377815    -0.014243469407    0.106201633465    -0.040390048301    0.022046325397    0.902925722568
            0.023404796982    -0.014392939761    0.118374277209    0.010000292784    0.022046325397    0.902925722568    0.118963957572    0.012794128606
0.575     0.079642453439    -0.071105124911    0.219165681005    0.875518567409    0.087704639228    -0.046079622517    0.020908663916    -0.017632677610
            0.219165681005    0.875518567409    0.110549197202    0.005996107119    0.020881051597    -0.017411979253    0.113651550571    0.001562440657
            0.087704639228    -0.046079622517    0.020881051597    -0.017411979253    0.080645130145    -0.072019570452    0.212354626505    0.877175033863
            0.020908663916    -0.017632677610    0.113651550571    0.001562440657    0.212354626505    0.877175033863    0.111703764081    0.007605941303
0.600     0.042802700926    -0.090432335653    0.400035477430    0.808221983505    0.058684700275    -0.068309894469    0.018771636311    -0.020979905596
            0.400035477430    0.808221983505    0.102818656661    0.005888710174    0.018840483807    -0.020713708748    0.107485289388    -0.003159987650
            0.058684700275    -0.068309894469    0.018840483807    -0.020713708748    0.043867126950    -0.092052441169    0.393414681066    0.811409258566
            0.018771636311    -0.020979905596    0.107485289388    -0.003159987650    0.393414681066    0.811409258566    0.104469133665    0.007231762823
0.625     0.000141353287    -0.094262511015    0.562583450882    0.703311652723    0.022203185814    -0.077920175140    0.016399522333    -0.025077849217
            0.562583450882    0.703311652723    0.097453482258    0.010302762712    0.016591970613    -0.024817878773    0.101747905170    -0.003927284777
            0.022203185814    -0.077920175140    0.016591971168    -0.024817879604    0.000998365014    -0.096627446531    0.556513494625    0.708037162629
            0.016399522333    -0.025077849217    0.101747905170    -0.003927284777    0.556513494625    0.708037162629    0.099469318016    0.011196619122
0.650     -0.041828313688    -0.081142553847    0.698530502170    0.565479150994    -0.016252433615    -0.072585363124    0.012789674772    -0.029997138150
            0.698530502170    0.565479150994    0.096390329709    0.017734884018    0.013102319494    -0.029807784017    0.098299865950    -0.001392540961
            -0.016252433615    -0.072585363124    0.013102320014    -0.029807783788    -0.041461324494    -0.084179003751    0.693394156018    0.571660261291
            0.012789674772    -0.029997138150    0.098299865949    -0.001392540978    0.693394156018    0.571660261291    0.098569208055    0.018064819581
0.675     -0.076361366744    -0.052445536672    0.800837469780    0.401586076196    -0.050530995738    -0.052460485644    0.006981582717    -0.035041575076
            0.800837469780    0.401586076196    0.100742020040    0.025901455924    0.007375033806    -0.034980546445    0.098531036732    0.002962668902
            -0.050530995738    -0.052460485644    0.007375033806    -0.034980546445    -0.076730191233    -0.055963613601    0.797010221820    0.409028306170
            0.006981582717    -0.035041575076    0.098531036732    0.002962668902    0.797010221820    0.409028306170    0.102845024172    0.025649196990
0.700     -0.097800785271    -0.012290709973    0.864481803673    0.220222149983    -0.075037974319    -0.020310979838    -0.001437935357    -0.038888673758
            0.864481803673    0.220222149983    0.110491192465    0.032188068893    -0.001030699872    -0.038986835009    0.103008928984    0.007138628754
            -0.075037974319    -0.020310979838    -0.001030699872    -0.038986835009    -0.099063334471    -0.016006027713    0.862292385314    0.228621037229
            -0.001437935357    -0.038888673758    0.103008928984    0.007138628754    0.862292385314    0.228621037229    0.112290370117    0.031441294213
0.725     -0.102723791624    0.033214542393    0.886958809551    0.030918787414    -0.085863533178    0.019028254775    -0.012006611975    -0.040032230192
            0.886958809551    0.030918787414    0.124431968904    0.034221545010    -0.011661105503    -0.040281736332    0.111306221938    0.009080045893
            -0.085863533178    0.019028254775    -0.011661105503    -0.040281736332    -0.104913854538    0.029636708763    0.886646836201    0.039874584066
            -0.012006604988    -0.040032232287    0.111306221938    0.009080045893    0.886646836201    0.039874584066    0.125757237671    0.033158447261
0.750     -0.090561465494    0.077210958886    0.868368597965    -0.156789999034    -0.081491406558    0.059673430198    -0.023406254501    -0.037353449965
            0.868368597965    -0.156789999034    0.140427120298    0.030392918580    -0.023183967325    -0.037708326346    0.122125986893    0.007149484182
            -0.081491406558    0.059673430198    -0.023183967325    -0.037708326346    -0.093577328036    0.074097660531    0.870060784367    -0.147728975769
            -0.023406254501    -0.037353449965    0.122125986893    0.007149484182    0.870060784367    -0.147728975769    0.141200488391    0.029248581406
0.775     -0.063512390391    0.113406051309    0.811081046331    -0.334167294398    -0.062856672883    0.095853531477    -0.033819774376    -0.030563003862
            0.811081046331    -0.334167294398    0.155866004200    0.020178058303    -0.033749362044    -0.030953377381    0.133602927853    0.000454227663
            -0.062856672883    0.095853531477    -0.033749362044    -0.030953377381    -0.067132571030    0.111022412718    0.814780634979    -0.325472810879
            -0.033819774376    -0.030563003862    0.133602927853    0.000454227663    0.814780634979    -0.325472810879    0.156115890371    0.019197536629
