# GHz S RI R 45
0.000     0.030031577362    0.001122926596    -0.000000008512    -0.000000082639    0.000985404874    0.001220753072    0.000000009929    -0.000000051336
            -0.000000008512    -0.000000082639    0.029155880913    0.001576692513    -0.000000005940    -0.000000081939    0.000908966254    0.001637554451
            0.000985404895    0.001220753055    -0.000000005940    -0.000000081939    0.030055233498    0.001134898715    0.000000014536    -0.000000048285
            0.000000009928    -0.000000051336    0.000908966445    0.001637554459    0.000000014536    -0.000000048285    0.029094355971    0.001588512158
0.025     0.035327207847    0.007462943801    -0.000000027694    -0.000000188790    0.002956083581    0.010773849089    0.000000005917    -0.000000120199
            -0.000000027694    -0.000000188790    0.034098542434    0.007940716179    -0.000000023861    -0.000000186913    0.002681209671    0.010997542017
            0.002955995081    0.010772191419    -0.000000023861    -0.000000186913    0.035237518723    0.007414061503    0.000000012986    -0.000000112941
            0.000000005917    -0.000000120199    0.002681464449    0.010996967308    0.000000012986    -0.000000112942    0.034011804985    0.007896463497
0.050     0.040584146715    0.008761598400    -0.000000070813    -0.000000354478    0.008580962556    0.019685713872    -0.000000013212    -0.000000235338
            -0.000000070813    -0.000000354478    0.038847034113    0.010022204797    -0.000000065488    -0.000000352180    0.007700885452    0.020435217184
            0.008581018631    0.019685677429    -0.000000065488    -0.000000352180    0.040409937223    0.008728683595    -0.000000002808    -0.000000223757
            -0.000000013212    -0.000000235338    0.007700982704    0.020435211525    -0.000000002808    -0.000000223757    0.038668944849    0.009969894871
0.075     0.044733491638    0.007261381764    -0.000000123266    -0.000000508572    0.016359264958    0.025255363843    -0.000000039315    -0.000000344606
            -0.000000123266    -0.000000508572    0.042439222008    0.009920222198    -0.000000116553    -0.000000506062    0.014785332593    0.027177837357
            0.016359272393    0.025255368559    -0.000000116553    -0.000000506062    0.044464825312    0.007294358128    -0.000000025494    -0.000000329309
            -0.000000039315    -0.000000344606    0.014785328320    0.027177838543    -0.000000025494    -0.000000329309    0.042159103026    0.009928816088
0.100     0.046747012041    0.003498401100    -0.000000183048    -0.000000656194    0.024405263258    0.027053562891    -0.000000069138    -0.000000450514
            -0.000000183048    -0.000000656194    0.044313730930    0.008235048592    -0.000000174651    -0.000000653528    0.022501118255    0.030841053170
            0.024405263258    0.027053562891    -0.000000174651    -0.000000653528    0.046406179734    0.003662988923    -0.000000051308    -0.000000431799
            -0.000000069138    -0.000000450514    0.022501092495    0.030841060822    -0.000000051308    -0.000000431799    0.043953124226    0.008373631980
0.125     0.045518220679    -0.001302733221    -0.000000249457    -0.000000802151    0.030911397643    0.025566729225    -0.000000100854    -0.000000556944
            -0.000000249457    -0.000000802151    0.043744463453    0.005935602048    -0.000000238990    -0.000000799511    0.029473537190    0.031706437342
            0.030911396873    0.025566728587    -0.000000238990    -0.000000799511    0.045161801795    -0.000966941023    -0.000000078129    -0.000000535372
            -0.000000100854    -0.000000556944    0.029473537190    0.031706437342    -0.000000078129    -0.000000535372    0.043365152502    0.006256137611
0.150     0.040562998635    -0.005370869596    -0.000000324158    -0.000000951338    0.034526028681    0.022071663983    -0.000000135387    -0.000000668747
            -0.000000324158    -0.000000951338    0.040679849085    0.004390030911    -0.000000310905    -0.000000949182    0.034615815402    0.030619189442
            0.034526028681    0.022071663983    -0.000000310905    -0.000000949182    0.040274345614    -0.004839845600    -0.000000106780    -0.000000644942
            -0.000000135387    -0.000000668747    0.034615815402    0.030619189442    -0.000000106780    -0.000000644942    0.040362615396    0.004908727966
0.175     0.032360663703    -0.006763238220    -0.000000412783    -0.000001108128    0.034651025381    0.018346276423    -0.000000176656    -0.000000790599
            -0.000000412783    -0.000001108128    0.035536446008    0.004890293565    -0.000000396149    -0.000001107208    0.037376341087    0.028819987953
            0.034651025381    0.018346276423    -0.000000396149    -0.000001107208    0.032226509606    -0.006068565231    -0.000000141133    -0.000000765606
            -0.000000176656    -0.000000790599    0.037376341087    0.028819987953    -0.000000141133    -0.000000765606    0.035370096568    0.005578902969
0.200     0.022292222588    -0.003850588777    -0.000000523912    -0.000001273517    0.031616140150    0.016286877406    -0.000000231505    -0.000000924905
            -0.000000523912    -0.000001273517    0.029365220327    0.008498209045    -0.000000503505    -0.000001274858    0.037847376148    0.027663275195
            0.031616140150    0.016286877406    -0.000000503505    -0.000001274858    0.022375297802    -0.003067561643    -0.000000188237    -0.000000900158
            -0.000000231505    -0.000000924905    0.037847376148    0.027663275195    -0.000000188237    -0.000000900158    0.029419372153    0.009284779134
0.225     0.012475848712    0.004256404394    -0.000000667699    -0.000001443559    0.026658652750    0.017446065239    -0.000000308984    -0.000001070880
            -0.000000667699    -0.000001443559    0.023691856381    0.015725805438    -0.000000643444    -0.000001448458    0.036756547749    0.028304191991
            0.026658652750    0.017446065239    -0.000000643444    -0.000001448458    0.012796548720    0.005025954311    -0.000000257504    -0.000001048202
            -0.000000308984    -0.000001070880    0.036756547749    0.028304191991    -0.000000257504    -0.000001048202    0.023995951206    0.016508107680
0.250     0.005373775329    0.017404213593    -0.000000852746    -0.000001608080    0.021683416098    0.022623293468    -0.000000418271    -0.000001222263
            -0.000000852746    -0.000001608079    0.020226674116    0.026363416942    -0.000000825040    -0.000001617971    0.035321302373    0.031428043550
            0.021683416098    0.022623293468    -0.000000825040    -0.000001617971    0.005899774777    0.018055924155    -0.000000358688    -0.000001203677
            -0.000000418271    -0.000001222263    0.035321302373    0.031428043550    -0.000000358688    -0.000001203677    0.020757333403    0.027031474867
0.275     0.003265989645    0.034259719186    -0.000001083014    -0.000001751637    0.018823750906    0.031590569143    -0.000000566084    -0.000001367767
            -0.000001083014    -0.000001751637    0.020511984483    0.039407034578    -0.000001052820    -0.000001767893    0.034972134132    0.037048860596
            0.018823750906    0.031590569143    -0.000001052820    -0.000001767893    0.003914971847    0.034713572694    -0.000000499159    -0.000001355267
            -0.000000566084    -0.000001367767    0.034972134132    0.037048860596    -0.000000499159    -0.000001355267    0.021193480090    0.039869631898
0.300     0.007677974338    0.052493362647    -0.000001353987    -0.000001855922    0.019907360487    0.043087942889    -0.000000752767    -0.000001491616
            -0.000001353987    -0.000001855922    0.025556585741    0.053202365005    -0.000001322792    -0.000001879534    0.037011021438    0.044483794881
            0.019907360487    0.043087942889    -0.000001322792    -0.000001879534    0.008334810531    0.052717262355    -0.000000679899    -0.000001486816
            -0.000000752767    -0.000001491616    0.037011021438    0.044483794881    -0.000000679899    -0.000001486816    0.026274265861    0.053412075117
0.325     0.018952394477    0.069212102320    -0.000001651882    -0.000001905099    0.025973980986    0.055084892479    -0.000000970584    -0.000001578320
            -0.000001651882    -0.000001905099    0.035562642348    0.065726716415    -0.000001621503    -0.000001936478    0.042282813216    0.052484673006
            0.025973980986    0.055084892479    -0.000001621503    -0.000001936478    0.019495581346    0.069233981121    -0.000000893568    -0.000001582233
            -0.000000970584    -0.000001578320    0.042282813216    0.052484673006    -0.000000893568    -0.000001582233    0.036187546823    0.065695358380
0.350     0.036094305186    0.081597102181    -0.000001954794    -0.000001890852    0.037007211708    0.065266772154    -0.000001203265    -0.000001616773
            -0.000001954794    -0.000001890852    0.049826442092    0.075012825238    -0.000001927042    -0.000001929679    0.050971442321    0.059531930839
            0.037007211708    0.065266772154    -0.000001927042    -0.000001929679    0.036425978978    0.081502566782    -0.000001123970    -0.000001629656
            -0.000001203265    -0.000001616773    0.050971442321    0.059531930839    -0.000001123970    -0.000001629656    0.050244626698    0.074812518409
0.375     0.056950361620    0.087504033802    -0.000002238492    -0.000001816553    0.051939106764    0.071556485560    -0.000001430534    -0.000001605540
            -0.000002238492    -0.000001816553    0.066846500464    0.079541622224    -0.000002214851    -0.000001861889    0.062550898697    0.064164026415
            0.051939106764    0.071556485560    -0.000002214851    -0.000001861889    0.057021495084    0.087418896598    -0.000001350539    -0.000001627007
            -0.000001430534    -0.000001605540    0.062550898697    0.064164026415    -0.000001350539    -0.000001627007    0.066986003945    0.079293286624
0.400     0.078651386579    0.085908407985    -0.000002482055    -0.000001697084    0.068907186184    0.072553465902    -0.000001632660    -0.000001553361
            -0.000002482055    -0.000001697084    0.084612066995    0.078560013910    -0.000002463408    -0.000001747594    0.075913809401    0.065291456301
            0.068907186184    0.072553465902    -0.000002463408    -0.000001747594    0.078475878340    0.085973318176    -0.000001553017    -0.000001582609
            -0.000001632660    -0.000001553361    0.075913809401    0.065291456301    -0.000001553017    -0.000001582609    0.084462097678    0.078409622233
0.425     0.098169137259    0.077062291807    -0.000002674374    -0.000001555751    0.085635806881    0.067765121879    -0.000001797165    -0.000001477924
            -0.000002674374    -0.000001555751    0.100980334415    0.072201136220    -0.000002660956    -0.000001610064    0.089591986886    0.062384812172
            0.085635806881    0.067765121879    -0.000002660956    -0.000001610064    0.097824588595    0.077402090314    -0.000001718285    -0.000001514064
            -0.000001797165    -0.000001477924    0.089591986886    0.062384812172    -0.000001718285    -0.000001514064    0.100597147707    0.072290358644
0.450     0.112850653492    0.062412674738    -0.000002815742    -0.000001418386    0.099845884818    0.057665112205    -0.000001920647    -0.000001400557
            -0.000002815742    -0.000001418386    0.114060489002    0.061446138276    -0.000002807186    -0.000001475363    0.102033451780    0.055560816188
            0.099845884818    0.057665112205    -0.000002807186    -0.000001475363    0.112466756254    0.063110881012    -0.000001842393    -0.000001442897
            -0.000001920647    -0.000001400557    0.102033451780    0.055560816188    -0.000001842393    -0.000001442897    0.113559338823    0.061884217535
0.475     0.120825696414    0.044328066824    -0.000002918394    -0.000001307902    0.109604804056    0.043595527324    -0.000002010443    -0.000001341849
            -0.000002918394    -0.000001307902    0.122509680106    0.047930312720    -0.000002913955    -0.000001366858    0.111847827188    0.045542277392
            0.109604804056    0.043595527324    -0.000002913955    -0.000001366858    0.120562651685    0.045407421803    -0.000001932303    -0.000001390154
            -0.000002010443    -0.000001341849    0.111847827188    0.045542277392    -0.000001932303    -0.000001390154    0.122048273956    0.048771323759
0.500     0.121282660399    0.025741318809    -0.000003002727    -0.000001240011    0.113625103183    0.027594529027    -0.000002081217    -0.000001317203
            -0.000003002727    -0.000001240011    0.125739863065    0.033678967747    -0.000003001465    -0.000001300819    0.118033688165    0.033556855059
            0.113625103183    0.027594529027    -0.000003001465    -0.000001300819    0.121303947517    0.027154031212    -0.000002002507    -0.000001371754
            -0.000002081217    -0.000001317203    0.118033688165    0.033556855059    -0.000002002507    -0.000001371754    0.125492164606    0.034906400331
0.525     0.114605721681    0.009732984731    -0.000003094723    -0.000001220989    0.111495238406    0.012133584020    -0.000002153538    -0.000001335216
            -0.000003094723    -0.000001220989    0.123995989424    0.020791481634    -0.000003095788    -0.000001284108    0.120136936893    0.021157091458
            0.111495238406    0.012133584020    -0.000003095788    -0.000001284108    0.115048915656    0.011362320929    -0.000002073682    -0.000001396898
            -0.000002153538    -0.000001335216    0.120136936893    0.021157091458    -0.000002073682    -0.000001396898    0.124122680010    0.022315882932
0.550     0.102406342807    -0.000911581641    -0.000003221673    -0.000001246729    0.103860155940    -0.000220497146    -0.000002250001    -0.000001396402
            -0.000003221673    -0.000001246729    0.118346400975    0.011127601608    -0.000003224474    -0.000001313165    0.118374277209    0.010000292784
            0.103860155940    -0.000220497146    -0.000003224474    -0.000001313165    0.103352988828    0.000762295177    -0.000002168728    -0.000001466629
            -0.000002250001    -0.000001396402    0.118374277209    0.010000292784    -0.000002168728    -0.000001466629    0.118963957572    0.012794128606
0.575     0.087395830937    -0.004187212703    -0.000003410121    -0.000001302173    0.092468582721    -0.007262342675    -0.000002394727    -0.000001492924
            -0.000003410121    -0.000001302173    0.110549197202    0.005996107119    -0.000003414629    -0.000001373377    0.113651550571    0.001562440657
            0.092468582721    -0.007262342675    -0.000003414629    -0.000001373377    0.088849115745    -0.002670142986    -0.000002312363    -0.000001573578
            -0.000002394727    -0.000001492924    0.113651550571    0.001562440657    -0.000002312363    -0.000001573578    0.111703764081    0.007605941303
0.600     0.073064637777    0.000656042716    -0.000003681372    -0.000001360653    0.080026255759    -0.007660912394    -0.000002609889    -0.000001606862
            -0.000003681372    -0.000001360653    0.102818656661    0.005888710174    -0.000003688239    -0.000001438352    0.107485289388    -0.003159987650
            0.080026255759    -0.007660912394    -0.000003688239    -0.000001438352    0.074938437188    0.001822850468    -0.000002527502    -0.000001700027
            -0.000002609889    -0.000001606862    0.107485289388    -0.003159987650    -0.000002527502    -0.000001700027    0.104469133665    0.007231762823
0.625     0.063093755583    0.012751888698    -0.000004047054    -0.000001383999    0.069742080134    -0.001435694091    -0.000002912883    -0.000001708845
            -0.000004047054    -0.000001383999    0.097453482258    0.010302762712    -0.000004057885    -0.000001469885    0.101747905170    -0.003927284777
            0.069742080134    -0.001435694091    -0.000004057885    -0.000001469885    0.065219410159    0.013424453691    -0.000002832539    -0.000001816530
            -0.000002912883    -0.000001708845    0.101747905170    -0.003927284777    -0.000002832539    -0.000001816530    0.099469318016    0.011196619122
0.650     0.060560971300    0.029563630223    -0.000004500991    -0.000001325814    0.064618334547    0.009841033774    -0.000003307914    -0.000001758273
            -0.000004500991    -0.000001325814    0.096390329709    0.017734884018    -0.000004518342    -0.000001421088    0.098299865950    -0.001392540961
            0.064618334547    0.009841033774    -0.000004518342    -0.000001421088    0.062716080959    0.029684893357    -0.000003232627    -0.000001881947
            -0.000003307914    -0.000001758273    0.098299865949    -0.001392540978    -0.000003232627    -0.000001881947    0.098569208055    0.018064819581
0.675     0.067120414130    0.047281757597    -0.000005013796    -0.000001140329    0.066636438760    0.023261950130    -0.000003779253    -0.000001709669
            -0.000005013796    -0.000001140329    0.100742020040    0.025901455924    -0.000005041030    -0.000001245207    0.098531036732    0.002962668902
            0.066636438760    0.023261950130    -0.000005041030    -0.000001245207    0.069075741040    0.046900626894    -0.000003712831    -0.000001849789
            -0.000003779253    -0.000001709669    0.098531036732    0.002962668902    -0.000003712831    -0.000001849789    0.102845024172    0.025649196990
0.700     0.082490826982    0.061663229965    -0.000005531330    -0.000000796469    0.076183684809    0.035268845379    -0.000004285689    -0.000001525075
            -0.000005531330    -0.000000796469    0.110491192465    0.032188068893    -0.000005572047    -0.000000909784    0.103008928984    0.007138628754
            0.076183684809    0.035268845379    -0.000005572047    -0.000000909784    0.084060721718    0.060928274019    -0.000004232172    -0.000001680693
            -0.000004285689    -0.000001525075    0.103008928984    0.007138628754    -0.000004232172    -0.000001680693    0.112290370117    0.031441294213
0.725     0.104468044063    0.069047868750    -0.000005985136    -0.000000291907    0.091939105871    0.042544345696    -0.000004767522    -0.000001189337
            -0.000005985136    -0.000000291907    0.124431968904    0.034221545010    -0.000006042555    -0.000000410968    0.111306221938    0.009080045893
            0.091939105871    0.042544345696    -0.000006042555    -0.000000410968    0.105553948792    0.068174475039    -0.000004730591    -0.000001358051
            -0.000004767522    -0.000001189337    0.111306221938    0.009080045893    -0.000004730591    -0.000001358051    0.125757237671    0.033158447261
0.750     0.129496388521    0.067184959915    -0.000006309115    0.000000340422    0.111286851296    0.042791284309    -0.000005160146    -0.000000719793
            -0.000006309115    0.000000340422    0.140427120298    0.030392918580    -0.000006385294    0.000000219431    0.122125986893    0.007149484182
            0.111286851296    0.042791284309    -0.000006385294    0.000000219431    0.130104964376    0.066408352174    -0.000005142392    -0.000000898066
            -0.000005160146    -0.000000719793    0.122125986893    0.007149484182    -0.000005142392    -0.000000898066    0.141200488391    0.029248581406
0.775     0.153515120558    0.055604374351    -0.000006459924    0.000001038322    0.130993259722    0.035113863645    -0.000005414838    -0.000000164330
            -0.000006459924    0.000001038322    0.155866004200    0.020178058303    -0.000006555399    0.000000919783    0.133602927853    0.000454227663
            0.130993259722    0.035113863645    -0.000006555399    0.000000919783    0.153753352401    0.055131034905    -0.000005417448    -0.000000348072
