!!!!!!!!!!!!!!!!!!!!!!!!!!!!!!!!!!!!!!!!!!!!!!!!!!!!!!!!!!!!!!!!!!!!!!!!!!!!!!!!!!!!!!!!!
!!
!! Reference: shanbhag_3dj_03_2305.pdf
!!
!!!!!!!!!!!!!!!!!!!!!!!!!!!!!!!!!!!!!!!!!!!!!!!!!!!!!!!!!!!!!!!!!!!!!!!!!!!!!!!!!!!!!!!!!
!!
!! CHANNEL DESCRIPTION: TP0_TP1a C2M Channel, Cabled Host
!! MODEL DESCRIPTION: s4p, THRU
!! CONNECTOR DESCRIPTION: OSFP 200G OTB
!! MODEL STATUS: Developmental
!!
!! PORT DEFINITIONS: 
!! Port   1    ----->  Side A	      Side B  <-----  Port   2
!! Port   3    ----->  Side A	      Side B  <-----  Port   4
!!
# HZ S MA R 50.000000 


0.	0.0179940186000001	11.5857288	0.983282643	-3.21243146	0.00983205078	46.5073264	0.00480447222	178.25527	
	0.98330201	-3.21243133	0.0187617641999998	10.9220098000001	0.00480843377	178.2288	0.00964999357	45.5364149	
	0.00983154386	46.5076724	0.00480809511	178.22882	0.0184078540000001	10.8100712999999	0.983117007	-3.20753787	
	0.00480472599	178.255234	0.00964981368	45.53778	0.983181364	-3.207538	0.0184200380000001	10.737896	
	
10000000.	0.0203093535000001	12.1975184	0.982005189	-8.40775437	0.0186175451	56.0305407	0.00533818361	177.864082	
	0.98200524	-8.4077547	0.0211791733	12.0360109	0.00533744398	177.889751	0.0183988752	56.1013525	
	0.0186175492	56.0305307	0.00533737791	177.889743	0.020378398	11.8197567	0.981898635	-8.40678142	
	0.00533811813	177.864075	0.0183990872	56.0999126	0.981898583	-8.40678082	0.0212583748	11.5817516	
	
20000000.	0.0245057	14.3526621	0.979556635	-16.7059989	0.0348218995	58.262255	0.00606645947	176.627946	
	0.979557305	-16.7058183	0.0256276437999999	14.6120271	0.00606925487	176.670864	0.0346459155	59.0227869	
	0.034821858	58.262127	0.00606917013	176.67082	0.0245491546999999	13.9411048000001	0.979430848	-16.7055043	
	0.00606638266	176.628238	0.034645986	59.0220387	0.979432525	-16.7052251	0.0255930729	13.8870207	
	
30000000.	0.0287652264000001	12.4072114	0.977078753	-24.9569303	0.0507526275	53.4569983	0.0068603256	172.650228	
	0.977078971	-24.9569254	0.0297366939	13.8656968999999	0.00686549834	172.695497	0.0509285354	54.8320235	
	0.0507526287	53.4569835	0.00686543549	172.695457	0.0287171320999999	11.8273933	0.976958277	-24.9550247	
	0.00686026981	172.65019	0.0509285935	54.8315384	0.976958476	-24.9550185	0.0296049067	13.1036201	
	
40000000.	0.0327478484000001	8.40435214999998	0.974687609	-33.1750672	0.0658589899	46.9352162	0.00764490225	167.15202	
	0.974687494	-33.1750684	0.0334703678000001	11.7482638	0.00765313654	167.178882	0.0666732384	48.9569086	
	0.0658590056	46.9351948	0.00765307188	167.178851	0.0326111993	7.78991188000001	0.97458549	-33.1722785	
	0.00764484101	167.15199	0.0666732577	48.9565674	0.974585293	-33.1722752	0.0331934421999999	10.986346	
	
50000000.	0.0364829578000001	3.42879760999999	0.972325692	-41.3698167	0.0798316837	39.7863952	0.00837484795	160.882596	
	0.97232569	-41.369818	0.0368735342000001	9.15823108000018	0.00838452502	160.884039	0.0815437346	42.5070903	
	0.0798316966	39.7863876	0.00838446407	160.884008	0.036260595	2.80548211	0.972246722	-41.3666472	
	0.00837478808	160.882561	0.0815437359	42.5068147	0.972246656	-41.366645	0.0364569401	8.46010060999999	
	
60000000.	0.0399668907	-2.2101489	0.969993561	-49.5429235	0.0924248895	32.313867	0.00902837924	154.112728	
	0.969993601	-49.5429274	0.0400184316000003	6.29725349999994	0.00903781518	154.089602	0.0952539246	35.7954168	
	0.0924248983	32.3138646	0.00903775926	154.089554	0.0396609384	-2.83026257	0.969938445	-49.5397778	
	0.00902832405	154.112682	0.0952539218	35.7951941	0.969938422	-49.5397783	0.0394785684000001	5.68938372999999	
	
70000000.	0.0431757720000001	-8.34592231999998	0.967718053	-57.6949471	0.103420305	24.6473921	0.00958974443	146.993978	
	0.967718075	-57.6949493	0.0429450509000001	3.22207081999997	0.00959739879	146.949971	0.107533434	28.9579049	
	0.103420312	24.6473921	0.00959734668	146.949913	0.0427904097000001	-8.95789655999998	0.967685674	-57.6921185	
	0.00958969581	146.993904	0.107533421	28.9577209	0.967685644	-57.6921171	0.042300047	2.71470818	
	
80000000.	0.0460691964	-14.7798399	0.965538369	-65.8276172	0.112652229	16.8656906	0.0100397706	139.744449	
	0.965538395	-65.8276154	0.0456730435999999	0.033618031700033	0.0100444367	139.684459	0.118155189	22.0777586	
	0.112652235	16.8656903	0.0100443931	139.684394	0.0456091627000001	-15.3826675	0.965527061	-65.8253217	
	0.0100397239	139.744375	0.118155164	22.0776076	0.965527045	-65.8253164	0.0449406741000001	-0.371651947999999	
	
90000000.	0.0486207433	-21.4140739	0.963501957	-73.94291	0.11998868	8.99865829	0.0103698303	132.469265	
	0.963502005	-73.9429067	0.0482206136	-3.26255238	0.0103706623	132.398339	0.126918581	15.1900125	
	0.119988684	8.99865752	0.0103706223	132.398271	0.0480909397999999	-22.0082528	0.963509901	-73.9413009	
	0.0103697865	132.469191	0.126918549	15.1898841	0.963509911	-73.9412942	0.0474170297999999	-3.56935454000001	
	
100000000.	0.0508058361000001	-28.18912	0.961650302	-82.0431992	0.125323427	1.05795616	0.0105748822	125.244272	
	0.961650323	-82.0432006	0.0505883162999999	-6.69354992000003	0.0105714016	125.166988	0.133644367	8.31267014	
	0.12532343	1.05795464	0.0105713647	125.166916	0.0502115228000001	-28.7755328	0.961675744	-82.0423893	
	0.0105748447	125.244197	0.13364433	8.31256068	0.961675734	-82.0423869	0.0497275777999999	-6.90818308000001	
	
110000000.	0.0528011805	-34.9507275	0.960057767	-90.126596	0.129089639	-6.92038922	0.0107777545	118.185932	
	0.960057808	-90.1265927	0.0526514525999999	-10.5484701	0.0107667656	118.105873	0.138044731	1.28449167	
	0.1290896	-6.92040725	0.0107667353	118.105797	0.0521613107	-35.516385	0.960087517	-90.1275425	
	0.0107777122	118.185657	0.138044696	1.2843969	0.96008783	-90.1275176	0.0517617261	-10.6648606	
	
120000000.	0.0543763674	-41.6610217	0.958713345	-98.2024727	0.13079417	-14.9069404	0.0108583211	111.48409	
	0.958713403	-98.2024657	0.0544558369	-14.4898287	0.0108413565	111.415407	0.140143372	-5.70935147	
	0.130794102	-14.90697	0.0108413323	111.415328	0.0536916794	-42.2108133	0.958749627	-98.2048431	
	0.0108582732	111.48367	0.140143339	-5.7094346	0.958750166	-98.2048022	0.0535490473	-14.5352104	
	
130000000.	0.0555054577999999	-48.3006806000001	0.957623118	-106.27455	0.130403878	-22.9083961	0.0108235309	105.227402	
	0.957623189	-106.27454	0.0559808515999998	-18.5751460000001	0.010802636	105.177151	0.139873373	-12.6714402	
	0.130403792	-22.9084341	0.0108026174	105.177071	0.0547776004	-48.8371908	0.957667855	-106.278138	
	0.0108234773	105.226879	0.139873342	-12.6715138	0.957668543	-106.278085	0.0550585691999999	-18.5682892	
	
140000000.	0.0561716700000001	-54.8301003999999	0.956781804	-114.347159	0.127945476	-30.9313745	0.010686384	99.5403261	
	0.956781885	-114.347147	0.0571949323	-22.841763	0.0106634862	99.51049	0.137238374	-19.6033287	
	0.127945379	-30.9314186	0.0106634729	99.5104092	0.0554030598	-55.3542701000001	0.956836378	-114.35184	
	0.0106863242	99.5397291	0.137238345	-19.603394	0.956837159	-114.351779	0.0562542589	-22.7931798	
	
150000000.	0.0563576128	-61.223696	0.956169457	-122.424168	0.123465779	-38.9879206	0.0104670701	94.5565036	
	0.956169544	-122.424155	0.0580384501	-27.3314185	0.0104436457	94.5459666	0.132272805	-26.508769	
	0.123465679	-38.9879691	0.0104436373	94.5458867	0.0555515931	-61.7353645	0.956234657	-122.429872	
	0.0104670035	94.5558601	0.132272778	-26.5088267	0.956235486	-122.429805	0.0570760421	-27.2456066	
	
160000000.	0.0560434629	-67.4589762999999	0.95575192	-130.508902	0.117029351	-47.0953229	0.0101953206	90.429142	
	0.95575201	-130.508888	0.0584302647000001	-32.0785352999999	0.0101722773	90.4354118	0.125040258	-33.3916042	
	0.117029254	-47.0953741	0.0101722736	90.4353334	0.0552044164	-67.9571509999999	0.955827993	-130.515589	
	0.0101952462	90.4284793	0.125040234	-33.3916544	0.955828837	-130.515519	0.0574445591	-31.9562936	
	
170000000.	0.0552244268	-73.4941089000001	0.955487312	-138.604556	0.108763578	-55.276158	0.00991394973	87.3115392	
	0.955487402	-138.604541	0.0582988768	-37.1020214	0.00989165979	87.3321432	0.115679216	-40.2553753	
	0.108763487	-55.2762108	0.00989166047	87.3320662	0.0543574635	-73.9768367000001	0.95557405	-138.612201	
	0.00991386714	87.3108875	0.115679196	-40.255418	0.955574883	-138.612129	0.0572906833	-36.9422575	
	
180000000.	0.0538968737	-79.2862364999999	0.955323995	-146.713411	0.0988142977	-63.5660838	0.00967926188	85.3041131	
	0.955324082	-146.713396	0.0575654704000001	-42.4202085	0.00965770586	85.3376243	0.104357765	-47.1041933	
	0.0988142178	-63.5661374	0.00965771061000002	85.3375476	0.0530078883	-79.7505534000001	0.955420839	-146.721996	
	0.00967917113	85.3035071	0.104357749	-47.1042277	0.955421641	-146.721924	0.0565379803000001	-42.2212063999999	
	
190000000.	0.0520591877	-84.7815588000001	0.955202865	-154.836822	0.0873447834	-72.0235877	0.00956008265	84.3794407	
	0.955202949	-154.836806	0.0561515257	-48.0490409999999	0.00953905995	84.4259124	0.0912717715	-53.9416487	
	0.0873447158	-72.0236411	0.00953906838999999	84.425834	0.0511548953	-85.2232261	0.955309013	-154.846327	
	0.009559985	84.378917	0.0912717628	-53.9416731	0.95530977	-154.846256	0.0551099239	-47.8091226	
	
200000000.	0.0497327199	-89.8958746	0.955066546	-162.975602	0.0745805044	-80.7510627	0.00962829242	84.2831051	
	0.955066625	-162.975587	0.0540063707999999	-54.0055868000002	0.00960764065	84.3435409	0.0766875312	-60.7740681	
	0.0745804499	-80.7511154	0.00960765235	84.3434587	0.0488203281	-90.3086336	0.955181036	-162.986004	
	0.00962819069	84.2826942	0.0766875306	-60.7740793	0.955181739	-162.985934	0.0529569951999999	-53.7234421000001	
	
210000000.	0.0459834449	-94.1212938	0.95515739	-171.122397	0.0599081606	-89.0585438	0.0101408494	81.4620646	
	0.955157464	-171.122382	0.0515469971999999	-60.0418017000001	0.0101212052	81.5444039	0.0620388899	-66.9671316	
	0.0599081193	-89.0585956	0.0101212162	81.5443168	0.0450588943	-94.5014282000001	0.955276493	-171.133894	
	0.0101407472	81.4617478	0.0620388867	-66.9671442	0.955277134	-171.133827	0.0505103946	-59.7101983	
	
220000000.	0.0419443822	-97.3263228000001	0.955082136	-179.282	0.0443488262	-97.2652222	0.0108677872	78.0184971	
	0.955082205	-179.281986	0.0484714365	-66.1125863000001	0.010849995	78.1181899	0.0465341089	-72.1303321	
	0.0443487973	-97.265273	0.0108500051	78.1181018	0.0410146536	-97.6456927999999	0.95520494	-179.294549	
	0.0108676878	78.0182645	0.0465341035	-72.1303465	0.955205515	-179.294485	0.0474575137	-65.7236002	
	
230000000.	0.0377985857	-99.1309698	0.954790607	172.548475	0.0281860256	-105.157454	0.0117858219	73.7090148	
	0.954790671	172.548488	0.0447861003999999	-72.1526214000002	0.0117706387	73.8200399	0.0305689885	-74.5920692	
	0.0281860076	-105.157505	0.0117706479	73.8199542	0.0368736978	-99.3430159	0.954916288	172.534923	
	0.0117857281	73.7088492	0.0305689811	-74.592086	0.954916795	172.534983	0.043804909	-71.6950124	
	
240000000.	0.0338058748	-99.0416957000002	0.954245248	164.372737	0.011710117	-111.336722	0.0128592329	68.453544	
	0.954245306	164.37275	0.0405081907999999	-78.065467	0.0128472205	68.5699279	0.0150502966	-65.7418512	
	0.0117101079	-111.336782	0.012847229	68.5698472	0.0329022098	-99.0737614	0.954373107	164.358234	
	0.012859147	68.4534273	0.0150502873	-65.7418674	0.954373547	164.35829	0.0395699712	-77.5219959000001	
	
250000000.	0.0303323905	-96.5243973999999	0.953422998	156.195068	0.00492751293	46.6983515	0.0140471957	62.2898066	
	0.95342305	156.19508	0.0356695144	-83.6957452	0.0140386816	62.406567	0.00873779073	12.036061	
	0.00492751385	46.6983756	0.0140386893	62.4064932	0.0294777816	-96.2793226999999	0.953552494	156.179668	
	0.0140471192	62.2897236	0.00873778788	12.0361151	0.953552868	156.179719	0.0347850382	-83.0379669	
	
260000000.	0.0278662589	-91.3254585	0.952325278	148.019639	0.0211687252	45.4671725	0.0153061326	55.3273305	
	0.952325325	148.01965	0.0303329549999999	-88.7802961000001	0.0153012187	55.440806	0.0219337318	46.9366602	
	0.0211687216	45.4671543	0.015301226	55.4407399	0.0271033072	-90.7205492999998	0.952456028	148.003396	
	0.0153060663	55.3272705	0.0219337358	46.9366758	0.952456339	148.003441	0.0295141221	-87.9577588	
	
270000000.	0.0269028393	-84.0634529	0.950969234	139.850609	0.0369273573	37.8935578	0.0165956203	47.6982242	
	0.950969277	139.85062	0.0245852801	-92.7943566000001	0.0165942136	47.8059506	0.037411353	48.1620879	
	0.0369273506	37.8935385	0.0165942204	47.8058928	0.0262801763	-83.1221237999999	0.951101024	139.833577	
	0.0165955647	47.6981798	0.0374113577	48.1620929	0.951101276	139.833616	0.0238474616	-91.7077356999999	
	
280000000.	0.0277123811	-76.4646386999999	0.949386129	131.691884	0.0519068007	29.7524807	0.0178793203	39.5310427	
	0.949386167	131.691894	0.0185670686000001	-94.5068726	0.0178811651	39.6314922	0.0525146888	44.0934594	
	0.0519067925	29.7524638	0.0178811718	39.6314427	0.02725806	-75.3608638999998	0.949518916	131.674111	
	0.0178792756	39.5310094	0.052514693	44.0934607	0.949519114	131.674145	0.0179360821	-92.9310518000001	
	
290000000.	0.0301632444	-70.4357179	0.947627531	123.546389	0.0658509326	21.4462079	0.0191238734	30.9498687	
	0.947627565	123.546398	0.0125955885	-90.3736911999992	0.0191285855	31.042206	0.0667251808	38.3843646	
	0.0658509241	21.4461948	0.019128592	31.0421649	0.0298663038	-69.3790201	0.947761422	123.527923	
	0.0191238395	30.9498441	0.0667251839	38.3843643	0.947761571	123.52795	0.012133765	-87.711655999999	
	
300000000.	0.0338223687	-66.8761082999998	0.945752484	115.416344	0.0785414833	13.075023	0.0203011047	22.0605879	
	0.945752513	115.416351	0.00778015146	-68.2591804999992	0.0203081966	22.1444483	0.0797517132	31.9766314	
	0.0785414755	13.0750141	0.020308203	22.1444152	0.0336457726	-65.9861615000002	0.945887726	115.397224	
	0.0203010815	22.0605705	0.0797517149	31.9766303	0.945887833	115.397246	0.00769238725000002	-63.3988532999998	
	
310000000.	0.0382106745	-65.6814662	0.943824073	107.303284	0.0897936196	4.67567453	0.0213867455	12.950209	
	0.943824099	107.30329	0.00780093897000001	-21.052976	0.0213956453	13.0255391	0.0913764568	25.2190331	
	0.0897936132	4.67567009	0.0213956516	13.0255139	0.0381133187	-64.9865735	0.943961034	107.283545	
	0.0213867325	12.9501981	0.091376457	25.2190317	0.943961104	107.28356	0.0082227736900001	-18.1879605999998	
	
320000000.	0.0429267082	-66.3442907000001	0.941911963	99.207122	0.0994441445	-3.7367421	0.0223620074	3.70297279	
	0.941911985	99.2071276	0.0128607857000001	1.47241429999992	0.0223720819	3.76994856	0.101414026	18.2718137	
	0.0994441398	-3.73674189	0.0223720881	3.76993085	0.0428743515	-65.8289373999999	0.942051115	99.1867916	
	0.0223620041	3.70296805	0.101414024	18.2718124	0.942051154	99.1868005	0.0133420492	2.01361203	
	
330000000.	0.0476809483	-68.3463837999999	0.940080346	91.1270424	0.107368294	-12.1559278	0.0232123276	-5.6118455	
	0.940080366	91.1270471	0.0193679491999999	5.59959709000002	0.0232228941	-5.55288597	0.10972321	11.2190892	
	0.107368291	-12.1559228	0.0232229002	-5.55289653	0.0476478406	-67.983494	0.94022224	91.1061402	
	0.0232123334	-5.61184417	0.109723207	11.2190881	0.940222255	91.1061429	0.0197757789	5.66216852999999	
	
340000000.	0.0522685828	-71.2804025	0.938385047	83.0615019	0.113474646	-20.5802077	0.0239275062	-14.9345249	
	0.938385064	83.0615056	0.0261907358	3.67704789	0.0239378439	-14.8831032	0.116199081	4.11028042	
	0.113474644	-20.580198	0.0239378498	-14.883107	0.0522358621	-71.0440864999999	0.938530294	83.0400393	
	0.0239275206	-14.9345176	0.116199076	4.11027957	0.938530289	83.0400359	0.0265072229	3.65092945	
	
350000000.	0.0565440962	-74.8533997000001	0.936875698	75.0077688	0.117699214	-29.0121035	0.0245022849	-24.2052455	
	0.936875714	75.0077716	0.0329973733	-0.687897003000033	0.0245116517	-24.1607401	0.12076631	-3.02320573	
	0.117699213	-29.0120893	0.0245116574	-24.1607375	0.0564978803	-74.7222634999999	0.937024927	74.9857498	
	0.0245023071	-24.2052323	0.120766304	-3.02320618	0.937024907	74.9857404	0.0332194621000001	-0.715160147999999	
	
360000000.	0.0604040556	-78.8580283000001	0.935587117	66.9627182	0.120011922	-37.4560682	0.0249362768	-33.3699346	
	0.935587131	66.9627201	0.0396220751000001	-6.26638644999993	0.0249439243	-33.3315538	0.123385913	-10.1590079	
	0.120011922	-37.4560495	0.0249439297	-33.3315453	0.0603339247	-78.8152620999999	0.935740957	66.9401389	
	0.0249363062	-33.3699157	0.123385906	-10.1590079	0.93574093	66.9401237	0.039749248	-6.27222958	
	
370000000.	0.0637733167	-83.1485890000001	0.934539357	58.9230289	0.120409343	-45.9184107	0.0252340185	-42.3777402	
	0.934539369	58.9230299	0.0459438291999998	-12.5446794	0.0252392124	-42.3444738	0.124048052	-17.2787825	
	0.120409342	-45.9183876	0.0252392174	-42.3444597	0.0636712618	-83.1811352	0.934698422	58.8998773	
	0.0252340545	-42.3777159	0.124048045	-17.2787819	0.93469839	58.8998566	0.0459762783999999	-12.52366	
	
380000000.	0.0665992226	-87.6204680000001	0.933739747	50.8848381	0.118919101	-54.4081026	0.0254064924	-51.1749928	
	0.933739759	50.8848383	0.0518597895999998	-19.2753991	0.025408544	-51.145555	0.122776347	-24.3661531	
	0.1189191	-54.4080754	0.0254085484	-51.1455357	0.0664589189	-87.7181444999999	0.933904597	50.8610961	
	0.0254065344	-51.1749636	0.12277634	-24.3661519	0.933904566	50.8610701	0.0517980983	-19.2270996	
	
390000000.	0.0688439608	-92.1970834	0.933179784	42.8445644	0.115595499	-62.9360911	0.0254707632	-59.7113449	
	0.933179796	42.8445638	0.0572739284	-26.3258169	0.0254690674	-59.6841037	0.119623652	-31.4030235	
	0.115595497	-62.93606	0.0254690713	-59.6840798	0.0686602716	-92.3518376000001	0.933350914	42.8202079	
	0.0254708106	-59.7113116	0.119623644	-31.4030216	0.933350888	42.8201768	0.0571190441000001	-26.2512478	
	
400000000.	0.0704786058	-96.8205762	0.932837742	34.7990576	0.110512847	-71.5164475	0.0254504636	-67.9404708	
	0.932837753	34.7990562	0.0620922973999999	-33.6177226	0.0254445505	-67.9133823	0.114665258	-38.3662536	
	0.110512843	-71.5164129	0.0254445538	-67.9133541	0.0702472782	-97.0258842000001	0.933015563	34.7740565	
	0.0254505159	-67.9404344	0.114665251	-38.3662509	0.933015545	34.7740206	0.0618456082	-33.5181355	
	
410000000.	0.0714091752	-101.441003	0.93269854	26.7499494	0.103755925	-80.1645636	0.0253699246	-75.8286903	
	0.932698552	26.7499473	0.066193206	-41.1205725999999	0.0253598374	-75.7990049	0.10801346	-45.238332	
	0.103755918	-80.1645258	0.0253598397	-75.7989726	0.0711243784	-101.690006	0.932880152	26.7243523	
	0.0253699812	-75.8286517	0.108013453	-45.2383285	0.932880145	26.7243119	0.0658585513	-40.9969885	
	
420000000.	0.0717003828	-106.005759	0.932701241	18.6903387	0.0954811481	-88.9080576	0.025276137	-83.3436032	
	0.932701253	18.6903359	0.0695452926000001	-48.7877150999999	0.0252619255	-83.3084932	0.0998109869	-51.9655175	
	0.09548114	-88.9080169	0.0252619269	-83.3084573	0.071358665	-106.293807	0.932886817	18.6641108	
	0.0252761976	-83.3435639	0.0998109805	-51.965513	0.932886825	18.6640663	0.0691249550000001	-48.6410962	
	
430000000.	0.0713490114	-110.471884	0.932797095	10.618853	0.085833505	-97.7863718	0.025212461	-90.4790202	
	0.932797108	10.6188495	0.07207141	-56.5942924	0.0251945176	-90.4354627	0.0902102703	-58.4778778	
	0.0858334951	-97.7863287	0.0251945179	-90.4354233	0.0709472751	-110.794494	0.932986684	10.5919574	
	0.0252125251	-90.478982	0.0902102648	-58.4778721	0.932986708	10.5919091	0.0715681972999999	-56.4251848	
	
440000000.	0.0703671583999999	-114.79055	0.932933092	2.53470765	0.0749972001	-106.863218	0.0252260702	-97.2565905	
	0.932933105	2.53470347	0.0737094985	-64.5226828	0.0252051762	-97.2016843	0.0794064439	-64.6626113	
	0.0749971888	-106.863173	0.0252051754	-97.2016419	0.0699025092	-115.142956	0.933126612	2.50710779	
	0.0252261375	-97.2565553	0.0794064395	-64.6626042	0.933126654	2.50705611	0.0731266537	-64.3311801000001	
	
450000000.	0.0687762646	-118.904547	0.933056504	-5.56194132	0.0631718075	-116.254118	0.0253631082	-103.734227	
	0.933056518	-5.56194614	0.0744068469	-72.5568667	0.0253404371	-103.665622	0.067617339	-70.3170569	
	0.0631717952	-116.254072	0.0253404351	-103.665576	0.0682460931	-119.281098	0.93325374	-5.59028098	
