!!!!!!!!!!!!!!!!!!!!!!!!!!!!!!!!!!!!!!!!!!!!!!!!!!!!!!!!!!!!!!!!!!!!!!!!!!!!!!!!!!!!!!!!!
!!
!! Reference: shanbhag_3dj_03_2305.pdf
!!
!!!!!!!!!!!!!!!!!!!!!!!!!!!!!!!!!!!!!!!!!!!!!!!!!!!!!!!!!!!!!!!!!!!!!!!!!!!!!!!!!!!!!!!!!
!!
!! CHANNEL DESCRIPTION: TP0_TP1a C2M Channel, PCB Host
!! MODEL DESCRIPTION: s4p, THRU
!! CONNECTOR DESCRIPTION: OSFP 200G SMT
!! MODEL STATUS: Developmental
!!
!! PORT DEFINITIONS: 
!! Port   1    ----->  Side A	      Side B  <-----  Port   2
!! Port   3    ----->  Side A	      Side B  <-----  Port   4
!!
# HZ S MA R 50.000000 


0.	0.0180762222999999	-4.71787615000002e-13	0.981432417	-1.4160681e-14	0.000451860193	-3.72620995e-11	0.000402629692	180	
	0.981451686	-1.41606898e-14	0.0186030037	-6.91651748e-13	0.000410122462	-180	0.000449983573	-2.57308478e-11	
	0.000451756254	-3.72689566e-11	0.00041014082	-180	0.0184921291	-5.16024575000001e-13	0.981169089	7.46777479e-14	
	0.000402865282	180	0.000449153854	-2.57784919e-11	0.98123338	7.46777626e-14	0.0182343272000001	4.53739515999998e-13	
	
10000000.	0.0192906433000001	-1.09689223	0.98032477	-8.05229196	0.0135802006	79.2547655	0.000453746333	-162.594945	
	0.980324771	-8.05229185	0.0191421762999999	-0.117710324000013	0.00045389497	-162.444258	0.0136589919	80.8579416	
	0.0135802008	79.2547651	0.000453894828000001	-162.444264	0.019382063	-0.907333124000001	0.980098293	-8.05527751	
	0.000453746341	-162.59494	0.0136589918	80.8579415	0.980098292	-8.05527735	0.019243774	-0.00187973397	
	
20000000.	0.0206455640000001	-4.04613902999998	0.978964605	-16.0680468	0.0268432748	71.4820806	0.000554382884	-154.413859	
	0.978965227	-16.0678654	0.0197743611000001	-1.9101224199999	0.000558101891	-154.244563	0.0270186593	74.5780389	
	0.0268432322	71.4819485	0.000558103490999999	-154.242168	0.020791873	-3.80780553999999	0.978688502	-16.0690769	
	0.000554388044	-154.413347	0.0270186311	74.5780972	0.978690226	-16.0687985	0.0198827491	-2.10371616	
	
30000000.	0.022293572	-7.90771440999999	0.977483881	-24.0681263	0.0395725336	63.0948206	0.000667510557	-152.496543	
	0.977484058	-24.0681202	0.0199887040000002	-4.13837949	0.00067286952	-152.434838	0.0398555151	67.7024145	
	0.0395725286	63.0948239	0.000672872334999997	-152.43493	0.0224493569	-7.85854343	0.97719904	-24.0661287	
	0.000667510688	-152.496575	0.0398555159	67.7024167	0.977199282	-24.0661236	0.0200949913	-4.40037169999999	
	
40000000.	0.024111434	-12.7916922	0.975868193	-32.0538312	0.0515354704	54.5571399	0.0007697202	-153.433213	
	0.975868042	-32.0538309	0.0199322590999999	-6.37624291999995	0.000776282885	-153.600343	0.0519348247	60.7080262	
	0.0515354721	54.5571377	0.000776281498000001	-153.600217	0.0242625975	-12.7886561	0.975592704	-32.0495667	
	0.000769720583	-153.433314	0.0519348243	60.708026	0.975592544	-32.0495648	0.0199881863	-6.72342879000002	
	
50000000.	0.0260503997	-18.4967652	0.97413971	-40.0246343	0.0625163205	45.9608258	0.000857872823	-155.319478	
	0.974139674	-40.0246339	0.0196075076	-8.39307350999991	0.000863490231	-155.682875	0.063040339	53.6917347	
	0.0625163205	45.9608251	0.000863490078000001	-155.682821	0.0261952989	-18.5110806	0.973880676	-40.018692	
	0.000857873009	-155.319498	0.0630403389	53.6917347	0.973880644	-40.0186915	0.0196093534000001	-8.73692537999995	
	
60000000.	0.0280384434000001	-24.8801253999999	0.972336324	-47.9801308	0.0723200114	37.3332665	0.000934803231	-157.136469	
	0.972336333	-47.9801329	0.0190680180999999	-9.94622646999991	0.000937839734	-157.610786	0.0729762942	46.6920734	
	0.0723200116	37.3332668	0.000937839097999998	-157.610794	0.0281751715999999	-24.8972337000001	0.972095936	-47.9729633	
	0.000934803873	-157.13645	0.0729762942	46.6920733	0.972095944	-47.9729656	0.0190271599000001	-10.2283052999999	
	
70000000.	0.0300026672000001	-31.8012452999999	0.970502485	-55.9203687	0.0807754556	28.6826111	0.00100939854	-158.351994	
	0.97050248	-55.920369	0.0183864600999998	-10.82316	0.0010088549	-158.835183	0.0815714561	39.7308915	
	0.0807754558	28.6826112	0.00100885488	-158.835168000001	0.0301311514999999	-31.8137320000001	0.970280726	-55.9123011	
	0.00100939847	-158.35199	0.0815714561	39.7308915	0.970280723	-55.9123015	0.0183184315999999	-11.0023526000001	
	
80000000.	0.0318742638000001	-39.1382340999999	0.968684131	-63.8459918	0.087737969	20.0085223	0.00109522746	-158.869832	
	0.968684134	-63.8459881	0.0176535264	-10.8412344999998	0.00109097196	-159.258548	0.0886813542	32.8244261	
	0.0877379686	20.0085223	0.00109097367	-159.258557000001	0.0319951053999999	-39.1437247000001	0.968480121	-63.8372542	
	0.00109522566	-158.869801	0.0886813542	32.8244261	0.968480129	-63.8372507	0.0175758589	-10.892598	
	
90000000.	0.0335881099	-46.7926116	0.966924515	-71.7582718	0.093090754	11.3054555	0.00120805159	-159.016578	
	0.966924543	-71.7582667	0.0169751174999998	-9.89008569000008	0.00120089248	-159.237867	0.094189831	25.9876476	
	0.0930907535	11.3054554	0.00120089463	-159.237932	0.0337019345	-46.7911734999999	0.966737107	-71.7490287	
	0.00120804932	-159.016496	0.0941898309	25.9876476	0.966737137	-71.7490239	0.0169049206	-9.80853840000003	
	
100000000.	0.0350823411	-54.6882355000001	0.965260779	-79.6590554	0.0967457393	2.56360063	0.0013621273	-159.413839	
	0.965260784	-79.659055	0.0164621223	-7.99775490000019	0.00135352742	-159.450523	0.0980100593	19.2367249	
	0.0967457391	2.56360015	0.00135352775	-159.450535	0.0351897158	-54.6807806999999	0.965088805	-79.6494273	
	0.00136212691	-159.413824	0.0980100593	19.236725	0.96508881	-79.6494268	0.0164139515000001	-7.80112562999996	
	
110000000.	0.0363138474	-62.8106525000001	0.963725663	-87.5497581	0.0986447801	-6.23069756	0.00156605544	-160.591311	
	0.96372569	-87.5497531	0.0161631825	-5.58125216999999	0.00155670174	-160.386057	0.100086923	12.5911088	
	0.0986447499	-6.23071484	0.00155670612	-160.386267	0.036422378	-62.7762611999999	0.963556891	-87.5406635	
	0.00156601553	-160.591214	0.100086929	12.5911082	0.96355722	-87.5406403	0.0161627146000001	-5.24347163999998	
	
120000000.	0.0372061732999999	-71.0606162000003	0.962331096	-95.4342629	0.0987572987	-15.0975942	0.00182606152	-163.101336	
	0.962331142	-95.4342544	0.0161777672999999	-2.65898912999999	0.00181932484	-162.761115	0.100391319	6.07578707	
	0.0987572477	-15.0976234	0.00181933087	-162.761443	0.0373144974	-71.0105163	0.962168311	-95.4254019	
	0.00182599187	-163.10096	0.100391329	6.07578495	0.962168863	-95.4253624	0.0162339125999999	-2.31557024000001	
	
130000000.	0.0377111635	-79.4191184	0.961083901	-103.315232	0.0970834157	-24.063785	0.00213902032	-167.048221	
	0.961083962	-103.315221	0.0165509015999999	0.189364253999895	0.00213639261	-166.67693	0.0989277744	-0.274286408	
	0.0970833519	-24.0638226	0.00213639903	-166.677308	0.0378180743	-79.3611256	0.960929388	-103.306425	
	0.00213892925	-167.047603	0.0989277852	-0.274290488	0.960930088	-103.306374	0.0166517034999999	0.432419021000002	
	
140000000.	0.0377843857	-87.8778836000002	0.959979383	-111.195349	0.0936530788	-33.1666278	0.00249918577	-172.296406	
	0.959979456	-111.195336	0.0172492934000001	2.41311577999992	0.00250070508	-171.954595	0.0957327246	-6.4094235	
	0.0936530092	-33.1666716	0.00250071134	-171.954979	0.0378891209	-87.8176508000002	0.959834772	-111.186496	
	0.00249907978	-172.295651	0.0957327355	-6.40942973	0.959835563	-111.186436	0.0173734170000001	2.51388322999999	
	
150000000.	0.0373868897	-96.4393610000002	0.95900159	-119.077129	0.0885266911	-42.46035	0.00290011571	-178.623977	
	0.95900167	-119.077115	0.0181804250999998	3.68055966000014	0.00290504921	-178.333944	0.0908762539	-12.2561918	
	0.0885266212	-42.4603981	0.00290505514000001	-178.33431	0.0374892348	-96.3811403999999	0.958867874	-119.068177	
	0.00289999969	-178.623183	0.0908762634	-12.2562002	0.958868711	-119.068111	0.0183074965	3.65254427	
	
160000000.	0.0364868319	-105.117954	0.958124393	-126.962746	0.0817964644	-52.0276286	0.00333551023	174.189733	
	0.958124477	-126.962731	0.0192247562	3.91601995000007	0.00334288467	174.428011	0.0844655346	-17.701813	
	0.0817963984	-52.0276796	0.00334289026	174.427674	0.0365871293	-105.065075	0.958002018	-126.953669	
	0.00333538798	174.190497	0.0844655418	-17.7018237	0.958002869	-126.9536	0.0193407658000001	3.79904427999998	
	
170000000.	0.0350610931000001	-113.943196	0.957313279	-134.853878	0.0735893342	-62.0024716	0.0037994242	166.331151	
	0.957313364	-134.853863	0.0202628048000001	3.22541801000015	0.00380833641	166.527404	0.0766516902	-22.5654702	
	0.0735892754	-62.0025244	0.00380834171	166.527099	0.0351601988	-113.898374	0.957202267	-134.844667	
	0.00379929878	166.331846	0.0766516942	-22.565483	0.957203104	-134.844596	0.0203609309	3.0617118	
	
180000000.	0.0330969969	-122.966346	0.956527732	-142.751593	0.0640736214	-72.6190578	0.00428621285	157.947219	
	0.956527817	-142.751577	0.0211904424	1.80466611999996	0.00429597152	158.11359	0.0676441568	-26.5421741	
	0.0640735717	-72.6191115	0.0042959766	158.113317	0.0331962062	-122.931868	0.956427797	-142.742243	
	0.00428608682	157.947826	0.0676441571	-26.5421891	0.956428602	-142.742171	0.0212695560000001	1.62779623999999	
	
190000000.	0.0305943004	-132.273532	0.955724063	-150.656265	0.0534758625	-84.3269922	0.00479039437	149.150487	
	0.955724145	-150.656249	0.0219251321000001	-0.120574286999802	0.00480055644	149.298084	0.05774302	-29.0861072	
	0.053475823	-84.3270462	0.00480056135	149.297841	0.0306952592999999	-132.251301	0.955634715	-150.646773	
	0.00479026995	149.151	0.0577430163	-29.0861239	0.955635474	-150.646702	0.0219877995	-0.287805216	
	
200000000.	0.0275678878000001	-142.012582	0.954858506	-158.567545	0.0421294616	-98.1002717	0.00530650708	140.026576	
	0.954858583	-158.56753	0.0224078313999998	-2.32104708000013	0.00531685697	140.164227	0.0474181418	-29.1584335	
	0.0421294325	-98.1003256	0.00531686175	140.164012	0.0276725015999999	-142.003918	0.954779138	-158.557909	
	0.00530638623	140.026997	0.0474181338	-29.1584511	0.954779841	-158.557839	0.0224586422000001	-2.46491743999999	
	
210000000.	0.0240523356999999	-152.451456	0.95389039	-166.484378	0.0306427766	-116.394648	0.00582899059	130.64107	
	0.953890463	-166.484363	0.0226038368999999	-4.56815487000003	0.00583949389	130.775178	0.0375155861	-24.7204187	
	0.0306427572	-116.394702	0.00583949855	130.774989	0.0241626841999999	-152.456194	0.953820345	-166.474591	
	0.005828875	130.641407	0.0375155742	-24.7204342	0.953820986	-166.474523	0.0226482533000001	-4.68160858999998	
	
220000000.	0.0201118728	-164.118043	0.952785161	-174.405065	0.0206041505	-146.170581	0.00635210159	121.045091	
	0.952785229	-174.405051	0.0225042953	-6.62720418	0.00636285224	121.179957	0.0297541379	-12.3538735	
	0.0206041396	-146.170636	0.00636285678	121.179791	0.0202301034	-164.131386	0.952723775	-174.395118	
	0.00635199274	121.045353	0.0297541237	-12.3538793	0.952724349	-174.395054	0.0225479550999999	-6.70797037000002	
	
230000000.	0.0158677736	-178.177755	0.951517017	177.672623	0.0168352138	162.596165	0.00686986801	111.27956	
	0.951517079	177.672636	0.0221292537	-8.24692782000001	0.00688103942	111.417845	0.0271315328	8.87432416	
	0.0168352083	162.596114	0.00688104383	111.417701	0.0159957497	-178.178426	0.951463652	177.682738	
	0.00686976716	111.279758	0.0271315209	8.87433636	0.951464157	177.682799	0.0221775851999999	-8.29659143000003	
	
240000000.	0.0115920642000001	162.418316	0.950070965	169.751293	0.0232979845	116.653406	0.00737608222	101.378377	
	0.950071022	169.751306	0.0215327255999999	-9.15203740999997	0.00738788706	101.521554	0.0314552686	28.8855057	
	0.0232979784	116.653366	0.00738789131	101.521429	0.0117291906	162.51837	0.950025027	169.761589	
	0.00737599039	101.378521	0.0314552631	28.885525	0.950025465	169.761645	0.0215907161000001	-9.17619914999996	
	
250000000.	0.00808202066000003	129.938627	0.948444112	161.833757	0.0346814728	90.9914366	0.00786433192	91.3707852	
	0.948444163	161.83377	0.0208096758999999	-9.05013532999991	0.00787699195	91.5195119	0.0405961254	39.5618936	
	0.0346814641	90.9914021	0.00787699601	91.5194048	0.00821051880999997	130.477361	0.948405063	161.844245	
	0.0078642499	91.3708855	0.0405961255	39.5619084	0.948405435	161.844296	0.0208816182999999	-9.05966333000003	
	
260000000.	0.00746894997999998	79.361231000001	0.946646088	153.922833	0.0472906226	74.2376335	0.00832806577	81.2831316	
	0.946646135	153.922844	0.0201030683999999	-7.67448325000007	0.00834179085	81.4375354	0.051841377	43.047286	
	0.047290612	74.2376035	0.00834179469	81.4374447	0.00751870011000002	80.5257972999993	0.946613452	153.933525	
	0.00832799414	81.2831976	0.0518413804	43.0472953	0.946613761	153.93357	0.0201920833000001	-7.68736558999997	
	
270000000.	0.0106839427	39.4454622999998	0.944698578	146.021149	0.059926145	61.0857907	0.00876068944	71.1402116	
	0.94469862	146.02116	0.0196047455000003	-4.89155850999985	0.00877566396	71.3000924	0.063700885	42.5598721	
	0.0599261339	61.0857651	0.00877566754	71.3000167	0.0106445098	40.3337747999999	0.944671937	146.032057	
	0.00876062855	71.140252	0.06370089	42.5598774	0.944672188	146.032096	0.0197119346	-4.93341447000001	
	
280000000.	0.0156602536	16.6992280000001	0.942633988	138.130967	0.0720613317	49.6390371	0.00915568705	60.9663424	
	0.942634025	138.130977	0.0195375451999999	-0.872351359999911	0.00917206185	61.1313067	0.0754092653	39.9046417	
	0.0720613212	49.6390161	0.00917206512999999	61.131245	0.0155759204000001	17.2756354999999	0.942612983	138.142101	
	0.00915563705	60.9663646	0.0754092707	39.9046443	0.942613179	138.142134	0.0196609853	-0.971771471999998	
	
290000000.	0.0212105315999999	1.47482694	0.940493384	130.25402	0.0833709995	39.1116392	0.00950676392	50.7862876	
	0.940493416	130.254028	0.0201071779999999	3.78412185000002	0.0095246518	50.9558327	0.086511331	36.0041898	
	0.0833709906	39.1116229	0.00952465475	50.9557838	0.0211024530999999	1.88094336	0.940477707	130.265389	
	0.00950672477	50.7862982	0.086511336	36.0041906	0.940477856	130.265416	0.0202416463000001	3.60718830999999	
	
300000000.	0.0269190978	-10.4914095	0.938323871	122.391394	0.0936145875	29.1264973	0.00980800883	40.6261397	
	0.9383239	122.391402	0.0214368799	8.17735254999986	0.00982748228	40.7997018	0.0966952314	31.3524004	
	0.0936145809	29.1264859	0.00982748485	40.7996648000001	0.0267967924999999	-10.1835238	0.938313264	122.403007	
	0.00980798031	40.6261444	0.0966952356	31.3524	0.93831337	122.403028	0.0215752467999999	7.92246013000004	
	
310000000.	0.0325865085	-20.8154268	0.936175633	114.543454	0.102601095	19.4795974	0.0100540777	30.5142511	
	0.936175659	114.543461	0.0235297348	11.4849474000001	0.0100751679	30.6912293	0.105728298	26.2328119	
	0.102601091	19.4795909	0.0100751701	30.6912034	0.0324556220000001	-20.5703574	0.936169877	114.555318	
	0.0100540595	30.5142549	0.105728301	26.2328109	0.936169946	114.555333	0.0236654244	11.1696801	
	
320000000.	0.0380809953000001	-30.1970611999999	0.934098841	106.709813	0.110176797	10.0486202	0.010240406	20.4822942	
	0.934098864	106.709818	0.0262872579999999	13.2673605000001	0.0102631027	20.6620584	0.113430793	20.8201452	
	0.110176795	10.0486188	0.0102631044	20.6620429000001	0.0379458383	-29.995684	0.934097745	106.721932	
	0.0102403976	20.4823011	0.113430795	20.8201437	0.934097784	106.72194	0.0264159521	12.9156824	
	
330000000.	0.0432985775999999	-38.9819321000001	0.932140651	98.889349	0.116220318	0.75273755	0.0103634626	10.5665115	
	0.932140671	98.8893537	0.0295590531000001	13.4749358	0.0103877143	10.7484008	0.119664303	15.2299188	
	0.116220318	0.752741046000001	0.0103877155	10.7483949	0.0431630236000001	-38.8129258999999	0.932144049	98.9017269	
	0.0103634634	10.5665248	0.119664303	15.2299172	0.932144063	98.9017296	0.0296788902000001	13.1073157	
	
340000000.	0.0481503943	-47.3600142	0.930342469	91.0802724	0.120640309	-8.46707499	0.0104210643	0.809195857	
	0.930342487	91.0802761	0.0331840225999999	12.2819123	0.0104467798	0.992508904	0.124326206	9.54444924	
	0.120640311	-8.46706657	0.0104467805	0.992511921	0.048018228	-47.2161467	0.930350208	91.0929113	
	0.0104210737	0.809218198	0.124326205	9.54444764	0.930350203	91.0929079	0.03329496	11.9121109	
	
350000000.	0.0525580283999999	-55.4455046000001	0.928737634	83.2802236	0.123374155	-17.658724	0.0104127763	-8.73961498	
	0.928737649	83.2802265	0.0370101713999999	9.93374145000005	0.0104398265	-8.55563474	0.127346894	3.82762652	
	0.123374159	-17.6587108	0.0104398267	-8.55562338000002	0.0524330837999999	-55.3218639000001	0.928749564	83.2931245	
	0.0104127936	-8.73958166	0.127346891	3.82762508	0.928749545	83.2931151	0.0371132744000001	9.56968928999998	
	
360000000.	0.0564514817	-63.3127123	0.927349605	75.4864089	0.124387185	-26.865553	0.0103404272	-18.0203449	
	0.927349619	75.4864108	0.0408996297	6.66633635999999	0.0103686488	-17.8365284	0.12868841	-1.86579036	
	0.124387189	-26.865535	0.0103686484	-17.8365093	0.0563376847	-63.2057981	0.927365574	75.4995717	
	0.0103404518	-18.0202995	0.128688406	-1.86579153	0.927365546	75.4995566	0.040996573	6.31202012	
	
370000000.	0.0597680878	-71.0136801	0.926190747	67.6957554	0.12367229	-36.1311058	0.0102087668	-26.9623081	
	0.92619076	67.6957564	0.0447275193000001	2.6782968	0.010237967	-26.7795826	0.128344029	-7.48347026	
	0.123672294	-36.1310834	0.010237966	-26.7795561000001	0.0596694516	-70.9209069	0.926210593	67.7091802	
	0.0102087981	-26.9622502	0.128344024	-7.48347106	0.926210561	67.7091595	0.0448202951	2.33533642	
	
380000000.	0.0624517899	-78.5874595	0.92526172	59.9050818	0.121250023	-45.5034604	0.0100262848	-35.4830647	
	0.925261733	59.905082	0.0483794701	-1.87155032000003	0.0100562483	-35.3024738	0.126338661	-12.9697426	
	0.121250027	-45.5034336	0.0100562467	-35.3024403999999	0.0623723806	-78.5068721999999	0.925285268	59.9187688	
	0.0100263223	-35.4829949	0.126338655	-12.9697429	0.925285237	59.9187428	0.0484702279	-2.20286204	
	
390000000.	0.0644526155	-86.0652604000001	0.924551502	52.111272	0.117169359	-55.0402084	0.00980617419	-43.4900778	
	0.924551514	52.1112714	0.0517496443	-6.85770696000006	0.00983667186	-43.3127894	0.122730211	-18.2595907	
	0.117169361	-55.0401775	0.00983666975	-43.3127494	0.0643964963	-85.9953661	0.924578563	52.1252227	
	0.00980621727	-43.4899982	0.122730204	-18.2595904	0.924578537	52.1251916	0.0518406012	-7.17778661	
	
400000000.	0.0657263516	-93.4734340999999	0.924038008	44.3114448	0.111509441	-64.8153172	0.00956734132	-50.8870433	
	0.92403802	44.3114434	0.0547397603999999	-12.1798056	0.00959814243	-50.7143238	0.117612248	-23.2712903	
	0.111509442	-64.8152826	0.00959813978000001	-50.7142776	0.0656975096	-93.4130998	0.924068381	44.325662	
	0.00956738959	-50.8869574	0.117612241	-23.2712894	0.924068363	44.3256261	0.0548331437000001	-12.4894331	
	
410000000.	0.0662344881	-100.835275	0.923689288	36.503109	0.104382903	-74.9297471	0.0093352066	-57.5883167	
	0.9236893	36.5031068	0.0572591237000001	-17.7551083	0.00936609397	-57.4214378	0.111118666	-27.8963316	
	0.104382902	-74.929709	0.0093660908	-57.4213854	0.0662367452999999	-100.783665	0.923722766	36.5175979	
	0.00933525968	-57.5882301	0.111118659	-27.89633	0.923722759	36.5175576	0.0573571268	-18.0552441	
	
420000000.	0.0659445161	-108.172198	0.923465231	28.6842975	0.0959419323	-85.5291273	0.00914177398	-63.5448053	
	0.923465243	28.6842947	0.0592255321	-23.5122161	0.00917256474	-63.3848413	0.103431622	-31.9847512	
	0.0959419289	-85.5290862	0.00917256111000001	-63.3847827	0.065981427	-108.128733	0.923501607	28.6990659	
	0.00914183149	-63.5447253	0.103431615	-31.9847486	0.923501614	28.6990215	0.0593302723999999	-23.8039147	
	
430000000.	0.0648306492	-115.504646	0.923319704	20.8536732	0.0863896126	-96.8347137	0.00902415767	-68.7808811	
	0.923319717	20.8536697	0.0605668994	-29.3858040000001	0.00905473109	-68.6283848	0.0947950974	-35.3233953	
	0.0863896072	-96.83467	0.00905472705000001	-68.6283202	0.0649053895	-115.468977	0.923358783	20.8687316	
	0.00902421914	-68.7808162	0.0947950916	-35.3233915	0.923358807	20.8686834	0.0606803756999999	-29.6701881	
	
440000000.	0.0628749930999999	-122.853049	0.923203035	13.0106001	0.0760020853	-109.199545	0.00902072946	-73.431535	
