!!!!!!!!!!!!!!!!!!!!!!!!!!!!!!!!!!!!!!!!!!!!!!!!!!!!!!!!!!!!!!!!!!!!!!!!!!!!!!!!!!!!!!!!!
!!
!! Reference: shanbhag_3dj_03_2305.pdf
!!
!!!!!!!!!!!!!!!!!!!!!!!!!!!!!!!!!!!!!!!!!!!!!!!!!!!!!!!!!!!!!!!!!!!!!!!!!!!!!!!!!!!!!!!!!
!!
!! CHANNEL DESCRIPTION: TP0_TP1a C2M Channel, PCB Host
!! MODEL DESCRIPTION: s4p, FEXT2
!! CONNECTOR DESCRIPTION: OSFP 200G SMT
!! MODEL STATUS: Developmental
!!
!! PORT DEFINITIONS: 
!! Port   1    ----->  Side A	      Side B  <-----  Port   2
!! Port   3    ----->  Side A	      Side B  <-----  Port   4
!!

# HZ S MA R 50.000000 


0.	0.0109219359999999	4.06852371000003e-13	8.9654958e-05	-180	0.000459616749	-8.00878689e-13	6.26965477e-05	-180	
	8.96535482e-05	-180	0.0104204984	2.15215601999999e-13	0.000144880328	-180	0.000439712078	6.59876999e-13	
	0.000458773991	-8.02396372e-13	0.000144885266	-180	0.0105427250000001	5.51138791999995e-13	8.9887133e-05	-180	
	6.26970774e-05	-180	0.000439801488	6.5976189e-13	8.98864978e-05	-180	0.0104061209999999	1.04848352000001e-13	
	
10000000.	0.0112969616	5.79422813999998	0.000140322169	-135.647942	0.00828369471	82.8096053	0.000100659571	-134.295034	
	0.000140321978	-135.648067	0.0113588063	4.93268413999998	0.000189561836	-145.390892	0.00824318103	81.6528464	
	0.00828369461	82.8096052	0.000189561846	-145.390865	0.0113959198	6.02901937000002	0.000141186895	-135.14234	
	0.000100659673	-134.294995	0.00824318133	81.6528459	0.000141186862	-135.142353	0.0113621283999999	4.99003480000004	
	
20000000.	0.0120543165999999	8.71768931000005	0.000232912536	-124.455363	0.0164892862	80.3832746	0.000169018147	-123.269689	
	0.000232912234	-124.455569	0.0124082800000001	6.74903391999996	0.00028346818	-131.803444	0.0164008361	77.9779098	
	0.0164892539	80.3833573	0.000283469611	-131.803168	0.0121667665	8.47281303000001	0.000234936662	-123.660414	
	0.000169018139	-123.269627	0.0164008553	77.9782211	0.000234936198	-123.660371	0.0124164159	6.84063873000002	
	
30000000.	0.0126575231	10.6737993	0.000333077327	-123.272685	0.0246044231	76.9162886	0.000242680556	-122.165836	
	0.000333077092	-123.272705	0.0137215029000001	7.25672483999996	0.000391805173	-128.261012	0.024459982	73.3043875	
	0.0246044235	76.9162926	0.000391805375	-128.261053	0.012776636	10.3706243	0.000336657016	-122.184203	
	0.000242680547	-122.16583	0.0244599892	73.3043994	0.000336657004	-122.184192	0.0137370625000001	7.38984169999996	
	
40000000.	0.0132367341	12.18996	0.000434368823	-125.38291	0.0325843348	73.2029719	0.000317210215	-124.266156	
	0.000434368752	-125.382914	0.0151928433000001	6.43515773999995	0.000504414749	-128.713587	0.0323777247	68.3821404	
	0.0325843344	73.2029714	0.000504414653	-128.713557	0.0133183708000001	11.7820569999999	0.000440100661	-123.992668	
	0.000317210174	-124.266164	0.0323777175	68.3821445	0.00044010067	-123.992678	0.0152168479	6.58770798000001	
	
50000000.	0.0137666415	13.4226045	0.000534855649	-128.903108	0.0403889993	69.3962009	0.000391326491	-127.730503	
	0.000534855611	-128.90311	0.0168213128	4.6122063	0.000618054193	-131.015874	0.0401131861	63.3627874	
	0.0403889993	69.3962009	0.000618054265	-131.01586	0.0138057723999999	13.0275505000001	0.000543522288	-127.215277	
	0.000391326403	-127.730512	0.0401131846	63.3627912	0.000543522295	-127.21528	0.0168538404999999	4.77559063000003	
	
60000000.	0.0142588421999999	14.5331083000001	0.000633618178	-133.134341	0.0479792183	65.5491858	0.000464441229	-131.882141	
	0.000633618212	-133.134339	0.0185821631999999	1.99136179000001	0.000731339642	-134.295575	0.0476271175	58.2959616	
	0.0479792184	65.5491858	0.000731339628	-134.295576	0.0142636001	14.2148069	0.000646171385	-131.158732	
	0.00046444115	-131.882145	0.0476271185	58.2959615	0.000646171423	-131.15873	0.0186233459000001	2.16007102999999	
	
70000000.	0.0147300221	15.6179944	0.000730080472	-137.759906	0.0553176136	61.6859685	0.000536198619	-136.416197	
	0.000730080582	-137.7599	0.0204518450000001	-1.2430428	0.000843549338	-138.141872	0.0548818732	53.2024669	
	0.0553176136	61.6859684	0.000843549266	-138.141871	0.0147110111	15.4095197999999	0.000747629605	-135.510532	
	0.000536198666	-136.416199	0.0548818734	53.2024691	0.000747629663	-135.510528	0.0205015932999999	-1.0729976	
	
80000000.	0.0152002009999999	16.7386164000001	0.000823827547	-142.615134	0.0623687475	57.8194084	0.000606350121	-141.175032	
	0.000823826913	-142.615128	0.0224107881	-4.94003879999999	0.000954247857	-142.33816	0.0618417306	48.0922456	
	0.0623687476	57.8194083	0.000954247871	-142.338156	0.0151688977000001	16.6520379999999	0.000847622311	-140.10967	
	0.000606350118	-141.174996	0.0618417318	48.0922521	0.000847622372	-140.109667	0.0224688348000001	-4.77136208999999	
	
90000000.	0.0156927948	17.9236659000001	0.000914533251	-147.605392	0.0690992651	53.9574034	0.000674709168	-146.068614	
	0.000914534214	-147.605426	0.0244418796	-8.9802576	0.00106314748	-146.759851	0.0684731103	42.9703052	
	0.069099265	53.9574034	0.00106314759	-146.759849	0.0156600798999999	17.9548173000001	0.000945952738	-144.864735	
	0.000674708389	-146.068639	0.0684731138	42.9703111	0.000945952804	-144.864734	0.0245078955	-8.81474262999998	
	
100000000.	0.0162329617	19.1702298999999	0.00100195159	-152.671234	0.0754780765	50.1054013	0.000741134729	-151.04116	
	0.00100195173	-152.671232	0.0265294927	-13.2702949	0.00117005053	-151.330329	0.0747447428	37.8390846	
	0.0754780763	50.1054015	0.00117005045	-151.330328	0.0162081427	19.3043776	0.00104247537	-149.719926	
	0.000741134759	-151.041163	0.0747447428	37.8390809	0.00104247548	-149.719929	0.0266031635000001	-13.1091792	
	
110000000.	0.0168538232	20.1936774999999	0.00108579005	-157.769954	0.0814775726	46.2685777	0.000805461357	-156.053164	
	0.00108578959	-157.769946	0.0286500986000001	-17.796297	0.00127467487	-155.995483	0.0806286109	32.6998865	
	0.0814775776	46.2685798	0.00127467657	-155.995529	0.0168403154	20.4944062	0.00113701596	-154.636805	
	0.000805462825	-156.053225	0.0806286504	32.6998739	0.00113701638	-154.63683	0.0287447149	-17.6370407	
	
120000000.	0.0175331107999999	21.3042957000001	0.00116605252	-162.87661	0.0870705111	42.4485803	0.000867713054	-161.082046	
	0.00116605164	-162.876591	0.0307985993	-22.4119297	0.00137713194	-160.725716	0.0860974824	27.5522228	
	0.0870705205	42.4485829	0.00137713477	-160.725807	0.0175514928	21.7076999	0.00122959382	-159.593359	
	0.00086771543	-161.082161	0.0860975508	27.5522078	0.00122959433	-159.593397	0.030909512	-22.2585908	
	
130000000.	0.0183138358000001	22.4388049999999	0.00124265073	-167.971879	0.0922332882	38.6486527	0.000927847456	-166.110804	
	0.00124264957	-167.971848	0.0329629175999999	-27.0880443000001	0.00147736471	-165.498864	0.0911278107	22.3953195	
	0.092233301	38.648655	0.00147736811	-165.498992	0.0183730672000001	22.8781412999999	0.00132015586	-164.573327	
	0.000927850309	-166.110965	0.0911279	22.3953055	0.00132015633	-164.573372	0.0330865288999999	-26.9424557000001	
	
140000000.	0.0192279139999999	23.4989922000001	0.00131553937	-173.040707	0.09694502	34.8717064	0.000985846596	-171.126667	
	0.00131553808	-173.040665	0.0351297822000001	-31.8001951999999	0.00157533757	-170.29891	0.0956987432	17.2278451	
	0.0969450353	34.871708	0.00157534115	-170.299065	0.0193283611000001	23.9206349999999	0.00140866797	-169.564997	
	0.000985849597	-171.126861	0.0956988473	17.227834	0.00140866832	-169.565044	0.0352633337	-31.6632166	
	
150000000.	0.0202948605	24.3802341999999	0.00138471768	-178.070941	0.101187538	31.1205142	0.00104171719	-176.119781	
	0.00138471637	-178.070889	0.0372853797000001	-36.5284987999999	0.00167103393	-175.113998	0.0997921513	12.0479687	
	0.101187555	31.1205148	0.0016710374	-175.11417	0.0204315674000001	24.7496643999999	0.00149511338	-174.55975	
	0.00104172011	-176.119997	0.0997922651	12.0479614	0.00149511357	-174.559795	0.0374267708999999	-36.4006143000001	
	
160000000.	0.0215223562999999	24.9919623000001	0.00145023043	176.947507	0.104945388	27.3978519	0.00109549044	178.917586	
	0.00145022919	176.947565	0.0394157161	-41.2572022	0.00176445415	-179.935172	0.103392641	6.85338226	
	0.104945405	27.3978515	0.00176445733	-179.935353	0.0216878729000001	25.2930788999999	0.00157949101	-179.551145	
	0.00109549311	178.91736	0.10339276	6.85337895	0.00157949103	-179.551185	0.0395633591	-41.138792	
	
170000000.	0.0229080661	25.2690019	0.00151216842	172.023174	0.10820582	23.7066148	0.0011472214	173.991564	
	0.00151216732	172.023237	0.0415068354000001	-45.9741334999999	0.00185561375	175.244441	0.106487551	1.64129778	
	0.108205838	23.7066135	0.00185561651	175.244258	0.0230945167	25.4998333000001	0.00166181394	175.46568	
	0.00114722371	173.991335	0.106487672	1.64129835	0.00166181378	175.465644	0.0416595427	-45.8655892	
	
180000000.	0.0244420426999999	25.1744504000001	0.00157066874	167.163381	0.110958792	20.0499227	0.00119698804	169.107011	
	0.00157066783	167.163446	0.0435449665999999	-50.6701437000001	0.00194454179	170.430188	0.109066944	-3.59157569	
	0.110958809	20.0499205	0.00194454408	170.430009	0.0246423835000001	25.3418651999999	0.00174210773	170.494411	
	0.00119698995	169.106787	0.109067064	-3.59157156	0.00174210742	170.494382	0.0437018643999999	-50.5719077000001	
	
190000000.	0.0261091298	24.6965902	0.00162591471	162.374428	0.113196961	16.4312245	0.00124489015	164.267744	
	0.00162591402	162.374493	0.0455166306999999	-55.3385908000001	0.00203127937	165.626282	0.111123592	-8.84907438	
	0.113196977	16.4312215	0.00203128117	165.62611	0.0263177271000001	24.8116858999999	0.0018204089	165.537847	
	0.00124489164	164.267529	0.111123709	-8.84906714	0.00182040845	165.537825	0.0456770917	-55.2511632	
	
200000000.	0.0278909899	23.8428983	0.00167813572	157.661707	0.114915692	12.8544093	0.00129104806	159.476691	
	0.00167813525	157.66177	0.0474087235	-59.9748895	0.00211587833	160.836076	0.112652973	-14.1356416	
	0.114915708	12.8544056	0.00211587964	160.835915	0.0281037249	23.9177607	0.00189676336	160.598104	
	0.00129104914	159.476489	0.112653085	-14.1356318	0.00189676281	160.598088	0.0475723129	-59.8988221000001	
	
210000000.	0.0297676111	22.6336005	0.00172760682	153.029744	0.116113073	9.32392987	0.00133560125	154.735994	
	0.00172760657	153.029804	0.0492085808	-64.5761306	0.00219840019	156.062271	0.113653262	-19.4564119	
	0.116113087	9.32392579	0.00219840105	156.062122	0.0299817157999999	22.6794280000001	0.00197122507	155.676765	
	0.00133560195	154.735808	0.113653367	-19.4564	0.00197122445	155.676755	0.0493750138	-64.5120177	
	
220000000.	0.0317183162	21.0961589	0.00177464817	148.482191	0.116789941	5.84494504	0.00137870694	150.047078	
	0.00177464812	148.482247	0.050904032	-69.1407680000001	0.00227891535	151.307071	0.114125346	-24.817322	
	0.116789953	5.84494063	0.0022789158	151.306936	0.0319320953	21.1224236	0.00204385474	150.774999	
	0.00137870731	150.04691	0.114125443	-24.8173086	0.00204385409	150.774994	0.0510731382	-69.0892375000001	
	
230000000.	0.0337223769	19.2611848	0.00181962412	144.021769	0.116949936	2.42348656	0.00142053858	145.410696	
	0.00181962424	144.021819	0.052483442	-73.6683646	0.00235750264	146.5723	0.114072849	-30.225254	
	0.116949946	2.42348198	0.00235750274	146.572179	0.0339349133999999	19.2754451	0.00211471878	145.893646	
	0.00142053866	145.410547	0.114072936	-30.2252396	0.00211471813	145.893645	0.0526551361	-73.6300725999999	
	
240000000.	0.0357593493	17.1597235	0.00186294181	139.650179	0.116599569	-0.933340867	0.00146128431	140.826947	
	0.00186294207	139.650223	0.053935745	-78.1593901	0.00243424923	141.85949	0.113502178	-35.6882208	
	0.116599576	-0.93334547	0.00243424905	141.859384	0.0359702465999999	17.1677829	0.00218388842	141.033291	
	0.00146128416	140.826817	0.113502256	-35.6882059	0.00218388781	141.033294	0.0541100017	-78.1350175	
	
250000000.	0.0378092373	14.8216369	0.00190504911	135.367982	0.11574833	-4.21711785	0.00150114522	136.295294	
	0.00190504946	135.368018	0.0552504696	-82.6150631999999	0.00250925091	137.169952	0.112422604	-41.2156043	
	0.115748336	-4.21712234	0.00250925051	137.169862	0.0380184155000001	14.8278405	0.00225143905	136.194319	
	0.0015011449	136.295183	0.112422672	-41.2155894	0.0022514385	136.194324	0.0554273035	-82.6053161	
	
260000000.	0.0398525558	12.2747652	0.00194643163	131.174458	0.114408829	-7.41781497	0.00154033362	131.81456	
	0.00194643204	131.174488	0.0564177583	-87.0372308999999	0.00258261271	132.504822	0.11084637	-46.8184615	
	0.114408833	-7.41781923	0.00258261215	132.504746	0.0400601051999999	12.2823212	0.00231744973	131.376952	
	0.00154033319	131.814467	0.110846427	-46.8184472	0.00231744926	131.376959	0.0565972054	-87.0428427	
	
270000000.	0.0418703499	9.54460067999999	0.00198760858	127.067464	0.112596988	-10.5234293	0.00157907096	127.382928	
	0.00198760901	127.067488	0.0574283798	-91.4282796	0.00265444985	127.865094	0.108788854	-52.5099208	
	0.11259699	-10.5234332	0.00265444921	127.865033	0.0420764324999999	9.55586853000001	0.00238200296	126.581288	
	0.00157907047	127.382853	0.1087889	-52.5099074	0.00238200258	126.581295	0.0576104834	-91.4500158	
	
280000000.	0.0438441981000001	6.65427380999999	0.00202912726	123.043294	0.110332287	-13.5195348	0.00161758568	122.99794	
	0.00202912767	123.043311	0.0582737374	-95.7910726	0.00272488903	123.251639	0.106268785	-58.3056941	
	0.110332288	-13.5195382	0.00272488839	123.251592	0.0440489877999999	6.67099966000001	0.00244518453	121.80732	
	0.0016175852	122.997881	0.106268821	-58.3056822	0.00244518425	121.807326	0.0584585358	-95.8297373	
	
290000000.	0.0457562221	3.62471451	0.00207155594	119.096562	0.107638098	-16.3887237	0.00165611073	118.656495	
	0.00207155627	119.096574	0.0589458741	-100.128911	0.00279406987	118.66521	0.103308549	-64.2247431	
	0.107638097	-16.3887265	0.00279406928	118.665176	0.0459598725000001	3.64821252999999	0.00250708359	117.054953	
	0.0016561103	118.65645	0.103308575	-64.2247332	0.0025070834	117.054958	0.0591333909	-100.185355	
	
300000000.	0.0475891097	0.474902776	0.00211547511	115.220136	0.104542112	-19.109914	0.00169488083	114.35486	
	0.00211547535	115.220142	0.0594374747	-104.445517	0.00286214644	114.106433	0.0999345979	-70.2901477	
	0.10454211	-19.1099162	0.00286214599	114.106412	0.0477917411000001	0.506189112999999	0.00256779277	112.324018	
	0.00169488049	114.354829	0.0999346149	-70.2901402	0.00256779267	112.32402	0.0596277118	-104.520649	
	
310000000.	0.0493261583999999	-2.77784421	0.00216146722	111.405131	0.10107691	-21.6574927	0.00173412947	110.08869	
	0.00216146733	111.405133	0.0597418689	-108.745031	0.00292928893	109.575792	0.0961780195	-76.5302383	
	0.101076907	-21.6574942	0.00292928867	109.575783	0.0495278566999999	-2.73795529000001	0.0026274084	107.614271	
	0.00173412926	110.088671	0.0961780277	-76.5302337	0.00262740837	107.614271	0.0599348016	-108.839828	
	
320000000.	0.0509513389	-6.11757763	0.00221010485	107.640981	0.0972807063	-24.0002692	0.00177408567	105.853063	
	0.0022101048	107.640979	0.0598530349	-113.03204	0.00299568501	105.073595	0.0920753123	-82.980072	
	0.0972807031	-24.0002699	0.00299568501	105.073597	0.0511521612	-6.06840622	0.00268603074	102.925395	
	0.00177408563	105.853055	0.0920753126	-82.9800709	0.00268603075	102.925391	0.0600486102	-113.147563	
	
330000000.	0.0524493795999999	-9.52943017000002	0.00226193795	103.915609	0.0931983397	-26.1002238	0.0018149705	101.642531	
	0.00226193772	103.915603	0.059765608	-117.311611	0.00306154112	100.599942	0.0876694681	-89.6833413	
	0.0931983361	-26.1002236	0.00306154144	100.599953	0.0526493634000001	-9.47038394999999	0.00274376416	98.2569939	
	0.00181497066	101.642531	0.0876694613	-89.6833441	0.0027437642	98.2569858	0.0599637448	-117.449021	
	
340000000.	0.0538058699999999	-12.9993426	0.00231748054	100.215681	0.0888825715	-27.9110747	0.00185699343	97.4511862	
	0.00231748011	100.215673	0.0594748949	-121.589365	0.00312708321	96.154676	0.0830114747	-96.6948007	
	0.0888825678	-27.9110735	0.00312708391	96.1546949	0.0540050436000001	-12.9298845	0.00280071731	93.6085829	
	0.00185699382	97.4511938	0.0830114619	-96.6948083	0.00280071735	93.608571	0.0596754877	-121.749942	
	
350000000.	0.0550073818	-16.5138046	0.00237719755	96.526958	0.0843957914	-29.3767712	0.00190034865	93.2727506	
	0.00237719691	96.5269486	0.0589768975	-125.871567	0.003192557	91.7373357	0.0781624133	-104.083246	
	0.0843957879	-29.3767691	0.00319255811	91.7373616	0.0552057743	-16.4334304	0.00285700308	88.9795786	
	0.00190034928	93.2727641	0.0781623957	-104.083259	0.00285700307	88.9795629	0.0591798224999999	-126.056737	
	
360000000.	0.0560416059000001	-20.0596066	0.00244149247	92.8347121	0.0798122067	-30.4301996	0.00194521135	89.1006779	
	0.00244149162	92.8347017	0.058268348	-130.165265	0.00325822744	87.3471033	0.0731963659	-111.934902	
	0.0798122037	-30.4301964	0.00325822901	87.347135	0.0562392562000001	-19.9678287	0.0029127384	84.369284	
	0.00194521222	89.1006957	0.0731963449	-111.934921	0.00291273833	84.3692646	0.0584734735	-130.376626	
	
370000000.	0.0568975028	-23.6235988	0.00251069664	89.1241825	0.0752205496	-30.9927323	0.00199173415	84.9282692	
	0.00251069555	89.1241716	0.0573467590999999	-134.478474	0.00332437741	82.9827541	0.0682043749	-120.356648	
	0.0752205473	-30.9927281	0.00332437946	82.9827902	0.0570944685999999	-23.5199345	0.00296804389	79.7768741	
	0.00199173529	84.9282901	0.0682043521	-120.356675	0.00296804372	79.7768513	0.0575539588	-134.717833	
	
380000000.	0.0575654667999999	-27.1924512	0.00258506057	85.3810438	0.07072718	-30.975856	0.00204004382	80.7487997	
	0.00258505926	85.3810329	0.0562104908	-138.82043	0.00339130539	78.6426102	0.0632996088	-129.47749	
	0.0707271786	-30.9758507	0.00339130795	78.6426496	0.0577618322000001	-27.0764131	0.00302304311	75.2013818	
	0.00204004522	80.7488224	0.0632995858	-129.477525	0.00302304282	75.2013561	0.0564196626	-139.089846	
	
390000000.	0.0580375019000001	-30.7524086	0.00266474803	81.5918462	0.0664590969	-30.2870329	0.00209023829	76.5556495	
	0.00266474648	81.5918357	0.0548588393	-143.201942	0.0034593221	74.3245045	0.0586234983	-139.444715	
	0.0664590967	-30.2870267	0.00345932517	74.3245458	0.0582333854000001	-30.6234966999999	0.00307786161	70.6416849	
	0.00209023993	76.555673	0.0586234772	-139.44476	0.00307786119	70.6416567	0.0550699283	-143.503783	
	
400000000.	0.0583074099000001	-34.2890324999999	0.00274983276	77.7443972	0.0625656546	-28.8429702	0.00214238413	72.3424343	
	0.00274983097	77.7443874	0.0532921508000001	-147.635878	0.00352874612	70.0257555	0.0543515062	-150.407882	
	0.0625656558	-28.8429631	0.0035287497	70.0257977	0.0585029727	-34.1467275	0.00313262563	66.0964953	
	0.00214238602	72.3424577	0.0543514893	-150.407937	0.00313262505	66.0964652	0.0535051793999999	-147.972888	
	
410000000.	0.0583709927000001	-37.7869231999999	0.00284029815	73.8280614	0.059216661	-26.5936106	0.00219651468	68.10313	
	0.00284029612	73.8280525	0.0515119672000001	-152.137848	0.00359989842	65.7431609	0.050694841	-162.480451	
	0.0592166638	-26.593603	0.00359990251	65.7432028	0.0585664483	-37.6306808	0.00318746042	61.5643533	
	0.0021965168	68.1031526	0.0506948307	-162.480516	0.00318745967	61.5643217	0.0517270727000001	-152.513233	
	
420000000.	0.0582262702	-41.2294141	0.00293603947	69.8339643	0.0565933846	-23.5570787	0.0022526287	63.8321863	
	0.0029360372	69.8339564	0.0495212137999999	-156.727162	0.00367309611	61.4730094	0.0478908667	-175.67152	
	0.056593389	-23.5570711	0.00367310068	61.4730502	0.0584218954	-41.05866	0.0032424883	57.0436253	
	0.00225263102	63.8322074	0.0478908651	-175.671592	0.00324248738	57.0435929	0.0497386974000001	-157.144702	
	
430000000.	0.0578737200999999	-44.5982296	0.00303686831	65.7550964	0.0548692213	-19.8567449	0.00231068974	59.5246246	
	0.00303686581	65.7550897	0.0473244453	-161.428217	0.00374864529	57.2111155	0.0461731011	170.198688	
	0.0548692274	-19.8567378	0.00374865033	57.2111543	0.0580698690999999	-44.4123573000001	0.00329782645	52.5325096	
	0.00231069226	59.5246437	0.04617311	170.198611	0.00329782535	52.5324769	0.0475448346000001	-161.892403	
	
440000000.	0.0573165453999999	-47.8731016000001	0.00314251891	61.5863249	0.0541806113	-15.738525	0.00237062626	55.1761177	
