!!!!!!!!!!!!!!!!!!!!!!!!!!!!!!!!!!!!!!!!!!!!!!!!!!!!!!!!!!!!!!!!!!!!!!!!!!!!!!!!!!!!!!!!!
!!
!! Reference: shanbhag_3dj_03_2305.pdf
!!
!!!!!!!!!!!!!!!!!!!!!!!!!!!!!!!!!!!!!!!!!!!!!!!!!!!!!!!!!!!!!!!!!!!!!!!!!!!!!!!!!!!!!!!!!
!!
!! CHANNEL DESCRIPTION: TP0_TP1a C2M Channel, PCB Host
!! MODEL DESCRIPTION: s4p, THRU
!! CONNECTOR DESCRIPTION: OSFP 200G SMT
!! MODEL STATUS: Developmental
!!
!! PORT DEFINITIONS: 
!! Port   1    ----->  Side A	      Side B  <-----  Port   2
!! Port   3    ----->  Side A	      Side B  <-----  Port   4
!!

# HZ S MA R 50.000000 


0.	0.0110171510999999	-7.85237823000007e-13	0.98848811	-1.40982113e-14	0.000458364853	-3.72633381e-11	0.000408857582	180	
	0.988507518	-1.40982204e-14	0.0115505485	-1.09671496e-12	0.000416403137	-180	0.000455987641	-2.50647518e-11	
	0.000458262535	-3.72699422e-11	0.000416415398	-180	0.0114345572000001	-8.46558613999994e-13	0.988225537	7.47476131e-14	
	0.000409088921	180	0.000455145947	-2.51112157e-11	0.988290289	7.47476279e-14	0.0111785418000001	6.45821694999994e-13	
	
10000000.	0.0119256973999999	3.68826627000002	0.987831442	-4.79718589	0.00838623416	81.4032199	0.000582507822	-141.178595	
	0.987831443	-4.79718578	0.0118937711	4.40693305000001	0.000582838654	-141.119621	0.00841616154	82.7056426	
	0.00838623436	81.4032193	0.000582838503000001	-141.119622	0.0120235260000001	3.96209536999997	0.987602467	-4.80019396	
	0.00058250784	-141.178592	0.00841616143	82.7056425	0.987602467	-4.8001938	0.0119979034	4.60889043999999	
	
20000000.	0.0129117942000001	4.61620441999997	0.986999054	-9.56614619	0.0166790146	77.6171675	0.000907841459	-128.667379	
	0.986999681	-9.5659648	0.0125768003	6.25765329999993	0.000910592997	-128.63633	0.0167495532	80.062715	
	0.016678982	77.6170192	0.000910602130999997	-128.635096	0.0130709576	4.89951348000002	0.986719644	-9.56715459	
	0.000907847359	-128.6671	0.0167495211	80.0627969	0.986721382	-9.56687613	0.0126957452	5.98512582999998	
	
30000000.	0.0141402166	4.48019605999999	0.986137282	-14.3265773	0.0248636725	72.8034685	0.00126846057	-126.235429	
	0.98613746	-14.3265712	0.0130737715	7.30105829999988	0.00127175733	-126.228347	0.0249816144	76.4041368	
	0.0248636688	72.8034741	0.00127175961	-126.228435	0.0142969947000001	4.42700704999998	0.985848682	-14.324546	
	0.00126846068	-126.235442	0.0249816148	76.4041406	0.985848925	-14.324541	0.0131990286000001	6.95276084999995	
	
40000000.	0.0155169275	3.19703395999999	0.985210833	-19.0807021	0.0328917615	67.7332584	0.00163205001	-127.382637	
	0.985210681	-19.0807018	0.0135182181999999	8.04086957999989	0.00163613424	-127.421078	0.0330625171	72.5058486	
	0.0328917629	67.7332555	0.00163613341	-127.421008	0.0156615318999999	3.05810739000001	0.984931655	-19.0763755	
	0.00163204993	-127.382687	0.0330625167	72.5058481	0.984931493	-19.0763736	0.0136061476	7.56136288999997	
	
50000000.	0.0170453472	1.03938667	0.98421098	-23.8287878	0.0407178233	62.5626769	0.00199148732	-130.107062	
	0.984210944	-23.8287874	0.0138882734	8.61540162000009	0.00199553379	-130.177441	0.0409472537	68.5173069	
	0.0407178232	62.5626759	0.00199553381000001	-130.177417	0.0171768203999999	0.871826495000005	0.983948603	-23.8227637	
	0.00199148741	-130.107071	0.0409472536	68.5173068	0.983948571	-23.8227631	0.0139322949	8.11539546000001	
	
60000000.	0.0187033256000001	-1.83227850999999	0.983138417	-28.5707781	0.0482980249	57.3429603	0.0023432754	-133.629413	
	0.983138425	-28.5707802	0.0141976095000001	9.18108039999994	0.00234672512	-133.71524	0.0485919382	64.4906978	
	0.0482980251	57.3429605	0.00234672446	-133.715241	0.0188209922000001	-1.99693162999999	0.982895164	-28.5635182	
	0.00234327609	-133.629407	0.0485919382	64.4906977	0.982895172	-28.5635205	0.0142043483	8.72543646999998	
	
70000000.	0.0204678874	-5.2641642	0.98199826	-33.3064764	0.055590463	52.0957063	0.00268585724	-137.586253	
	0.981998255	-33.3064767	0.0144651794000001	9.83833077999975	0.00268832083	-137.675378	0.0559548476	60.4497219	
	0.0555904631	52.0957062	0.00268832080999999	-137.675372	0.0205730598999999	-5.41033373000002	0.981774183	-33.2983155	
	0.00268585715	-137.586252	0.0559548477	60.4497218	0.98177418	-33.298316	0.0144439275	9.46506109000002	
	
80000000.	0.0223188634000001	-9.12503084999997	0.980798544	-38.0356562	0.0625555443	46.83126	0.00301860416	-141.789508	
	0.980798547	-38.0356525	0.0147137833	10.6572899999997	0.00301984519	-141.872611	0.0629965873	56.4071591	
	0.0625555438	46.8312599	0.0030198469	-141.872611	0.0224131974	-9.24739231	0.980592768	-38.0268343	
	0.0030186023	-141.7895	0.0629965873	56.407159	0.980592775	-38.0268309	0.0146749967999999	10.3856735	
	
90000000.	0.0242378869	-13.3078222	0.979549197	-42.7581235	0.0691562229	41.5548278	0.00334139849	-146.133113	
	0.979549225	-42.7581184	0.0149705227999999	11.6767344999999	0.00334133069	-146.203464	0.06968027	52.3709454	
	0.0691562222	41.5548278	0.00334133307	-146.20348	0.0243227534999999	-13.4057191	0.979360522	-42.7488138	
	0.00334139589	-146.133092	0.06968027	52.3709453	0.979360553	-42.748809	0.0149244237999999	11.5104320000001	
	
100000000.	0.0262077119000001	-17.7266841999999	0.9782613	-47.4737464	0.075358187	36.2689269	0.00365447827	-150.553591	
	0.978261304	-47.473746	0.0152653441000002	12.9002541999996	0.00365312614	-150.606778	0.0759717274	48.3466281	
	0.0753581866	36.2689264	0.00365312655	-150.60678	0.0262842669000001	-17.8012021999999	0.978088468	-47.464076	
	0.00365447778	-150.553588	0.0759717272	48.3466282	0.978088474	-47.4640755	0.0152209204000001	12.8315514999999	
	
110000000.	0.0282053038999999	-22.37499	0.976950618	-52.1814743	0.0811300499	30.9747417	0.00395564835	-155.022879	
	0.976950645	-52.1814692	0.0156401620999999	14.0233744000002	0.00395077122	-155.054145	0.0818409276	44.3394274	
	0.0811300252	30.9747244	0.00395077688999999	-155.054197	0.0282894478	-22.416707	0.976781294	-52.1724004	
	0.0039556122	-155.023134	0.0818409327	44.3394293	0.976781627	-52.1723772	0.0155999393999999	14.1265205000001	
	
120000000.	0.0302204587	-27.1061244	0.975624414	-56.8826935	0.0864433875	25.6719906	0.00424870498	-159.48568	
	0.975624461	-56.8826849	0.0160736428	15.3576958	0.00424139842	-159.481208	0.0872582338	40.3512566	
	0.0864433434	25.6719615	0.00424140745	-159.481295	0.0303082003999999	-27.1270370000001	0.97546088	-56.8739124	
	0.00424864065	-159.486088	0.0872582433	40.351259	0.975461439	-56.873873	0.0160590398	15.5721247	
	
130000000.	0.0322395023999999	-31.8922898000001	0.974294798	-61.5774138	0.0912729795	20.3596808	0.00453468096	-163.939494	
	0.974294861	-61.5774027	0.0166150757999999	16.8244791	0.00452612104	-163.896236	0.0921984116	36.3855851	
	0.0912729205	20.3596433	0.00452613209	-163.896347	0.0323275525000001	-31.8992812999999	0.974138988	-61.56873	
	0.00453459496	-163.939988	0.0921984244	36.385587	0.974139698	-61.5686789	0.0166357881	17.0800424	
	
140000000.	0.0342475698000001	-36.7100441999999	0.972973795	-66.2657642	0.0955967328	15.036229	0.00481435398	-168.384032	
	0.97297387	-66.2657512	0.0173021272999999	18.2919366	0.00480559736	-168.305048	0.0966394386	32.4455844	
	0.095596663	15.0361856	0.0048056095	-168.305174	0.0343334214	-36.7073106	0.972827165	-66.2570543	
	0.00481425192	-168.38457	0.096639454	32.4455856	0.972827966	-66.2569949	0.0173587868	18.5287218	
	
150000000.	0.0362293013	-41.5402290000001	0.97167293	-70.9479797	0.0993957155	9.69950425	0.00508828229	-172.819831	
	0.971673013	-70.9479655	0.0181581053000001	19.610971	0.00508017366	-172.711091	0.100562492	28.5343366	
	0.0993956387	9.69945671	0.00508018624	-172.711226	0.0363111682000001	-41.5305456999999	0.971536461	-70.939168	
	0.00508816896	-172.820383	0.100562509	28.5343368	0.971537309	-70.9391028	0.0182455260999999	19.7889051000001	
	
160000000.	0.0381692398999999	-46.3676037000001	0.970402936	-75.6243893	0.102654166	4.34683613	0.00535683376	-177.24747	
	0.970403022	-75.6243743	0.0191917449	20.6463319	0.00534998193	-177.115826	0.103951935	24.6549939	
	0.102654085	4.34678593	0.0053499945	-177.115963	0.0382459557	-46.3529755	0.970277192	-75.6154311	
	0.00535671328	-177.248017	0.103951952	24.654993	0.970278053	-75.615362	0.0193019594	20.7464776	
	
170000000.	0.0400520779	-51.1803501	0.969173536	-80.295404	0.105359486	-1.02500439	0.00562021321	178.332884	
	0.969173624	-80.2953886	0.0203990655000002	21.2971490999998	0.00561500726	178.480889	0.106795303	20.810917	
	0.105359404	-1.02505606	0.0056150195	178.480752	0.0401229972000001	-51.1623387999999	0.969058743	-80.2862741	
	0.00562008908	178.332357	0.106795321	20.8109152	0.969059589	-80.286203	0.0205236655999999	21.3175395000001	
	
180000000.	0.0418628255	-55.9695517999999	0.967993279	-84.9615048	0.107502227	-6.41984791	0.00587849078	173.921768	
	0.967993367	-84.9614892	0.0217664326999998	21.5042740000002	0.00587513634	174.080494	0.109083295	17.0058087	
	0.107502147	-6.41990005	0.00587514805	174.080361	0.0419277376	-55.9494402000001	0.967889393	-84.9521904	
	0.00587836599	173.921271	0.109083312	17.0058059	0.967890206	-84.9521187	0.0218980321000001	21.4536161999999	
	
190000000.	0.0435869349	-60.7287058	0.966869412	-89.6232304	0.109076075	-11.8421942	0.00613163347	169.520589	
	0.966869497	-89.6232148	0.0232738483	21.2468558	0.00613019582	169.685523	0.110809764	13.2438528	
	0.109075998	-11.8422459	0.00613020687	169.685395	0.0436459927	-60.7075788999999	0.966776192	-89.6137261	
	0.00613151052	169.520127	0.11080978	13.2438493	0.966776958	-89.6136549	0.0234067489999999	21.1387056000001	
	
200000000.	0.0452103962	-65.4532921	0.965807787	-94.2811651	0.110077837	-17.2973073	0.00637954102	165.131719	
	0.965807868	-94.2811498	0.0248977682000001	20.5331865999999	0.00637998688	165.299468	0.111971726	9.52986957	
	0.110077765	-17.2973579	0.00637999719	165.299347	0.0452640569	-65.4320783999999	0.965724851	-94.2714694	
	0.006379422	165.131297	0.111971741	9.52986539	0.96572556	-94.2713997	0.0250280586	20.3818386	
	
210000000.	0.0467198123	-70.1404072999999	0.964812804	-98.9359263	0.110507441	-22.7913445	0.00662208689	160.758529	
	0.96481288	-98.9359115	0.0266131536999999	19.3904047000001	0.00662432034	160.92669	0.112569379	5.86949552	
	0.110507375	-22.7913932	0.00662432988	160.926577	0.0467687894	-70.1199014000001	0.964739678	-98.9260395	
	0.00662197353	160.758149	0.112569392	5.86949087	0.964740324	-98.9259723	0.0267384893	19.20861	
	
220000000.	0.0481024599	-74.7884622999999	0.963887383	-103.588152	0.110367955	-28.3315268	0.00685916461	156.405359	
	0.963887453	-103.588137	0.0283947770999998	17.8557524000002	0.00686305534	156.572341	0.11260615	2.26939817	
	0.110367895	-28.3315731	0.00686306409999999	156.572236	0.0481476815	-74.7693387	0.963823538	-103.578075	
	0.0068590583	156.405023	0.112606162	2.2693932	0.963824116	-103.578011	0.0285140355999999	17.6538136000001	
	
230000000.	0.0493463363	-79.3969363	0.963032957	-108.238487	0.10966562	-33.9263648	0.00709073902	152.077443	
	0.963033022	-108.238473	0.0302179465000001	15.970296	0.00709614278	152.242278	0.112088768	-1.26246232	
	0.109665568	-33.9264082	0.00709615077	152.242182	0.0493889097	-79.3797602999999	0.962977838	-108.22822	
	0.00709064087	152.07715	0.112088777	-1.26246744	0.962978348	-108.22816	0.0303308784	15.7559929	
	
240000000.	0.0504401961	-83.9661817000001	0.962249504	-112.887573	0.108409929	-39.5859557	0.00731690162	147.780764	
	0.962249563	-112.887561	0.0320588459999998	13.7749647000001	0.00732367377	147.942943	0.111027372	-4.71650914	
	0.108409884	-39.5859956	0.00732368101	147.942856	0.0504813767	-83.9514183	0.96220255	-112.877117	
	0.00731681247	147.780514	0.111027379	-4.71651426	0.962202993	-112.877061	0.0321657775	13.5538787	
	
250000000.	0.0513735784	-88.497272	0.961535589	-117.536037	0.106613731	-45.322376	0.00753792849	143.521858	
	0.961535642	-117.536025	0.0338946498	11.3083631	0.00754593198	143.681188	0.109435674	-8.0811426	
	0.106613693	-45.3224121	0.00754593850999999	143.681111	0.0514147415	-88.4852948000001	0.961496253	-117.52539	
	0.00753784896	143.521649	0.109435679	-8.08114758	0.96149663	-117.525339	0.0339962566	11.0843299	
	
260000000.	0.052136826	-92.9918861000001	0.960888438	-122.184477	0.104293398	-51.1502041	0.00775433874	139.307543	
	0.960888485	-122.184465	0.0357035238	8.60577661999999	0.00776344811	139.464046	0.10733118	-11.3422251	
	0.104293366	-51.1502361	0.00776345394	139.463978	0.0521794417	-92.9829859999999	0.960856195	-122.173636	
	0.00775426925	139.307373	0.107331183	-11.3422298	0.960856508	-122.173591	0.0358006722000001	8.38132864999999	
	
270000000.	0.0527210973	-97.4522246000002	0.96030403	-126.833454	0.101469064	-57.0872188	0.00796695063	135.144585	
	0.960304072	-126.833443	0.0374645839999999	5.6989127599999	0.00797705339	135.298418	0.104735487	-14.4824222	
	0.101469039	-57.0872463	0.00797705854999999	135.29836	0.0527667071	-97.4466179000001	0.960278383	-126.822418	
	0.00796689144	135.144452	0.104735488	-14.4824265	0.960278638	-126.822378	0.0375582284	5.47564991	
	
280000000.	0.0531183733	-101.880953	0.959777208	-131.483484	0.0981649638	-63.15534	0.00817693214	131.039289	
	0.959777245	-131.483474	0.0391578528	2.61605309999996	0.00818792878	131.190696	0.101674698	-17.4803541	
	0.0981649444	-63.1553629	0.0081879333	131.190647	0.0531685694	-101.878789	0.959757694	-131.472249	
	0.00817688335	131.039189	0.101674698	-17.4803578	0.959757895	-131.472215	0.0392489739999999	2.39492984000001	
	
290000000.	0.053321461	-106.281168	0.959301806	-136.135027	0.0944099117	-69.3819077	0.00838584167	126.997023	
	0.959301839	-136.135019	0.0407642336999999	-0.617585593999966	0.00839764528	127.146307	0.0981799799	-20.3094969	
	0.0944098972	-69.3819258	0.00839764917999999	127.146268	0.053377866	-106.282538	0.959287997	-136.123588	
	0.00838580324	126.996954	0.0981799786	-20.3095	0.959288149	-136.123561	0.0408538076000001	-0.836050747999998	
	
300000000.	0.0533239939	-110.656393	0.958870794	-140.788482	0.0902379896	-75.8014293	0.00859565431	123.021693	
	0.958870823	-140.788474	0.0422655145000001	-3.97940325	0.00860819038	123.169194	0.0942883248	-22.9367594	
	0.0902379791	-75.8014424	0.00860819367999999	123.169164	0.0533882429	-110.661333	0.958862296	-140.776834	
	0.00859562612	123.02165	0.0942883226	-22.9367618	0.958862405	-140.776813	0.0423544978000001	-4.19498158999999	
	
310000000.	0.0531204336	-115.010584	0.958476433	-145.444178	0.0856895367	-82.4579837	0.00880876868	119.115172	
	0.958476459	-145.444171	0.0436444001000001	-7.44894733000019	0.00882197544	119.261263	0.0900436057	-25.3206471	
	0.0856895296	-82.4579919	0.00882197813999999	119.261241	0.0531941561	-115.019085	0.958472886	-145.432315	
	0.0088087505	119.115152	0.0900436028	-25.3206486	0.958472958	-145.4323	0.0437337279	-7.66160209000001	
	
320000000.	0.0527060723999999	-119.348175	0.958110441	-150.102372	0.0808125953	-89.4085339	0.00902798909	115.276746	
	0.958110464	-150.102367	0.0448845757	-11.0074548999999	0.00904181857	115.421826	0.0854980357	-27.4089269	
	0.0808125907	-89.4085371	0.0090418207	115.421813	0.0527908764	-119.360183	0.95811152	-150.090289	
	0.00902798062	115.276746	0.0854980323	-27.4089274	0.95811156	-150.09028	0.0449751639000001	-11.2172789	
	
330000000.	0.0520770415	-123.674145	0.957764172	-154.763247	0.0756650436	-96.7274669	0.00925647889	111.50261	
	0.957764192	-154.763243	0.0459707967000002	-14.6374185	0.00927089858	111.647097	0.0807141996	-29.1357485	
	0.0756650409	-96.7274653	0.00927090013	111.647092	0.0521744974	-123.689564	0.95776958	-154.750936	
	0.00925647975	111.502626	0.0807141961	-29.1357479	0.957769595	-154.750933	0.0460635458	-14.8445966	
	
340000000.	0.0512303252999999	-127.994123	0.957428789	-159.426906	0.0703177769	-104.5127	0.00949768195	107.785483	
	0.957428807	-159.426903	0.0468890027	-18.3221751	0.00951267678	107.929807	0.0757678711	-30.4183241	
	0.0703177754	-104.512694	0.00951267777	107.92981	0.0513419504000001	-128.012815	0.957438263	-159.414359	
	0.00949769172	107.78551	0.0757678678	-30.4183223	0.957438257	-159.414362	0.0469848008999999	-18.526965	
	
350000000.	0.0501637853000001	-132.31455	0.957095452	-164.093376	0.06485946	-112.893499	0.00975521215	104.114414	
	0.957095468	-164.093373	0.0476264525000001	-22.0455135999999	0.00977078647	104.259007	0.0707518589	-31.1536507	
	0.0648594592	-112.893488	0.00977078689	104.259018	0.0502910292999999	-132.336328	0.957108754	-164.080584	
	0.00975523032	104.114449	0.0707518561	-31.1536477	0.957108734	-164.080594	0.0477261764999999	-22.2482382	
	
360000000.	0.0488761954	-136.642905	0.956755493	-168.762606	0.0594035647	-122.039338	0.0100327137	100.474854	
	0.956755508	-168.762604	0.0481718770999998	-25.7912879000001	0.0100488928	100.620131	0.0657810638	-31.2166433	
	0.0594035642	-122.039323	0.0100488927	100.620149	0.0490204257000001	-136.667524	0.956772414	-168.749561	
	0.0100327398	100.474894	0.0657810617	-31.216639	0.956772385	-168.749576	0.0482763900999999	-25.9923374	
	
370000000.	0.0473672905999999	-140.988043	0.956400592	-173.434471	0.0540984154	-132.166623	0.0103336995	96.8490203	
	0.956400606	-173.43447	0.0485156495	-29.5430229	0.0103505305	96.9953638	0.0609985916	-30.4628328	
	0.054098415	-132.166604	0.0103505298	96.9953892	0.0475297791	-141.015181	0.956420948	-173.421165	
	0.0103337329	96.8490619	0.0609985907	-30.4628273	0.956420915	-173.421186	0.0486257963000001	-29.7428635	
	
380000000.	0.0456378331	-145.360683	0.956022942	-178.10878	0.0491402208	-143.533832	0.0106613782	93.2165728	
	0.956022956	-178.10878	0.0486499699000001	-33.2834967	0.0106789295	93.3643147	0.0565817907	-28.7418437	
	0.0491402204	-143.53381	0.0106789282	93.3643469	0.0458197423	-145.389907	0.956046573	-178.095202	
	0.0106614183	93.2166138	0.0565817911	-28.741837	0.956046541	-178.095228	0.0487665687999999	-33.4826861000001	
	
390000000.	0.0436896973999999	-149.774129	0.955615402	177.214726	0.0447859859	-156.403078	0.0110184832	89.5555647	
	0.955615416	177.214725	0.0485690681	-36.9942781	0.0110368427	89.7049701	0.052744899	-25.9313553	
	0.0447859855	-156.403053	0.0110368408	89.7050088	0.0438920675000001	-149.804843	0.955642173	177.228586	
	0.0110185293	89.5556029	0.052744901	-25.9313478	0.955642145	177.228555	0.0486929001	-37.193487	
	
400000000.	0.0415259811999999	-154.245361	0.955171634	172.536361	0.0413551756	-170.932196	0.0114071183	85.8435694	
	0.955171648	172.536359	0.0482694263999998	-40.6551950000002	0.0114263909	85.9948271	0.0497314732	-22.0002252	
	0.0413551753	-170.932168	0.0114263885	85.9948717	0.0417497173	-154.27672	0.955201433	172.550513	
	0.0114071699	85.8436034	0.049731477	-22.0002174	0.955201414	172.550477	0.0484012216	-40.8552371	
	
410000000.	0.0391511530000001	-158.796715	0.954686223	167.856488	0.0391966685	173.018976	0.0118286336	82.0588714	
	0.954686237	167.856486	0.0477500308	-44.243706	0.0118489367	82.2120894	0.0477872168	-17.0922042	
	0.0391966688	173.019006	0.0118489337	82.2121395	0.0393970116	-158.827478	0.954718959	167.870944	
	0.01182869	82.0589003	0.0477872224	-17.0921969	0.954718952	167.870903	0.0478904518000001	-44.4455770999999	
	
420000000.	0.0365712556999999	-163.458539	0.954154773	163.175512	0.0385990238	156.065201	0.0122835398	78.1815827	
	0.954154787	163.175509	0.0470126607000001	-47.7341369999998	0.0123049987	78.3367909	0.0471093461	-11.5815241	
	0.0385990247	156.065234	0.0123049951	78.3368461	0.0368398290999999	-163.486829	0.954190378	163.190282	
	0.0122836004	78.181606	0.0471093533	-11.5815183	0.954190385	163.190237	0.0471622833	-47.9390679	
	
430000000.	0.0337942069000001	-168.273555	0.953573984	158.493868	0.0396718271	139.205538	0.0127714678	74.1945667	
	0.953573999	158.493865	0.0460622380000002	-51.0967427999997	0.0127942104	74.3517268	0.0477882397	-6.02498826	
	0.0396718288	139.205574	0.0127942061	74.3517866	0.034085902	-168.29643	0.95361241	158.508963	
	0.0127715318	74.1945844	0.0477882483	-6.02498457	0.953612434	158.508914	0.0462215271	-51.3062693000001	
	
440000000.	0.0308302777	-173.304297	0.952941702	153.812013	0.0422927644	123.397515	0.0132911712	70.0840906	
	0.952941717	153.812009	0.0449072598	-54.296545	0.013315323	70.2431097	0.0497766395	-0.996300549000003	
