!!!!!!!!!!!!!!!!!!!!!!!!!!!!!!!!!!!!!!!!!!!!!!!!!!!!!!!!!!!!!!!!!!!!!!!!!!!!!!!!!!!!!!!!!
!!
!! Reference: shanbhag_3dj_03_2305.pdf
!!
!!!!!!!!!!!!!!!!!!!!!!!!!!!!!!!!!!!!!!!!!!!!!!!!!!!!!!!!!!!!!!!!!!!!!!!!!!!!!!!!!!!!!!!!!
!!
!! CHANNEL DESCRIPTION: TP0_TP1a C2M Channel, Cabled Host
!! MODEL DESCRIPTION: s4p, FEXT2
!! CONNECTOR DESCRIPTION: OSFP 200G OTB
!! MODEL STATUS: Developmental
!!
!! PORT DEFINITIONS: 
!! Port   1    ----->  Side A	      Side B  <-----  Port   2
!! Port   3    ----->  Side A	      Side B  <-----  Port   4
!!
# HZ S MA R 50.000000 


0.	0.0187617642	10.9220098	0.000202216068	176.028196	0.00964999357	45.5364149	0.000163414977	176.08791	
	0.000202212347	176.028195	0.0183373687	11.3682161	0.000272992152	176.288485	0.00982107311	46.5713259	
	0.00964981368	45.53778	0.000272999654	176.288488	0.0184200380000001	10.737896	0.000201604101	176.271939	
	0.000163416242	176.087909	0.00982140333	46.5709795	0.000201604293	176.271937	0.0183440637999999	10.8462141	
	
10000000.	0.0211791733	12.0360109	0.000284676907	173.56166	0.0183988752	56.1013525	0.000228544188	173.822284	
	0.000284676815	173.561593	0.0213055869000001	11.520073	0.000369089425	173.877365	0.0186082178	56.0658454	
	0.0183990872	56.0999126	0.000369089155	173.87738	0.0212583748	11.5817516	0.000284882621	174.150616	
	0.000228544004	173.822317	0.0186082157	56.0658282	0.000284882684	174.150604	0.0212989674000001	11.0320472	
	
20000000.	0.0256276438	14.6120271	0.00036333537	166.946291	0.0346459155	59.0227869	0.000290878131	167.601381	
	0.000363334875	166.946083	0.0261033531	13.1199279	0.000461489882	167.782407	0.0348143961	58.27214	
	0.034645986	59.0220387	0.000461490357	167.782758	0.0255930729	13.8870207	0.000365495984	168.319734	
	0.000290877888	167.601445	0.0348144156	58.2724191	0.000365495891	168.319717	0.0260196549	12.6180707	
	
30000000.	0.0297366939	13.8656969	0.000437042185	160.40313	0.0509285354	54.8320235	0.000349856129	161.496872	
	0.000437041803	160.403109	0.0309486987999999	10.8847136	0.000549842563	161.802533	0.050744094	53.4529075	
	0.0509285935	54.8315384	0.000549842694	161.802543	0.0296049067	13.1036201	0.000443089441	162.6094	
	0.000349855837	161.496884	0.0507440972	53.4529021	0.000443089483	162.609396	0.0307968511000001	10.3687261	
	
40000000.	0.0334703678000001	11.7482638	0.000504864645	154.020635	0.0666732384	48.9569086	0.000404972012	155.560579	
	0.000504864372	154.020632	0.0355037496999999	6.79032970000002	0.000633767589	155.975217	0.0658477873	46.9220709	
	0.0666732577	48.9565674	0.000633766929	155.975241	0.0331934421999999	10.986346	0.000517400443	157.046235	
	0.000404971726	155.560589	0.0658477663	46.9220561	0.00051740059	157.046226	0.0352828136000001	6.25586916999998	
	
50000000.	0.0368735341999999	9.15823108000002	0.000566112474	147.854356	0.0815437346	42.5070903	0.000455886417	149.827551	
	0.00056611211	147.854368	0.0397826397000001	1.85465174	0.000712973024	150.308187	0.079816224	39.7669466	
	0.0815437359	42.5068147	0.000712972568	150.308214	0.0364569401	8.46010060999999	0.000588234754	151.634522	
	0.000455886118	149.827557	0.079816211	39.7669463	0.000588234888	151.634514	0.0394904918000001	1.30719478	
	
60000000.	0.0400184316000001	6.29725349999998	0.000620273459	141.973352	0.0952539246	35.7954168	0.000502395803	144.347496	
	0.000620273069	141.973377	0.0437661456999999	-3.64185109000001	0.000787248067	144.831361	0.0924039731	32.2900989	
	0.0952539218	35.7951941	0.000787247693	144.831374	0.0394785684000001	5.68938372999999	0.000655487565	146.398252	
	0.000502395467	144.347509	0.0924039604	32.2901008	0.000655487675	146.398248	0.0434018168	-4.19812325	
	
70000000.	0.0429450509	3.22207082	0.000667230725	136.44907	0.107533434	28.9579049	0.000544570847	139.169179	
	0.000667230318	136.449106	0.0474130417	-9.55448428	0.00085664549	139.575202	0.103393291	24.6209112	
	0.107533421	28.9577209	0.000856645081	139.575216	0.042300047	2.71470818	0.000719272108	141.360364	
	0.000544570575	139.169208	0.103393276	24.6209185	0.000719272217	141.360361	0.046976576	-10.1169686	
	
80000000.	0.0456730435999999	0.0336180317000001	0.000707412859	131.34055	0.118155189	22.0777586	0.00058283806	134.325038	
	0.000707412013	131.340537	0.0506640701000001	-15.7118138	0.000921600344	134.554969	0.112619172	16.8378481	
	0.118155164	22.0776076	0.000921600026	134.554991	0.0449406741000001	-0.371651947999999	0.000779988398	136.529213	
	0.000582837459	134.325085	0.11261916	16.8378601	0.000779988498	136.529209	0.0501561769000001	-16.2789093	
	
90000000.	0.0482206135999999	-3.26255238000001	0.000741693637	126.707075	0.126918581	15.1900125	0.000617891283	129.842703	
	0.000741694201	126.707137	0.0534770103	-22.0351034	0.000982774468	129.784597	0.119950388	8.97059748	
	0.126918549	15.1898841	0.000982774301	129.784622	0.0474170297999999	-3.56935454000001	0.000838213233	131.910294	
	0.000617890792	129.842656	0.119950379	8.97060886	0.000838213318	131.910288	0.0528990455	-22.6059489	
	
100000000.	0.0505883162999999	-6.69354992000001	0.000771488909	122.602952	0.133644367	8.31267014	0.000650722048	125.739444	
	0.000771488673	122.602991	0.0558146563999999	-28.4812949	0.00104110028	125.273028	0.125281425	1.0305983	
	0.13364433	8.31256068	0.00104109999	125.273044	0.0497275777999999	-6.90818308000001	0.000894717191	127.503002	
	0.000650721834	125.739469	0.125281413	1.03059975	0.000894717288	127.502993	0.0551687573	-29.0556297	
	
110000000.	0.0526514525999999	-10.5484701	0.000799124991	119.159275	0.138044731	1.28449167	0.000683964899	122.082135	
	0.000799124181	119.159295	0.0578428396000001	-34.9230793	0.00109803693	121.079314	0.12904544	-6.94644375	
	0.138044696	1.2843969	0.0010980386	121.079357	0.0517617261	-10.6648606	0.000951155927	123.338322	
	0.000683966363	122.082189	0.129045484	-6.94643027	0.000951156779	123.338299	0.0571436103	-35.4925054	
	
120000000.	0.0544558369	-14.4898287	0.000827162785	116.284908	0.140143372	-5.70935147	0.000718063508	118.769291	
	0.000827161473	116.284933	0.0593293122999999	-41.3395627000001	0.00115505649	117.127085	0.130749478	-14.9317503	
	0.140143339	-5.7094346	0.00115505982	117.127116	0.0535490473	-14.5352104	0.00100811768	119.349066	
	0.000718066322	118.769317	0.130749562	-14.9317261	0.00100811889	119.349019	0.0585751102	-41.905755	
	
130000000.	0.0559808515999999	-18.575146	0.000858690412	113.925694	0.139873373	-12.6714402	0.000754706544	115.74156	
	0.000858688777	113.925739	0.0602477763	-47.7249048	0.00121379752	113.387547	0.130360478	-22.9322587	
	0.139873342	-12.6715138	0.00121380208	113.387542	0.0550585691999999	-18.5682892	0.00106676942	115.502492	
	0.000754710259	115.741528	0.13036059	-22.9322254	0.00106677062	115.502422	0.0594385941999999	-48.2889546000001	
	
140000000.	0.0571949323	-22.841763	0.000896930613	111.959218	0.137238374	-19.6033287	0.000795552255	112.907402	
	0.000896928889	111.959289	0.0605842877	-54.0552208	0.00127592912	109.813754	0.127904908	-30.9548882	
	0.137238345	-19.603394	0.00127593443	109.813702	0.0562542589	-22.7931798	0.0011282415	111.753649	
	0.000795556389	112.9073	0.127905036	-30.9548471	0.00112824241	111.753566	0.0597212997	-54.617891	
	
150000000.	0.0580384501	-27.3314185	0.000944970754	110.207808	0.132272805	-26.508769	0.000842130839	110.156334	
	0.000944969171	110.207902	0.0603267716000001	-60.3200433999999	0.00134311194	106.3496	0.123429057	-39.0120062	
	0.132272778	-26.5088267	0.00134311751	106.349498	0.0570760421	-27.2456066	0.00119359943	108.053175	
	0.000842134945	110.156169	0.123429192	-39.0119582	0.00119359988	108.053089	0.0594123103	-60.8820743	
	
160000000.	0.0584302647000001	-32.0785352999999	0.00100541026	108.4567	0.125040258	-33.3916042	0.000895716782	107.367613	
	0.001005409	108.456808	0.0594625783	-66.5126285	0.0014169259	102.930528	0.116996747	-47.1212345	
	0.125040234	-33.3916544	0.00141693129	102.930382	0.0574445591	-31.9562936	0.0012637927	104.348483	
	0.000895720493	107.367401	0.116996882	-47.1211802	0.00126379264	104.348406	0.0585001391	-67.0749116000001	
	
170000000.	0.0582988768000001	-37.1020213999999	0.00107983074	106.486016	0.115679216	-40.2553753	0.000957087899	104.421783	
	0.00107982989	106.486127	0.0579957199	-72.6095399000001	0.00149860996	99.484324	0.108734502	-55.3054983	
	0.115679196	-40.255418	0.00149861477	99.484144	0.0572906833	-36.9422575	0.00133948963	100.584959	
	0.000957090952	104.421543	0.108734631	-55.3054382	0.00133948912	100.584897	0.0569895559	-73.1729700999999	
	
180000000.	0.0575654704	-42.4202085	0.00116877916	104.11393	0.104357765	-47.1041933	0.00102654408	101.21808	
	0.00116877876	104.114035	0.0559321486	-78.5879673	0.00158908228	95.9414507	0.0987873787	-63.6008392	
	0.104357749	-47.1042277	0.00158908621	95.9412498	0.0565379803000001	-42.2212063999999	0.00142110236	96.712779	
	0.00102654632	101.217832	0.098787498	-63.6007735	0.00142110151	96.7127366	0.0548872745	-79.1534623999999	
	
190000000.	0.0561515257000001	-48.0490409999999	0.00127179693	101.217438	0.0912717715	-53.9416487	0.00110389375	97.6817559	
	0.00127179693	101.21753	0.0532799577	-84.4173860999999	0.00168887463	92.238943	0.0873181133	-72.0662517	
	0.0912717628	-53.9416731	0.00168887747	92.2387348	0.0551099239	-47.8091226	0.00150875242	92.688907	
	0.00110389514	97.6815154	0.0873182197	-72.0661799	0.00150875141	92.6888846	0.0522021313	-84.9857899999999	
	
200000000.	0.0540063707999999	-54.0055868000001	0.00138735906	97.7387613	0.0766875312	-60.7740681	0.00118835767	93.7687659	
	0.00138735937	97.738837	0.0500692637	-90.0419724	0.0017979087	88.3248865	0.0745520309	-80.8049773	
	0.0766875306	-60.7740793	0.00179791037	88.3246833	0.0529569951999999	-53.7234421000001	0.00160214048	88.4797395	
	0.00118835823	93.7685444	0.0745521225	-80.8048982	0.00160213947	88.4797345	0.0489645429	-90.6134840999999	
	
210000000.	0.0515469972	-60.0418017	0.00150540753	90.2144128	0.0620388899	-66.9671316	0.0012711359	85.9419349	
	0.001505408	90.2144765	0.0463223944	-94.2576540000001	0.00189982546	80.8911748	0.0598761573	-89.1179263	
	0.0620388867	-66.9671442	0.00189982641	80.8909876	0.0505103946	-59.7101983	0.00168868042	80.5611112	
	0.00127113606	85.9417393	0.0598762326	-89.1178362	0.00168867951	80.5611159	0.0451701298	-94.7878152	
	
220000000.	0.0484714365	-66.1125863000001	0.00163000928	82.0789923	0.0465341089	-72.1303321	0.0013574286	77.7027692	
	0.00163000987	82.0790448	0.0422825442	-97.4623999000002	0.00200865255	73.143551	0.0443139177	-97.332996	
	0.0465341035	-72.1303465	0.00200865286	73.1433839	0.0474575137	-65.7236002	0.00177852175	72.4050907	
	0.00135742845	77.7026	0.044313977	-97.3328879	0.001778521	72.4051014	0.0410885335	-97.9081099	
	
230000000.	0.0447861004	-72.1526214000001	0.00175754643	73.4058513	0.0305689885	-74.5920692	0.00144513073	69.08641	
	0.00175754707	73.4058942	0.0381324632	-99.2818821000001	0.00212224714	65.0805978	0.0281488775	-105.241343	
	0.0305689811	-74.592086	0.00212224694	65.080453	0.043804909	-71.6950124	0.00187011376	64.016603	
	0.00144513036	69.086266	0.0281489221	-105.241197	0.00187011319	64.0166167	0.0369082138	-99.5701761999999	
	
240000000.	0.0405081908	-78.0654669999999	0.00188444331	64.2784025	0.0150502966	-65.7418512	0.00153208268	60.1400477	
	0.00188444396	64.2784372	0.0341307186	-99.2309224	0.00223821961	56.7171822	0.0116710425	-111.472381	
	0.0150502873	-65.7418674	0.00223821904	56.7170599	0.0395699712	-77.5219959000001	0.00196176587	55.4110328	
	0.00153208218	60.139927	0.0116710754	-111.472093	0.00196176547	55.4110469	0.0328993416	-99.2447804000002	
	
250000000.	0.0356695144	-83.6957452	0.0020072821	54.7804605	0.00873779073	12.036061	0.00161616141	50.9171143	
	0.00200728272	54.7804882	0.0306405677	-96.7842034999998	0.00235405184	48.0798968	0.00496147712	46.9655246	
	0.00873778788	12.0361151	0.00235405104	48.0797964	0.0347850382	-83.0379669	0.00205172526	46.6116812	
	0.00161616083	50.9170144	0.00496146788	46.9649376	0.002051725	46.6116941	0.0294462014	-96.3609766	
	
260000000.	0.030332955	-88.7802960999999	0.00212279698	44.9958231	0.0219337318	46.9366602	0.00169531713	41.4766502	
	0.00212279755	44.9958449	0.0281457263	-91.6864633999999	0.00246713784	39.2057739	0.0212049661	45.4799731	
	0.0219337358	46.9366758	0.00246713694	39.2056937	0.0295141221	-87.9577588	0.00213822268	37.649529	
	0.00169531654	41.4765688	0.0212049597	45.4798718	0.00213822252	37.6495396	0.0270614382	-90.6750421	
	
270000000.	0.0245852801	-92.7943566000001	0.00222811278	35.001403	0.037411353	48.1620879	0.00176773893	31.8772074	
	0.00222811328	35.0014196	0.0271388468	-84.5267735999999	0.0025750289	30.1361938	0.036962074	37.8774101	
	0.0374113577	48.1620929	0.00257502799	30.1361318	0.0238474616	-91.7077356999999	0.00221962972	28.5590542	
	0.00176773837	31.8771423	0.0369620738	37.8773685	0.00221962964	28.5590621	0.0262553326	-82.9367539	
	
280000000.	0.0185670686	-94.5068726	0.00232079106	24.8671165	0.0525146888	44.0934594	0.00183190698	22.1754426	
	0.00232079147	24.8671285	0.0278948253	-76.9831751000002	0.00267551058	20.9142502	0.0519387108	29.7242244	
	0.052514693	44.0934607	0.00267550976	20.9142043	0.0179360821	-92.9310518000001	0.00229451907	19.3764864	
	0.00183190648	22.1753917	0.0519387149	29.7242048	0.00229451904	19.3764915	0.0272768455	-75.0741917999999	
	
290000000.	0.0125955885	-90.3736912000002	0.00239882779	14.6597392	0.0667251808	38.3843646	0.00188662578	12.4277346	
	0.0023988281	14.659747	0.0302929411	-70.9438285	0.00276664759	11.5849209	0.0658789336	21.4106723	
	0.0667251839	38.3843643	0.00276664693	11.5848893	0.012133765	-87.7116559999995	0.00236171749	10.1398814	
	0.00188662538	12.4276962	0.0658789399	21.4106633	0.00236171748	10.1398839	0.02994333	-69.0552846000001	
	
300000000.	0.00778015146000004	-68.2591804999993	0.00246076655	4.4399456	0.0797517132	31.9766314	0.00193109198	2.68688241	
	0.00246076674	4.43994949	0.0339082491	-67.3311976999998	0.00284689242	2.19132211	0.0785645616	13.0342027	
	0.0797517149	31.9766303	0.00284689196	2.19130288	0.00769238725000002	-63.3988532999998	0.00242036952	0.886143814	
	0.00193109169	2.68685515	0.078564568	13.0341992	0.00242036952	0.886143818	0.0337826092	-65.6718919999999	
	
310000000.	0.00780093896999991	-21.0529760000003	0.00250567169	-5.73566583	0.0913764568	25.2190331	0.00196488071	-6.99736051	
	0.00250567175	-5.73566564	0.0382632432	-66.0698064000001	0.00291506159	-7.22546766	0.089810854	4.63054148	
	0.091376457	25.2190317	0.00291506136	-7.22547592	0.0082227736900001	-18.1879605999998	0.00246992661	-8.34930893	
	0.00196488054	-6.99737787	0.0898108585	4.63054084	0.00246992663	-8.34931124	0.0383041398	-64.7015576	
	
320000000.	0.0128607857000001	1.47241429999999	0.00253317871	-15.8113962	0.101414026	18.2718137	0.00198799522	-16.5767154	
	0.00253317862	-15.8113996	0.0429544617	-66.6676091	0.00297043114	-16.6256028	0.0994547152	-3.7856865	
	0.101414024	18.2718124	0.00297043116	-16.6256012	0.0133420492	2.01361203	0.00251021853	-17.5325021	
	0.00198799518	-16.5767238	0.0994547164	-3.78568594	0.00251021856	-17.5325067	0.0431105438	-65.5770065	
	
330000000.	0.0193679491999999	5.59959709000002	0.00254345783	-25.7332721	0.10972321	11.2190892	0.00200081255	-26.0059335	
	0.00254345758	-25.7332789	0.047689723	-68.6114761000001	0.00301265082	-25.9718645	0.107371501	-12.2084393	
	0.109723207	11.2190881	0.00301265108	-25.971854	0.0197757789	5.66216852999999	0.00254137941	-26.6321237	
	0.00200081265	-26.0059338	0.107371497	-12.2084387	0.00254137946	-26.6321307	0.0479199594	-67.7622882	
	
340000000.	0.0261907358	3.67704789	0.00253722029	-35.4465153	0.116199081	4.11028042	0.00200407509	-35.2416571	
	0.00253721986	-35.4465254	0.052262063	-71.4944789999999	0.0030417436	-35.2284837	0.11346992	-20.6362058	
	0.116199076	4.11027957	0.00304174413	-35.2284649	0.0265072229	3.65092945	0.00256383884	-35.6190697	
	0.00200407534	-35.2416499	0.113469911	-20.6362058	0.00256383893	-35.6190793	0.0525342322	-70.8497032999999	
	
350000000.	0.0329973733	-0.687897003	0.00251573825	-44.8938964	0.12076631	-3.02320573	0.00199888951	-44.2423376	
	0.00251573763	-44.8939096	0.0565244904	-75.0226135	0.00305811347	-44.3607098	0.117686131	-29.0716275	
	0.120766304	-3.02320618	0.00305811426	-44.3606832	0.0332194621000001	-0.715160147999999	0.00257832113	-44.4667386	
	0.00199888991	-44.2423234	0.117686116	-29.0716288	0.00257832124	-44.4667512	0.0568127156	-74.5509513	
	
360000000.	0.0396220751000001	-6.26638644999998	0.00248086979	-54.0152152	0.123385913	-10.1590079	0.0019866983	-52.9687287	
	0.00248086897	-54.0152313	0.0603726491	-78.9872434000001	0.00306252085	-53.3342836	0.119990206	-37.5192606	
	0.123385906	-10.1590079	0.00306252192	-53.3342494	0.039749248	-6.27222958	0.00258579924	-53.1509944	
	0.00198669887	-52.968708	0.119990185	-37.5192637	0.00258579938	-53.1510104	0.060655335	-78.6638793999999	
	
370000000.	0.0459438291999999	-12.5446794	0.00243511682	-62.7459813	0.124048052	-17.2787825	0.00196927919	-61.3840247	
	0.00243511579	-62.7460001	0.063730866	-83.2415373	0.00305610382	-62.1142344	0.120378879	-45.9855153	
	0.124048045	-17.2787819	0.00305610518	-62.1141929	0.0459762783999999	-12.52366	0.00258748653	-61.649821	
	0.00196927994	-61.3839982	0.120378852	-45.9855206	0.00258748668	-61.6498409	0.0639892497	-83.0471315	
	
380000000.	0.0518597895999999	-19.2753991	0.0023816941	-71.0205955	0.122776347	-24.3661531	0.00194873862	-69.4572325	
	0.00238169285	-71.0206165	0.0665462169	-87.6799770000001	0.0030404119	-70.6661211	0.118879937	-54.4794766	
	0.12277634	-24.3661519	0.00304041359	-70.6660727	0.0517980983	-19.2270996	0.00258482988	-69.9449608	
	0.00194873956	-69.4572008	0.118879904	-54.4794845	0.00258483001	-69.9449849	0.0667634115	-87.5994159	
	
390000000.	0.0572739284	-26.3258169	0.00232460215	-78.7753167	0.119623652	-31.4030235	0.00192749312	-77.1652639	
	0.00232460069	-78.7753395	0.0687807862	-92.2252844000001	0.00301744436	-78.9553816	0.115547856	-63.0122303	
	0.119623644	-31.4030216	0.0030174464	-78.9553267	0.0571190441000001	-26.2512478	0.0025794906	-78.0217319	
	0.00192749427	-77.1652278	0.115547818	-63.0122412	0.00257949068	-78.0217604	0.0689411815	-92.2465317	
	
400000000.	0.0620922974	-33.6177226	0.00226869889	-85.9558745	0.114665258	-38.3662536	0.00190825558	-84.4970781	
	0.0022686972	-85.9558984	0.070405635	-96.8190586999999	0.00298973231	-86.9483212	0.110457126	-71.5980313	
	0.114665251	-38.3662509	0.00298973476	-86.9482604	0.0618456082	-33.5181355	0.00257335408	-85.8700329	
	0.00190825695	-84.4970387	0.110457084	-71.5980457	0.00257335407	-85.8700659	0.070494601	-96.9321967	
	
410000000.	0.066193206	-41.1205726	0.00221654643	-92.6390689	0.10801346	-45.238332	0.00189135993	-91.5563409	
	0.00221654451	-92.6390931	0.0713366443	-101.426517	0.00295578261	-94.7222201	0.103693528	-80.2529617	
	0.108013453	-45.2383285	0.00295578548	-94.7221543	0.0658585513	-40.9969885	0.00256513528	-93.5851408	
	0.00189136152	-91.5562992	0.103693484	-80.2529801	0.00256513514	-93.5851779	0.071341534	-101.625364	
	
420000000.	0.0695452926	-48.7877151	0.00217744534	-98.740938	0.0998109869	-51.9655175	0.00188242248	-98.285221	
	0.00217744317	-98.7409615	0.0716308809	-105.978711	0.00292394589	-102.157681	0.0954131066	-89.0045845	
	0.0998109805	-51.965513	0.00292394923	-102.157612	0.0691249550000001	-48.6410962	0.00256049565	-101.079637	
	0.00188242431	-98.2851787	0.0954130603	-89.0046076	0.00256049535	-101.079678	0.0715385831	-106.255505	
	
430000000.	0.07207141	-56.5942924000001	0.00215758413	-104.339125	0.0902102703	-58.4778778	0.00188423874	-104.746157	
	0.00215758172	-104.339147	0.0712850687	-110.432719	0.00289829995	-109.250908	0.085761066	-97.892958	
	0.0902102648	-58.4778721	0.0028983038	-109.250836	0.0715681972999999	-56.4251848	0.00256166935	-108.371828	
	0.00188424081	-104.746116	0.0857610192	-97.8929868	0.00256166884	-108.371871	0.0710833478	-110.779709	
	
440000000.	0.0737094985	-64.5226828	0.00216237016	-109.58833	0.0794064439	-64.6626113	0.00189912575	-111.032991	
	0.0021623675	-109.588348	0.0703111937	-114.739776	0.00288314832	-116.023138	0.074921862	-106.982847	
	0.0794064395	-64.6626042	0.00288315269	-116.023068	0.0731266537	-64.3311801000001	0.00257077016	-115.494882	
