!!!!!!!!!!!!!!!!!!!!!!!!!!!!!!!!!!!!!!!!!!!!!!!!!!!!!!!!!!!!!!!!!!!!!!!!!!!!!!!!!!!!!!!!!
!!
!! Reference: shanbhag_3dj_03_2305.pdf
!!
!!!!!!!!!!!!!!!!!!!!!!!!!!!!!!!!!!!!!!!!!!!!!!!!!!!!!!!!!!!!!!!!!!!!!!!!!!!!!!!!!!!!!!!!!
!!
!! CHANNEL DESCRIPTION: TP0_TP1a C2M Channel, PCB Host
!! MODEL DESCRIPTION: s4p, FEXT2
!! CONNECTOR DESCRIPTION: OSFP 200G SMT
!! MODEL STATUS: Developmental
!!
!! PORT DEFINITIONS: 
!! Port   1    ----->  Side A	      Side B  <-----  Port   2
!! Port   3    ----->  Side A	      Side B  <-----  Port   4
!!

# HZ S MA R 50.000000 


0.	0.00735296538999997	5.95866119000003e-13	9.03016373e-05	-180	0.000462817948	-7.2133492e-13	6.31474694e-05	-180	
	9.03002155e-05	-180	0.00684844688000008	3.29837711999996e-13	0.000145931533	-180	0.00044283928	6.59946241e-13	
	0.000461969093	-7.22706943e-13	0.000145936499	-180	0.0069721842099999	8.16356427000012e-13	9.05359274e-05	-180	
	6.3148003e-05	-180	0.0004429283	6.59832652e-13	9.05352914e-05	-180	0.00683419204999991	1.60802455000002e-13	
	
10000000.	0.00762843243999999	9.70302803000001	0.000141329121	-133.608884	0.00562386084	82.6611177	0.000101440773	-132.381877	
	0.000141328928	-133.609008	0.00762303422999993	9.05635380000008	0.000191339071	-143.462881	0.00560590089	82.0312013	
	0.00562386073	82.6611175	0.000191339082	-143.462855	0.00773039465999994	10.0413027000001	0.000142362145	-133.353879	
	0.000101440875	-132.381837	0.00560590119	82.0312006	0.000142362111	-133.353892	0.00762669772000006	9.14191095999993	
	
20000000.	0.0083847252300001	15.0303951999998	0.000234916627	-120.333745	0.0111996616	82.357776	0.000170556217	-119.444981	
	0.00023491632	-120.33395	0.00843320290000001	13.5936607	0.000286797625	-128.068002	0.0111608265	80.9358637	
	0.0111996273	82.3578851	0.000286799063	-128.067729	0.00850137096999996	14.6738573000001	0.000237159655	-120.125666	
	0.000170556208	-119.444918	0.0111608426	80.9362029	0.00023715919	-120.125621	0.0084418629300001	13.7289750999998	
	
30000000.	0.00906576254000006	18.7571011999999	0.000336822008	-117.085536	0.0167574015	80.5028341	0.000245381929	-116.44226	
	0.000336821771	-117.085554	0.00942643835000007	16.5177695999999	0.000397220176	-122.741359	0.0166927157	78.3549312	
	0.0167574018	80.50284	0.000397220374	-122.741399	0.0091931357800001	18.3418064999998	0.000340272012	-116.90999	
	0.00024538192	-116.442254	0.0166927213	78.3549442	0.000340272003	-116.909978	0.00944319832000004	16.7120222999999	
	
40000000.	0.00979065913000002	21.5783354999999	0.000440830396	-117.151042	0.022281794	78.2712611	0.000321591721	-116.659271	
	0.000440830325	-117.151045	0.0104992272999999	17.9274224000002	0.000512480922	-121.418111	0.022188696	75.4016092	
	0.0222817937	78.2712602	0.000512480825	-121.418081	0.00988715351999995	21.0333878000001	0.000445494605	-116.986813	
	0.000321591679	-116.659278	0.0221886911	75.4016149	0.000445494616	-116.986822	0.0105247417	18.1499527	
	
50000000.	0.0105207882999999	23.6759889000002	0.000545254561	-118.649254	0.0277632109	75.888421	0.000398024031	-118.258204	
	0.000545254524	-118.649255	0.0116650847999999	18.2523630000002	0.000629425726	-121.953709	0.0276384844	72.3023504	
	0.0277632108	75.8884209	0.000629425798	-121.953695	0.0105819548999999	23.1474709000002	0.000551150274	-118.487325	
	0.000398023941	-118.258212	0.0276384837	72.3023547	0.000551150282	-118.487327	0.0116993851999999	18.4927667000001	
	
60000000.	0.0112520895	25.2540765	0.00064940584	-120.884241	0.0331918578	73.4312238	0.000474201306	-120.565022	
	0.000649405875	-120.884239	0.0129107407999999	17.7249565000001	0.000746758098	-123.478235	0.0330324619	69.1321773	
	0.0331918579	73.4312237	0.000746758084	-123.478236	0.0112850995	24.8092768	0.000656551674	-120.719908	
	0.000474201227	-120.565026	0.0330324629	69.1321773	0.000656551712	-120.719906	0.0129539657	17.9768099000001	
	
70000000.	0.0119834336000001	26.4400508999998	0.000752915843	-123.542778	0.0385583803	70.9331971	0.000549863599	-123.27759	
	0.000752915954	-123.542773	0.0142239034	16.5443061	0.000863831071	-125.58278	0.0383612482	65.9233146	
	0.0385583803	70.933197	0.000863830999	-125.58278	0.0119966727999999	26.1063429000002	0.000761332546	-123.373413	
	0.000549863643	-123.277592	0.0383612486	65.9233167	0.000761332604	-123.373409	0.0142759731	16.8031839000001	
	
80000000.	0.0127148275999999	27.3284104000002	0.000855549469	-126.46384	0.0438537578	68.4112027	0.000624841201	-126.240907	
	0.00085554884	-126.463833	0.0155956381	14.8658221	0.000980269731	-128.052205	0.0436157458	62.691945	
	0.0438537579	68.4112026	0.000980269745	-128.052201	0.0127167259999999	27.1115617000002	0.000865257818	-126.287942	
	0.000624841211	-126.240873	0.043615747	62.6919515	0.00086525788	-126.287939	0.0156563121999999	15.1289894000001	
	
90000000.	0.0134480407999999	27.9891195000002	0.000957129826	-129.556478	0.0490692493	65.8746669	0.000699008117	-129.367451	
	0.000957130769	-129.556513	0.0170190457000001	12.8093164	0.00109583168	-130.763072	0.0487871559	59.4470919	
	0.0490692493	65.8746668	0.00109583178	-130.763069	0.0134461753999999	27.8817472000002	0.000968156951	-129.373004	
	0.000699007316	-129.367473	0.0487871586	59.4470977	0.00096815702	-129.373003	0.0170880415000001	13.0751488999999	
	
100000000.	0.0141860511000001	28.4724230999999	0.0010575279	-132.765001	0.0541964128	63.3293074	0.000772264786	-132.603818	
	0.00105752804	-132.765	0.0184886417999999	10.4678933	0.00121034935	-133.63964	0.0538669912	56.1941864	
	0.0541964126	63.3293076	0.00121034927	-133.63964	0.0141865935999999	28.4610283000002	0.00106989718	-132.573524	
	0.000772264817	-132.603821	0.053866991	56.1941828	0.00106989729	-132.573527	0.0185657026000001	10.7353567	
	
110000000.	0.0149744640999999	28.5698091000002	0.00115651881	-136.053649	0.0592274609	60.780534	0.000844454011	-135.915707	
	0.00115651841	-136.053641	0.0199788259999999	7.84816469000003	0.00132353471	-136.632799	0.0588471947	52.9367509	
	0.0592274646	60.7805385	0.00132353643	-136.632848	0.0149671692999999	28.7182031000001	0.0011702885	-135.853959	
	0.000844455457	-135.915769	0.0588472192	52.9367215	0.00117028887	-135.853981	0.0200770183	8.10473133999999	
	
120000000.	0.01573814	28.6116559	0.00125414701	-139.397116	0.0641544945	58.228163	0.000915601283	-139.278683	
	0.00125414622	-139.397097	0.0215116028999999	5.11584351000002	0.0014354945	-139.708105	0.0637198374	49.6772014	
	0.0641545017	58.2281696	0.00143549732	-139.7082	0.0157421670999999	28.8844307000001	0.00126933957	-139.189693	
	0.000915603603	-139.278799	0.0637198785	49.6771599	0.00126934	-139.189726	0.0216258455999999	5.36189553000003	
	
130000000.	0.0164973109000001	28.6342864999999	0.00135034308	-142.779602	0.0689700263	55.6742611	0.000985653163	-142.677543	
	0.00135034206	-142.779573	0.0230844984000001	2.29379241999999	0.00154617345	-142.84359	0.0684775526	46.4169812	
	0.0689700365	55.6742684	0.00154617681	-142.843723	0.0165243546	28.9871111999999	0.00136697939	-142.564667	
	0.000985655922	-142.677702	0.0684776049	46.4169356	0.00136697978	-142.564703	0.0232110619	2.53145263	
	
140000000.	0.0172692856	28.6436646000001	0.00144504503	-146.189682	0.0736669908	53.1202438	0.00105456211	-146.101277	
	0.0014450439	-146.189643	0.0246942474000001	-0.595279096999998	0.00165553017	-146.023488	0.0731133322	43.1571242	
	0.0736670035	53.1202511	0.00165553363	-146.023647	0.0173251877	29.0354999	0.00146314689	-145.967319	
	0.00105456499	-146.101466	0.0731133917	43.1570793	0.0014631472	-145.967355	0.0248304155999999	-0.363653375000001	
	
150000000.	0.0180682114000001	28.6304964999998	0.00153819841	-149.618867	0.0782387145	50.5670945	0.00112228657	-149.541693	
	0.00153819728	-149.618822	0.0263373525	-3.53061247999999	0.00176353495	-149.236222	0.0776205381	39.8983733	
	0.0782387291	50.5671013	0.00176353822	-149.236397	0.0181546758	29.0284313	0.00155778986	-149.389116	
	0.00112228932	-149.5419	0.0776206021	39.8983317	0.00155779007	-149.389149	0.0264811575999999	-3.30302693000001	
	
160000000.	0.0189053099	28.5786591	0.0016297562	-153.060717	0.082678898	48.015501	0.00118879084	-152.992566	
	0.00162975515	-153.060667	0.0280103233	-6.49411883999999	0.00187016812	-152.473132	0.081992909	36.6412589	
	0.082678914	48.015507	0.001870171	-152.473314	0.0190213808	28.958968	0.00165086411	-152.823633	
	0.00118879332	-152.992781	0.0819929753	36.6412219	0.00165086422	-152.823661	0.0281603472	-6.26911761	
	
170000000.	0.0197892626	28.4699918	0.00171967858	-156.510259	0.0869816041	45.4659426	0.00125404491	-156.449084	
	0.00171967767	-156.510207	0.0297097701999999	-9.47051369000002	0.00197541862	-155.72765	0.0862245608	33.3861518	
	0.0869816209	45.4659478	0.00197542099	-155.727832	0.0199324728	28.8173553	0.00174233268	-156.265949	
	0.00125404703	-156.449298	0.0862246277	33.3861199	0.0017423327	-156.265972	0.0298650009000001	-9.24717075999997	
	
180000000.	0.0207266167	28.2869947	0.00180793248	-159.963603	0.0911412498	42.9187482	0.00131802405	-159.907474	
	0.00180793173	-159.963551	0.031432434	-12.4471629	0.00207928281	-158.99474	0.0903099857	30.1333006	
	0.0911412671	42.9187524	0.00207928463	-158.994916	0.0208938140999999	28.5929529000001	0.00183216514	-159.712246	
	0.00131802577	-159.907682	0.0903100519	30.133274	0.00183216508	-159.712264	0.0315921614	-12.2250034	
	
190000000.	0.0217221611	28.0142615	0.00189449106	-163.417675	0.0951526001	40.3741353	0.00138070847	-163.364751	
	0.0018944905	-163.417624	0.0331751883	-15.4138041	0.00218176333	-162.270514	0.094244049	26.8828588	
	0.0951526173	40.3741385	0.0021817646	-162.27068	0.0219100606	28.2754920999999	0.00192033687	-163.15953	
	0.00138070978	-163.364947	0.0942441134	26.8828372	0.00192033676	-163.159543	0.0333389297999999	-15.1927084	
	
200000000.	0.0227792527000001	27.6391266999999	0.00197933314	-166.870023	0.0990107616	37.8322374	0.00144208281	-166.818525	
	0.00197933277	-166.869974	0.0349350322	-18.3622312	0.002282868	-165.551957	0.0980219847	23.6349045	
	0.0990107784	37.8322398	0.00228286876	-165.55211	0.0229847712000001	27.8558585999999	0.00200682844	-166.605428	
	0.00144208374	-166.818706	0.0980220464	23.6348874	0.00200682828	-166.605437	0.0351024782999999	-18.1423436	
	
210000000.	0.0239000876	27.151829	0.00206244256	-170.31868	0.102711178	35.2931242	0.00150213573	-170.266874	
	0.00206244237	-170.318634	0.0367090806	-21.2859842	0.00238260883	-168.836729	0.101639391	20.3894556	
	0.102711194	35.2931258	0.00238260914	-168.836868	0.0241205185	27.3265318	0.00209162492	-170.048051	
	0.0015021363	-170.267038	0.101639449	20.3894427	0.00209162473	-170.048057	0.0368800557000001	-21.0676362	
	
220000000.	0.0250859203	26.5453896	0.00214380757	-173.762058	0.106249625	32.7568159	0.00156085939	-173.708237	
	0.00214380754	-173.762017	0.0384945561999999	-24.1800666	0.00248100105	-172.123017	0.105092225	17.1464819	
	0.10624964	32.7568168	0.00248100097	-172.123141	0.0253189975000001	26.6817765999999	0.00217471531	-173.485882	
	0.00156085966	-173.708384	0.10509228	17.1464725	0.0021747151	-173.485885	0.0386689887999999	-23.9637145	
	
230000000.	0.0263372352000001	25.8153366999999	0.00222342023	-177.19887	0.109622205	30.2232944	0.00161824912	-177.141342	
	0.00222342035	-177.198833	0.0402887822999999	-27.0406954000001	0.00257806217	-175.409424	0.1083768	13.9059138	
	0.109622218	30.2232947	0.00257806178	-175.409532	0.0265811281	25.91766	0.00225609199	-176.917695	
	0.00161824914	-177.141471	0.10837685	13.9059074	0.00225609177	-176.917696	0.0404666829	-26.8268726	
	
240000000.	0.0276538802	24.9593637	0.00230127589	179.371935	0.112825344	27.6925123	0.00167430296	179.43486	
	0.00230127611	179.371967	0.0420891788	-29.8650865	0.00267381122	-178.69488	0.111489776	10.6676497	
	0.112825356	27.692512	0.00267381061	-178.694972	0.027907148	25.0319528	0.0023357502	179.657504	
	0.00167430278	179.434748	0.111489821	10.6676457	0.00233574998	179.657504	0.0422706225999999	-29.6543676000001	
	
250000000.	0.0290351684000001	23.9769733999999	0.00237737266	175.951219	0.115855788	25.1643992	0.00172902135	176.021238	
	0.00237737296	175.951246	0.0438932598	-32.6512727	0.00276826796	178.021425	0.114428163	7.43156218	
	0.115855799	25.1643985	0.00276826721	178.021348	0.0292966978000001	24.0239598999999	0.00241368762	176.240527	
	0.00172902104	176.021143	0.114428202	7.43156013	0.00241368741	176.240528	0.0440783728999999	-32.4442475000001	
	
260000000.	0.0304799564999999	22.8691400000001	0.00245171104	172.539696	0.118710599	22.638868	0.00178240689	172.61852	
	0.00245171139	172.539717	0.0456986323	-35.3979511	0.00286145225	174.74009	0.117189308	4.19750235	
	0.118710608	22.638867	0.00286145142	174.740027	0.0307488958999999	22.8943151000001	0.00248990398	172.832044	
	0.00178240649	172.618441	0.117189343	4.19750177	0.00248990379	172.832046	0.0458875807	-35.1952061	
	
270000000.	0.0319867063999999	21.6380039000001	0.00252429353	169.137961	0.121387153	20.115819	0.00183446405	169.227323	
	0.00252429388	169.137977	0.0475029970000001	-38.1043559999999	0.00295338343	171.461553	0.119770902	0.965303786	
	0.121387161	20.1158179	0.00295338261	171.461504	0.0322624045	21.6447629	0.00256440076	169.432612	
	0.00183446361	169.227259	0.119770931	0.965304235	0.0025644006	169.432614	0.0476959773	-37.9064625	
	
280000000.	0.0335535337999999	20.2866052	0.00259512433	165.746518	0.123883138	17.5951444	0.00188519903	165.848179	
	0.00259512465	165.74653	0.0493041493	-40.7701542	0.00304407991	168.186121	0.122170968	-2.26521455	
	0.123883144	17.595143	0.00304407915	168.186084	0.0338354878	20.2779457	0.0026371809	166.042701	
	0.00188519859	165.848128	0.122170991	-2.26521345	0.00263718077	166.042702	0.0495013807999999	-40.5776600000001	
	
290000000.	0.0351782483	18.8186571	0.00266420913	162.3658	0.126196552	15.0767306	0.00193461961	162.481549	
	0.00266420939	162.365807	0.0510999810999999	-43.3953591000001	0.00313355869	164.914	0.124387861	-5.49424585	
	0.126196556	15.0767291	0.00313355805	164.913974	0.0354660630000001	18.7972060999999	0.00270824862	162.662711	
	0.00193461922	162.481511	0.124387879	-5.49424445	0.00270824852	162.662711	0.0513016992	-43.2087842	
	
300000000.	0.0368583882000001	17.2383557	0.00273155494	158.996185	0.128325703	12.5604621	0.00198273507	159.127844	
	0.00273155511	158.996188	0.0528884829	-45.9802607	0.00322183507	161.645316	0.126420269	-8.72199358	
	0.128325706	12.5604606	0.00322183461	161.645301	0.0371517449	17.2064092	0.00277760924	159.292993	
	0.00198273477	159.127817	0.126420281	-8.72199218	0.00277760918	159.292991	0.0530949329	-45.8000947	
	
310000000.	0.0385912509	15.5502236	0.00279716994	155.63801	0.130269208	10.0462233	0.00202955612	155.787435	
	0.00279716998	155.63801	0.054667746	-48.5253683999999	0.00330892239	158.380139	0.128267204	-11.94867	
	0.130269209	10.0462218	0.00330892215	158.380133	0.0388898852000001	15.5097893	0.0028452691	155.933856	
	0.00202955593	155.787418	0.12826721	-11.9486688	0.00284526908	155.933853	0.0548791778	-48.3520704000001	
	
320000000.	0.0403739199	13.7589814	0.00286106344	152.291583	0.132025992	7.53390055	0.00207509486	152.460664	
	0.00286106332	152.291579	0.0564359641	-51.0313654	0.0033948318	155.118492	0.129928005	-15.1744949	
	0.132025992	7.53389904	0.00339483181	155.118494	0.0406776073000001	13.7118189	0.00291123548	152.585583	
	0.0020750948	152.460655	0.129928007	-15.1744943	0.0029112355	152.585578	0.0566526278	-50.8653649	
	
330000000.	0.0422032901	11.8694452	0.00292324581	148.957192	0.133595293	5.02338434	0.00211936477	149.147847	
	0.00292324552	148.957185	0.0581914355000001	-53.4990725999999	0.00347957214	151.860367	0.131402334	-18.399695	
	0.133595292	5.02338289	0.00347957244	151.860376	0.0425118366000001	11.8171012	0.00297551658	149.248437	
	0.00211936487	149.147846	0.13140233	-18.399695	0.00297551663	149.24843	0.0584135765	-53.3407705	
	
340000000.	0.0440760913	9.88644391	0.0029837285	145.635112	0.134976657	2.51457066	0.00216238076	145.849286	
	0.00298372801	145.635102	0.0599325631	-55.9294193	0.00356314983	148.605738	0.132690171	-21.6245028	
	0.134976654	2.51456929	0.00356315045	148.605754	0.0443893278	9.83028219000001	0.00303812148	145.922668	
	0.00216238103	145.849292	0.132690162	-21.6245037	0.00303812157	145.922659	0.0601604187	-55.7791905	
	
350000000.	0.0459889091	7.81475573	0.00304252408	142.325609	0.136169943	0.00736243584	0.00220415912	142.565271	
	0.00304252337	142.325598	0.0616578551	-58.3234212	0.00364556883	145.354565	0.133791817	-24.8491568	
	0.13616994	0.00736116255	0.00364556978	145.354586	0.0463066890999999	7.75598121000002	0.00309906021	142.60852	
	0.00220415957	142.565282	0.133791803	-24.8491587	0.00309906033	142.608508	0.0618916507	-58.1816161999999	
	
360000000.	0.0479382049999999	5.65905838000001	0.00309964625	139.028949	0.137175325	-2.49832925	0.0022447176	139.296083	
	0.00309964531	139.028936	0.0633659237	-60.6821624000001	0.00372683056	142.106803	0.134707885	-28.0739006	
	0.13717532	-2.49833042	0.00372683186	142.106829	0.0482604031000001	5.59873700999999	0.00315834379	139.306235	
	0.00224471824	139.296098	0.134707867	-28.0739035	0.00315834392	139.30622	0.0636058694999999	-60.5491101000001	
	
370000000.	0.0499203347999999	3.42389243	0.00315510993	135.7454	0.137993289	-5.00258412	0.00228407545	136.041995	
	0.00315510874	135.745386	0.0650554833	-63.0067826000001	0.00380693398	138.862409	0.135439304	-31.2989831	
	0.137993284	-5.00258518	0.00380693564	138.862439	0.0502468459999999	3.36296724000001	0.00321598426	136.016053	
	0.00228407628	136.042014	0.135439282	-31.2989871	0.00321598439	136.016036	0.0653017712	-62.8827924000001	
	
380000000.	0.0519315649000001	1.11363472	0.00320893135	132.475232	0.138624642	-7.5054718	0.00232225341	132.803278	
	0.00320892991	132.475216	0.0667253467	-65.2984668	0.00388587556	135.621348	0.135987314	-34.5246585	
	0.138624636	-7.50547274	0.00388587758	135.621381	0.0522623047000001	1.05293893	0.00327199479	132.738224	
	0.00232225443	132.8033	0.135987287	-34.5246637	0.00327199491	132.738204	0.0669781476	-65.1838311	
	
390000000.	0.0539680874999999	-1.26751984	0.00326112817	129.218723	0.139070507	-10.0070511	0.00235927379	129.580197	
	0.00326112647	129.218707	0.0683744203	-67.5584383000001	0.00396364934	132.383591	0.13635346	-37.7511861	
	0.1390705	-10.0070519	0.00396365174	132.383627	0.054302991	-1.32725176	0.00332638977	129.472999	
	0.002359275	129.580222	0.136353429	-37.7511926	0.00332638987	129.472976	0.0686338817	-67.4534339999999	
	
400000000.	0.0560260348	-3.71556949	0.00331171953	125.97616	0.139332328	-12.5073692	0.00239516047	126.373016	
	0.00331171758	125.976144	0.0700016982	-69.7879526	0.00404024705	129.149128	0.136539596	-40.9788313	
	0.139332321	-12.5073699	0.00404024982	129.149166	0.0563650558	-3.77369245	0.0033791849	126.220641	
	0.00239516187	126.373043	0.136539562	-40.9788389	0.00337918497	126.220615	0.0702679416	-69.6928433999999	
	
410000000.	0.0581014906000001	-6.22671140999999	0.00336072625	122.747839	0.13941187	-15.0064615	0.00242993897	123.181996	
	0.00336072404	122.747823	0.0716062542	-71.9882942	0.00411565812	125.917963	0.136547878	-44.207865	
	0.139411861	-15.0064622	0.00411566125	125.918003	0.0584446005999999	-6.28266137000001	0.00343039732	122.98142	
	0.00242994054	123.182024	0.136547841	-44.2078739	0.00343039734	122.981391	0.0718793731	-71.9033320000001	
	
420000000.	0.0601905022000001	-8.79734299999999	0.00340817087	119.534069	0.139311219	-17.504351	0.00246363644	120.007393	
	0.00340816841	119.534053	0.0731872326	-74.1607731	0.00418986984	122.69012	0.136380762	-47.4385649	
	0.13931121	-17.5043515	0.00418987334	122.690161	0.0605376879999999	-8.85062961000001	0.0034800457	119.755618	
	0.00246363817	120.007422	0.136380722	-47.438575	0.00348004565	119.755587	0.0734672906	-74.0861993000001	
	
430000000.	0.0622890899	-11.4240598	0.00345407786	116.335166	0.139032785	-20.0010479	0.00249628169	116.849464	
	0.00345407514	116.33515	0.0747438377	-76.3067225	0.00426286748	119.465646	0.136041	-50.6712157	
	0.139032776	-20.0010483	0.00426287133	119.465688	0.0626403516999999	-11.4742596	0.00352815038	116.543527	
	0.00249628357	116.849493	0.136040958	-50.671227	0.00352815025	116.543494	0.0750308666	-76.2427692	
	
