!!!!!!!!!!!!!!!!!!!!!!!!!!!!!!!!!!!!!!!!!!!!!!!!!!!!!!!!!!!!!!!!!!!!!!!!!!!!!!!!!!!!!!!!!
!!
!! Reference: shanbhag_3dj_03_2305.pdf
!!
!!!!!!!!!!!!!!!!!!!!!!!!!!!!!!!!!!!!!!!!!!!!!!!!!!!!!!!!!!!!!!!!!!!!!!!!!!!!!!!!!!!!!!!!!
!!
!! CHANNEL DESCRIPTION: TP0_TP1a C2M Channel, PCB Host
!! MODEL DESCRIPTION: s4p, THRU
!! CONNECTOR DESCRIPTION: OSFP 200G SMT
!! MODEL STATUS: Developmental
!!
!! PORT DEFINITIONS: 
!! Port   1    ----->  Side A	      Side B  <-----  Port   2
!! Port   3    ----->  Side A	      Side B  <-----  Port   4
!!

# HZ S MA R 50.000000 


0.	0.00744941647000008	-1.16969645999999e-12	0.992054137	-1.4066639e-14	0.000461670494	-3.72639227e-11	0.000412023338	180	
	0.992073615	-1.40666483e-14	0.00798615763999999	-1.57364121e-12	0.000419595564	-180	0.000459040265	-2.47351912e-11	
	0.000461568962	-3.72704039e-11	0.000419604711	-180	0.00786756604000005	-1.23925964999999e-12	0.99179196	7.47829232e-14	
	0.000412252496	180	0.000458192487	-2.47810702e-11	0.991856946	7.47829382e-14	0.00761245352999995	8.78313130000006e-13	
	
10000000.	0.00819192104999992	7.17045028000007	0.991617117	-3.16953792	0.00575183849	81.7389841	0.000638282592	-134.85623	
	0.991617118	-3.1695378	0.00821651204999992	7.56223069000007	0.000638566878	-134.827503	0.00575873954	82.6744449	
	0.00575183869	81.7389833	0.000638566726	-134.827502	0.0082937591700001	7.52994823999991	0.991386895	-3.17255924	
	0.000638282613	-134.856227	0.00575873944	82.6744447	0.991386894	-3.17255909	0.00832254706000004	7.85359268999996	
	
20000000.	0.00894245723000002	10.4684892	0.991025586	-6.31433937	0.0114478186	80.4954792	0.00104424956	-121.291984	
	0.991026215	-6.31415799	0.00887357495000004	11.4610418999998	0.00104635557	-121.274983	0.011468616	82.1623007	
	0.0114477913	80.4953114	0.00104636605	-121.273983	0.00910809122000006	10.7748227999999	0.990744481	-6.31534211	
	0.0010442555	-121.291737	0.0114685819	82.1624087	0.990746226	-6.31506363	0.00899644193000008	11.0840425999999	
	
30000000.	0.00986245802000005	12.5190737999999	0.990440134	-9.45291308	0.017117461	77.7358441	0.00148873553	-117.767602	
	0.990440312	-9.45290703	0.00941979491000005	14.1252786999998	0.00149090574	-117.758256	0.0171561308	80.1473782	
	0.017117458	77.7358523	0.00149090785	-117.758337	0.0100160743	12.3222897999999	0.990149588	-9.45087445	
	0.00148873566	-117.767612	0.0171561311	80.147384	0.990149832	-9.45086937	0.00955235472999991	13.6679018000001	
	
40000000.	0.0108606854000001	13.2953169999999	0.989825465	-12.5875126	0.0227451097	74.595522	0.00194048442	-117.586994	
	0.989825312	-12.5875123	0.00998178389000005	16.1857735000001	0.00194323828	-117.596192	0.0228042507	77.7682054	
	0.0227451109	74.5955182	0.00194323762	-117.596131	0.0109957408	12.9740266	0.98954429	-12.5831665	
	0.00194048422	-117.587037	0.0228042503	77.7682045	0.989544127	-12.5831646	0.0100830526999999	15.5603963000001	
	
50000000.	0.0119547908999999	13.1456604000001	0.989170252	-15.7185916	0.0283186648	71.3056595	0.00239306623	-118.865758	
	0.989170216	-15.7185912	0.010528158	17.7553893000002	0.00239595311	-118.888344	0.0284014084	75.2430963	
	0.0283186646	71.3056581	0.00239595319	-118.888324	0.0120709388	12.7903914	0.988905945	-15.7125374	
	0.00239306629	-118.865766	0.0284014083	75.2430962	0.988905913	-15.7125368	0.0105915532	17.1011434	
	
60000000.	0.0131344492999999	12.2448070000001	0.988470614	-18.8463218	0.0338265118	67.9428991	0.00284344944	-120.895942	
	0.988470623	-18.8463239	0.0110592608	18.9923196000002	0.00284616595	-120.924101	0.0339359207	72.6466634	
	0.033826512	67.9428993	0.00284616528	-120.9241	0.0132320563	11.9063759	0.988225557	-18.8390231	
	0.00284345014	-120.895938	0.0339359208	72.6466633	0.988225565	-18.8390255	0.0110902925999999	18.3830484000001	
	
70000000.	0.0143885245999999	10.7536142000001	0.987725767	-21.9707181	0.0392573533	64.5402771	0.00329020728	-123.354315	
	0.987725763	-21.9707184	0.0115776249000001	19.9921362999994	0.0032925373	-123.382599	0.039396605	70.0114969	
	0.0392573533	64.5402769	0.00329253729	-123.382593	0.0144699948000001	10.4560037999999	0.987500054	-21.962512	
	0.00329020719	-123.354315	0.039396605	70.0114968	0.987500051	-21.9625125	0.0115835508	19.4653574000001	
	
80000000.	0.0157083099000001	8.80429847999995	0.9869369	-25.0917244	0.0446002755	61.114395	0.00373260078	-126.074887	
	0.986936903	-25.0917207	0.0120863613999999	20.8261438000001	0.00373439739	-126.099182	0.0447726826	67.3540429	
	0.0446002749	61.1143948	0.00373439912	-126.099185	0.0157761715999999	8.55514630000004	0.986729686	-25.0828533	
	0.00373259892	-126.074878	0.0447726826	67.3540428	0.986729694	-25.0828499	0.0120749524	20.3978545	
	
90000000.	0.0170866139999999	6.50293408000003	0.986106432	-28.2092614	0.0498447579	57.6745019	0.00417022452	-128.964015	
	0.986106461	-28.2092563	0.0125900922999999	21.5472143000002	0.00417141536	-128.981367	0.0500537343	64.6835436	
	0.0498447571	57.674502	0.0041714177	-128.981382	0.0171429421	6.30264194000001	0.985916536	-28.1999013	
	0.00417022197	-128.963996	0.0500537343	64.6835435	0.985916567	-28.1998965	0.012568657	21.2184931999999	
	
100000000.	0.0185173301	3.93462091999999	0.985237531	-31.3232478	0.05498069	54.2261534	0.00460288764	-131.965013	
	0.985237536	-31.3232475	0.0130945959	22.1920254000008	0.00460345546	-131.973556	0.0552297277	62.0056452	
	0.0549806896	54.2261529	0.00460345585000001	-131.973558	0.0185638929000001	3.78074625999999	0.985063702	-31.3135289	
	0.00460288715	-131.96501	0.0552297275	62.0056453	0.985063708	-31.3135283	0.0130692974	21.9554197	
	
110000000.	0.0199767774999999	1.09458195	0.984337084	-34.4325914	0.0599979488	50.7727911	0.00502884664	-135.063835	
	0.984337111	-34.4325863	0.0136506487999998	22.5240102000002	0.00502700194	-135.067024	0.060291617	59.3256716	
	0.0599979306	50.7727738	0.00502700727	-135.067073	0.0200313993	0.980398384	0.984167208	-34.4234803	
	0.00502880963	-135.06402	0.0602916208	59.3256759	0.984167544	-34.423457	0.0136107784	22.4521333999999	
	
120000000.	0.0214818948	-1.84559907	0.983405442	-37.5385985	0.0648878584	47.3171644	0.00544970165	-138.199519	
	0.983405489	-37.53859	0.0141819834000002	22.8698479999998	0.00544596002	-138.187755	0.0652298034	56.643515	
	0.0648878256	47.3171354	0.00544596845	-138.187836	0.0215393384	-1.93167199	0.983241669	-37.5298006	
	0.00544963597	-138.199813	0.0652298109	56.6435212	0.983242234	-37.5297611	0.0141473871000001	22.9319765999998	
	
130000000.	0.0230296138	-4.86434127	0.982446976	-40.6411293	0.0696417646	43.8606303	0.00586596619	-141.363287	
	0.982447039	-40.6411182	0.0147116472999998	23.2662870000004	0.00586095981	-141.332685	0.0700354992	53.961304	
	0.0696417201	43.8605929	0.00586097007	-141.332787	0.0230858416000001	-4.92756761999998	0.982291095	-40.6324533	
	0.00586587863	-141.363645	0.0700355099	53.9613108	0.982291811	-40.6324022	0.0146947134	23.4166265000001	
	
140000000.	0.0246158854999999	-7.94010593000004	0.981466382	-43.740094	0.07425147	40.4041429	0.00627802148	-144.549564	
	0.981466457	-43.740081	0.0152602666	23.7130836999998	0.0062723775	-144.499624	0.0747004481	51.2805196	
	0.0742514166	40.4040997	0.00627238870999999	-144.499738	0.0246679421	-7.98302854999999	0.98131971	-43.7314171	
	0.00627791786	-144.549955	0.0747004612	51.2805262	0.981320519	-43.7313576	0.0152672597000001	23.9058443999998	
	
150000000.	0.0262362957000001	-11.0531347	0.980468448	-46.8354438	0.0787092523	36.9483651	0.00668614737	-147.754702	
	0.98046853	-46.8354296	0.0158453475999999	24.1890136000001	0.00668042424	-147.686765	0.0792168934	48.6022126	
	0.0787091923	36.9483178	0.00668043580000001	-147.686886	0.0262820986	-11.0772913	0.980331853	-46.8266878	
	0.00668603264	-147.755106	0.0792169084	48.6022186	0.980332709	-46.8266226	0.0158780292	24.3855460999999	
	
160000000.	0.0278863498000001	-14.1861861	0.979457927	-49.9271643	0.0830078724	33.493742	0.00709054176	-150.976284	
	0.979458014	-49.9271492	0.0164811587999998	24.6619044000003	0.00708520217	-150.892545	0.0835775592	45.9271398	
	0.0830078082	33.4936922	0.00708521368000001	-150.892667	0.0279244852999999	-14.1928667	0.979331891	-49.9182803	
	0.00709042015	-150.976687	0.0835775756	45.9271451	0.979332759	-49.9182113	0.0165382858	24.8333515000001	
	
170000000.	0.0295616026	-17.3247048	0.978439464	-53.0152704	0.0871405774	30.0405521	0.00749133215	-154.212709	
	0.978439553	-53.0152549	0.0171788614	25.0953574999999	0.0074867382	-154.115616	0.0877756378	43.2558517	
	0.0871405109	30.0405009	0.00748674937	-154.115737	0.0295911562	-17.3152388	0.978324156	-53.0062284	
	0.00749120724	-154.213101	0.087775655	43.255856	0.978325011	-53.0061574	0.0172574204	25.2227651	
	
180000000.	0.0312577152000001	-20.4566961999999	0.977417541	-56.0998028	0.0911010982	26.5889425	0.00788858171	-157.462932	
	0.97741763	-56.0997871	0.0179467602	25.4533777000001	0.00788500262	-157.354844	0.0918047796	40.5887503	
	0.0911010313	26.5888909	0.00788501328000001	-157.354962	0.0312781419000001	-20.4325228999999	0.977312891	-56.0905848	
	0.00788845654	-157.463307	0.0918047972	40.5887537	0.977313713	-56.090513	0.0180429041000001	25.5264382999999	
	
190000000.	0.0329704795999999	-23.5724702000001	0.976396443	-59.1808248	0.0948836462	23.1389555	0.00828229192	-160.72629	
	0.976396528	-59.1808092	0.0187906183999998	25.7034600000002	0.00827991795	-160.609306	0.0956590858	37.9261297	
	0.0948835805	23.1389044	0.00827992799000001	-160.609419	0.0329815071	-23.5351167	0.976302205	-59.17142	
	0.00828216901	-160.726642	0.0956591033	37.9261322	0.976302979	-59.1713488	0.018900324	25.7186478000001	
	
200000000.	0.0346958275999999	-26.6643381	0.975380229	-62.2584194	0.0984829075	19.6905479	0.00867240285	-164.002374	
	0.975380311	-62.2584041	0.0197140034000001	25.8184311	0.00867136134	-163.878265	0.0993331011	35.268204	
	0.0984828443	19.690498	0.00867137069	-163.878372	0.0346973865999999	-26.6153686000001	0.975296035	-62.2488217	
	0.0086722843	-164.002701	0.0993331182	35.2682056	0.975296751	-62.2487521	0.0198334896999999	25.7770278000001	
	
210000000.	0.0364298339	-29.7263118	0.974372721	-65.3326873	0.101894036	16.2436053	0.00905879233	-167.290939	
	0.974372798	-65.3326724	0.020718636	25.7772806000001	0.00905916335	-167.161139	0.102821807	32.6151282	
	0.101893977	16.2435574	0.00905917199000001	-167.161239	0.0364220090000001	-29.6672738999999	0.974298119	-65.3228931	
	0.00905867983	-167.291238	0.102821823	32.6151291	0.974298771	-65.3228259	0.0208445938	25.6835972	
	
220000000.	0.038168718	-32.7538252	0.973377482	-68.4037445	0.105112648	12.7979543	0.00944127467	-170.591823	
	0.973377554	-68.4037302	0.0218047224999999	25.5652218000001	0.00944310487	-170.457465	0.106120616	29.9670144	
	0.105112593	12.7979088	0.00944311279	-170.457557	0.0381517113999999	-32.6862054000001	0.973311976	-68.3937512	
	0.00944116958	-170.592093	0.106120631	29.9670146	0.97331256	-68.3936872	0.0219344059999999	25.4251700000001	
	
230000000.	0.0399088436	-35.7434879999999	0.972397817	-71.4717204	0.108134813	9.35337076	0.00981959969	-173.90489	
	0.972397883	-71.4717067	0.0229712534999999	25.1732248000001	0.00982291368	-173.766844	0.109225366	27.3239433	
	0.108134763	9.35332827	0.00982292091	-173.766928	0.039882951	-35.6686787	0.972340887	-71.4615258	
	0.00981950307	-173.905129	0.10922538	27.323943	0.972341402	-71.4614657	0.0231024806	24.993276	
	
240000000.	0.0416467202	-38.6928730000001	0.971436762	-74.5367558	0.11095705	5.90958703	0.0101934524	-177.229973	
	0.971436822	-74.5367429	0.024216261	24.5972390000001	0.0101982615	-177.0889	0.112132312	24.6859748	
	0.110957006	5.909548	0.0101982681	-177.088976	0.0416123127000001	-38.6121510999999	0.971387888	-74.5263576	
	0.010193365	-177.230182	0.112132325	24.685974	0.971388334	-74.526302	0.0243473607999999	24.3837418000001	
	
250000000.	0.0433790034	-41.6003362	0.970497085	-77.5990013	0.11357632	2.46629744	0.0105624537	179.433168	
	0.970497139	-77.5989892	0.0255370325	23.8372878	0.0105687624	179.576768	0.114838128	22.0531558	
	0.113576282	2.46626227	0.0105687683	179.5767	0.043336515	-41.5148512	0.97045576	-77.5883969	
	0.0105623761	179.432989	0.114838139	22.0531547	0.970456139	-77.5883463	0.0256667668	23.5960716	
	
260000000.	0.0451024964	-44.4648659	0.969581288	-80.6586158	0.11599002	-0.976837621	0.0109261623	176.084881	
	0.969581337	-80.6586046	0.0269302815000001	22.8965594	0.0109339723	176.230629	0.117339895	19.4255277	
	0.115989987	-0.976868602	0.0109339776	176.230569	0.0450524145000001	-44.3756351999999	0.969547026	-80.6478021	
	0.0109260948	176.084731	0.117339904	19.4255263	0.969547342	-80.6477568	0.027057762	22.6327486	
	
270000000.	0.0468141514	-47.285958	0.968691606	-83.715765	0.118195978	-4.42018858	0.0112840784	172.725652	
	0.968691649	-83.7157547	0.0283922826	21.7805756	0.0112933909	172.873255	0.119635105	16.8031321	
	0.118195951	-4.42021509	0.0112933956	172.873204	0.04675701	-47.1938681	0.968663953	-83.7047384	
	0.0112840212	172.725529	0.119635113	16.8031305	0.968664209	-83.7046987	0.0285168930999999	21.4985413000001	
	
280000000.	0.0485110704	-50.0635138	0.967830014	-86.7706202	0.12019245	-7.86415442	0.0116356478	169.356129	
	0.967830053	-86.7706107	0.0299189745999998	20.4964771000001	0.0116464646	169.505353	0.121721653	14.1860164	
	0.120192429	-7.86417624	0.0116464688	169.505311	0.048447445	-49.9693246000001	0.967808548	-86.7593764	
	0.0116356009	169.356033	0.121721659	14.1860147	0.96780875	-86.7593426	0.0300403052	20.1998714	
	
290000000.	0.0501905069	-52.7977558999999	0.966998229	-89.8233566	0.121978113	-11.3091612	0.0119802683	165.977139	
	0.966998263	-89.8233482	0.0315060392	19.052439	0.0119925919	166.127791	0.123597838	11.5742391	
	0.121978097	-11.3091781	0.0119925955	166.127757	0.0501210101	-52.7021079999999	0.966982565	-89.8118912	
	0.0119802314	165.977068	0.123597842	11.5742374	0.966982717	-89.8118635	0.0316238347	18.7442701	
	
300000000.	0.0518498666	-55.4891610999999	0.966197716	-92.8741531	0.123552065	-14.7556613	0.0123172965	162.589704	
	0.966197746	-92.8741456	0.0331489609	17.4572107	0.0123311296	162.741611	0.125262362	8.96787421	
	0.123552053	-14.7556732	0.0123311326	162.741585	0.051775145	-55.3925844000001	0.966187504	-92.862461	
	0.0123172695	162.589656	0.125262365	8.96787251	0.966187613	-92.8624396	0.0332630816999999	17.139933	
	
310000000.	0.0534867078	-58.1384061	0.965429692	-95.9231901	0.124913816	-18.204133	0.0126460564	159.195042	
	0.965429719	-95.9231835	0.0348430723	15.7197668	0.0126614008	159.34805	0.126714329	6.36701595	
	0.124913809	-18.20414	0.0126614032	159.348032	0.053407439	-58.0413292	0.965424619	-95.9112663	
	0.012646039	159.195016	0.12671433	6.36701431	0.965424691	-95.9112511	0.0349534666999999	15.3953706	
	
320000000.	0.0550987408	-60.7463245999999	0.964695136	-98.9706494	0.126063289	-21.6550814	0.0129658482	155.794579	
	0.964695159	-98.9706438	0.0365835885000001	13.8490503	0.0129827038	155.948542	0.127953244	3.77178294	
	0.126063286	-21.6550833	0.0129827057	155.948532	0.0550156318	-60.6490843	0.964694922	-98.9584885	
	0.0129658399	155.794573	0.127953244	3.77178141	0.964694962	-98.9584796	0.0366902746	13.5191428	
	
330000000.	0.0566838274	-63.3138733000001	0.963994789	-102.016713	0.127000817	-25.1090387	0.0132759585	152.38995	
	0.963994809	-102.016708	0.0383656344999999	11.8537919	0.0132943224	152.544728	0.128979019	1.18232257	
	0.127000817	-25.1090355	0.0132943238	152.544725	0.0565976119	-63.2167243	0.963999185	-102.004309	
	0.0132759589	152.389962	0.128979017	1.18232116	0.963999199	-102.004307	0.0384686879	11.519666	
	
340000000.	0.0582399783	-65.8421062000001	0.963329164	-105.061562	0.127727138	-28.5665658	0.0135756707	148.982994	
	0.963329182	-105.061558	0.0401842664	9.74238687999994	0.0135955361	149.138452	0.129791968	-1.40118484	
	0.12772714	-28.5665576	0.0135955368	149.138456	0.0581514157	-65.74523	0.963337951	-105.04891	
	0.0135756792	148.983023	0.129791965	-1.4011861	0.963337946	-105.048914	0.0402838135000001	9.40507883999999	
	
350000000.	0.0597653497	-68.332154	0.962698553	-108.105375	0.128243393	-32.0282545	0.0138642758	145.575759	
	0.96269857	-108.105372	0.042034488	7.52281837999997	0.0138856316	145.731765	0.130392813	-3.97852164	
	0.128243397	-32.0282414	0.0138856318	145.731776	0.0596752235	-68.2356679	0.962711538	-108.09247	
	0.0138642919	145.575803	0.130392809	-3.97852274	0.962711518	-108.092479	0.0421307022000001	7.18315316999999	
	
360000000.	0.0612582388	-70.7852093999999	0.962103032	-111.14833	0.128551125	-35.4947295	0.0141410845	142.170491	
	0.962103047	-111.148328	0.0439112661000002	5.20261287999999	0.0141639147	142.326922	0.130782687	-6.54942849	
	0.128551129	-35.4947117	0.0141639142	142.32694	0.0611673559	-70.6891745	0.962120044	-111.135166	
	0.0141411077	142.170549	0.130782682	-6.54942941	0.962120015	-111.135181	0.0440043653999999	4.86124107000001	
	
370000000.	0.0627170775	-73.2025158000001	0.961542469	-114.190599	0.128652274	-38.9666518	0.0144054385	138.769637	
	0.961542482	-114.190598	0.0458095412999999	2.78882102	0.0144297219	138.926374	0.130963133	-9.11359974	
	0.128652278	-38.9666294	0.0144297208	138.926398	0.0626262667	-73.1069447	0.961563359	-114.177171	
	0.0144054681	138.769707	0.130963127	-9.11360049	0.961563326	-114.177191	0.0458997876999999	2.44624771000001	
	
380000000.	0.0641404245	-75.5853592999999	0.961016531	-117.232353	0.128549176	-42.4447221	0.0146567225	135.375836	
	0.961016544	-117.232353	0.0477242391999998	0.288015698999994	0.014682433	135.532767	0.130936107	-11.6706786	
	0.128549181	-42.4446954	0.0146824312	135.532797	0.0640505361	-75.4902231	0.961041167	-117.218655	
	0.014656758	135.375916	0.1309361	-11.6706792	0.961041135	-117.218681	0.0478119374000001	-0.0553764818999999	
	
390000000.	0.0655269556999999	-77.9350627000002	0.960524695	-120.273756	0.128244564	-45.9296853	0.0148943766	131.991916	
	0.960524708	-120.273756	0.0496502793000002	-2.29369768000003	0.0149214832	132.148936	0.130703984	-14.2202521	
	0.128244567	-45.9296544	0.0149214807	132.148971	0.0654388609	-77.8402974999999	0.96055296	-120.259782	
	0.0148944174	131.992005	0.130703976	-14.2202525	0.960552933	-120.259813	0.049735776	-2.63763016	
	
400000000.	0.0668754534	-80.2529817999999	0.960066256	-123.314965	0.127741559	-49.4223353	0.0151179086	128.620884	
	0.960066268	-123.314966	0.0515825832000002	-4.95066273999993	0.0151463757	128.777896	0.130269555	-16.7618452	
	0.127741561	-49.4223006	0.0151463726	128.777937	0.0667900435	-80.1584946	0.960098045	-123.30071	
	0.015117954	128.620981	0.130269547	-16.7618455	0.960098026	-123.300746	0.0516662657999999	-5.29494611000001	
	
410000000.	0.0681847932	-82.5405022999998	0.959640333	-126.356133	0.127043674	-52.9235212	0.0153269058	125.265927	
	0.959640345	-126.356135	0.0535160823	-7.67764843000002	0.0153566942	125.42284	0.129636032	-19.2949155	
	0.127043674	-52.9234829	0.0153566903	125.422885	0.0681029793	-82.446176	0.959675551	-126.341593	
	0.0153269555	125.26603	0.129636023	-19.2949156	0.959675544	-126.341633	0.0535983769	-8.02217022	
	
420000000.	0.06945393	-84.799037	0.959245885	-129.397406	0.126154807	-56.4341539	0.0155210484	121.930396	
	0.959245897	-129.397409	0.0554457251	-10.4698224	0.0155521152	122.087127	0.128807047	-21.8188459	
	0.126154805	-56.4341122	0.0155521106	122.087176	0.0693766422	-84.7047357	0.959284446	-129.382575	
	0.0155211016	121.930505	0.128807038	-21.8188458	0.959284454	-129.382619	0.0555270947	-10.8145368	
	
430000000.	0.0706818823	-87.0300247000001	0.958881719	-132.43892	0.125079244	-59.9552143	0.0157001208	118.617805	
	0.958881732	-132.438924	0.0573664842	-13.3227227	0.0157324205	118.774273	0.127786653	-24.3329377	
	0.125079239	-59.9551696	0.0157324152	118.774326	0.0706100696	-86.9355977	0.958923542	-132.423793	
	0.0157001772	118.617918	0.127786644	-24.3329374	0.958923567	-132.423841	0.0574474256000001	-13.6676421	
	
440000000.	0.071867716	-89.2349271999999	0.958546502	-135.480805	0.12382165	-63.4877625	0.0158640247	115.331815	
	0.958546516	-135.480809	0.0592733626999998	-16.2322296000001	0.0158975097	115.487944	0.126579324	-26.8364025	
	0.123821643	-63.487715	0.0158975037	115.488001	0.0718023453	-89.1402130999999	0.958591511	-135.465376	
