!!!!!!!!!!!!!!!!!!!!!!!!!!!!!!!!!!!!!!!!!!!!!!!!!!!!!!!!!!!!!!!!!!!!!!!!!!!!!!!!!!!!!!!!!
!!
!! Reference: shanbhag_3dj_03_2305.pdf
!!
!!!!!!!!!!!!!!!!!!!!!!!!!!!!!!!!!!!!!!!!!!!!!!!!!!!!!!!!!!!!!!!!!!!!!!!!!!!!!!!!!!!!!!!!!
!!
!! CHANNEL DESCRIPTION: TP0_TP1a C2M Channel, PCB Host
!! MODEL DESCRIPTION: s4p, FEXT2
!! CONNECTOR DESCRIPTION: OSFP 200G SMT
!! MODEL STATUS: Developmental
!!
!! PORT DEFINITIONS: 
!! Port   1    ----->  Side A	      Side B  <-----  Port   2
!! Port   3    ----->  Side A	      Side B  <-----  Port   4
!!
# HZ S MA R 50.000000 


0.	0.0156408171	2.89383086e-13	8.88034845e-05	-180	0.000455402368	-9.0762741e-13	6.21028178e-05	-180	
	8.88020907e-05	-180	0.0151434534999999	1.46683491000001e-13	0.00014349626	-180	0.000435594348	6.59784537e-13	
	0.000454567637	-9.09340448e-13	0.000143501163	-180	0.0152636671999999	3.90903702000001e-13	8.90328786e-05	-180	
	6.21033424e-05	-180	0.000435684272	6.59667396e-13	8.90322445e-05	-180	0.0151289138999999	7.14311586000003e-14	
	
10000000.	0.0161425131999999	2.21451928000001	0.000138919398	-138.347168	0.0117947738	81.7725618	9.95916334e-05	-136.823055	
	0.00013891921	-138.347295	0.0162956227000001	1.23460505999999	0.00018714609	-147.933185	0.0117215643	80.2863377	
	0.0117947737	81.7725617	0.0001871461	-147.933158	0.0162388097	2.37381569	0.000139609167	-137.501835	
	9.9591735e-05	-136.823017	0.0117215646	80.2863373	0.000139609133	-137.501848	0.0162988491000001	1.27409453	
	
20000000.	0.0168620001000001	2.40793413999999	0.000229743633	-129.896557	0.0233984524	76.8848808	0.000166729511	-128.309483	
	0.000229743338	-129.896764	0.0176270472	0.179531789	0.000278718563	-136.703752	0.0232393174	73.858816	
	0.0233984228	76.8849452	0.000278719987	-136.703473	0.0169668924000001	2.22154161999999	0.000231827902	-128.312324	
	0.000166729502	-128.309421	0.0232393404	73.8591097	0.00023182744	-128.312283	0.0176353657999999	0.242302968000002	
	
30000000.	0.0172778078	2.01892689	0.000326456737	-131.399155	0.0346888564	71.2869564	0.000238295054	-129.673736	
	0.000326456506	-131.399176	0.0192853893000001	-2.00577902999999	0.000383678539	-135.466194	0.0344321399	66.7422649	
	0.034688857	71.286959	0.000383678743	-135.466235	0.0173830287999999	1.77634817000001	0.000331350227	-129.10436	
	0.000238295044	-129.67373	0.0344321493	66.7422762	0.00033135021	-129.104349	0.0193009963000001	-1.91474132999999	
	
40000000.	0.0175309194000001	1.50726595999999	0.000422044495	-136.117046	0.0455230876	65.5348069	0.000309592301	-134.183083	
	0.000422044423	-136.117051	0.0211488184	-5.39051448	0.000491726818	-138.185424	0.0451588346	59.4553768	
	0.0455230871	65.5348066	0.000491726725	-138.185394	0.0175890731000001	1.18687355	0.00043181202	-133.150308	
	0.000309592261	-134.183091	0.0451588245	59.4553798	0.000431812025	-133.150319	0.0211730564	-5.28782273000001	
	
50000000.	0.0176136284000001	1.08352683	0.000514092793	-142.148875	0.0557677994	59.738455	0.000379127463	-139.983492	
	0.000514092754	-142.148877	0.0231845446999999	-9.71456159000005	0.000599462833	-142.709118	0.0552853834	52.1013916	
	0.0557677993	59.7384549	0.000599462905	-142.709104	0.0176206681	0.784747167000001	0.000531360658	-138.572702	
	0.000379127375	-139.983502	0.055285381	52.1013948	0.000531360663	-138.572705	0.0232174660000001	-9.60759213999997	
	
60000000.	0.0175645211	0.955080085	0.000601339981	-148.775617	0.0652983009	53.9391223	0.000446180286	-146.384733	
	0.000601340013	-148.775614	0.0253382259000001	-14.7952047999999	0.000705416216	-148.156594	0.064687195	44.7123638	
	0.0652983009	53.9391223	0.000705416202	-148.156595	0.0175311435000001	0.739740377999995	0.000629195253	-144.672388	
	0.000446180207	-146.384737	0.0646871962	44.7123637	0.000629195289	-144.672386	0.0253798233000001	-14.6888627999999	
	
70000000.	0.0174360765000001	1.27354419	0.00068304362	-155.659832	0.0740009762	48.1580292	0.000510361068	-153.069586	
	0.000683043731	-155.659825	0.0275566730999999	-20.4615250000001	0.000808868625	-154.110501	0.07325048	37.2997519	
	0.0740009762	48.1580291	0.000808868554	-154.110501	0.0173768483999999	1.18071167	0.000724914548	-151.132626	
	0.000510361118	-153.069587	0.07325048	37.299754	0.000724914606	-151.132623	0.0276066777999999	-20.3595215	
	
80000000.	0.0172929097000001	2.14118839999999	0.000758821577	-162.616152	0.0817744482	42.4090132	0.00057149419	-159.869718	
	0.000758820941	-162.616148	0.0297912750000001	-26.5702356999999	0.000909480867	-160.349598	0.0808736197	29.8667021	
	0.0817744482	42.4090132	0.00090948088	-160.349594	0.0172242127	2.19001027	0.000818330168	-157.789724	
	0.000571494178	-159.86968	0.0808736208	29.8667086	0.000818330228	-157.789721	0.0298491979	-26.4753066	
	
90000000.	0.0172092815	3.58686588	0.000828599328	-169.529964	0.0885305018	36.7030465	0.000629577007	-166.686529	
	0.000828600294	-169.529997	0.0319965736999999	-33.0074788000001	0.00100715311	-166.746499	0.0874681174	22.4119612	
	0.0885305018	36.7030464	0.00100715321	-166.746497	0.0171470481	3.77569008	0.000909398837	-164.551155	
	0.000629576247	-166.686559	0.0874681216	22.4119672	0.000909398902	-164.551154	0.0320618195	-32.9216486	
	
100000000.	0.0172617276999999	5.53921622000002	0.000892616278	-176.323367	0.0941948042	31.050251	0.000684764056	-173.458302	
	0.00089261641	-176.323366	0.0341291959	-39.6852067	0.00110196176	-173.223639	0.0929592283	14.9312996	
	0.0941948041	31.0502511	0.00110196169	-173.223639	0.0172195913	5.84704841999999	0.000998190244	-171.361608	
	0.000684764085	-173.458305	0.0929592286	14.9312958	0.000998190352	-171.36161	0.0342011457000001	-39.6100485999999	
	
110000000.	0.0174833806000001	7.60390123999996	0.00095137818	177.065519	0.0987090616	25.4614344	0.00073734289	179.85986	
	0.000951377696	177.065529	0.0361544666	-46.5833386	0.00119408169	-179.723714	0.0972878966	7.41851045	
	0.0987090673	25.4614347	0.00119408339	-179.723759	0.0174818568000001	8.06754161999996	0.00108485359	-178.182843	
	0.000737344349	179.859796	0.0972879481	7.41851126	0.001084854	-178.182872	0.0362431977000001	-46.5078458999999	
	
120000000.	0.0179346943	9.89763474999999	0.00100582153	170.666259	0.10202583	19.947411	0.000787802814	173.284108	
	0.00100582062	170.666284	0.0380209798999999	-53.5846816000001	0.00128396746	173.773323	0.100405918	-0.136394404	
	0.102025839	19.9474104	0.0012839703	173.773231	0.0179883494000001	10.4072197	0.00116967647	175.000124	
	0.000787805162	173.283982	0.100406006	-0.136387229	0.00116967694	175.000077	0.0381222216	-53.5151669	
	
130000000.	0.0186676517000001	12.0807451999999	0.00105705825	164.501666	0.104114724	14.5222887	0.000836678372	166.825584	
	0.00105705708	164.50171	0.0396918909	-60.6621316999999	0.00137200925	167.285387	0.102281723	-7.74537274	
	0.104114737	14.5222867	0.00137201272	167.285255	0.0187730056000001	12.5444334999999	0.00125293669	168.198719	
	0.000836681163	166.825405	0.102281837	-7.74535856	0.00125293702	168.198663	0.0398021867	-60.6028265999999	
	
140000000.	0.0196872274000001	13.8201932999999	0.00110646573	158.580687	0.104960553	9.20340951	0.000884600182	160.486084	
	0.00110646449	158.580747	0.0411304773	-67.7967299000001	0.00145866288	160.822784	0.102898406	-15.4238543	
	0.104960567	9.20340605	0.00145866657	160.822622	0.0198305211999999	14.1880579000001	0.00133495219	161.41859	
	0.000884603066	160.485864	0.102898537	-15.423833	0.00133495228	161.418532	0.0412470819	-67.7507847000001	
	
150000000.	0.0209575293000001	14.8832029	0.00115564981	152.896794	0.104563582	4.01291379	0.000932272839	154.258765	
	0.00115564865	152.896868	0.0423011526	-74.9765801999999	0.00154443705	154.390096	0.10225384	-23.1917785	
	0.104563595	4.01290875	0.00154444066	154.389911	0.0211222077000001	15.1462272999999	0.00141606801	154.661108	
	0.000932275557	154.258518	0.10225398	-23.1917505	0.00141606783	154.661054	0.0424219246	-74.946611	
	
160000000.	0.0224159254999999	15.1687767000001	0.00120638101	147.426392	0.102940029	-1.02011015	0.000980445539	148.128726	
	0.00120638002	147.426476	0.0431702371	-82.1960207000001	0.00162987902	147.987383	0.100360913	-31.0752236	
	0.102940042	-1.02011671	0.00162988232	147.987184	0.0225875955	15.3438386	0.00149664226	147.92439	
	0.000980447913	148.128465	0.100361056	-31.0751891	0.00149664181	147.924345	0.0432935453	-82.1844230000001	
	
170000000.	0.023987739	14.6860441	0.00126050199	142.12825	0.100122937	-5.85652805	0.00102987622	142.073805	
	0.00126050127	142.128337	0.0437066202	-89.4550777999999	0.0017155583	141.611026	0.0972480031	-39.1089698	
	0.100122948	-5.85653602	0.00171556114	141.610822	0.0241562407	14.7999666	0.0015770315	141.204055	
	0.00102987814	142.07354	0.0972481434	-39.1089292	0.00157703082	141.20402	0.0438312672	-89.4642245000001	
	
180000000.	0.0255970063	13.512456	0.00131981031	136.944898	0.096163635	-10.4425304	0.00108129098	136.065797	
	0.00131980988	136.944985	0.0438823804	-96.7592632	0.00180204843	135.254383	0.0929598325	-47.3406077	
	0.0961636439	-10.4425396	0.0018020507	135.254179	0.0257564744000001	13.5916557	0.00165757571	134.493829	
	0.0010812924	136.065539	0.092959966	-47.3405613	0.00165757487	134.493806	0.0440075447	-96.7916495	
	
190000000.	0.0271726328000001	11.7569235	0.00138592713	131.806513	0.0911341891	-14.7024933	0.00113534155	130.072174	
	0.00138592701	131.806596	0.043673405	-104.119796	0.0018899068	128.908369	0.0875589928	-55.8373002	
	0.0911341952	-14.7025036	0.00188990845	128.908172	0.0273206241999999	11.8228886	0.00173858334	127.78609	
	0.00113534246	130.07193	0.0875591161	-55.8372483	0.00173858242	127.786077	0.0437985997	-104.178169	
	
200000000.	0.0286512373999999	9.53634981000002	0.00146016978	126.637077	0.0851315432	-18.5276525	0.00119256436	124.058212	
	0.00146016994	126.637153	0.0430600385000001	-111.554387	0.00197965316	122.562026	0.0811286646	-64.6972975	
	0.0851315463	-18.5276636	0.00197965417	122.561839	0.0287876609999999	9.60479019000002	0.00182031684	121.072359	
	0.00119256478	124.057988	0.0811287752	-64.69724	0.00182031591	121.072357	0.0431850873	-111.641884	
	
210000000.	0.0299782103	6.96406926999999	0.00154344748	121.361774	0.0782846926	-21.7577037	0.0012533449	117.989347	
	0.00154344788	121.36184	0.0420277918	-119.088822	0.00207174732	116.20311	0.0737776471	-74.0703375	
	0.0782846927	-21.7577153	0.00207174772	116.202938	0.0301044073	7.04572661	0.00190297931	114.343778	
	0.0012533449	117.989146	0.073777743	-74.0702743	0.00190297844	114.343784	0.0421528251	-119.209137	
	
220000000.	0.0311080618000001	4.14604199999999	0.00163619585	115.914099	0.0707675307	-24.1505162	0.00131789087	111.833468	
	0.00163619644	115.914154	0.0405681575	-126.759751	0.00216656728	109.81871	0.0656501412	-84.1954145	
	0.0707675279	-24.1505279	0.00216656712	109.818555	0.0312261435999999	4.24796130000001	0.00198670281	107.591549	
	0.00131789052	111.833292	0.065650221	-84.195345	0.00198670206	107.591561	0.0406936336	-126.917353	
	
230000000.	0.0320046657	1.18130394	0.00173835701	110.241216	0.0628225751	-25.3329929	0.00138621624	105.562882	
	0.00173835772	110.241262	0.0386796141000001	-134.619455	0.00226438875	103.395868	0.05694601	-95.4737736	
	0.0628225696	-25.333004	0.00226438811	103.395732	0.0321170999	1.30802056	0.002071539	100.807358	
	0.00138621563	105.562731	0.0569460727	-95.4736968	0.00207153839	100.807373	0.0388063747	-134.819875	
	
240000000.	0.0326416957	-1.83551887	0.00184940166	104.306766	0.0548054157	-24.7285811	0.00145813723	99.155739	
	0.00184940244	104.306802	0.0363689746000001	-142.743952	0.0023653675	96.9222042	0.0479655992	-108.613657	
	0.0548054081	-24.7285909	0.0023653665	96.9220882	0.0327510912	-1.6810606	0.00215745259	93.9837367	
	0.00145813643	99.1556126	0.0479656439	-108.613571	0.00215745215	93.9837535	0.0364983524	-142.994177	
	
250000000.	0.0330033916999999	-4.81081151000001	0.00196838301	98.0910965	0.0472647686	-21.4889065	0.00153327965	92.5968121	
	0.0019683838	98.091124	0.0336534028	-151.24716	0.00246952581	90.3864807	0.0392142477	-124.902681	
	0.0472647597	-21.4889136	0.00246952457	90.3863846	0.0331124278	-4.62663399	0.00224431827	87.1143884	
	0.00153327875	92.5967084	0.0392142734	-124.902585	0.00224431798	87.1144049	0.0337874116	-151.556143	
	
260000000.	0.0330857275000001	-7.64829531999998	0.00209400922	91.5895571	0.041058697	-14.6055784	0.00161109632	85.8776649	
	0.00209400998	91.5895774	0.0305637873	-160.306455	0.00257674404	83.7791002	0.0316391411	-146.524271	
	0.0410586879	-14.6055808	0.00257674267	83.7790233	0.0331971816999999	-7.43303652000002	0.00233192118	80.1944315	
	0.00161109539	85.8775817	0.0316391466	-146.524169	0.00233192103	80.1944461	0.0307054473999999	-160.685712	
	
270000000.	0.0328980407	-10.2454917	0.00222472321	84.809696	0.0373910593	-3.7190698	0.00169089204	78.9963029	
	0.0022247239	84.8097101	0.0271510308999999	-170.210748	0.0026867583	77.0924909	0.026979593	-175.603428	
	0.0373910517	-3.71906639	0.00268675693	77.0924319	0.0330148749	-9.99831091999999	0.00241996142	73.2205759	
	0.00169089116	78.9962378	0.0269795799	-175.60334	0.00241996138	73.2205877	0.0273049247000002	-170.674707	
	
280000000.	0.0324651789000001	-12.4908866	0.00235878161	77.7681411	0.0373949178	9.29036293	0.00177185423	71.956468	
	0.0023587822	77.76815	0.0234989695999999	178.545787	0.00279916452	70.3213666	0.0272782435	151.050603	
	0.0373949134	9.29037028	0.00279916326	70.3213237	0.032590652	-12.2116396	0.00250806223	66.1912196	
	0.00177185345	71.9564185	0.0272782211	151.05065	0.00250806227	66.1912281	0.0236721679	177.981077	
	
290000000.	0.0318301867000001	-14.2629014	0.00249432828	70.487695	0.0412494838	20.6829036	0.00185308669	64.7667313	
	0.00249432874	70.4876996	0.019753153	165.080271	0.0029134289	63.4628512	0.0325942306	122.230862	
	0.0412494828	20.6829109	0.00291342785	63.4628225	0.0319679551	-13.9526328	0.00259578173	59.1064675	
	0.00185308605	64.766695	0.0325942111	122.230875	0.00259578181	59.1064724	0.0199565953	164.405708	
	
300000000.	0.0310574125	-15.4328367	0.00262946058	62.9949163	0.048049322	28.1917501	0.0019336447	57.4395188	
	0.00262946089	62.9949174	0.0161877458	147.809772	0.00302890408	56.5164726	0.041008521	100.827112	
	0.0480493235	28.191755	0.00302890332	56.5164561	0.0312115673	-15.0946543	0.00268262757	51.9680784	
	0.00193364423	57.4394935	0.0410085089	100.827114	0.00268262766	51.9680799	0.0164371959	147.059403	
	
310000000.	0.0302355225	-15.8755182	0.00276228762	55.3182657	0.0566345565	31.9544886	0.00201256976	49.9901678	
	0.00276228776	55.3182639	0.0133452831	124.351255	0.00314485006	49.4840399	0.0508642071	84.6483205	
	0.0566345594	31.9544908	0.00314484964	49.4840335	0.0304104894000001	-15.5158600999999	0.00276807379	44.779351	
	0.00201256949	49.9901516	0.0508642021	84.6483197	0.00276807386	44.7793493	0.0136556913999999	123.711256	
	
320000000.	0.029479098	-15.4927084	0.00289098067	47.4867799	0.0661203451	32.9628346	0.00208892251	42.4360752	
	0.00289098063	47.4867756	0.0121481242	93.8674804	0.00326045836	42.3694274	0.0612431945	71.5442026	
	0.0661203484	32.9628348	0.00326045833	42.3694292	0.0296792984000001	-15.1227818	0.00285157894	37.5449583	
	0.00208892246	42.4360665	0.061243195	71.5442023	0.00285157897	37.5449538	0.0125066671	93.7420973999999	
	
330000000.	0.0289262189	-14.2528408	0.00301381589	39.5291878	0.0759216626	32.1059397	0.00216181283	34.7959684	
	0.00301381564	39.5291814	0.0133466672	62.4803136000001	0.00337487785	35.1782935	0.0716412172	60.2551485	
	0.0759216657	32.1059386	0.00337487824	35.1783021	0.0291554097999999	-13.8895038	0.00293260441	30.2707477	
	0.00216181299	34.7959658	0.0716412212	60.2551491	0.00293260441	30.2707408	0.0136995514	62.9725015999999	
	
340000000.	0.0287283832000001	-12.241397	0.00312920959	31.4733722	0.0856493661	29.9988879	0.00223042607	27.0893085	
	0.00312920912	31.473364	0.0165957103	37.6072766	0.00348724052	27.9177635	0.0817465788	50.0881666	
	0.0856493686	29.9988859	0.00348724132	27.9177773	0.0289887266999999	-11.9061535	0.00301063213	22.9635196	
	0.00223042645	27.0893108	0.0817465844	50.0881678	0.00301063208	22.9635106	0.0169097415	38.3435011000001	
	
350000000.	0.0290302867000001	-9.69732842999998	0.00323574635	23.3460908	0.0950299038	27.0421989	0.00229404496	19.3358218	
	0.00323574565	23.3460811	0.0210417614	19.4688445	0.00359668554	20.5961034	0.0913421609	40.6497803	
	0.0950299054	27.0421963	0.00359668676	20.5961214	0.0293214729	-9.41227549999999	0.00308518046	15.6307988	
	0.00229404555	19.3358281	0.0913421666	40.6497818	0.00308518038	15.630788	0.0213201913	20.1960291	
	
360000000.	0.0299425942000001	-6.99685997999998	0.00333220041	15.1728878	0.103859533	23.4969953	0.00235206672	11.5551481	
	0.00333219946	15.1728768	0.0260947329000001	5.65245582999998	0.00370238056	13.2224118	0.100263449	31.7047474	
	0.103859533	23.4969925	0.00370238218	13.222433	0.0302615676999999	-6.77840876000002	0.00315581787	8.28061346	
	0.00235206752	11.5551577	0.100263454	31.7047488	0.00315581776	8.28060093	0.0263498363000001	6.29789694999998	
	
370000000.	0.0315186317999999	-4.56754451000001	0.00341755105	6.97814622	0.111979873	19.5374573	0.00240401547	3.76659195	
	0.00341754984	6.97813415	0.0314342372000001	-5.60792518999999	0.00380353913	5.80634771	0.108379708	23.1047173	
	0.111979872	19.5374544	0.00380354113	5.8063716	0.0318602616000001	-4.42142440999999	0.00322217354	0.921291157	
	0.00240401646	3.76660424	0.10837971	23.1047184	0.00322217342	0.921276967	0.0316763535000001	-5.05155961999999	
	
380000000.	0.0337472307000001	-2.77225811999999	0.00349099306	-1.21475766	0.119264826	15.283392	0.0024495501	-4.01103933	
	0.0034909916	-1.21477059	0.0368759988	-15.3102463	0.00389943412	-1.64208908	0.115584992	14.7511741	
	0.119264824	15.2833891	0.00389943647	-1.642063	0.0341056204999999	-2.69312154000001	0.00328394504	-6.43871791	
	0.00244955127	-4.01102477	0.11558499	14.7511745	0.00328394492	-6.43873384	0.0371124475	-14.8343043	
	
390000000.	0.0365641461000001	-1.83232264	0.00355194364	-9.38322292	0.125613392	10.8200602	0.00248846824	-11.7595256	
	0.00355194191	-9.3832365	0.0422991602	-24.0103848	0.00398940708	-9.11271628	0.121793554	6.57528407	
	0.125613389	10.8200574	0.00398940977	-9.1126883	0.0369338601	-1.80757081	0.00334090287	-13.7909848	
	0.00248846957	-11.7595091	0.121793548	6.57528363	0.00334090275	-13.7910026	0.0425349754000001	-23.6043052	
	
400000000.	0.0398729918999999	-1.82104454	0.00360004731	-17.5051372	0.130945575	6.21040961	0.00252070701	-19.4612684	
	0.00360004532	-17.5051512	0.0476144644	-32.0310355	0.00407287448	-16.5952607	0.126937294	-1.47361078	
	0.130945571	6.21040697	0.00407287749	-16.595231	0.0402497093	-1.83570648	0.00339289236	-21.1272091	
	0.0025207085	-19.4612502	0.126937283	-1.47361229	0.00339289225	-21.1272291	0.0478530976	-31.685708	
	
410000000.	0.0435646305000001	-2.70448265	0.00363518081	-25.5585526	0.135199958	1.50284092	0.00254634164	-27.0992848	
	0.00363517856	-25.5585669	0.0527502099	-39.5695785	0.00414933162	-24.0793831	0.130964213	-9.43489632	
	0.135199952	1.50283851	0.00414933492	-24.0793518	0.0439452371000001	-2.74465188	0.00343983347	-28.439289	
	0.00254634327	-27.0992652	0.130964197	-9.43489906	0.00343983335	-28.4393113	0.0529939966	-39.2778166	
	
420000000.	0.0475297106999999	-4.39134593000001	0.00365745968	-33.5213446	0.138332211	-3.2636663	0.00256558276	-34.6571806	
	0.00365745717	-33.521359	0.0576456448999999	-46.7532038000001	0.00421835584	-31.5546413	0.133837382	-17.3410509	
	0.138332204	-3.26366847	0.00421835942	-31.5546084	0.0479120821	-4.44568654	0.00348171915	-35.7193556	
	0.00256558452	-34.6571596	0.13383736	-17.3410551	0.00348171902	-35.7193805	0.0578960916000001	-46.5095172999999	
	
430000000.	0.0516646185999999	-6.77050019000001	0.00366724834	-41.3708797	0.14031416	-8.05599739	0.00257877351	-42.1191202	
	0.0036672456	-41.370894	0.0622475780000001	-53.6680736999999	0.00427961054	-39.0103983	0.135534204	-25.2205822	
	0.140314153	-8.05599928	0.00427961441	-39.010364	0.0520473242	-6.83044532	0.00351861325	-42.9597769	
	0.00257877539	-42.119098	0.135534177	-25.2205878	0.00351861309	-42.9598045	0.0625055371	-53.4683338	
	
440000000.	0.0558732199	-9.73243613	0.00366517526	-49.0837282	0.14113322	-12.8442672	0.00258638725	-49.4698213	
