!!!!!!!!!!!!!!!!!!!!!!!!!!!!!!!!!!!!!!!!!!!!!!!!!!!!!!!!!!!!!!!!!!!!!!!!!!!!!!!!!!!!!!!!!
!!
!! Reference: shanbhag_3dj_03_2305.pdf
!!
!!!!!!!!!!!!!!!!!!!!!!!!!!!!!!!!!!!!!!!!!!!!!!!!!!!!!!!!!!!!!!!!!!!!!!!!!!!!!!!!!!!!!!!!!
!!
!! CHANNEL DESCRIPTION: TP0_TP1a C2M Channel, PCB Host
!! MODEL DESCRIPTION: s4p, THRU
!! CONNECTOR DESCRIPTION: OSFP 200G SMT
!! MODEL STATUS: Developmental
!!
!! PORT DEFINITIONS: 
!! Port   1    ----->  Side A	      Side B  <-----  Port   2
!! Port   3    ----->  Side A	      Side B  <-----  Port   4
!!

# HZ S MA R 50.000000 


0.	0.0157344224	-5.44591138e-13	0.983773096	-1.41399569e-14	0.000454012794	-3.72625226e-11	0.000404690477	180	
	0.983792411	-1.41399658e-14	0.0162633985	-7.87082644999999e-13	0.000412200759	-180	0.000451970109	-2.55077853e-11	
	0.000453909402	-3.72692943e-11	0.000412217105	-180	0.0161508307	-5.93650067e-13	0.983510015	7.47009254e-14	
	0.000404924666	180	0.000451136427	-2.55550345e-11	0.983574458	7.47009401e-14	0.0158936215000001	4.98564214999998e-13	
	
10000000.	0.0168530370000001	0.341844883999998	0.982817462	-6.96727642	0.0118609658	80.0750245	0.000496357371	-153.700884	
	0.982817463	-6.96727631	0.0167435262999999	1.26103315000006	0.000496630547	-153.586114	0.0119233299	81.6082255	
	0.011860966	80.0750241	0.000496630400000001	-153.586117	0.0169464827999999	0.552180059000003	0.982590153	-6.97026888	
	0.000496357384	-153.70088	0.0119233298	81.6082254	0.982590152	-6.97026873	0.0168458901	1.39799413	
	
20000000.	0.0181048766	-1.38013484	0.981639568	-13.9010215	0.0235047484	73.5518822	0.000679448138	-143.059927	
	0.981640192	-13.9008401	0.0174115333000001	0.643875602999987	0.00068294848	-142.972214	0.0236450281	76.4949809	
	0.023504709	73.5517463	0.000682953859999998	-142.970362	0.0182555347	-1.12906981	0.981362377	-13.9020429	
	0.000679453734	-143.059542	0.0236449986	76.495045	0.981364106	-13.9017644	0.0175236979	0.432502910000001	
	
30000000.	0.0196497329999999	-4.05015402000001	0.980373194	-20.8219081	0.0348034521	66.3163475	0.000887165479	-141.155952	
	0.980373371	-20.8219021	0.0177520316	-0.498602546000054	0.000891884745	-141.138705	0.0350315678	70.6849725	
	0.0348034475	66.3163514	0.000891887340999999	-141.138802	0.0198065996999999	-4.02353927000002	0.980087126	-20.8198967	
	0.000887165587	-141.155974	0.0350315684	70.6849751	0.980087368	-20.8198916	0.0178651117999999	-0.780447205000003	
	
40000000.	0.0213777822999999	-7.77350576000003	0.978992654	-27.7316568	0.0456058977	58.9047064	0.0010895417	-142.913953	
	0.978992503	-27.7316566	0.0179068829	-1.72615978000015	0.00109525292	-143.022602	0.0459299977	64.7242373	
	0.0456058993	58.9047041	0.00109525176999999	-143.022505	0.0215280861999999	-7.80313174000004	0.978715991	-27.7273688	
	0.00108954188	-142.914027	0.0459299972	64.7242371	0.97871583	-27.7273669	0.017974006	-2.10571610999999	
	
50000000.	0.0232614593	-12.3308557	0.977504748	-34.630007	0.0557695297	51.4241647	0.00127985861	-146.264303	
	0.977504713	-34.6300066	0.0178686845999998	-2.83986891000029	0.00128502079	-146.466107	0.0561977384	58.7209196	
	0.0557695297	51.4241639	0.00128502069999999	-146.46607	0.0234037891999999	-12.3813696	0.97724469	-34.6240354	
	0.00127985876	-146.264317	0.0561977383	58.7209196	0.977244658	-34.6240348	0.0178848157000001	-3.22394974999999	
	
60000000.	0.0252492305	-17.5737794	0.975929869	-41.5165451	0.0651619823	43.9083458	0.00145591723	-150.286199	
	0.975929877	-41.5165472	0.0176749663	-3.63232666999976	0.00145945659	-150.536051	0.0657020439	52.7156362	
	0.0651619825	43.908346	0.00145945594000001	-150.536055	0.0253820481	-17.6266042	0.975688648	-41.5093464	
	0.00145591788	-150.286187	0.065702044	52.7156361	0.975688656	-41.5093487	0.0176495591000001	-3.96157532999998	
	
70000000.	0.0272884438999999	-23.3566778000001	0.974295003	-48.390987	0.0736629401	36.3695872	0.00161887566	-154.510828	
	0.974294998	-48.3909873	0.0173769334000001	-3.93905215999984	0.00162010427	-154.769446	0.0743225817	46.7293574	
	0.0736629402	36.3695873	0.00162010423000001	-154.769436	0.0274120902000001	-23.4023768999999	0.974072617	-48.3828905	
	0.00161887558	-154.510826	0.0743225817	46.7293573	0.974072614	-48.382891	0.0173231481	-4.1739545	
	
80000000.	0.0293297123	-29.553097	0.972630573	-55.2533258	0.0811656471	28.8115718	0.00177213291	-158.692444	
	0.972630577	-55.253322	0.017038408	-3.63088974999992	0.00177076706	-158.926272	0.0819527169	40.7758105	
	0.0811656466	28.8115718	0.00177076877	-158.926271	0.0294450953999999	-29.5884766000001	0.97242613	-55.2445653	
	0.00177213106	-158.692433	0.0819527169	40.7758104	0.972426137	-55.2445619	0.0169712091	-3.74870811	
	
90000000.	0.0313261656	-36.0597895	0.970967914	-62.1039015	0.0875779079	21.2333951	0.00192071101	-162.710923	
	0.970967943	-62.1038964	0.0167345285000001	-2.63912629999998	0.00191686533	-162.894103	0.0885005095	34.8659399	
	0.0875779073	21.2333951	0.00191686770000001	-162.894129	0.0314341149	-36.0846031	0.97078023	-62.0946447	
	0.00192070844	-162.710887	0.0885005095	34.8659399	0.97078026	-62.0946399	0.0166686506	-2.63506473000001	
	
100000000.	0.0332327998	-42.7951448	0.969337167	-68.9434162	0.0928227423	13.6310589	0.00207079989	-166.531611	
	0.969337171	-68.9434158	0.016545643	-0.99097072899994	0.00206490772	-166.647207	0.0938894645	29.0099253	
	0.0928227421	13.6310584	0.00206490811	-166.647212	0.0333340354000001	-42.8101774999999	0.969165023	-68.9337854	
	0.00207079942	-166.531604	0.0938894644	29.0099254	0.969165028	-68.9337848	0.0164939461999999	-0.878049479000004	
	
110000000.	0.0350148826	-49.7443574999999	0.967770041	-75.7719812	0.0968393794	5.99843534	0.00222675858	-170.142071	
	0.967770067	-75.7719762	0.0165154595000001	0.931919078000042	0.00221733969	-170.142077	0.0980607695	23.218651	
	0.0968393497	5.99841806	0.00221734541	-170.142177	0.0351202535	-49.7313026000001	0.967601071	-75.7629077	
	0.0022267204	-170.142382	0.0980607752	23.2186512	0.967601401	-75.7628845	0.016497219	1.20306736	
	
120000000.	0.0366174495	-56.7905517999999	0.966283762	-82.592231	0.0995815537	-1.67419483	0.00239966365	-173.651249	
	0.966283808	-82.5922225	0.0167074774	3.26499875000011	0.00238940289	-173.531349	0.100967733	17.5034311	
	0.0995815024	-1.67422397	0.00238941175	-173.531524000001	0.0367247754	-56.7609468999999	0.966120574	-82.5834089	
	0.00239959486	-173.651649	0.100967743	17.5034304	0.966121128	-82.5833695	0.0167385036999999	3.58670421000001	
	
130000000.	0.0380028407	-63.9072893999999	0.964896387	-89.4056228	0.1010198	-9.39896243	0.00259523845	-177.198758	
	0.964896449	-89.4056118	0.0171835089999999	5.63607347000004	0.0025863499	-176.987237	0.102582444	11.8790846	
	0.101019734	-9.39900005	0.00258636036	-176.987465	0.0381102377	-63.8687803000001	0.964741174	-89.3968632	
	0.00259514575	-177.199115	0.102582456	11.8790824	0.964741877	-89.396812	0.0172613549	5.91062924000001	
	
140000000.	0.0391339145	-71.0757848	0.96362026	-96.2138195	0.101140659	-17.1916419	0.00281756327	179.088262	
	0.963620333	-96.2138066	0.0179551945	7.64027401000003	0.00281145002	179.352093	0.102893659	6.36416684	
	0.101140584	-17.1916856	0.00281146103	179.351833	0.039240026	-71.0336702	0.963474643	-96.2050107	
	0.00281745278	179.088009	0.102893673	6.36416305	0.963475437	-96.2049511	0.0180664784	7.81066508999998	
	
150000000.	0.0399751206	-78.2839382000001	0.962461364	-103.0186	0.0999467703	-25.0728456	0.00306912757	175.110225	
	0.962461445	-103.018585	0.0189875898999999	8.96679037000003	0.00306637313	175.390731	0.101907054	0.982844870999999	
	0.099946692	-25.0728935	0.00306638403	175.390458	0.0400791756	-78.2420579	0.962326397	-103.009679	
	0.00306900477	175.110092	0.101907068	0.982839426	0.962327237	-103.009614	0.0191157221	9.02065604	
	
160000000.	0.0404933294	-85.5256014000001	0.96141909	-109.821766	0.0974570834	-33.0699366	0.00335105972	170.801223	
	0.961419176	-109.821751	0.020214007	9.4594741500003	0.00335161121	171.073309	0.0996457289	-4.23244149	
	0.0974570056	-33.0699873	0.00335162162000001	171.073036	0.0405951279	-85.4868579999999	0.961295325	-109.812703	
	0.00335092935	170.801199	0.0996457413	-4.23244854	0.961296178	-109.812634	0.0203446135000001	9.41436106999995	
	
170000000.	0.0406585449	-92.8001281	0.960486347	-116.625058	0.0937072974	-41.2201221	0.00366344548	166.127245	
	0.960486434	-116.625042	0.0215532445000001	9.10319267999992	0.00366686059	166.37725	0.0961511454	-9.23701301	
	0.0937072234	-41.2201744	0.00366687031	166.376988	0.0407584099	-92.7668065999999	0.960373929	-116.615839	
	0.00366331157	166.127306	0.0961511559	-9.23702157	0.960374769	-116.615768	0.0216765059000001	8.98839375999997	
	
180000000.	0.040444566	-100.112294	0.959649986	-123.430064	0.0887507093	-49.5755789	0.00400564577	161.07965	
	0.959650071	-123.430048	0.0229226789	7.9744851100002	0.0040113177	161.30305	0.0914847839	-13.9677938	
	0.0887506416	-49.5756318	0.00401132664000001	161.302803	0.0405432792	-100.086266	0.959548753	-123.420685	
	0.00400551168	161.079769	0.091484792	-13.9678038	0.95954956	-123.420613	0.0230334047	7.81873642000001	
	
190000000.	0.0398296273	-107.472714	0.95889151	-130.238148	0.0826597893	-58.2122417	0.00437655349	155.667182	
	0.958891592	-130.238132	0.0242457064000001	6.19377607000006	0.00438387481	155.865364	0.0857310284	-18.3333911	
	0.0826597295	-58.2122944	0.00438388297	155.865137	0.0399283561	-107.455574	0.958801079	-130.228609	
	0.00437642196	155.667334	0.0857310336	-18.3334021	0.958801841	-130.228538	0.0243423498	6.01989525999999	
	
200000000.	0.0387970447	-114.89896	0.958188032	-137.050383	0.0755291589	-67.2455365	0.00477476445	149.908744	
	0.958188111	-137.050368	0.0254549965000001	3.89409637999996	0.00478322447	150.086146	0.0790022966	-22.1975283	
	0.0755291079	-67.2455884	0.00478323189	150.085939	0.0388972646	-114.892119	0.958107878	-137.040686	
	0.0047746377	149.908909	0.0790022988	-22.1975403	0.958108583	-137.040616	0.0255384546999999	3.71806872000001	
	
210000000.	0.037335888	-122.41778	0.957513442	-143.8675	0.0674814894	-76.860055	0.00519866345	143.827929	
	0.957513516	-143.867485	0.0264935066999997	1.20567813000004	0.00520789102	143.990001	0.0714484894	-25.3504572	
	0.0674814474	-76.8601053	0.00520789776	143.989815	0.0374393056	-122.422525	0.957442952	-143.857644	
	0.00519854326	143.828093	0.0714484884	-25.3504698	0.957443594	-143.857577	0.0265661013000001	1.03769707	
	
220000000.	0.0354417266	-130.069123	0.956839732	-150.689851	0.0586799819	-87.3690031	0.00564643975	137.449418	
	0.9568398	-150.689836	0.0273146472000001	-1.74893242999989	0.00565620879	137.601405	0.0632751743	-27.4584686	
	0.0586799488	-87.3690515	0.00565621491	137.60124	0.0355502044000001	-130.086627	0.956778255	-150.679834	
	0.00564632752	137.44957	0.0632751704	-27.4584814	0.956778831	-150.67977	0.0273793915	-1.90294252	
	
230000000.	0.0331175319999999	-137.913393	0.95613843	-157.517391	0.049357015	-99.3412448	0.00611605135	130.796943	
	0.956138493	-157.517377	0.0278823574	-4.85393987000002	0.00612626493	130.943289	0.0547800917	-27.9753801	
	0.0493569902	-99.341291	0.00612627048	130.943144	0.0332330218	-137.944666	0.956085313	-157.50721	
	0.00611594816	130.797077	0.0547800851	-27.9753923	0.956085821	-157.50715	0.0279424892000001	-4.99096209999999	
	
240000000.	0.0303749373000001	-146.044904	0.955382077	-164.349682	0.0398862138	-113.886687	0.00660515767	123.892377	
	0.955382134	-164.349669	0.028171461	-7.99640742999998	0.00661582252	124.03654	0.0464279456	-26.0036581	
	0.0398861962	-113.886731	0.00661582756	124.036413	0.030499423	-146.090578	0.955336683	-164.339332	
	0.00660506431	123.892492	0.046427937	-26.0036685	0.955337124	-164.339277	0.0282301781	-8.11532893000001	
	
250000000.	0.0272363129999999	-154.618054	0.95454566	-171.185913	0.0309784036	-133.264485	0.00711103873	116.755573	
	0.954545712	-171.185901	0.0281684794000002	-11.0608180999999	0.00712223798	116.900058	0.0389944423	-20.1855974	
	0.0309783922	-133.264527	0.00712224254	116.899948	0.0273717642	-154.677783	0.95450739	-171.175387	
	0.00711095578	116.755667	0.0389944325	-20.1856035	0.954507765	-171.175336	0.0282288149999999	-11.1617998	
	
260000000.	0.0237388269000001	-163.901924	0.953607957	-178.024939	0.0241794637	-161.40782	0.00763051677	109.404614	
	0.953608003	-178.024928	0.0278730376	-13.9226697	0.00764238488	109.551114	0.0337529336	-9.18246964	
	0.0241794573	-161.40786	0.00764238901	109.55102	0.0238871489	-163.9727	0.953576255	-178.014228	
	0.0076304446	109.404688	0.0337529244	-9.18246865	0.953576567	-178.014182	0.0279378197999999	-14.0068584	
	
270000000.	0.0199437288999999	-174.404396	0.952552685	175.134663	0.0222749041	160.941192	0.00815989334	101.856269	
	0.952552726	175.134673	0.0273000286000002	-16.4414198999999	0.00817259524	102.005837	0.0323001334	6.0397645	
	0.0222749011	160.941158	0.00817259895	102.005759	0.0201066357999999	-174.47559	0.952527048	175.14557	
	0.00815983213	101.856325	0.032300127	6.03977257	0.952527301	175.145609	0.0273718794000001	-16.5109862	
	
280000000.	0.0159610481999999	172.81646	0.951369418	168.294523	0.0266619241	126.012785	0.00869491188	94.1264983	
	0.951369455	168.294532	0.0264827682000001	-18.4534803	0.00870862642	94.2797095	0.0353678021	20.5312295	
	0.0266619225	126.01276	0.00870862972	94.2796453	0.0161394896	172.779271	0.951349398	168.305635	
	0.00869486168	94.1265398	0.0353677997	20.5312393	0.951349597	168.305669	0.0265641008	-18.5120055	
	
290000000.	0.0120262979999999	155.311497	0.9500542	161.456395	0.0350806009	101.529583	0.0092307523	86.2309228	
	0.950054233	161.456403	0.0254774028000001	-19.7674120999997	0.00924565954	86.3880078	0.0420200146	30.1745608	
	0.0350805996	101.529565	0.00924566244	86.3879567	0.0122174761	155.424177	0.950039402	161.467723	
	0.00923071301	86.2309524	0.0420200154	30.1745679	0.950039553	161.467751	0.0255703686999999	-19.8206762	
	
300000000.	0.00876208343999993	127.423052999999	0.948609819	154.62207	0.0451951008	84.2432267	0.00976206008	78.1852023	
	0.948609848	154.622077	0.0243686315000002	-20.1669246	0.00977833164	78.3461545	0.050759676	34.9131742	
	0.0451951	84.2432147	0.00977833413	78.3461156	0.0089439457699999	128.051486999999	0.948599904	154.633626	
	0.00976203146	78.1852231	0.0507596786	34.9131781	0.948600011	154.633647	0.0244749525	-20.2241048	
	
310000000.	0.00770501378000001	84.5353315999991	0.947045736	147.793285	0.0558522401	70.7713589	0.0102830091	70.0053234	
	0.947045762	147.793292	0.0232759188999999	-19.4336467999999	0.0103008008	70.1699782	0.0604812181	36.2208006	
	0.0558522403	70.7713522	0.0103008029	70.1699506	0.00780030789	85.9917717000005	0.947040418	147.80508	
	0.0102829909	70.0053384	0.0604812214	36.2208019	0.947040488	147.805095	0.0233965218000001	-19.5086561999999	
	
320000000.	0.00994621458	45.3736779	0.945377671	140.971639	0.0664915469	59.3669538	0.0107873947	61.7077974	
	0.945377693	140.971644	0.0223570156	-17.4088136000001	0.0108068407	61.8758898	0.0705081035	35.3422171	
	0.0664915484	59.3669523	0.0108068423	61.8758728	0.00991715503999995	46.6930136000003	0.945376711	140.983683	
	0.0107873864	61.7078094	0.0705081068	35.3422167	0.94537675	140.983691	0.0224914145	-17.520744	
	
330000000.	0.014138978	21.4194223	0.943626864	134.158507	0.0767888524	49.1656646	0.0112687501	53.3097966	
	0.943626884	134.158512	0.0218014182	-14.1071159000001	0.0112899586	53.4810018	0.0804177786	33.0717393	
	0.0767888553	49.1656681	0.0112899598	53.4809945	0.0140358279999999	22.3042162000001	0.943630073	134.17081	
	0.0112687511	53.3098082	0.0804177813	33.0717378	0.943630086	134.170813	0.0219469759	-14.27763	
	
340000000.	0.0190899345	5.89516894999999	0.941819083	127.354978	0.0865236549	39.7128019	0.0117204812	44.8292594	
	0.941819101	127.354982	0.0218037346000001	-9.84720383999987	0.0117435311	45.0032204	0.0899241902	29.892733	
	0.0865236593	39.7128104	0.0117435318	45.0032223	0.0189466797000001	6.50985724999998	0.941826308	127.367549	
	0.0117204912	44.8292728	0.0899241921	29.8927308	0.941826302	127.367546	0.0219553317	-10.093096	
	
350000000.	0.0243322753999999	-5.74832565000002	0.939983408	120.561798	0.095529378	30.7510098	0.0121360127	36.2849974	
	0.939983425	120.561801	0.0225157379000001	-5.27651672999995	0.0121609508	36.4613445	0.0988181853	26.104236	
	0.0955293836	30.7510232	0.012160951	36.4613547	0.0241647626000001	-5.29121251999999	0.939994535	120.574645	
	0.0121360308	36.2850145	0.098818186	26.1042335	0.939994515	120.574636	0.0226665875	-5.60046178000001	
	
360000000.	0.0296620450000001	-15.4199924	0.938150898	113.779333	0.103673139	22.1243485	0.0125089399	27.6968402	
	0.938150913	113.779335	0.0239998185999999	-1.17940872000008	0.0125357799	27.8752023	0.106938458	21.8978942	
	0.103673145	22.1243666	0.0125357795	27.8752204	0.0294788959999999	-15.0615141	0.938165838	113.792462	
	0.0125089656	27.6968627	0.106938458	21.8978915	0.938165809	113.792447	0.0241434025000001	-1.56734567	
	
370000000.	0.0349614145999999	-23.9685418000001	0.93635318	107.007551	0.110846792	13.7322487	0.0128331869	19.0858459	
	0.936353193	107.007552	0.0262178213	1.82648211999989	0.0128619082	19.2658578	0.114157069	17.4015746	
	0.110846799	13.7322714	0.0128619073	19.265883	0.034768406	-23.6764348	0.936371865	107.020968	
	0.0128332194	19.085875	0.114157067	17.4015719	0.936371833	107.020948	0.0263496903	1.39789671	
	
380000000.	0.0401461038	-31.8144622	0.93462106	100.246023	0.116962618	5.50588336	0.0131031681	10.4746057	
	0.934621073	100.246023	0.0290605490000001	3.45675937999994	0.013133717	10.6559104	0.120371921	12.7042287	
	0.116962625	5.5059104	0.0131337154	10.6559423	0.0399478224	-31.5696772	0.934643437	100.259732	
	0.0131032068	10.4746426	0.120371918	12.704226	0.934643406	100.259706	0.0291788761	3.00999541000001	
	
390000000.	0.0451478934	-39.1870841	0.932983208	93.4939414	0.121951039	-2.60474835	0.0133139601	1.88766551	
	0.932983221	93.4939408	0.0323897155	3.71502157	0.0133462505	2.06991263	0.125502672	7.87049976	
	0.121951046	-2.60471716	0.0133462483	2.06995058	0.0449484201	-38.9775609	0.933009229	93.5079456	
	0.0133140042	1.88771086	0.125502668	7.87049727	0.933009202	93.5079145	0.0324947818999999	3.26628350000001	
	
400000000.	0.0499079938	-46.2219159000001	0.931464971	86.7501538	0.125759268	-10.6383169	0.0134614888	-6.64791948	
	0.931464983	86.7501523	0.0360672567000001	2.75947584	0.0134954047	-6.46507816	0.129488391	2.94966559	
	0.125759273	-10.6382818	0.0134954018	-6.46503465	0.0497112114	-46.0395533	0.931494585	86.764454	
	0.0134615376	-6.64786518	0.129488385	2.94966332	0.931494567	86.7644181	0.0361606447999999	2.31834328000001	
	
410000000.	0.0543741988999999	-53.0047166000001	0.930087366	80.0132122	0.128350411	-18.6267941	0.0135427423	-15.101883	
	0.930087378	80.01321	0.0399678142999999	0.79469749200001	0.0135781406	-14.9188022	0.132286176	-2.01860655	
	0.128350414	-18.6267554	0.013578137	-14.9187537	0.0541839360999999	-52.8437990000001	0.930120516	80.0278091	
	0.0135427951	-15.1018195	0.132286169	-2.01860855	0.930120509	80.0277688	0.0400517737999999	0.365872167000001	
	
420000000.	0.0584994685	-59.5932110999999	0.928866286	73.281435	0.129702843	-26.5985349	0.013556022	-23.4399026	
	0.928866298	73.2814321	0.0439808399	-1.98469831999997	0.0135927361	-23.2569559	0.133870317	-7.00031479	
	0.129702843	-26.5984928	0.0135927318	-23.2569025999999	0.0583195675	-59.4495395	0.9289029	73.2963285	
	0.0135560782	-23.43983	0.133870309	-7.0003165	0.928902908	73.2962841	0.0440579081	-2.39953838	
	
430000000.	0.0622410698	-66.0285572000001	0.927811934	66.5529757	0.129809757	-34.5805415	0.0135012456	-31.6226339	
	0.927811947	66.5529721	0.0480085574999998	-5.41405135000006	0.0135390897	-31.4402296	0.13423183	-11.9641869	
	0.129809754	-34.5804964	0.0135390847	-31.4401721999999	0.0620754117	-65.8989443000001	0.927851923	66.5681658	
	0.0135013046	-31.6225524	0.134231822	-11.9641882	0.927851948	66.5681176	0.0480813629999999	-5.81491915000001	
	
440000000.	0.0655599375	-72.3417437000001	0.926928502	59.8258986	0.12867891	-42.6003619	0.0133803175	-39.6046947	
	0.926928515	59.8258944	0.0519630923	-9.36091118000006	0.0134190911	-39.4232969	0.133378281	-16.879251	
