!!!!!!!!!!!!!!!!!!!!!!!!!!!!!!!!!!!!!!!!!!!!!!!!!!!!!!!!!!!!!!!!!!!!!!!!!!!!!!!!!!!!!!!!!
!!
!! Reference: shanbhag_3dj_03_2305.pdf
!!
!!!!!!!!!!!!!!!!!!!!!!!!!!!!!!!!!!!!!!!!!!!!!!!!!!!!!!!!!!!!!!!!!!!!!!!!!!!!!!!!!!!!!!!!!
!!
!! CHANNEL DESCRIPTION: TP0_TP1a C2M Channel, PCB Host
!! MODEL DESCRIPTION: s4p, FEXT2
!! CONNECTOR DESCRIPTION: OSFP 200G SMT
!! MODEL STATUS: Developmental
!!
!! PORT DEFINITIONS: 
!! Port   1    ----->  Side A	      Side B  <-----  Port   2
!! Port   3    ----->  Side A	      Side B  <-----  Port   4
!!

# HZ S MA R 50.000000 


0.	0.0132870206	3.37544400000001e-13	8.92276955e-05	-180	0.000457501922	-8.5415452e-13	6.239862e-05	-180	
	8.92262938e-05	-180	0.0127876248000001	1.74538737999999e-13	0.000144185808	-180	0.000437645861	6.59830787e-13	
	0.000456663193	-8.55769717e-13	0.000144190729	-180	0.0129088448000001	4.56188910999996e-13	8.94584746e-05	-180	
	6.23991471e-05	-180	0.00043773553	6.59714664e-13	8.94578399e-05	-180	0.0127731661999999	8.50103718000006e-14	
	
10000000.	0.0137274680000001	3.87527059999998	0.000139629092	-137.000436	0.0100448725	82.3887842	0.00010012915	-135.562382	
	0.000139628902	-137.000563	0.0138348943999999	2.94246357000002	0.000188360076	-146.66618	0.00998819414	81.037819	
	0.0100448724	82.3887842	0.000188360086	-146.666153	0.0138249899	4.06655020000001	0.00014039927	-136.325717	
	0.000100129251	-135.562343	0.00998819445	81.0378186	0.000140399236	-136.325729	0.0138381408	2.98930188000001	
	
20000000.	0.014473377	5.38924657000002	0.000231396453	-127.184583	0.019966715	78.7017654	0.0001679059	-125.798791	
	0.000231396155	-127.184789	0.0150331495000001	3.26038127999998	0.000281133759	-134.265693	0.0198431914	75.9313882	
	0.019966684	78.7018375	0.000281135186	-134.265416	0.0145822222000001	5.17999706999996	0.000233400502	-125.995452	
	0.000167905892	-125.79873	0.0198432124	75.9316892	0.000233400039	-125.99541	0.0150413091	3.33512479999999	
	
30000000.	0.0149967448999999	6.16445686000004	0.000329987826	-127.356528	0.0297077899	74.167074	0.000240591564	-125.939692	
	0.000329987593	-127.356548	0.0165342622	2.37621358	0.000387855907	-131.887556	0.0295074386	70.0081536	
	0.0297077904	74.1670771	0.00038785611	-131.887597	0.0151091983999999	5.89805275000003	0.000334063503	-125.661464	
	0.000240591554	-125.939686	0.029507447	70.0081651	0.000334063488	-125.661453	0.0165497214999999	2.48490227000002	
	
40000000.	0.0154334128	6.68420047999999	0.000428698733	-130.791806	0.039183692	69.4382779	0.000313629782	-129.262153	
	0.000428698662	-130.79181	0.0182265335	0.23842777	0.000498303567	-133.490151	0.0388982253	63.8821214	
	0.0391836916	69.4382776	0.000498303472	-133.490122	0.0155036644000001	6.32768254999997	0.000436085727	-128.600322	
	0.000313629743	-129.262161	0.0388982167	63.8821248	0.000436085734	-128.600332	0.0182504969999999	0.362225567000002	
	
50000000.	0.0157666528000001	7.12728153999996	0.000525361366	-135.601305	0.0483159478	64.6424531	0.000385630954	-133.920995	
	0.000525361328	-135.601307	0.0200951111000001	-2.86444030999999	0.000609148252	-136.925693	0.0479362278	57.6766548	
	0.0483159478	64.6424531	0.000609148323	-136.925679	0.0157899581000001	6.78732665999997	0.000537662343	-132.938759	
	0.000385630867	-133.921005	0.0479362259	57.6766583	0.000537662349	-132.938763	0.0201276638000001	-2.73338973999999	
	
60000000.	0.0160206326	7.66972080000002	0.000618863077	-141.079121	0.057029398	59.8251441	0.00045592371	-139.234414	
	0.000618863109	-141.079119	0.0221026341	-6.74053508	0.000718941352	-141.318481	0.0565462337	51.4313827	
	0.0570293981	59.825144	0.000718941338	-141.318483	0.0160062349000001	7.40874523999995	0.000638001542	-137.981029	
	0.000455923631	-139.234418	0.0565462348	51.4313825	0.000638001579	-137.981026	0.0221438654	-6.60735365	
	
70000000.	0.0162282683	8.42517093000003	0.000708491022	-146.901252	0.0652537134	55.0080566	0.00052410168	-144.892712	
	0.000708491133	-146.901246	0.0242128843000001	-11.212561	0.000826926139	-146.254907	0.0646576336	45.1621144	
	0.0652537134	55.0080565	0.000826926067	-146.254906	0.0161886120000001	8.27916375999996	0.000736666953	-143.412695	
	0.000524101729	-144.892714	0.0646576337	45.1621165	0.00073666701	-143.412691	0.0242626479	-11.0810362	
	
80000000.	0.0164294254	9.46375169000003	0.000793757318	-152.895616	0.0729239013	50.2038345	0.00058990186	-150.733813	
	0.000793756682	-152.895611	0.0263938429999999	-16.1330327	0.000932663683	-151.51617	0.0722051441	38.875501	
	0.0729239014	50.2038344	0.000932663696	-151.516166	0.0163783259000001	9.44822281999996	0.000833390526	-149.07128	
	0.000589901851	-150.733776	0.0722051453	38.8755075	0.000833390587	-149.071277	0.0264517964999999	-16.0058384	
	
90000000.	0.0166699427	10.8048235	0.000874333255	-158.960178	0.0799807589	45.4212064	0.000653161364	-156.663719	
	0.000874334222	-158.960211	0.028616158	-21.3846522	0.00103589467	-156.976024	0.0791293273	32.5738229	
	0.0799807589	45.4212063	0.00103589477	-156.976021	0.0166207326	10.9169143	0.000928006917	-154.864351	
	0.000653160598	-156.663747	0.0791293312	32.5738288	0.000928006983	-154.86435	0.0286818766999999	-21.2636539000001	
	
100000000.	0.0169978692000001	12.4094491999999	0.000950045578	-165.028154	0.0863712896	40.6671026	0.000713802148	-162.623221	
	0.000950045711	-165.028152	0.0308520689000001	-26.8758567999999	0.00113648078	-162.556687	0.0853769686	26.2568605	
	0.0863712894	40.6671027	0.00113648071	-162.556687	0.0169620417999999	12.6319176000001	0.00102042593	-160.735543	
	0.000713802177	-162.623224	0.0853769688	26.2568567	0.00102042604	-160.735546	0.0309251242	-26.7624078	
	
110000000.	0.0174441531999999	13.9412105000001	0.00102078223	-171.047703	0.0920504526	35.9483556	0.000771782451	-168.568366	
	0.00102078176	-171.047695	0.0330741397	-32.5886344	0.00123427227	-168.200888	0.0909025718	19.9231626	
	0.0920504581	35.9483567	0.00123427398	-168.200934	0.0174341398000001	14.3277239999999	0.00111057464	-166.645091	
	0.00077178392	-168.568427	0.0909026185	19.9231574	0.00111057507	-166.645118	0.0331666094999999	-32.4751307000001	
	
120000000.	0.0180283933	15.6383163	0.00108676822	-176.99024	0.0969768165	31.2696148	0.00082725389	-174.477218	
	0.0010867673	-176.990219	0.0352550047000001	-38.3907756999999	0.00132946996	-173.882389	0.0956645964	13.5688205	
	0.0969768264	31.2696157	0.00132947279	-173.882479	0.0180630741000001	16.1032545999999	0.00119855315	-172.573172	
	0.000827256268	-174.477336	0.0956646774	13.5688174	0.00119855366	-172.573215	0.0353624649	-38.2825974	
	
130000000.	0.0188042247000001	17.3210139999999	0.0011482281	177.169428	0.101117453	26.6372586	0.000880346333	179.668375	
	0.00114822691	177.169464	0.0373711608	-44.2525550000001	0.00142214401	-179.57913	0.0996299167	7.1893664	
	0.101117466	26.6372586	0.00142214745	-179.579258	0.0188876141999999	17.7837396000001	0.0012844165	-178.504181	
	0.000880349185	179.668208	0.0996300223	7.18936728	0.00128441694	-178.504232	0.0374900954000001	-44.1528678999999	
	
140000000.	0.0198001376	18.7822007	0.00120551666	171.451278	0.104446454	22.058102	0.000931249616	173.881407	
	0.00120551534	171.451328	0.03939814	-50.1506899	0.00151240694	174.724562	0.102772305	0.779068008	
	0.104446469	22.0581008	0.0015124106	174.724406	0.019926232	19.1870805	0.00136825283	175.57262	
	0.000931252605	173.881202	0.102772428	0.779073596	0.00136825309	175.572567	0.0395257883999999	-50.0615555000001	
	
150000000.	0.0210191407999999	19.8421732000001	0.0012591216	165.870906	0.106944957	17.5397955	0.000980211476	168.17079	
	0.0012591203	165.870967	0.0413112767	-56.0675382000001	0.00160041011	169.039927	0.105072455	-5.66919875	
	0.106944973	17.5397932	0.00160041369	169.039751	0.0211770219999999	20.1633505000001	0.00145017931	169.664543	
	0.000980214355	168.170561	0.105072588	-5.6691883	0.00145017935	169.664492	0.04144549	-55.9904801999999	
	
160000000.	0.0224431244000001	20.3811774999999	0.00130966327	160.439724	0.108601183	13.0912492	0.00102753377	162.541951	
	0.00130966207	160.439794	0.0430861945	-61.9902863000001	0.00168634051	163.374988	0.106517995	-12.1641694	
	0.108601199	13.0912457	0.00168634382	163.374801	0.0226210136	20.6168375	0.00153033799	163.776389	
	0.00102753637	162.541708	0.106518133	-12.1641543	0.00153033779	163.776343	0.0432253157	-61.9265805999999	
	
170000000.	0.0240394623999999	20.3458359000001	0.00135789046	155.164746	0.109410511	8.72312774	0.001073567	156.997133	
	0.00135788945	155.164822	0.0446991515	-67.9101967000001	0.00177041772	157.735343	0.107103511	-18.7165204	
	0.109410527	8.7231231	0.00177042062	157.735151	0.0242271808	20.5085027	0.00160889142	157.911049	
	0.00107356921	156.996885	0.10710365	-18.7165011	0.001608891	157.911011	0.0448419185	-67.8610209	
	
180000000.	0.0257674571000001	19.7373408	0.00140467139	150.048114	0.109375621	4.44846353	0.00111870312	151.535564	
	0.00140467063	150.048192	0.0461273083	-73.8219561000001	0.00185289087	152.124677	0.106830614	-25.3393417	
	0.109375635	4.44845792	0.00185289327	152.124487	0.0259574332	19.8451944	0.00168601827	152.069926	
	0.00111870488	151.53532	0.10683075	-25.3393185	0.00168601766	152.069896	0.0462727767	-73.7884693	
	
190000000.	0.0275832713	18.5929878	0.00145097855	145.086495	0.108506716	0.283445241	0.00116336663	146.15356	
	0.00145097805	145.086573	0.0473489514	-79.7231434000001	0.0019340356	146.54512	0.105708071	-32.0488069	
	0.108506729	0.283438819	0.00193403747	146.544936	0.0277705724	18.6642304	0.00176190889	146.253227	
	0.00116336793	146.153327	0.105708201	-32.0487805	0.00176190815	146.253207	0.0474964327	-79.7065322999999	
	
200000000.	0.0294430832999999	16.9692529	0.0014978662	140.270514	0.106821889	-3.75154057	0.00120800405	140.844624	
	0.00149786597	140.270589	0.0483436886	-85.6138204	0.00201415098	140.997484	0.103752035	-38.8651264	
	0.1068219	-3.75154762	0.00201415231	140.997309	0.0296249615	17.0193809	0.00183676094	140.460195	
	0.0012080049	140.844405	0.103752156	-38.8650973	0.00183676012	140.460183	0.0484927004	-85.6153311	
	
210000000.	0.0313048163999999	14.9296862	0.00154644013	135.584378	0.104347669	-7.63050533	0.00125307176	135.599591	
	0.00154644015	135.584448	0.0490926275	-91.4962444999999	0.00209355624	135.481432	0.100986431	-45.8139108	
	0.104347677	-7.6305128	0.00209355705	135.481269	0.0314801132000001	14.9707104	0.00191077507	134.689277	
	0.00125307219	135.599391	0.100986542	-45.8138796	0.00191077422	134.689273	0.0492428539	-91.5172097999998	
	
220000000.	0.0331289424999999	12.537662	0.00159781944	131.005863	0.101119841	-11.3199337	0.00129902255	130.406865	
	0.00159781968	131.005925	0.0495785444	-97.3747016999999	0.00217258732	129.995599	0.0974435613	-52.9281496	
	0.101119847	-11.3199414	0.00217258765	129.99545	0.0332975382999999	12.578344	0.00198415075	128.938273	
	0.00129902261	130.406685	0.0974436617	-52.9281167	0.00198414992	128.938275	0.0497298049	-97.4165699999999	
	
230000000.	0.0348787845	9.85277072999999	0.0016530921	126.506812	0.0971846651	-14.7761089	0.00134629119	125.252745	
	0.00165309252	126.506866	0.0497860493	-103.255464	0.00225159296	124.537672	0.0931650497	-60.2511222	
	0.0971846685	-14.7761166	0.00225159286	124.537539	0.0350411663	9.89925231	0.00205708221	123.204453	
	0.00134629094	125.252587	0.0931651377	-60.2510883	0.00205708145	123.204461	0.0499382754	-103.319833	
	
240000000.	0.0365206016	6.92954105000001	0.00171326676	122.054238	0.0926006943	-17.9413583	0.00139527962	120.121876	
	0.00171326731	122.054283	0.0497017544	-109.146882	0.0023309303	119.104461	0.0882033186	-67.8407536	
	0.0926006955	-17.9413658	0.00233092985	119.104345	0.0366775598	6.98602913000001	0.00212975454	117.484663	
	0.00139527915	120.12174	0.0882033939	-67.8407191	0.00212975389	117.484674	0.0498549734	-109.23554	
	
250000000.	0.038023625	3.81748841	0.00177922479	117.61197	0.0874415136	-20.7387629	0.00144634238	114.997795	
	0.00177922542	117.612006	0.0493144515	-115.059637	0.00241095974	113.691959	0.0826239418	-75.7762355	
	0.0874415129	-20.73877	0.00241095901	113.69186	0.0381760631	3.88685244999999	0.00220233988	111.77542	
	0.00144634175	114.997682	0.0826240042	-75.776201	0.00220233935	111.775433	0.0494687784999999	-115.174614	
	
260000000.	0.0393601332	0.561848660000001	0.00185167718	113.142723	0.0817999258	-23.064753	0.00149977302	109.863557	
	0.00185167784	113.142751	0.048615307	-121.007193	0.00249203884	108.295393	0.0765094697	-84.1682407	
	0.0817999234	-23.0647593	0.00249203793	108.295311	0.0395089634999999	0.646086933000001	0.0022749937	106.072999	
	0.00149977229	109.863464	0.0765095195	-84.1682069	0.0022749933	106.073012	0.0487709453	-121.150831	
	
270000000.	0.0405056068	-2.795375	0.0019311303	108.610318	0.0757944056	-24.7790418	0.00155579227	104.702392	
	0.00193113093	108.610339	0.0475980864999999	-127.006532	0.00257451534	102.909303	0.0699658168	-93.1747903	
	0.075794402	-24.7790471	0.00257451435	102.909238	0.0406517083999999	-2.69479467000001	0.00234785121	100.373517	
	0.00155579153	104.702318	0.0699658544	-93.1747578	0.00234785095	100.373529	0.0477553387000001	-127.181565	
	
280000000.	0.0414389796000001	-6.21424183999999	0.00201786378	103.981759	0.0695790568	-25.6919954	0.00161453868	99.4983544	
	0.00201786435	103.981773	0.0462594244	-133.079272	0.00265871904	97.527622	0.0631331852	-103.02565	
	0.0695790524	-25.6919995	0.00265871806	97.5275732	0.0415831986000001	-6.09614510999999	0.00242102393	94.6730166	
	0.00161453798	99.4982977	0.0631332115	-103.02562	0.00242102378	94.6730264	0.0464187155	-133.28894	
	
290000000.	0.042142989	-9.65566252	0.00211192181	99.2289105	0.063358641	-25.5521274	0.00167606211	94.2369112	
	0.00211192228	99.2289184	0.044599164	-139.253387	0.00274495282	92.1437898	0.0562050178	-114.057786	
	0.0633586363	-25.5521298	0.00274495195	92.1437558	0.0422861646999999	-9.51901153000002	0.00249459634	88.967542	
	0.00167606151	94.2368697	0.0562050341	-114.057759	0.00249459628	88.9675487	0.0447610813999999	-139.501576	
	
300000000.	0.042604628	-13.0801692	0.00221311723	94.3295937	0.0574096827	-24.0441708	0.00174032046	88.9054283	
	0.00221311756	94.329597	0.0426208101999999	-145.565841	0.00283348301	86.7508872	0.0494604817	-126.757474	
	0.0574096784	-24.0441713	0.00283348235	86.7508667	0.042747636	-12.9239655	0.00256862281	83.2532223	
	0.00174032001	88.9053998	0.0494604896	-126.757453	0.00256862282	83.2532256	0.0427861667	-145.857273	
	
310000000.	0.0428157017000001	-16.4466583	0.00232104654	89.2680592	0.0521045093	-20.8265755	0.00180717972	83.4935297	
	0.00232104671	89.2680587	0.0403321668999999	-152.06671	0.00292452938	81.3417997	0.0433156218	-141.772266	
	0.0521045059	-20.8265739	0.002924529	81.341791	0.0429595054000001	-16.2698915	0.00264312489	77.5263502	
	0.00180717946	83.4935121	0.0433156237	-141.772253	0.00264312492	77.5263497	0.0405020953	-152.407177	
	
320000000.	0.0427734978000001	-19.7110872	0.0024351129	84.03489	0.0479215283	-15.6646321	0.00187641713	77.9933159	
	0.00243511289	84.0348865	0.0377462895999999	-158.825768	0.00301825536	75.9094009	0.0383814587	-159.756558	
	0.0479215264	-15.6646287	0.00301825534	75.9094023	0.0429192055000001	-19.512723	0.00271808895	71.7834603	
	0.00187641709	77.9933072	0.0383814578	-159.756557	0.00271808898	71.783456	0.0379223859999999	-159.222435	
	
330000000.	0.0424815893000001	-22.8251185	0.00255455413	78.6264731	0.0453993438	-8.70125241	0.00194772723	72.3994446	
	0.00255455392	78.6264674	0.0348830042	-165.943326	0.00311475904	70.4467535	0.0354484121	179.216592	
	0.045399344	-8.70124794	0.00311475943	70.4467632	0.0426305148	-22.6041241	0.00279346455	66.0214056	
	0.00194772743	72.399443	0.0354484127	179.21658	0.00279346455	66.0213978	0.0350675432	-166.405059	
	
340000000.	0.0419508011000001	-25.7347363999999	0.00267847306	73.0441969	0.0449870491	-0.722805887	0.0020207303	66.7090898	
	0.00267847263	73.0441895	0.0317714810000001	-173.568592	0.00321406557	64.9473125	0.0352227321	156.543286	
	0.0449870515	-0.722801789	0.00321406641	64.9473288	0.0421045242	-25.4901533	0.00286916342	60.2374301	
	0.00202073075	66.7090935	0.035222738	156.543266	0.00286916335	60.2374191	0.0319677442	-174.106216	
	
350000000.	0.0412003767999999	-28.3789463	0.0028058681	67.2935251	0.046838496	6.98588078	0.00209498283	60.9218009	
	0.00280586744	67.2935166	0.0284548825	178.068289	0.00331612154	59.4051233	0.0378587814	134.809502	
	0.0468385002	6.98588323	0.00331612287	59.4051445	0.0413608038	-28.1100262	0.00294505943	54.4292341	
	0.00209498354	60.9218086	0.0378587945	134.80948	0.00294505929	54.4292204	0.0286676593000001	177.442209	
	
360000000.	0.0402593898	-30.6888147	0.00293566279	61.3830665	0.0507352536	13.2830868	0.0021699894	55.0392906	
	0.00293566189	61.3830571	0.0249992564	168.599305	0.00342079184	53.8149983	0.0428507274	115.886629	
	0.0507352589	13.2830871	0.00342079367	53.815023	0.0404288068999999	-30.3952478000001	0.00302098956	48.5950316	
	0.00216999036	55.039301	0.042850747	115.886611	0.00302098933	48.5950158	0.0252355842	167.87246	
	
370000000.	0.0391684164999999	-32.5873920000001	0.0030667333	55.3237173	0.0562234426	17.6572902	0.00224521557	49.0651762	
	0.00306673215	55.3237074	0.0215114157999999	157.419261	0.00352785928	48.1726635	0.0494424816	100.052944	
	0.0562234483	17.6572886	0.00352786159	48.1726903	0.0393495258	-32.269665	0.00309675594	42.7335957	
	0.00224521676	49.0651883	0.049442506	100.052931	0.0030967556	42.7335781	0.021781529	156.587416	
	
380000000.	0.037981418	-33.9915038	0.00319793354	49.127922	0.0628106756	20.1572853	0.00232010127	43.0046988	
	0.00319793213	49.1279118	0.0181755802	143.53698	0.00363702706	42.474864	0.0569854362	86.7382463	
	0.0628106812	20.1572822	0.00363702986	42.4748919	0.0381773356999999	-33.6514308000001	0.00317212899	36.8442903	
	0.0023201027	43.0047118	0.0569854635	86.7382381	0.00317212856	36.8442714	0.0184933996	142.629196	
	
390000000.	0.0367676045	-34.8170357	0.00332811774	42.8090658	0.0700765085	21.086311	0.00239407431	36.8644384	
	0.00332811606	42.8090555	0.0153224537	125.506983	0.00374792412	36.7194255	0.0650193311	75.2637034	
	0.0700765137	21.086307	0.00374792737	36.7194536	0.0369817876	-34.4584783	0.00324685176	30.9270869	
	0.00239407596	36.8644518	0.0650193596	75.2636984	0.00324685124	30.927067	0.0157023596	124.650935	
	
400000000.	0.0356127146999999	-34.9899423000001	0.00345616029	36.3809988	0.0776951538	20.7852508	0.00246656357	30.6520401	
	0.00345615834	36.3809886	0.0135064875	102.180488	0.00386011275	30.9052685	0.0732302761	65.0940667	
	0.0776951582	20.7852462	0.00386011641	30.9052961	0.0358487681	-34.6196561	0.00332064503	24.982565	
	0.00246656541	30.6520535	0.0732303044	65.0940638	0.00332064443	24.9825444	0.013948135	101.680964	
	
410000000.	0.0346186113	-34.465102	0.00358097308	29.8576775	0.0854205909	19.5460376	0.00253701144	24.3759598	
	0.00358097086	29.8576674	0.0133759375	75.3688221000004	0.00397309823	25.0323797	0.0813987209	55.8534122	
	0.0854205944	19.5460327	0.00397310228	25.0324065	0.0348799271	-34.09346	0.00339321337	19.0118964	
	0.00253701346	24.3759728	0.0813987479	55.8534106	0.00339321271	19.0118754	0.0138426469	75.5205311000004	
	
420000000.	0.033899512	-33.2528367	0.00370152019	23.2529073	0.0930654058	17.5952392	0.00260488545	18.0452363	
	0.00370151769	23.2528974	0.0151293693	50.4788155	0.00408633974	19.1017457	0.0893638304	47.2852955	
	0.0930654084	17.5952342	0.00408634414	19.1017712	0.0341887285	-32.8939135	0.00346425163	13.0168148	
	0.00260488761	18.0452488	0.0893638551	47.2852946	0.00346425091	13.0167934	0.0155707543999999	51.1487895000003	
	
430000000.	0.033573097	-31.4468574	0.00381683018	16.5801694	0.100483655	15.1023763	0.0026696885	11.6692923	
	0.0038168274	16.5801599	0.0183273591	30.828187	0.00419926182	13.1152576	0.0970022832	39.2141693	
	0.100483657	15.1023713	0.00419926652	13.1152818	0.0338914679999999	-31.1171874000001	0.00353345165	6.99957198	
	0.00266969079	11.6693042	0.0970023049	39.2141688	0.00353345089	6.99955012	0.0187239522000001	31.6788676999999	
	
440000000.	0.0337461108999999	-29.2389356000001	0.00392600596	9.85251517	0.107558989	12.1931313	0.00273096773	5.25776512	
	0.00392600291	9.85250614	0.0224092257	15.8935155	0.00431126579	7.07559702	0.104216064	31.5178747	
