!!!!!!!!!!!!!!!!!!!!!!!!!!!!!!!!!!!!!!!!!!!!!!!!!!!!!!!!!!!!!!!!!!!!!!!!!!!!!!!!!!!!!!!!!
!!
!! Reference: shanbhag_3dj_03_2305.pdf
!!
!!!!!!!!!!!!!!!!!!!!!!!!!!!!!!!!!!!!!!!!!!!!!!!!!!!!!!!!!!!!!!!!!!!!!!!!!!!!!!!!!!!!!!!!!
!!
!! CHANNEL DESCRIPTION: TP0_TP1a C2M Channel, PCB Host
!! MODEL DESCRIPTION: s4p, THRU
!! CONNECTOR DESCRIPTION: OSFP 200G SMT
!! MODEL STATUS: Developmental
!!
!! PORT DEFINITIONS: 
!! Port   1    ----->  Side A	      Side B  <-----  Port   2
!! Port   3    ----->  Side A	      Side B  <-----  Port   4
!!
# HZ S MA R 50.000000 


0.	0.0133814254	-6.43414863000001e-13	0.986124967	-1.41191339e-14	0.000456180964	-3.72629355e-11	0.000406766391	180	
	0.986144328	-1.41191429e-14	0.0139126069	-9.15303570000003e-13	0.000414294268	-180	0.000453971417	-2.52857525e-11	
	0.000456078113	-3.72696228e-11	0.000414308582	-180	0.0137983336	-6.98187011999998e-13	0.985862137	7.47242135e-14	
	0.000406999163	180	0.000453133743	-2.53326083e-11	0.985926735	7.47242283e-14	0.0135417199000001	5.59202637999997e-13	
	
10000000.	0.0143975896999999	1.91000404000001	0.985319671	-5.88224343	0.0101294094	80.8096507	0.000540323809	-146.715652	
	0.985319672	-5.88224332	0.0143269928000001	2.74726281000002	0.000540649726	-146.631457	0.0101754404	82.2479913	
	0.0101294096	80.8096502	0.000540649576	-146.631458	0.01449315	2.14736357	0.985091529	-5.8852434	
	0.000540323826	-146.715648	0.0101754402	82.2479912	0.985091528	-5.88524324	0.0144301828999999	2.91179895000002	
	
20000000.	0.0155253319	1.46997723	0.984317844	-11.7337156	0.0201151472	75.601938	0.000799196115	-134.944672	
	0.984318469	-11.7335342	0.0150109923999999	3.33924427000007	0.000802348224	-134.894676	0.0202203677	78.3395033	
	0.0201151112	75.601797	0.000802355890999998	-134.893192	0.0156802594999999	1.73606152000001	0.98403955	-11.7347297	
	0.000799201917	-134.944354	0.0202203369	78.3395749	0.984041283	-11.7344513	0.0151266996	3.10320191999999	
	
30000000.	0.0169284448	0.0341813637999978	0.983258326	-17.5746967	0.0298955224	69.5512209	0.00108931479	-132.937006	
	0.983258504	-17.5746906	0.0154444216999999	3.28830126000004	0.00109333591	-132.929289	0.0300684181	73.6012553	
	0.0298955182	69.5512255	0.00109333833	-132.929382	0.0170856941	0.0290185878000001	0.982971003	-17.5726739	
	0.0010893149	-132.937023	0.0300684186	73.6012585	0.982971246	-17.5726689	0.0155638572	2.97935619	
	
40000000.	0.0185068261	-2.49484602	0.982108827	-23.4072223	0.0393801241	63.2908852	0.00137848117	-134.641658	
	0.982108675	-23.4072221	0.0157648966000002	3.05831522000002	0.00138338959	-134.708988	0.0396276791	68.673685	
	0.0393801257	63.2908826	0.00138338863	-134.708908	0.018655027	-2.56897688	0.981830932	-23.4029134	
	0.00137848121	-134.641717	0.0396276787	68.6736847	0.98183077	-23.4029115	0.0158427408000001	2.63664328999998	
	
50000000.	0.0202503051	-5.87507557000002	0.98086618	-29.2313197	0.0484830532	56.9485074	0.00165929549	-137.987234	
	0.980866145	-29.2313193	0.0159572387000001	2.81683940000023	0.00166395375	-138.107592	0.0488125345	63.6814484	
	0.0484830532	56.9485065	0.00166395372	-138.107563	0.0203882609	-5.97385628000001	0.980605004	-29.2253204	
	0.00165929561	-137.987245	0.0488125345	63.6814484	0.980604973	-29.2253198	0.0159874952000001	2.38259881999999	
	
60000000.	0.0221240692000001	-9.95249544999995	0.979538559	-35.0467292	0.0571228034	50.5652772	0.00192831333	-142.129072	
	0.979538567	-35.0467313	0.0160459789999998	2.74147830999964	0.00193194599	-142.275824	0.057541319	58.6693758	
	0.0571228036	50.5652774	0.00193194532999999	-142.275826	0.0222506376000001	-10.0519514	0.979296381	-35.0394992	
	0.001928314	-142.129065	0.057541319	58.6693757	0.979296389	-35.0395015	0.0160365109000001	2.35605777999999	
	
70000000.	0.0240922912	-14.5773222	0.978139745	-40.8531353	0.0652231544	44.1578113	0.00218449821	-146.660974	
	0.97813974	-40.8531356	0.0160646111	2.95864286999966	0.00218658437	-146.813377	0.0657379286	53.6589421	
	0.0652231545	44.1578112	0.00218658434	-146.81337	0.0242082631999999	-14.6653988000001	0.977916587	-40.845007	
	0.00218449813	-146.660973	0.0657379286	53.658942	0.977916584	-40.8450075	0.0160264894000001	2.66055835999999	
	
80000000.	0.0261220810000001	-19.6201849999999	0.976687061	-46.6502963	0.0727139932	37.7331952	0.00242813908	-151.369661	
	0.976687064	-46.6502926	0.0160543546	3.56013772999989	0.00242840175	-151.511306	0.0733324094	48.6627485	
	0.0727139927	37.7331951	0.00242840346	-151.511305	0.0262287058000001	-19.6927223999999	0.976482034	-46.641507	
	0.00242813721	-151.369653	0.0733324094	48.6627485	0.976482042	-46.6415035	0.0160001705	3.37032751	
	
90000000.	0.0281825469	-24.9752057	0.975199845	-52.4381173	0.079531871	31.2939398	0.00266036912	-156.135147	
	0.975199873	-52.4381122	0.0160639204000001	4.59218748999987	0.00265876567	-156.253931	0.0802614718	43.6895727	
	0.0795318703	31.2939398	0.00265876806	-156.253948	0.0282808919000001	-25.0316984999999	0.97501175	-52.4288375	
	0.0026603665	-156.135122	0.0802614718	43.6895727	0.97501178	-52.4288327	0.0160060882000001	4.51504338999997	
	
100000000.	0.0302440722000001	-30.5578382999999	0.973698231	-58.2166816	0.0856204094	24.8399267	0.00288295453	-160.888201	
	0.973698235	-58.2166812	0.0161462918999999	6.04009624000009	0.00287961984	-160.976015	0.0864689448	38.7464569	
	0.0856204091	24.8399263	0.00287962024	-160.976017	0.0303350423	-30.5990973	0.97352582	-58.2070361	
	0.00288295405	-160.888197	0.0864689447	38.746457	0.973525826	-58.2070355	0.0160957714	6.06591132000001	
	
110000000.	0.032279193	-36.3561817999999	0.972206567	-63.9852947	0.0909309331	18.3696184	0.00309523689	-165.58422	
	0.972206594	-63.9852896	0.0163426602000001	7.56060255000008	0.00308799155	-165.62257	0.0919076788	33.8403054	
	0.0909309053	18.3696012	0.00308799738	-165.622633	0.0323764419000001	-36.3674666999999	0.972037442	-63.9762286	
	0.00309520047	-165.584531	0.0919076843	33.8403064	0.972037773	-63.9762054	0.0163107807	7.75457725	
	
120000000.	0.0342559312000001	-42.2383964999999	0.970738568	-69.7457461	0.0954215968	11.8792716	0.0033036895	-170.189791	
	0.970738614	-69.7457376	0.0166746874	9.39871491999986	0.00329424993	-170.163087	0.0965346977	28.9761299	
	0.0954215479	11.8792425	0.0032942592	-170.163196	0.0343563827000001	-42.2315026999999	0.970575158	-69.7369527	
	0.00330362424	-170.190273	0.0965347077	28.9761306	0.970575714	-69.7369133	0.0166813297	9.67793013000002	
	
130000000.	0.0361492383	-48.1758661	0.969311947	-75.4985543	0.0990587216	5.36414601	0.00351108247	-174.720114	
	0.96931201	-75.4985432	0.0172040254	11.3490183	0.00350111888	-174.630388	0.100316703	24.1606871	
	0.0990586572	5.36410847	0.00350113018	-174.630529	0.0362502909999999	-48.1581335000001	0.969156318	-75.489839	
	0.00351099466	-174.720674	0.100316716	24.1606869	0.969157024	-75.4897879	0.0172540468999999	11.6282588000001	
	
140000000.	0.0379332694999999	-54.1460062000001	0.967942584	-81.2444288	0.101816346	-1.18184907	0.00371981629	-179.192777	
	0.967942658	-81.2444159	0.0179653468	13.1511313999999	0.00371068635	-179.05143	0.103228333	19.4013209	
	0.101816271	-1.18189262	0.0037106987	-179.051593	0.0380329613	-54.1222445	0.967796289	-81.2356723	
	0.00371971144	-179.193356	0.103228348	19.4013194	0.967797086	-81.2356128	0.0180530239	13.3680196	
	
150000000.	0.0395821952	-60.1315605	0.966643886	-86.9842367	0.103676243	-7.76632514	0.00393195612	176.374445	
	0.966643968	-86.9842226	0.0189639317999999	14.562255	0.00392460454	176.552526	0.105252166	14.7064304	
	0.103676162	-7.76637287	0.00392461724	176.552352	0.0396792081	-60.1051026	0.966507966	-86.9753688	
	0.00393183903	176.373886	0.105252182	14.7064277	0.96650881	-86.9753035	0.019078161	14.6864228	
	
160000000.	0.0410707261	-66.1198660999999	0.965426357	-92.7189674	0.104627924	-14.3986948	0.0041492771	171.964932	
	0.965426443	-92.7189524	0.0201797021000003	15.4097525999997	0.00414424171	172.165123	0.106378749	10.085992	
	0.104627842	-14.3987452	0.00414425428	172.164943	0.0411643346	-66.0931468000001	0.965301399	-92.7099492	
	0.00414915196	171.964416	0.106378765	10.085988	0.965302255	-92.7098802	0.0203084108	15.4384944	
	
170000000.	0.042374494	-72.1021566	0.964297313	-98.4496954	0.104668663	-21.0905908	0.00437332243	167.563969	
	0.9642974	-98.44968	0.021575011	15.6084075000001	0.00437079935	167.773944	0.106606669	5.55219193	
	0.104668581	-21.0906428	0.00437081148	167.773764	0.0424644972	-72.0770362000001	0.964183531	-98.4405078	
	0.0043731929	167.563508	0.106606685	5.55218679	0.964184374	-98.4404367	0.021707932	15.5558969	
	
180000000.	0.0434703495	-78.0729523	0.963260725	-104.177544	0.103803549	-27.8564759	0.004605472	163.15902	
	0.963260812	-104.177528	0.0231027869	15.1482977999999	0.00460540509	163.36956	0.105942708	1.12023793	
	0.103803471	-27.8565285	0.00460541657	163.369384	0.0435570034	-78.0509026999999	0.963158045	-104.168179	
	0.00460534126	163.158622	0.105942722	1.12023177	0.963158855	-104.168107	0.0232325943	15.0351693	
	
190000000.	0.0443366128	-84.029561	0.962317181	-109.903648	0.102045637	-34.7145273	0.0048470165	158.739624	
	0.962317265	-109.903632	0.0247128370999998	14.0699887000002	0.00484918794	158.944633	0.104402113	-3.19056125	
	0.102045564	-34.7145794	0.00484919865000001	158.944464	0.0444205643	-84.0117789	0.962225311	-109.894104	
	0.00484688725	158.73929	0.104402124	-3.19056827	0.962226074	-109.894033	0.0248351542	13.9165032	
	
200000000.	0.0449532923	-89.9716997	0.961463943	-115.629116	0.0994161976	-41.6879273	0.00509923049	154.296995	
	0.961464023	-115.629101	0.0263557787	12.4406667999999	0.00510333913	154.493077	0.102009035	-7.35531875	
	0.0994161315	-41.6879784	0.00510334901	154.492918	0.0450355179	-89.9591785	0.961382445	-115.619394	
	0.00509910505	154.296722	0.102009045	-7.35532644	0.961383151	-115.619325	0.0264686331	12.2635235	
	
210000000.	0.0453022816	-95.9012406999998	0.960695118	-121.354998	0.0959451609	-48.8067762	0.00536343688	149.823424	
	0.960695193	-121.354983	0.0279850525999999	10.3370630000001	0.00536915866	150.009282	0.0987972332	-11.3415021	
	0.0959451024	-48.8068255	0.0053691677	150.009134	0.0453840289	-95.8948195999999	0.960623456	-121.345101	
	0.00536331718	149.823208	0.0987972405	-11.3415103	0.9606241	-121.345034	0.0280881876	10.1486334	
	
220000000.	0.0453675419	-101.822087	0.960001909	-127.082252	0.0916718324	-56.1109734	0.00564105523	145.311588	
	0.960001979	-127.082237	0.0295577338	7.83546938000017	0.00564808488	145.487405	0.0948111377	-15.1059797	
	0.0916717819	-56.1110204	0.00564809308	145.487268	0.0454502737	-101.822486	0.959939496	-127.07218	
	0.00564094287	145.311423	0.0948111426	-15.1059881	0.959940073	-127.072116	0.0296519889	7.6442358	
	
230000000.	0.0451352747	-107.740191	0.959372957	-132.811713	0.0866460625	-63.6546551	0.00593362661	140.753864	
	0.959373021	-132.8117	0.0310347269999999	5.00701090999992	0.00594170293	140.920755	0.0901075174	-18.5907242	
	0.0866460201	-63.6546993	0.00594171033000001	140.920631	0.0452206166	-107.748038	0.959319182	-132.801468	
	0.00593352287	140.753743	0.0901075199	-18.5907326	0.959319691	-132.801408	0.0311215612000001	4.81841282999999	
	
240000000.	0.0445940907	-113.663739	0.958794749	-138.544074	0.0809301722	-71.5131909	0.00624280934	136.141744	
	0.958794807	-138.544061	0.0323807235999999	1.91616762999996	0.00625172784	136.301332	0.0847580758	-21.7164694	
	0.0809301375	-71.5132318	0.00625173447	136.30122	0.0446837806	-113.679587	0.958749002	-138.533653	
	0.00624271519	136.14166	0.084758076	-21.7164776	0.958749444	-138.533597	0.0324618874000001	1.73345631999999	
	
250000000.	0.0437351798	-119.603552	0.958252097	-144.279856	0.0746022123	-79.7944991	0.00657034201	131.465441	
	0.958252149	-144.279844	0.0335641307000002	-1.37892197999997	0.0065799586	131.61954	0.078853593	-24.3732619	
	0.0746021847	-79.7945363	0.0065799645	131.619441	0.0438310214	-119.627893	0.958213788	-144.269258	
	0.00657025818	131.465387	0.0788535914	-24.3732696	0.958214164	-144.269207	0.0336414595000001	-1.55397875	
	
260000000.	0.0425524907	-125.573791	0.957728661	-150.019405	0.0677616677	-88.6578	0.00691797341	126.713738	
	0.957728708	-150.019393	0.0345570703999999	-4.82528058999996	0.00692820256	126.864145	0.0725106613	-26.4064383	
	0.0677616464	-88.6578334	0.00692820779	126.864059	0.0426563098000001	-125.60706	0.957697228	-150.008624	
	0.00691790037	126.713707	0.0725106581	-26.4064452	0.957697541	-150.008578	0.034632368	-4.99187576	
	
270000000.	0.0410429303999999	-131.593101	0.957207512	-155.76287	0.0605398273	-98.3452638	0.00728736245	121.87412	
	0.957207553	-155.76286	0.035335491	-8.37351898999996	0.00729817239	122.022485	0.065882801	-27.5964568	
	0.0605398114	-98.345293	0.00729817697	122.022411	0.0411565354999999	-131.635665	0.95718243	-155.751902	
	0.00728730047	121.874106	0.0658827966	-27.5964626	0.957182684	-155.751862	0.0354104748	-8.53144702000001	
	
280000000.	0.0392066029999999	-137.686471	0.95667171	-161.510212	0.0531193256	-109.235281	0.00767995507	116.933172	
	0.956671747	-161.510203	0.035879403	-11.9760897999999	0.00769136154	117.080924	0.0591788199	-27.6327507	
	0.0531193143	-109.235306	0.00769136552	117.080862	0.0393317492	-137.738599	0.956652494	-161.49905	
	0.00767990424	116.933171	0.0591788149	-27.6327548	0.956652695	-161.499016	0.0359556866	-12.1255187	
	
290000000.	0.0370471164	-143.888256	0.95610489	-167.261198	0.0457718298	-121.92643	0.00809684833	111.877199	
	0.956104923	-167.26119	0.0361732431000001	-15.5854306	0.00810890793	112.025515	0.0526920789	-26.0905041	
	0.0457718221	-121.926451	0.00810891134	112.025465	0.0371854743	-143.950043	0.956091098	-167.249834	
	0.00809680855	111.877205	0.0526920738	-26.0905061	0.956091249	-167.249807	0.0362523393999999	-15.726775	
	
300000000.	0.0345720193000001	-150.247245	0.955491821	-173.015416	0.038929146	-137.334029	0.00853865377	106.69298	
	0.95549185	-173.015408	0.0362063706	-19.151969	0.00855145726	106.842781	0.0468414331	-22.448778	
	0.0389291412	-137.334046	0.00855146014	106.842742	0.0347251472	-150.318451	0.955483055	-173.003842	
	0.00853862484	106.69299	0.0468414288	-22.4487775	0.955483163	-173.00382	0.0362897049000001	-19.285841	
	
310000000.	0.0317934830000001	-156.835457	0.954818942	-178.772286	0.0332960367	-156.623352	0.00900537302	101.368567	
	0.954818967	-178.772279	0.0359737146	-22.6219059	0.00901903856	101.520526	0.0422063141	-16.256636	
	0.0332960344	-156.623366	0.00901904091	101.520498	0.031962801	-156.915162	0.954814846	-178.760492	
	0.0090053546	101.36858	0.0422063112	-16.2566329	0.954814917	-178.760477	0.0360626371000001	-22.7491315	
	
320000000.	0.0287294803999999	-163.764184	0.954074826	175.468916	0.0299126637	179.644256	0.00949629671	95.8940131	
	0.954074849	175.468922	0.0354766057999999	-25.9346652	0.00951096306	96.048578	0.039486111	-7.59439018	
	0.0299126634	179.644247	0.0095109649	96.0485602	0.0289162416	-163.850048	0.95407509	175.48094	
	0.00949628836	95.8940262	0.0394861102	-7.5943854	0.954075129	175.480949	0.0355723988999999	-26.0563636	
	
330000000.	0.0254060364000001	-171.215015	0.953250589	169.709034	0.0297987072	153.46983	0.0100099356	90.2619555	
	0.953250609	169.709039	0.0347238569999998	-29.0198956000002	0.0100257552	90.4193769	0.0392724086	2.36736749	
	0.0297987089	153.469827	0.0100257566	90.4193689	0.0256112725000001	-171.301567	0.953254945	169.721298	
	0.0100099368	90.2619679	0.0392724102	2.36737211	0.953254959	169.721301	0.0348277322999999	-29.1376278000001	
	
340000000.	0.0218619758	-179.50421	0.952340197	163.949002	0.033098753	129.142738	0.0105439885	84.467994	
	0.952340216	163.949005	0.0337331942	-31.7939620999999	0.0105611209	84.6283574	0.0417026086	11.6397731	
	0.0330987563	129.142741	0.0105611217	84.6283585	0.0220863528999999	-179.578686	0.952348418	163.961517	
	0.0105439988	84.4680054	0.041702612	11.6397758	0.952348412	163.961513	0.0338462716	-31.9099701	
	
350000000.	0.0181600923	170.772389	0.951340681	158.189811	0.0389580749	109.163367	0.011095349	78.5108527	
	0.951340697	158.189814	0.0325331829999999	-34.1560577	0.0111139533	78.6741112	0.0463764859	18.6920714	
	0.0389580795	109.163376	0.0111139536	78.6741209	0.0184034379999999	170.741182	0.951352578	158.202588	
	0.0110953676	78.5108631	0.0463764905	18.6920716	0.951352558	158.202579	0.0326564441	-34.2736215	
	
360000000.	0.0144168286000001	158.386317	0.950252236	152.432477	0.0463439519	93.2284796	0.0116601466	72.3923343	
	0.950252252	152.432479	0.0311658338999999	-35.9845543000001	0.0116803757	72.5583419	0.0526457238	23.1367315	
	0.0463439576	93.2284952	0.0116803754	72.5583596	0.0146763935000001	158.480609	0.950267662	152.445527	
	0.011660173	72.3923441	0.0526457287	23.1367296	0.950267633	152.445512	0.0313000325000001	-36.1085001999999	
	
370000000.	0.0108912693	140.611087	0.949078224	146.678005	0.0545155253	80.1778207	0.0122338198	66.1171096	
	0.949078238	146.678006	0.0296900448000001	-37.1353366	0.0122558141	66.2856517	0.0599072156	25.3198959	
	0.0545155318	80.1778416	0.0122558133	66.2856769	0.0111546844	141.061479	0.949097063	146.691339	
	0.0122338534	66.1171195	0.0599072204	25.3198925	0.94909703	146.691318	0.0298355511999999	-37.2727058000001	
	
380000000.	0.00824937857000002	112.108362	0.947825044	140.927352	0.0630095974	69.0442503	0.0128112129	59.6923905	
	0.947825058	140.927353	0.0281858369	-37.4461235999998	0.012835095	59.8632112	0.0677026032	25.7706139	
	0.0630096044	69.0442761	0.0128350937	59.8632432	0.00846851262	113.443846	0.947847215	140.94098	
	0.0128112529	59.692401	0.0677026074	25.7706097	0.947847182	140.940954	0.0283423816000001	-37.6069086999999	
	
390000000.	0.00782962949000003	72.2492013999993	0.946501923	135.181401	0.0715319085	59.1866409	0.0133866889	53.1275404	
	0.946501936	135.1814	0.026758674	-36.7544956000001	0.0134125599	53.3003654	0.0757037175	24.9518315	
	0.0715319156	59.1866712	0.013412558	53.3004036	0.00790176695999999	74.4317872000003	0.946527372	135.195332	
	0.0133867348	53.1275523	0.0757037209	24.9518268	0.946527344	135.195301	0.0269249647000001	-36.9520917999999	
	
400000000.	0.0101274617000001	38.6964740999996	0.94512059	129.440924	0.0798825626	50.199505	0.013954254	46.4336695	
	0.945120603	129.440923	0.0255416300000001	-34.9409758999999	0.01398219	46.6082245	0.0836740322	23.2104229	
	0.0798825695	50.1995394	0.0139821874	46.6082685	0.0100407906	40.4583437000002	0.945149289	129.455168	
	0.013954305	46.4336836	0.0836740347	23.210418	0.94514927	129.455132	0.0257148697	-35.191504	
	
410000000.	0.0139609285	17.8171822	0.943694885	123.706564	0.0879157456	41.8243092	0.0145076845	39.6232525	
	0.943694899	123.706562	0.0246907164	-32.0047201999999	0.014537735	39.7992769	0.0914374851	20.7936898	
	0.0879157517	41.8243474	0.0145377317	39.7993261	0.0137829239999999	18.9863318000001	0.943726827	123.721128	
	0.01450774	39.6232693	0.0914374866	20.7936848	0.94372682	123.721087	0.0248662066	-32.32395	
	
420000000.	0.0184432694000001	4.06717171999998	0.9422403	117.978808	0.095518855	33.8919086	0.0150406538	32.7097946	
	0.942240313	117.978805	0.0243671346999999	-28.1535880000001	0.0150728405	32.8870511	0.0988581643	17.876354	
	0.0955188597	33.8919503	0.0150728364	32.8871049	0.0182147991	4.87614587	0.942275492	117.993698	
	0.0150407131	32.7098147	0.0988581648	17.8763491	0.942275499	117.993654	0.0245383770000001	-28.5509328999999	
	
430000000.	0.0232123671000001	-6.19211978999998	0.940773465	112.257976	0.102601528	26.2881828	0.0155468538	25.707565	
	0.940773479	112.257972	0.0247047135000002	-23.8421358999998	0.0155811713	25.8858447	0.105827908	14.5828804	
	0.102601531	26.2882278	0.0155811665	25.8859027	0.0229527944	-5.59357848000001	0.940811926	112.273199	
	0.0155469164	25.7075887	0.105827907	14.5828756	0.940811949	112.273151	0.0248644352	-24.314309	
	
440000000.	0.0281078814000001	-14.6007879999999	0.939311625	106.544208	0.109089681	18.9336787	0.0160201108	18.6314038	
	0.939311639	106.544204	0.0257742915	-19.6798204999999	0.0160565274	18.8105289	0.112258834	11.0033442	
	0.109089682	18.9337265	0.0160565217	18.8105905999999	0.0278276389000001	-14.1331286	0.939353378	106.559768	
	0.0160201759	18.6314315	0.112258832	11.0033395	0.939353421	106.559716	0.0259162217000001	-20.2096851	
	
