# Hz S RI R 45
0.000     0.081716590000    -0.000000000000    0.919083450000    0.000000000000    0.003480342200    -0.000000000000    -0.005862725500    0.000000000000
            0.919084690000    0.000000000000    0.076290329000    -0.000000000000    -0.005716286400    0.000000000000    0.005310525500    -0.000000000000
            0.004315703200    0.000000000000    -0.005109573600    -0.000000000000    0.079231063000    -0.000000000000    0.919272020000    0.000000000000
            -0.005254241500    -0.000000000000    0.006164616100    0.000000000000    0.919270860000    0.000000000000    0.077869203000    -0.000000000000
25000000.000     0.147796919426    0.006165413556    0.380957248852    -0.822628097918    0.082252665942    0.041853819701    -0.014859206478    0.008124674359
            0.380974390514    -0.822631301005    0.150620901531    -0.001595338039    -0.014860245758    0.008140942394    0.086793793988    0.030534148611
            0.082825843506    0.041328389293    -0.014539785420    0.007602560370    0.148109391437    0.006474773648    0.379637365169    -0.823552829108
            -0.014539296577    0.007586439380    0.087512254065    0.030138448447    0.379620235450    -0.823549581875    0.150696494165    -0.001133891975
50000000.000     0.101150728398    -0.076446480275    -0.577230146047    -0.700336517785    0.070755309422    -0.025135059966    -0.003540448164    0.013260714967
            -0.577235780718    -0.700370750125    0.083469698284    -0.096162893148    -0.003535738786    0.013208041171    0.044445498367    -0.055382045968
            0.070779380320    -0.025999802976    -0.003888499489    0.012607687844    0.101139681543    -0.077476119738    -0.579808453406    -0.698747102557
            -0.003893206162    0.012660520750    0.044822247374    -0.056179887996    -0.579802723493    -0.698712899765    0.083936109021    -0.096607298423
75000000.000     0.069853363402    0.004733918682    -0.871762029118    0.236985499752    0.064891104953    0.048032576663    0.016093249168    0.032586263857
            -0.871816276488    0.236991913057    0.010684293283    0.028367381371    0.016030930052    0.032686036667    -0.008073959420    0.070544635728
            0.064375795340    0.047340581118    0.015251917984    0.032783992411    0.068909820265    0.004296566208    -0.871219613250    0.241623190895
            0.015314964336    0.032684557796    -0.008424495537    0.069758385799    -0.871165426762    0.241616513733    0.010372589316    0.027811068072
100000000.000     0.177932067513    -0.019349212646    -0.159075584505    0.860062554938    0.181165557715    -0.005110697192    0.043536320153    -0.024455281529
            -0.159055869978    0.860132242146    0.175188732899    0.007548460952    0.043676650251    -0.024509447256    0.171141150552    0.047311342960
            0.180386122118    -0.005192815239    0.043448772334    -0.023741413284    0.177935705566    -0.018684327139    -0.153047818590    0.861804119834
            0.043308546353    -0.023687557115    0.170846877407    0.046574123695    -0.153067879996    0.861734498876    0.174250288878    0.007262777175
125000000.000     0.109497684218    -0.131204249074    0.695858710613    0.534902389695    0.094264393711    -0.126383959243    -0.008475343157    -0.031578531384
            0.695940524734    0.534867508550    0.104477599392    -0.134391443752    -0.008568613448    -0.031608806846    0.102234576436    -0.115642990178
            0.093531815476    -0.125909222225    -0.007887806315    -0.031062765519    0.109196595324    -0.131366956887    0.700906524963    0.528986675368
            -0.007795143657    -0.031032896621    0.101415716827    -0.116259028896    0.700824896751    0.529022317852    0.103456183125    -0.133591133376
150000000.000     0.047467439497    -0.047552280303    0.791360957336    -0.416562904760    0.030690286448    -0.027789324894    -0.022973383273    -0.032012541473
            0.791310180907    -0.416642996941    0.002429640395    -0.020377442891    -0.022907958132    -0.032071339962    -0.011569606504    0.002187611941
            0.030582296486    -0.026838732032    -0.022143920731    -0.032553666999    0.047242386191    -0.046631090048    0.787248086268    -0.425023102784
            -0.022210127189    -0.032493904118    -0.012624364202    0.002369357112    0.787299875615    -0.424943563130    0.003434612130    -0.019396867749
175000000.000     0.145732542928    -0.089905443795    -0.046583761527    -0.865023189397    0.140910586333    -0.082369830573    -0.056937979006    0.031489059241
            -0.046657026416    -0.864979883652    0.158279070631    -0.003128189201    -0.057204995429    0.031586318759    0.157042014642    0.027411338400
            0.141500842268    -0.081740562578    -0.057372180346    0.030759212379    0.146678235736    -0.089843751982    -0.057152822609    -0.864624981358
            -0.057103965920    0.030663008330    0.156548207738    0.028001098263    -0.057080321839    -0.864669176285    0.158519630409    -0.004819252006
200000000.000     0.042404402991    -0.196714828456    -0.776128102335    -0.349418670672    0.010347543856    -0.197419758311    0.021908319798    0.050281053878
            -0.776097866214    -0.349326538743    0.124360134500    -0.164790658884    0.022261840363    0.050541950559    0.133961940519    -0.147607111373
            0.011016410271    -0.197262906407    0.021459540805    0.050322065320    0.042327193374    -0.197029166614    -0.781064855573    -0.338639194514
            0.021107599354    0.050060211125    0.133537068686    -0.147175141284    -0.781096053865    -0.338730785093    0.121982274970    -0.164247961001
225000000.000     -0.052972115859    -0.076586328490    -0.672991794848    0.555463623882    -0.094108635529    -0.037408371204    0.033657101582    0.016504595069
            -0.672868478652    0.555416141045    -0.008423497184    -0.115117294442    0.033703289783    0.016075466250    -0.002985143990    -0.111950117718
            -0.093300127939    -0.037642652242    0.033169332002    0.016786046452    -0.051924107040    -0.076056315569    -0.664097414898    0.565953699001
            0.033122420337    0.017210632473    -0.003386255659    -0.110996338384    -0.664220184013    0.566002692619    -0.006753360421    -0.111878738058
250000000.000     0.066741920936    -0.058480336000    0.230647027060    0.843281290135    0.060022420405    -0.009105349672    0.055668638976    -0.024741054210
            0.230562108062    0.843157133520    0.069135095198    -0.050703870731    0.055459106052    -0.024647427522    0.054187010231    -0.055312323420
            0.060489155743    -0.010083968871    0.055927730487    -0.023917531080    0.068118234818    -0.060542952582    0.244968698603    0.838701063214
            0.056133306515    -0.024009976021    0.054749601753    -0.054208599954    0.245055733625    0.838824146634    0.072754512950    -0.053025529268
275000000.000     -0.011283501308    -0.165146600988    0.840666721484    0.155447059986    -0.010997820831    -0.129207832332    -0.012447640512    -0.066490786647
            0.840575368626    0.155538319522    0.068985439136    -0.156374160417    -0.012604826158    -0.066552773989    0.036409686691    -0.134413136733
            -0.011574025826    -0.130165514873    -0.011804164315    -0.066662832901    -0.013080077195    -0.166240352465    0.843009267642    0.139968556491
            -0.011645351145    -0.066596568437    0.037385651566    -0.134084393374    0.843098996250    0.139875307364    0.066900025730    -0.158511216766
300000000.000     -0.104825558072    -0.037121644711    0.512716082966    -0.685778390247    -0.098200865391    0.004011622101    -0.057956954378    -0.020093017428
            0.512785414496    -0.685703636260    -0.032903731391    -0.148039432465    -0.057988689476    -0.019540772293    -0.033714345382    -0.108296957479
            -0.099123245434    0.003911266236    -0.057716511024    -0.020324705135    -0.104027649448    -0.035330083640    0.498788333204    -0.696011179888
            -0.057680707370    -0.020878177526    -0.033004461677    -0.108365230257    0.498717351757    -0.696084136402    -0.032266971602    -0.145053692474
325000000.000     0.056411852663    0.015675754035    -0.404219147284    -0.755185712743    0.076116629458    0.046768486039    -0.058478802910    0.046559116151
            -0.404126562526    -0.755226892014    -0.025183482159    -0.106852116303    -0.057785791025    0.046266822933    -0.021829326567    -0.102231618809
            0.075659763971    0.047006221258    -0.058445675618    0.045681529159    0.058869917503    0.013016856094    -0.420775784727    -0.745645047904
            -0.059138757181    0.045969610395    -0.021103570664    -0.102412772918    -0.420867111479    -0.745602253983    -0.020796811634    -0.109091872277
350000000.000     0.030025567031    -0.143429885736    -0.842541601928    0.037045025824    0.049044381294    -0.122753101545    0.025765449046    0.077893529296
            -0.842582926623    0.036927937927    -0.052431756278    -0.132113263742    0.025258938372    0.077489361575    -0.089279441756    -0.110527191404
            0.048445077587    -0.122229063222    0.024465856965    0.077896946929    0.027208491655    -0.145118936951    -0.840622755086    0.056660423485
            0.024967009624    0.078300030499    -0.088533340703    -0.111141512960    -0.840579426894    0.056776730797    -0.054084468818    -0.136418026746
375000000.000     -0.098469122410    -0.073246377000    -0.339800562114    0.772526530552    -0.072405924879    -0.063781514132    0.075865811784    0.014901616832
            -0.339926050882    0.772593389328    -0.098925587423    -0.073276300072    0.075769524657    0.015193541004    -0.104751001517    -0.005781704091
            -0.072436450191    -0.062570575546    0.075861280013    0.016099566224    -0.097107822505    -0.069807502857    -0.320522010733    0.780399339198
            0.075956993823    0.015814535085    -0.104431481086    -0.006837661966    -0.320397435763    0.780329701545    -0.099235023850    -0.072017495514
400000000.000     0.012298478451    0.000954024316    0.559674311058    0.637232848618    0.012731616501    -0.009351037018    0.065131982387    -0.066358665940
            0.559763252982    0.637335260110    -0.047332702890    -0.056412657775    0.065022303162    -0.066266902559    -0.016523484394    -0.016902844535
            0.013929801855    -0.008693572483    0.065912662039    -0.066059380676    0.017740931908    -0.003092700278    0.576537965943    0.621637553620
            0.066029184099    -0.066152634437    -0.016910151255    -0.017994481244    0.576445939605    0.621536979582    -0.043749955257    -0.060085883372
425000000.000     0.009622706546    -0.153801888836    0.793172892831    -0.230029218380    -0.012675689809    -0.124823167819    -0.053102616268    -0.095653021529
            0.793236639207    -0.230096875901    -0.112432354636    -0.104431282110    -0.052668454580    -0.095404372367    -0.098462616620    -0.074687611402
            -0.011736092907    -0.125377694156    -0.052201057122    -0.096111222769    0.006042687355    -0.158579172928    0.785328173260    -0.252160735973
            -0.052637652939    -0.096364488554    -0.099354918916    -0.075252703556    0.785266478068    -0.252090900093    -0.116018831829    -0.108619142397
450000000.000     -0.164843538366    -0.109012090265    0.152260925020    -0.795671032830    -0.139686061361    -0.068106599989    -0.096861906634    0.018892934503
            0.152229955640    -0.795730604155    -0.177955674867    0.017103679259    -0.096819931573    0.018229165591    -0.145100584956    0.055581016845
            -0.139431220511    -0.068621966737    -0.097245639751    0.017528583465    -0.164859631628    -0.106083018760    0.128875759740    -0.799176737658
            -0.097290682005    0.018193449221    -0.145891887259    0.055534367749    0.128908323695    -0.799118489375    -0.178327802041    0.019665646543
475000000.000     -0.109922347762    0.033110889316    -0.654864162007    -0.499429356128    -0.094020673898    0.033188427237    -0.037508310481    0.080529834756
            -0.654946097199    -0.499416456148    -0.037460021110    0.081968506010    -0.038079627913    0.080788564370    -0.000531897548    0.094621620031
            -0.093702254080    0.032474570092    -0.038930318059    0.080943280480    -0.104408544836    0.028035822124    -0.670245298876    -0.478322462364
            -0.038358876843    0.080688579669    -0.001259560858    0.094575092891    -0.670163697849    -0.478337317344    -0.033232069692    0.077265320204
500000000.000     -0.050875231250    -0.050507905461    -0.728833983541    0.390803249166    -0.060734812646    -0.008117553654    0.060192867264    0.092503626214
            -0.728807540076    0.390901753145    -0.035518104163    -0.060377171938    0.060548908171    0.092761760672    -0.008011489430    -0.034166252225
            -0.061278911590    -0.009261361269    0.060497213691    0.093606227535    -0.056646620299    -0.057521291800    -0.714165216270    0.414406857842
            0.060147127706    0.093347114181    -0.009112241188    -0.033811327741    -0.714194617556    0.414308457798    -0.042000925020    -0.065472192964
525000000.000     -0.177476626101    -0.016459135065    0.034827913752    0.801668449706    -0.114264395896    0.036914741323    0.113197286650    -0.031986293467
            0.034906714974    0.801626065483    -0.171578684650    0.026174662010    0.113308147278    -0.032080074927    -0.103026254588    0.036479321337
            -0.115596139368    0.036838955302    0.113929616000    -0.031810963555    -0.179815011074    -0.012497667541    0.061584808755    0.798925366710
            0.113815374424    -0.031722987189    -0.103630757554    0.037768395025    0.061506735771    0.798970907705    -0.172542628605    0.031608855193
550000000.000     -0.112808139286    0.127116365029    0.725534976394    0.334084584925    -0.049853746365    0.099653661176    0.018398515708    -0.103124215980
            0.725495830718    0.334031522934    -0.042327101883    0.153447249885    0.018529589248    -0.103381693599    -0.005845465188    0.105485270953
            -0.050512549966    0.100507087962    0.019026286431    -0.103711243919    -0.107512466974    0.123569399394    0.737181605261    0.308140088955
            0.018890955811    -0.103449379960    -0.005389240681    0.106649050976    0.737223325493    0.308191990950    -0.035523516641    0.149315670236
575000000.000     -0.011491412023    0.060318674908    0.625523528130    -0.518374393909    -0.011224666231    0.048448206998    -0.078528807246    -0.078866422049
            0.625483309616    -0.518351523776    0.045276310610    0.007675753535    -0.079015895559    -0.078992840580    0.033470186743    -0.002625067834
            -0.011235323836    0.049154547941    -0.079085893988    -0.079641705406    -0.017118379279    0.054126333841    0.604667689687    -0.541812561808
            -0.078595860471    -0.079512608679    0.033942319743    -0.001974572997    0.604706951227    -0.541837181614    0.039388280085    0.000455259653
600000000.000     -0.077155725625    0.040174946985    -0.204542720195    -0.779219993089    -0.037822914811    0.053467682218    -0.119068254749    0.042694584140
            -0.204536992027    -0.779190418327    -0.089933612938    -0.000300806482    -0.119044419950    0.043156680182    -0.053135116425    0.015049576028
            -0.037683481378    0.054230309318    -0.119684756333    0.043002325138    -0.078530615302    0.044646268409    -0.234412189904    -0.769566402056
            -0.119705739794    0.042538000578    -0.052650004505    0.015598310663    -0.234419117994    -0.769595893048    -0.091574904785    0.004729075152
625000000.000     -0.025675688263    0.096015797308    -0.783341368502    -0.156945807666    0.009280467237    0.053462592061    -0.014138912536    0.128029230326
            -0.783316425636    -0.156948489204    -0.036092561819    0.093518904748    -0.013842276249    0.128018642522    -0.006412067420    0.049802990027
            0.010166080833    0.054132711519    -0.014239893684    0.128498512370    -0.020237195041    0.090755621575    -0.789110706533    -0.125085921628
            -0.014538228091    0.128505960086    -0.005318194197    0.050198924954    -0.789135897737    -0.125082149323    -0.029959525784    0.088356497553
650000000.000     -0.004520741596    0.017573963798    -0.477798186507    0.640394986065    -0.026447141853    -0.003543315532    0.117237315341    0.079258947157
            -0.477800656106    0.640385470324    -0.002590273230    0.015584115828    0.117321565114    0.079093243247    -0.027727062395    -0.003740735157
            -0.025255271552    -0.003889346569    0.117595444913    0.079720839074    -0.011058060421    0.011404140955    -0.449364419497    0.660258436043
            0.117508858420    0.079887870110    -0.026528209681    -0.004231030126    -0.449361384320    0.660268098169    -0.009072771981    0.009146408094
675000000.000     -0.072703349658    0.044325992865    0.366517578538    0.696606593434    -0.068846043930    0.063105054690    0.125728351526    -0.082359832234
            0.366525687120    0.696598519044    -0.064897313149    0.050377860647    0.125686136724    -0.082473082213    -0.063687837858    0.065175041571
            -0.068417793612    0.062065694160    0.126449644041    -0.082542036645    -0.072871775317    0.047148945853    0.396571115516    0.679180175920
            0.126491679420    -0.082427794843    -0.063094297321    0.064171497449    0.396563449835    0.679188635277    -0.064568458793    0.053622788397
700000000.000     -0.026003504768    0.065698259686    0.784661057844    -0.025783534540    -0.006453024530    0.066144717553    -0.016446865953    -0.153206595893
            0.784643060822    -0.025801411104    0.009721961974    0.056768216365    -0.016528977097    -0.153389222330    0.016389363431    0.054906685282
            -0.006784820952    0.065244109401    -0.016382110657    -0.154173671813    -0.023607448586    0.056646723177    0.782847108307    -0.062271207085
            -0.016299743842    -0.153989129272    0.016399874546    0.053856728471    0.782866142996    -0.062254245288    0.013120889766    0.046624001144
725000000.000     -0.090429150983    0.028924085389    0.299333255120    -0.712121649337    -0.074881186020    0.042548547538    -0.167600237106    -0.050709972357
            0.299297912473    -0.712102454474    -0.077107626835    -0.029907860641    -0.168003490303    -0.050627402404    -0.067788601327    0.015260349260
            -0.075549030604    0.042124899158    -0.168692901319    -0.050971389541    -0.101865917477    0.025795506611    0.263509210218    -0.724667951811
            -0.168287858676    -0.051052642992    -0.068090656386    0.014754278631    0.263543765291    -0.724688861540    -0.089958272942    -0.033228873258
750000000.000     -0.107345022297    0.165326464624    -0.481487915331    -0.563525824614    -0.066195281396    0.163521398967    -0.096245894297    0.141827661196
            -0.481470360419    -0.563471625130    -0.137132200721    0.138652464722    -0.096103027850    0.142350476973    -0.098350403788    0.140387528531
            -0.066929439740    0.163430058616    -0.096658029115    0.142875601337    -0.105774130768    0.171150109019    -0.506887824137    -0.538729284112
            -0.096797583838    0.142349880268    -0.098687650147    0.139775154529    -0.506908234194    -0.538783195187    -0.135332316693    0.145901564509
775000000.000     0.039541550803    0.165776686823    -0.731622346459    0.165084728012    0.065332493021    0.140157820146    0.066096272282    0.133213154926
