# Hz S RI R 45
0.000     0.083098948000    0.000000000000    -0.000017854030    0.000000000000    0.003021540500    -0.000000000000    -0.000024798981    -0.000000000000
            -0.000011915774    -0.000000000000    0.076290329000    -0.000000000000    -0.000011648735    0.000000000000    0.005310525500    -0.000000000000
            0.003963858700    -0.000000000000    -0.000006537703    0.000000000000    0.080725746000    -0.000000000000    -0.000017151055    0.000000000000
            -0.000000400139    0.000000000000    0.006164616100    0.000000000000    0.000014672747    0.000000000000    0.077869203000    -0.000000000000
25000000.000     0.148385705612    0.005509685557    -0.000021367174    0.000011926958    0.083024019164    0.042370872447    -0.000031103955    0.000017049576
            -0.000016084515    0.000006466739    0.150620901531    -0.001595338039    -0.000009838758    0.000016523038    0.086793793988    0.030534148611
            0.082720036316    0.041581404752    -0.000003189679    0.000006305945    0.148079515015    0.005154231103    -0.000021904317    0.000013858258
            -0.000017021911    -0.000008143880    0.087512254065    0.030138448447    -0.000012267333    -0.000012464494    0.150696494165    -0.001133891975
50000000.000     0.100586030904    -0.076267230852    -0.000022982739    0.000035409605    0.070932566789    -0.025727238821    -0.000018864431    0.000049643346
            -0.000025863620    0.000026984688    0.083469698284    -0.096162893148    -0.000012451680    0.000014441995    0.044445498367    -0.055382045968
            0.070205178699    -0.025146789791    -0.000027595756    0.000010977278    0.099670505061    -0.076331637629    -0.000020037236    0.000032657815
            -0.000042292730    0.000028022648    0.044822247374    -0.056179887996    -0.000037427372    0.000009123284    0.083936109021    -0.096607298423
75000000.000     0.070832261851    0.006122029659    0.000065137917    0.000050703289    0.065006625588    0.048688673688    0.000064157332    0.000058298848
            0.000055247380    0.000048310650    0.010684293283    0.028367381371    0.000055934280    0.000041468332    -0.008073959420    0.070544635728
            0.065623371309    0.049242002695    0.000059255924    0.000049889374    0.070676223386    0.006491551172    0.000063735254    0.000053691937
            0.000042398471    0.000071937870    -0.008424495537    0.069758385799    0.000029950117    0.000066292498    0.010372589316    0.027811068072
100000000.000     0.179132095899    -0.020168705406    0.000032332397    -0.000050213338    0.181973702568    -0.005025028217    0.000070665853    -0.000039596672
            0.000023952343    -0.000039098227    0.175188732899    0.007548460952    0.000003349040    -0.000063300862    0.171141150552    0.047311342960
            0.182017804424    -0.005863096766    0.000000220335    -0.000063585506    0.178912419352    -0.020893449980    0.000033288413    -0.000053558508
            0.000067303152    -0.000014518007    0.170846877407    0.046574123695    0.000038545813    -0.000020906410    0.174250288878    0.007262777175
125000000.000     0.108099000710    -0.130785769573    0.000028739055    -0.000031318299    0.093626535469    -0.126151828803    0.000027000662    -0.000080311005
            0.000040261325    -0.000020619475    0.104477599392    -0.134391443752    0.000008589570    0.000005403028    0.102234576436    -0.115642990178
            0.092730877535    -0.125845882903    0.000017320019    0.000012662973    0.106737689941    -0.130588471350    0.000024824609    -0.000028514833
            0.000058383473    -0.000062797592    0.101415716827    -0.116259028896    0.000051697201    -0.000019711437    0.103456183125    -0.133591133376
150000000.000     0.049456029726    -0.044402272027    -0.000081957482    -0.000088383294    0.031949189196    -0.025509898783    -0.000100792155    -0.000094627162
            -0.000072352376    -0.000096545632    0.002429640395    -0.020377442891    -0.000076261324    -0.000054236758    -0.011569606504    0.002187611941
            0.032640225729    -0.024602869250    -0.000073307585    -0.000069294774    0.049892227208    -0.043142589798    -0.000085540046    -0.000090555928
            -0.000080776478    -0.000129138398    -0.012624364202    0.002369357112    -0.000062572789    -0.000112311395    0.003434612130    -0.019396867749
175000000.000     0.148180369201    -0.091492003756    -0.000047089723    0.000065584686    0.142411230194    -0.083096111505    -0.000102058547    0.000073160032
            -0.000046224128    0.000056787531    0.158279070631    -0.003128189201    0.000028987567    0.000090633985    0.157042014642    0.027411338400
            0.143059069414    -0.083904372382    0.000019351645    0.000093617172    0.148919840760    -0.092429625322    -0.000044507859    0.000089490075
            -0.000124406141    0.000056232992    0.156548207738    0.028001098263    -0.000061015648    0.000059618194    0.158519630409    -0.004819252006
200000000.000     0.040768098043    -0.196336694073    -0.000047652282    0.000036988242    0.009434093202    -0.196412411051    -0.000016851068    0.000106011321
            -0.000058451668    0.000029503119    0.124360134500    -0.164790658884    -0.000018029076    -0.000057073718    0.133961940519    -0.147607111373
            0.008570574315    -0.196718438311    -0.000016059020    -0.000056584949    0.039490298290    -0.196653849199    -0.000012508361    0.000014728085
            -0.000038771507    0.000109523382    0.133537068686    -0.147175141284    -0.000043360327    0.000021441893    0.121982274970    -0.164247961001
225000000.000     -0.049877499948    -0.072283412938    0.000093883295    0.000145205029    -0.091008232548    -0.033747965846    0.000118971995    0.000121314172
            0.000087542153    0.000156182379    -0.008423497184    -0.115117294442    0.000033658203    0.000099151270    -0.002985143990    -0.111950117718
            -0.090824638928    -0.032830968304    0.000028146654    0.000103708805    -0.049116146249    -0.071001568899    0.000054206958    0.000117560845
            0.000110553091    0.000152141357    -0.003386255659    -0.110996338384    0.000048321780    0.000146602532    -0.006753360421    -0.111878738058
250000000.000     0.071166327396    -0.061651550687    0.000117125274    -0.000105111566    0.063667241712    -0.011681887510    0.000157766498    -0.000110331951
            0.000120401198    -0.000102505822    0.069135095198    -0.050703870731    0.000013935253    -0.000093064524    0.054187010231    -0.055312323420
            0.064549380265    -0.012426156280    0.000025837786    -0.000086602645    0.072648073491    -0.063798148210    0.000104747031    -0.000080684703
            0.000190483327    -0.000100142475    0.054749601753    -0.054208599954    0.000129668285    -0.000064112271    0.072754512950    -0.053025529268
275000000.000     -0.013387624897    -0.165311592961    0.000029081967    -0.000104769530    -0.012186657237    -0.128619870666    -0.000007821673    -0.000162364240
            0.000032687757    -0.000097795828    0.068985439136    -0.156374160417    0.000027773709    0.000038956195    0.036409686691    -0.134413136733
            -0.013200550007    -0.129390637048    0.000030333561    0.000026768678    -0.015750604255    -0.166591496129    0.000022154966    -0.000072968906
            0.000003727722    -0.000185669933    0.037385651566    -0.134084393374    0.000045296908    -0.000091828423    0.066900025730    -0.158511216766
300000000.000     -0.100415630363    -0.032207437086    -0.000172842961    -0.000144618152    -0.093279932288    0.007698133037    -0.000175392734    -0.000122080582
            -0.000161243779    -0.000150677672    -0.032903731391    -0.148039432465    -0.000045676142    -0.000124135159    -0.033714345382    -0.108296957479
            -0.093873957226    0.008792411174    -0.000053382742    -0.000125307928    -0.100253113660    -0.030008861294    -0.000094449829    -0.000133737936
            -0.000186815488    -0.000137600943    -0.033004461677    -0.108365230257    -0.000103809390    -0.000158325991    -0.032266971602    -0.145053692474
325000000.000     0.063238319858    0.010419755792    -0.000123695005    0.000196949709    0.081614298920    0.041339779641    -0.000193842279    0.000170773958
            -0.000128212107    0.000188598267    -0.025183482159    -0.106852116303    -0.000045618974    0.000107367299    -0.021829326567    -0.102231618809
            0.082568303216    0.041473908210    -0.000048842112    0.000109873200    0.065520950169    0.008205515350    -0.000152607245    0.000091270040
            -0.000213353427    0.000172780125    -0.021103570664    -0.102412772918    -0.000176418507    0.000087222530    -0.020796811634    -0.109091872277
350000000.000     0.027589551638    -0.145845747746    0.000044598127    0.000101055299    0.046774013849    -0.124038038071    0.000070336786    0.000214214785
            0.000040721485    0.000098222489    -0.052431756278    -0.132113263742    -0.000021181869    -0.000019165829    -0.089279441756    -0.110527191404
            0.046378576979    -0.124840333883    -0.000022414156    -0.000013881502    0.024502958177    -0.147829954621    -0.000020115350    0.000152592881
            0.000064974622    0.000234114563    -0.088533340703    -0.111141512960    -0.000036169806    0.000176277872    -0.054084468818    -0.136418026746
375000000.000     -0.094156490067    -0.069460445467    0.000172649017    0.000113743018    -0.067649205200    -0.060960701117    0.000234118389    0.000084853744
            0.000161083854    0.000116247907    -0.098925587423    -0.073276300072    0.000068272874    0.000133698532    -0.104751001517    -0.005781704091
            -0.068371745494    -0.060045624876    0.000074286885    0.000138259992    -0.094123968981    -0.065910009471    0.000194263836    0.000135545397
            0.000251767098    0.000096631145    -0.104431481086    -0.006837661966    0.000217453399    0.000156409413    -0.099235023850    -0.072017495514
400000000.000     0.019564564971    -0.006297013046    0.000142662831    -0.000222242448    0.017998656477    -0.016480358443    0.000201250196    -0.000243691221
            0.000145545443    -0.000206328160    -0.047332702890    -0.056412657775    0.000059468201    -0.000135083848    -0.016523484394    -0.016902844535
            0.019249770149    -0.015838222428    0.000067599657    -0.000142435063    0.024206632356    -0.008887928377    0.000165827671    -0.000186718503
            0.000217172923    -0.000258611627    -0.016910151255    -0.017994481244    0.000183532220    -0.000203217757    -0.043749955257    -0.060085883372
425000000.000     0.005485422267    -0.158460303962    -0.000092743759    -0.000118774908    -0.016528829837    -0.127026640082    -0.000156201983    -0.000242100011
            -0.000080070632    -0.000120592870    -0.112432354636    -0.104431282110    0.000030293475    0.000024396344    -0.098462616620    -0.074687611402
            -0.016010961953    -0.128202962878    0.000021062672    0.000016373521    0.002286538455    -0.162580891851    -0.000039842836    -0.000187457065
            -0.000166570035    -0.000258173978    -0.099354918916    -0.075252703556    -0.000040461722    -0.000202503277    -0.116018831829    -0.108619142397
450000000.000     -0.162812087801    -0.105980929444    -0.000165428362    -0.000097398361    -0.135828617118    -0.065573612059    -0.000260657753    -0.000017229068
            -0.000162548543    -0.000103741718    -0.177955674867    0.017103679259    -0.000073212615    -0.000208019230    -0.145100584956    0.055581016845
            -0.136734253083    -0.065763344344    -0.000077114072    -0.000200242355    -0.163774057354    -0.102848509909    -0.000256836791    -0.000114536142
            -0.000274584032    -0.000013711016    -0.145891887259    0.055534367749    -0.000273856475    -0.000129134735    -0.178327802041    0.019665646543
475000000.000     -0.103258270551    0.026851044225    -0.000220195054    0.000224887034    -0.088547685331    0.026293298601    -0.000203212548    0.000281604274
            -0.000221092174    0.000215239672    -0.037460021110    0.081968506010    -0.000184417588    0.000193926498    -0.000531897548    0.094621620031
            -0.088238367109    0.026999423321    -0.000184432006    0.000192687048    -0.098443244264    0.023894346513    -0.000189017930    0.000289468531
            -0.000209245874    0.000294306989    -0.001259560858    0.094575092891    -0.000210198602    0.000311762392    -0.033232069692    0.077265320204
500000000.000     -0.055992095941    -0.055905325093    0.000176644961    0.000240664409    -0.065279501449    -0.011632070480    0.000247708035    0.000289211421
            0.000162701450    0.000238806324    -0.035518104163    -0.060377171938    0.000071546525    0.000053383332    -0.008011489430    -0.034166252225
            -0.064689439760    -0.012511830803    0.000071284265    0.000065579463    -0.060230455635    -0.061774773878    0.000173712585    0.000203761714
            0.000262278727    0.000302956295    -0.009112241188    -0.033811327741    0.000195239601    0.000219604042    -0.042000925020    -0.065472192964
525000000.000     -0.175269395195    -0.013047651025    0.000277115735    -0.000003778936    -0.110019500550    0.038960445515    0.000313427857    -0.000071185890
            0.000274448506    0.000008028141    -0.171578684650    0.026174662010    0.000137675554    0.000172919332    -0.103026254588    0.036479321337
            -0.111151277114    0.038357514735    0.000154235647    0.000165364762    -0.177887529829    -0.009640894680    0.000283605355    0.000028625290
            0.000329076204    -0.000086869995    -0.103630757554    0.037768395025    0.000294024247    0.000020694714    -0.172542628605    0.031608855193
550000000.000     -0.105387183521    0.120244822478    0.000165418029    -0.000315851960    -0.044107536778    0.091023009245    0.000167851305    -0.000338196892
            0.000170518046    -0.000310850254    -0.042327101883    0.153447249885    0.000229354760    -0.000292797468    -0.005845465188    0.105485270953
            -0.044793788539    0.092162691531    0.000218364942    -0.000304429932    -0.101109447316    0.118512897507    0.000175307850    -0.000349319374
            0.000154376845    -0.000352787408    -0.005389240681    0.106649050976    0.000182457274    -0.000360543251    -0.035523516641    0.149315670236
575000000.000     -0.016107063221    0.052838946514    -0.000291633751    -0.000273193263    -0.016839830758    0.042472251171    -0.000342809688    -0.000334847389
            -0.000282896297    -0.000270668419    0.045276310610    0.007675753535    -0.000250743794    -0.000137297785    0.033470186743    -0.002625067834
            -0.015841019461    0.042935085202    -0.000254396730    -0.000133396776    -0.020083351198    0.048244755352    -0.000304150108    -0.000239683193
            -0.000355871020    -0.000328378896    0.033942319743    -0.001974572997    -0.000320351814    -0.000254394392    0.039388280085    0.000455259653
600000000.000     -0.074616187569    0.041054622388    -0.000344891427    0.000158796380    -0.034793238004    0.054186613799    -0.000403414109    0.000201326803
            -0.000337522073    0.000147537924    -0.089933612938    -0.000300806482    -0.000182282971    0.000032813780    -0.053135116425    0.015049576028
            -0.034850875084    0.053395312477    -0.000191333508    0.000036496777    -0.076049755063    0.044676239175    -0.000326564689    0.000123742478
            -0.000405530784    0.000215720697    -0.052650004505    0.015598310663    -0.000339723582    0.000139203015    -0.091574904785    0.004729075152
625000000.000     -0.021624420411    0.083512600058    -0.000001150707    0.000405441717    0.011900028275    0.041115993430    -0.000045495436    0.000476866270
            -0.000010133147    0.000396084001    -0.036092561819    0.093518904748    -0.000051953837    0.000315578276    -0.006412067420    0.049802990027
            0.011169047426    0.041812817051    -0.000041538230    0.000329820982    -0.017565738447    0.080513384752    -0.000047109120    0.000417674690
            -0.000028509871    0.000484036388    -0.005318194197    0.050198924954    -0.000040645051    0.000429595993    -0.029959525784    0.088356497553
650000000.000     -0.015734447621    0.010349679446    0.000377497936    0.000141706077    -0.037639172816    -0.008989730709    0.000509242740    0.000235846898
            0.000367111336    0.000144211140    -0.002590273230    0.015584115828    0.000271573156    0.000045800391    -0.027727062395    -0.003740735157
            -0.036366698325    -0.008124415211    0.000281466913    0.000034550105    -0.019775481620    0.006638524696    0.000395762574    0.000169563473
            0.000517866598    0.000220312040    -0.026528209681    -0.004231030126    0.000410102672    0.000172194963    -0.009072771981    0.009146408094
675000000.000     -0.072610526851    0.045892182472    0.000297934521    -0.000249172074    -0.068161227140    0.065110705698    0.000370674411    -0.000365104294
            0.000292471792    -0.000237196947    -0.064897313149    0.050377860647    0.000166775205    -0.000122599707    -0.063687837858    0.065175041571
            -0.067284237035    0.063686136255    0.000166259096    -0.000130562615    -0.071703223550    0.047800002419    0.000322641095    -0.000248237797
            0.000362458479    -0.000376877531    -0.063094297321    0.064171497449    0.000328678883    -0.000263512330    -0.064568458793    0.053622788397
700000000.000     -0.027999143885    0.052695445404    -0.000113188562    -0.000439400028    -0.007763630902    0.054325954065    -0.000131407901    -0.000549811787
            -0.000100397818    -0.000428147774    0.009721961974    0.056768216365    -0.000089473217    -0.000286033087    0.016389363431    0.054906685282
            -0.009114578007    0.053717953038    -0.000105446101    -0.000294684273    -0.026400321999    0.045742018966    -0.000112242409    -0.000474304439
            -0.000150190661    -0.000548164006    0.016399874546    0.053856728471    -0.000122278915    -0.000482146597    0.013120889766    0.046624001144
725000000.000     -0.105939647175    0.029864417954    -0.000436738765    -0.000004910488    -0.087641080168    0.043072729418    -0.000638246371    0.000003069067
            -0.000424622246    -0.000015196851    -0.077107626835    -0.029907860641    -0.000179293622    0.000049527996    -0.067788601327    0.015260349260
            -0.087654769220    0.043862134913    -0.000182461705    0.000072377370    -0.113744519710    0.028817066724    -0.000464809603    0.000003415325
            -0.000637577904    0.000025369592    -0.068090656386    0.014754278631    -0.000478617541    0.000005366817    -0.089958272942    -0.033228873258
750000000.000     -0.104297300905    0.171278741755    -0.000178390830    0.000311157426    -0.064211556878    0.167171555467    -0.000141892358    0.000469434158
            -0.000181378824    0.000299651707    -0.137132200721    0.138652464722    -0.000171572897    0.000066124598    -0.098350403788    0.140387528531
            -0.063457255586    0.166320000253    -0.000158444653    0.000061104425    -0.101131924909    0.175084960394    -0.000182809178    0.000292374810
            -0.000125655912    0.000470496399    -0.098687650147    0.139775154529    -0.000184199109    0.000311911797    -0.135332316693    0.145901564509
775000000.000     0.040218548284    0.153191741239    0.000152340960    0.000394675281    0.064769322118    0.129118834641    0.000191893406    0.000419245798
