# Hz S RI R 45
0.000     0.077696452000    0.000000000000    0.000004488877    -0.000000000000    0.004848316800    -0.000000000000    -0.000019383961    -0.000000000000
            0.000019367995    0.000000000000    0.076290329000    -0.000000000000    -0.000002098733    0.000000000000    0.005310525500    -0.000000000000
            0.005805390000    -0.000000000000    0.000045108166    0.000000000000    0.079348177000    -0.000000000000    -0.000025858168    -0.000000000000
            0.000052339928    0.000000000000    0.006164616100    0.000000000000    -0.000039784462    -0.000000000000    0.077869203000    -0.000000000000
25000000.000     0.151233135386    -0.002207801385    -0.000012012938    -0.000012011572    0.087420681787    0.031147362370    -0.000003338477    0.000013939011
            0.000000413503    -0.000020439993    0.150620901531    -0.001595338039    0.000056151218    0.000041272379    0.086793793988    0.030534148611
            0.087311188637    0.030280952704    0.000050884404    -0.000003744357    0.150977853990    -0.002553723753    -0.000005799377    0.000018101741
            0.000027044768    -0.000039257475    0.087512254065    0.030138448447    0.000003151965    0.000033505957    0.150696494165    -0.001133891975
50000000.000     0.082937949181    -0.095894410067    -0.000052377033    0.000040811124    0.044827423471    -0.055515146817    -0.000025793070    0.000034377143
            -0.000048508428    0.000028554618    0.083469698284    -0.096162893148    -0.000059333556    0.000097231290    0.044445498367    -0.055382045968
            0.043879030486    -0.055323775269    -0.000103325506    0.000108751372    0.082071349299    -0.095981350467    -0.000022971401    0.000031286558
            -0.000046341563    0.000007849545    0.044822247374    -0.056179887996    -0.000003287451    0.000021278694    0.083936109021    -0.096607298423
75000000.000     0.011934002248    0.030112490887    0.000053956201    0.000101646928    -0.007663181771    0.071165579539    0.000044401091    0.000089734158
            0.000053077744    0.000096287318    0.010684293283    0.028367381371    0.000136689245    0.000322806198    -0.008073959420    0.070544635728
            -0.007030626641    0.072134150350    0.000156920684    0.000365086165    0.012167523897    0.030501257675    0.000039016529    0.000078908225
            0.000056698156    0.000101089452    -0.008424495537    0.069758385799    0.000034820071    0.000058972303    0.010372589316    0.027811068072
100000000.000     0.176676724418    0.006506724294    0.000057411218    -0.000003319945    0.171790196251    0.046710370358    0.000058212056    0.000008445362
            0.000063084502    -0.000012063890    0.175188732899    0.007548460952    0.000192463105    0.000055547338    0.171141150552    0.047311342960
            0.172520629304    0.046199871783    0.000231814702    0.000034448974    0.176604523781    0.005552551991    0.000038776040    0.000019142633
            0.000093440137    -0.000036099198    0.170846877407    0.046574123695    0.000026394678    0.000013459470    0.174250288878    0.007262777175
125000000.000     0.102948114106    -0.134278069344    -0.000014291097    0.000029341619    0.101240278392    -0.114992872882    -0.000006209582    0.000044090361
            -0.000020815713    0.000008986446    0.104477599392    -0.134391443752    -0.000109711001    0.000279348690    0.102234576436    -0.115642990178
            0.100532687067    -0.115725541506    -0.000127952220    0.000240968207    0.101379551412    -0.134434094869    0.000012003133    0.000048958272
            -0.000047361916    -0.000024644926    0.101415716827    -0.116259028896    0.000001192984    0.000055787835    0.103456183125    -0.133591133376
150000000.000     0.004402951698    -0.016875148915    0.000094782886    0.000121083311    -0.009245274571    0.004911778801    0.000120712699    0.000130092612
            0.000075872961    0.000116190796    0.002429640395    -0.020377442891    0.000400926210    0.000576132955    -0.011569606504    0.002187611941
            -0.009987821411    0.005800080509    0.000367227923    0.000597277412    0.004445185576    -0.015563321724    0.000117496328    0.000092026631
            0.000048564529    0.000148584480    -0.012624364202    0.002369357112    0.000125668626    0.000102079166    0.003434612130    -0.019396867749
175000000.000     0.161311108559    -0.004978328011    0.000100531198    -0.000033558065    0.159254953979    0.025072028403    0.000136276581    -0.000056057759
            0.000092297888    -0.000026906777    0.158279070631    -0.003128189201    0.000353284348    -0.000019795642    0.157042014642    0.027411338400
            0.160070895429    0.025738857364    0.000380483478    0.000006299277    0.161993280821    -0.005915422243    0.000070386737    -0.000046288026
            0.000140371200    -0.000020813574    0.156548207738    0.028001098263    0.000079043598    -0.000064235681    0.158519630409    -0.004819252006
200000000.000     0.122805836750    -0.165166414125    0.000032631622    -0.000000757920    0.131870633373    -0.147471576120    0.000007630454    -0.000001906083
            0.000028412436    -0.000000395514    0.124360134500    -0.164790658884    -0.000075214028    0.000424945101    0.133961940519    -0.147607111373
            0.132334688737    -0.148163503757    -0.000048066430    0.000392395617    0.121176448034    -0.165646891826    0.000024723182    0.000031443516
            0.000008184038    -0.000020887661    0.133537068686    -0.147175141284    -0.000001651515    0.000024322168    0.121982274970    -0.164247961001
225000000.000     -0.006267421948    -0.111122125257    0.000091752512    0.000063899036    -0.000669254952    -0.107817862896    0.000134394456    0.000112658524
            0.000081767028    0.000066319196    -0.008423497184    -0.115117294442    0.000663179091    0.000704158148    -0.002985143990    -0.111950117718
            -0.001475128710    -0.108049911027    0.000625750392    0.000669452869    -0.006240791319    -0.109161060983    0.000133379538    0.000071683393
            0.000082816843    0.000115534302    -0.003386255659    -0.110996338384    0.000123526005    0.000105430866    -0.006753360421    -0.111878738058
250000000.000     0.073836308339    -0.053126742310    0.000100323814    -0.000071830305    0.058536439491    -0.057938319732    0.000197676406    -0.000118947850
            0.000092125783    -0.000061445701    0.069135095198    -0.050703870731    0.000534576581    -0.000122793760    0.054187010231    -0.055312323420
            0.058447829901    -0.056937784534    0.000499929721    -0.000085506736    0.075955272599    -0.053960757624    0.000105054099    -0.000115618581
            0.000178626335    -0.000056100042    0.054749601753    -0.054208599954    0.000137305269    -0.000107740711    0.072754512950    -0.053025529268
275000000.000     0.067718210698    -0.157530968178    0.000023140580    0.000000298026    0.034500925667    -0.135178134397    -0.000017393299    -0.000072319290
            0.000023469963    0.000013920223    0.068985439136    -0.156374160417    0.000025152849    0.000530500423    0.036409686691    -0.134413136733
            0.035620658950    -0.134977772990    0.000057915365    0.000556785109    0.066713875969    -0.159012888170    -0.000016990540    0.000002391149
            0.000022427890    -0.000031364836    0.037385651566    -0.134084393374    -0.000013781777    -0.000022895507    0.066900025730    -0.158511216766
300000000.000     -0.030060177830    -0.144977723078    0.000116849432    0.000017068349    -0.031000003756    -0.104517056375    0.000129002640    0.000082682638
            0.000124350821    0.000026698380    -0.032903731391    -0.148039432465    0.000960661070    0.000651279266    -0.033714345382    -0.108296957479
            -0.030623592910    -0.105607271269    0.000976880726    0.000614788787    -0.029962450682    -0.143570493418    0.000127139607    0.000061726709
            0.000162496094    0.000071137068    -0.033004461677    -0.108365230257    0.000103831779    0.000065477326    -0.032266971602    -0.145053692474
325000000.000     -0.020808873555    -0.110280716544    0.000062595568    -0.000110220904    -0.017325933714    -0.105108215905    0.000197832119    -0.000168268189
            0.000070714319    -0.000107831508    -0.025183482159    -0.106852116303    0.000616788713    -0.000228856746    -0.021829326567    -0.102231618809
            -0.018166800504    -0.105374000712    0.000568669003    -0.000238705006    -0.018691336965    -0.111639700553    0.000110575980    -0.000123646916
            0.000190191481    -0.000173377994    -0.021103570664    -0.102412772918    0.000120098069    -0.000098358714    -0.020796811634    -0.109091872277
350000000.000     -0.054175958888    -0.133230877282    -0.000013258177    0.000010076951    -0.090509978499    -0.111401540261    -0.000061917185    -0.000117501056
            -0.000009005479    0.000011799621    -0.052431756278    -0.132113263742    0.000203525353    0.000582884731    -0.089279441756    -0.110527191404
            -0.090475110112    -0.110516944001    0.000190958626    0.000638428302    -0.055385108907    -0.135453707136    -0.000024928481    -0.000030104344
            -0.000049703259    -0.000087650608    -0.088533340703    -0.111141512960    0.000003316924    -0.000037181888    -0.054084468818    -0.136418026746
375000000.000     -0.094674508719    -0.070272354470    0.000145688759    0.000036117841    -0.100445345745    -0.002950477327    0.000125079179    0.000084867335
            0.000152581225    0.000040922605    -0.098925587423    -0.073276300072    0.001240423800    0.000470684370    -0.104751001517    -0.005781704091
            -0.099307692499    -0.003312473217    0.001293814801    0.000489535648    -0.094284885285    -0.069557400489    0.000113200561    0.000056896445
            0.000181280711    0.000083061994    -0.104431481086    -0.006837661966    0.000111767723    0.000027622393    -0.099235023850    -0.072017495514
400000000.000     -0.042438043977    -0.062551516858    0.000089955915    -0.000167966448    -0.011716838033    -0.022184673274    0.000214908625    -0.000236489529
            0.000104139174    -0.000169734817    -0.047332702890    -0.056412657775    0.000623383763    -0.000409860335    -0.016523484394    -0.016902844535
            -0.012167093379    -0.023668394600    0.000638483215    -0.000455506781    -0.040431759733    -0.066005654714    0.000124668833    -0.000134036484
            0.000233634952    -0.000295398075    -0.016910151255    -0.017994481244    0.000098008325    -0.000134684322    -0.043749955257    -0.060085883372
425000000.000     -0.115979863127    -0.105725200347    -0.000033753044    -0.000034134931    -0.100230960714    -0.075748298455    -0.000114140757    -0.000168008777
            -0.000026197083    -0.000048110567    -0.112432354636    -0.104431282110    0.000390790538    0.000585966467    -0.098462616620    -0.074687611402
            -0.101676565961    -0.075419621594    0.000350359106    0.000585843211    -0.119571572740    -0.108159574499    0.000009969860    -0.000065749128
            -0.000149737751    -0.000192287268    -0.099354918916    -0.075252703556    0.000012336543    -0.000043136939    -0.116018831829    -0.108619142397
450000000.000     -0.172902163811    0.021480422644    0.000099086864    0.000044606535    -0.139756264882    0.057717980382    0.000097743349    0.000085530189
            0.000094319011    0.000034822173    -0.177955674867    0.017103679259    0.001413450287    0.000209053028    -0.145100584956    0.055581016845
            -0.139498388182    0.058845934676    0.001424851893    0.000254313314    -0.172683703099    0.024256572309    0.000084370262    0.000003461483
            0.000091094577    0.000104284896    -0.145891887259    0.055534367749    0.000107082155    -0.000003322901    -0.178327802041    0.019665646543
475000000.000     -0.029010967373    0.073764702877    0.000183343031    -0.000187886195    0.005796698324    0.086528560925    0.000264884000    -0.000303992447
            0.000181233051    -0.000189155885    -0.037460021110    0.081968506010    0.000652782791    -0.000607911753    -0.000531897548    0.094621620031
            0.006616021193    0.085956646796    0.000711431866    -0.000618395886    -0.025387726857    0.069491101324    0.000159438780    -0.000178822356
            0.000289334912    -0.000322632040    -0.001259560858    0.094575092891    0.000147561591    -0.000208718651    -0.033232069692    0.077265320204
500000000.000     -0.041286426807    -0.065664267464    -0.000071591934    -0.000170532892    -0.012408120236    -0.037936523804    -0.000205351835    -0.000290784876
            -0.000067696585    -0.000177263586    -0.035518104163    -0.060377171938    0.000477179316    0.000480692539    -0.008011489430    -0.034166252225
            -0.013478845960    -0.038682363878    0.000472478349    0.000416284969    -0.047480925116    -0.069721502218    -0.000040653537    -0.000151960269
            -0.000234150768    -0.000331365735    -0.009112241188    -0.033811327741    -0.000074141517    -0.000136519184    -0.042000925020    -0.065472192964
525000000.000     -0.167576997732    0.030238255408    -0.000006632259    -0.000026480699    -0.098091279408    0.037759863389    0.000007841090    0.000048055532
            -0.000013602638    -0.000039503475    -0.171578684650    0.026174662010    0.001483728416    -0.000110133902    -0.103026254588    0.036479321337
            -0.099007274071    0.038920079434    0.001432469212    -0.000108307698    -0.168753049676    0.035723002095    0.000028336898    -0.000073424598
            -0.000039303254    0.000062558034    -0.103630757554    0.037768395025    0.000041872544    -0.000043628986    -0.172542628605    0.031608855193
550000000.000     -0.032826371751    0.144121343033    0.000129808382    -0.000169446501    0.000114271511    0.095366215538    0.000206858796    -0.000341908577
            0.000114929328    -0.000170138088    -0.042327101883    0.153447249885    0.000590092438    -0.000755255186    -0.005845465188    0.105485270953
            0.000934901221    0.096475773263    0.000596876911    -0.000717455152    -0.026811845091    0.141444729191    0.000099028395    -0.000229597548
            0.000204203066    -0.000303900416    -0.005389240681    0.106649050976    0.000123974053    -0.000242098743    -0.035523516641    0.149315670236
575000000.000     0.038574316330    -0.002500790125    -0.000132015324    -0.000263983781    0.026013616516    -0.009608859321    -0.000339849793    -0.000391008834
            -0.000139011461    -0.000255894433    0.045276310610    0.007675753535    0.000505437394    0.000265027957    0.033470186743    -0.002625067834
            0.027025862904    -0.010302118197    0.000545632092    0.000242370568    0.034024552813    -0.008411606681    -0.000188794574    -0.000244278595
            -0.000318594961    -0.000388975699    0.033942319743    -0.001974572997    -0.000206779829    -0.000264165398    0.039388280085    0.000455259653
600000000.000     -0.088987618791    0.001184065133    -0.000133528016    -0.000068340090    -0.050820162206    0.016058375045    -0.000142637107    0.000062995112
            -0.000134276741    -0.000065330267    -0.089933612938    -0.000300806482    0.001409229325    -0.000402657624    -0.053135116425    0.015049576028
            -0.051328675979    0.015513816630    0.001375023106    -0.000453403792    -0.090745550990    0.005730263180    -0.000101920040    -0.000045299651
            -0.000154565493    0.000048663230    -0.052650004505    0.015598310663    -0.000115896774    -0.000022479374    -0.091574904785    0.004729075152
625000000.000     -0.032058949823    0.081470522205    -0.000059753052    -0.000163657702    -0.004046363161    0.037611872102    0.000037475576    -0.000362145528
            -0.000064226899    -0.000162010243    -0.036092561819    0.093518904748    0.000374150821    -0.000860107727    -0.006412067420    0.049802990027
            -0.004456675640    0.038532099623    0.000313218967    -0.000832424583    -0.027080767947    0.078620533522    -0.000045245292    -0.000230605675
            0.000013078697    -0.000338778429    -0.005318194197    0.050198924954    -0.000021369680    -0.000215704827    -0.029959525784    0.088356497553
650000000.000     -0.013954167609    0.008347828301    -0.000264709197    -0.000135890411    -0.039042063124    -0.009129243768    -0.000549109526    -0.000270706740
            -0.000271385869    -0.000129576368    -0.002590273230    0.015584115828    0.000529120585    0.000146972171    -0.027727062395    -0.003740735157
            -0.037658871135    -0.008397212786    0.000547340804    0.000206075101    -0.017828661449    0.004282803934    -0.000350044759    -0.000163106661
            -0.000525413654    -0.000233662822    -0.026528209681    -0.004231030126    -0.000333719857    -0.000184328449    -0.009072771981    0.009146408094
675000000.000     -0.064343661246    0.051832256122    -0.000174203958    0.000040525294    -0.062918374573    0.066923416843    -0.000212414983    0.000211248305
            -0.000174642219    0.000053212822    -0.064897313149    0.050377860647    0.001220448489    -0.000643951592    -0.063687837858    0.065175041571
            -0.061825571037    0.065535844428    0.001263746484    -0.000663143944    -0.062873330084    0.053937880777    -0.000206379938    0.000099432713
            -0.000174005149    0.000195031108    -0.063094297321    0.064171497449    -0.000222096469    0.000084107459    -0.064568458793    0.053622788397
700000000.000     0.007609114190    0.041827743346    -0.000140439214    -0.000138307165    0.014616018332    0.042145538149    -0.000074103161    -0.000326768375
            -0.000128108318    -0.000129001045    0.009721961974    0.056768216365    0.000158527461    -0.000872986719    0.016389363431    0.054906685282
            0.013468894938    0.041092837998    0.000123895422    -0.000905563296    0.009924243695    0.033646957538    -0.000108060360    -0.000135479920
            -0.000087859295    -0.000355664406    0.016399874546    0.053856728471    -0.000119788847    -0.000121533476    0.013120889766    0.046624001144
725000000.000     -0.095785301895    -0.029318620083    -0.000395677603    0.000037495704    -0.079404507186    0.017562208687    -0.000724548657    -0.000016157889
            -0.000389280512    0.000030947429    -0.077107626835    -0.029907860641    0.000526291719    0.000068590829    -0.067788601327    0.015260349260
            -0.081805623677    0.016423228178    0.000493824432    0.000122704483    -0.104994574048    -0.030257587579    -0.000419927706    0.000010362768
            -0.000742319697    0.000004614570    -0.068090656386    0.014754278631    -0.000403766288    0.000015731333    -0.089958272942    -0.033228873258
750000000.000     -0.134971979942    0.146122955129    -0.000151162908    0.000278281414    -0.096921564404    0.144270780652    -0.000159762101    0.000450242263
            -0.000153567508    0.000280482962    -0.137132200721    0.138652464722    0.000994045618    -0.000757225999    -0.098350403788    0.140387528531
            -0.095738996896    0.144085625586    0.001045819098    -0.000716270037    -0.131039549573    0.151433084594    -0.000193691190    0.000291376507
            -0.000133592470    0.000463628462    -0.098687650147    0.139775154529    -0.000186837891    0.000272248340    -0.135332316693    0.145901564509
775000000.000     0.045244111570    0.146266893793    0.000023212573    -0.000041335633    0.048056729950    0.127650398029    0.000014792414    -0.000178425827
            0.000030317520    -0.000031814832    0.044700198257    0.159519081013    0.000080373325    -0.000841752942    0.049804104412    0.138549089211
