# Hz S RI R 45
0.000     0.076488712000    -0.000000000000    0.000002570221    0.000000000000    0.005287142700    -0.000000000000    0.000001491332    0.000000000000
            0.000002544775    0.000000000000    0.076290329000    -0.000000000000    -0.000000343495    -0.000000000000    0.005310525500    -0.000000000000
            0.006058837500    0.000000000000    -0.000000342556    -0.000000000000    0.077021089000    -0.000000000000    0.000000346894    -0.000000000000
            0.000001527310    -0.000000000000    0.006164616100    0.000000000000    0.000000339386    0.000000000000    0.077869203000    -0.000000000000
25000000.000     0.150176501138    -0.001017785876    0.000005545642    0.000003317009    0.086511613271    0.030915100046    0.000002484855    0.000000002726
            0.000005550722    0.000003320756    0.150620901531    -0.001595338039    0.000001680217    0.000003367281    0.086793793988    0.030534148611
            0.087258048588    0.030564733847    0.000001683323    0.000003363821    0.150520674289    -0.000068773414    0.000000583361    0.000000317172
            0.000002494412    0.000000000503    0.087512254065    0.030138448447    0.000000587334    0.000000325222    0.150696494165    -0.001133891975
50000000.000     0.084772901661    -0.096096006383    -0.000011116755    0.000015450170    0.045534839190    -0.055395888465    -0.000005877479    0.000006408280
            -0.000011100197    0.000015456386    0.083469698284    -0.096162893148    -0.000002346168    0.000006576991    0.044445498367    -0.055382045968
            0.045931453155    -0.056211710024    -0.000002359164    0.000006573208    0.085370694936    -0.096784910044    -0.000001045809    0.000001919883
            -0.000005888994    0.000006404965    0.044822247374    -0.056179887996    -0.000001024722    0.000001925098    0.083936109021    -0.096607298423
75000000.000     0.009017828606    0.026915680721    0.000013783966    0.000041260030    -0.009690972456    0.069105818222    0.000009198973    0.000016828192
            0.000013802639    0.000041248482    0.010684293283    0.028367381371    0.000003646981    0.000015425695    -0.008073959420    0.070544635728
            -0.010039596611    0.068313032464    0.000003654795    0.000015448577    0.008604885880    0.026362371213    0.000002578157    0.000004277699
            0.000009206572    0.000016850952    -0.008424495537    0.069758385799    0.000002594313    0.000004263660    0.010372589316    0.027811068072
100000000.000     0.174670392862    0.011094947488    0.000010480238    0.000012502883    0.170031650812    0.050737013651    0.000003585988    0.000000091003
            0.000010506646    0.000012493925    0.175188732899    0.007548460952    0.000003005531    0.000012917773    0.171141150552    0.047311342960
            0.169752724914    0.049994839383    0.000003023641    0.000012897945    0.173725925835    0.010787368326    0.000000313429    0.000003061641
            0.000003602405    0.000000071712    0.170846877407    0.046574123695    0.000000340425    0.000003055470    0.174250288878    0.007262777175
125000000.000     0.108895324095    -0.133940366299    -0.000022247173    0.000049227486    0.106441674475    -0.114449785249    -0.000011884845    0.000017757794
            -0.000022217740    0.000049186649    0.104477599392    -0.134391443752    0.000000030562    0.000021644955    0.102234576436    -0.115642990178
            0.105640623235    -0.115086422294    -0.000000008769    0.000021640666    0.107824871185    -0.133125711507    0.000000852038    0.000005131077
            -0.000011919065    0.000017754751    0.101415716827    -0.116259028896    0.000000890650    0.000005087745    0.103456183125    -0.133591133376
150000000.000     0.000910077340    -0.023009896543    0.000038067458    0.000071402308    -0.012776032221    -0.000539618076    0.000018120794    0.000027977355
            0.000038052597    0.000071344090    0.002429640395    -0.020377442891    0.000015159449    0.000026353879    -0.011569606504    0.002187611941
            -0.013836709394    -0.000394743121    0.000015199918    0.000026392333    0.001902139705    -0.022011179286    0.000005907196    0.000006974122
            0.000018160224    0.000028010131    -0.012624364202    0.002369357112    0.000005878335    0.000006910489    0.003434612130    -0.019396867749
175000000.000     0.158584742170    0.002231393995    0.000003017613    0.000019118345    0.156438653730    0.032819784748    -0.000000829872    0.000000774127
            0.000002980185    0.000019090918    0.158279070631    -0.003128189201    0.000001430809    0.000019688443    0.157042014642    0.027411338400
            0.155922726623    0.033392692261    0.000001422738    0.000019632099    0.158829286572    0.000532734429    0.000000488178    0.000004703172
            -0.000000840042    0.000000716868    0.156548207738    0.028001098263    0.000000460933    0.000004684013    0.158519630409    -0.004819252006
200000000.000     0.132033587713    -0.163341734814    -0.000019471819    0.000093657832    0.141436830534    -0.144725477133    -0.000011733519    0.000030921461
            -0.000019501892    0.000093624702    0.124360134500    -0.164790658884    0.000010611100    0.000040892797    0.133961940519    -0.147607111373
            0.140996015661    -0.144315917248    0.000010561856    0.000040925605    0.129585217226    -0.162895766233    0.000006024728    0.000008062929
            -0.000011781102    0.000030955139    0.133537068686    -0.147175141284    0.000005996325    0.000008019431    0.121982274970    -0.164247961001
225000000.000     -0.005418834945    -0.118527916065    0.000065797367    0.000085391576    0.001038513915    -0.114786492195    0.000020159319    0.000031388274
            0.000065715215    0.000085361444    -0.008423497184    -0.115117294442    0.000033561528    0.000029204654    -0.002985143990    -0.111950117718
            0.000583771519    -0.113853633399    0.000033627014    0.000029232981    -0.003988668091    -0.115194685967    0.000008931099    0.000006263465
            0.000020221931    0.000031411224    -0.003386255659    -0.110996338384    0.000008836602    0.000006231115    -0.006753360421    -0.111878738058
250000000.000     0.073078119529    -0.048277686720    -0.000010512386    0.000025228790    0.058638845808    -0.053395820156    -0.000009829084    0.000006621727
            -0.000010608683    0.000025282108    0.069135095198    -0.050703870731    0.000003406115    0.000016031345    0.054187010231    -0.055312323420
            0.059145567745    -0.052257930520    0.000003361571    0.000015977104    0.076743640996    -0.050391230566    0.000003743858    0.000001944489
            -0.000009878367    0.000006566609    0.054749601753    -0.054208599954    0.000003659321    0.000002006623    0.072754512950    -0.053025529268
275000000.000     0.078254724714    -0.158101707378    -0.000006534953    0.000139967858    0.045274702271    -0.136966867316    -0.000008231872    0.000049081825
            -0.000006566682    0.000140063299    0.068985439136    -0.156374160417    0.000019217183    0.000053612869    0.036409686691    -0.134413136733
            0.046227711503    -0.136585727749    0.000019223633    0.000053690749    0.076188162103    -0.160329540881    0.000006721861    0.000006442056
            -0.000008226184    0.000049165525    0.037385651566    -0.134084393374    0.000006679506    0.000006519122    0.066900025730    -0.158511216766
300000000.000     -0.025952318487    -0.152647802270    0.000086990401    0.000078355512    -0.028135941782    -0.112844833450    0.000019626602    0.000027520123
            0.000086996855    0.000078433825    -0.032903731391    -0.148039432465    0.000048495093    0.000021631907    -0.033714345382    -0.108296957479
            -0.027427507201    -0.112860768889    0.000048574332    0.000021587979    -0.025615453004    -0.149580259884    0.000008513565    0.000002494274
            0.000019701786    0.000027472367    -0.033004461677    -0.108365230257    0.000008510663    0.000002590793    -0.032266971602    -0.145053692474
325000000.000     -0.014934747837    -0.111575757119    -0.000032706551    0.000048475402    -0.011633304183    -0.106184342263    -0.000026091085    0.000025209943
            -0.000032681715    0.000048559673    -0.025183482159    -0.106852116303    0.000004779023    0.000013248580    -0.021829326567    -0.102231618809
            -0.010889543785    -0.106312328671    0.000004710408    0.000013207173    -0.010546939226    -0.113498110290    0.000002904682    0.000001457571
            -0.000026161707    0.000025177996    -0.021103570664    -0.102412772918    0.000002941191    0.000001538384    -0.020796811634    -0.109091872277
350000000.000     -0.043259665383    -0.143686059143    0.000019726177    0.000175897914    -0.080434369849    -0.123863274051    -0.000000256616    0.000070994810
            0.000019801563    0.000175990497    -0.052431756278    -0.132113263742    0.000028072749    0.000049787276    -0.089279441756    -0.110527191404
            -0.079647422617    -0.124421370106    0.000028111449    0.000049840971    -0.044756882279    -0.148007769027    0.000004401233    0.000003819195
            -0.000000212007    0.000071052437    -0.088533340703    -0.111141512960    0.000004460060    0.000003904469    -0.054084468818    -0.136418026746
375000000.000     -0.095254815127    -0.083841179767    0.000090059010    0.000064912611    -0.105482335567    -0.016982195537    0.000021260399    0.000031772751
            0.000090203980    0.000064956863    -0.098925587423    -0.073276300072    0.000042989219    0.000007620068    -0.104751001517    -0.005781704091
            -0.105073902552    -0.018000911097    0.000043001699    0.000007514921    -0.095808724190    -0.082559264861    0.000004506579    0.000002673909
            0.000021274787    0.000031663629    -0.104431481086    -0.006837661966    0.000004646685    0.000002749106    -0.099235023850    -0.072017495514
400000000.000     -0.039061652861    -0.066053068309    -0.000057920668    0.000093229151    -0.011378795599    -0.023137751856    -0.000030140912    0.000049435104
            -0.000057764676    0.000093168008    -0.047332702890    -0.056412657775    -0.000006557854    0.000025482524    -0.016523484394    -0.016902844535
            -0.011661134241    -0.024265630196    -0.000006666393    0.000025512179    -0.035440926150    -0.069354204795    0.000000958884    0.000006652559
            -0.000030252230    0.000049469772    -0.016910151255    -0.017994481244    0.000001140355    0.000006581740    -0.043749955257    -0.060085883372
425000000.000     -0.105155965805    -0.122985185727    0.000061763457    0.000200439068    -0.092388738939    -0.091222370337    0.000016347713    0.000082509100
            0.000061844019    0.000200306085    -0.112432354636    -0.104431282110    0.000043132139    0.000042746315    -0.098462616620    -0.074687611402
            -0.093229192907    -0.091871918890    0.000043161326    0.000042799373    -0.108540037016    -0.127299627555    0.000005235989    0.000002118137
            0.000016389787    0.000082564626    -0.099354918916    -0.075252703556    0.000005302590    0.000001990877    -0.116018831829    -0.108619142397
450000000.000     -0.180702755183    -0.003720406494    0.000075522000    0.000058177032    -0.150929391790    0.037670965261    0.000020036812    0.000047025568
            0.000075534084    0.000058052209    -0.177955674867    0.017103679259    0.000023328842    -0.000009018428    -0.145100584956    0.055581016845
            -0.151710743278    0.037548659703    0.000023322104    -0.000009051810    -0.181547044282    -0.001166216941    0.000001982344    0.000007318792
            0.000020027498    0.000046979069    -0.145891887259    0.055534367749    0.000002011255    0.000007204103    -0.178327802041    0.019665646543
475000000.000     -0.043309660437    0.070005214756    -0.000066395466    0.000142807184    -0.007296927673    0.087487939411    -0.000009603104    0.000067549611
            -0.000066390763    0.000142678305    -0.037460021110    0.081968506010    -0.000029837542    0.000039923642    -0.000531897548    0.094621620031
            -0.008015808840    0.087357115235    -0.000029883668    0.000040007504    -0.039031669781    0.065903592941    0.000003085109    0.000006611172
            -0.000009653588    0.000067640038    -0.001259560858    0.094575092891    0.000003108887    0.000006471618    -0.033232069692    0.077265320204
500000000.000     -0.033414979966    -0.071746122618    0.000107763491    0.000215401552    -0.007138452376    -0.042218257094    0.000036924470    0.000071056156
            0.000107698345    0.000215211829    -0.035518104163    -0.060377171938    0.000054614499    0.000055379829    -0.008011489430    -0.034166252225
            -0.008279772493    -0.041983749327    0.000054699393    0.000055385122    -0.039518290489    -0.077190658476    0.000007243540    -0.000000594531
            0.000037015737    0.000071058222    -0.009112241188    -0.033811327741    0.000007165563    -0.000000787714    -0.042000925020    -0.065472192964
525000000.000     -0.173202009005    0.002875085037    0.000046755881    0.000054150198    -0.105774420201    0.020755643813    0.000001165678    0.000050822827
            0.000046518052    0.000054037826    -0.171578684650    0.026174662010    0.000006749426    -0.000015500510    -0.103026254588    0.036479321337
            -0.106524650715    0.021969254357    0.000006757810    -0.000015506797    -0.175104512130    0.008215236580    -0.000004818200    0.000009448691
            0.000001168482    0.000050808931    -0.103630757554    0.037768395025    -0.000005020802    0.000009327781    -0.172542628605    0.031608855193
550000000.000     -0.059231109619    0.137469558848    -0.000054006412    0.000200970894    -0.016531720897    0.095368566582    0.000012749354    0.000090722721
            -0.000054231784    0.000201059035    -0.042327101883    0.153447249885    -0.000041140610    0.000056221665    -0.005845465188    0.105485270953
            -0.016220138003    0.096579480671    -0.000041118870    0.000056232721    -0.052512245568    0.134491042671    0.000008402515    0.000007636707
            0.000012765542    0.000090742860    -0.005389240681    0.106649050976    0.000008148867    0.000007686163    -0.035523516641    0.149315670236
575000000.000     0.038603906831    0.006717947326    0.000141901595    0.000211301209    0.029777088368    -0.004918284265    0.000051683165    0.000050812107
            0.000141769954    0.000211397610    0.045276310610    0.007675753535    0.000048475342    0.000068844902    0.033470186743    -0.002625067834
            0.030159212462    -0.004205918509    0.000048546090    0.000068785445    0.033465341635    -0.000717901855    0.000003319815    -0.000004851271
            0.000051763488    0.000050746867    0.033942319743    -0.001974572997    0.000003177128    -0.000004739663    0.039388280085    0.000455259653
600000000.000     -0.086112299533    -0.016205097183    0.000007373078    0.000062470414    -0.051633604272    0.003864460875    -0.000026373203    0.000049103347
            0.000007257250    0.000062569571    -0.089933612938    -0.000300806482    -0.000005417240    0.000003486442    -0.053135116425    0.015049576028
            -0.051217306180    0.004474079017    -0.000005489480    0.000003451600    -0.088828802926    -0.011351420375    -0.000013325358    0.000012377816
            -0.000026456364    0.000049067733    -0.052650004505    0.015598310663    -0.000013423227    0.000012465649    -0.091574904785    0.004729075152
625000000.000     -0.048669168732    0.075081377606    -0.000023407995    0.000273877182    -0.012362193796    0.037161649152    0.000020417771    0.000119534652
            -0.000023500555    0.000274119250    -0.036092561819    0.093518904748    -0.000017385610    0.000084870165    -0.006412067420    0.049802990027
            -0.011334881315    0.037701622355    -0.000017350460    0.000084906897    -0.042502530997    0.071391606118    0.000012412835    0.000013388471
            0.000020448851    0.000119583769    -0.005318194197    0.050198924954    0.000012275259    0.000013599153    -0.029959525784    0.088356497553
650000000.000     -0.009690819644    0.010177750254    0.000169469248    0.000176231520    -0.030503627104    -0.012811225434    0.000050013025    0.000040343353
            0.000169586232    0.000176511000    -0.002590273230    0.015584115828    0.000050804042    0.000042104429    -0.027727062395    -0.003740735157
            -0.029244275720    -0.013115662603    0.000050816583    0.000041977524    -0.015245895061    0.003388387792    -0.000005408700    -0.000011223246
            0.000050048413    0.000040216076    -0.026528209681    -0.004231030126    -0.000005311237    -0.000010899250    -0.009072771981    0.009146408094
675000000.000     -0.066974328480    0.033422327034    -0.000036133609    0.000101856546    -0.068480170956    0.048726646337    -0.000033997551    0.000076811277
            -0.000035895965    0.000101986941    -0.064897313149    0.050377860647    -0.000032662252    0.000030052929    -0.063687837858    0.065175041571
            -0.067731452958    0.047813053490    -0.000032825017    0.000030093819    -0.067753461934    0.036824404613    -0.000015716345    0.000023646762
            -0.000034169580    0.000076839197    -0.063094297321    0.064171497449    -0.000015468980    0.000023785663    -0.064568458793    0.053622788397
700000000.000     -0.001496578489    0.043892145197    0.000029936323    0.000328478528    0.006615909284    0.044741157275    0.000041946612    0.000125144528
            0.000030181939    0.000328490445    0.009721961974    0.056768216365    0.000015447231    0.000112865368    0.016389363431    0.054906685282
            0.006777151699    0.043700893465    0.000015543987    0.000112930486    0.002817387950    0.035317007713    0.000015587291    0.000011293090
            0.000042038160    0.000125218282    0.016399874546    0.053856728471    0.000015812373    0.000011310506    0.013120889766    0.046624001144
725000000.000     -0.073961183236    -0.045830931163    0.000162545845    0.000139029234    -0.070672648984    -0.000246251030    0.000017857479    0.000044506499
            0.000162689643    0.000138957158    -0.077107626835    -0.029907860641    0.000053201167    0.000008490492    -0.067788601327    0.015260349260
            -0.070881037330    -0.000788775172    0.000053104709    0.000008401462    -0.086011572646    -0.050762887916    -0.000024530748    -0.000004711593
            0.000017779122    0.000044408452    -0.068090656386    0.014754278631    -0.000024368552    -0.000004749488    -0.089958272942    -0.033228873258
750000000.000     -0.154671747654    0.103810539379    -0.000045996470    0.000167471848    -0.117474676675    0.112821911010    -0.000001486240    0.000135052332
            -0.000045841894    0.000167372775    -0.137132200721    0.138652464722    -0.000047710340    0.000036413660    -0.098350403788    0.140387528531
            -0.117705776584    0.112145884321    -0.000047768394    0.000036589221    -0.154946719812    0.111600540408    0.000001054432    0.000037595388
            -0.000001563789    0.000135222478    -0.098687650147    0.139775154529    0.000001214939    0.000037495802    -0.135332316693    0.145901564509
775000000.000     0.013128738089    0.152437375269    0.000074143518    0.000342120889    0.023151939876    0.134298540487    0.000080798615    0.000107233336
            0.000074354142    0.000341899597    0.044700198257    0.159519081013    -0.000003780937    0.000115414626    0.049804104412    0.138549089211
