# Hz S RI R 45
0.000     0.082422568000    0.000000000000    -0.000001461665    0.000000000000    0.002985006300    -0.000000000000    -0.000002456800    0.000000000000
            -0.000001461503    -0.000000000000    0.076290329000    -0.000000000000    -0.000001107297    -0.000000000000    0.005310525500    -0.000000000000
            0.003898132200    -0.000000000000    -0.000001106556    -0.000000000000    0.080510534000    -0.000000000000    -0.000001980628    -0.000000000000
            -0.000002451992    0.000000000000    0.006164616100    0.000000000000    -0.000001982306    0.000000000000    0.077869203000    -0.000000000000
25000000.000     0.148026118946    0.006456050286    -0.000014798322    -0.000002089567    0.082638869740    0.042732949401    -0.000023658847    -0.000003697203
            -0.000014805811    -0.000002090456    0.150620901531    -0.001595338039    -0.000009356432    -0.000000763261    0.086793793988    0.030534148611
            0.082350854446    0.041957372237    -0.000009353477    -0.000000776468    0.147580968784    0.005850047902    -0.000017779582    -0.000002481226
            -0.000023656607    -0.000003709433    0.087512254065    0.030138448447    -0.000017774169    -0.000002467546    0.150696494165    -0.001133891975
50000000.000     0.101768938433    -0.076211076006    -0.000024300523    0.000020398302    0.071698420047    -0.025430043446    -0.000036813088    0.000033058247
            -0.000024285073    0.000020431668    0.083469698284    -0.096162893148    -0.000015335936    0.000012775843    0.044445498367    -0.055382045968
            0.070969952007    -0.024865909035    -0.000015360594    0.000012788797    0.100789616849    -0.076158971417    -0.000027749667    0.000024894654
            -0.000036832705    0.000033075189    0.044822247374    -0.056179887996    -0.000027743607    0.000024845765    0.083936109021    -0.096607298423
75000000.000     0.069462339450    0.005597004111    0.000028284224    0.000050128225    0.063806706475    0.048441610698    0.000040094800    0.000075495424
            0.000028325820    0.000050064986    0.010684293283    0.028367381371    0.000020649183    0.000031636812    -0.008073959420    0.070544635728
            0.064411304479    0.049006192767    0.000020660939    0.000031648715    0.069357862623    0.005959621265    0.000031944248    0.000056541097
            0.000040107086    0.000075499213    -0.008424495537    0.069758385799    0.000031889287    0.000056596168    0.010372589316    0.027811068072
100000000.000     0.179146379885    -0.016543244185    0.000049413017    -0.000015169216    0.181973365710    -0.001378909214    0.000080562990    -0.000016385148
            0.000049381987    -0.000015201743    0.175188732899    0.007548460952    0.000028091706    -0.000013751415    0.171141150552    0.047311342960
            0.182035938603    -0.002216307790    0.000028084477    -0.000013696727    0.178938774090    -0.017280655343    0.000058456530    -0.000014547141
            0.000080555146    -0.000016327245    0.170846877407    0.046574123695    0.000058495951    -0.000014563058    0.174250288878    0.007262777175
125000000.000     0.112457798204    -0.130309539018    0.000033909931    -0.000044088296    0.098148641758    -0.125213267051    0.000055554073    -0.000075416558
            0.000033821400    -0.000044111602    0.104477599392    -0.134391443752    0.000019556185    -0.000024156173    0.102234576436    -0.115642990178
            0.097244268973    -0.124932344148    0.000019677738    -0.000024193503    0.111088789666    -0.130131195644    0.000041343361    -0.000054674637
            0.000055665915    -0.000075472416    0.101415716827    -0.116259028896    0.000041329808    -0.000054610898    0.103456183125    -0.133591133376
150000000.000     0.048675831270    -0.045580946619    -0.000056398167    -0.000086578613    0.031643567373    -0.026786080432    -0.000085215019    -0.000130567046
            -0.000056429763    -0.000086371441    0.002429640395    -0.020377442891    -0.000038128414    -0.000054787459    -0.011569606504    0.002187611941
            0.032304399065    -0.025853191467    -0.000038259353    -0.000054884927    0.049047432989    -0.044279022596    -0.000066362784    -0.000098358173
            -0.000085352477    -0.000130625930    -0.012624364202    0.002369357112    -0.000066219996    -0.000098484622    0.003434612130    -0.019396867749
175000000.000     0.151727982628    -0.086478441252    -0.000083731695    0.000047540981    0.145958679821    -0.078179252185    -0.000134259482    0.000059923782
            -0.000083524167    0.000047507892    0.158279070631    -0.003128189201    -0.000046306916    0.000036550374    0.157042014642    0.027411338400
            0.146638330156    -0.078964568785    -0.000046317382    0.000036598064    0.152498287963    -0.087372568063    -0.000095860602    0.000048488044
            -0.000134244149    0.000059962490    0.156548207738    0.028001098263    -0.000096055227    0.000048468918    0.158519630409    -0.004819252006
200000000.000     0.050231533225    -0.198630476584    -0.000017533076    0.000068072763    0.019445348061    -0.198954416786    -0.000040687574    0.000117128997
            -0.000017497151    0.000067952287    0.124360134500    -0.164790658884    -0.000008303780    0.000034113100    0.133961940519    -0.147607111373
            0.018595701713    -0.199299129535    -0.000008407002    0.000034168272    0.048934315244    -0.198984831028    -0.000031655005    0.000082107708
            -0.000040798795    0.000117181359    0.133537068686    -0.147175141284    -0.000031617706    0.000082177101    0.121982274970    -0.164247961001
225000000.000     -0.049287566394    -0.078221056994    0.000070192878    0.000099709806    -0.090988237499    -0.041287920823    0.000117354344    0.000161210856
            0.000070105386    0.000099505888    -0.008423497184    -0.115117294442    0.000042049577    0.000065314173    -0.002985143990    -0.111950117718
            -0.090852453779    -0.040359161359    0.000042267872    0.000065492096    -0.048593164688    -0.076866280637    0.000088494217    0.000126438174
            0.000117594449    0.000161361711    -0.003386255659    -0.110996338384    0.000088406728    0.000126520786    -0.006753360421    -0.111878738058
250000000.000     0.075576843492    -0.059107268115    0.000127408758    -0.000073093730    0.065676661501    -0.009264280853    0.000204897836    -0.000107069555
            0.000127087453    -0.000072907662    0.069135095198    -0.050703870731    0.000077593565    -0.000054464405    0.054187010231    -0.055312323420
            0.066602066947    -0.009962827446    0.000077620213    -0.000054739053    0.077140796512    -0.061207305242    0.000153967972    -0.000088125798
            0.000204868238    -0.000107347847    0.054749601753    -0.054208599954    0.000154261434    -0.000088094600    0.072754512950    -0.053025529268
275000000.000     -0.003329675514    -0.172296859640    -0.000005197505    -0.000114456401    -0.003412679049    -0.134277760257    0.000003485266    -0.000190891676
            -0.000004985376    -0.000114200354    0.068985439136    -0.156374160417    -0.000008648307    -0.000063616117    0.036409686691    -0.134413136733
            -0.004380275365    -0.135108083229    -0.000008722947    -0.000063634135    -0.005702248871    -0.173669861846    -0.000000054813    -0.000138656499
            0.000003424440    -0.000190860282    0.037385651566    -0.134084393374    -0.000000187316    -0.000138896714    0.066900025730    -0.158511216766
300000000.000     -0.101741849435    -0.042019767800    -0.000114234305    -0.000091503584    -0.095801664041    -0.001421935919    -0.000188307115    -0.000154587732
            -0.000114056519    -0.000091602368    -0.032903731391    -0.148039432465    -0.000070062147    -0.000058833583    -0.033714345382    -0.108296957479
            -0.096467033185    -0.000366923395    -0.000070269018    -0.000058892541    -0.101724765088    -0.039760386585    -0.000142887072    -0.000121225806
            -0.000188496063    -0.000154665984    -0.033004461677    -0.108365230257    -0.000142909804    -0.000121099662    -0.032266971602    -0.145053692474
325000000.000     0.064434701425    0.011931387841    -0.000141164502    0.000114323734    0.080973004692    0.044650818390    -0.000237984832    0.000180145883
            -0.000141083167    0.000114133272    -0.025183482159    -0.106852116303    -0.000086733684    0.000083910296    -0.021829326567    -0.102231618809
            0.081916584021    0.044847731725    -0.000086695541    0.000084273115    0.066788190355    0.009831787610    -0.000182245460    0.000148967895
            -0.000237937761    0.000180525534    -0.021103570664    -0.102412772918    -0.000182356223    0.000148885751    -0.020796811634    -0.109091872277
350000000.000     0.037120033414    -0.150880441667    0.000041949581    0.000142327493    0.055949839432    -0.126406497360    0.000066714446    0.000244200082
            0.000041683188    0.000142169480    -0.052431756278    -0.132113263742    0.000038712650    0.000079497790    -0.089279441756    -0.110527191404
            0.055614402055    -0.127232079390    0.000038961899    0.000079388673    0.034068779894    -0.152978392781    0.000063395063    0.000179724021
            0.000066984367    0.000244044539    -0.088533340703    -0.111141512960    0.000063457629    0.000179958512    -0.054084468818    -0.136418026746
375000000.000     -0.090949095398    -0.079509479453    0.000155699339    0.000076033426    -0.063819893863    -0.068799193116    0.000255782988    0.000115577002
            0.000155575779    0.000076332572    -0.098925587423    -0.073276300072    0.000093693137    0.000042191668    -0.104751001517    -0.005781704091
            -0.064612452014    -0.067947717396    0.000093759774    0.000042091085    -0.091180858465    -0.075909785593    0.000192114248    0.000081057413
            0.000255795793    0.000115485002    -0.104431481086    -0.006837661966    0.000192178760    0.000080838984    -0.099235023850    -0.072017495514
400000000.000     0.022896299451    -0.010029056987    0.000150428547    -0.000175330781    0.022708948389    -0.019548971286    0.000242835711    -0.000268794458
            0.000150650860    -0.000175325348    -0.047332702890    -0.056412657775    0.000086900257    -0.000122037430    -0.016523484394    -0.016902844535
            0.023895782026    -0.018804089763    0.000086698455    -0.000122352845    0.027589208321    -0.012260709625    0.000177946753    -0.000214510547
            0.000242672696    -0.000269103787    -0.016910151255    -0.017994481244    0.000177863714    -0.000214238587    -0.043749955257    -0.060085883372
425000000.000     0.017113915765    -0.165080700999    -0.000107867069    -0.000148989134    -0.006055856685    -0.134739008150    -0.000165552061    -0.000260573875
            -0.000107897019    -0.000149049450    -0.112432354636    -0.104431282110    -0.000082431247    -0.000076131293    -0.098462616620    -0.074687611402
            -0.005429677247    -0.135850166273    -0.000082673797    -0.000075780631    0.014201006384    -0.169257479801    -0.000140168758    -0.000185588400
            -0.000165862005    -0.000260223592    -0.099354918916    -0.075252703556    -0.000139870714    -0.000185806257    -0.116018831829    -0.108619142397
450000000.000     -0.152516486426    -0.124705905888    -0.000155364741    -0.000039098328    -0.128393802525    -0.081854009714    -0.000268644053    -0.000050459123
            -0.000155327603    -0.000039093594    -0.177955674867    0.017103679259    -0.000084119517    -0.000016082477    -0.145100584956    0.055581016845
            -0.129269567472    -0.082142865152    -0.000083867835    -0.000015996992    -0.153729846211    -0.121664323246    -0.000194722392    -0.000026697298
            -0.000268331958    -0.000050312362    -0.145891887259    0.055534367749    -0.000194998116    -0.000026819605    -0.178327802041    0.019665646543
475000000.000     -0.103294464886    0.007559189840    -0.000175595921    0.000189251057    -0.087864325093    0.009504345716    -0.000258430228    0.000297815095
            -0.000175682276    0.000189225727    -0.037460021110    0.081968506010    -0.000103692575    0.000121352856    -0.000531897548    0.094621620031
            -0.087639504422    0.010240198545    -0.000103627454    0.000121365869    -0.098431485350    0.005093305769    -0.000185408627    0.000228066039
            -0.000258356593    0.000297779266    -0.001259560858    0.094575092891    -0.000185382255    0.000228085646    -0.033232069692    0.077265320204
500000000.000     -0.054529169281    -0.069713663256    0.000181956747    0.000205788039    -0.066674715774    -0.025968362914    0.000263601334    0.000328542404
            0.000182128029    0.000205858854    -0.035518104163    -0.060377171938    0.000128312983    0.000113001612    -0.008011489430    -0.034166252225
            -0.065985034239    -0.026767131431    0.000128479502    0.000112664074    -0.058153805571    -0.075685690147    0.000209986027    0.000233237716
            0.000263818911    0.000328219287    -0.009112241188    -0.033811327741    0.000209604062    0.000233430856    -0.042000925020    -0.065472192964
525000000.000     -0.172598473401    -0.036777561951    0.000195148701    -0.000033768678    -0.112669740732    0.022307778936    0.000329710418    -0.000046071959
            0.000195057271    -0.000034086545    -0.171578684650    0.026174662010    0.000107631399    -0.000028776807    -0.103026254588    0.036479321337
            -0.113719938447    0.021558492319    0.000107212864    -0.000028739985    -0.175527463788    -0.033768474877    0.000237918973    -0.000041765144
            0.000329214833    -0.000046160903    -0.103630757554    0.037768395025    0.000238432108    -0.000041342917    -0.172542628605    0.031608855193
550000000.000     -0.118706219435    0.096472267024    0.000152635748    -0.000219029450    -0.053279758335    0.075790755881    0.000226192150    -0.000353657012
            0.000152285155    -0.000218778520    -0.042327101883    0.153447249885    0.000091467046    -0.000138975420    -0.005845465188    0.105485270953
            -0.054116322673    0.076850185932    0.000091652705    -0.000138674650    -0.114582594069    0.095319127113    0.000164798515    -0.000269516288
            0.000226291548    -0.000353223522    -0.005389240681    0.106649050976    0.000165070222    -0.000270139902    -0.035523516641    0.149315670236
575000000.000     -0.028609165133    0.044059654934    -0.000240992659    -0.000259116068    -0.026147583873    0.033884853835    -0.000355111976    -0.000394590087
            -0.000240859411    -0.000258924132    0.045276310610    0.007675753535    -0.000169136361    -0.000151132534    0.033470186743    -0.002625067834
            -0.025202238869    0.034475292861    -0.000169068639    -0.000151362978    -0.031937990948    0.039399103891    -0.000281426586    -0.000285806670
            -0.000354982394    -0.000394782423    0.033942319743    -0.001974572997    -0.000281685636    -0.000285847431    0.039388280085    0.000455259653
600000000.000     -0.077151504073    0.026988326120    -0.000279470392    0.000134981236    -0.038728737810    0.045176018517    -0.000446914745    0.000186128113
            -0.000279192926    0.000135100375    -0.089933612938    -0.000300806482    -0.000163842658    0.000101303434    -0.053135116425    0.015049576028
            -0.038683295545    0.044370328736    -0.000163836967    0.000101451958    -0.079002993441    0.030200418077    -0.000328318159    0.000152580993
            -0.000446839853    0.000186317970    -0.052650004505    0.015598310663    -0.000328638841    0.000152331608    -0.091574904785    0.004729075152
625000000.000     -0.033558427150    0.067716009461    -0.000050214636    0.000329463448    0.006667480546    0.031302022190    -0.000088888699    0.000514085773
            -0.000049923094    0.000328895449    -0.036092561819    0.093518904748    -0.000014658415    0.000216261929    -0.006412067420    0.049802990027
            0.005837894520    0.031906809334    -0.000014709897    0.000216094917    -0.029575061610    0.065493942093    -0.000053363278    0.000396952262
            -0.000088860084    0.000513748994    -0.005318194197    0.050198924954    -0.000053659485    0.000397776857    -0.029959525784    0.088356497553
650000000.000     -0.021884442394    0.003454856298    0.000355901055    0.000169518270    -0.039166849146    -0.018984029857    0.000528920378    0.000282098742
            0.000355221820    0.000169343427    -0.002590273230    0.015584115828    0.000249398583    0.000076135809    -0.027727062395    -0.003740735157
            -0.038017727692    -0.017947912833    0.000249429919    0.000076554224    -0.025121508443    -0.000394894556    0.000420141072    0.000188953277
            0.000528748085    0.000282481309    -0.026528209681    -0.004231030126    0.000420964474    0.000188811459    -0.009072771981    0.009146408094
675000000.000     -0.074644905147    0.027692468658    0.000249074954    -0.000235747748    -0.072814993317    0.047614825732    0.000416213706    -0.000344068777
            0.000248816315    -0.000235364203    -0.064897313149    0.050377860647    0.000129289882    -0.000170185752    -0.063687837858    0.065175041571
            -0.071739453612    0.046327894523    0.000129707920    -0.000170755899    -0.074095055843    0.029410097087    0.000295495039    -0.000278901699
            0.000416614659    -0.000344512257    -0.063094297321    0.064171497449    0.000295385226    -0.000278980076    -0.064568458793    0.053622788397
700000000.000     -0.038980480322    0.034854457183    -0.000066275201    -0.000384840748    -0.017712586534    0.040706877465    -0.000086092744    -0.000599355090
            -0.000066037866    -0.000384128062    0.009721961974    0.056768216365    -0.000072816374    -0.000243998508    0.016389363431    0.054906685282
            -0.018953953772    0.039909886719    -0.000073694840    -0.000243976276    -0.036808320384    0.028613886809    -0.000094807405    -0.000456141580
            -0.000086905803    -0.000599241608    0.016399874546    0.053856728471    -0.000094436869    -0.000456819755    0.013120889766    0.046624001144
725000000.000     -0.112116732867    0.008617582313    -0.000435723082    0.000005260802    -0.094632618140    0.024023074500    -0.000656763273    -0.000041751498
            -0.000435062400    0.000004793826    -0.077107626835    -0.029907860641    -0.000283687776    0.000063949907    -0.067788601327    0.015260349260
            -0.094770178239    0.024787281683    -0.000283332819    0.000064335496    -0.119248456829    0.006561324490    -0.000502685260    0.000019713301
            -0.000656332308    -0.000041435537    -0.068090656386    0.014754278631    -0.000503620704    0.000019840308    -0.089958272942    -0.033228873258
750000000.000     -0.128642560825    0.142304374044    -0.000084406072    0.000287485859    -0.088369397652    0.145335497276    -0.000198348305    0.000435762973
            -0.000084732865    0.000287038226    -0.137132200721    0.138652464722    0.000000912363    0.000178465908    -0.098350403788    0.140387528531
            -0.087485737793    0.144621384093    0.000000789366    0.000178661966    -0.126399273813    0.146291097252    -0.000110497202    0.000326029027
            -0.000198535979    0.000435863333    -0.098687650147    0.139775154529    -0.000110062029    0.000326416338    -0.135332316693    0.145901564509
775000000.000     0.009248585067    0.146637019413    0.000086080905    0.000289928243    0.039202426884    0.128003299279    0.000134182345    0.000485587614
