# Hz S RI R 45
0.000     0.084170250000    -0.000000000000    0.000017262247    -0.000000000000    0.002807016300    0.000000000000    0.000016036966    0.000000000000
            0.000024955545    -0.000000000000    0.076290329000    -0.000000000000    -0.000019615693    0.000000000000    0.005310525500    -0.000000000000
            0.003230123100    0.000000000000    -0.000077671036    -0.000000000000    0.079921768000    -0.000000000000    0.000013974713    0.000000000000
            -0.000020675745    -0.000000000000    0.006164616100    0.000000000000    0.000004460279    -0.000000000000    0.077869203000    -0.000000000000
25000000.000     0.147741319446    0.003960333807    -0.000044673759    -0.000019661578    0.082905662882    0.042117259034    -0.000037883717    -0.000019207894
            -0.000030131293    -0.000033352334    0.150620901531    -0.001595338039    -0.000052346899    -0.000006031783    0.086793793988    0.030534148611
            0.082987391662    0.041774174318    -0.000092698562    0.000060346309    0.147086814988    0.005309382559    -0.000050721399    -0.000024431160
            -0.000039587247    0.000012046637    0.087512254065    0.030138448447    -0.000036365395    -0.000025092323    0.150696494165    -0.001133891975
50000000.000     0.098700247206    -0.075411221543    -0.000075547112    0.000053166345    0.070514192921    -0.025912167974    -0.000072160616    0.000046086324
            -0.000096444442    0.000034944350    0.083469698284    -0.096162893148    -0.000103568461    0.000087316288    0.044445498367    -0.055382045968
            0.070253474935    -0.026042649056    -0.000034089181    0.000140321713    0.098641123854    -0.075016700320    -0.000094329751    0.000068194896
            -0.000049192537    0.000056879766    0.044822247374    -0.056179887996    -0.000105915842    0.000060926352    0.083936109021    -0.096607298423
75000000.000     0.072127145020    0.006939847048    0.000066386528    0.000147328507    0.065650747250    0.047859315844    0.000065805635    0.000138978716
            0.000055268877    0.000163094123    0.010684293283    0.028367381371    0.000126086044    0.000193842353    -0.008073959420    0.070544635728
            0.065578639600    0.047871096057    0.000170155359    0.000153360236    0.071984367663    0.007612656395    0.000084949581    0.000176744488
            0.000090168356    0.000118262736    -0.008424495537    0.069758385799    0.000097667572    0.000176082476    0.010372589316    0.027811068072
100000000.000     0.178639555918    -0.023796217599    0.000146205548    -0.000021907216    0.180935092332    -0.007965401293    0.000133950311    -0.000033923932
            0.000144132410    -0.000010273298    0.175188732899    0.007548460952    0.000187312958    -0.000060271966    0.171141150552    0.047311342960
            0.180631407645    -0.008122305969    0.000199462998    -0.000109428319    0.179413633095    -0.023342175991    0.000182774839    -0.000031309954
            0.000113558205    -0.000063756182    0.170846877407    0.046574123695    0.000157377473    -0.000044706911    0.174250288878    0.007262777175
125000000.000     0.103926903930    -0.131158403731    0.000119293402    -0.000136754149    0.090430433899    -0.127226899022    0.000094421887    -0.000122363052
            0.000141647303    -0.000117283694    0.104477599392    -0.134391443752    0.000142665151    -0.000176213410    0.102234576436    -0.115642990178
            0.089971671763    -0.126704111777    0.000074825181    -0.000230054611    0.104567380934    -0.131788404121    0.000129328400    -0.000175416999
            0.000063839865    -0.000106018595    0.101415716827    -0.116259028896    0.000128570866    -0.000139134476    0.103456183125    -0.133591133376
150000000.000     0.049267180265    -0.044272277023    -0.000171749924    -0.000247359157    0.030670280906    -0.026923404555    -0.000162865272    -0.000220685985
            -0.000147216448    -0.000287283471    0.002429640395    -0.020377442891    -0.000223993574    -0.000341777837    -0.011569606504    0.002187611941
            0.031262710815    -0.026246303577    -0.000285395495    -0.000257853809    0.049521378974    -0.045297184316    -0.000206537450    -0.000286205271
            -0.000157573871    -0.000197179803    -0.012624364202    0.002369357112    -0.000184943497    -0.000299643538    0.003434612130    -0.019396867749
175000000.000     0.143850431360    -0.095358715101    -0.000224901346    0.000108297855    0.136753520195    -0.086280960966    -0.000204106272    0.000127583099
            -0.000262101216    0.000094482405    0.158279070631    -0.003128189201    -0.000341339378    0.000165413516    0.157042014642    0.027411338400
            0.137308646296    -0.086648237481    -0.000286925455    0.000211039446    0.143072519334    -0.096902801629    -0.000287750039    0.000141318253
            -0.000182252324    0.000142073228    0.156548207738    0.028001098263    -0.000285809687    0.000147789757    0.158519630409    -0.004819252006
200000000.000     0.032324457846    -0.194506642574    -0.000111118370    0.000199690170    0.001498336365    -0.193890660710    -0.000056831572    0.000178898812
            -0.000123260746    0.000219768754    0.124360134500    -0.164790658884    -0.000098553231    0.000305746340    0.133961940519    -0.147607111373
            0.001364641219    -0.194001550496    -0.000050918251    0.000301569270    0.030522289438    -0.194730149963    -0.000089833256    0.000265596901
            -0.000026933173    0.000158493923    0.133537068686    -0.147175141284    -0.000074044904    0.000241014174    0.121982274970    -0.164247961001
225000000.000     -0.053042541523    -0.068744858337    0.000236392010    0.000337903249    -0.093571262395    -0.030356353422    0.000216352409    0.000267228739
            0.000234232094    0.000357679313    -0.008423497184    -0.115117294442    0.000319909255    0.000401759586    -0.002985143990    -0.111950117718
            -0.092972498482    -0.030319593017    0.000359346266    0.000340095562    -0.053278026576    -0.068015117922    0.000289416968    0.000350349446
            0.000198031081    0.000226480123    -0.003386255659    -0.110996338384    0.000252940243    0.000337054297    -0.006753360421    -0.111878738058
250000000.000     0.064406678791    -0.060769277378    0.000380161806    -0.000223483230    0.057736196960    -0.010847754417    0.000318498783    -0.000228202024
            0.000414176715    -0.000206337661    0.069135095198    -0.050703870731    0.000517009241    -0.000284539720    0.054187010231    -0.055312323420
            0.057910780926    -0.012065143684    0.000445016437    -0.000340135887    0.064099583961    -0.061800206858    0.000437681200    -0.000267733919
            0.000276989584    -0.000217374872    0.054749601753    -0.054208599954    0.000428702995    -0.000240744450    0.072754512950    -0.053025529268
275000000.000     -0.021063327387    -0.158585580401    0.000020665775    -0.000349732059    -0.018411506361    -0.122603306790    -0.000031834083    -0.000299462748
            0.000041442136    -0.000389020825    0.068985439136    -0.156374160417    0.000000768672    -0.000516302538    0.036409686691    -0.134413136733
            -0.019766962565    -0.123015476397    -0.000055617532    -0.000462717902    -0.023007796057    -0.157706119122    -0.000015661119    -0.000430258587
            -0.000036902328    -0.000260600340    0.037385651566    -0.134084393374    -0.000006226397    -0.000410607445    0.066900025730    -0.158511216766
300000000.000     -0.103315153908    -0.025782268975    -0.000374423828    -0.000317133736    -0.094690238870    0.012299005490    -0.000337169976    -0.000228017083
            -0.000408363908    -0.000339299546    -0.032903731391    -0.148039432465    -0.000537408173    -0.000365232913    -0.033714345382    -0.108296957479
            -0.095193555850    0.013316103231    -0.000514480321    -0.000306203270    -0.101460012451    -0.023401396378    -0.000454891118    -0.000310093411
            -0.000303889706    -0.000205952994    -0.033004461677    -0.108365230257    -0.000425846992    -0.000307515530    -0.032266971602    -0.145053692474
325000000.000     0.057533100743    0.015322278066    -0.000456533966    0.000368340821    0.076465858831    0.043551288975    -0.000356779255    0.000363476815
            -0.000479663097    0.000386130381    -0.025183482159    -0.106852116303    -0.000573040237    0.000500649523    -0.021829326567    -0.102231618809
            0.076849874256    0.043601624872    -0.000514256344    0.000506890054    0.060003847263    0.012370433236    -0.000492533556    0.000442620418
            -0.000319347615    0.000338127366    -0.021103570664    -0.102412772918    -0.000479843392    0.000415348868    -0.020796811634    -0.109091872277
350000000.000     0.022195373861    -0.139081333928    0.000134343690    0.000475025581    0.040464960462    -0.119466920867    0.000183471911    0.000377386780
            0.000131055887    0.000501692528    -0.052431756278    -0.132113263742    0.000201168571    0.000637567508    -0.089279441756    -0.110527191404
            0.039816711662    -0.119257992390    0.000232459582    0.000589356084    0.019238497607    -0.141251344194    0.000194380998    0.000541508487
            0.000168616471    0.000330434378    -0.088533340703    -0.111141512960    0.000175830664    0.000513084595    -0.054084468818    -0.136418026746
375000000.000     -0.101232929656    -0.062422507805    0.000525264734    0.000212420205    -0.075408897587    -0.055573098465    0.000445826723    0.000115760613
            0.000557759401    0.000235091115    -0.098925587423    -0.073276300072    0.000709846813    0.000242841744    -0.104751001517    -0.005781704091
            -0.075059202308    -0.054110649494    0.000678794643    0.000187526657    -0.100744934939    -0.059897234785    0.000612068270    0.000191146431
            0.000396839259    0.000117915488    -0.104431481086    -0.006837661966    0.000567261227    0.000204404684    -0.099235023850    -0.072017495514
400000000.000     0.011920572400    0.005841685254    0.000442995702    -0.000551631634    0.008954494352    -0.005691663214    0.000316957133    -0.000521402160
            0.000478182861    -0.000588739107    -0.047332702890    -0.056412657775    0.000569761073    -0.000737976308    -0.016523484394    -0.016902844535
            0.010816543112    -0.005854693730    0.000496081726    -0.000719157077    0.015324788327    0.001647278941    0.000465576548    -0.000660962482
            0.000306008271    -0.000479145701    -0.016910151255    -0.017994481244    0.000478172730    -0.000613925429    -0.043749955257    -0.060085883372
425000000.000     0.000380686183    -0.148563612257    -0.000331647414    -0.000500374373    -0.022215073833    -0.116384091742    -0.000372148489    -0.000354166746
            -0.000362755882    -0.000535270865    -0.112432354636    -0.104431282110    -0.000475621751    -0.000680842290    -0.098462616620    -0.074687611402
            -0.022062275068    -0.117834468349    -0.000465102527    -0.000612109257    -0.005343095747    -0.152346652374    -0.000439415720    -0.000541312949
            -0.000343647212    -0.000328058407    -0.099354918916    -0.075252703556    -0.000409180085    -0.000542098573    -0.116018831829    -0.108619142397
450000000.000     -0.174278938774    -0.090246413665    -0.000567330063    -0.000086038938    -0.145046765642    -0.050419670368    -0.000422854754    0.000016599447
            -0.000600579851    -0.000073611595    -0.177955674867    0.017103679259    -0.000769779066    -0.000043002965    -0.145100584956    0.055581016845
            -0.145586742738    -0.050533648537    -0.000723525949    -0.000035788102    -0.176107138290    -0.085149974604    -0.000621987554    -0.000026297920
            -0.000385875414    0.000003926387    -0.145891887259    0.055534367749    -0.000599910019    -0.000038682361    -0.178327802041    0.019665646543
475000000.000     -0.106651178935    0.052720139466    -0.000473938025    0.000652273762    -0.091033784804    0.049546923892    -0.000325984130    0.000554958097
            -0.000483904025    0.000688145059    -0.037460021110    0.081968506010    -0.000556629732    0.000861301013    -0.000531897548    0.094621620031
            -0.090633276817    0.049145969903    -0.000521301096    0.000840973156    -0.101386517803    0.050701883043    -0.000477151658    0.000744810942
            -0.000321470889    0.000513502999    -0.001259560858    0.094575092891    -0.000480316587    0.000698692277    -0.033232069692    0.077265320204
500000000.000     -0.050274243031    -0.038918899714    0.000591990194    0.000619490664    -0.058112445779    0.004042541274    0.000574199743    0.000433025656
            0.000630789200    0.000645775590    -0.035518104163    -0.060377171938    0.000776378025    0.000798103296    -0.008011489430    -0.034166252225
            -0.059008261356    0.002813735421    0.000768966813    0.000733231753    -0.055122204321    -0.044196637801    0.000709360387    0.000646004405
            0.000536127342    0.000413371767    -0.009112241188    -0.033811327741    0.000655942610    0.000651272773    -0.042000925020    -0.065472192964
525000000.000     -0.178878943062    0.007240245474    0.000665761683    -0.000159749756    -0.110233238321    0.054307140041    0.000467411600    -0.000219357555
            0.000695308405    -0.000194025246    -0.171578684650    0.026174662010    0.000893684271    -0.000257981576    -0.103026254588    0.036479321337
            -0.111868305191    0.054971159746    0.000825691513    -0.000251766119    -0.180699646350    0.012682877423    0.000706765938    -0.000234913507
            0.000434161493    -0.000192983033    -0.103630757554    0.037768395025    0.000704591282    -0.000198416135    -0.172542628605    0.031608855193
550000000.000     -0.095990573464    0.149440695556    0.000377684277    -0.000764666578    -0.036683072543    0.112950938507    0.000247061939    -0.000607682983
            0.000359024855    -0.000793548911    -0.042327101883    0.153447249885    0.000406358321    -0.001017097173    -0.005845465188    0.105485270953
            -0.036651386458    0.114467315389    0.000403539958    -0.000966137609    -0.089096850538    0.147263913015    0.000368528904    -0.000852047438
            0.000257815098    -0.000565843773    -0.005389240681    0.106649050976    0.000383855998    -0.000832351618    -0.035523516641    0.149315670236
575000000.000     0.001878531612    0.065900174993    -0.000822303674    -0.000731989103    -0.002416572351    0.053244821870    -0.000743237220    -0.000531442097
            -0.000851011911    -0.000732245210    0.045276310610    0.007675753535    -0.001060601217    -0.000872387740    0.033470186743    -0.002625067834
            -0.001647171861    0.053615063609    -0.001034989333    -0.000849704305    -0.002634100007    0.058854443364    -0.000949572150    -0.000750383665
            -0.000699870762    -0.000524502420    0.033942319743    -0.001974572997    -0.000910676159    -0.000751340120    0.039388280085    0.000455259653
600000000.000     -0.073342835416    0.054610876990    -0.000854413476    0.000520425210    -0.034079691415    0.064456168014    -0.000621892181    0.000523659583
            -0.000869325198    0.000546548030    -0.089933612938    -0.000300806482    -0.001079522569    0.000670579047    -0.053135116425    0.015049576028
            -0.033956754831    0.064655273297    -0.001033765490    0.000662144815    -0.076244348178    0.058769174117    -0.000897454299    0.000612895683
            -0.000597199103    0.000485998961    -0.052650004505    0.015598310663    -0.000890297780    0.000569114154    -0.091574904785    0.004729075152
625000000.000     -0.009974421507    0.108628498474    -0.000039365885    0.001048231376    0.019265912168    0.062091592981    0.000065352166    0.000847721381
            -0.000021895977    0.001070205732    -0.036092561819    0.093518904748    -0.000012575039    0.001339781487    -0.006412067420    0.049802990027
            0.020046412505    0.062698320098    -0.000013960281    0.001287454714    -0.005405489718    0.105328856013    0.000008048985    0.001160278482
            0.000036869529    0.000808486754    -0.005318194197    0.050198924954    -0.000025600030    0.001141156588    -0.029959525784    0.088356497553
650000000.000     0.000117619709    0.021018521902    0.001183129568    0.000438477947    -0.025101752749    0.002854409537    0.001040225769    0.000223308177
            0.001207393942    0.000436967520    -0.002590273230    0.015584115828    0.001481199139    0.000525487017    -0.027727062395    -0.003740735157
            -0.023622687742    0.002208315569    0.001440980807    0.000515494807    -0.006036925231    0.016071496846    0.001328752505    0.000398725471
            0.000996335293    0.000240127417    -0.026528209681    -0.004231030126    0.001295004146    0.000418425656    -0.009072771981    0.009146408094
675000000.000     -0.068857976943    0.063846770293    0.000707863229    -0.000871610280    -0.062551689914    0.082321716677    0.000443157238    -0.000802121282
            0.000724332483    -0.000896682987    -0.064897313149    0.050377860647    0.000913781315    -0.001088204226    -0.063687837858    0.065175041571
            -0.062618298248    0.080508323352    0.000881592281    -0.001065063301    -0.069957721866    0.068030508000    0.000719676307    -0.000977515813
            0.000441230239    -0.000763317114    -0.063094297321    0.064171497449    0.000727245433    -0.000935319827    -0.064568458793    0.053622788397
700000000.000     -0.011335740597    0.078630215421    -0.000357021240    -0.001152269900    0.009148843545    0.076469238929    -0.000418131947    -0.000899684353
            -0.000379739871    -0.001183332329    0.009721961974    0.056768216365    -0.000468796613    -0.001477053279    0.016389363431    0.054906685282
            0.007660065023    0.076008240741    -0.000453509473    -0.001424723716    -0.008633303413    0.073465074804    -0.000456410294    -0.001260666209
            -0.000384586491    -0.000877455734    0.016399874546    0.053856728471    -0.000416151940    -0.001255394697    0.013120889766    0.046624001144
725000000.000     -0.087180673751    0.047121071954    -0.001397801915    0.000135346501    -0.067744981841    0.056922244092    -0.001154398636    0.000340079413
            -0.001436244255    0.000151314743    -0.077107626835    -0.029907860641    -0.001744667004    0.000160857447    -0.067788601327    0.015260349260
            -0.068143772611    0.057423986018    -0.001694155838    0.000147262464    -0.094531283537    0.046517740354    -0.001502787975    0.000262548501
            -0.001123951753    0.000312177738    -0.068090656386    0.014754278631    -0.001482090289    0.000232560368    -0.089958272942    -0.033228873258
750000000.000     -0.080191807603    0.194313533560    -0.000173565681    0.001014914479    -0.040241578190    0.182809197661    0.000080558517    0.000828790235
            -0.000172757327    0.001054783732    -0.137132200721    0.138652464722    -0.000288369989    0.001269000749    -0.098350403788    0.140387528531
            -0.040452018492    0.182305085894    -0.000282811719    0.001237472440    -0.076169494752    0.198559753258    -0.000137554209    0.001060231107
            0.000069002479    0.000803369588    -0.098687650147    0.139775154529    -0.000155613652    0.001026324486    -0.135332316693    0.145901564509
775000000.000     0.072591965892    0.165869011487    0.000456926955    0.000837236969    0.092326690354    0.135877283327    0.000422707858    0.000577097429
            0.000498582478    0.000853377903    0.044700198257    0.159519081013    0.000606715295    0.001130933836    0.049804104412    0.138549089211
