# Hz S RI R 45
0.000     0.076999808000    0.000000000000    0.000001465771    -0.000000000000    0.004812423800    -0.000000000000    0.000002462908    0.000000000000
            0.000001464495    0.000000000000    0.076290329000    -0.000000000000    0.000001106627    0.000000000000    0.005310525500    -0.000000000000
            0.005740290600    -0.000000000000    0.000001105689    0.000000000000    0.079159935000    -0.000000000000    0.000001979705    0.000000000000
            0.000002457755    -0.000000000000    0.006164616100    0.000000000000    0.000001981772    0.000000000000    0.077869203000    -0.000000000000
25000000.000     0.150918779147    -0.001252932489    0.000010540628    0.000000360252    0.087100642363    0.031526259605    0.000016203450    0.000001316779
            0.000010537758    0.000000376103    0.150620901531    -0.001595338039    0.000006545173    -0.000000540825    0.086793793988    0.030534148611
            0.087007714376    0.030674734860    0.000006541101    -0.000000550789    0.150523762073    -0.001845904117    0.000012177131    0.000000460635
            0.000016198066    0.000001307929    0.087512254065    0.030138448447    0.000012186420    0.000000453271    0.150696494165    -0.001133891975
50000000.000     0.084338743235    -0.096048156365    -0.000015657551    0.000010611536    0.045919129231    -0.055526229775    -0.000022865629    0.000017508161
            -0.000015615956    0.000010643136    0.083469698284    -0.096162893148    -0.000010753202    0.000006280160    0.044445498367    -0.055382045968
            0.044973884675    -0.055353926085    -0.000010792829    0.000006283718    0.083412649361    -0.096013108214    -0.000017708992    0.000012526530
            -0.000022897863    0.000017516340    0.044822247374    -0.056179887996    -0.000017720418    0.000012485226    0.083936109021    -0.096607298423
75000000.000     0.010086428392    0.028601285488    0.000032193006    0.000057825528    -0.009325379657    0.069702969507    0.000045772323    0.000088536098
            0.000032248599    0.000057746592    0.010684293283    0.028367381371    0.000023266643    0.000035947452    -0.008073959420    0.070544635728
            -0.008712211362    0.070683595629    0.000023283375    0.000035966572    0.010378148671    0.028986178527    0.000036519712    0.000066405010
            0.000045794738    0.000088548131    -0.008424495537    0.069758385799    0.000036444121    0.000066473699    0.010372589316    0.027811068072
100000000.000     0.176129872686    0.010095065048    0.000050117442    -0.000013198135    0.170671452732    0.050169183456    0.000077740572    -0.000013643879
            0.000050090866    -0.000013206134    0.175188732899    0.007548460952    0.000029042502    -0.000013607450    0.171141150552    0.047311342960
            0.171414012814    0.049674216987    0.000029020356    -0.000013624066    0.176073383220    0.009129324155    0.000058274234    -0.000014071245
            0.000077710360    -0.000013669378    0.170846877407    0.046574123695    0.000058326041    -0.000014032695    0.174250288878    0.007262777175
125000000.000     0.107401201099    -0.133947271448    -0.000021030911    0.000007753163    0.105458411908    -0.113844782305    -0.000029429328    0.000017175902
            -0.000020949187    0.000007750237    0.104477599392    -0.134391443752    -0.000016306007    0.000003358913    0.102234576436    -0.115642990178
            0.104770553595    -0.114596687849    -0.000016418657    0.000003393474    0.105835480033    -0.134130660022    -0.000023593421    0.000010116472
            -0.000029529919    0.000017225442    0.101415716827    -0.116259028896    -0.000023564637    0.000010068431    0.103456183125    -0.133591133376
150000000.000     0.002674064631    -0.019606985315    0.000064622951    0.000095091066    -0.010607868788    0.002217221896    0.000097065197    0.000144247148
            0.000064633277    0.000094929357    0.002429640395    -0.020377442891    0.000042887873    0.000059786297    -0.011569606504    0.002187611941
            -0.011380997876    0.003082620516    0.000043012893    0.000059989551    0.002642672292    -0.018272381644    0.000075267871    0.000108798162
            0.000097186641    0.000144422824    -0.012624364202    0.002369357112    0.000075146738    0.000108795645    0.003434612130    -0.019396867749
175000000.000     0.161592759866    0.000479067371    0.000099795218    -0.000046860382    0.158705975294    0.030592973797    0.000153892636    -0.000058533623
            0.000099646771    -0.000046874344    0.158279070631    -0.003128189201    0.000056734778    -0.000039423993    0.157042014642    0.027411338400
            0.159498909939    0.031289363196    0.000056816862    -0.000039556178    0.162300016535    -0.000416128612    0.000115708259    -0.000052283738
            0.000153970552    -0.000058666634    0.156548207738    0.028001098263    0.000115773815    -0.000052173009    0.158519630409    -0.004819252006
200000000.000     0.130519334398    -0.163894458767    -0.000016919902    -0.000017221364    0.139354409825    -0.144687389381    -0.000020579331    -0.000018494142
            -0.000016879005    -0.000017195995    0.124360134500    -0.164790658884    -0.000016905984    -0.000010665561    0.133961940519    -0.147607111373
            0.139845938310    -0.145358666927    -0.000016980952    -0.000010645937    0.128874029802    -0.164435717415    -0.000018617104    -0.000018437359
            -0.000020662638    -0.000018473019    0.133537068686    -0.147175141284    -0.000018587320    -0.000018464980    0.121982274970    -0.164247961001
225000000.000     -0.003641113791    -0.114576349249    0.000068897436    0.000093302741    0.003083102109    -0.110568143464    0.000113116938    0.000144809405
            0.000068767584    0.000093146204    -0.008423497184    -0.115117294442    0.000039632752    0.000056925436    -0.002985143990    -0.111950117718
            0.002289775435    -0.110838590691    0.000039744945    0.000057102699    -0.003736839403    -0.112587663309    0.000083806554    0.000107738613
            0.000113225352    0.000144984365    -0.003386255659    -0.110996338384    0.000083849285    0.000107737585    -0.006753360421    -0.111878738058
250000000.000     0.077814771770    -0.050440441383    0.000142443018    -0.000072680739    0.063095597411    -0.055772450888    0.000219141835    -0.000101330738
            0.000142251601    -0.000072506526    0.069135095198    -0.050703870731    0.000079452303    -0.000052682039    0.054187010231    -0.055312323420
            0.062955070547    -0.054779836354    0.000079651644    -0.000052906568    0.079934071551    -0.051185701664    0.000164777831    -0.000085208444
            0.000219340465    -0.000101552615    0.054749601753    -0.054208599954    0.000164777042    -0.000085240532    0.072754512950    -0.053025529268
275000000.000     0.077038511069    -0.159469026468    -0.000019675362    -0.000047655862    0.043386020637    -0.137849917401    -0.000020927088    -0.000066861711
            -0.000019576052    -0.000047518741    0.068985439136    -0.156374160417    -0.000022063362    -0.000023011907    0.036409686691    -0.134413136733
            0.044485523087    -0.137581591875    -0.000022160456    -0.000023083648    0.076020535707    -0.160975802835    -0.000021689749    -0.000053887724
            -0.000021024687    -0.000066926414    0.037385651566    -0.134084393374    -0.000021753885    -0.000053899977    0.066900025730    -0.158511216766
300000000.000     -0.023514873411    -0.149532990767    0.000085811229    0.000071950698    -0.025732394861    -0.108871731835    0.000138416929    0.000111769508
            0.000085745883    0.000071862077    -0.032903731391    -0.148039432465    0.000052084052    0.000045068929    -0.033714345382    -0.108296957479
            -0.025278076522    -0.109930806162    0.000052121126    0.000045000171    -0.023548997157    -0.148066599814    0.000104420209    0.000082847545
            0.000138435387    0.000111674113    -0.033004461677    -0.108365230257    0.000104513691    0.000083015704    -0.032266971602    -0.145053692474
325000000.000     -0.010445613671    -0.114739499070    0.000146859314    -0.000109243666    -0.006965239772    -0.108756365829    0.000230286369    -0.000159714132
            0.000146770838    -0.000108947822    -0.025183482159    -0.106852116303    0.000076013671    -0.000071924779    -0.021829326567    -0.102231618809
            -0.007785936902    -0.109087448751    0.000075943829    -0.000072052797    -0.008328735944    -0.115974780267    0.000170555158    -0.000130449912
            0.000230199795    -0.000159791841    -0.021103570664    -0.102412772918    0.000170708071    -0.000130678649    -0.020796811634    -0.109091872277
350000000.000     -0.045000495936    -0.145096324320    -0.000033348354    -0.000071796903    -0.081659990989    -0.124819736583    -0.000039279202    -0.000109992518
            -0.000033058207    -0.000071675396    -0.052431756278    -0.132113263742    -0.000031502855    -0.000027252732    -0.089279441756    -0.110527191404
            -0.081699244583    -0.123932399030    -0.000031609716    -0.000027223209    -0.046184429488    -0.147304505991    -0.000037980406    -0.000082433280
            -0.000039344866    -0.000109954454    -0.088533340703    -0.111141512960    -0.000038222317    -0.000082544103    -0.054084468818    -0.136418026746
375000000.000     -0.091530240861    -0.080635669594    0.000107818159    0.000060079965    -0.101473264489    -0.013758228556    0.000164307393    0.000085462631
            0.000107931235    0.000059917478    -0.098925587423    -0.073276300072    0.000074300765    0.000044488619    -0.104751001517    -0.005781704091
            -0.100300207070    -0.014020235551    0.000074365213    0.000044326332    -0.091221414055    -0.079816024184    0.000130019974    0.000066489557
            0.000164369636    0.000085248287    -0.104431481086    -0.006837661966    0.000129912601    0.000066792982    -0.099235023850    -0.072017495514
400000000.000     -0.033887776286    -0.071798864784    0.000165638689    -0.000187919715    -0.006225679615    -0.028011605125    0.000251861717    -0.000272071074
            0.000165614332    -0.000187769248    -0.047332702890    -0.056412657775    0.000090756904    -0.000124922580    -0.016523484394    -0.016902844535
            -0.006548191950    -0.029538302575    0.000090259882    -0.000124979164    -0.031757418873    -0.075091148771    0.000188662136    -0.000222670224
            0.000251314699    -0.000272066686    -0.016910151255    -0.017994481244    0.000189101823    -0.000222757798    -0.043749955257    -0.060085883372
425000000.000     -0.108683173682    -0.124728743837    -0.000078962275    -0.000113348129    -0.094105916352    -0.092348959063    -0.000106571042    -0.000176839176
            -0.000078600256    -0.000113452844    -0.112432354636    -0.104431282110    -0.000058938980    -0.000044670244    -0.098462616620    -0.074687611402
            -0.095574927879    -0.092153414928    -0.000058995555    -0.000044248970    -0.112183746630    -0.127286036971    -0.000091235396    -0.000129355172
            -0.000106556412    -0.000176388516    -0.099354918916    -0.075252703556    -0.000091513787    -0.000129686050    -0.116018831829    -0.108619142397
450000000.000     -0.176470837476    0.000952867978    0.000090436670    0.000046533603    -0.145851460687    0.040362535076    0.000134532600    0.000061461480
            0.000090439716    0.000046223971    -0.177955674867    0.017103679259    0.000069453822    0.000039072718    -0.145100584956    0.055581016845
            -0.145706889070    0.041509300947    0.000069681983    0.000039181456    -0.176544106544    0.003804732144    0.000111800643    0.000049847251
            0.000134800046    0.000061507038    -0.145891887259    0.055534367749    0.000111543508    0.000050077481    -0.178327802041    0.019665646543
475000000.000     -0.034470451661    0.062695583017    0.000203842411    -0.000241527918    -0.000351093384    0.080052371092    0.000291911202    -0.000353387533
            0.000203731723    -0.000241628381    -0.037460021110    0.081968506010    0.000128289282    -0.000158620526    -0.000531897548    0.094621620031
            0.000520027826    0.079566145621    0.000128073917    -0.000158824208    -0.030667220174    0.058830359410    0.000227372193    -0.000290086713
            0.000291649197    -0.000353604391    -0.001259560858    0.094575092891    0.000227638819    -0.000289808308    -0.033232069692    0.077265320204
500000000.000     -0.038687816394    -0.077561377182    -0.000167531135    -0.000219729352    -0.011098232799    -0.046140114666    -0.000234155074    -0.000326282040
            -0.000167435478    -0.000219898424    -0.035518104163    -0.060377171938    -0.000117850574    -0.000114770476    -0.008011489430    -0.034166252225
            -0.012074552586    -0.046991728641    -0.000117922348    -0.000114075886    -0.044521164970    -0.081957392600    -0.000195087236    -0.000245150490
            -0.000234225081    -0.000325596762    -0.009112241188    -0.033811327741    -0.000195031328    -0.000245533309    -0.042000925020    -0.065472192964
525000000.000     -0.170112005994    0.007144974139    0.000022930095    0.000028413272    -0.100961221381    0.022585527848    0.000025935931    0.000037828058
            0.000022594136    0.000028100992    -0.171578684650    0.026174662010    0.000035822546    0.000024494848    -0.103026254588    0.036479321337
            -0.102011200121    0.023618869223    0.000036335592    0.000024579500    -0.171938940035    0.012482228852    0.000035629514    0.000029118680
            0.000026462259    0.000037922869    -0.103630757554    0.037768395025    0.000035447744    0.000029277047    -0.172542628605    0.031608855193
550000000.000     -0.049257794034    0.129424853871    0.000155920537    -0.000261587150    -0.009656584737    0.086018250126    0.000223256434    -0.000383037434
            0.000155567013    -0.000261372609    -0.042327101883    0.153447249885    0.000097055439    -0.000172041207    -0.005845465188    0.105485270953
            -0.008982922081    0.087233459543    0.000097399800    -0.000172166212    -0.043283223331    0.127601252465    0.000172845041    -0.000317521654
            0.000223581039    -0.000383213043    -0.005389240681    0.106649050976    0.000172903821    -0.000317561999    -0.035523516641    0.149315670236
575000000.000     0.033134819832    -0.003933756258    -0.000250736721    -0.000302018452    0.023348074295    -0.012276157044    -0.000360734908    -0.000440071336
            -0.000250797522    -0.000302010704    0.045276310610    0.007675753535    -0.000169672408    -0.000171344659    0.033470186743    -0.002625067834
            0.024452434502    -0.012834233114    -0.000169618751    -0.000171520000    0.029321925501    -0.009958198379    -0.000296409222    -0.000334935198
            -0.000360733048    -0.000440234065    0.033942319743    -0.001974572997    -0.000296379329    -0.000334759533    0.039388280085    0.000455259653
600000000.000     -0.085844407362    -0.014914170413    -0.000091742355    0.000038782946    -0.049314161529    0.005011889036    -0.000149207918    0.000052096330
            -0.000092120754    0.000038754274    -0.089933612938    -0.000300806482    -0.000029395792    0.000030601635    -0.053135116425    0.015049576028
            -0.049750088416    0.004390876584    -0.000029152754    0.000030437929    -0.088219955863    -0.010692520063    -0.000092612923    0.000039086110
            -0.000149006420    0.000051957945    -0.052650004505    0.015598310663    -0.000092381249    0.000039199567    -0.091574904785    0.004729075152
625000000.000     -0.043737245612    0.064073828056    0.000031096106    -0.000280252928    -0.008694500362    0.025557895827    0.000046361942    -0.000395925938
            0.000030877847    -0.000279545257    -0.036092561819    0.093518904748    0.000007684566    -0.000195498638    -0.006412067420    0.049802990027
            -0.009235884353    0.026429014770    0.000007719546    -0.000195721564    -0.038834261807    0.062201957862    0.000026257518    -0.000337629342
            0.000046405090    -0.000396067550    -0.005318194197    0.050198924954    0.000026391494    -0.000338174373    -0.029959525784    0.088356497553
650000000.000     -0.019741244477    0.001597321283    -0.000390314818    -0.000201537687    -0.040523328642    -0.019349962942    -0.000560409482    -0.000312582070
            -0.000389667298    -0.000201357993    -0.002590273230    0.015584115828    -0.000261209330    -0.000086657138    -0.027727062395    -0.003740735157
            -0.039245521934    -0.018429956282    -0.000261091952    -0.000087109194    -0.022855435938    -0.002541067115    -0.000453116178    -0.000221342266
            -0.000560175636    -0.000313029241    -0.026528209681    -0.004231030126    -0.000453902056    -0.000221118793    -0.009072771981    0.009146408094
675000000.000     -0.067408359398    0.034612039242    -0.000130412300    0.000119600803    -0.067949365950    0.050267975825    -0.000226821295    0.000170092172
            -0.000130531285    0.000119440464    -0.064897313149    0.050377860647    -0.000035544980    0.000081077359    -0.063687837858    0.065175041571
            -0.066665256859    0.049050780970    -0.000035901845    0.000080525788    -0.066385732836    0.036792078487    -0.000140450336    0.000126986209
            -0.000227227565    0.000169446595    -0.063094297321    0.064171497449    -0.000139994173    0.000127651525    -0.064568458793    0.053622788397
700000000.000     -0.002010799517    0.029630912389    -0.000063397349    -0.000265317521    0.006476264026    0.032279000391    -0.000093721559    -0.000359208838
            -0.000063193684    -0.000264691827    0.009721961974    0.056768216365    -0.000057013776    -0.000198644061    0.016389363431    0.054906685282
            0.005505734179    0.031072902513    -0.000058036270    -0.000198498531    0.001103942688    0.022368332166    -0.000090875325    -0.000318099283
            -0.000094738719    -0.000358968894    0.016399874546    0.053856728471    -0.000090265170    -0.000318851640    0.013120889766    0.046624001144
725000000.000     -0.092106467574    -0.048402920893    -0.000505443828    -0.000008892709    -0.081855006631    0.000181566076    -0.000737209879    -0.000049306617
            -0.000504964815    -0.000008819042    -0.077107626835    -0.029907860641    -0.000325343141    0.000057997376    -0.067788601327    0.015260349260
            -0.084035634748    -0.001354496021    -0.000325436141    0.000059233425    -0.100739767434    -0.050501620295    -0.000582583217    0.000001133835
            -0.000737357918    -0.000048001362    -0.068090656386    0.014754278631    -0.000582793849    0.000000033668    -0.089958272942    -0.033228873258
750000000.000     -0.154915755087    0.111414515312    -0.000086599328    0.000258540504    -0.116928566216    0.116651266425    -0.000189766076    0.000389731690
            -0.000086935504    0.000258145358    -0.137132200721    0.138652464722    0.000013976161    0.000158359306    -0.098350403788    0.140387528531
            -0.115733577062    0.116674804079    0.000013835431    0.000158003152    -0.152181906965    0.117250353824    -0.000098161476    0.000286672249
            -0.000189918307    0.000389250731    -0.098687650147    0.139775154529    -0.000097795928    0.000287432658    -0.135332316693    0.145901564509
775000000.000     0.015203901920    0.140479084246    -0.000012399792    -0.000160447650    0.022936290085    0.123698312402    -0.000027260706    -0.000201775046
