# Hz S RI R 45
0.000     0.081926773000    -0.000000000000    -0.000002550960    -0.000000000000    0.003456254300    -0.000000000000    -0.000001493256    -0.000000000000
            -0.000002545136    -0.000000000000    0.076290329000    -0.000000000000    0.000000335873    0.000000000000    0.005310525500    -0.000000000000
            0.004209890400    0.000000000000    0.000000352492    0.000000000000    0.078373043000    -0.000000000000    -0.000000340050    0.000000000000
            -0.000001512558    0.000000000000    0.006164616100    0.000000000000    -0.000000339674    -0.000000000000    0.077869203000    -0.000000000000
25000000.000     0.147309302875    0.006730728498    0.000001074004    0.000003521044    0.081905413093    0.042216967374    -0.000005497593    -0.000000237279
            0.000001081365    0.000003524682    0.150620901531    -0.001595338039    0.000010796409    0.000004869396    0.086793793988    0.030534148611
            0.082506906748    0.041736580871    0.000010802830    0.000004867713    0.147889106131    0.007532698036    -0.000001306659    0.000000154947
            -0.000005489840    -0.000000242556    0.087512254065    0.030138448447    -0.000001301183    0.000000161625    0.150696494165    -0.001133891975
50000000.000     0.102232428367    -0.076176642717    0.000001986139    -0.000001824784    0.071516214056    -0.024840714048    -0.000008610708    0.000007707284
            0.000001997210    -0.000001830292    0.083469698284    -0.096162893148    0.000016169935    -0.000015630310    0.044445498367    -0.055382045968
            0.071561381104    -0.025726578529    0.000016159245    -0.000015642091    0.102367255945    -0.077447598254    -0.000002183609    0.000001620922
            -0.000008614529    0.000007694790    0.044822247374    -0.056179887996    -0.000002165139    0.000001610950    0.083936109021    -0.096607298423
75000000.000     0.068648669581    0.004268243507    0.000004477914    -0.000002933769    0.063731246498    0.047804979382    0.000009866640    0.000016522967
            0.000004477106    -0.000002958457    0.010684293283    0.028367381371    -0.000007126055    -0.000031500398    -0.008073959420    0.070544635728
            0.063216842173    0.047103575930    -0.000007134997    -0.000031479873    0.067619278280    0.003816638612    0.000002858714    0.000003911711
            0.000009856331    0.000016533137    -0.008424495537    0.069758385799    0.000002851739    0.000003886314    0.010372589316    0.027811068072
100000000.000     0.177977492214    -0.015759797999    -0.000012396143    -0.000005924589    0.181182699955    -0.001501322025    0.000015440800    -0.000001426516
            -0.000012421977    -0.000005937849    0.175188732899    0.007548460952    -0.000047400869    -0.000008876406    0.171141150552    0.047311342960
            0.180404331836    -0.001598096668    -0.000047381740    -0.000008872225    0.177957960489    -0.015105080835    0.000002344028    -0.000000306982
            0.000015440220    -0.000001407553    0.170846877407    0.046574123695    0.000002306712    -0.000000315754    0.174250288878    0.007262777175
125000000.000     0.113834703211    -0.130607694149    0.000000833375    0.000013407267    0.098764744068    -0.125407248947    0.000017999804    -0.000015580512
            0.000000799288    0.000013433972    0.104477599392    -0.134391443752    -0.000028026519    0.000049066368    0.102234576436    -0.115642990178
            0.098020082716    -0.124951432677    -0.000028014320    0.000049039486    0.113525310485    -0.130731402929    0.000005581337    -0.000002112026
            0.000018038765    -0.000015585326    0.101415716827    -0.116259028896    0.000005556223    -0.000002055762    0.103456183125    -0.133591133376
150000000.000     0.046892104500    -0.048645738381    0.000000454748    0.000002022536    0.030519280273    -0.029074038628    -0.000019524093    -0.000031018704
            0.000000478840    0.000002082233    0.002429640395    -0.020377442891    0.000030365198    0.000053949037    -0.011569606504    0.002187611941
            0.030379704115    -0.028127666921    0.000030314878    0.000053952403    0.046686671325    -0.047769438604    -0.000004375867    -0.000008474745
            -0.000019557393    -0.000031054738    -0.012624364202    0.002369357112    -0.000004316378    -0.000008456706    0.003434612130    -0.019396867749
175000000.000     0.149297148970    -0.084971902499    0.000020259739    -0.000001402993    0.144444802434    -0.077530954172    -0.000026981146    0.000005239199
            0.000020331190    -0.000001415703    0.158279070631    -0.003128189201    0.000080601765    -0.000008008434    0.157042014642    0.027411338400
            0.145011675912    -0.076878050448    0.000080636443    -0.000007972468    0.150189521834    -0.084911749384    -0.000005174515    -0.000000992464
            -0.000026990211    0.000005265801    0.156548207738    0.028001098263    -0.000005155461    -0.000001012792    0.158519630409    -0.004819252006
200000000.000     0.051860104351    -0.198786668597    -0.000013871252    -0.000021938462    0.020382205378    -0.199882270001    -0.000024417481    0.000026456616
            -0.000013850463    -0.000022019143    0.124360134500    -0.164790658884    0.000018938945    -0.000082156214    0.133961940519    -0.147607111373
            0.021044415482    -0.199699245452    0.000018951887    -0.000082188576    0.051789543349    -0.199103425686    -0.000010107306    0.000005597420
            -0.000024422797    0.000026476707    0.133537068686    -0.147175141284    -0.000010094805    0.000005557763    0.121982274970    -0.164247961001
225000000.000     -0.051928739113    -0.082517960465    -0.000006682764    0.000011311681    -0.093806402249    -0.045061291696    0.000028508833    0.000046501273
            -0.000006782110    0.000011260385    -0.008423497184    -0.115117294442    -0.000057456835    -0.000058384075    -0.002985143990    -0.111950117718
            -0.092991527095    -0.045253020459    -0.000057483786    -0.000058402917    -0.050927743256    -0.081998298169    0.000007515201    0.000015041806
            0.000028574346    0.000046500435    -0.003386255659    -0.110996338384    0.000007478824    0.000015019807    -0.006753360421    -0.111878738058
250000000.000     0.071084876570    -0.056200000840    -0.000012453872    0.000007011418    0.061935035578    -0.006901764015    0.000048637319    -0.000011808617
            -0.000012507297    0.000007106257    0.069135095198    -0.050703870731    -0.000102056397    0.000028667310    0.054187010231    -0.055312323420
            0.062459404902    -0.007850805741    -0.000102083784    0.000028732757    0.072481453775    -0.058227346753    0.000011785308    -0.000001285531
            0.000048582975    -0.000011871558    0.054749601753    -0.054208599954    0.000011739302    -0.000001298348    0.072754512950    -0.053025529268
275000000.000     -0.001188791690    -0.171817777478    0.000024139132    0.000014678944    -0.002149459087    -0.134765599570    0.000024441802    -0.000052900163
            0.000024193608    0.000014736211    0.068985439136    -0.156374160417    -0.000003774603    0.000110275229    0.036409686691    -0.134413136733
            -0.002665111603    -0.135761203280    -0.000003681339    0.000110254628    -0.002958972472    -0.173012008641    0.000011206795    -0.000013855379
            0.000024418281    -0.000052842457    0.037385651566    -0.134084393374    0.000011147394    -0.000013763312    0.066900025730    -0.158511216766
300000000.000     -0.105500995542    -0.047098969103    0.000000856545    -0.000020097559    -0.100355598580    -0.005447677937    -0.000052882849    -0.000052123800
            0.000000920483    -0.000020108467    -0.032903731391    -0.148039432465    0.000086581920    0.000058059377    -0.033714345382    -0.108296957479
            -0.101274542722    -0.005607941679    0.000086523487    0.000057988614    -0.104865926460    -0.045361438730    -0.000015319789    -0.000016729287
            -0.000052856318    -0.000052105034    -0.033004461677    -0.108365230257    -0.000015196991    -0.000016644392    -0.032266971602    -0.145053692474
325000000.000     0.057438145556    0.016679255730    0.000003864218    -0.000007651143    0.075186569395    0.049670027139    -0.000066528827    0.000027592056
            0.000003891523    -0.000007709523    -0.025183482159    -0.106852116303    0.000118485630    -0.000057673412    -0.021829326567    -0.102231618809
            0.074718954363    0.049876002832    0.000118449534    -0.000057640544    0.059868253688    0.014129707283    -0.000016375782    0.000005529638
            -0.000066472649    0.000027564787    -0.021103570664    -0.102412772918    -0.000016275254    0.000005427869    -0.020796811634    -0.109091872277
350000000.000     0.039498535444    -0.148175124006    -0.000029311858    -0.000002770941    0.058192762990    -0.125033350067    -0.000013292365    0.000084518264
            -0.000029334696    -0.000002818079    -0.052431756278    -0.132113263742    -0.000022012969    -0.000138545410    -0.089279441756    -0.110527191404
            0.057551696960    -0.124563104366    -0.000021988306    -0.000138463444    0.036728434794    -0.150007769954    -0.000009317640    0.000022256169
            -0.000013352468    0.000084453163    -0.088533340703    -0.111141512960    -0.000009376953    0.000022108341    -0.054084468818    -0.136418026746
375000000.000     -0.094599578749    -0.083575002990    0.000010777184    0.000023711339    -0.068294060920    -0.072083670507    0.000089939640    0.000043597917
            0.000010712992    0.000023673882    -0.098925587423    -0.073276300072    -0.000123297879    -0.000043405307    -0.104751001517    -0.005781704091
            -0.068429733337    -0.070871533393    -0.000123195251    -0.000043491958    -0.093616256911    -0.080183132008    0.000024598590    0.000016204624
            0.000089882970    0.000043671170    -0.104431481086    -0.006837661966    0.000024399601    0.000016244351    -0.099235023850    -0.072017495514
400000000.000     0.015292442978    -0.003462306035    0.000002005738    0.000003872646    0.016950777748    -0.012883768225    0.000067921534    -0.000059837342
            0.000001898864    0.000003967947    -0.047332702890    -0.056412657775    -0.000115644561    0.000099616893    -0.016523484394    -0.016902844535
            0.018095668064    -0.012126267585    -0.000115777823    0.000099601726    0.020717088344    -0.007059515556    0.000020026361    -0.000012991720
            0.000068004412    -0.000059767322    -0.016910151255    -0.017994481244    0.000020071360    -0.000012811231    -0.043749955257    -0.060085883372
425000000.000     0.020949166673    -0.160033621257    0.000032056987    -0.000014347394    -0.002377379360    -0.132378584112    -0.000013132092    -0.000105052452
            0.000032163126    -0.000014213549    -0.112432354636    -0.104431282110    0.000060321135    0.000145535551    -0.098462616620    -0.074687611402
            -0.001398719472    -0.132842926560    0.000060373938    0.000145596030    0.017738886235    -0.164990495347    0.000002242238    -0.000031963050
            -0.000013069336    -0.000105168233    -0.099354918916    -0.075252703556    0.000002346556    -0.000031954620    -0.116018831829    -0.108619142397
450000000.000     -0.153868375593    -0.127853627340    -0.000037319305    -0.000025219563    -0.132026751397    -0.084814899175    -0.000124008124    -0.000020372275
            -0.000037164148    -0.000025279606    -0.177955674867    0.017103679259    0.000139859207    0.000016007231    -0.145100584956    0.055581016845
            -0.131716595682    -0.085294336448    0.000139863738    0.000015992520    -0.154356033194    -0.125159064316    -0.000036427381    -0.000009918308
            -0.000124118384    -0.000020409945    -0.145891887259    0.055534367749    -0.000036341483    -0.000009977419    -0.178327802041    0.019665646543
475000000.000     -0.110219373573    0.013069237976    0.000000246394    0.000025234739    -0.093880352574    0.015863909410    -0.000051065103    0.000100119715
            0.000000244664    0.000025036429    -0.037460021110    0.081968506010    0.000103217529    -0.000120504218    -0.000531897548    0.094621620031
            -0.093482744055    0.015177940334    0.000103218729    -0.000120562119    -0.104706380975    0.008615312503    -0.000017070430    0.000027330604
            -0.000051127566    0.000100190332    -0.001259560858    0.094575092891    -0.000017103118    0.000027204706    -0.033232069692    0.077265320204
500000000.000     -0.049813550052    -0.063867021439    -0.000012512571    0.000012713407    -0.062494753246    -0.022290971838    0.000048478222    0.000100744250
            -0.000012741097    0.000012696687    -0.035518104163    -0.060377171938    -0.000084195929    -0.000152828360    -0.008011489430    -0.034166252225
            -0.062915853523    -0.023484744999    -0.000084287831    -0.000152725383    -0.054876919949    -0.071283167667    0.000010982155    0.000031225255
            0.000048571166    0.000100886571    -0.009112241188    -0.033811327741    0.000010872603    0.000031222757    -0.042000925020    -0.065472192964
525000000.000     -0.173933834845    -0.040360100221    0.000047853972    0.000004560090    -0.116747664659    0.019769130911    0.000137942704    -0.000013710178
            0.000047823422    0.000004746667    -0.171578684650    0.026174662010    -0.000160968324    -0.000000244701    -0.103026254588    0.036479321337
            -0.118056621914    0.019535001923    -0.000160799342    -0.000000245763    -0.177076694291    -0.036993861638    0.000039202028    -0.000003261525
            0.000138073612    -0.000013891500    -0.103630757554    0.037768395025    0.000039138233    -0.000003192254    -0.172542628605    0.031608855193
550000000.000     -0.126392746110    0.102265277153    -0.000024131217    -0.000041607727    -0.059784927838    0.083710599007    0.000023572314    -0.000125305621
            -0.000024015002    -0.000041540668    -0.042327101883    0.153447249885    -0.000100089707    0.000152323288    -0.005845465188    0.105485270953
            -0.060550362096    0.084474077233    -0.000100158019    0.000152184807    -0.121387282094    0.099567363569    0.000007706252    -0.000031973734
            0.000023384852    -0.000125367800    -0.005389240681    0.106649050976    0.000007726284    -0.000031848095    -0.035523516641    0.149315670236
575000000.000     -0.024720313825    0.051785596990    -0.000005308573    0.000014522203    -0.021346679845    0.040025574748    -0.000079325756    -0.000082133352
            -0.000005189552    0.000014475394    0.045276310610    0.007675753535    0.000118182809    0.000168300355    0.033470186743    -0.002625067834
            -0.021451688063    0.040733676262    0.000118086395    0.000168356694    -0.029635526410    0.045185400372    -0.000018455780    -0.000024969515
            -0.000079395035    -0.000082027408    0.033942319743    -0.001974572997    -0.000018294143    -0.000024964232    0.039388280085    0.000455259653
600000000.000     -0.079012766608    0.025838861858    -0.000021406450    0.000008284031    -0.041823645827    0.044160799203    -0.000133835625    0.000042928798
            -0.000021405794    0.000008161152    -0.089933612938    -0.000300806482    0.000198309630    -0.000033900357    -0.053135116425    0.015049576028
            -0.041779686456    0.044936620734    0.000198335011    -0.000033768290    -0.081560964776    0.029778411615    -0.000036193505    0.000009777435
            -0.000133766926    0.000043045075    -0.052650004505    0.015598310663    -0.000036170926    0.000009629788    -0.091574904785    0.004729075152
625000000.000     -0.038625922272    0.079059790754    0.000026439994    0.000015510694    0.002745187197    0.043030861241    -0.000005709775    0.000134691001
            0.000026349981    0.000015458109    -0.036092561819    0.093518904748    0.000068768697    -0.000209267643    -0.006412067420    0.049802990027
            0.003527647884    0.043815152302    0.000068933412    -0.000209346439    -0.033347685746    0.075103445658    -0.000006265066    0.000032005272
            -0.000005549863    0.000134559618    -0.005318194197    0.050198924954    -0.000006339412    0.000031920277    -0.029959525784    0.088356497553
650000000.000     -0.011876992689    0.011884295780    0.000000412342    -0.000003794508    -0.029257460696    -0.012490187469    0.000113658113    0.000079605055
            0.000000292221    -0.000003751510    -0.002590273230    0.015584115828    -0.000173852659    -0.000144621351    -0.027727062395    -0.003740735157
            -0.028025591134    -0.012652820689    -0.000173993322    -0.000144737644    -0.017461827200    0.005108762932    0.000028272651    0.000028694443
            0.000113479432    0.000079500838    -0.026528209681    -0.004231030126    0.000028097170    0.000028714801    -0.009072771981    0.009146408094
675000000.000     -0.073760459159    0.026186438233    0.000015912827    -0.000022244011    -0.073304587640    0.045806306072    0.000129511794    -0.000089664985
            0.000015920887    -0.000022075609    -0.064897313149    0.050377860647    -0.000204414018    0.000079299080    -0.063687837858    0.065175041571
            -0.072714502490    0.044832200122    -0.000204456374    0.000079443876    -0.075234931427    0.028702031710    0.000036017967    -0.000023631852
            0.000129459699    -0.000089519464    -0.063094297321    0.064171497449    0.000036016662    -0.000023418645    -0.064568458793    0.053622788397
700000000.000     -0.038393616174    0.047117604129    -0.000021778863    -0.000000048518    -0.017869646730    0.052218452689    -0.000025912945    -0.000139953737
            -0.000021599412    -0.000000016037    0.009721961974    0.056768216365    -0.000020153134    0.000241159269    0.016389363431    0.054906685282
            -0.018070467794    0.051273596865    -0.000020014107    0.000241141446    -0.035475113479    0.039417446482    -0.000000886392    -0.000035558935
            -0.000025783941    -0.000139913429    0.016399874546    0.053856728471    -0.000000702235    -0.000035500827    0.013120889766    0.046624001144
725000000.000     -0.096876352873    0.010178183175    -0.000021560479    -0.000019387054    -0.082540843143    0.025424232149    -0.000156396293    -0.000057748689
            -0.000021480348    -0.000019566100    -0.077107626835    -0.029907860641    0.000199016691    0.000104186475    -0.067788601327    0.015260349260
            -0.083124234514    0.024902493493    0.000198938413    0.000104103218    -0.107585013093    0.005359983965    -0.000047126230    -0.000018619197
            -0.000156403064    -0.000057799274    -0.068090656386    0.014754278631    -0.000046961156    -0.000018763112    -0.089958272942    -0.033228873258
750000000.000     -0.129618677382    0.135712582748    -0.000013955645    0.000073584362    -0.089609668199    0.141608519251    -0.000102048003    0.000147479402
            -0.000014091906    0.000073464347    -0.137132200721    0.138652464722    0.000203082871    -0.000098734226    -0.098350403788    0.140387528531
            -0.090325666739    0.141382660933    0.000203038384    -0.000098671941    -0.130267060934    0.141711516038    -0.000018099207    0.000041439118
            -0.000102078971    0.000147434775    -0.098687650147    0.139775154529    -0.000018257123    0.000041193367    -0.135332316693    0.145901564509
775000000.000     0.007019156507    0.157813870077    0.000069417592    -0.000022652271    0.038251140430    0.138549120585    0.000078200357    0.000121444111
