# Hz S RI R 45
0.000     0.077358643000    0.000000000000    -0.000002096105    -0.000000000000    0.005305749900    -0.000000000000    -0.000026279476    0.000000000000
            -0.000002367461    0.000000000000    0.076290329000    -0.000000000000    -0.000019295355    0.000000000000    0.005310525500    -0.000000000000
            0.006382065300    0.000000000000    0.000031103979    -0.000000000000    0.078594991000    -0.000000000000    -0.000031676682    0.000000000000
            0.000030348950    -0.000000000000    0.006164616100    0.000000000000    -0.000029386734    0.000000000000    0.077869203000    -0.000000000000
25000000.000     0.151482113024    -0.002681793781    -0.000029758821    -0.000007392201    0.087384041469    0.030215035866    -0.000029417139    0.000014253125
            -0.000030372170    -0.000006179183    0.150620901531    -0.001595338039    -0.000017680431    0.000013363070    0.086793793988    0.030534148611
            0.088273631207    0.029718744692    -0.000007497148    -0.000029258180    0.151158709713    -0.002238249516    -0.000016578719    0.000022789277
            -0.000014985258    -0.000031053650    0.087512254065    0.030138448447    -0.000014933587    0.000021341441    0.150696494165    -0.001133891975
50000000.000     0.081289881300    -0.095522522461    -0.000013112744    0.000016652827    0.042677151435    -0.054930718792    0.000008157045    0.000009846866
            -0.000010085646    0.000018040770    0.083469698284    -0.096162893148    0.000010657178    0.000007856835    0.044445498367    -0.055382045968
            0.043142758517    -0.055903817600    -0.000019226324    0.000003246543    0.081590480014    -0.095923711725    0.000018862969    -0.000002046166
            -0.000017610248    0.000000942415    0.044822247374    -0.056179887996    0.000019119545    -0.000004101499    0.083936109021    -0.096607298423
75000000.000     0.013907319710    0.032342202371    -0.000014522771    -0.000015953133    -0.005201775981    0.074085750605    -0.000031275605    -0.000038246556
            -0.000013023045    -0.000020066855    0.010684293283    0.028367381371    -0.000020306994    -0.000026177817    -0.008073959420    0.070544635728
            -0.005615736368    0.073114797892    -0.000003038913    -0.000001956338    0.013407298078    0.031419883128    -0.000035262164    -0.000041147569
            -0.000013839937    -0.000020670589    -0.008424495537    0.069758385799    -0.000036357065    -0.000042366440    0.010372589316    0.027811068072
100000000.000     0.177568999699    0.003265854061    -0.000028943774    0.000016849216    0.173884103452    0.043195890564    -0.000049418977    0.000036079233
            -0.000032765291    0.000015991816    0.175188732899    0.007548460952    -0.000033997979    0.000030488226    0.171141150552    0.047311342960
            0.173491956782    0.042280949493    -0.000000143136    -0.000004019974    0.176119837501    0.003124453480    -0.000043230056    0.000039860699
            -0.000020061730    -0.000001253864    0.170846877407    0.046574123695    -0.000043513273    0.000039583607    0.174250288878    0.007262777175
125000000.000     0.098694101092    -0.133966041305    0.000019066997    0.000004752228    0.096884194146    -0.116325005786    0.000041000649    0.000018525065
            0.000019654242    0.000008213852    0.104477599392    -0.134391443752    0.000035498207    0.000021139880    0.102234576436    -0.115642990178
            0.095876051617    -0.117028975707    0.000000687145    -0.000024754396    0.097897537075    -0.133176934962    0.000047011620    0.000014776542
            0.000005163485    -0.000028891466    0.101415716827    -0.116259028896    0.000046606978    0.000013130169    0.103456183125    -0.133591133376
150000000.000     0.007060737238    -0.013618077995    -0.000037404711    -0.000053342941    -0.007747321410    0.008245221865    -0.000032111480    -0.000085667974
            -0.000033910622    -0.000056412819    0.002429640395    -0.020377442891    -0.000013736705    -0.000064226665    -0.011569606504    0.002187611941
            -0.008978134293    0.008459556966    -0.000055712484    -0.000034760952    0.007565270962    -0.013629478210    -0.000027823304    -0.000086428244
            -0.000079489412    -0.000062235120    -0.012624364202    0.002369357112    -0.000031105707    -0.000087529159    0.003434612130    -0.019396867749
175000000.000     0.161501878602    -0.010522388060    -0.000050356471    0.000042073076    0.160575094890    0.019956306216    -0.000079404401    0.000041709318
            -0.000053426875    0.000038872387    0.158279070631    -0.003128189201    -0.000062382692    0.000029764467    0.157042014642    0.027411338400
            0.159941900309    0.020641132135    -0.000035562345    0.000049333757    0.160467299937    -0.011903143440    -0.000081289634    0.000033658870
            -0.000066925526    0.000063979115    0.156548207738    0.028001098263    -0.000083619485    0.000036419402    0.158519630409    -0.004819252006
200000000.000     0.115374577263    -0.165805240485    0.000036562222    0.000000769421    0.125159278790    -0.150559081893    0.000036431361    0.000021247775
            0.000033671062    0.000003001968    0.124360134500    -0.164790658884    0.000025692529    0.000030156076    0.133961940519    -0.147607111373
            0.124640482638    -0.149957962858    0.000029791652    -0.000004254406    0.113264173095    -0.164898531430    0.000028380516    0.000028535926
            0.000038680652    -0.000002546083    0.133537068686    -0.147175141284    0.000029215406    0.000031304858    0.121982274970    -0.164247961001
225000000.000     -0.007839611200    -0.107271674884    -0.000053180728    -0.000088664172    -0.004497842163    -0.105720543726    -0.000040533576    -0.000098551594
            -0.000051434073    -0.000087617671    -0.008423497184    -0.115117294442    -0.000008645980    -0.000063319497    -0.002985143990    -0.111950117718
            -0.004850766781    -0.104569812185    -0.000058680726    -0.000067162247    -0.006785224122    -0.105537076013    -0.000022158829    -0.000082608593
            -0.000085049340    -0.000099453029    -0.003386255659    -0.110996338384    -0.000020802125    -0.000082415483    -0.006753360421    -0.111878738058
250000000.000     0.070361466994    -0.055807338330    -0.000108562844    0.000059692133    0.053337621933    -0.059448679577    -0.000125310328    0.000043944715
            -0.000109323834    0.000057947963    0.069135095198    -0.050703870731    -0.000086044329    0.000022089131    0.054187010231    -0.055312323420
            0.054020637214    -0.058256676096    -0.000097338865    0.000074861497    0.071593360571    -0.057733862287    -0.000107585403    0.000022862429
            -0.000138828597    0.000096773912    0.054749601753    -0.054208599954    -0.000108656588    0.000023717688    0.072754512950    -0.053025529268
275000000.000     0.058851346402    -0.154976173519    0.000033340034    0.000029671646    0.026587454278    -0.131596672248    0.000012109843    0.000034870856
            0.000031051549    0.000030219512    0.068985439136    -0.156374160417    0.000000472003    0.000035820253    0.036409686691    -0.134413136733
            0.027688649477    -0.131217333417    0.000039997869    0.000052265053    0.056577925248    -0.156067314879    -0.000010015517    0.000033226787
            0.000051161137    0.000060753052    0.037385651566    -0.134084393374    -0.000008743023    0.000036493876    0.066900025730    -0.158511216766
300000000.000     -0.035714193222    -0.139758363713    -0.000067620376    -0.000081952469    -0.035715213272    -0.100792353800    -0.000077410229    -0.000064957497
            -0.000068274745    -0.000079841406    -0.032903731391    -0.148039432465    -0.000039615148    -0.000026433098    -0.033714345382    -0.108296957479
            -0.034835396767    -0.100881775953    -0.000030833403    -0.000055151660    -0.036066768734    -0.137835828432    -0.000062020371    -0.000029390522
            -0.000057760321    -0.000087587546    -0.033004461677    -0.108365230257    -0.000057668055    -0.000028580633    -0.032266971602    -0.145053692474
325000000.000     -0.029918070331    -0.105024862529    -0.000138909451    0.000079672654    -0.028287145180    -0.100597990775    -0.000128572176    0.000088530175
            -0.000138287004    0.000081373807    -0.025183482159    -0.106852116303    -0.000069698017    0.000059203500    -0.021829326567    -0.102231618809
            -0.027452182486    -0.100914948266    -0.000102278527    0.000065936299    -0.028371838482    -0.106159388372    -0.000083096951    0.000071300172
            -0.000150433843    0.000088883562    -0.021103570664    -0.102412772918    -0.000080232575    0.000068196563    -0.020796811634    -0.109091872277
350000000.000     -0.061644729325    -0.121070721675    0.000019140034    0.000076756538    -0.098074007584    -0.096216794274    0.000015275911    0.000057877170
            0.000020513396    0.000077537354    -0.052431756278    -0.132113263742    0.000011037784    0.000033880622    -0.089279441756    -0.110527191404
            -0.097320125807    -0.096989977462    0.000024354830    0.000080186266    -0.063679579723    -0.123520025944    0.000003668630    0.000029257988
            0.000028647060    0.000095526904    -0.088533340703    -0.111141512960    0.000003190644    0.000026304884    -0.054084468818    -0.136418026746
375000000.000     -0.096609582918    -0.059729808562    -0.000068068885    -0.000038689128    -0.097602544478    0.007930809594    -0.000109511050    -0.000030123513
            -0.000067708067    -0.000038865917    -0.098925587423    -0.073276300072    -0.000077852532    -0.000009377876    -0.104751001517    -0.005781704091
            -0.097355811773    0.006723880590    -0.000020176532    -0.000015893258    -0.098254887104    -0.058664374908    -0.000109756994    -0.000005437257
            -0.000053990807    -0.000038157961    -0.104431481086    -0.006837661966    -0.000110552815    -0.000005920991    -0.099235023850    -0.072017495514
400000000.000     -0.048756367294    -0.052597002406    -0.000128827044    0.000135299502    -0.016005024743    -0.016222872067    -0.000123487520    0.000185986948
            -0.000128496922    0.000136581300    -0.047332702890    -0.056412657775    -0.000065345200    0.000144367162    -0.016523484394    -0.016902844535
            -0.016562566777    -0.017392475360    -0.000066422049    0.000089232867    -0.048036094628    -0.053703203964    -0.000075665789    0.000178540666
            -0.000120438951    0.000129020225    -0.016910151255    -0.017994481244    -0.000073741834    0.000177399428    -0.043749955257    -0.060085883372
425000000.000     -0.120528861578    -0.087597469880    0.000046238512    0.000105151636    -0.104713855377    -0.058933176349    0.000083359342    0.000092441993
            0.000048855188    0.000105783752    -0.112432354636    -0.104431282110    0.000077338510    0.000047949985    -0.098462616620    -0.074687611402
            -0.105762852848    -0.059442180449    0.000036637744    0.000056118436    -0.123521006673    -0.088829706223    0.000092170713    0.000051911784
            0.000044170626    0.000088082499    -0.099354918916    -0.075252703556    0.000091367121    0.000046613938    -0.116018831829    -0.108619142397
450000000.000     -0.167515492966    0.040730515730    -0.000053575389    -0.000000297354    -0.131541666586    0.074939394204    -0.000089642086    -0.000029994849
            -0.000051431842    -0.000002647428    -0.177955674867    0.017103679259    -0.000067352902    -0.000031141169    -0.145100584956    0.055581016845
            -0.132419848529    0.074975540904    -0.000044509538    0.000002074072    -0.168503612755    0.043545618327    -0.000089669082    -0.000038966767
            -0.000078582618    -0.000004464171    -0.145891887259    0.055534367749    -0.000095729976    -0.000041018549    -0.178327802041    0.019665646543
475000000.000     -0.021296691505    0.083456826873    -0.000109399578    0.000192643292    0.014537523793    0.091911592400    -0.000146098815    0.000247316944
            -0.000110578841    0.000190783913    -0.037460021110    0.081968506010    -0.000105538938    0.000183405074    -0.000531897548    0.094621620031
            0.013690845942    0.091988299146    -0.000064046456    0.000146622215    -0.019678353328    0.082117569232    -0.000125029805    0.000223551752
            -0.000117300504    0.000216927812    -0.001259560858    0.094575092891    -0.000129330319    0.000227641811    -0.033232069692    0.077265320204
500000000.000     -0.042965899657    -0.056215992918    0.000147404605    0.000140996571    -0.012798081252    -0.032079506194    0.000199256464    0.000171757457
            0.000148065658    0.000141298596    -0.035518104163    -0.060377171938    0.000159051065    0.000114037246    -0.008011489430    -0.034166252225
            -0.013896010979    -0.031448896920    0.000118934752    0.000065372791    -0.047468084646    -0.056923856354    0.000190600422    0.000137035461
            0.000160891311    0.000131750377    -0.009112241188    -0.033811327741    0.000192550085    0.000139379718    -0.042000925020    -0.065472192964
525000000.000     -0.163875139221    0.052399336600    -0.000020622698    -0.000013710437    -0.094719963407    0.052441780337    -0.000018921554    -0.000051383687
            -0.000020174331    -0.000016209468    -0.171578684650    0.026174662010    -0.000018088671    -0.000049435044    -0.103026254588    0.036479321337
            -0.095074113059    0.053893982921    -0.000060221490    -0.000021057094    -0.163646805394    0.058025760326    -0.000013532122    -0.000064894390
            -0.000061313344    -0.000025353576    -0.103630757554    0.037768395025    -0.000015694030    -0.000066495177    -0.172542628605    0.031608855193
550000000.000     -0.014450194443    0.155513954374    -0.000076926569    0.000217602591    0.011819172532    0.103301134658    -0.000119705548    0.000241862621
            -0.000079277492    0.000215632373    -0.042327101883    0.153447249885    -0.000093746881    0.000163960645    -0.005845465188    0.105485270953
            0.012486851000    0.104405933496    -0.000074591275    0.000193091239    -0.009431788027    0.154197682876    -0.000114630190    0.000187091057
            -0.000109624289    0.000275180047    -0.005389240681    0.106649050976    -0.000118952296    0.000191208461    -0.035523516641    0.149315670236
575000000.000     0.041529321910    -0.004537237917    0.000249569301    0.000187978702    0.028572454593    -0.009855527916    0.000270006381    0.000239214751
            0.000247596367    0.000188976547    0.045276310610    0.007675753535    0.000180780638    0.000166157815    0.033470186743    -0.002625067834
            0.029183349900    -0.009195176599    0.000200243667    0.000139720906    0.038302006278    -0.006908247437    0.000211454647    0.000201389643
            0.000289724644    0.000228849633    0.033942319743    -0.001974572997    0.000213796868    0.000208522389    0.039388280085    0.000455259653
600000000.000     -0.092751713894    0.019063672698    0.000057653465    -0.000083007436    -0.052606874344    0.027250178506    0.000086219577    -0.000078746128
            0.000057204040    -0.000083052759    -0.089933612938    -0.000300806482    0.000043617578    -0.000045919142    -0.053135116425    0.015049576028
            -0.051904799407    0.027695364057    0.000005939468    -0.000066218166    -0.091632356990    0.024036051090    0.000068816668    -0.000055852382
            0.000062682955    -0.000093235506    -0.052650004505    0.015598310663    0.000075095964    -0.000055188441    -0.091574904785    0.004729075152
625000000.000     -0.017769832938    0.096316150367    -0.000030278057    0.000214350934    0.001786680898    0.048719940000    -0.000019052658    0.000225034047
            -0.000031973585    0.000214460129    -0.036092561819    0.093518904748    -0.000008066567    0.000163436314    -0.006412067420    0.049802990027
            0.002985513255    0.048799459598    -0.000041775067    0.000203529210    -0.012450384213    0.093503127171    -0.000007686690    0.000177151674
            -0.000044942826    0.000259800166    -0.005318194197    0.050198924954    -0.000005558368    0.000175315708    -0.029959525784    0.088356497553
650000000.000     -0.011562032381    0.012440852624    0.000333778392    0.000129783484    -0.037909234926    0.000876830594    0.000351315862    0.000133659198
            0.000332175588    0.000131594380    -0.002590273230    0.015584115828    0.000226003361    0.000073168883    -0.027727062395    -0.003740735157
            -0.036853329068    0.000095575075    0.000261388786    0.000116539864    -0.014167280142    0.010204167644    0.000265383095    0.000091645604
            0.000387658383    0.000174419552    -0.026528209681    -0.004231030126    0.000266646007    0.000091754342    -0.009072771981    0.009146408094
675000000.000     -0.061406710417    0.071817573496    0.000098348251    -0.000146224762    -0.055259444336    0.084022385755    0.000100021986    -0.000124571471
            0.000098584014    -0.000143858696    -0.064897313149    0.050377860647    0.000026190285    -0.000054104154    -0.063687837858    0.065175041571
            -0.054899783795    0.082853065960    0.000063085956    -0.000084706799    -0.057843523420    0.073806148813    0.000052590922    -0.000068361997
            0.000141316115    -0.000153473315    -0.063094297321    0.064171497449    0.000055929865    -0.000068038155    -0.064568458793    0.053622788397
700000000.000     0.019526221142    0.051998915127    0.000025010701    0.000169485221    0.023982919705    0.049290892061    0.000084206920    0.000208099461
            0.000026863785    0.000170624101    0.009721961974    0.056768216365    0.000079661264    0.000182341047    0.016389363431    0.054906685282
            0.023670733104    0.048200274167    0.000042943049    0.000159409354    0.022017035731    0.044163298975    0.000101219369    0.000200601997
            0.000057839325    0.000179143844    0.016399874546    0.053856728471    0.000106230842    0.000196966050    0.013120889766    0.046624001144
725000000.000     -0.101072246233    -0.009983460398    0.000363610531    -0.000015524919    -0.079194469564    0.034122831934    0.000425049747    -0.000072934933
            0.000363354802    -0.000015618708    -0.077107626835    -0.029907860641    0.000284926783    -0.000081313445    -0.067788601327    0.015260349260
            -0.079863779582    0.033632230319    0.000275062601    -0.000029845809    -0.107909739681    -0.009260671174    0.000354680759    -0.000093530994
            0.000414498645    -0.000036824684    -0.068090656386    0.014754278631    0.000353939440    -0.000101054318    -0.089958272942    -0.033228873258
750000000.000     -0.111393037034    0.180261809986    0.000051813564    -0.000200207705    -0.070849182945    0.169664211204    0.000018771484    -0.000231175830
            0.000052927803    -0.000198409396    -0.137132200721    0.138652464722    -0.000037485238    -0.000120151496    -0.098350403788    0.140387528531
            -0.071358205854    0.169170481841    0.000018093917    -0.000109944906    -0.105359555385    0.183983418183    -0.000016438387    -0.000170535200
            0.000063563506    -0.000227488107    -0.098687650147    0.139775154529    -0.000022261340    -0.000173040567    -0.135332316693    0.145901564509
775000000.000     0.075465597636    0.146840417692    0.000021683646    0.000102010889    0.073919842062    0.125214107664    0.000040872118    0.000155868604
            0.000024252926    0.000102690175    0.044700198257    0.159519081013    0.000044678641    0.000155375714    0.049804104412    0.138549089211
