# Hz S RI R 45
0.000     0.082779661000    0.000000000000    -0.000032528537    0.000000000000    0.003477646900    -0.000000000000    -0.000012419003    -0.000000000000
            -0.000039174185    -0.000000000000    0.076290329000    -0.000000000000    -0.000017294993    0.000000000000    0.005310525500    -0.000000000000
            0.004532781200    0.000000000000    0.000011043610    -0.000000000000    0.079956193000    -0.000000000000    -0.000003509737    -0.000000000000
            0.000001556227    -0.000000000000    0.006164616100    0.000000000000    0.000003203211    -0.000000000000    0.077869203000    -0.000000000000
25000000.000     0.148716807582    0.005083928020    -0.000000276338    0.000029867608    0.082938312059    0.041571038875    0.000009406105    0.000016025665
            -0.000002042678    0.000035379796    0.150620901531    -0.001595338039    0.000000715965    0.000019175252    0.086793793988    0.030534148611
            0.083650782575    0.040910113350    0.000013730437    -0.000010936482    0.148627379555    0.005420208847    0.000009706626    0.000006672247
            0.000017206117    -0.000000996269    0.087512254065    0.030138448447    0.000012717498    0.000001339871    0.150696494165    -0.001133891975
50000000.000     0.099248457805    -0.076095582083    0.000035933743    0.000010198120    0.069457000462    -0.025074069842    0.000036310123    -0.000010016964
            0.000040311324    0.000014915833    0.083469698284    -0.096162893148    0.000029749944    0.000001328709    0.044445498367    -0.055382045968
            0.069477353678    -0.026132741015    0.000000069944    -0.000017561004    0.099165791957    -0.076973099534    0.000023119167    -0.000012871106
            0.000016475213    -0.000019218946    0.044822247374    -0.056179887996    0.000020146456    -0.000019650244    0.083936109021    -0.096607298423
75000000.000     0.072369423898    0.007391809871    0.000016636943    -0.000046628083    0.067106401059    0.049964501257    -0.000011175985    -0.000059479185
            0.000022090729    -0.000051441413    0.010684293283    0.028367381371    -0.000000381466    -0.000038420709    -0.008073959420    0.070544635728
            0.066481669376    0.049117488144    -0.000019965738    -0.000018687124    0.071329265582    0.006656854645    -0.000016091201    -0.000041603637
            -0.000019006534    -0.000044540483    -0.008424495537    0.069758385799    -0.000024267892    -0.000039464981    0.010372589316    0.027811068072
100000000.000     0.179567588817    -0.023563398303    -0.000037990470    -0.000028603793    0.182494179551    -0.009426418830    -0.000057944041    -0.000006194621
            -0.000041059657    -0.000031370806    0.175188732899    0.007548460952    -0.000029404702    -0.000010807760    0.171141150552    0.047311342960
            0.181532342681    -0.009539126624    -0.000025964885    0.000013459016    0.179171809102    -0.022982920143    -0.000041790316    0.000003248557
            -0.000052987409    0.000006444960    0.170846877407    0.046574123695    -0.000041903426    0.000008149952    0.174250288878    0.007262777175
125000000.000     0.103856031306    -0.130927051383    -0.000059157028    0.000022081915    0.088569602002    -0.126850328184    -0.000056488208    0.000048474682
            -0.000059821544    0.000019905800    0.104477599392    -0.134391443752    -0.000044005902    0.000020905921    0.102234576436    -0.115642990178
            0.087666873818    -0.126247862493    -0.000011400060    0.000029494184    0.103721279206    -0.131246736189    -0.000035704723    0.000038164431
            -0.000033639039    0.000050426187    0.101415716827    -0.116259028896    -0.000035253391    0.000043958267    0.103456183125    -0.133591133376
150000000.000     0.050782320184    -0.042802955963    0.000017194518    0.000087757618    0.033029102543    -0.023683592833    0.000051054514    0.000108630971
            0.000010070579    0.000089731157    0.002429640395    -0.020377442891    0.000028718427    0.000073804628    -0.011569606504    0.002187611941
            0.032930824124    -0.022528190161    0.000040151713    0.000037576746    0.050129735801    -0.042936839552    0.000045481309    0.000074851056
            0.000053010556    0.000079300433    -0.012624364202    0.002369357112    0.000057424316    0.000075275840    0.003434612130    -0.019396867749
175000000.000     0.144806608759    -0.096322421820    0.000076152752    0.000001772617    0.139118643514    -0.088695386484    0.000110546316    -0.000031866788
            0.000080230852    0.000007738103    0.158279070631    -0.003128189201    0.000061782824    -0.000019704798    0.157042014642    0.027411338400
            0.139831108268    -0.087954373911    0.000036068636    -0.000032394220    0.144522566893    -0.096324545961    0.000073704148    -0.000031930510
            0.000085448906    -0.000034397361    0.156548207738    0.028001098263    0.000072410385    -0.000042640369    0.158519630409    -0.004819252006
200000000.000     0.031525892952    -0.193176908263    0.000055465430    -0.000054937541    -0.001393527612    -0.193526962885    0.000038082653    -0.000096213285
            0.000057378713    -0.000056519253    0.124360134500    -0.164790658884    0.000028385392    -0.000045505305    0.133961940519    -0.147607111373
            -0.000575653870    -0.193338803016    0.000008113738    -0.000034487964    0.031261648639    -0.193517633572    0.000023871184    -0.000064871199
            0.000027625838    -0.000079438284    0.133537068686    -0.147175141284    0.000019695555    -0.000066339228    0.121982274970    -0.164247961001
225000000.000     -0.049547867449    -0.065640308697    -0.000047805686    -0.000113093323    -0.090618958487    -0.025118342990    -0.000092229871    -0.000123042527
            -0.000042310500    -0.000113384658    -0.008423497184    -0.115117294442    -0.000048550668    -0.000085279990    -0.002985143990    -0.111950117718
            -0.089649814972    -0.025459403686    -0.000048180665    -0.000054523113    -0.049779933512    -0.066329647210    -0.000069138921    -0.000090350578
            -0.000081760243    -0.000100922662    -0.003386255659    -0.110996338384    -0.000077979390    -0.000091709337    -0.006753360421    -0.111878738058
250000000.000     0.067413473768    -0.063583460656    -0.000121862998    0.000038369971    0.062387140828    -0.013755444261    -0.000159206926    0.000080509883
            -0.000125636215    0.000027860631    0.069135095198    -0.050703870731    -0.000098255131    0.000053501560    0.054187010231    -0.055312323420
            0.062847230497    -0.014932227359    -0.000062947226    0.000057797475    0.066409614315    -0.064751671751    -0.000113804735    0.000067749900
            -0.000128697117    0.000073693454    0.054749601753    -0.054208599954    -0.000114477342    0.000082458588    0.072754512950    -0.053025529268
275000000.000     -0.022108464434    -0.157388328466    -0.000025178557    0.000099134132    -0.020425818617    -0.122560797649    0.000005054903    0.000156688273
            -0.000033281732    0.000105810664    0.068985439136    -0.156374160417    0.000004905888    0.000084023990    0.036409686691    -0.134413136733
            -0.021136509578    -0.123606455880    0.000014181466    0.000053144691    -0.024007182114    -0.157398439455    0.000009185157    0.000109181690
            0.000003737695    0.000124835297    0.037385651566    -0.134084393374    0.000020639117    0.000107794690    0.066900025730    -0.158511216766
300000000.000     -0.097367677553    -0.022482142551    0.000086902555    0.000106122529    -0.089869565993    0.017231155773    0.000155601715    0.000096760302
            0.000091308802    0.000109356387    -0.032903731391    -0.148039432465    0.000084686251    0.000064472997    -0.033714345382    -0.108296957479
            -0.090911508147    0.017138782582    0.000061868973    0.000048594355    -0.097884265414    -0.021547168551    0.000113346642    0.000071520714
            0.000126305568    0.000089655732    -0.033004461677    -0.108365230257    0.000114689313    0.000067639486    -0.032266971602    -0.145053692474
325000000.000     0.063023190518    0.008707156957    0.000145230642    -0.000077401039    0.083338214276    0.038150619766    0.000161556174    -0.000142688275
            0.000146824296    -0.000074625354    -0.025183482159    -0.106852116303    0.000100298317    -0.000090414669    -0.021829326567    -0.102231618809
            0.082774184559    0.038446553086    0.000077829811    -0.000077112510    0.062689503511    0.007867866587    0.000118685630    -0.000112565606
            0.000145471211    -0.000119267122    -0.021103570664    -0.102412772918    0.000119422586    -0.000120794893    -0.020796811634    -0.109091872277
350000000.000     0.019192617445    -0.140873630420    -0.000015703633    -0.000138854587    0.038484613803    -0.122352006844    -0.000062727968    -0.000183488928
            -0.000008040151    -0.000143433492    -0.052431756278    -0.132113263742    -0.000045423337    -0.000101234778    -0.089279441756    -0.110527191404
            0.037863566199    -0.121631350327    -0.000042722860    -0.000075695334    0.016855838447    -0.140450740710    -0.000053174239    -0.000131148459
            -0.000048887645    -0.000159588133    -0.088533340703    -0.111141512960    -0.000064679200    -0.000131555192    -0.054084468818    -0.136418026746
375000000.000     -0.096417183594    -0.059691809090    -0.000134144914    -0.000080707684    -0.071697038256    -0.053306276532    -0.000206010535    -0.000058649554
            -0.000142054937    -0.000087158977    -0.098925587423    -0.073276300072    -0.000114347746    -0.000035149125    -0.104751001517    -0.005781704091
            -0.071539721038    -0.051976802392    -0.000085817600    -0.000026378071    -0.095863918117    -0.057034986234    -0.000152642515    -0.000041744579
            -0.000175229461    -0.000060224500    -0.104431481086    -0.006837661966    -0.000151877802    -0.000034030881    -0.099235023850    -0.072017495514
400000000.000     0.017260208022    -0.002622384271    -0.000145245759    0.000131105863    0.014068780685    -0.012410652963    -0.000147252852    0.000218509779
            -0.000147213403    0.000138278952    -0.047332702890    -0.056412657775    -0.000088835369    0.000136648280    -0.016523484394    -0.016902844535
            0.015419049755    -0.011858357507    -0.000072139336    0.000105987105    0.019613150656    -0.004446655014    -0.000105838499    0.000172743253
            -0.000137568352    0.000182510652    -0.016910151255    -0.017994481244    -0.000105272525    0.000174316226    -0.043749955257    -0.060085883372
425000000.000     -0.005553299719    -0.151863648306    0.000068036360    0.000150295042    -0.025830674115    -0.119497246375    0.000145918871    0.000174961162
            0.000069320924    0.000150154238    -0.112432354636    -0.104431282110    0.000100941492    0.000091413771    -0.098462616620    -0.074687611402
            -0.024868373440    -0.120161823786    0.000074307199    0.000073231418    -0.008444957051    -0.153567162978    0.000119637533    0.000118242689
            0.000111368835    0.000158205774    -0.099354918916    -0.075252703556    0.000125986292    0.000121411684    -0.116018831829    -0.108619142397
450000000.000     -0.171602073983    -0.086105467944    0.000152884188    0.000052004424    -0.142802142062    -0.048567817862    0.000203127820    0.000003446677
            0.000154333583    0.000055507194    -0.177955674867    0.017103679259    0.000103303321    -0.000005828574    -0.145100584956    0.055581016845
            -0.142528364376    -0.049197105297    0.000084825957    0.000008548329    -0.171921499518    -0.083270410373    0.000140522762    -0.000000862691
            0.000181595264    0.000027305098    -0.145891887259    0.055534367749    0.000143369567    -0.000008399769    -0.178327802041    0.019665646543
475000000.000     -0.099880266749    0.045757964419    0.000160787814    -0.000168625804    -0.086625830361    0.044363118657    0.000148272569    -0.000244784232
            0.000164857357    -0.000173287382    -0.037460021110    0.081968506010    0.000087549251    -0.000140365410    -0.000531897548    0.094621620031
            -0.086446073878    0.043476654713    0.000084670352    -0.000118157692    -0.097276447638    0.043432464064    0.000111709081    -0.000183442432
            0.000154751915    -0.000216835477    -0.001259560858    0.094575092891    0.000108210385    -0.000185105330    -0.033232069692    0.077265320204
500000000.000     -0.056365341431    -0.044152800190    -0.000147014415    -0.000186068462    -0.061084839552    0.001313409910    -0.000236104537    -0.000203561488
            -0.000152356496    -0.000187182148    -0.035518104163    -0.060377171938    -0.000153239198    -0.000112129703    -0.008011489430    -0.034166252225
            -0.061902566317    0.000246473775    -0.000123451952    -0.000094556076    -0.060833608255    -0.046746933286    -0.000187621708    -0.000145344386
            -0.000199594426    -0.000192734114    -0.009112241188    -0.033811327741    -0.000190687853    -0.000148840181    -0.042000925020    -0.065472192964
525000000.000     -0.176198560038    0.011117675910    -0.000181845859    0.000013551076    -0.105918820072    0.054649349871    -0.000224037307    0.000088332996
            -0.000180864770    0.000015182616    -0.171578684650    0.026174662010    -0.000115708752    0.000064095779    -0.103026254588    0.036479321337
            -0.107289128704    0.054820086963    -0.000093928478    0.000031159656    -0.177508702687    0.015719917494    -0.000156057961    0.000072154089
            -0.000203037556    0.000048206227    -0.103630757554    0.037768395025    -0.000162751755    0.000077905884    -0.172542628605    0.031608855193
550000000.000     -0.088233980373    0.140951345487    -0.000143220757    0.000203835456    -0.032559017000    0.104824740027    -0.000101277807    0.000270412244
            -0.000145301624    0.000203603797    -0.042327101883    0.153447249885    -0.000053689318    0.000151412785    -0.005845465188    0.105485270953
            -0.033111433632    0.105806502647    -0.000079552384    0.000129131566    -0.084486089307    0.140336801640    -0.000075746383    0.000197458326
            -0.000135010561    0.000244289877    -0.005389240681    0.106649050976    -0.000070388035    0.000204046327    -0.035523516641    0.149315670236
575000000.000     -0.005201886104    0.057016701200    0.000217371428    0.000228043697    -0.006603055003    0.048117856303    0.000301496310    0.000223602448
            0.000219684373    0.000231238507    0.045276310610    0.007675753535    0.000187192349    0.000122500178    0.033470186743    -0.002625067834
            -0.006487298266    0.048910371597    0.000162868240    0.000132315071    -0.008218449026    0.055495096112    0.000230695573    0.000165632917
            0.000271145360    0.000241313666    0.033942319743    -0.001974572997    0.000236234738    0.000164662088    0.039388280085    0.000455259653
600000000.000     -0.073016756008    0.056356284694    0.000243019777    -0.000117630173    -0.030783360643    0.062172667509    0.000274623365    -0.000201357680
            0.000244809637    -0.000120710727    -0.089933612938    -0.000300806482    0.000147505968    -0.000131257560    -0.053135116425    0.015049576028
            -0.030397171128    0.062940756673    0.000140404264    -0.000100729270    -0.071827434646    0.060919288704    0.000202589939    -0.000155296624
            0.000272891769    -0.000164715353    -0.052650004505    0.015598310663    0.000206764419    -0.000160894373    -0.091574904785    0.004729075152
625000000.000     -0.007147210146    0.096791531168    0.000046398773    -0.000289400548    0.017842613536    0.049453168068    -0.000018874583    -0.000353712071
            0.000044908077    -0.000290426445    -0.036092561819    0.093518904748    -0.000024117333    -0.000208150210    -0.006412067420    0.049802990027
            0.018906521948    0.049870608018    0.000011100370    -0.000191490646    -0.002445083878    0.094076680097    -0.000017307870    -0.000271525691
            0.000021885231    -0.000338637936    -0.005318194197    0.050198924954    -0.000022682483    -0.000278358289    -0.029959525784    0.088356497553
650000000.000     -0.013092459212    0.014759902763    -0.000314423752    -0.000147835551    -0.036599391470    0.000839184396    -0.000399547303    -0.000112353130
            -0.000316095624    -0.000147821706    -0.002590273230    0.015584115828    -0.000250749775    -0.000040219538    -0.027727062395    -0.003740735157
            -0.035511314867    0.000203683613    -0.000230523763    -0.000070151612    -0.015681280289    0.012778465294    -0.000313099024    -0.000074580834
            -0.000377493804    -0.000147076456    -0.026528209681    -0.004231030126    -0.000320588959    -0.000071727981    -0.009072771981    0.009146408094
675000000.000     -0.070208544299    0.067469273850    -0.000215030085    0.000208881594    -0.060689758681    0.083061819055    -0.000221357328    0.000298461125
            -0.000215408608    0.000211203759    -0.064897313149    0.050377860647    -0.000102568223    0.000189774169    -0.063687837858    0.065175041571
            -0.060504505700    0.081900999303    -0.000116486423    0.000162580827    -0.067178846279    0.069110864067    -0.000159064231    0.000233100868
            -0.000238582551    0.000268364234    -0.063094297321    0.064171497449    -0.000160123120    0.000241135308    -0.064568458793    0.053622788397
700000000.000     -0.013452474804    0.068078142747    0.000061256742    0.000330569889    0.004048809539    0.065031543151    0.000147286981    0.000381010916
            0.000063586134    0.000331496761    0.009721961974    0.056768216365    0.000110263231    0.000218539646    0.016389363431    0.054906685282
            0.003431319802    0.064186769058    0.000071167201    0.000218898402    -0.011790254650    0.061379663965    0.000125140801    0.000294245028
            0.000106233510    0.000381658653    0.016399874546    0.053856728471    0.000133215815    0.000297413749    0.013120889766    0.046624001144
725000000.000     -0.101227595794    0.049668266965    0.000373957793    0.000000832438    -0.079743443270    0.061827851433    0.000446658741    -0.000072310243
            0.000375754471    -0.000001959528    -0.077107626835    -0.029907860641    0.000261933438    -0.000093977221    -0.067788601327    0.015260349260
            -0.080555794610    0.061648925722    0.000259515367    -0.000051676078    -0.106945008832    0.050381646077    0.000342033836    -0.000083844797
            0.000440172309    -0.000028595884    -0.068090656386    0.014754278631    0.000344902330    -0.000088285917    -0.089958272942    -0.033228873258
750000000.000     -0.077378694835    0.199438018787    0.000093697320    -0.000253204424    -0.035223602306    0.185069376051    0.000063010054    -0.000327127609
            0.000090109160    -0.000255056979    -0.137132200721    0.138652464722    -0.000009330142    -0.000181803046    -0.098350403788    0.140387528531
            -0.035934967258    0.185210726457    0.000018110415    -0.000174326739    -0.071801086196    0.202135632129    0.000029059335    -0.000240927420
            0.000092294317    -0.000313446342    -0.098687650147    0.139775154529    0.000030815239    -0.000244947316    -0.135332316693    0.145901564509
775000000.000     0.071608936968    0.154136923658    -0.000099743499    -0.000270386204    0.089378836933    0.123440752487    -0.000175082715    -0.000299364538
