# Hz S RI R 45
0.000     0.077390064000    0.000000000000    -0.000000082733    -0.000000000000    0.005233337500    -0.000000000000    0.000020296289    0.000000000000
            -0.000000080058    0.000000000000    0.076290329000    -0.000000000000    -0.000000216290    -0.000000000000    0.005310525500    -0.000000000000
            0.006357594500    0.000000000000    -0.000000216692    0.000000000000    0.078131334000    -0.000000000000    -0.000000326039    -0.000000000000
            0.000020295826    0.000000000000    0.006164616100    0.000000000000    -0.000000318359    -0.000000000000    0.077869203000    -0.000000000000
25000000.000     0.151087190409    -0.002031690223    -0.000007458653    0.000000120341    0.087013480739    0.030577823243    0.000037797540    0.000018561935
            -0.000007476403    0.000000131216    0.150620901531    -0.001595338039    -0.000005297133    0.000000291179    0.086793793988    0.030534148611
            0.087884023005    0.030057864174    -0.000005294790    0.000000310877    0.150911400449    -0.001344551547    -0.000008248405    0.000000051617
            0.000037794029    0.000018572690    0.087512254065    0.030138448447    -0.000008265008    0.000000057163    0.150696494165    -0.001133891975
50000000.000     0.082808065062    -0.095652434895    0.000007612005    -0.000000943195    0.043805015863    -0.055005203253    -0.000055498976    0.000086503658
            0.000007671727    -0.000000919660    0.083469698284    -0.096162893148    0.000007938154    -0.000003627308    0.044445498367    -0.055382045968
            0.044272650769    -0.055958514930    0.000007985301    -0.000003614908    0.083176592019    -0.096191979721    0.000008674626    -0.000001807647
            -0.000055463599    0.000086531001    0.044822247374    -0.056179887996    0.000008730705    -0.000001788495    0.083936109021    -0.096607298423
75000000.000     0.012059921938    0.030578186493    -0.000009655552    -0.000032927787    -0.006976403065    0.072516897550    0.000094387583    0.000254408521
            -0.000009683932    -0.000033061644    0.010684293283    0.028367381371    -0.000015135896    -0.000028446643    -0.008073959420    0.070544635728
            -0.007369975899    0.071536865816    -0.000015093597    -0.000028472864    0.011516803459    0.029628261645    -0.000011583216    -0.000037329815
            0.000094421892    0.000254345698    -0.008424495537    0.069758385799    -0.000011620551    -0.000037462659    0.010372589316    0.027811068072
100000000.000     0.177064591418    0.006771088984    -0.000047375191    0.000013606678    0.172807478195    0.046630553240    0.000134875502    0.000069891652
            -0.000047502372    0.000013709373    0.175188732899    0.007548460952    -0.000030965502    0.000014903848    0.171141150552    0.047311342960
            0.172434245049    0.045708609197    -0.000030914897    0.000014899799    0.175614512195    0.006572515023    -0.000051329027    0.000014106626
            0.000134869755    0.000069912759    0.170846877407    0.046574123695    -0.000051462645    0.000014214377    0.174250288878    0.007262777175
125000000.000     0.103214008094    -0.134049955569    0.000017457212    0.000013989387    0.101108359813    -0.115484180157    -0.000084921121    0.000250171563
            0.000017637077    0.000014022493    0.104477599392    -0.134391443752    0.000016543738    0.000001987942    0.102234576436    -0.115642990178
            0.100123765634    -0.116218947299    0.000016633399    0.000001892774    0.102401685637    -0.133315242262    0.000018777118    0.000012600704
            -0.000084831697    0.000250120657    0.101415716827    -0.116259028896    0.000018958414    0.000012634934    0.103456183125    -0.133591133376
150000000.000     0.004980080719    -0.016426297526    -0.000022521470    -0.000053781450    -0.009406468049    0.005512767544    0.000280935836    0.000444077804
            -0.000022698990    -0.000053955896    0.002429640395    -0.020377442891    -0.000032032651    -0.000045372366    -0.011569606504    0.002187611941
            -0.010651105040    0.005684654667    -0.000032043333    -0.000045549861    0.005446889426    -0.016512123510    -0.000027692354    -0.000060930926
            0.000280884970    0.000443973784    -0.012624364202    0.002369357112    -0.000027894417    -0.000061095559    0.003434612130    -0.019396867749
175000000.000     0.162136578445    -0.005200514654    -0.000096940687    0.000041597427    0.160229811314    0.025381897144    0.000217011511    0.000076193608
            -0.000096974834    0.000041904146    0.158279070631    -0.003128189201    -0.000060085978    0.000039651490    0.157042014642    0.027411338400
            0.159573384449    0.026047790312    -0.000060281222    0.000039598521    0.161124688697    -0.006668380740    -0.000104570400    0.000044905155
            0.000216957490    0.000076190439    0.156548207738    0.028001098263    -0.000104578141    0.000045237798    0.158519630409    -0.004819252006
200000000.000     0.123003686430    -0.165367919507    0.000035655922    0.000051750234    0.132561347350    -0.148347900483    -0.000029483713    0.000438901955
            0.000035963016    0.000051666099    0.124360134500    -0.164790658884    0.000026362683    0.000023672615    0.133961940519    -0.147607111373
            0.132019264221    -0.147773862665    0.000026328198    0.000023659990    0.120807199654    -0.164686851324    0.000036479417    0.000051245023
            -0.000029511531    0.000438866028    0.133537068686    -0.147175141284    0.000036786773    0.000051150279    0.121982274970    -0.164247961001
225000000.000     -0.005690199093    -0.110829973891    -0.000023686162    -0.000058339489    -0.001136625945    -0.108626343546    0.000540484900    0.000551170535
            -0.000023973904    -0.000058507843    -0.008423497184    -0.115117294442    -0.000030448675    -0.000048872047    -0.002985143990    -0.111950117718
            -0.001551377634    -0.107492855548    -0.000030641298    -0.000048982456    -0.004864482131    -0.109087003711    -0.000031357361    -0.000065414047
            0.000540433041    0.000551119189    -0.003386255659    -0.110996338384    -0.000031626885    -0.000065552593    -0.006753360421    -0.111878738058
250000000.000     0.074754540900    -0.053645329530    -0.000124344781    0.000060166128    0.057961898440    -0.057758209778    0.000312459644    0.000017412814
            -0.000124170993    0.000060550382    0.069135095198    -0.050703870731    -0.000075832045    0.000052058449    0.054187010231    -0.055312323420
            0.058584759259    -0.056528107569    -0.000076179706    0.000052345998    0.076077863131    -0.055563819489    -0.000135215559    0.000067839831
            0.000312225433    0.000017447583    0.054749601753    -0.054208599954    -0.000134999321    0.000068186410    0.072754512950    -0.053025529268
275000000.000     0.067627994690    -0.158014363371    0.000050017944    0.000089432333    0.034820927273    -0.134935376952    0.000082492159    0.000611693644
            0.000050310541    0.000089039020    0.068985439136    -0.156374160417    0.000027885179    0.000032017725    0.036409686691    -0.134413136733
            0.035894155889    -0.134495885615    0.000028113562    0.000032337358    0.065280370909    -0.159406397137    0.000051763951    0.000090651892
            0.000082580518    0.000611935573    0.037385651566    -0.134084393374    0.000052013965    0.000090236270    0.066900025730    -0.158511216766
300000000.000     -0.029613660029    -0.144502210777    -0.000026121566    -0.000066339263    -0.030848771701    -0.105259251780    0.000837050980    0.000528229549
            -0.000026588378    -0.000066471380    -0.032903731391    -0.148039432465    -0.000043631718    -0.000041446990    -0.033714345382    -0.108296957479
            -0.029968227792    -0.105284201202    -0.000043575088    -0.000041497881    -0.030280454633    -0.142607032002    -0.000036361946    -0.000071461096
            0.000837057764    0.000528095097    -0.033004461677    -0.108365230257    -0.000036798939    -0.000071553498    -0.032266971602    -0.145053692474
325000000.000     -0.019631696116    -0.110784242391    -0.000138213893    0.000096115475    -0.018384692544    -0.105377762035    0.000388875007    -0.000057067245
            -0.000138017393    0.000096509380    -0.025183482159    -0.106852116303    -0.000077098857    0.000069878772    -0.021829326567    -0.102231618809
            -0.017522421217    -0.105635241194    -0.000077083502    0.000070205075    -0.018073108351    -0.111899474117    -0.000149290566    0.000109075427
            0.000388694483    -0.000056813837    -0.021103570664    -0.102412772918    -0.000149080180    0.000109382342    -0.020796811634    -0.109091872277
350000000.000     -0.054075085865    -0.133880022745    0.000073371118    0.000106948531    -0.091045289987    -0.110105666751    0.000262443205    0.000701434749
            0.000073485615    0.000106437253    -0.052431756278    -0.132113263742    0.000022928602    0.000033868692    -0.089279441756    -0.110527191404
            -0.090239362392    -0.110820641416    0.000023479378    0.000033846222    -0.056163945382    -0.136604347044    0.000077533465    0.000108973432
            0.000262817649    0.000701587896    -0.088533340703    -0.111141512960    0.000077553096    0.000108480210    -0.054084468818    -0.136418026746
375000000.000     -0.093987369439    -0.069932623733    -0.000048062188    -0.000071236322    -0.099360469501    -0.002321882954    0.001089407550    0.000387627237
            -0.000048661391    -0.000071040877    -0.098925587423    -0.073276300072    -0.000071503810    -0.000023381877    -0.104751001517    -0.005781704091
            -0.099010391395    -0.003497953581    -0.000071551380    -0.000023734102    -0.095924960053    -0.068970973157    -0.000061077712    -0.000073818701
            0.001089324483    0.000387447216    -0.104431481086    -0.006837661966    -0.000061635237    -0.000073554568    -0.099235023850    -0.072017495514
400000000.000     -0.040913171667    -0.063450931248    -0.000168304855    0.000172462190    -0.011386233295    -0.022960385246    0.000395844105    -0.000126878635
            -0.000167878993    0.000172803421    -0.047332702890    -0.056412657775    -0.000088722767    0.000133605269    -0.016523484394    -0.016902844535
            -0.011834793808    -0.024182706630    -0.000088600543    0.000133763102    -0.040246643020    -0.064601745599    -0.000177895935    0.000192756031
            0.000396099222    -0.000126598273    -0.016910151255    -0.017994481244    -0.000177467343    0.000193024238    -0.043749955257    -0.060085883372
425000000.000     -0.115669477281    -0.106948215117    0.000138498299    0.000135746259    -0.100825503933    -0.075379451388    0.000510102973    0.000735369754
            0.000138423434    0.000135345036    -0.112432354636    -0.104431282110    0.000053864313    0.000051722690    -0.098462616620    -0.074687611402
            -0.101827745610    -0.075985081292    0.000054062522    0.000051250596    -0.118864933767    -0.108504973849    0.000146586814    0.000138225041
            0.000510348494    0.000735036828    -0.099354918916    -0.075252703556    0.000146452990    0.000137897369    -0.116018831829    -0.108619142397
450000000.000     -0.172143553330    0.020957175348    -0.000066820765    -0.000066702473    -0.138904929628    0.058647543591    0.001261615648    0.000156998860
            -0.000067140322    -0.000066315503    -0.177955674867    0.017103679259    -0.000072762422    0.000004061019    -0.145100584956    0.055581016845
            -0.139779566581    0.058597684938    -0.000073179973    0.000003877107    -0.173646527496    0.023726811924    -0.000080033269    -0.000066090007
            0.001261465326    0.000156829313    -0.145891887259    0.055534367749    -0.000080251268    -0.000065685978    -0.178327802041    0.019665646543
475000000.000     -0.027745481119    0.071930520937    -0.000175521202    0.000233364947    0.007286524644    0.085884653854    0.000384261216    -0.000216795260
            -0.000174903441    0.000233437565    -0.037460021110    0.081968506010    -0.000099128873    0.000170318953    -0.000531897548    0.094621620031
            0.006432261815    0.085864770753    -0.000099095476    0.000170607962    -0.026226867419    0.070679101874    -0.000184502523    0.000259070030
            0.000384451963    -0.000216762906    -0.001259560858    0.094575092891    -0.000183942981    0.000259061803    -0.033232069692    0.077265320204
500000000.000     -0.041776436756    -0.067717161087    0.000229442029    0.000211298216    -0.012399365917    -0.039279026478    0.000760851445    0.000761699832
            0.000229071167    0.000210938313    -0.035518104163    -0.060377171938    0.000126020090    0.000116754605    -0.008011489430    -0.034166252225
            -0.013565576041    -0.038766418572    0.000126106286    0.000116164302    -0.046560328577    -0.068901242969    0.000245553028    0.000217321602
            0.000760758026    0.000761184467    -0.009112241188    -0.033811327741    0.000245210858    0.000217085491    -0.042000925020    -0.065472192964
525000000.000     -0.167604264799    0.029263895439    -0.000038734778    -0.000083703365    -0.098609181013    0.037351135408    0.001405684232    -0.000155443955
            -0.000038706877    -0.000083324253    -0.171578684650    0.026174662010    -0.000043289252    0.000004981428    -0.103026254588    0.036479321337
            -0.099128409421    0.038754843166    -0.000043881261    0.000005128039    -0.168353901099    0.034969690155    -0.000048546259    -0.000081071147
            0.001405351538    -0.000155538318    -0.103630757554    0.037768395025    -0.000048418451    -0.000080801196    -0.172542628605    0.031608855193
550000000.000     -0.032573198655    0.141806188864    -0.000128117314    0.000278114734    0.000227152970    0.095235488101    0.000378423427    -0.000310014679
            -0.000127714545    0.000278040027    -0.042327101883    0.153447249885    -0.000060028225    0.000189502008    -0.005845465188    0.105485270953
            0.000755695374    0.096414767489    -0.000060088901    0.000189747621    -0.027744796570    0.141121350507    -0.000133475396    0.000306573288
            0.000378047410    -0.000309914187    -0.005389240681    0.106649050976    -0.000133209084    0.000306426022    -0.035523516641    0.149315670236
575000000.000     0.036703653763    -0.004723992755    0.000298373529    0.000246585427    0.026360628920    -0.010878178334    0.000952598425    0.000679472070
            0.000298083556    0.000246197733    0.045276310610    0.007675753535    0.000176143905    0.000158673779    0.033470186743    -0.002625067834
            0.026884085222    -0.010137919216    0.000176121544    0.000158605621    0.033414409789    -0.007416609337    0.000324847536    0.000256495073
            0.000952496079    0.000679556822    0.033942319743    -0.001974572997    0.000324595768    0.000256261195    0.039388280085    0.000455259653
600000000.000     -0.090220643298    0.000895862025    0.000030316044    -0.000112328770    -0.051778664102    0.014843185441    0.001503765162    -0.000499325696
            0.000030314121    -0.000111868026    -0.089933612938    -0.000300806482    0.000015816327    -0.000009018846    -0.053135116425    0.015049576028
            -0.051134271417    0.015374856449    0.000015372529    -0.000008824878    -0.090233505420    0.006064646620    0.000024700725    -0.000110743965
            0.001503420791    -0.000499227720    -0.052650004505    0.015598310663    0.000024770845    -0.000110421789    -0.091574904785    0.004729075152
625000000.000     -0.032477586122    0.079816631664    -0.000052635805    0.000315288089    -0.005768074765    0.037774205666    0.000338595783    -0.000391422351
            -0.000052197095    0.000314992676    -0.036092561819    0.093518904748    0.000018273927    0.000210104767    -0.006412067420    0.049802990027
            -0.004593805822    0.038016619487    0.000018375601    0.000210719895    -0.027251064163    0.077980445190    -0.000045117071    0.000347100935
            0.000338476026    -0.000390856612    -0.005318194197    0.050198924954    -0.000044839108    0.000346773999    -0.029959525784    0.088356497553
650000000.000     -0.016483059419    0.006888990324    0.000418610403    0.000141565653    -0.039416759945    -0.007914714088    0.001177341090    0.000402673835
            0.000418082522    0.000141174416    -0.002590273230    0.015584115828    0.000250452100    0.000072605094    -0.027727062395    -0.003740735157
            -0.038252508539    -0.008530725005    0.000251006162    0.000072689450    -0.019073893959    0.004424451908    0.000453615126    0.000140170812
            0.001177732459    0.000402924399    -0.026528209681    -0.004231030126    0.000453075552    0.000139938886    -0.009072771981    0.009146408094
675000000.000     -0.066029524167    0.052471922221    0.000014354718    -0.000161097340    -0.062544643336    0.066787300398    0.001375982264    -0.000856017513
            0.000014408273    -0.000160510496    -0.064897313149    0.050377860647    0.000020765313    -0.000034450681    -0.063687837858    0.065175041571
            -0.062009366016    0.065669035673    0.000020669164    -0.000034421424    -0.063417802845    0.055134531962    0.000011442316    -0.000161600964
            0.001376069096    -0.000855836266    -0.063094297321    0.064171497449    0.000011575667    -0.000161075664    -0.064568458793    0.053622788397
700000000.000     0.007182228743    0.041124611784    0.000032771489    0.000328871240    0.013427861099    0.041910606942    0.000283331001    -0.000447456914
            0.000032994329    0.000328255770    0.009721961974    0.056768216365    0.000091404410    0.000203209295    0.016389363431    0.054906685282
            0.013275340826    0.040787591489    0.000092192711    0.000203550534    0.010394045268    0.034230178526    0.000054938767    0.000358991797
            0.000283958557    -0.000447237635    0.016399874546    0.053856728471    0.000055026264    0.000358432808    0.013120889766    0.046624001144
725000000.000     -0.098043648392    -0.030066061782    0.000492070537    -0.000053902839    -0.082098688371    0.017038704721    0.001298216585    -0.000011095617
            0.000491386789    -0.000053667255    -0.077107626835    -0.029907860641    0.000283349411    -0.000063863332    -0.067788601327    0.015260349260
            -0.082670113454    0.016444662963    0.000283448308    -0.000064791602    -0.105243220300    -0.030326298778    0.000528469941    -0.000076964123
            0.001298445317    -0.000011607585    -0.068090656386    0.014754278631    0.000527873533    -0.000076503200    -0.089958272942    -0.033228873258
750000000.000     -0.136525029894    0.146917092762    -0.000071282406    -0.000196295353    -0.095765975178    0.145134953823    0.001052290547    -0.001133990359
            -0.000070799087    -0.000195811038    -0.137132200721    0.138652464722    -0.000009149155    -0.000068217230    -0.098350403788    0.140387528531
            -0.096196766036    0.144549504396    -0.000009549341    -0.000068176030    -0.131875775386    0.152031094685    -0.000072163274    -0.000201956608
            0.001052227446    -0.001134083561    -0.098687650147    0.139775154529    -0.000071631172    -0.000201605188    -0.135332316693    0.145901564509
775000000.000     0.044832829156    0.146006119327    0.000046618786    0.000251885275    0.048780589361    0.127120305859    0.000145059044    -0.000564872800
            0.000046602160    0.000251204032    0.044700198257    0.159519081013    0.000070643438    0.000134075299    0.049804104412    0.138549089211
