# Hz S RI R 45
0.000     0.078748850000    -0.000000000000    -0.000021551162    0.000000000000    0.004631581100    0.000000000000    -0.000042424300    0.000000000000
            0.000047643229    0.000000000000    0.076290329000    -0.000000000000    0.000074451396    -0.000000000000    0.005310525500    -0.000000000000
            0.005069067400    0.000000000000    -0.000058043878    -0.000000000000    0.078575059000    -0.000000000000    0.000013763012    0.000000000000
            -0.000031502259    0.000000000000    0.006164616100    0.000000000000    0.000071825311    -0.000000000000    0.077869203000    -0.000000000000
25000000.000     0.150778461270    -0.003907685672    0.000039509550    0.000030534117    0.087235650099    0.030839445884    0.000024129141    0.000037753778
            0.000082431117    -0.000013494827    0.150620901531    -0.001595338039    0.000037319015    -0.000062497836    0.086793793988    0.030534148611
            0.087424727375    0.030491306570    0.000020643838    0.000057027120    0.149750298722    -0.002710117825    0.000019906042    -0.000015505320
            0.000015724244    0.000027366222    0.087512254065    0.030138448447    0.000021810007    -0.000068709593    0.150696494165    -0.001133891975
50000000.000     0.080520396013    -0.095469497931    -0.000024569879    0.000041552662    0.044042011696    -0.055512464263    -0.000028302854    0.000037173583
            -0.000024688819    -0.000004368724    0.083469698284    -0.096162893148    -0.000122035339    0.000046880538    0.044445498367    -0.055382045968
            0.043797370460    -0.055762085624    -0.000015681272    0.000060823517    0.080127112115    -0.094793434102    -0.000072270167    0.000048477733
            -0.000043691248    0.000044745829    0.044822247374    -0.056179887996    -0.000125530046    0.000045033809    0.083936109021    -0.096607298423
75000000.000     0.013265253658    0.031684011905    0.000102484117    0.000171096200    -0.006714898528    0.071344828213    0.000082560500    0.000160928733
            0.000105655914    0.000147619163    0.010684293283    0.028367381371    0.000131244408    0.000270041518    -0.008073959420    0.070544635728
            -0.006713298584    0.071425533653    0.000108872576    0.000166930182    0.013379049126    0.032189925327    0.000109068043    0.000198152831
            0.000087221998    0.000176378989    -0.008424495537    0.069758385799    0.000116449139    0.000249929480    0.010372589316    0.027811068072
100000000.000     0.177118942098    0.003877031134    0.000127264131    -0.000025918366    0.171597432716    0.044153794831    0.000123976077    -0.000012504228
            0.000123904510    -0.000071686516    0.175188732899    0.007548460952    0.000221984038    -0.000061831218    0.171141150552    0.047311342960
            0.171613440111    0.043697831463    0.000112283029    -0.000016212365    0.176743913529    0.004370425459    0.000166037691    -0.000047017636
            0.000131422366    -0.000005306155    0.170846877407    0.046574123695    0.000214772047    -0.000054418813    0.174250288878    0.007262777175
125000000.000     0.099395643137    -0.135243590573    -0.000069985327    0.000096928894    0.098441266505    -0.116021718943    -0.000045724648    0.000071797072
            -0.000120077034    0.000043123393    0.104477599392    -0.134391443752    -0.000104910237    -0.000003316017    0.102234576436    -0.115642990178
            0.097603807857    -0.116278187392    -0.000057726274    0.000133449690    0.099073935367    -0.133920042277    -0.000070087408    0.000025127320
            -0.000034579579    0.000063267625    0.101415716827    -0.116259028896    -0.000072578373    -0.000036304355    0.103456183125    -0.133591133376
150000000.000     0.003646377036    -0.016026059752    0.000261820146    0.000296017844    -0.009471505055    0.004546315140    0.000237968827    0.000264848375
            0.000181485979    0.000319938226    0.002429640395    -0.020377442891    0.000178270773    0.000360672627    -0.011569606504    0.002187611941
            -0.009973381905    0.005423121903    0.000317682808    0.000305287286    0.005752130715    -0.014956359484    0.000212698303    0.000278740168
            0.000228425350    0.000264992841    -0.012624364202    0.002369357112    0.000145298912    0.000293492377    0.003434612130    -0.019396867749
175000000.000     0.159214975294    -0.007177810065    0.000245353363    -0.000159568310    0.156960900932    0.021376384617    0.000263659522    -0.000155198441
            0.000226059788    -0.000117806945    0.158279070631    -0.003128189201    0.000332676243    -0.000103039396    0.157042014642    0.027411338400
            0.157420102532    0.021814514796    0.000278823249    -0.000201041875    0.160541046312    -0.009658631298    0.000295989898    -0.000150337194
            0.000267058940    -0.000147055101    0.156548207738    0.028001098263    0.000311181581    -0.000098390673    0.158519630409    -0.004819252006
200000000.000     0.117931492863    -0.165815450376    -0.000102492038    0.000058676532    0.125963522809    -0.149399155361    -0.000063511704    -0.000008471710
            -0.000114892392    0.000084733930    0.124360134500    -0.164790658884    -0.000035761877    -0.000016282907    0.133961940519    -0.147607111373
            0.125885837759    -0.149510115474    -0.000107720414    0.000041035943    0.116026220298    -0.166940661141    -0.000045031042    -0.000059328636
            -0.000046950199    -0.000008166960    0.133537068686    -0.147175141284    0.000001973297    -0.000071329373    0.121982274970    -0.164247961001
225000000.000     -0.010614800580    -0.111500396901    0.000284658035    0.000342282676    -0.006116635398    -0.108343557215    0.000248554418    0.000274765498
            0.000263173484    0.000383050127    -0.008423497184    -0.115117294442    0.000242037540    0.000285446246    -0.002985143990    -0.111950117718
            -0.006389317011    -0.107628968166    0.000324938977    0.000354819882    -0.010040039326    -0.109953816382    0.000219385597    0.000241416498
            0.000250058241    0.000253743798    -0.003386255659    -0.110996338384    0.000196434938    0.000192902966    -0.006753360421    -0.111878738058
250000000.000     0.065564493616    -0.052335058042    0.000364387082    -0.000232006493    0.050216523165    -0.057342471403    0.000378998091    -0.000248241728
            0.000387657843    -0.000164933384    0.069135095198    -0.050703870731    0.000365258122    -0.000201511064    0.054187010231    -0.055312323420
            0.051126677975    -0.056571954864    0.000436066681    -0.000296384779    0.067933126286    -0.054943039683    0.000371501393    -0.000249413915
            0.000366493185    -0.000250888782    0.054749601753    -0.054208599954    0.000326926813    -0.000217510412    0.072754512950    -0.053025529268
275000000.000     0.061349920216    -0.153091541749    -0.000116176810    0.000000323475    0.027441377385    -0.131485495863    -0.000093250630    -0.000104760387
            -0.000054200719    0.000030233883    0.068985439136    -0.156374160417    -0.000057106856    -0.000012433424    0.036409686691    -0.134413136733
            0.028545519748    -0.131871090408    -0.000132623685    -0.000088895453    0.058533399885    -0.156309358683    -0.000081295478    -0.000121267250
            -0.000095663112    -0.000100609567    0.037385651566    -0.134084393374    -0.000055813047    -0.000077815224    0.066900025730    -0.158511216766
300000000.000     -0.037304907195    -0.143574105442    0.000299494478    0.000292154460    -0.039051503521    -0.102548436737    0.000244758102    0.000212894304
            0.000358103146    0.000281212921    -0.032903731391    -0.148039432465    0.000355575220    0.000225937609    -0.033714345382    -0.108296957479
            -0.038797545463    -0.103364275622    0.000283224435    0.000281955299    -0.039724205661    -0.141722740495    0.000257804390    0.000182622110
            0.000245463721    0.000211186228    -0.033004461677    -0.108365230257    0.000300456449    0.000165489361    -0.032266971602    -0.145053692474
325000000.000     -0.034573707631    -0.102751846243    0.000362124879    -0.000246304694    -0.030421598282    -0.096969026985    0.000362322559    -0.000293711466
            0.000398473484    -0.000276196049    -0.025183482159    -0.106852116303    0.000351936056    -0.000352787445    -0.021829326567    -0.102231618809
            -0.030508666145    -0.097277644869    0.000407647366    -0.000298906286    -0.033239374373    -0.102801448455    0.000355960542    -0.000347180072
            0.000359817892    -0.000296140665    -0.021103570664    -0.102412772918    0.000342153188    -0.000382668336    -0.020796811634    -0.109091872277
350000000.000     -0.060831241975    -0.119432966667    -0.000083715155    -0.000032001297    -0.096013402792    -0.097651773912    -0.000106949319    -0.000139749290
            -0.000056522935    -0.000065841341    -0.052431756278    -0.132113263742    -0.000152225327    -0.000051621926    -0.089279441756    -0.110527191404
            -0.095632076371    -0.097882106270    -0.000111648557    -0.000121419574    -0.062562123223    -0.121596343625    -0.000147083359    -0.000154167203
            -0.000112251577    -0.000142134690    -0.088533340703    -0.111141512960    -0.000175597150    -0.000139174839    -0.054084468818    -0.136418026746
375000000.000     -0.099887744280    -0.061937635436    0.000349400544    0.000213908771    -0.103758271964    0.004956296153    0.000294879679    0.000162908284
            0.000370751212    0.000161658744    -0.098925587423    -0.073276300072    0.000411056110    0.000246439361    -0.104751001517    -0.005781704091
            -0.103483782285    0.003801956985    0.000322530155    0.000197955250    -0.101404067952    -0.060314512410    0.000330340532    0.000181070821
            0.000282730074    0.000168625934    -0.104431481086    -0.006837661966    0.000350555151    0.000213628127    -0.099235023850    -0.072017495514
400000000.000     -0.052987129703    -0.048014527965    0.000363534003    -0.000386017942    -0.020192820229    -0.009354036806    0.000368847808    -0.000458867564
            0.000344124947    -0.000460340250    -0.047332702890    -0.056412657775    0.000439626579    -0.000547466772    -0.016523484394    -0.016902844535
            -0.021415803246    -0.010550108778    0.000379600480    -0.000448032575    -0.051477334631    -0.048667579391    0.000419776622    -0.000555988191
            0.000372673937    -0.000441257791    -0.016910151255    -0.017994481244    0.000461726506    -0.000582248183    -0.043749955257    -0.060085883372
425000000.000     -0.119044326189    -0.086728123327    -0.000133793521    -0.000099005539    -0.101469492779    -0.058911315909    -0.000193061312    -0.000196051581
            -0.000203017090    -0.000133317336    -0.112432354636    -0.104431282110    -0.000280672515    -0.000196520251    -0.098462616620    -0.074687611402
            -0.102991920176    -0.058318205174    -0.000189953017    -0.000144545635    -0.121220515728    -0.087534008990    -0.000270195920    -0.000262375096
            -0.000177311849    -0.000196545840    -0.099354918916    -0.075252703556    -0.000293854296    -0.000305613777    -0.116018831829    -0.108619142397
450000000.000     -0.173351546860    0.038845277234    0.000322642957    0.000142938768    -0.138104802123    0.071445386035    0.000294744086    0.000118935659
            0.000269569400    0.000151501911    -0.177955674867    0.017103679259    0.000309515064    0.000241607038    -0.145100584956    0.055581016845
            -0.138098519383    0.072330453682    0.000343669348    0.000165288719    -0.172004412340    0.041913872463    0.000302593603    0.000162385986
            0.000292297769    0.000104950270    -0.145891887259    0.055534367749    0.000263313533    0.000175698227    -0.178327802041    0.019665646543
475000000.000     -0.027784633335    0.092879743421    0.000429152012    -0.000541946495    0.006917876416    0.100940211469    0.000457041205    -0.000643440447
            0.000388619952    -0.000531316011    -0.037460021110    0.081968506010    0.000571262272    -0.000633663063    -0.000531897548    0.094621620031
            0.006769387094    0.100516772825    0.000487986017    -0.000648690475    -0.023553340829    0.088738137646    0.000546186688    -0.000737790294
            0.000443036158    -0.000631004603    -0.001259560858    0.094575092891    0.000562097070    -0.000704178208    -0.033232069692    0.077265320204
500000000.000     -0.036736601939    -0.051616704516    -0.000401549176    -0.000353475370    -0.008193493463    -0.027101691720    -0.000464351535    -0.000454851584
            -0.000460073067    -0.000324183772    -0.035518104163    -0.060377171938    -0.000498045090    -0.000519982102    -0.008011489430    -0.034166252225
            -0.009728687264    -0.026547983236    -0.000492486562    -0.000419964409    -0.042571449570    -0.055319150310    -0.000543349722    -0.000569777374
            -0.000446072971    -0.000441076335    -0.009112241188    -0.033811327741    -0.000519929285    -0.000602270554    -0.042000925020    -0.065472192964
525000000.000     -0.168506895954    0.049722548607    0.000116598917    0.000134652829    -0.098845585110    0.051810790938    0.000125644640    0.000092522355
            0.000090672354    0.000215550944    -0.171578684650    0.026174662010    0.000067193675    0.000190135084    -0.103026254588    0.036479321337
            -0.098792028376    0.053947766272    0.000162303590    0.000181058433    -0.168274417626    0.055419784188    0.000103011167    0.000107746338
            0.000141308377    0.000078499267    -0.103630757554    0.037768395025    0.000064401152    0.000089019400    -0.172542628605    0.031608855193
550000000.000     -0.021998304726    0.167228809777    0.000325683257    -0.000569687508    0.006414667587    0.113221611338    0.000345407057    -0.000719800769
            0.000356749683    -0.000503194121    -0.042327101883    0.153447249885    0.000433165011    -0.000643593370    -0.005845465188    0.105485270953
            0.008077610828    0.113985537573    0.000435559928    -0.000724153683    -0.014976698886    0.162589910149    0.000398308927    -0.000813969694
            0.000337872030    -0.000735171926    -0.005389240681    0.106649050976    0.000371948546    -0.000779256889    -0.035523516641    0.149315670236
575000000.000     0.051746771388    0.005415594004    -0.000703026164    -0.000597404940    0.035267169828    -0.001989103523    -0.000768683025    -0.000696502123
            -0.000656624545    -0.000562255997    0.045276310610    0.007675753535    -0.000749066874    -0.000742214494    0.033470186743    -0.002625067834
            0.035958417410    -0.002658087434    -0.000816808080    -0.000742609591    0.044965930790    -0.002366829557    -0.000853011714    -0.000796427729
            -0.000779013659    -0.000693133766    0.033942319743    -0.001974572997    -0.000827126985    -0.000770286120    0.039388280085    0.000455259653
600000000.000     -0.092229455496    0.016046610369    -0.000269580864    0.000304995120    -0.053842589055    0.028764217579    -0.000228504087    0.000203276796
            -0.000220335629    0.000327465307    -0.089933612938    -0.000300806482    -0.000278095046    0.000259976216    -0.053135116425    0.015049576028
            -0.053735266120    0.029009623131    -0.000264589499    0.000315432916    -0.095336784322    0.022349349717    -0.000234213398    0.000191079898
            -0.000226518915    0.000212323381    -0.052650004505    0.015598310663    -0.000223393215    0.000178268251    -0.091574904785    0.004729075152
625000000.000     -0.020731681981    0.107936463557    0.000068092131    -0.000496428041    0.003347917538    0.060408011411    0.000021895392    -0.000705660544
            0.000134002535    -0.000494015848    -0.036092561819    0.093518904748    0.000063995129    -0.000660722760    -0.006412067420    0.049802990027
            0.004427275749    0.060770628963    0.000120921330    -0.000681092762    -0.015037366965    0.104916629190    0.000006939814    -0.000842804109
            0.000038673940    -0.000709283657    -0.005318194197    0.050198924954    -0.000001624398    -0.000841152572    -0.029959525784    0.088356497553
650000000.000     0.001807289021    0.018775730754    -0.001055256335    -0.000314972467    -0.026448455786    0.002902776228    -0.001142065223    -0.000378210626
            -0.000989702784    -0.000354838532    -0.002590273230    0.015584115828    -0.001192706949    -0.000382507643    -0.027727062395    -0.003740735157
            -0.025005978955    0.002042113517    -0.001213424655    -0.000449809456    -0.004387014131    0.013876015264    -0.001281268763    -0.000405073859
            -0.001147197434    -0.000407742314    -0.026528209681    -0.004231030126    -0.001277858356    -0.000390477123    -0.009072771981    0.009146408094
675000000.000     -0.060156234338    0.068675755941    -0.000387894545    0.000623957577    -0.057211205767    0.083543253682    -0.000326285445    0.000471565886
            -0.000355029490    0.000550920104    -0.064897313149    0.050377860647    -0.000345356896    0.000592265459    -0.063687837858    0.065175041571
            -0.057014520132    0.081625313653    -0.000415955389    0.000608129611    -0.060556248172    0.073314776918    -0.000282058312    0.000487724534
            -0.000363276949    0.000477338736    -0.063094297321    0.064171497449    -0.000264119330    0.000497853989    -0.064568458793    0.053622788397
700000000.000     0.022808179930    0.063978131526    -0.000100096468    -0.000345965458    0.029680702414    0.062209567140    -0.000228207346    -0.000586817843
            -0.000117358838    -0.000418375805    0.009721961974    0.056768216365    -0.000175347339    -0.000605937734    0.016389363431    0.054906685282
            0.028278822321    0.061184543623    -0.000160324572    -0.000535713518    0.025531180218    0.057683053704    -0.000263057377    -0.000771861686
            -0.000221493924    -0.000550117645    0.016399874546    0.053856728471    -0.000237091147    -0.000784243334    0.013120889766    0.046624001144
725000000.000     -0.084282867923    -0.013438136721    -0.001271629147    0.000273441362    -0.063002483875    0.030924587751    -0.001354553744    0.000264621237
            -0.001309698074    0.000238477929    -0.077107626835    -0.029907860641    -0.001552738921    0.000296450769    -0.067788601327    0.015260349260
            -0.065062868075    0.030281808077    -0.001491573347    0.000266992800    -0.093443080336    -0.012753508068    -0.001545022591    0.000292910704
            -0.001324324847    0.000250460966    -0.068090656386    0.014754278631    -0.001546623616    0.000264749573    -0.089958272942    -0.033228873258
750000000.000     -0.114374019031    0.173987473899    -0.000125747660    0.000997084829    -0.074854865159    0.165290390994    -0.000065533776    0.000809672733
            -0.000160286132    0.000959111461    -0.137132200721    0.138652464722    -0.000077256173    0.001094484655    -0.098350403788    0.140387528531
            -0.074437391035    0.164546576032    -0.000119959980    0.001043957066    -0.108752086943    0.180544681772    0.000000815424    0.000876060681
            -0.000087705631    0.000785908799    -0.098687650147    0.139775154529    -0.000012378244    0.000873507480    -0.135332316693    0.145901564509
775000000.000     0.077294949280    0.159269106719    0.000082624254    -0.000114616572    0.076406218518    0.136682781543    -0.000073021527    -0.000348706964
