!$
! Info: Touchstone file created by Circ.  Input file=C2M_PCB_93ohms_6p0in_20230620_v3.circ
!$
# Hz S RI R 50
0	0.008226352	3.112846e-24	0.9917433	-2.914282e-24	0.0001542798	8.417331e-23	-0.0001505793	1.854895e-20
	0.9917433	-2.769683e-24	0.00804505	1.702157e-24	-0.0001479168	1.822288e-20	9.549703e-06	8.334866e-21
	0.0001542799	8.420747e-23	-0.0001479169	1.822266e-20	0.008229694	3.588907e-24	0.9917566	-2.810864e-24
	-0.0001505792	1.854898e-20	9.549681e-06	8.33494e-21	0.9917566	-2.827603e-24	0.008058485	2.113718e-24
1e+07	0.01170929	0.0002395665	0.983665	-0.09297108	0.0005650351	0.002982363	-0.0002740429	-0.0005486606
	0.983665	-0.09297108	0.0115122	0.0003182987	-0.0002721037	-0.0005494456	0.0003565545	0.003068151
	0.0005650351	0.002982363	-0.0002721037	-0.0005494456	0.01193705	0.0002177027	0.9834477	-0.09299437
	-0.0002740429	-0.0005486606	0.0003565546	0.003068151	0.9834477	-0.09299437	0.01173931	0.000294341
2e+07	0.01409148	-0.00239981	0.9681933	-0.1819518	0.00153043	0.005799689	-0.0003863147	-0.001072895
	0.9681933	-0.1819518	0.01373348	-0.002275688	-0.0003852071	-0.001073477	0.001035654	0.005996458
	0.001530458	0.005799597	-0.0003851854	-0.001073526	0.01425993	-0.002518526	0.9680173	-0.1819123
	-0.0003862904	-0.00107294	0.001035674	0.005996455	0.9680173	-0.1819123	0.01389784	-0.002396563
3e+07	0.01522268	-0.006202046	0.945592	-0.2680263	0.003121078	0.008267779	-0.0006139212	-0.001490859
	0.945592	-0.2680263	0.01453582	-0.005979482	-0.0006132461	-0.001491066	0.002131591	0.008680665
	0.003121066	0.008267771	-0.000613254	-0.001491062	0.01534065	-0.00635898	0.9454466	-0.2679764
	-0.0006139303	-0.001490855	0.002131583	0.008680682	0.9454466	-0.2679764	0.01464642	-0.006136986
4e+07	0.01537033	-0.0103645	0.91581	-0.3512334	0.005238343	0.01034244	-0.0009163559	-0.001856437
	0.91581	-0.3512334	0.01421114	-0.009928307	-0.0009158871	-0.001856115	0.003581353	0.01114386
	0.005238343	0.01034244	-0.0009158885	-0.001856112	0.01544239	-0.01054212	0.9156883	-0.3511872
	-0.0009163569	-0.001856434	0.003581349	0.01114386	0.9156883	-0.3511872	0.01427204	-0.01010382
5e+07	0.01465958	-0.01460065	0.8790142	-0.431113	0.007771437	0.0119543	-0.001258836	-0.002189341
	0.8790142	-0.431113	0.0129201	-0.01379201	-0.001258342	-0.002188429	0.005320343	0.01336626
	0.007771437	0.0119543	-0.001258344	-0.002188428	0.01468921	-0.01478786	0.8789094	-0.4310783
	-0.001258837	-0.00218934	0.005320339	0.01336626	0.8789094	-0.4310783	0.01293523	-0.01397325
6e+07	0.01317894	-0.01872468	0.8354818	-0.5071351	0.01063367	0.01303255	-0.001647572	-0.002491617
	0.8354818	-0.5071351	0.01078942	-0.0173531	-0.001646874	-0.002490139	0.007313269	0.01531487
	0.01063367	0.01303255	-0.001646872	-0.002490139	0.0131702	-0.01891308	0.8353876	-0.5071172
	-0.00164757	-0.002491618	0.007313272	0.01531487	0.8353876	-0.5071172	0.01076255	-0.01753072
7e+07	0.01101165	-0.02259288	0.7855609	-0.5787664	0.01372461	0.01352116	-0.002087955	-0.002760937
	0.7855609	-0.5787664	0.007944738	-0.02044412	-0.002086913	-0.002758954	0.009516222	0.01696178
	0.01372461	0.01352117	-0.00208691	-0.002758956	0.01096856	-0.02277581	0.7854702	-0.5787681
	-0.002087954	-0.00276094	0.009516224	0.01696177	0.7854702	-0.5787681	0.007880497	-0.02061007
8e+07	0.008247234	-0.02608874	0.7296593	-0.6454958	0.01693428	0.01338198	-0.002584708	-0.00299158
	0.7296593	-0.6454958	0.004520919	-0.02293261	-0.002583173	-0.002989149	0.01188035	0.01828704
	0.01693428	0.01338198	-0.002583175	-0.002989146	0.008174246	-0.02626068	0.7295649	-0.6455188
	-0.002584709	-0.002991578	0.01188035	0.01828704	0.7295649	-0.6455188	0.004424694	-0.02307992
9e+07	0.004984852	-0.0291184	0.66823	-0.7068448	0.02014717	0.01259631	-0.003141324	-0.003174632
	0.66823	-0.7068448	0.0006649444	-0.02471599	-0.003139166	-0.003171867	0.0143544	0.01927945
	0.02014717	0.01259631	-0.003139166	-0.003171857	0.004887371	-0.02927445	0.6681251	-0.7068904
	-0.003141322	-0.003174623	0.0143544	0.01927946	0.6681251	-0.7068904	0.0005430794	-0.0248388
1e+08	0.001342338	-0.03160127	0.6017568	-0.7623868	0.023245	0.01116435	-0.003758914	-0.003297497
	0.6017568	-0.7623868	-0.003454444	-0.02571374	-0.00375605	-0.003294591	0.01688653	0.01993586
	0.023245	0.01116435	-0.00375605	-0.003294592	0.001228889	-0.03173558	0.6016299	-0.7624564
	-0.003758914	-0.003297498	0.01688653	0.01993586	0.6016299	-0.7624564	-0.003592537	-0.02580548
1.1e+08	-0.002550721	-0.0335612	0.5307599	-0.8116261	0.02610629	0.009112128	-0.004432719	-0.003349253
	0.5307599	-0.8116261	-0.007650971	-0.02599537	-0.004428507	-0.003347785	0.01942348	0.02026546
	0.02610629	0.009112128	-0.004428506	-0.003347786	-0.002663636	-0.03367368	0.5306004	-0.8117024
	-0.004432718	-0.003349254	0.01942349	0.02026546	0.5306004	-0.8117024	-0.007728809	-0.02605914
1.2e+08	-0.00667296	-0.03494572	0.4559045	-0.8542637	0.02862534	0.006482789	-0.005162931	-0.003319468
	0.4559045	-0.8542637	-0.01187943	-0.02546156	-0.005158709	-0.003318616	0.0219226	0.02028396
	0.02862534	0.00648279	-0.005158709	-0.003318617	-0.006788251	-0.03505018	0.4557142	-0.8543405
	-0.005162931	-0.003319469	0.0219226	0.02028396	0.4557142	-0.8543405	-0.01195098	-0.02553295
1.3e+08	-0.01090235	-0.03572193	0.3777742	-0.8900275	0.03069874	0.003335712	-0.005943452	-0.003190749
	0.3777742	-0.8900275	-0.01594869	-0.02411694	-0.0059392	-0.003189796	0.02434115	0.020012
	0.03069874	0.003335712	-0.005939201	-0.003189798	-0.01102395	-0.03582246	0.3775523	-0.8900968
	-0.005943452	-0.003190751	0.02434115	0.020012	0.3775523	-0.8900968	-0.01603992	-0.02418744
1.4e+08	-0.01512896	-0.03589192	0.2969843	-0.918682	0.03223492	-0.0002518538	-0.006763068	-0.002946755
	0.2969843	-0.918682	-0.01969928	-0.02200823	-0.006758372	-0.002945517	0.02664217	0.01947761
	0.03223492	-0.0002518535	-0.006758373	-0.002945518	-0.01525978	-0.03598832	0.2967324	-0.9187396
	-0.006763068	-0.002946756	0.02664217	0.0194776	0.2967324	-0.9187396	-0.0198148	-0.02206336
1.5e+08	-0.01925169	-0.03547962	0.2141703	-0.9400503	0.03315559	-0.0041877	-0.007606033	-0.002572967
	0.2141703	-0.9400503	-0.02299124	-0.0192081	-0.007600533	-0.002571628	0.02879491	0.01871341
	0.03315559	-0.0041877	-0.007600534	-0.002571629	-0.01939259	-0.03557008	0.2138898	-0.9400901
	-0.007606033	-0.002572968	0.02879491	0.01871341	0.2138898	-0.9400901	-0.02312558	-0.01923772
1.6e+08	-0.02317955	-0.03452665	0.1299765	-0.9540063	0.03339835	-0.008367231	-0.008452746	-0.002057593
	0.1299765	-0.9540063	-0.02570298	-0.01581054	-0.008446286	-0.002056483	0.03077579	0.01775609
	0.03339835	-0.00836723	-0.008446286	-0.002056484	-0.02333002	-0.03460925	0.1296697	-0.9540235
	-0.008452746	-0.002057594	0.03077579	0.01775609	0.1296697	-0.9540235	-0.02584751	-0.01580962
1.7e+08	-0.02683482	-0.03308842	0.04505538	-0.9604794	0.03291845	-0.01267587	-0.009280266	-0.001392406
	0.04505538	-0.9604794	-0.02773299	-0.01192817	-0.009272828	-0.0013919	0.03256852	0.01664454
	0.03291845	-0.01267587	-0.009272828	-0.0013919	-0.02699338	-0.03316188	0.04472511	-0.9604697
	-0.009280266	-0.001392407	0.03256852	0.01664453	0.04472511	-0.9604697	-0.02787898	-0.01189566
1.8e+08	-0.03015321	-0.03123152	-0.03994035	-0.959456	0.03169026	-0.01699239	-0.01006334	-0.0005733923
	-0.03994035	-0.959456	-0.02900167	-0.007688341	-0.01005506	-0.0005738052	0.03416454	0.01541861
	0.03169026	-0.01699239	-0.01005506	-0.0005738054	-0.03031827	-0.03129515	-0.04029124	-0.9594167
	-0.01006334	-0.0005733925	0.03416454	0.01541861	-0.04029124	-0.9594167	-0.02914152	-0.007625618
1.9e+08	-0.03308628	-0.02902973	-0.1243608	-0.9509778	0.02970818	-0.02119189	-0.01077508	0.0003986454
	-0.1243608	-0.9509778	-0.02945336	-0.003229894	-0.01076619	0.0003970468	0.03556283	0.01411802
	0.02970818	-0.02119189	-0.01076619	0.0003970467	-0.03325606	-0.02908373	-0.1247291	-0.9509034
	-0.01077508	0.0003986452	0.03556283	0.01411802	-0.1247291	-0.9509034	-0.02958056	-0.003139833
2e+08	-0.03560053	-0.0265619	-0.2075656	-0.9351385	0.02698657	-0.02514858	-0.01138812	0.001517793
	-0.2075656	-0.9351385	-0.0290573	0.00130142	-0.0113789	0.001514838	0.03676927	0.01278033
	0.02698657	-0.02514858	-0.0113789	0.001514838	-0.03577381	-0.02660672	-0.2079467	-0.9350271
	-0.01138812	0.001517793	0.03676927	0.01278033	-0.2079467	-0.9350271	-0.02916705	0.001414938
2.1e+08	-0.03767845	-0.02390856	-0.2889216	-0.9120878	0.02356032	-0.02873952	-0.01187562	0.00277282
	-0.2889216	-0.9120878	-0.02780867	0.005756753	-0.01186638	0.002768399	0.0377965	0.0114406
	0.02356032	-0.02873952	-0.01186638	0.002768399	-0.03785432	-0.0239449	-0.2893123	-0.9119357
	-0.01187562	0.00277282	0.0377965	0.0114406	-0.2893123	-0.9119357	-0.02789704	0.005889757
2.2e+08	-0.03931778	-0.02114874	-0.3678164	-0.882026	0.0194839	-0.03184755	-0.01221255	0.004147398
	-0.3678164	-0.882026	-0.02572848	0.009989184	-0.0122036	0.004141505	0.03866341	0.01013003
	0.0194839	-0.03184755	-0.0122036	0.004141505	-0.03949566	-0.02117737	-0.3682126	-0.881832
	-0.01221255	0.004147398	0.03866341	0.01013003	-0.3682126	-0.881832	-0.02579293	0.01013732
2.3e+08	-0.04053038	-0.01835755	-0.443657	-0.8452052	0.01483042	-0.0343639	-0.01237645	0.005620373
	-0.443657	-0.8452052	-0.02286301	0.01385768	-0.0123681	0.005613053	0.03939297	0.008874275
	0.01483042	-0.0343639	-0.0123681	0.005613053	-0.0407101	-0.01837927	-0.4440531	-0.8449675
	-0.01237645	0.005620372	0.03939297	0.008874274	-0.4440531	-0.8449675	-0.02290152	0.01401672
2.4e+08	-0.04134138	-0.01560423	-0.5158697	-0.8019248	0.00969035	-0.03619176	-0.01234871	0.007166466
	-0.5158697	-0.8019248	-0.01928162	0.01723123	-0.01234127	0.007157827	0.04001318	0.007694249
	0.00969035	-0.03619176	-0.01234127	0.007157827	-0.04152294	-0.01561954	-0.5162615	-0.801641
	-0.01234871	0.007166466	0.04001318	0.007694249	-0.5162615	-0.801641	-0.01929274	0.01739707
2.5e+08	-0.04178693	-0.01294863	-0.5839153	-0.7525329	0.004169404	-0.03724841	-0.01211519	0.008757017
	-0.5839153	-0.7525329	-0.01507519	0.01999343	-0.01210889	0.008747257	0.04055467	0.00660422
	0.004169404	-0.03724841	-0.01210889	0.008747257	-0.04197054	-0.01295812	-0.5842975	-0.7522021
	-0.01211519	0.008757017	0.04055467	0.00660422	-0.5842975	-0.7522021	-0.0150583	0.02016187
2.6e+08	-0.04191254	-0.01044076	-0.6472806	-0.6974217	-0.001613511	-0.03746799	-0.0116671	0.01036112
	-0.6472806	-0.6974217	-0.01035352	0.02204453	-0.0116622	0.01035045	0.04104987	0.005611973
	-0.001613511	-0.03746799	-0.0116622	0.01035045	-0.04209859	-0.01044455	-0.6476477	-0.697045
	-0.0116671	0.01036112	0.04104987	0.005611973	-0.6476477	-0.697045	-0.01030827	0.02221175
2.7e+08	-0.04177042	-0.008118886	-0.7054912	-0.6370263	-0.007529009	-0.03680271	-0.01100084	0.01194643
	-0.7054912	-0.6370263	-0.005240978	0.02330587	-0.01099746	0.01193506	0.04153183	0.004718488
	-0.007529009	-0.03680271	-0.01099746	0.01193506	-0.04195929	-0.008117109	-0.7058389	-0.6366019
	-0.01100084	0.01194643	0.04153183	0.004718488	-0.7058389	-0.6366019	-0.00516745	0.02346791
2.8e+08	-0.04141702	-0.006008169	-0.7581094	-0.5718199	-0.01344015	-0.03522538	-0.01011865	0.01348054
	-0.7581094	-0.5718199	0.000126317	0.02372081	-0.01011696	0.01346885	0.04203346	0.003918222
	-0.01344015	-0.03522538	-0.01011696	0.01346885	-0.0416093	-0.006000771	-0.7584306	-0.5713499
	-0.01011865	0.01348054	0.04203346	0.003918222	-0.7584306	-0.5713499	0.0002275532	0.02387381
2.9e+08	-0.04091029	-0.004121121	-0.8047402	-0.5023146	-0.01920524	-0.03272974	-0.009028035	0.0149318
	-0.8047402	-0.5023146	0.005604632	0.02325709	-0.00902812	0.01492013	0.04258499	0.003198565
	-0.01920524	-0.03272974	-0.00902812	0.01492013	-0.04110632	-0.00410755	-0.8050309	-0.5018005
	-0.009028035	0.0149318	0.04258499	0.003198565	-0.8050309	-0.5018005	0.005732401	0.02339731
3e+08	-0.04030697	-0.002457267	-0.8450358	-0.4290536	-0.02468163	-0.02933178	-0.00774208	0.0162711
	-0.8450358	-0.4290536	0.01104751	0.02190744	-0.00774388	0.01625972	0.04321458	0.0025412
	-0.02468163	-0.02933178	-0.00774388	0.01625972	-0.04050732	-0.002437125	-0.8452899	-0.4284967
	-0.00774208	0.0162711	0.04321458	0.0025412	-0.8452899	-0.4284967	0.01120032	0.02203117
3.1e+08	-0.03966012	-0.001003897	-0.8786931	-0.3526091	-0.02972883	-0.02506953	-0.006277886	0.01747168
	-0.8786931	-0.3526091	0.01630981	0.01968938	-0.006281349	0.01746096	0.04394596	0.001922081
	-0.02972883	-0.02506953	-0.006281349	0.01746096	-0.03986527	-0.0009764384	-0.8789043	-0.3520116
	-0.006277886	0.01747168	0.04394596	0.001922081	-0.8789043	-0.3520116	0.0164858	0.01979319
3.2e+08	-0.0390166	0.0002624471	-0.9054632	-0.2735771	-0.0342119	-0.02000275	-0.004656604	0.01851089
	-0.9054632	-0.2735771	0.02125205	0.01664502	-0.004661613	0.01850127	0.04479799	0.001312316
	-0.0342119	-0.02000275	-0.004661613	0.01850127	-0.03922674	0.0002984048	-0.9056264	-0.2729445
	-0.004656604	0.01851089	0.04479799	0.001312316	-0.9056264	-0.2729445	0.0214483	0.01672576
3.3e+08	-0.03841483	0.001374988	-0.9251497	-0.1925796	-0.03800492	-0.01421204	-0.002902074	0.0193701
	-0.9251497	-0.1925796	0.02574397	0.01283953	-0.00290838	0.01936182	0.04578355	0.0006791637
	-0.03800492	-0.01421204	-0.00290838	0.01936182	-0.03863	0.001420526	-0.9252605	-0.191913
	-0.002902074	0.0193701	0.04578355	0.0006791636	-0.9252605	-0.191913	0.02595774	0.01289438
3.4e+08	-0.03788329	0.002373837	-0.9376119	-0.1102457	-0.04099435	-0.007797452	-0.001040101	0.02003553
	-0.9376119	-0.1102457	0.02966947	0.008358548	-0.001047376	0.02002888	0.04690931	-1.28246e-05
	-0.04099435	-0.007797452	-0.001047376	0.02002888	-0.03810327	0.002430425	-0.9376659	-0.1095518
	-0.001040101	0.02003553	0.04690931	-1.282469e-05	-0.9376659	-0.1095518	0.02989715	0.008385328
3.5e+08	-0.03743874	0.003304286	-0.9427662	-0.0272213	-0.0430815	-0.0008766269	0.0009027719	0.02049776
	-0.9427662	-0.0272213	0.03292875	0.003306232	0.0008948655	0.02049307	0.04817432	-0.0008006493
	-0.0430815	-0.0008766269	0.0008948655	0.02049307	-0.03766307	0.003373355	-0.9427597	-0.02650416
	0.0009027719	0.02049776	0.04817432	-0.0008006494	-0.9427597	-0.02650416	0.0331668	0.003303217
3.6e+08	-0.03708568	0.004213883	-0.9405877	0.05584399	-0.04418585	0.006417893	0.002900042	0.02075221
	-0.9405877	0.05584399	0.03544213	-0.002198467	0.002891967	0.02074952	0.04957102	-0.001721579
	-0.04418585	0.006417893	0.002891967	0.02074952	-0.03731347	0.004297095	-0.9405159	0.056578
	0.002900042	0.02075221	0.04957102	-0.001721579	-0.9405159	0.056578	0.03568637	-0.002232447
3.7e+08	-0.03681646	0.005149614	-0.9311074	0.1383042	-0.04424678	0.01394123	0.004926355	0.02079811
	-0.9311074	0.1383042	0.03715174	-0.008025765	0.00491858	0.02079748	0.05108421	-0.002811734
	-0.04424678	0.01394123	0.00491858	0.02079748	-0.03704649	0.005248422	-0.9309685	0.1390498
	0.004926355	0.02079811	0.05108421	-0.002811734	-0.9309685	0.1390498	0.03739819	-0.008091157
3.8e+08	-0.03661059	0.006155396	-0.914417	0.2195141	-0.04322576	0.02153937	0.006957988	0.02063849
	-0.914417	0.2195141	0.038023	-0.01403844	0.006951008	0.02063986	0.05269175	-0.004104788
	-0.04322576	0.02153937	0.006951008	0.02063986	-0.03684117	0.006271349	-0.9142074	0.220264
	0.006957988	0.02063849	0.05269175	-0.004104788	-0.9142074	0.220264	0.03826746	-0.01413507
3.9e+08	-0.03643685	0.007268982	-0.8906645	0.2988461	-0.04110739	0.0290525	0.008973632	0.02027917
	-0.8906645	0.2988461	0.03804574	-0.0200967	0.008967908	0.02028229	0.05436504	-0.005630635
	-0.04110739	0.0290525	0.008967908	0.02028229	-0.03666595	0.00740329	-0.8903825	0.2995942
	0.008973632	0.02027917	0.05436504	-0.005630635	-0.8903825	0.2995942	0.03828429	-0.02022374
4e+08	-0.03625336	0.008520023	-0.8600538	0.3756845	-0.03790018	0.03631877	0.01095458	0.01972821
	-0.8600538	0.3756845	0.03723377	-0.02606198	0.01095058	0.0197328	0.05606968	-0.007414484
	-0.03790018	0.03631877	0.01095058	0.0197328	-0.0364786	0.00867369	-0.8596983	0.3764238
	0.01095457	0.01972821	0.05606968	-0.007414484	-0.8596983	0.3764238	0.03746268	-0.02621798
4.1e+08	-0.03601051	0.009927208	-0.8228437	0.449438	-0.03363687	0.04317757	0.01288486	0.01899478
	-0.8228437	0.449438	0.03562438	-0.0318013	0.01288298	0.01900055	0.05776613	-0.009475167
	-0.03363687	0.04317757	0.01288298	0.01900055	-0.03622911	0.01010086	-0.8224145	0.4501603
	0.01288486	0.01899478	0.05776613	-0.009475167	-0.8224145	0.4501603	0.03584023	-0.03198418
4.2e+08	-0.0356533	0.01149726	-0.7793412	0.5195418	-0.02837371	0.04947376	0.01475138	0.01808884
	-0.7793412	0.5195418	0.03327657	-0.03719147	0.01475194	0.01809523	0.05941144	-0.01182498
	-0.02837371	0.04947376	0.01475194	0.01809523	-0.03586212	0.0116911	-0.7788385	0.5202405
	0.01475138	0.01808884	0.05941144	-0.01182498	-0.7788385	0.5202405	0.03347651	-0.03739879
4.3e+08	-0.0351233	0.013223	-0.7299045	0.585463	-0.02219008	0.05506066	0.01654343	0.01702003
	-0.7299045	0.585463	0.03026961	-0.04212231	0.01654658	0.01702639	0.0609599	-0.01446869
	-0.02219008	0.05506066	0.01654658	0.01702639	-0.03531915	0.01343667	-0.7293306	0.5861302
	0.01654343	0.01702003	0.0609599	-0.01446869	-0.7293306	0.5861302	0.03045112	-0.04235101
4.4e+08	-0.03436227	0.0150831	-0.674936	0.6467045	-0.01518649	0.0598035	0.01825225	0.01579711
	-0.674936	0.6467045	0.02669945	-0.04649992	0.01825818	0.01580302	0.06236508	-0.01740348
	-0.01518649	0.0598035	0.01825818	0.01580302	-0.03454174	0.01531569	-0.6742912	0.6473322
	0.01825225	0.01579711	0.06236508	-0.01740348	-0.6742912	0.6473322	0.02686055	-0.0467469
4.5e+08	-0.03331485	0.01704189	-0.6148788	0.7028076	-0.007482764	0.06358251	0.01987065	0.01442785
	-0.6148788	0.7028076	0.0226759	-0.05024976	0.01987927	0.01443258	0.06358053	-0.0206182
	-0.007482764	0.06358251	0.01987927	0.01443258	-0.03347469	0.01729188	-0.6141666	0.7033889
	0.01987065	0.01442785	0.06358053	-0.0206182	-0.6141666	0.7033889	0.02281538	-0.05051149
4.6e+08	-0.03193224	0.01904992	-0.5502103	0.7533562	0.0007838029	0.06629556	0.02139227	0.01291853
	-0.5502103	0.7533562	0.01831888	-0.05331751	0.02140342	0.01292146	0.06456184	-0.0240945
	0.0007838029	0.06629556	0.02140342	0.01292146	-0.03206896	0.01931518	-0.5494335	0.7538837
	0.02139227	0.01291853	0.06456184	-0.0240945	-0.5494335	0.7538837	0.01843611	-0.0535907
4.7e+08	-0.03017427	0.02104485	-0.481444	0.7979793	0.009461994	0.06786075	0.02281078	0.01127395
	-0.481444	0.7979793	0.01375485	-0.05567191	0.02282409	0.01127438	0.06526737	-0.02780602
	0.009461994	0.06786075	0.02282409	0.01127438	-0.03028502	0.02132261	-0.4806073	0.7984481
	0.02281078	0.01127395	0.06526737	-0.02780602	-0.4806073	0.7984481	0.0138497	-0.05595293
4.8e+08	-0.02801286	0.02295344	-0.4091215	0.8363535	0.01838891	0.06821794	0.02411933	0.009497419
	-0.4091215	0.8363535	0.009112412	-0.05730366	0.02413436	0.009494819	0.06566007	-0.0317203
	0.01838891	0.06821794	0.02413436	0.009494819	-0.02809458	0.02324024	-0.4082289	0.8367553
	0.02411933	0.009497419	0.06566007	-0.0317203	-0.4082289	0.8367553	0.009185564	-0.05758931
4.9e+08	-0.0254343	0.02469418	-0.3338057	0.8682065	0.02739356	0.06733061	0.02531025	0.00759148
	-0.3338057	0.8682065	0.004518771	-0.05822701	0.02532643	0.007585382	0.06570833	-0.03579874
	0.02739356	0.06733061	0.02532643	0.007585382	-0.02548486	0.02498601	-0.3328628	0.8685351
	0.02531025	0.00759148	0.06570833	-0.03579874	-0.3328628	0.8685351	0.004571309	-0.05851407
5e+08	-0.02244056	0.02617933	-0.2560807	0.8933102	0.03630033	0.06518629	0.02637401	0.005557823
	-0.2560807	0.8933102	9.508226e-05	-0.05847773	0.02639065	0.005547904	0.06538659	-0.03999844
	0.03630033	0.06518629	0.02639065	0.005547904	-0.02245829	0.02647164	-0.2550932	0.8935614
	0.02637401	0.005557823	0.06538659	-0.03999844	-0.2550932	0.8935614	0.0001286688	-0.05876346
5.1e+08	-0.01905174	0.02731857	-0.1765438	0.9114947	0.04493207	0.06179769	0.02729917	0.003398262
	-0.1765438	0.9114947	-0.004046193	-0.05811198	0.02731556	0.003384286	0.06467649	-0.04427238
	0.04493207	0.06179769	0.02731556	0.003384286	-0.01903547	0.0276064	-0.1755185	0.9116622
	0.02729917	0.003398262	0.06467649	-0.04427238	-0.1755185	0.9116622	-0.004029425	-0.05839414
5.2e+08	-0.01530561	0.02802241	-0.09580577	0.9226381	0.05311403	0.0572026	0.02807234	0.001115347
	-0.09580577	0.9226381	-0.007805728	-0.05720499	0.02808759	0.001097217	0.06356739	-0.04857184
