!$
! Info: Touchstone file created by Circ.  Input file=C2M_PCB_93ohms_9p0in_20230620_v3.circ
!$
# Hz S RI R 50
0	0.01092441	3.917128e-24	0.9890453	-3.772702e-24	0.0001695421	9.90861e-23	-0.0001658516	2.046504e-20
	0.9890453	-3.628474e-24	0.01074294	2.599452e-24	-0.0001631961	2.013973e-20	2.4839e-05	8.409599e-21
	0.0001695422	9.912005e-23	-0.0001631961	2.013952e-20	0.01092774	4.358588e-24	0.9890586	-3.602339e-24
	-0.0001658516	2.046506e-20	2.483898e-05	8.409672e-21	0.9890586	-3.619043e-24	0.01075645	2.934867e-24
1e+07	0.01555017	-0.000522464	0.9763371	-0.1232438	0.0007915899	0.003437802	-0.0003186619	-0.0005247103
	0.9763371	-0.1232438	0.01529713	-0.0004379749	-0.0003167935	-0.0005256274	0.0005018505	0.003551716
	0.0007915899	0.003437802	-0.0003167935	-0.0005256274	0.01585615	-0.0005636699	0.976039	-0.1232538
	-0.0003186619	-0.0005247103	0.0005018506	0.003551716	0.976039	-0.1232538	0.01560209	-0.0004822418
2e+07	0.01833447	-0.00503287	0.9503284	-0.2401424	0.00227074	0.006564457	-0.0004362882	-0.001035118
	0.9503284	-0.2401424	0.01776116	-0.004846245	-0.0004353956	-0.001035803	0.00147888	0.00690516
	0.002270756	0.006564363	-0.0004353771	-0.001035854	0.018549	-0.005210761	0.950098	-0.2400539
	-0.000436267	-0.001035166	0.001478901	0.006905157	0.950098	-0.2400539	0.01796912	-0.005026945
3e+07	0.01897673	-0.01102363	0.9117048	-0.3515255	0.004649062	0.009032873	-0.0006948268	-0.001410474
	0.9117048	-0.3515255	0.0178364	-0.01057937	-0.0006944533	-0.001410642	0.003057282	0.009850522
	0.004649049	0.009032868	-0.0006944609	-0.001410638	0.0191119	-0.01125338	0.9115259	-0.3514145
	-0.0006948355	-0.00141047	0.003057273	0.009850539	0.9115259	-0.3514145	0.01795942	-0.0108088
4e+07	0.01786363	-0.01726229	0.8607396	-0.4568199	0.007702188	0.01071979	-0.001042536	-0.001722478
	0.8607396	-0.4568199	0.01597397	-0.01630305	-0.001042338	-0.001721904	0.005106595	0.01237765
	0.00770219	0.01071979	-0.001042339	-0.001721901	0.01792617	-0.01751596	0.8606014	-0.4567078
	-0.001042536	-0.001722475	0.005106592	0.01237765	0.8606014	-0.4567078	0.01601845	-0.01655092
5e+07	0.01522861	-0.02322654	0.7980977	-0.554836	0.01117194	0.01150777	-0.001440395	-0.002001635
	0.7980977	-0.554836	0.0124969	-0.02142296	-0.001439992	-0.002000251	0.007488165	0.01444785
	0.01117194	0.01150777	-0.001439993	-0.00200025	0.01522492	-0.02348559	0.7979901	-0.5547347
	-0.001440396	-0.002001634	0.007488162	0.01444785	0.7979901	-0.5547347	0.01247027	-0.02166838
6e+07	0.01129487	-0.02855472	0.7246745	-0.6443616	0.01482271	0.01131068	-0.001906013	-0.002245919
	0.7246745	-0.6443616	0.007730852	-0.02553517	-0.00190507	-0.002243812	0.01010064	0.01601893
	0.01482271	0.01131068	-0.001905068	-0.002243812	0.01123277	-0.02880527	0.7245876	-0.6442787
	-0.001906011	-0.00224592	0.01010064	0.01601893	0.7245876	-0.6442787	0.007641568	-0.02576213
7e+07	0.006307587	-0.03297548	0.6415353	-0.7242637	0.01840071	0.01010058	-0.00245408	-0.002441417
	0.6415353	-0.7242637	0.002031556	-0.02835406	-0.002452327	-0.002438774	0.01283293	0.01707218
	0.01840071	0.01010058	-0.002452325	-0.002438776	0.006195491	-0.03320678	0.6414586	-0.7242032
	-0.002454079	-0.00244142	0.01283293	0.01707218	0.6414586	-0.7242032	0.001890043	-0.02854958
8e+07	0.000538076	-0.03629314	0.5498855	-0.7935331	0.02165015	0.007911452	-0.003093476	-0.002564633
	0.5498855	-0.7935331	-0.004217695	-0.02969796	-0.003090676	-0.002561707	0.01557316	0.01761521
	0.02165015	0.007911452	-0.003090677	-0.002561704	0.000385302	-0.03649701	0.5498085	-0.7934965
	-0.003093476	-0.00256463	0.01557316	0.01761521	0.5498085	-0.7934965	-0.004399453	-0.02985196
9e+07	-0.005723054	-0.03838425	0.4510391	-0.8513054	0.02432869	0.004838016	-0.003824113	-0.002585008
	0.4510391	-0.8513054	-0.01061832	-0.02948451	-0.003820134	-0.002582153	0.01821597	0.01768091
	0.02432869	0.004838017	-0.003820132	-0.002582144	-0.00590591	-0.03855467	0.4509514	-0.8512932
	-0.003824109	-0.002585	0.01821597	0.01768092	0.4509514	-0.8512932	-0.01082683	-0.02958997
1e+08	-0.0121638	-0.03918898	0.3463778	-0.8968862	0.0262201	0.001029803	-0.00463358	-0.002467529
	0.3463778	-0.8968862	-0.01675878	-0.02772333	-0.004628462	-0.002465179	0.0206682	0.01732381
	0.0262201	0.001029803	-0.004628462	-0.00246518	-0.01236222	-0.03932093	0.3462629	-0.896897
	-0.00463358	-0.00246753	0.0206682	0.0173238	0.3462629	-0.896897	-0.01697637	-0.02777509
1.1e+08	-0.01850172	-0.03881951	0.2373958	-0.9296007	0.02714444	-0.003305451	-0.005495402	-0.002185857
	0.2373958	-0.9296007	-0.02227596	-0.02465119	-0.005489118	-0.002185759	0.02285198	0.01662245
	0.02714444	-0.003305451	-0.005489118	-0.00218576	-0.01869354	-0.03892356	0.2372447	-0.9296076
	-0.005495403	-0.002185859	0.02285198	0.01662244	0.2372447	-0.9296076	-0.02242389	-0.02465893
1.2e+08	-0.02457157	-0.03728054	0.125726	-0.9491933	0.0269867	-0.007930761	-0.006383725	-0.001713738
	0.125726	-0.9491933	-0.0269596	-0.02032265	-0.006377416	-0.001714902	0.02471994	0.01566431
	0.0269867	-0.007930761	-0.006377417	-0.001714903	-0.02476609	-0.03736862	0.1255449	-0.9491878
	-0.006383725	-0.001713739	0.02471994	0.0156643	0.1255449	-0.9491878	-0.02709007	-0.02032245
1.3e+08	-0.03011319	-0.0346714	0.01288566	-0.9555127	0.02568008	-0.01258513	-0.00725483	-0.001028521
	0.01288566	-0.9555127	-0.03049548	-0.01497692	-0.007248437	-0.001030417	0.02624156	0.01454281
	0.02568008	-0.01258513	-0.007248437	-0.001030418	-0.03031501	-0.03474456	0.012678	-0.9554851
	-0.007254831	-0.001028522	0.02624156	0.0145428	0.012678	-0.9554851	-0.03063125	-0.01496194
1.4e+08	-0.03492263	-0.03115244	-0.09958667	-0.9485671	0.0232207	-0.01699509	-0.008056998	-0.000121031
	-0.09958667	-0.9485671	-0.03266894	-0.008919395	-0.008050301	-0.0001237191	0.02741063	0.01335472
	0.0232207	-0.01699509	-0.008050301	-0.0001237198	-0.03513251	-0.03120838	-0.099816	-0.9485127
	-0.008056998	-0.0001210317	0.02741063	0.01335472	-0.099816	-0.9485127	-0.03281152	-0.008877794
1.5e+08	-0.0388472	-0.02692047	-0.2101677	-0.9285426	0.01966762	-0.02088935	-0.008734724	0.001002932
	-0.2101677	-0.9285426	-0.03335225	-0.002490926	-0.008727732	0.0009991269	0.02824402	0.01219286
	0.01966762	-0.02088935	-0.008727732	0.0009991265	-0.03906297	-0.0269571	-0.2104132	-0.9284552
	-0.008734725	0.001002931	0.02824402	0.01219286	-0.2104132	-0.9284552	-0.03349343	-0.002416055
1.6e+08	-0.04178758	-0.02219462	-0.3173713	-0.8957885	0.01514121	-0.02401319	-0.009233587	0.002322071
	-0.3173713	-0.8957885	-0.03250329	0.003953077	-0.009226581	0.002316847	0.02877999	0.0111418
	0.01514121	-0.02401319	-0.009226581	0.002316847	-0.04200588	-0.02221108	-0.317627	-0.8956642
	-0.009233588	0.00232207	0.02877999	0.0111418	-0.317627	-0.8956642	-0.0326324	0.00406204
1.7e+08	-0.04369874	-0.01720155	-0.419763	-0.8508179	0.009818649	-0.02614145	-0.009504792	0.003800362
	-0.419763	-0.8508179	-0.03016416	0.01006144	-0.009498204	0.003793526	0.02907521	0.01027295
	0.009818649	-0.02614145	-0.009498205	0.003793526	-0.04391609	-0.01719848	-0.4200227	-0.8506539
	-0.009504793	0.003800362	0.02907521	0.01027295	-0.4200227	-0.8506539	-0.03027135	0.01020078
1.8e+08	-0.04458748	-0.01216428	-0.5159811	-0.7943	0.003926304	-0.027091	-0.009509488	0.005389417
	-0.5159811	-0.7943	-0.026456	0.01550616	-0.00950384	0.005380999	0.02920135	0.009641013
	0.003926304	-0.027091	-0.009503841	0.005380999	-0.04480098	-0.01214309	-0.5162389	-0.7940952
	-0.009509488	0.005389417	0.02920135	0.009641012	-0.5162389	-0.7940952	-0.02653354	0.01566943
1.9e+08	-0.04450819	-0.007289379	-0.6047492	-0.7270515	-0.002270042	-0.02673082	-0.009221827	0.007031668
	-0.6047492	-0.7270515	-0.02157091	0.01999854	-0.009217636	0.007021879	0.0292408	0.009281478
	-0.002270042	-0.02673082	-0.009217636	0.007021879	-0.04471584	-0.007252335	-0.6049978	-0.7268031
	-0.009221828	0.007031668	0.0292408	0.009281477	-0.6049978	-0.7268031	-0.02161333	0.02017757
2e+08	-0.04355629	-0.002758983	-0.6848932	-0.6500236	-0.008476852	-0.02498946	-0.008631082	0.008664577
	-0.6848932	-0.6500236	-0.01575993	0.02330407	-0.008628771	0.008653823	0.02928156	0.009208118
	-0.008476852	-0.02498946	-0.008628771	0.008653823	-0.04375686	-0.002708095	-0.6851256	-0.6497328
	-0.008631083	0.008664577	0.02928156	0.009208118	-0.6851256	-0.6497328	-0.0157647	0.02348999
2.1e+08	-0.04186022	0.001277938	-0.755352	-0.5642983	-0.01438637	-0.02186131	-0.007742317	0.01022509
	-0.755352	-0.5642983	-0.009319376	0.02525372	-0.00774217	0.01021389	0.02941274	0.009412992
	-0.01438637	-0.02186131	-0.007742171	0.01021389	-0.04205307	0.001340776	-0.7555616	-0.5639647
	-0.007742317	0.01022509	0.02941274	0.009412992	-0.7555616	-0.5639647	-0.009285904	0.02543788
2.2e+08	-0.03957139	0.004710807	-0.8151972	-0.4710681	-0.01969102	-0.01740866	-0.006575687	0.01165428
	-0.8151972	-0.4710681	-0.002573656	0.02575219	-0.006577794	0.01164324	0.02971964	0.009866561
	-0.01969102	-0.01740866	-0.006577795	0.01164324	-0.03975628	0.004784031	-0.8153778	-0.470694
	-0.006575687	0.01165428	0.02971964	0.009866561	-0.8153778	-0.470694	-0.002503792	0.02592637
2.3e+08	-0.03685405	0.007470068	-0.8636428	-0.3716255	-0.02409782	-0.0117611	-0.005164198	0.01290103
	-0.8636428	-0.3716255	0.004141976	0.02478169	-0.005168467	0.01289077	0.03027754	0.01051829
	-0.02409782	-0.0117611	-0.005168467	0.01289077	-0.03703099	0.007552534	-0.8637873	-0.3712145
	-0.005164198	0.01290103	0.03027754	0.01051829	-0.8637873	-0.3712145	0.004244881	0.02493877
2.4e+08	-0.03387541	0.009527785	-0.9000519	-0.2673488	-0.02734355	-0.005112153	-0.003550699	0.01392539
	-0.9000519	-0.2673488	0.01050015	0.02240191	-0.003556864	0.01391649	0.03114912	0.01130064
	-0.02734355	-0.005112153	-0.003556864	0.01391649	-0.03404426	0.009618627	-0.9001536	-0.2669032
	-0.003550699	0.01392539	0.03114912	0.01130064	-0.9001536	-0.2669032	0.0106315	0.02253589
2.5e+08	-0.03079411	0.01089525	-0.9239579	-0.1596789	-0.02920811	0.002287941	-0.001783857	0.01470025
	-0.9239579	-0.1596789	0.016199	0.01874599	-0.00179144	0.01469318	0.03237913	0.01213138
	-0.02920811	0.002287941	-0.00179144	0.01469318	-0.0309549	0.01099384	-0.9240107	-0.1592035
	-0.001783857	0.01470025	0.03237913	0.01213138	-0.9240107	-0.1592035	0.01635295	0.01885226
2.6e+08	-0.0277526	0.01161838	-0.9350611	-0.0501064	-0.02952694	0.01014185	8.595513e-05	0.0152121
	-0.9350611	-0.0501064	0.0209775	0.0140114	7.749879e-05	0.01520719	0.03399166	0.01291838
	-0.02952694	0.01014185	7.749872e-05	0.01520719	-0.02790495	0.01172431	-0.9350602	-0.04960789
	8.595506e-05	0.0152121	0.03399166	0.01291838	-0.9350602	-0.04960789	0.02114791	0.01408714
2.7e+08	-0.02486933	0.01177085	-0.9332422	0.05985467	-0.02820017	0.01811771	0.002010864	0.01545962
	-0.9332422	0.05985467	0.02463054	0.008449235	0.002002186	0.01545692	0.03598823	0.01356481
	-0.02820017	0.01811771	0.002002186	0.01545692	-0.02501283	0.01188364	-0.9331822	0.06037185
	0.002010864	0.01545962	0.03598823	0.01356481	-0.9331822	0.06037185	0.02481084	0.008492761
2.8e+08	-0.02223305	0.01144589	-0.9185597	0.1686857	-0.02520053	0.02586355	0.003948748	0.015452
	-0.9185597	0.1686857	0.0270182	0.002348481	0.003940539	0.01545153	0.03834739	0.01397471
	-0.02520053	0.02586355	0.003940539	0.01545153	-0.02236714	0.01156525	-0.9184364	0.1692124
	0.003948748	0.015452	0.03834739	0.01397471	-0.9184364	0.1692124	0.02720198	0.002359907
2.9e+08	-0.01990106	0.01074709	-0.891254	0.2748854	-0.02057637	0.03302282	0.005865689	0.0152054
	-0.891254	0.2748854	0.02807285	-0.003979843	0.005858545	0.01520691	0.04102412	0.01405812
	-0.02057637	0.03302282	0.005858545	0.01520691	-0.0200247	0.01087232	-0.8910652	0.2754145
	0.005865689	0.0152054	0.04102412	0.01405812	-0.8910652	0.2754145	0.02825391	-0.0039992
3e+08	-0.01789862	0.009779065	-0.8517418	0.3769954	-0.01445244	0.03925147	0.007737193	0.01474029
	-0.8517418	0.3769954	0.02780204	-0.01022077	0.007731634	0.01474326	0.04395361	0.01373722
	-0.01445244	0.03925147	0.007731634	0.01474326	-0.01801097	0.009909559	-0.8514845	0.3775184
	0.007737193	0.01474029	0.04395361	0.01373722	-0.8514845	0.3775184	0.02797489	-0.01026834
3.1e+08	-0.01622163	0.008638801	-0.8006071	0.4736172	-0.00702623	0.04423384	0.009547872	0.01407629
	-0.8006071	0.4736172	0.0262865	-0.01607294	0.009544257	0.01408015	0.04705341	0.0129505
	-0.00702623	0.04423384	0.009544257	0.01408015	-0.01632157	0.008773688	-0.8002794	0.4741246
	0.009547872	0.01407629	0.04705341	0.0129505	-0.8002794	0.4741246	0.02644672	-0.01614497
3.2e+08	-0.01484165	0.007408119	-0.7385951	0.5634376	0.001438941	0.04769809	0.01129016	0.01323012
	-0.7385951	0.5634376	0.02367448	-0.02126521	0.01128872	0.0132343	0.05022835	0.01165665
	0.001438941	0.04769809	0.01128872	0.0132343	-0.01492783	0.007545972	-0.7381991	0.5639188
	0.01129016	0.01323012	0.05022835	0.01165665	-0.7381991	0.5639188	0.02381837	-0.02135721
3.3e+08	-0.01371198	0.006147783	-0.666603	0.6452409	0.01062395	0.04942977	0.01296154	0.01221233
	-0.666603	0.6452409	0.02017222	-0.02557128	0.01296221	0.01221604	0.0533756	0.009837143
	0.01062395	0.04942977	0.01296221	0.01221604	-0.01378337	0.006286901	-0.6661382	0.6456885
	0.01296154	0.01221233	0.0533756	0.009837143	-0.6661382	0.6456885	0.02029748	-0.02567823
3.4e+08	-0.01277615	0.004894538	-0.585655	0.7179342	0.02016678	0.0492831	0.0145616	0.01102636
	-0.585655	0.7179342	0.01603135	-0.02882199	0.01456416	0.01102893	0.05639083	0.007497213
	0.02016678	0.0492831	0.01456416	0.01102893	-0.01283167	0.005032694	-0.585126	0.7183376
	0.0145616	0.01102636	0.05639083	0.007497213	-0.585126	0.7183376	0.01613698	-0.02893847
3.5e+08	-0.01197575	0.003659529	-0.4968977	0.7805528	0.02967721	0.04718886	0.01608812	0.009667983
	-0.4968977	0.7805528	0.01153409	-0.03091339	0.01609221	0.009668919	0.05917306	0.004665553
	0.02967721	0.04718886	0.01609221	0.009668919	-0.01201473	0.003794166	-0.496308	0.7809039
	0.01608812	0.009667983	0.05917306	0.004665553	-0.496308	0.7809039	0.01162047	-0.03103403
3.6e+08	-0.01125883	0.002430152	-0.4015771	0.8322776	0.03875373	0.04315971	0.01753404	0.008126936
	-0.4015771	0.8322776	0.006977152	-0.03181193	0.01753903	0.008125728	0.0616313	0.001392462
	0.03875373	0.04315971	0.01753903	0.008125728	-0.01128091	0.002558167	-0.4009323	0.8325662
	0.01753404	0.008126936	0.0616313	0.001392462	-0.4009323	0.8325662	0.007045786	-0.03193169
3.7e+08	-0.01058683	0.001174228	-0.3010172	0.8724416	0.04700018	0.03729121	0.01888436	0.006388786
	-0.3010172	0.8724416	0.002654587	-0.03155515	0.01888954	0.006385191	0.06368833	-0.002253321
	0.04700018	0.03729121	0.01888954	0.006385191	-0.0105924	0.001292286	-0.3003235	0.8726608
	0.01888436	0.006388786	0.06368833	-0.002253321	-0.3003235	0.8726608	0.002708228	-0.03166958
3.8e+08	-0.009940703	-0.000155287	-0.1966104	0.9005369	0.05404311	0.02976011	0.02011449	0.004438654
	-0.1966104	0.9005369	-0.001158399	-0.03024889	0.02011912	0.004432646	0.06528482	-0.006188413
	0.05404311	0.02976011	0.02011912	0.004432646	-0.009930702	-5.089152e-05	-0.1958759	0.9006782
	0.02011449	0.004438654	0.06528482	-0.006188413	-0.1958759	0.9006782	-0.001115956	-0.0303544
3.9e+08	-0.00932426	-0.001611978	-0.08978838	0.9162225	0.05954798	0.02081848	0.02118958	0.002264736
	-0.08978838	0.9162225	-0.004220711	-0.02806035	0.02119285	0.0022565	0.06638205	-0.0103199
	0.05954798	0.02081848	0.02119285	0.0022565	-0.009300578	-0.001524914	-0.08902112	0.9162794
	0.02118958	0.002264736	0.06638205	-0.0103199	-0.08902112	0.9162794	-0.004184886	-0.02815436
4e+08	-0.008766181	-0.003249444	0.01798744	0.9193218	0.06323426	0.01078499	0.02206528	-0.0001375356
	0.01798744	0.9193218	-0.006338344	-0.02520857	0.02206656	-0.0001476005	0.06696303	-0.01455034
	0.06323426	0.01078499	0.02206656	-0.0001476004	-0.008731515	-0.003183268	0.01877771	0.9192887
	0.02206528	-0.0001375356	0.06696303	-0.01455034	0.01877771	0.9192887	-0.00630403	-0.02528977
4.1e+08	-0.008319143	-0.005112014	0.1252497	0.9098283	0.06488835	3.352469e-05	0.0226896	-0.002761978
	0.1252497	0.9098283	-0.007375036	-0.02195158	0.02268848	-0.002773249	0.0670324	-0.01878259
	0.06488835	3.352468e-05	0.02268848	-0.002773249	-0.008277143	-0.005069976	0.1260513	0.9097004
	0.0226896	-0.002761978	0.0670324	-0.01878259	0.1260513	0.9097004	-0.007336924	-0.02202003
4.2e+08	-0.008056158	-0.007227705	0.230542	0.8879001	0.06437428	-0.01102155	0.02300655	-0.005588777
	0.230542	0.8879001	-0.007259387	-0.01857233	0.02300264	-0.005600561	0.06661575	-0.02292521
	0.06437428	-0.01102155	0.02300264	-0.005600561	-0.008011462	-0.007212569	0.2313444	0.8876743
	0.02300655	-0.005588777	0.06661575	-0.02292521	0.2313444	0.8876743	-0.00721212	-0.01862941
4.3e+08	-0.0080665	-0.009601751	0.3324361	0.8538629	0.06164138	-0.02194076	0.02295979	-0.008582605
	0.3324361	0.8538629	-0.005988441	-0.01536265	0.02295294	-0.008594112	0.06575707	-0.0268966
	0.06164138	-0.02194076	0.02295294	-0.008594112	-0.008024462	-0.009615306	0.3332264	0.8535382
	0.02295979	-0.008582605	0.06575707	-0.0268966	0.3332264	0.8535382	-0.005927368	-0.01541096
4.4e+08	-0.008448033	-0.01221142	0.4295508	0.808204	0.05672831	-0.03227745	0.02249738	-0.01169214
	0.4295508	0.808204	-0.003628462	-0.01260718	0.02248794	-0.01170264	0.06451622	-0.03062896
	0.05672831	-0.03227745	0.02248794	-0.01170264	-0.00841477	-0.01225451	0.4303161	0.8077781
	0.02249738	-0.01169214	0.06451622	-0.03062896	0.4303161	0.8077781	-0.003549403	-0.01265077
4.5e+08	-0.009299524	-0.01500323	0.5205679	0.7515657	0.049764	-0.04159595	0.02157672	-0.01485101
	0.5205679	0.7515657	-0.0003109271	-0.01056822	0.02156498	-0.01485983	0.06296469	-0.03407061
	0.049764	-0.04159595	0.02156498	-0.01485983	-0.009281441	-0.01507534	0.5212954	0.7510409
	0.02157672	-0.01485101	0.06296469	-0.03407061	0.5212954	0.7510409	-0.0002107824	-0.01061182
4.6e+08	-0.01071127	-0.01789182	0.6042515	0.6847373	0.04096507	-0.04948959	0.02016869	-0.01798023
	0.6042515	0.6847373	0.003774469	-0.009470104	0.02015523	-0.01798686	0.06118195	-0.03718875
	0.04096507	-0.04948959	0.02015523	-0.01798686	-0.01071527	-0.0179912	0.6049279	0.6841157
	0.02016869	-0.01798023	0.06118195	-0.03718875	0.6049279	0.6841157	0.003897704	-0.009519642
4.7e+08	-0.01275691	-0.02076176	0.6794636	0.6086509	0.03062868	-0.05559892	0.01826129	-0.02099157
	0.6794636	0.6086509	0.008389758	-0.009488071	0.01824669	-0.02099568	0.05925059	-0.03996959
	0.03062868	-0.05559892	0.01824669	-0.02099568	-0.01278942	-0.02088498	0.6800775	0.6079382
	0.01826129	-0.02099157	0.05925059	-0.03996959	0.6800775	0.6079382	0.008536512	-0.009549354
4.8e+08	-0.01548415	-0.02347134	0.7451811	0.5243673	0.0191227	-0.05962724	0.0158619	-0.02379231
	0.7451811	0.5243673	0.01326141	-0.01073679	0.01584691	-0.02379382	0.05725247	-0.04241937
	0.0191227	-0.05962724	0.01584691	-0.02379382	-0.01555161	-0.02361351	0.7457181	0.523569
	0.0158619	-0.02379231	0.05725247	-0.04241937	0.7457181	0.523569	0.01343088	-0.01081636
4.9e+08	-0.01890714	-0.0258591	0.800514	0.4330606	0.006872098	-0.06135501	0.01299882	-0.02629061
	0.800514	0.4330606	0.01809592	-0.01326514	0.01298412	-0.02628971	0.05526387	-0.04456275
	0.006872098	-0.06135501	0.01298412	-0.02628971	-0.01901471	-0.02601365	0.8009621	0.4321851
	0.01299882	-0.02629061	0.05526387	-0.04456275	0.8009621	0.4321851	0.01828567	-0.01336886
5e+08	-0.0230012	-0.02775147	0.8447106	0.3360047	-0.005657705	-0.06065042	0.009720059	-0.02840034
	0.8447106	0.3360047	0.02259431	-0.01705246	0.009706259	-0.02839738	0.0533515	-0.0464417
	-0.005657705	-0.06065042	0.009706259	-0.02839738	-0.02315286	-0.0279105	0.8450599	0.3350622
	0.009720059	-0.02840034	0.0533515	-0.0464417	0.8450599	0.3350622	0.0228007	-0.01718569
5.1e+08	-0.02769766	-0.02897271	0.8771828	0.2345547	-0.01797882	-0.05747727	0.006091928	-0.03004632
	0.8771828	0.2345547	0.02647044	-0.02200869	0.006079405	-0.03004188	0.05156904	-0.04811197
	-0.01797882	-0.05747727	0.006079405	-0.03004188	-0.02789599	-0.02912724	0.8774221	0.233557
	0.006091928	-0.03004632	0.05156904	-0.04811197	0.8774221	0.233557	0.02668846	-0.0221762
5.2e+08	-0.03288339	-0.02935593	0.8975049	0.1301295	-0.02960126	-0.05189846	0.002195601	-0.03116866
	0.8975049	0.1301295	0.02946475	-0.02798026	0.002184483	-0.0311633	0.04995442	-0.04964084
	-0.02960126	-0.05189846	0.002184483	-0.0311633	-0.03312875	-0.02949606	0.8976257	0.12909
