!$
! Info: Touchstone file created by Circ.  Input file=C2M_PCB_93ohms_4p5in_20230620_v3.circ
!$
# Hz S RI R 50
0	0.006871793	2.704754e-24	0.9930978	-2.480164e-24	0.000146584	7.664049e-23	-0.0001428784	1.758278e-20
	0.9930978	-2.335378e-24	0.006690574	1.249713e-24	-0.0001402125	1.725632e-20	1.8403e-06	8.297345e-21
	0.000146584	7.667475e-23	-0.0001402125	1.72561e-20	0.006875144	3.198324e-24	0.9931111	-2.410532e-24
	-0.0001428783	1.758281e-20	1.840279e-06	8.297419e-21	0.9931111	-2.427289e-24	0.006703973	1.699672e-24
1e+07	0.009761111	0.0005317863	0.986988	-0.07770769	0.0004618407	0.002748159	-0.0002505863	-0.0005584204
	0.986988	-0.07770769	0.009592269	0.0006089458	-0.0002486168	-0.0005591366	0.0002948636	0.002821732
	0.0004618407	0.002748159	-0.0002486168	-0.0005591366	0.00994885	0.0005178183	0.9868117	-0.07773578
	-0.0002505863	-0.0005584204	0.0002948636	0.002821732	0.9868117	-0.07773578	0.009779528	0.0005933789
2e+07	0.01183939	-0.001275966	0.9758054	-0.1523657	0.001194521	0.005381379	-0.0003572781	-0.00108844
	0.9758054	-0.1523657	0.01159235	-0.001173185	-0.0003560706	-0.001088953	0.0008555515	0.005519742
	0.001194554	0.005381288	-0.0003560473	-0.001089001	0.01198177	-0.001366934	0.9756587	-0.1523484
	-0.0003572523	-0.001088485	0.0008555715	0.005519739	0.9756587	-0.1523484	0.01173187	-0.001265876
3e+07	0.01301124	-0.004050351	0.9596921	-0.2250235	0.002409967	0.007779265	-0.0005632303	-0.001528485
	0.9596921	-0.2250235	0.01256652	-0.00390728	-0.0005623995	-0.001528667	0.00174974	0.008031386
	0.002409956	0.007779256	-0.0005624076	-0.001528664	0.0131155	-0.004171771	0.9595672	-0.225002
	-0.0005632395	-0.001528482	0.001749732	0.008031403	0.9595672	-0.225002	0.01266586	-0.004029396
4e+07	0.0134973	-0.007161581	0.938537	-0.2958704	0.004047543	0.009928496	-0.0008355983	-0.001924393
	0.938537	-0.2958704	0.01274942	-0.006918586	-0.000834952	-0.001924129	0.00293601	0.01038991
	0.004047544	0.009928499	-0.0008349535	-0.001924126	0.01356719	-0.007300169	0.9384286	-0.2958554
	-0.0008355995	-0.001924391	0.002936007	0.01038991	0.9384286	-0.2958554	0.01281192	-0.007056309
5e+07	0.01339491	-0.01040529	0.9123885	-0.3646748	0.006041455	0.01178635	-0.001145108	-0.002290803
	0.9123885	-0.3646748	0.01225878	-0.009974786	-0.001144463	-0.002290051	0.004373342	0.01258419
	0.006041456	0.01178635	-0.001144464	-0.00229005	0.01343299	-0.0105529	0.9122914	-0.3646724
	-0.00114511	-0.002290802	0.004373339	0.01258419	0.9122914	-0.3646724	0.01228743	-0.0101193
6e+07	0.01276241	-0.01365745	0.8813704	-0.4311368	0.008349332	0.01330332	-0.001495165	-0.002629369
	0.8813704	-0.4311368	0.01117185	-0.01293212	-0.001494396	-0.00262816	0.006045112	0.01458947
	0.008349331	0.01330332	-0.001494393	-0.00262816	0.01277162	-0.01380789	0.8812797	-0.4311512
	-0.001495163	-0.00262937	0.006045115	0.01458947	0.8812797	-0.4311512	0.01116911	-0.01307691
7e+07	0.01164676	-0.01682412	0.8456486	-0.4949406	0.01092001	0.01443501	-0.001888133	-0.002939196
	0.8456486	-0.4949406	0.009555794	-0.01568025	-0.001887157	-0.002937577	0.007927783	0.01638204
	0.01092001	0.01443501	-0.001887154	-0.002937578	0.0116298	-0.01697254	0.8455588	-0.4949742
	-0.001888131	-0.002939199	0.007927785	0.01638204	0.8455588	-0.4949742	0.009524642	-0.01581959
8e+07	0.01009488	-0.01982786	0.8054241	-0.5557742	0.01369565	0.01514422	-0.002326028	-0.003217767
	0.8054241	-0.5557742	0.007478803	-0.01812828	-0.002324758	-0.003215757	0.009993578	0.01794168
	0.01369565	0.01514422	-0.00232476	-0.003215755	0.0100547	-0.01997013	0.8053295	-0.5558285
	-0.002326029	-0.003217765	0.009993576	0.01794168	0.8053295	-0.5558285	0.007422623	-0.01825706
9e+07	0.008158097	-0.02260323	0.7609219	-0.6133358	0.01661356	0.01540206	-0.002810583	-0.003461018
	0.7609219	-0.6133358	0.005014825	-0.02019943	-0.002808934	-0.003458676	0.01221202	0.01925232
	0.01661356	0.01540206	-0.002808936	-0.003458667	0.008098347	-0.02273537	0.7608175	-0.6134124
	-0.002810583	-0.003461009	0.01221202	0.01925233	0.7608175	-0.6134124	0.004937585	-0.02031311
1e+08	0.00590046	-0.02508726	0.7123838	-0.6673504	0.019607	0.01518745	-0.003342877	-0.003662703
	0.7123838	-0.6673504	0.002253128	-0.02182226	-0.003340785	-0.00366014	0.01455092	0.02030165
	0.019607	0.01518745	-0.003340785	-0.003660141	0.00582724	-0.02520387	0.7122603	-0.6674514
	-0.003342877	-0.003662703	0.01455092	0.02030164	0.7122603	-0.6674514	0.002160986	-0.02191504
1.1e+08	0.00340453	-0.02729386	0.6600581	-0.717469	0.02260277	0.01449244	-0.003920373	-0.003817332
	0.6600581	-0.717469	-0.0006868812	-0.02304342	-0.003916937	-0.003815996	0.01697446	0.02108471
	0.02260277	0.01449244	-0.003916937	-0.003815997	0.003329837	-0.02739111	0.6599057	-0.7175813
	-0.003920373	-0.003817333	0.01697446	0.02108471	0.6599057	-0.7175813	-0.0007190426	-0.0231158
1.2e+08	0.0006546225	-0.02918502	0.6043202	-0.7634685	0.0255352	0.0133175	-0.004544796	-0.003922013
	0.6043202	-0.7634685	-0.00382468	-0.02376045	-0.004541512	-0.003921237	0.01945341	0.02160049
	0.0255352	0.0133175	-0.004541512	-0.003921239	0.000579194	-0.029276	0.6041394	-0.7635877
	-0.004544796	-0.003922014	0.01945341	0.02160049	0.6041394	-0.7635877	-0.003850956	-0.02384836
1.3e+08	-0.002281348	-0.03071782	0.545474	-0.8051396	0.02833473	0.01167047	-0.005216265	-0.003967024
	0.545474	-0.8051396	-0.007041945	-0.02394314	-0.005213263	-0.003966026	0.02195567	0.02185002
	0.02833473	0.01167047	-0.005213263	-0.003966028	-0.002360029	-0.03080763	0.5452623	-0.8052592
	-0.005216265	-0.003967025	0.02195567	0.02185002	0.5452623	-0.8052592	-0.007089415	-0.02403834
1.4e+08	-0.005339858	-0.03187321	0.4838444	-0.8422812	0.03093399	0.009569491	-0.005932135	-0.003942326
	0.4838444	-0.8422812	-0.01024069	-0.02358905	-0.005929055	-0.003940767	0.02445063	0.02183959
	0.03093399	0.009569492	-0.005929055	-0.003940768	-0.005424633	-0.03196292	0.4836025	-0.8423979
	-0.005932135	-0.003942327	0.02445063	0.02183959	0.4836025	-0.8423979	-0.01031524	-0.02367714
1.5e+08	-0.008459332	-0.03264575	0.4197749	-0.87472	0.03326815	0.007041675	-0.00668742	-0.003837886
	0.4197749	-0.87472	-0.01333119	-0.02270963	-0.006683868	-0.003835781	0.02690937	0.02157891
	0.03326815	0.007041675	-0.006683868	-0.003835782	-0.008551768	-0.03273438	0.4195025	-0.8748286
	-0.00668742	-0.003837887	0.02690937	0.02157891	0.4195025	-0.8748286	-0.01342884	-0.02278025
1.6e+08	-0.0115805	-0.03304098	0.353617	-0.9023042	0.03527642	0.004122626	-0.007475067	-0.003644008
	0.353617	-0.9023042	-0.01622932	-0.02132792	-0.007470794	-0.003641549	0.0293055	0.02108147
	0.03527642	0.004122626	-0.007470795	-0.00364155	-0.01168104	-0.033127	0.3533148	-0.9024004
	-0.007475067	-0.003644008	0.0293055	0.02108147	0.3533148	-0.9024004	-0.01634295	-0.02137557
1.7e+08	-0.01464891	-0.03307388	0.2857333	-0.924907	0.03690295	0.0008560617	-0.008285918	-0.00335164
	0.2857333	-0.924907	-0.01885659	-0.01947849	-0.008280772	-0.003349088	0.03161531	0.02036364
	0.03690295	0.0008560618	-0.008280773	-0.003349088	-0.014757	-0.03315591	0.2854025	-0.9249868
	-0.008285918	-0.00335164	0.03161531	0.02036364	0.2854025	-0.9249868	-0.01897894	-0.01950134
1.8e+08	-0.01761451	-0.0327675	0.2164926	-0.94243	0.03809807	-0.002707174	-0.009109047	-0.002952707
	0.2164926	-0.94243	-0.02114085	-0.01720643	-0.009103011	-0.002950307	0.03381838	0.01944429
	0.03809807	-0.002707173	-0.009103011	-0.002950308	-0.01772931	-0.03284459	0.2161346	-0.9424909
	-0.009109048	-0.002952707	0.03381838	0.01944429	0.2161346	-0.9424909	-0.02126567	-0.01720481
1.9e+08	-0.02043411	-0.03215161	0.1462693	-0.954801	0.03881918	-0.006509873	-0.009931657	-0.002440465
	0.1462693	-0.954801	-0.02301775	-0.01456705	-0.009924774	-0.002438448	0.03589782	0.01834448
	0.03881918	-0.006509873	-0.009924774	-0.002438448	-0.02055423	-0.03222337	0.1458851	-0.9548375
	-0.009931657	-0.002440465	0.03589782	0.01834448	0.1458851	-0.9548375	-0.02313981	-0.01454244
2e+08	-0.02307047	-0.03126155	0.07543859	-0.9619732	0.03903082	-0.0104893	-0.01073939	-0.001809814
	0.07543859	-0.9619732	-0.02443171	-0.01162433	-0.01073176	-0.001808358	0.03784005	0.01708619
	0.03903082	-0.0104893	-0.01073176	-0.001808358	-0.02319491	-0.03132804	0.07503119	-0.9619829
	-0.01073939	-0.001809814	0.03784005	0.01708619	0.07503119	-0.9619829	-0.0245472	-0.01157902
2.1e+08	-0.02549383	-0.03013723	0.004382157	-0.9639275	0.03870618	-0.01457832	-0.01151649	-0.001057685
	0.004382157	-0.9639275	-0.02533727	-0.008450133	-0.01150823	-0.001056942	0.03963527	0.01569258
	0.03870618	-0.01457832	-0.01150823	-0.001056942	-0.02562168	-0.03019875	0.003952708	-0.9639064
	-0.01151649	-0.001057685	0.03963527	0.01569258	0.003952708	-0.9639064	-0.02544303	-0.008386263
2.2e+08	-0.02768224	-0.02882137	-0.06652391	-0.9606716	0.03782714	-0.01870651	-0.01224633	-0.0001832784
	-0.06652391	-0.9606716	-0.02570019	-0.00512214	-0.01223756	-0.0001833398	0.04127771	0.01418715
	0.03782714	-0.01870651	-0.01223756	-0.0001833399	-0.0278128	-0.02887844	-0.0669728	-0.9606177
	-0.01224633	-0.0001832785	0.04127771	0.01418715	-0.0669728	-0.9606177	-0.0257941	-0.005042077
2.3e+08	-0.02962142	-0.02735843	-0.1369049	-0.9522401	0.03638444	-0.02280092	-0.01291144	0.0008117126
	-0.1369049	-0.9522401	-0.02549827	-0.001722495	-0.0129023	0.0008107632	0.0427642	0.01259244
	0.03638444	-0.02280092	-0.0129023	0.0008107631	-0.02975425	-0.02741175	-0.1373696	-0.9521506
	-0.01291144	0.0008117125	0.0427642	0.01259244	-0.1373696	-0.9521506	-0.02557839	-0.001628343
2.4e+08	-0.03130483	-0.02579392	-0.2063863	-0.9386913	0.03437843	-0.02678767	-0.01349429	0.001922955
	-0.2063863	-0.9386913	-0.02472108	0.001664001	-0.01348491	0.001921049	0.04409586	0.01093102
	0.03437843	-0.02678767	-0.01348491	0.001921049	-0.03143976	-0.02584404	-0.2068647	-0.9385626
	-0.01349429	0.001922955	0.04409586	0.01093102	-0.2068647	-0.9385626	-0.0247857	0.00177034
2.5e+08	-0.03273403	-0.0241718	-0.2746051	-0.9201126	0.03181876	-0.03059288	-0.01397751	0.003143392
	-0.2746051	-0.9201126	-0.02337105	0.004952234	-0.01396803	0.003140522	0.04527676	0.009223772
	0.03181876	-0.03059288	-0.01396803	0.003140522	-0.03287095	-0.0242195	-0.2750938	-0.9199425
	-0.01397751	0.003143392	0.04527676	0.009223772	-0.2750938	-0.9199425	-0.02341886	0.005068755
2.6e+08	-0.03391776	-0.02253461	-0.3412006	-0.8966146	0.02872466	-0.03414406	-0.01434469	0.004463324
	-0.3412006	-0.8966146	-0.02146324	0.008057476	-0.01433527	0.004459447	0.0463137	0.007489955
	0.02872466	-0.03414406	-0.01433527	0.004459447	-0.03405693	-0.0225804	-0.3416953	-0.8964021
	-0.01434469	0.004463324	0.04631371	0.007489955	-0.3416953	-0.8964021	-0.02149282	0.008182372
2.7e+08	-0.03487155	-0.02092164	-0.4058246	-0.8683341	0.02512421	-0.03737069	-0.01458025	0.005870459
	-0.4058246	-0.8683341	-0.01902431	0.01089857	-0.01457095	0.005865537	0.04721614	0.005746696
	0.02512421	-0.03737069	-0.01457095	0.005865537	-0.03501318	-0.02096606	-0.406323	-0.8680761
	-0.01458025	0.005870459	0.04721614	0.005746696	-0.406323	-0.8680761	-0.01903433	0.01102989
2.8e+08	-0.03561746	-0.01936759	-0.4681377	-0.8354304	0.02105466	-0.04020617	-0.01467041	0.007350131
	-0.4681377	-0.8354304	-0.01609272	0.0133984	-0.01466146	0.007344232	0.04799604	0.004009017
	0.02105466	-0.04020617	-0.01466146	0.007344232	-0.03576202	-0.01941128	-0.4686341	-0.8351259
	-0.01467041	0.00735013	0.04799604	0.004009017	-0.4686341	-0.8351259	-0.01608187	0.01353396
2.9e+08	-0.0361826	-0.01790226	-0.5278126	-0.7980884	0.01656156	-0.04258794	-0.01460306	0.008885461
	-0.5278126	-0.7980884	-0.01271796	0.01548619	-0.01459462	0.008878593	0.04866631	0.002288756
	0.01656156	-0.04258794	-0.01459462	0.008878593	-0.03633072	-0.01794534	-0.528304	-0.797737
	-0.01460306	0.008885461	0.04866631	0.002288756	-0.528304	-0.797737	-0.0126853	0.01562368
3e+08	-0.03659852	-0.01654936	-0.5845378	-0.7565152	0.01169839	-0.04445947	-0.01436905	0.01045804
	-0.5845378	-0.7565152	-0.008958945	0.01709884	-0.01436119	0.01045023	0.04924199	0.0005953731
	0.01169839	-0.04445947	-0.01436119	0.01045023	-0.03675085	-0.01659231	-0.5850194	-0.7561152
	-0.01436905	0.01045804	0.04924199	0.000595373	-0.5850194	-0.7561152	-0.008903511	0.01723563
3.1e+08	-0.03690013	-0.01532604	-0.638014	-0.7109377	0.006525773	-0.04577061	-0.01396108	0.01204773
	-0.638014	-0.7109377	-0.004883002	0.01818188	-0.01395398	0.01203906	0.04973858	-0.001064808
	0.006525773	-0.04577061	-0.01395398	0.01203906	-0.03705752	-0.01536911	-0.6384807	-0.710488
	-0.01396108	0.01204773	0.04973858	-0.001064808	-0.6384807	-0.710488	-0.004803935	0.01831519
3.2e+08	-0.0371242	-0.01424255	-0.6879618	-0.6616042	0.001110707	-0.04647859	-0.01337509	0.01363368
	-0.6879618	-0.6616042	-0.0005646511	0.01869111	-0.01336896	0.01362433	0.05017208	-0.002688579
	0.001110707	-0.04647859	-0.01336896	0.01362433	-0.03728769	-0.01428558	-0.6884079	-0.6611068
	-0.01337509	0.01363368	0.05017208	-0.002688579	-0.6884079	-0.6611068	-0.0004620817	0.01881789
3.3e+08	-0.03730863	-0.01330157	-0.7341168	-0.6087876	-0.004474375	-0.04654882	-0.01260966	0.0151943
	-0.7341168	-0.6087876	0.003915365	0.01859309	-0.01260458	0.01518436	0.0505583	-0.004275783
	-0.004474375	-0.04654882	-0.01260458	0.01518436	-0.03747912	-0.01334445	-0.7345393	-0.6082405
	-0.01260966	0.0151943	0.0505583	-0.004275783	-0.7345393	-0.6082405	0.004041604	0.01871034
3.4e+08	-0.03749065	-0.01249886	-0.7762383	-0.5527716	-0.01015266	-0.04595573	-0.01166653	0.01670816
	-0.7762383	-0.5527716	0.008473004	0.01786597	-0.01166259	0.01669783	0.05091273	-0.005829214
	-0.01015266	-0.04595573	-0.01166259	0.01669783	-0.03766928	-0.01254109	-0.7766315	-0.5521778
	-0.01166653	0.01670816	0.05091273	-0.005829214	-0.7766315	-0.5521778	0.008622142	0.01797061
3.5e+08	-0.03770591	-0.01182262	-0.8141039	-0.4938629	-0.01584372	-0.04468295	-0.0105501	0.01815399
	-0.8141039	-0.4938629	0.01302118	0.01650006	-0.01054746	0.01814354	0.05124922	-0.007354541
	-0.01584372	-0.04468295	-0.01054746	0.01814354	-0.03789371	-0.01186365	-0.8144639	-0.4932232
	-0.0105501	0.01815399	0.05124922	-0.007354541	-0.8144639	-0.4932232	0.01319243	0.01658912
3.6e+08	-0.0379871	-0.01125431	-0.8475151	-0.4323836	-0.02146527	-0.0427241	-0.009267794	0.01951155
	-0.8475151	-0.4323836	0.01747251	0.014498	-0.009266421	0.01950117	0.05158082	-0.008860114
	-0.02146527	-0.0427241	-0.009266421	0.01950117	-0.03818521	-0.01129316	-0.8478358	-0.4316999
	-0.009267794	0.01951155	0.05158082	-0.008860114	-0.8478358	-0.4316999	0.01766427	0.0145684
3.7e+08	-0.03836299	-0.01076955	-0.8762966	-0.3686657	-0.02693387	-0.04008272	-0.007829312	0.02076167
	-0.8762966	-0.3686657	0.02174086	0.01187439	-0.007829194	0.02075159	0.05191823	-0.01035667
	-0.02693387	-0.04008272	-0.007829194	0.02075159	-0.03857232	-0.01080513	-0.8765748	-0.3679402
	-0.007829312	0.02076167	0.05191823	-0.01035667	-0.8765748	-0.3679402	0.0219514	0.0119235
3.8e+08	-0.0388571	-0.01033787	-0.9002977	-0.3030595	-0.03216644	-0.03677274	-0.006246879	0.02188683
	-0.9002977	-0.3030595	0.02574254	0.008656012	-0.00624796	0.02187732	0.05227006	-0.01185698
	-0.03216644	-0.03677274	-0.00624796	0.02187732	-0.03907855	-0.01036869	-0.9005274	-0.3022952
	-0.006246879	0.02188683	0.05227006	-0.01185698	-0.9005274	-0.3022952	0.02596958	0.008681232
3.9e+08	-0.03948697	-0.009924947	-0.9193958	-0.2359203	-0.03708137	-0.0328182	-0.004534586	0.02287139
	-0.9193958	-0.2359203	0.02939888	0.004880971	-0.004536727	0.0228626	0.05264232	-0.01337554
	-0.03708137	-0.0328182	-0.004536727	0.0228626	-0.03972118	-0.009949379	-0.9195734	-0.2351198
	-0.004534586	0.02287139	0.05264232	-0.01337554	-0.9195734	-0.2351198	0.02963998	0.004880111
4e+08	-0.04026328	-0.009492129	-0.9334932	-0.1676162	-0.04159987	-0.02825302	-0.002708284	0.02370184
	-0.9334932	-0.1676162	0.03263696	0.0005980025	-0.00271131	0.02369403	0.05303826	-0.01492832
	-0.04159987	-0.02825302	-0.00271131	0.02369403	-0.04051073	-0.009508341	-0.9336144	-0.1667831
	-0.002708284	0.02370184	0.05303826	-0.01492832	-0.9336144	-0.1667831	0.03288931	0.0005691882
4.1e+08	-0.04118907	-0.008998884	-0.9425213	-0.0985204	-0.04564703	-0.0231209	-0.0007850447	0.0243668
	-0.9425213	-0.0985204	0.03539154	-0.004134375	-0.0007887941	0.02436023	0.05345778	-0.01653171
	-0.04564703	-0.0231209	-0.0007887941	0.02436023	-0.04144994	-0.00900482	-0.942582	-0.09765982
	-0.0007850447	0.0243668	0.05345778	-0.01653171	-0.942582	-0.09765982	0.03565203	-0.004192585
4.2e+08	-0.04225998	-0.008403809	-0.9464373	-0.02900943	-0.04915336	-0.01747426	0.00121716	0.02485748
	-0.9464373	-0.02900943	0.03760605	-0.009249556	0.001212982	0.02485226	0.0538979	-0.01820266
	-0.04915336	-0.01747426	0.001212982	0.02485226	-0.04253412	-0.008397141	-0.9464344	-0.02812504
	0.00121716	0.02485748	0.0538979	-0.01820266	-0.9464344	-0.02812504	0.03787167	-0.009338317
4.3e+08	-0.04346312	-0.007665431	-0.9452297	0.04053707	-0.05205566	-0.01137433	0.003279862	0.02516734
	-0.9452297	0.04053707	0.03923437	-0.01467359	0.003275559	0.02516349	0.05435212	-0.01995786
	-0.05205566	-0.01137433	0.003275559	0.02516349	-0.04375004	-0.007643933	-0.9451607	0.04143923
	0.003279862	0.02516734	0.05435212	-0.01995786	-0.9451607	0.04143923	0.03950169	-0.01479335
4.4e+08	-0.04477778	-0.006744192	-0.9389154	0.1097399	-0.0542979	-0.00488973	0.005384466	0.02529206
	-0.9389154	0.1097399	0.04024086	-0.02032689	0.005380329	0.02528984	0.05481107	-0.02181349
	-0.0542979	-0.00488973	0.005380329	0.02528984	-0.04507661	-0.006705446	-0.9387758	0.110655
	0.005384466	0.02529206	0.05481107	-0.02181349	-0.9387758	0.110655	0.04050644	-0.02047812
4.5e+08	-0.04617544	-0.005603385	-0.927539	0.178222	-0.05583226	0.00190435	0.007512545	0.02522972
	-0.927539	0.178222	0.04060141	-0.02612643	0.007508936	0.02522904	0.05526193	-0.02378408
	-0.05583226	0.00190435	0.007508936	0.02522904	-0.04648496	-0.005545191	-0.9273277	0.1791441
	0.007512545	0.02522972	0.05526193	-0.02378408	-0.9273277	0.1791441	0.04086198	-0.02630876
4.6e+08	-0.0476204	-0.004211143	-0.911172	0.2456127	-0.05661996	0.008926665	0.009646223	0.02498043
	-0.911172	0.2456127	0.04030377	-0.03198644	0.009643488	0.02498124	0.05568932	-0.02588288
	-0.05661996	0.008926665	0.009643488	0.02498124	-0.04793894	-0.004131021	-0.9108862	0.246536
	0.009646223	0.02498043	0.05568932	-0.02588288	-0.9108862	0.246536	0.04055604	-0.0321995
4.7e+08	-0.04907005	-0.002540876	-0.889916	0.3115466	-0.05663189	0.01609195	0.01176825	0.02454609
	-0.889916	0.3115466	0.03934789	-0.03782126	0.01176676	0.02454817	0.05607478	-0.02812034
	-0.05663189	0.01609195	0.01176676	0.02454817	-0.04939561	-0.002436922	-0.8895563	0.312466
	0.01176825	0.02454609	0.05607478	-0.02812034	-0.8895563	0.312466	0.0395887	-0.03806384
4.8e+08	-0.05047609	-0.0005730856	-0.8639002	0.3756676	-0.05584896	0.02331127	0.01386241	0.02393011
	-0.8639002	0.3756676	0.03774546	-0.04354569	0.01386251	0.02393327	0.0563979	-0.0305048
	-0.05584896	0.02331127	0.01386251	0.02393327	-0.05080614	-0.0004430706	-0.8634641	0.3765759
	0.01386241	0.02393011	0.0563979	-0.0305048	-0.8634641	0.3765759	0.03797183	-0.04381655
4.9e+08	-0.05178597	0.001703796	-0.8332793	0.4376345	-0.05426268	0.03049371	0.01591362	0.02313765
	-0.8332793	0.4376345	0.0355202	-0.04907842	0.01591562	0.02314161	0.0566363	-0.03304119
	-0.05426268	0.03049371	0.01591562	0.02314161	-0.0521177	0.001861363	-0.8327666	0.4385253
	0.01591362	0.02313765	0.0566363	-0.03304119	-0.8327666	0.4385253	0.03572933	-0.04937569
5e+08	-0.05294334	0.004293039	-0.7982301	0.4971139	-0.05187483	0.03754764	0.01790791	0.02217453
	-0.7982301	0.4971139	0.03270594	-0.05434222	0.01791204	0.02217897	0.05676597	-0.0357316
	-0.05187483	0.03754764	0.01791204	0.02217897	-0.05327355	0.004479388	-0.797642	0.4979817
	0.01790791	0.02217453	0.05676597	-0.0357316	-0.797642	0.4979817	0.03289545	-0.05466386
5.1e+08	-0.05389005	0.007187994	-0.7589566	0.5537942	-0.04869811	0.04438175	0.01983246	0.02104756
	-0.7589566	0.5537942	0.02934766	-0.05926592	0.01983897	0.02105207	0.05676215	-0.03857394
	-0.04869811	0.04438175	0.01983897	0.02105207	-0.05421527	0.007404171	-0.7582934	0.5546315
	0.01983246	0.02104756	0.05676215	-0.03857394	-0.7582934	0.5546315	0.02951535	-0.05960969
5.2e+08	-0.05456755	0.01037294	-0.7156843	0.607376	-0.04475581	0.0509066	0.02167572	0.01976422
