!$
! Info: Touchstone file created by Circ.  Input file=C2M_PCB_93ohms_11p0in_20230620_v3.circ
!$
# Hz S RI R 50
0	0.01271498	4.444618e-24	0.9872548	-4.337798e-24	0.000179622	1.08916e-22	-0.0001759382	2.173049e-20
	0.9872548	-4.193814e-24	0.0125334	3.192074e-24	-0.0001732872	2.140571e-20	3.49368e-05	8.459192e-21
	0.000179622	1.089498e-22	-0.0001732872	2.14055e-20	0.01271829	4.863319e-24	0.9872681	-4.123264e-24
	-0.0001759382	2.173052e-20	3.493678e-05	8.459265e-21	0.9872681	-4.139946e-24	0.01254695	3.477203e-24
1e+07	0.01806406	-0.0011593	0.9709523	-0.1432273	0.0009570439	0.003731239	-0.0003464636	-0.0005056351
	0.9709523	-0.1432273	0.01777422	-0.001069071	-0.0003446493	-0.0005066357	0.0006145402	0.003866562
	0.0009570439	0.003731239	-0.0003446493	-0.0005066357	0.01842075	-0.001215937	0.9706015	-0.1432259
	-0.0003464636	-0.0005056351	0.0006145402	0.003866562	0.9706015	-0.1432259	0.01812961	-0.001129396
2e+07	0.02094664	-0.007053447	0.9365019	-0.2781267	0.002809794	0.007017203	-0.0004629477	-0.001006175
	0.9365019	-0.2781267	0.02023594	-0.006811067	-0.0004622055	-0.0010069	0.001832292	0.007472778
	0.002809802	0.007017109	-0.0004621892	-0.001006951	0.02118724	-0.007273071	0.9362387	-0.2780024
	-0.0004629286	-0.001006224	0.001832312	0.007472775	0.9362387	-0.2780024	0.02046831	-0.00703377
3e+07	0.02094227	-0.01455039	0.8850458	-0.4050689	0.005724208	0.0093783	-0.0007337364	-0.001356884
	0.8850458	-0.4050689	0.01952812	-0.01391564	-0.0007335431	-0.001356965	0.003779898	0.01052094
	0.005724195	0.009378296	-0.0007335504	-0.001356961	0.02108133	-0.01482897	0.8848501	-0.4049144
	-0.0007337448	-0.001356879	0.00377989	0.01052095	0.8848501	-0.4049144	0.01965203	-0.0141929
4e+07	0.01855806	-0.02205543	0.8172905	-0.5228094	0.009346297	0.01063517	-0.00110448	-0.001641842
	0.8172905	-0.5228094	0.01626547	-0.02066056	-0.001104375	-0.001641022	0.006257586	0.01297192
	0.009346298	0.01063517	-0.001104375	-0.00164102	0.01860454	-0.0223566	0.817149	-0.5226515
	-0.00110448	-0.00164184	0.006257583	0.01297192	0.817149	-0.5226515	0.01628995	-0.02095269
5e+07	0.01416889	-0.02883348	0.7345093	-0.6294616	0.0132715	0.01065973	-0.001539657	-0.001896464
	0.7345093	-0.6294616	0.01096708	-0.02622999	-0.001539124	-0.001894721	0.009051987	0.01478005
	0.01327151	0.01065973	-0.001539126	-0.00189472	0.01413247	-0.02913264	0.734409	-0.6293156
	-0.001539658	-0.001896463	0.009051984	0.01478005	0.734409	-0.6293156	0.01090358	-0.02650931
6e+07	0.008176605	-0.03437841	0.6383328	-0.7232126	0.01712248	0.009400634	-0.00206789	-0.002108351
	0.6383328	-0.7232126	0.004196343	-0.03008912	-0.002066489	-0.002105886	0.0119939	0.01591318
	0.01712248	0.009400636	-0.002066487	-0.002105887	0.008069234	-0.03465751	0.6382614	-0.7230879
	-0.002067888	-0.002108352	0.0119939	0.01591318	0.6382614	-0.7230879	0.004058554	-0.03033489
7e+07	0.001031793	-0.03833974	0.5306613	-0.8024565	0.02051698	0.006915734	-0.00270848	-0.002245383
	0.5306613	-0.8024565	-0.003430684	-0.03191016	-0.002705889	-0.002242561	0.0149102	0.01638506
	0.02051698	0.006915735	-0.002705887	-0.002242564	0.0008665551	-0.03858543	0.5306056	-0.8023579
	-0.00270848	-0.002245386	0.0149102	0.01638505	0.5306056	-0.8023579	-0.003626292	-0.03210664
8e+07	-0.006778718	-0.04050943	0.4136066	-0.8658575	0.02310074	0.003370211	-0.003464893	-0.002261807
	0.4136066	-0.8658575	-0.01127227	-0.03155719	-0.003460911	-0.002259093	0.01763998	0.01625527
	0.02310074	0.003370211	-0.003460911	-0.00225909	-0.00698764	-0.04071246	0.4135535	-0.8657865
	-0.003464893	-0.002261804	0.01763998	0.01625527	0.4135535	-0.8657865	-0.01150734	-0.03169362
9e+07	-0.01475684	-0.04081661	0.2894335	-0.9123794	0.02457704	-0.0009753962	-0.004319847	-0.002105875
	0.2894335	-0.9123794	-0.01869817	-0.02907586	-0.00431448	-0.002103819	0.02004744	0.01562311
	0.02457704	-0.0009753956	-0.004314477	-0.002103811	-0.01499415	-0.04097153	0.28937	-0.9123354
	-0.004319841	-0.002105867	0.02004744	0.01562312	0.28937	-0.9123354	-0.01895299	-0.02914664
1e+08	-0.02240646	-0.03931491	0.1604867	-0.9413105	0.02472919	-0.005785416	-0.00523218	-0.001728188
	0.1604867	-0.9413105	-0.02511327	-0.02467674	-0.005225726	-0.001727343	0.02203094	0.01461737
	0.02472919	-0.005785416	-0.005225727	-0.001727344	-0.02265319	-0.03941918	0.1603928	-0.9412892
	-0.00523218	-0.001728188	0.02203094	0.01461737	0.1603928	-0.9412892	-0.02536431	-0.02468069
1.1e+08	-0.02932482	-0.03628144	0.0292603	-0.9521028	0.02343937	-0.01066044	-0.00614131	-0.001101829
	0.0292603	-0.9521028	-0.03006594	-0.0188465	-0.006134243	-0.001103911	0.02352877	0.01339282
	0.02343937	-0.01066044	-0.006134244	-0.001103913	-0.02955812	-0.03635411	0.02913052	-0.952071
	-0.006141311	-0.001101831	0.02352877	0.01339282	0.02913052	-0.952071	-0.03023421	-0.01879894
1.2e+08	-0.03524612	-0.03188177	-0.1016822	-0.9448471	0.02071567	-0.01519347	-0.006984723	-0.0002083575
	-0.1016822	-0.9448471	-0.03329857	-0.01188939	-0.006978184	-0.0002122076	0.02453303	0.01210397
	0.02071567	-0.01519347	-0.006978185	-0.0002122088	-0.03547789	-0.031932	-0.1018382	-0.944796
	-0.006984724	-0.0002083586	0.02453303	0.01210396	-0.1018382	-0.944796	-0.03343484	-0.0118285
1.3e+08	-0.03986488	-0.02642808	-0.2299559	-0.9198414	0.0166673	-0.01898524	-0.007681956	0.0009489
	-0.2299559	-0.9198414	-0.03454039	-0.004327526	-0.007676	0.0009438579	0.02507121	0.01089916
	0.0166673	-0.01898524	-0.007676001	0.0009438571	-0.04009832	-0.02645535	-0.2301313	-0.9197614
	-0.007681957	0.0009488991	0.02507121	0.01089916	-0.2301313	-0.9197614	-0.03466592	-0.004249941
1.4e+08	-0.04299695	-0.02029481	-0.3532202	-0.8776809	0.01151172	-0.02167391	-0.008154325	0.002338548
	-0.3532202	-0.8776809	-0.033708	0.003273751	-0.00814895	0.002332362	0.02521081	0.009911986
	0.01151172	-0.02167391	-0.008148951	0.002332361	-0.04323018	-0.02029711	-0.3534079	-0.8775681
	-0.008154326	0.002338547	0.02521081	0.009911983	-0.3534079	-0.8775681	-0.03382365	0.003375861
1.5e+08	-0.04456845	-0.01387796	-0.4692414	-0.8192627	0.005560362	-0.02296263	-0.008334264	0.003903802
	-0.4692414	-0.8192627	-0.03088149	0.0103589	-0.008329702	0.003896387	0.0250522	0.00925
	0.005560362	-0.02296263	-0.008329703	0.003896387	-0.04479702	-0.0138551	-0.4694333	-0.8191125
	-0.008334265	0.003903801	0.0250522	0.009249998	-0.4694333	-0.8191125	-0.03097943	0.01048777
1.6e+08	-0.04461068	-0.007565839	-0.5759277	-0.7457585	-0.0008007198	-0.02264295	-0.0081737	0.005568077
	-0.5759277	-0.7457585	-0.0262874	0.01642364	-0.008170369	0.005559501	0.0247207	0.008988299
	-0.0008007197	-0.02264295	-0.00817037	0.005559501	-0.04482988	-0.007519634	-0.5761161	-0.7455688
	-0.008173701	0.005568077	0.0247207	0.008988297	-0.5761161	-0.7455688	-0.02635854	0.01657573
1.7e+08	-0.04324935	-0.001711714	-0.6713618	-0.6586017	-0.007135233	-0.02061243	-0.007649614	0.007242897
	-0.6713618	-0.6586017	-0.02027675	0.02104996	-0.007647949	0.007233412	0.0243568	0.009163981
	-0.007135233	-0.02061243	-0.007647949	0.007233412	-0.04345544	-0.001645618	-0.6715386	-0.6583719
	-0.007649614	0.007242897	0.0243568	0.00916398	-0.6715386	-0.6583719	-0.02031401	0.02121756
1.8e+08	-0.04068921	0.00338643	-0.7538352	-0.5594628	-0.01298554	-0.0168858	-0.006766415	0.008837485
	-0.7538352	-0.5594628	-0.01329501	0.02393483	-0.006766754	0.00882758	0.02410592	0.009773708
	-0.01298554	-0.0168858	-0.006766754	0.00882758	-0.04087975	0.003468451	-0.7539936	-0.5591939
	-0.006766415	0.008837485	0.02410592	0.009773707	-0.7539936	-0.5591939	-0.01329449	0.02410821
1.9e+08	-0.03719322	0.0075032	-0.8218747	-0.4502231	-0.0179034	-0.01159858	-0.005554494	0.01026796
	-0.8218747	-0.4502231	-0.005847232	0.02490895	-0.005556992	0.01025826	0.02410773	0.01077409
	-0.0179034	-0.01159858	-0.005556992	0.01025826	-0.03736733	0.007596977	-0.8220056	-0.4499156
	-0.005554494	0.01026796	0.02410773	0.01077409	-0.8220056	-0.4499156	-0.005808318	0.02507762
2e+08	-0.03306072	0.01049442	-0.8742695	-0.3329413	-0.02148073	-0.005002474	-0.004065648	0.01146553
	-0.8742695	-0.3329413	0.001540925	0.0239465	-0.004070202	0.01145671	0.02448515	0.01208377
	-0.02148073	-0.005002474	-0.004070202	0.01145671	-0.0332183	0.01059647	-0.8743656	-0.3325995
	-0.004065648	0.01146553	0.02448515	0.01208377	-0.8743656	-0.3325995	0.001615377	0.02410064
2.1e+08	-0.02860311	0.01230133	-0.9100939	-0.2098278	-0.02337989	0.00254628	-0.002365934	0.0123821
	-0.9100939	-0.2098278	0.008362008	0.02116411	-0.0023722	0.01237477	0.02533525	0.01358963
	-0.02337989	0.00254628	-0.0023722	0.01237477	-0.02874467	0.01240868	-0.9101479	-0.2094547
	-0.002365934	0.0123821	0.02533525	0.01358963	-0.9101479	-0.2094547	0.008466832	0.0212955
2.2e+08	-0.02412042	0.01294662	-0.9287307	-0.08319535	-0.02335971	0.01060695	-0.0005270835	0.01299289
	-0.9287307	-0.08319535	0.01416484	0.01680924	-0.000534484	0.0129875	0.02672133	0.01515463
	-0.02335971	0.01060695	-0.0005344841	0.0129875	-0.02424676	0.0130569	-0.9287367	-0.08279684
	-0.0005270836	0.01299289	0.02672133	0.01515463	-0.9287367	-0.08279684	0.0142926	0.01691168
2.3e+08	-0.0198811	0.01252494	-0.9298832	0.04457696	-0.02129576	0.01868024	0.001382159	0.01329519
	-0.9298832	0.04457696	0.01858675	0.011239	0.001374325	0.01329196	0.02866604	0.01662701
	-0.02129576	0.01868024	0.001374325	0.01329196	-0.01999305	0.0126363	-0.9298353	0.04499341
	0.001382159	0.01329519	0.02866604	0.01662701	-0.9298353	0.04499341	0.01872903	0.01130892
2.4e+08	-0.01610567	0.01118884	-0.9135814	0.1710868	-0.01719476	0.02623979	0.003303376	0.0133045
	-0.9135814	0.1710868	0.02137977	0.004891339	0.003295839	0.0133034	0.03115048	0.0178532
	-0.01719476	0.02623979	0.003295838	0.0133034	-0.01620393	0.01129959	-0.9134739	0.1715144
	0.003303375	0.0133045	0.03115048	0.0178532	-0.9134739	0.1715144	0.02152781	0.004927647
2.5e+08	-0.01295498	0.009129502	-0.8801902	0.2939646	-0.01119918	0.0327665	0.005193436	0.01304777
	-0.8801902	0.2939646	0.02242726	-0.001749884	0.005186901	0.01304847	0.03411355	0.0186887
	-0.01119918	0.0327665	0.005186901	0.01304847	-0.01304029	0.009238286	-0.8800192	0.2943944
	0.005193436	0.01304777	0.03411355	0.0186887	-0.8800192	0.2943944	0.02257242	-0.001745784
2.6e+08	-0.01052605	0.006557976	-0.8303963	0.4109107	-0.003583701	0.03778385	0.007026359	0.01255587
	-0.8303963	0.4109107	0.02174956	-0.008193083	0.007021318	0.01255784	0.0374562	0.01900987
	-0.003583701	0.03778385	0.007021318	0.01255784	-0.01059891	0.006663289	-0.8301605	0.4113324
	0.007026359	0.01255587	0.0374562	0.01900987	-0.8301605	0.4113324	0.02188456	-0.008217336
2.7e+08	-0.008853229	0.003685165	-0.7651981	0.5197499	0.005258408	0.0408908	0.008791653	0.01185539
	-0.7651981	0.5197499	0.01950104	-0.01397603	0.008788341	0.01185787	0.04104902	0.0187239
	0.005258408	0.0408908	0.008788341	0.01185787	-0.00891431	0.003785525	-0.7648952	0.5201548
	0.008791653	0.01185539	0.04104902	0.0187239	-0.7648952	0.5201548	0.01961983	-0.01402323
2.8e+08	-0.007914906	0.0007041511	-0.6858815	0.6184697	0.0148363	0.04179191	0.01048982	0.01096289
	-0.6858815	0.6184697	0.01595458	-0.01870153	0.0104883	0.01096521	0.04474231	0.01777627
	0.0148363	0.04179191	0.0104883	0.01096521	-0.007964785	0.0007981022	-0.6855128	0.6188453
	0.01048982	0.01096289	0.04474231	0.01777627	-0.6855128	0.6188453	0.01605336	-0.01876472
2.9e+08	-0.007645447	-0.002222605	-0.5939952	0.7052606	0.02459034	0.04031947	0.01212543	0.009880879
	-0.5939952	0.7052606	0.01147881	-0.02206625	0.0121254	0.009882359	0.04837664	0.01615426
	0.02459034	0.04031947	0.0121254	0.009882359	-0.00768498	-0.002137001	-0.5935634	0.7055976
	0.01212543	0.009880879	0.04837664	0.01615426	-0.5935634	0.7055976	0.01155564	-0.02213801
3e+08	-0.007949278	-0.004972299	-0.4913142	0.7785512	0.03392609	0.0364495	0.01369997	0.008598025
	-0.4913142	0.7785512	0.006508225	-0.02388253	0.01370086	0.008598073	0.05179664	0.01388826
	0.03392609	0.0364495	0.01370086	0.008598073	-0.007979459	-0.004896689	-0.4908228	0.7788383
	0.01369997	0.008598025	0.05179664	0.01388826	-0.4908228	0.7788383	0.006563589	-0.02395527
3.1e+08	-0.008716278	-0.007465028	-0.3798036	0.8370303	0.04225105	0.03030733	0.01520371	0.007090984
	-0.3798036	0.8370303	0.001508797	-0.02409069	0.01520482	0.007089334	0.05486155	0.01104811
	0.04225105	0.03030733	0.01520482	0.007089334	-0.008738361	-0.007401295	-0.3792578	0.8372566
	0.01520371	0.007090984	0.05486155	0.01104811	-0.3792578	0.8372566	0.001545529	-0.02415731
3.2e+08	-0.009836607	-0.009661792	-0.2615785	0.8796737	0.04901205	0.02216439	0.01661092	0.005331075
	-0.2615785	0.8796737	-0.003058292	-0.02276167	0.0166116	0.00532776	0.05745578	0.007737044
	0.04901205	0.02216439	0.0166116	0.00532776	-0.009852434	-0.009612087	-0.2609883	0.8798295
	0.01661092	0.005331075	0.05745578	0.007737043	-0.2609883	0.8798295	-0.003035873	-0.02281642
3.3e+08	-0.01121329	-0.01155892	-0.1388699	0.9057553	0.05373097	0.01242576	0.0178765	0.003291577
	-0.1388699	0.9057553	-0.006771704	-0.02009011	0.01787596	0.003286857	0.05949645	0.004083063
	0.05373097	0.01242576	0.01787596	0.003286857	-0.0112252	-0.01152503	-0.1382416	0.9058326
	0.0178765	0.003291577	0.05949645	0.004083063	-0.1382416	0.9058326	-0.006757518	-0.02012854
3.4e+08	-0.01277118	-0.01317785	-0.0139691	0.9148575	0.05603654	0.001609092	0.01893696	0.0009565788
	-0.0139691	0.9148575	-0.00928127	-0.01637776	0.01893467	0.0009509724	0.06093846	0.0002286472
	0.05603654	0.001609092	0.01893467	0.0009509724	-0.01278215	-0.01316156	-0.01331555	0.9148493
	0.01893696	0.0009565788	0.06093846	0.0002286471	-0.01331555	0.9148493	-0.009268325	-0.01639751
3.5e+08	-0.01446258	-0.0145544	0.1107982	0.9068749	0.05568982	-0.009683534	0.01971384	-0.001671174
	0.1107982	0.9068749	-0.01033406	-0.01201006	0.01970958	-0.001676935	0.06177548	-0.003679984
	0.05568982	-0.009683534	0.01970958	-0.001676935	-0.01447617	-0.01455693	0.111466	0.9067757
	0.01971384	-0.001671174	0.06177548	-0.003679984	0.111466	0.9067757	-0.01031473	-0.01201073
3.6e+08	-0.01626799	-0.01572651	0.2331203	0.8820148	0.05260314	-0.0207999	0.02012122	-0.004563914
	0.2331203	0.8820148	-0.009792451	-0.007426439	0.02011489	-0.004569057	0.06203986	-0.007503454
	0.05260314	-0.0207999	0.02011489	-0.004569057	-0.01628845	-0.01574857	0.2337883	0.8818197
	0.02012122	-0.004563914	0.06203986	-0.007503454	0.2337883	0.8818197	-0.009759397	-0.007409938
3.7e+08	-0.0181926	-0.0167233	0.3507402	0.8407879	0.0468494	-0.0310751	0.02007427	-0.007665688
	0.3507402	0.8407879	-0.007644018	-0.00308703	0.02006616	-0.007669467	0.06179773	-0.0111189
	0.0468494	-0.0310751	0.02006616	-0.007669467	-0.01822462	-0.01676458	0.3513953	0.8404956
	0.02007427	-0.007665688	0.06179773	-0.0111189	0.3513953	0.8404956	-0.007590528	-0.003057165
3.8e+08	-0.02026081	-0.01755583	0.4614871	0.7840052	0.03866309	-0.03987118	0.01949974	-0.01089232
	0.4614871	0.7840052	-0.004002573	0.0005614971	0.01949043	-0.01089415	0.06114353	-0.01442765
	0.03866309	-0.03987118	0.01949043	-0.01089415	-0.02030954	-0.01761501	0.4621138	0.7836152
	0.01949974	-0.01089232	0.06114353	-0.01442765	0.4621138	0.7836152	-0.003923143	0.0005989486
3.9e+08	-0.02250592	-0.01821084	0.5633246	0.7127596	0.02843092	-0.04661602	0.01834536	-0.01413545
	0.5633246	0.7127596	0.0009009381	0.003119808	0.01833553	-0.01413493	0.06019217	-0.01736169
	0.02843092	-0.04661602	0.01833553	-0.01413493	-0.02257645	-0.0182852	0.5639087	0.7122738
	0.01834536	-0.01413545	0.06019217	-0.01736169	0.5639087	0.7122738	0.001010211	0.003157793
4e+08	-0.02496074	-0.01864763	0.6543769	0.6284105	0.01667347	-0.05083965	0.0165879	-0.01726955
	0.6543769	0.6284105	0.00673501	0.004265177	0.01657839	-0.01726667	0.0590703	-0.01988737
	0.01667347	-0.05083965	0.01657839	-0.01726667	-0.02505785	-0.01873311	0.6549034	0.6278334
	0.0165879	-0.01726955	0.0590703	-0.01988737	0.6549034	0.6278334	0.006875982	0.004295639
4.1e+08	-0.02764502	-0.0187988	0.7329709	0.5325602	0.004018485	-0.05220528	0.01423801	-0.02016151
	0.7329709	0.5325602	0.01309226	0.003776255	0.01422972	-0.02015662	0.05790665	-0.02200664
	0.004018485	-0.05220528	0.01422972	-0.02015662	-0.02777279	-0.01888988	0.7334248	0.5318994
	0.01423801	-0.02016151	0.05790665	-0.02200664	0.7334248	0.5318994	0.01326451	0.003790776
4.2e+08	-0.03055521	-0.01857545	0.7976644	0.427024	-0.008834015	-0.05053361	0.01134195	-0.02268194
	0.7976644	0.427024	0.01951952	0.001549225	0.01133546	-0.02267559	0.05682306	-0.0237568
	-0.008834015	-0.05053361	0.01133546	-0.02267559	-0.03071664	-0.01866518	0.7980327	0.4262883
	0.01134195	-0.02268194	0.05682306	-0.0237568	0.7980327	0.4262883	0.01972067	0.001539605
4.3e+08	-0.03365535	-0.0178742	0.8472788	0.3138016	-0.02115076	-0.04581816	0.00797897	-0.02471571
	0.8472788	0.3138016	0.02555176	-0.002393489	0.007974592	-0.02470867	0.05592507	-0.02520719
	-0.02115076	-0.04581816	0.007974592	-0.02470867	-0.03385168	-0.01795469	0.8475494	0.3130039
	0.00797897	-0.02471571	0.05592507	-0.02520719	0.8475494	0.3130039	0.02577699	-0.002434408
4.4e+08	-0.03687026	-0.01658921	0.880922	0.1950368	-0.0322085	-0.03823005	0.004255313	-0.02617143
	0.880922	0.1950368	0.03074607	-0.007904766	0.004253169	-0.02616479	0.05529441	-0.02645405
	-0.0322085	-0.03823005	0.004253169	-0.02616479	-0.03710086	-0.01665179	0.881083	0.1941898
	0.004255313	-0.02617143	0.05529441	-0.02645405	0.881083	0.1941898	0.03098892	-0.007983231
4.5e+08	-0.04008279	-0.01462504	0.8980071	0.07297663	-0.04133734	-0.02811256	0.0002956184	-0.02698846
	0.8980071	0.07297663	0.03471507	-0.01472419	0.0002952781	-0.02698304	0.05498187	-0.02761277
	-0.04133734	-0.02811256	0.0002952781	-0.02698304	-0.04034472	-0.01466109	0.8980508	0.07209641
	0.0002956184	-0.02698846	0.05498187	-0.02761277	0.8980508	0.07209641	0.03496777	-0.01484418
4.6e+08	-0.04313483	-0.0119119	0.8982641	-0.05007617	-0.0479616	-0.01596516	-0.003767746	-0.02714004
	0.8982641	-0.05007617	0.03715563	-0.02249637	-0.003767	-0.02713657	0.05500348	-0.0288097
	-0.0479616	-0.01596516	-0.003767	-0.02713657	-0.04342293	-0.01191292	0.8981837	-0.05097286
	-0.003767746	-0.02714004	0.05500348	-0.0288097	0.8981837	-0.05097286	0.03740951	-0.02266025
4.7e+08	-0.0458333	-0.008419359	0.8817488	-0.1718051	-0.0516364	-0.002416631	-0.007805211	-0.0266327
	0.8817488	-0.1718051	0.03787129	-0.03079872	-0.007804421	-0.02663148	0.05533786	-0.03017123
	-0.0516364	-0.002416631	-0.007804421	-0.02663148	-0.04614004	-0.008378333	0.8815427	-0.1727009
	-0.007805211	-0.0266327	0.05533786	-0.03017123	0.8815427	-0.1727009	0.0381174	-0.03100607
4.8e+08	-0.04796094	-0.004170131	0.8488385	-0.2899305	-0.05207584	0.01180889	-0.01169977	-0.02550213
	0.8488385	-0.2899305	0.03678618	-0.03917167	-0.01170006	-0.02550315	0.05592782	-0.03181446
	-0.05207584	0.01180889	-0.01170006	-0.02550315	-0.04827671	-0.004081323	0.8485041	-0.2908062
	-0.01169977	-0.02550213	0.05592782	-0.03181446	0.8485041	-0.2908062	0.03701596	-0.03942028
4.9e+08	-0.04929172	0.0007499601	0.8002208	-0.4022585	-0.04917282	0.02593284	-0.01535411	-0.02380667
	0.8002208	-0.4022585	0.03395056	-0.04715467	-0.01535659	-0.02380944	0.05668378	-0.03383646
	-0.04917282	0.02593284	-0.01535659	-0.02380944	-0.0496053	0.0008894918	0.7997606	-0.4030953
	-0.01535411	-0.02380667	0.05668378	-0.03383646	0.7997606	-0.4030953	0.03415636	-0.04743992
5e+08	-0.04960893	0.006186924	0.7368735	-0.5067159	-0.04300738	0.03916651	-0.01869465	-0.0216178
	0.7368735	-0.5067159	0.02953472	-0.05431886	-0.01870019	-0.0216214	0.05749023	-0.03630656
	-0.04300738	0.03916651	-0.01870019	-0.0216214	-0.0499081	0.006377364	0.736293	-0.5074967
	-0.01869465	-0.0216178	0.05749023	-0.03630656	0.736293	-0.5074967	0.02971051	-0.05463459
5.1e+08	-0.04872651	0.01191758	0.6600465	-0.6013999	-0.03384519	0.0507557	-0.02167202	-0.01901149
	0.6600465	-0.6013999	0.0238171	-0.06029879	-0.02168119	-0.01901464	0.05821492	-0.0392589
	-0.03384519	0.0507557	-0.02168119	-0.01901464	-0.04899883	0.01215618	0.6593526	-0.6021062
	-0.02167202	-0.01901149	0.05821492	-0.0392589	0.6593526	-0.6021062	0.02395854	-0.06063766
5.2e+08	-0.04651036	0.0176571	0.5712288	-0.6846016	-0.02212465	0.06002419	-0.02425841	-0.01605995
	0.5712288	-0.6846016	0.0171608	-0.06481902	-0.02427124	-0.0160611	0.05871937	-0.04269013
