!$
! Info: Touchstone file created by Circ.  Input file=C2M_PCB_93ohms_7p5in_20230620_v3.circ
!$
# Hz S RI R 50
0	0.00957722	3.516959e-24	0.9903925	-3.345119e-24	0.0001619324	9.165505e-23	-0.0001582369	1.950969e-20
	0.9903925	-3.200706e-24	0.009395834	2.152065e-24	-0.0001555779	1.9184e-20	1.721585e-05	8.372284e-21
	0.0001619325	9.16891e-23	-0.0001555779	1.918379e-20	0.009580553	3.975649e-24	0.9904058	-3.208125e-24
	-0.0001582369	1.950972e-20	1.721583e-05	8.372358e-21	0.9904058	-3.224846e-24	0.009409306	2.525445e-24
1e+07	0.01363957	-0.0001121244	0.9801141	-0.1081508	0.0006750047	0.003212305	-0.0002967608	-0.0005374065
	0.9801141	-0.1081508	0.0134144	-3.094577e-05	-0.0002948554	-0.0005382586	0.0004255914	0.003311549
	0.0006750047	0.003212305	-0.0002948554	-0.0005382586	0.01390675	-0.000143077	0.9798562	-0.1081681
	-0.0002967608	-0.0005374065	0.0004255914	0.003311549	0.9798562	-0.1081681	0.01368075	-6.447978e-05
2e+07	0.01625898	-0.003654135	0.959697	-0.2112193	0.001889699	0.006194471	-0.0004127276	-0.001055
	0.959697	-0.2112193	0.01579209	-0.003502007	-0.0004117253	-0.001055641	0.001243783	0.006458803
	0.001889721	0.006194377	-0.0004117052	-0.00105569	0.0164515	-0.003801871	0.9594931	-0.2111561
	-0.0004127048	-0.001055047	0.001243803	0.0064588	0.9594931	-0.2111561	0.01597928	-0.003652265
3e+07	0.01721592	-0.008533689	0.9295819	-0.3102217	0.003869676	0.008686565	-0.0006578078	-0.001451124
	0.9295819	-0.3102217	0.01629658	-0.008210365	-0.0006572866	-0.001451326	0.002568869	0.009288598
	0.003869663	0.008686559	-0.0006572943	-0.001451322	0.0173442	-0.008726836	0.9294185	-0.3101419
	-0.0006578167	-0.00145112	0.002568861	0.009288615	0.9294185	-0.3101419	0.01641507	-0.008403745
4e+07	0.01683117	-0.0137488	0.8898394	-0.4049465	0.006462722	0.0106069	-0.0009850058	-0.001788325
	0.8898394	-0.4049465	0.01528964	-0.01307248	-0.0009846898	-0.001787898	0.004308815	0.01180936
	0.006462723	0.0106069	-0.0009846909	-0.001787895	0.01690074	-0.01396497	0.8897078	-0.4048677
	-0.0009850067	-0.001788323	0.004308812	0.01180936	0.8897078	-0.4048677	0.01534447	-0.01328489
5e+07	0.01527239	-0.01890765	0.8408339	-0.4946158	0.009494721	0.01185954	-0.001356118	-0.002091844
	0.8408339	-0.4946158	0.01299729	-0.01763744	-0.001355709	-0.002090714	0.006367099	0.01399154
	0.009494721	0.01185954	-0.001355711	-0.002090714	0.01528794	-0.01913227	0.8407256	-0.494548
	-0.001356119	-0.002091843	0.006367096	0.01399154	0.8407256	-0.494548	0.01299381	-0.01785253
6e+07	0.01267963	-0.02374467	0.7830903	-0.5783952	0.01281477	0.012359	-0.001782084	-0.002362889
	0.7830903	-0.5783952	0.00962574	-0.02159932	-0.001781332	-0.002361098	0.008680604	0.01579533
	0.01281477	0.012359	-0.00178133	-0.002361098	0.01264681	-0.02396675	0.7829973	-0.5783446
	-0.001782082	-0.002362889	0.008680608	0.01579533	0.7829973	-0.5783446	0.009569668	-0.02180458
7e+07	0.009198821	-0.02805508	0.7172466	-0.655475	0.01625406	0.01205165	-0.002272673	-0.00259525
	0.7172466	-0.655475	0.005393964	-0.02472894	-0.002271369	-0.002592902	0.01117626	0.01719321
	0.01625406	0.01205165	-0.002271367	-0.002592904	0.009123501	-0.02826597	0.7171602	-0.6554452
	-0.002272672	-0.002595252	0.01117626	0.01719321	0.7171602	-0.6554452	0.005292362	-0.02491381
8e+07	0.004991352	-0.03167962	0.6440354	-0.7251055	0.01963442	0.01091973	-0.002835492	-0.002776577
	0.6440354	-0.7251055	0.0005401153	-0.02685869	-0.002833433	-0.002773806	0.01377667	0.01817304
	0.01963442	0.01091973	-0.002833434	-0.002773804	0.00488007	-0.0318724	0.6439469	-0.7250979
	-0.002835493	-0.002776575	0.01377667	0.01817304	0.6439469	-0.7250979	0.000401213	-0.02701448
9e+07	0.0002341915	-0.03450057	0.5642638	-0.7866112	0.02277662	0.008982606	-0.003474332	-0.002889207
	0.5642638	-0.7866112	-0.004680591	-0.02787816	-0.00347136	-0.00288623	0.01640449	0.01873853
	0.02277661	0.008982606	-0.00347136	-0.00288622	9.465235e-05	-0.03466957	0.5641645	-0.7866268
	-0.003474329	-0.002889198	0.01640449	0.01873854	0.5641645	-0.7866268	-0.004847262	-0.02799804
1e+08	-0.004872689	-0.03643293	0.4787878	-0.8394133	0.02550701	0.006295063	-0.004186888	-0.002910568
	0.4787878	-0.8394133	-0.009989657	-0.02772732	-0.004182949	-0.002907692	0.01898579	0.01890768
	0.02550701	0.006295063	-0.004182949	-0.002907693	-0.005029131	-0.03657236	0.4786638	-0.8394525
	-0.004186888	-0.002910569	0.01898579	0.01890768	0.4786638	-0.8394525	-0.01017078	-0.02780485
1.1e+08	-0.01013233	-0.03752779	0.3885371	-0.8828928	0.02766136	0.002954258	-0.004961448	-0.002821886
	0.3885371	-0.8828928	-0.01511526	-0.02653312	-0.004956187	-0.002820794	0.021451	0.01871693
	0.02766136	0.002954258	-0.004956187	-0.002820796	-0.01028571	-0.03764248	0.3883781	-0.8829335
	-0.004961448	-0.002821888	0.021451	0.01871692	0.3883781	-0.8829335	-0.01523302	-0.02657442
1.2e+08	-0.0154605	-0.03774039	0.2945935	-0.9167232	0.02910925	-0.0009165005	-0.00578989	-0.002603376
	0.2945935	-0.9167232	-0.0199285	-0.02424268	-0.005784515	-0.002603153	0.02374874	0.0182116
	0.02910925	-0.0009165002	-0.005784515	-0.002603155	-0.01561719	-0.03784367	0.2944032	-0.9167577
	-0.00578989	-0.002603378	0.02374874	0.01821159	0.2944032	-0.9167577	-0.02003618	-0.02428329
1.3e+08	-0.02066628	-0.03707966	0.1979446	-0.9406332	0.02973919	-0.005169507	-0.00665173	-0.002231175
	0.1979446	-0.9406332	-0.02416326	-0.02094694	-0.006646154	-0.00223121	0.02583398	0.01744407
	0.02973919	-0.005169507	-0.006646155	-0.002231211	-0.02083098	-0.03717416	0.1977241	-0.9406525
	-0.006651731	-0.002231176	0.02583398	0.01744406	0.1977241	-0.9406525	-0.02428528	-0.02097869
1.4e+08	-0.02558648	-0.03560305	0.09961313	-0.9544377	0.02947173	-0.009635411	-0.007518768	-0.001686714
	0.09961313	-0.9544377	-0.0276097	-0.01679442	-0.007512626	-0.001686983	0.02767516	0.01647443
	0.02947173	-0.009635411	-0.007512627	-0.001686984	-0.02576141	-0.03568731	0.0993657	-0.954437
	-0.007518769	-0.001686715	0.02767516	0.01647443	0.0993657	-0.954437	-0.02774904	-0.01680363
1.5e+08	-0.03008179	-0.03339902	0.0006342647	-0.9580591	0.02826176	-0.01413034	-0.008356718	-0.0009582071
	0.0006342647	-0.9580591	-0.03010257	-0.01197025	-0.008349798	-0.0009590262	0.0292544	0.01536583
	0.02826176	-0.01413034	-0.008349798	-0.0009590268	-0.03026651	-0.03347071	0.0003632413	-0.958032
	-0.008356719	-0.0009582077	0.0292544	0.01536583	0.0003632414	-0.958032	-0.03025215	-0.01194794
1.6e+08	-0.03403906	-0.03057945	-0.09795951	-0.9515177	0.02610091	-0.01846307	-0.009127332	-4.202876e-05
	-0.09795951	-0.9515177	-0.0315215	-0.006685756	-0.009119678	-4.379357e-05	0.03056793	0.01418228
	0.02610091	-0.01846307	-0.009119679	-4.379392e-05	-0.03423168	-0.03063679	-0.09825003	-0.9514593
	-0.009127332	-4.202913e-05	0.03056793	0.01418227	-0.09825003	-0.9514593	-0.03167127	-0.006628474
1.7e+08	-0.0373744	-0.02727163	-0.1951447	-0.9349354	0.02301857	-0.02244185	-0.009790521	0.001056334
	-0.1951447	-0.9349354	-0.03179335	-0.001169837	-0.009782349	0.001053248	0.03162538	0.0129854
	0.02301857	-0.02244185	-0.00978235	0.001053247	-0.03757238	-0.02731395	-0.19545	-0.9348421
	-0.009790521	0.001056334	0.03162538	0.0129854	-0.19545	-0.9348421	-0.03193347	-0.001078447
1.8e+08	-0.04003337	-0.02361248	-0.2899198	-0.9085348	0.01908135	-0.02588204	-0.01030696	0.002322086
	-0.2899198	-0.9085348	-0.03089332	0.004340985	-0.01029864	0.002317436	0.03244905	0.0118319
	0.01908135	-0.02588204	-0.01029864	0.002317436	-0.04023433	-0.02363983	-0.2902356	-0.9084041
	-0.01030696	0.002322085	0.03244905	0.0118319	-0.2902356	-0.9084041	-0.03101541	0.004462938
1.9e+08	-0.04199166	-0.01974073	-0.3813125	-0.8726346	0.01439145	-0.02861291	-0.01064026	0.003731319
	-0.3813125	-0.8726346	-0.02884502	0.009611512	-0.01063224	0.003724985	0.03307253	0.01077151
	0.01439145	-0.02861291	-0.01063224	0.003724985	-0.04219354	-0.01975417	-0.3816332	-0.8724622
	-0.01064026	0.003731319	0.03307253	0.01077151	-0.3816332	-0.8724622	-0.02894225	0.009758691
2e+08	-0.04325307	-0.0157923	-0.4683897	-0.8276441	0.009083438	-0.03048363	-0.01075928	0.005252005
	-0.4683897	-0.8276441	-0.02571835	0.01441761	-0.01075202	0.005244028	0.0335384	0.009844269
	0.009083438	-0.03048363	-0.01075202	0.005244028	-0.04345452	-0.01579293	-0.4687093	-0.8274293
	-0.01075928	0.005252005	0.0335384	0.009844269	-0.4687093	-0.8274293	-0.02578611	0.01458363
2.1e+08	-0.04384792	-0.01189398	-0.5502609	-0.7740656	0.003320498	-0.03136998	-0.01064002	0.006845372
	-0.5502609	-0.7740656	-0.02162655	0.01855465	-0.01063396	0.006835909	0.03389668	0.009079741
	0.003320498	-0.03136998	-0.01063396	0.006835909	-0.04404805	-0.01188298	-0.5505743	-0.7738058
	-0.01064002	0.006845372	0.03389668	0.009079741	-0.5505743	-0.7738058	-0.02166159	0.01873298
2.2e+08	-0.04382928	-0.008158468	-0.6260944	-0.7124829	-0.002710948	-0.03117911	-0.01026717	0.00846797
	-0.6260944	-0.7124829	-0.0167208	0.02184601	-0.01026269	0.008457322	0.03420252	0.008495626
	-0.002710948	-0.03117911	-0.01026269	0.008457322	-0.04402764	-0.008136921	-0.626396	-0.7121784
	-0.01026717	0.00846797	0.03420252	0.008495626	-0.626396	-0.7121784	-0.0167218	0.02202988
2.3e+08	-0.04326895	-0.004680771	-0.6951202	-0.6435604	-0.008806933	-0.02985334	-0.009634809	0.01007372
	-0.6951202	-0.6435604	-0.01118402	0.02414956	-0.009632182	0.01006226	0.03451247	0.008096276
	-0.008806933	-0.02985334	-0.009632182	0.01006226	-0.04346545	-0.004649522	-0.6954033	-0.6432118
	-0.009634809	0.01007372	0.03451247	0.008096275	-0.6954033	-0.6432118	-0.01115075	0.02433254
2.4e+08	-0.04225332	-0.001535358	-0.7566334	-0.568036	-0.01475292	-0.02737397	-0.008746885	0.01161648
	-0.7566334	-0.568036	-0.005222654	0.02536308	-0.008746315	0.01160467	0.03488378	0.007874014
	-0.01475292	-0.02737397	-0.008746315	0.01160467	-0.0424479	-0.001494907	-0.7568921	-0.5676428
	-0.008746885	0.01161648	0.03488378	0.007874014	-0.7568921	-0.5676428	-0.00515592	0.02553913
2.5e+08	-0.040877	0.001226527	-0.810013	-0.486714	-0.02033097	-0.02376254	-0.007616711	0.01305232
	-0.810013	-0.486714	0.0009417067	0.02542866	-0.007618232	0.01304066	0.03537045	0.007808151
	-0.02033097	-0.02376254	-0.007618232	0.01304066	-0.04106985	0.001275779	-0.810241	-0.486278
	-0.007616711	0.01305232	0.03537045	0.007808151	-0.810241	-0.486278	0.001039852	0.02559214
2.6e+08	-0.03923854	0.003576733	-0.8547163	-0.4004596	-0.02532739	-0.0190817	-0.00626617	0.01434186
	-0.8547163	-0.4004596	0.007080983	0.02433348	-0.006269746	0.01433085	0.03602103	0.007866235
	-0.02532739	-0.0190817	-0.006269746	0.01433085	-0.03942966	0.003634861	-0.8549077	-0.3999845
	-0.00626617	0.01434186	0.03602103	0.007866235	-0.8549077	-0.3999845	0.007207921	0.02447969
2.7e+08	-0.03743452	0.005509917	-0.8902938	-0.3101881	-0.02953994	-0.01343371	-0.00472383	0.01545168
	-0.8902938	-0.3101881	0.01297124	0.02211127	-0.004729234	0.01544171	0.03687634	0.008005323
	-0.02953994	-0.01343371	-0.004729234	0.01544171	-0.03762388	0.00557701	-0.8904431	-0.309675
	-0.004723831	0.01545168	0.03687634	0.008005323	-0.8904431	-0.309675	0.01312364	0.02223583
2.8e+08	-0.03555418	0.007042251	-0.9163895	-0.216857	-0.03278588	-0.00695877	-0.003023388	0.01635591
	-0.9163895	-0.216857	0.01840074	0.01883919	-0.003030328	0.0163475	0.03796775	0.008173872
	-0.03278588	-0.00695877	-0.003030328	0.0163475	-0.03574175	0.007118682	-0.9164901	-0.2163114
	-0.003023389	0.01635591	0.03796775	0.008173872	-0.9164901	-0.2163114	0.01857468	0.01893867
2.9e+08	-0.03367548	0.008207945	-0.9327483	-0.1214576	-0.03490815	0.0001690872	-0.001201286	0.01703659
	-0.9327483	-0.1214576	0.0231788	0.01463509	-0.001209375	0.01703007	0.03931416	0.008313284
	-0.03490815	0.0001690872	-0.001209375	0.01703007	-0.03386065	0.008294222	-0.9327963	-0.1208839
	-0.001201286	0.01703659	0.03931416	0.008313284	-0.9327963	-0.1208839	0.02336983	0.01470673
3e+08	-0.03186109	0.009055842	-0.9392197	-0.02500127	-0.03578239	0.007746868	0.0007051454	0.01748453
	-0.9392197	-0.02500127	0.02714392	0.009651701	0.0006964288	0.01748005	0.04092247	0.008361274
	-0.03578239	0.007746868	0.0006964287	0.01748005	-0.03204343	0.009152491	-0.9392095	-0.02440454
	0.0007051453	0.01748453	0.04092247	0.008361274	-0.9392095	-0.02440454	0.02734737	0.009693521
3.1e+08	-0.0301558	0.009644921	-0.9357557	0.07148917	-0.0353217	0.0155488	0.002660208	0.01769748
	-0.9357557	0.07148917	0.03016978	0.004069841	0.00265139	0.01769517	0.04278567	0.008254052
	-0.0353217	0.0155488	0.00265139	0.01769517	-0.03033455	0.009752591	-0.9356822	0.07210281
	0.002660208	0.01769748	0.04278567	0.008254051	-0.9356822	0.07210281	0.03038094	0.004080804
3.2e+08	-0.02858526	0.01003907	-0.9224169	0.1669937	-0.03348076	0.02333341	0.004631258	0.01768022
	-0.9224169	0.1669937	0.0321702	-0.001909313	0.004622917	0.01768013	0.04488312	0.007929354
	-0.03348076	0.02333341	0.004622917	0.01768013	-0.02875907	0.01015836	-0.9222775	0.1676154
	0.004631258	0.01768022	0.04488312	0.007929354	-0.9222775	0.1676154	0.03238391	-0.001929338
3.3e+08	-0.02715518	0.01030222	-0.8993718	0.2604994	-0.03025852	0.03085135	0.006590164	0.01744227
	-0.8993718	0.2604994	0.03310188	-0.008072835	0.00658284	0.01744415	0.04718088	0.007329388
	-0.03025852	0.03085135	0.00658284	0.01744415	-0.02732265	0.01043345	-0.899163	0.2611246
	0.006590164	0.01744227	0.04718088	0.007329388	-0.899163	0.2611246	0.03331352	-0.008123251
3.4e+08	-0.02585319	0.01049305	-0.8668895	0.3510251	-0.02569951	0.03785369	0.008514098	0.01699669
	-0.8668895	0.3510251	0.03296612	-0.01420586	0.008508324	0.01700022	0.04963323	0.006403579
	-0.02569951	0.03785369	0.008508324	0.01700022	-0.02601244	0.01063643	-0.8666106	0.3516441
	0.008514098	0.01699669	0.04963323	0.006403578	-0.8666106	0.3516441	0.03317112	-0.01428498
3.5e+08	-0.02465033	0.01066035	-0.8253426	0.4376194	-0.01989325	0.04409995	0.01038568	0.01635763
	-0.8253426	0.4376194	0.03180753	-0.02009983	0.0103819	0.01636247	0.05218351	0.005111039
	-0.01989325	0.04409995	0.0103819	0.01636247	-0.02479938	0.01081571	-0.8249926	0.4382253
	0.01038568	0.01635763	0.05218351	0.005111039	-0.8249926	0.4382253	0.032002	-0.02020531
3.6e+08	-0.02350487	0.01083914	-0.7752001	0.5193784	-0.01297242	0.04936683	0.0121927	0.01553911
	-0.7752001	0.5193784	0.02971204	-0.02556172	0.01219121	0.01554462	0.05476756	0.003422584
	-0.01297242	0.04936683	0.01219121	0.01554462	-0.02364136	0.01100594	-0.7747785	0.5199616
	0.0121927	0.01553911	0.05476756	0.003422584	-0.7747785	0.5199616	0.02989238	-0.02569051
3.7e+08	-0.02236673	0.01104811	-0.7170169	0.5954559	-0.005109314	0.05345539	0.01392714	0.01455288
	-0.7170169	0.5954559	0.02680206	-0.03042207	0.01392811	0.01455842	0.05731539	0.001322235
	-0.005109314	0.05345539	0.01392811	0.01455842	-0.02248836	0.01122522	-0.7165253	0.5960093
	0.01392714	0.01455288	0.05731539	0.001322235	-0.7165253	0.5960093	0.02696561	-0.03057058
3.8e+08	-0.02118171	0.01128702	-0.6514356	0.6650671	0.00348871	0.0561984	0.01558386	0.01340774
	-0.6514356	0.6650671	0.02323095	-0.03454145	0.01558731	0.01341264	0.05975452	-0.001191807
	0.00348871	0.0561984	0.01558731	0.01341264	-0.02128599	0.01147281	-0.6508756	0.665581
	0.01558386	0.01340774	0.05975452	-0.001191807	-0.6508756	0.665581	0.02337578	-0.03470564
3.9e+08	-0.01989756	0.01153714	-0.5791696	0.7275048	0.01258538	0.057466	0.01715908	0.01210858
	-0.5791696	0.7275048	0.01917587	-0.03781624	0.01716477	0.01211211	0.06201305	-0.004107065
	0.01258538	0.057466	0.01716477	0.01211211	-0.01998228	0.01172933	-0.5785439	0.7279717
	0.01715908	0.01210858	0.06201305	-0.004107065	-0.5785439	0.7279717	0.019301	-0.03799189
4e+08	-0.01846813	0.01176105	-0.501001	0.782137	0.02192246	0.05717068	0.01864855	0.01065649
	-0.501001	0.782137	0.01482992	-0.04018223	0.01865616	0.01065802	0.0640225	-0.007397361
	0.02192246	0.05717068	0.01865616	0.01065802	-0.01853131	0.01195687	-0.5003134	0.782549
	0.01864855	0.01065649	0.0640225	-0.007397361	-0.5003134	0.782549	0.01493527	-0.04036508
4.1e+08	-0.01685935	0.01190538	-0.4177684	0.8284195	0.03122716	0.05527072	0.02004581	0.009048954
	-0.4177684	0.8284195	0.01039351	-0.04161685	0.02005489	0.009048029	0.0657204	-0.01102336
	0.03122716	0.05527072	0.02005489	0.009048029	-0.01689938	0.01210141	-0.4170246	0.8287681
	0.02004581	0.009048954	0.0657204	-0.01102336	-0.4170246	0.8287681	0.01047993	-0.04180275
4.2e+08	-0.01505272	0.01190437	-0.3303562	0.865895	0.04022089	0.05177224	0.02134106	0.007281081
	-0.3303562	0.865895	0.006065733	-0.04213955	0.02135092	0.007277235	0.06705323	-0.01493489
	0.04022089	0.05177224	0.02135092	0.007277235	-0.01506851	0.01209659	-0.3295614	0.8661737
	0.02134106	0.007281081	0.06705323	-0.01493489	-0.3295614	0.8661737	0.006135009	-0.04232479
4.3e+08	-0.01304911	0.01168313	-0.2396889	0.8942015	0.04862702	0.0467302	0.02251969	0.005346798
	-0.2396889	0.8942015	0.002036338	-0.04181036	0.02252952	0.005339752	0.06797792	-0.01907267
	0.04862702	0.0467302	0.02252952	0.005339752	-0.01304035	0.01186727	-0.238851	0.894404
	0.02251969	0.005346798	0.06797792	-0.01907267	-0.238851	0.894404	0.002090825	-0.0419916
4.4e+08	-0.01087088	0.0111636	-0.1467194	0.9130722	0.05617956	0.04024716	0.02356167	0.0032406
	-0.1467194	0.9130722	-0.001523003	-0.04072673	0.02357088	0.003230394	0.0684639	-0.0233711
	0.05617956	0.04024716	0.02357088	0.003230394	-0.010838	0.01133495	-0.1458449	0.9131909
	0.02356167	0.0032406	0.0684639	-0.0233711	-0.1458449	0.9131909	-0.001480194	-0.0409015
4.5e+08	-0.008562874	0.01026955	-0.05242009	0.9223362	0.0626313	0.0324712	0.02444172	0.0009595783
	-0.05242009	0.9223362	-0.004465323	-0.03901958	0.02444943	0.0009463035	0.06849339	-0.02776028
	0.0626313	0.0324712	0.02444943	0.0009463035	-0.00850724	0.01042348	-0.05151782	0.9223666
	0.02444172	0.0009595783	0.06849339	-0.02776028	-0.05151782	0.9223666	-0.004430607	-0.03918597
4.6e+08	-0.006192297	0.008932971	0.04222842	0.921919	0.0677614	0.02359293	0.02512958	-0.001494867
	0.04222842	0.921919	-0.006674531	-0.03684617	0.02513508	-0.001510868	0.0680622	-0.03216965
	0.0677614	0.02359293	0.02513508	-0.001510868	-0.006116124	0.009064521	0.04314982	0.9218559
	0.02512958	-0.001494867	0.0680622	-0.03216965	0.04314982	0.9218559	-0.006643922	-0.0370035
4.7e+08	-0.003847046	0.007098784	0.1362419	0.911846	0.07138279	0.0138399	0.02559097	-0.004115061
	0.1362419	0.911846	-0.008070131	-0.03438497	0.02559352	-0.004133332	0.06717905	-0.03652965
	0.07138279	0.0138399	0.02559352	-0.004133332	-0.003753627	0.007203629	0.1371735	0.9116877
	0.02559097	-0.004115061	0.06717905	-0.03652965	0.1371735	0.9116877	-0.008039778	-0.03453303
4.8e+08	-0.001632727	0.004730802	0.2286443	0.8922405	0.07334795	0.003471334	0.02578909	-0.006885865
	0.2286443	0.8922405	-0.008610711	-0.0318262	0.02578819	-0.006905736	0.06586528	-0.04077521
	0.07334795	0.003471334	0.02578819	-0.006905736	-0.001526298	0.004804518	0.2295753	0.8919823
	0.02578909	-0.006885865	0.06586528	-0.04077521	0.2295753	0.8919823	-0.008576486	-0.03196618
4.9e+08	0.000331912	0.001816192	0.3184798	0.863322	0.07355452	-0.007229097	0.025687	-0.009783455
	0.3184798	0.863322	-0.008295056	-0.02936512	0.02568232	-0.009804181	0.06415334	-0.04484742
	0.07355452	-0.007229097	0.02568232	-0.009804181	0.0004461022	0.001855443	0.3193995	0.8629623
	0.025687	-0.009783455	0.06415334	-0.04484742	0.3193995	0.8629623	-0.008253366	-0.02949878
5e+08	0.001919543	-0.001631672	0.4048136	0.825401	0.07194883	-0.01796123	0.02524902	-0.01277491
	0.4048136	0.825401	-0.007163079	-0.02719318	0.02524042	-0.01279564	0.06208492	-0.04869593
	0.07194883	-0.01796123	0.02524042	-0.01279564	0.002035414	-0.001629457	0.405712	0.8249399
	0.02524902	-0.01277491	0.06208492	-0.04869593	0.405712	0.8249399	-0.007110698	-0.02732313
5.1e+08	0.003000639	-0.005569723	0.4867512	0.7788842	0.06852914	-0.02841644	0.0244436	-0.01581819
	0.4867512	0.7788842	-0.005293054	-0.02548923	0.02443112	-0.01583814	0.05970941	-0.05227975
	0.06852914	-0.02841644	0.02443112	-0.01583814	0.003111446	-0.005606271	0.4876159	0.7783217
	0.0244436	-0.01581819	0.05970941	-0.05227975	0.4876159	0.7783217	-0.00522739	-0.02561912
5.2e+08	0.003450156	-0.00992541	0.5634376	0.7242664	0.06334681	-0.03828702	0.02324559	-0.01886291
	0.5634376	0.7242664	-0.002799756	-0.02441334	0.0232294	-0.01888127	0.05708185	-0.05556939
