!$
! Info: Touchstone file created by Circ.  Input file=C2M_PCB_93ohms_3p0in_20230620_v3.circ
!$
# Hz S RI R 50
0	0.005513527	2.292642e-24	0.994456	-2.042737e-24	0.0001388446	6.905617e-23	-0.0001351339	1.661115e-20
	0.994456	-1.897763e-24	0.005332393	7.947153e-25	-0.0001324647	1.62843e-20	-5.912634e-06	8.259719e-21
	0.0001388447	6.909054e-23	-0.0001324647	1.628408e-20	0.005516889	2.803864e-24	0.9944694	-2.007103e-24
	-0.0001351339	1.661118e-20	-5.912655e-06	8.259793e-21	0.9944694	-2.023877e-24	0.005345755	1.283291e-24
1e+07	0.00779681	0.000763764	0.9900815	-0.06236385	0.0003655759	0.002509885	-0.0002264723	-0.0005666375
	0.9900815	-0.06236385	0.007656373	0.0008402333	-0.0002244758	-0.0005672832	0.0002406367	0.002572504
	0.0003655759	0.002509885	-0.0002244758	-0.0005672832	0.00794397	0.0007564707	0.9899467	-0.06239551
	-0.0002264723	-0.0005666375	0.0002406368	0.002572504	0.9899467	-0.06239551	0.007803208	0.0008318434
2e+07	0.009510522	-0.0002882366	0.9825222	-0.1224873	0.0008834866	0.004940906	-0.0003258851	-0.001101299
	0.9825222	-0.1224873	0.009376122	-0.0001999839	-0.0003245846	-0.00110173	0.0007044406	0.005030337
	0.0008835254	0.004940817	-0.0003245598	-0.001101777	0.009624889	-0.0003528612	0.9824063	-0.1224906
	-0.0003258579	-0.001101343	0.0007044606	0.005030335	0.9824063	-0.1224906	0.009488838	-0.0002658209
3e+07	0.01059784	-0.00209897	0.971843	-0.1812995	0.001742791	0.007224384	-0.0005059835	-0.00156282
	0.971843	-0.1812995	0.01040297	-0.002013205	-0.0005050002	-0.001562948	0.001427182	0.007345817
	0.001742781	0.007224374	-0.0005050083	-0.001562945	0.01068502	-0.002185893	0.971741	-0.1813046
	-0.0005059929	-0.001562818	0.001427174	0.007345834	0.971741	-0.1813046	0.01048772	-0.002100734
4e+07	0.01123467	-0.004190194	0.9579179	-0.2390537	0.002908517	0.009369386	-0.0007422432	-0.001989581
	0.9579179	-0.2390537	0.0109213	-0.004089995	-0.0007414046	-0.001989323	0.002383483	0.009557706
	0.002908517	0.009369388	-0.0007414062	-0.00198932	0.01129763	-0.004289828	0.9578259	-0.2390684
	-0.0007422445	-0.001989579	0.002383479	0.009557707	0.9578259	-0.2390684	0.01098081	-0.004189562
5e+07	0.01149824	-0.006420118	0.9407339	-0.2956673	0.004344767	0.011356	-0.00101238	-0.002392031
	0.9407339	-0.2956673	0.01102023	-0.006274436	-0.001011533	-0.002391368	0.003549521	0.01166133
	0.004344767	0.011356	-0.001011534	-0.002391368	0.0115388	-0.006526791	0.9406484	-0.2956961
	-0.001012382	-0.00239203	0.003549517	0.01166133	0.9406484	-0.2956961	0.01105685	-0.006380148
6e+07	0.01142949	-0.008709718	0.92033	-0.3509985	0.006036029	0.01315633	-0.001318557	-0.002771096
	0.92033	-0.3509985	0.01074814	-0.008479886	-0.00131761	-0.002770074	0.004919945	0.0136395
	0.006036028	0.01315633	-0.001317608	-0.002770073	0.01144977	-0.008819082	0.9202475	-0.3510445
	-0.001318555	-0.002771096	0.004919949	0.0136395	0.9202475	-0.3510445	0.01076353	-0.008587608
7e+07	0.01105593	-0.01100166	0.8967694	-0.4048876	0.007961941	0.01474313	-0.001661598	-0.003126105
	0.8967694	-0.4048876	0.01013908	-0.01064252	-0.00166051	-0.00312478	0.006483917	0.01547415
	0.007961941	0.01474313	-0.001660507	-0.003124781	0.01105768	-0.01111038	0.8966857	-0.4049528
	-0.001661596	-0.003126108	0.00648392	0.01547415	0.8966857	-0.4049528	0.01013517	-0.01074855
8e+07	0.01040164	-0.01324887	0.8701345	-0.4571712	0.01009859	0.01609112	-0.002041873	-0.003455699
	0.8701345	-0.4571712	0.009223055	-0.01270937	-0.002040603	-0.003454084	0.00822733	0.01714842
	0.01009859	0.01609112	-0.002040605	-0.003454082	0.01038675	-0.01335406	0.8700454	-0.4572569
	-0.002041874	-0.003455696	0.008227328	0.01714842	0.8700454	-0.4572569	0.00920192	-0.01281033
9e+07	0.009491641	-0.01541052	0.8405187	-0.5076869	0.01241938	0.01717774	-0.002459615	-0.003757917
	0.8405187	-0.5076869	0.008030836	-0.01463342	-0.002458124	-0.003756051	0.01013392	0.01864715
	0.01241938	0.01717774	-0.002458127	-0.003756042	0.009462445	-0.0155092	0.8404207	-0.5077946
	-0.002459615	-0.003757908	0.01013392	0.01864716	0.8404207	-0.5077946	0.007994815	-0.01472625
1e+08	0.008358401	-0.0174435	0.8080229	-0.5562855	0.01489523	0.01798235	-0.002914967	-0.004029716
	0.8080229	-0.5562855	0.006601585	-0.01636517	-0.002913226	-0.004027669	0.01218585	0.01995647
	0.01489523	0.01798235	-0.002913225	-0.00402767	0.008318996	-0.01753106	0.8079091	-0.5564176
	-0.002914967	-0.004029717	0.01218586	0.01995647	0.8079091	-0.5564176	0.006554317	-0.01644536
1.1e+08	0.007053643	-0.0193573	0.7727364	-0.6027544	0.01749174	0.01849003	-0.00340589	-0.004268226
	0.7727364	-0.6027544	0.005009613	-0.0179456	-0.003402752	-0.004267287	0.01436146	0.02106659
	0.01749174	0.01849003	-0.003402752	-0.004267288	0.007010768	-0.0194275	0.7725984	-0.6029016
	-0.003405889	-0.004268227	0.01436146	0.02106659	0.7725984	-0.6029016	0.005024137	-0.01801139
1.2e+08	0.00554875	-0.02113415	0.7348509	-0.6469562	0.02017927	0.01868859	-0.003932505	-0.004474539
	0.7348509	-0.6469562	0.003198711	-0.01929176	-0.003929606	-0.004474272	0.01664374	0.02196989
	0.02017927	0.01868859	-0.003929605	-0.004474274	0.005506518	-0.02119824	0.7346885	-0.6471158
	-0.003932505	-0.00447454	0.01664374	0.02196988	0.7346885	-0.6471158	0.003221329	-0.01937937
1.3e+08	0.0038759	-0.02273716	0.6944991	-0.6887635	0.02292393	0.01856756	-0.004496284	-0.004644307
	0.6944991	-0.6887635	0.001232899	-0.02037183	-0.004493938	-0.004643939	0.01901241	0.02265864
	0.02292393	0.01856756	-0.004493938	-0.004643941	0.003833544	-0.02280053	0.6943088	-0.6889309
	-0.004496284	-0.004644308	0.01901241	0.02265864	0.6943088	-0.6889309	0.001236022	-0.02047354
1.4e+08	0.002066419	-0.02414495	0.651824	-0.7280438	0.02569147	0.01812087	-0.00509718	-0.004772723
	0.651824	-0.7280438	-0.0008399043	-0.02117162	-0.005095145	-0.004771821	0.02144696	0.02312827
	0.02569147	0.01812087	-0.005095145	-0.004771822	0.002021747	-0.0242096	0.6516059	-0.7282168
	-0.00509718	-0.004772725	0.02144696	0.02312827	0.6516059	-0.7282168	-0.0008628964	-0.02127354
1.5e+08	0.00015223	-0.02534398	0.606982	-0.7646765	0.02844693	0.01734578	-0.005734114	-0.004854813
	0.606982	-0.7646765	-0.002976979	-0.02168228	-0.00573205	-0.004853264	0.0239266	0.02337589
	0.02844693	0.01734578	-0.00573205	-0.004853265	0.0001035177	-0.02540977	0.6067347	-0.7648509
	-0.005734114	-0.004854814	0.0239266	0.02337589	0.6067347	-0.7648509	-0.003023074	-0.02177446
1.6e+08	-0.001834157	-0.02632642	0.5601326	-0.7985464	0.03115536	0.01624303	-0.006405279	-0.004885518
	0.5601326	-0.7985464	-0.005137324	-0.0218987	-0.006402944	-0.004883394	0.02643093	0.02340102
	0.03115536	0.01624303	-0.006402944	-0.004883395	-0.001887879	-0.0263924	0.5598557	-0.7987189
	-0.006405279	-0.004885518	0.02643093	0.02340102	0.5598557	-0.7987189	-0.005200468	-0.02197592
1.7e+08	-0.003861405	-0.02709001	0.5114435	-0.8295469	0.03378189	0.01481696	-0.007108068	-0.004859686
	0.5114435	-0.8295469	-0.007280524	-0.02182016	-0.007105283	-0.004857133	0.02893979	0.02320508
	0.03378189	0.01481696	-0.007105284	-0.004857134	-0.003920232	-0.02715495	0.5111371	-0.8297143
	-0.007108069	-0.004859687	0.02893979	0.02320508	0.5111371	-0.8297143	-0.007354651	-0.0218807
1.8e+08	-0.005898585	-0.02763667	0.4610877	-0.8575832	0.03629244	0.01307535	-0.007839309	-0.004772167
	0.4610877	-0.8575832	-0.009366445	-0.02145029	-0.007836016	-0.004769335	0.03143378	0.02279144
	0.03629244	0.01307535	-0.007836016	-0.004769335	-0.005962259	-0.02769964	0.4607521	-0.8577437
	-0.007839309	-0.004772168	0.03143378	0.02279144	0.4607521	-0.8577437	-0.009446523	-0.02149444
1.9e+08	-0.007917097	-0.02797291	0.4092433	-0.8825704	0.03865403	0.01102942	-0.008594992	-0.004617826
	0.4092433	-0.8825704	-0.01135582	-0.02079779	-0.008591178	-0.004614854	0.03389448	0.02216547
	0.03865403	0.01102942	-0.008591178	-0.004614855	-0.007984675	-0.02803314	0.4088776	-0.8827193
	-0.008594992	-0.004617826	0.03389448	0.02216547	0.4088776	-0.8827193	-0.01143795	-0.02082675
2e+08	-0.009889558	-0.02810863	0.3560902	-0.9044331	0.04083442	0.008693434	-0.009370373	-0.004391645
	0.3560902	-0.9044331	-0.01321062	-0.01987599	-0.009366073	-0.004388636	0.03630414	0.02133377
	0.04083442	0.008693434	-0.009366073	-0.004388636	-0.009960246	-0.02816584	0.3556962	-0.9045681
	-0.009370373	-0.004391645	0.03630414	0.02133377	0.3556962	-0.9045681	-0.01329221	-0.01989158
2.1e+08	-0.01179093	-0.02805745	0.301817	-0.9231059	0.04280332	0.006084936	-0.01015984	-0.004088862
	0.301817	-0.9231059	-0.01489456	-0.01870322	-0.01015508	-0.004085892	0.03864632	0.02030476
	0.04280332	0.006084936	-0.01015508	-0.004085892	-0.0118639	-0.02811158	0.3013941	-0.9232237
	-0.01015984	-0.004088863	0.03864632	0.02030476	0.3013941	-0.9232237	-0.01497376	-0.0187069
2.2e+08	-0.01359904	-0.02783596	0.2466107	-0.9385358	0.04453221	0.003224289	-0.01095707	-0.003705124
	0.2466107	-0.9385358	-0.01637416	-0.01730218	-0.0109519	-0.003702219	0.04090622	0.01908834
	0.04453221	0.003224289	-0.0109519	-0.003702219	-0.0136735	-0.02788717	0.2461601	-0.9386344
	-0.01095707	-0.003705124	0.04090622	0.01908834	0.2461601	-0.9386344	-0.01644998	-0.01729548
2.3e+08	-0.01529448	-0.02746328	0.1906615	-0.950681	0.04599429	0.0001346329	-0.01175479	-0.00323653
	0.1906615	-0.950681	-0.01761921	-0.01569986	-0.01174923	-0.003233714	0.04306945	0.0176948
	0.04599429	0.0001346329	-0.01174923	-0.003233714	-0.01536974	-0.02751198	0.190185	-0.9507574
	-0.01175479	-0.00323653	0.04306945	0.0176948	0.190185	-0.9507574	-0.01769076	-0.01568377
2.4e+08	-0.01686055	-0.02696119	0.1341641	-0.9595066	0.04716542	-0.003158354	-0.0125451	-0.002679853
	0.1341641	-0.9595066	-0.01860244	-0.01392688	-0.01253917	-0.002677151	0.04512394	0.01613626
	0.04716542	-0.003158354	-0.01253917	-0.002677151	-0.01693618	-0.02700777	0.1336618	-0.9595574
	-0.0125451	-0.002679853	0.04512394	0.01613626	0.1336618	-0.9595574	-0.01866898	-0.01390206
2.5e+08	-0.01828472	-0.02635289	0.07731007	-0.9649941	0.04802386	-0.006626802	-0.01331932	-0.002032636
	0.07731007	-0.9649941	-0.01930105	-0.01201687	-0.01331303	-0.002030023	0.04705897	0.0144252
	0.04802386	-0.006626802	-0.01331303	-0.002030023	-0.01836014	-0.0263979	0.07678343	-0.9650168
	-0.01331932	-0.002032636	0.04705897	0.0144252	0.07678343	-0.9650168	-0.01936203	-0.01198389
2.6e+08	-0.01955745	-0.02566326	0.02029532	-0.967132	0.04855085	-0.01024077	-0.01406846	-0.001293351
	0.02029532	-0.967132	-0.01969662	-0.01000669	-0.01406182	-0.00129087	0.04886513	0.01257475
	0.04855085	-0.01024077	-0.01406182	-0.00129087	-0.01963249	-0.02570728	0.01974714	-0.9671247
	-0.01406846	-0.001293351	0.04886513	0.01257475	0.01974714	-0.9671247	-0.01975116	-0.009965812
2.7e+08	-0.0206729	-0.02491794	-0.03668678	-0.9659224	0.04873002	-0.01396854	-0.01478271	-0.0004613689
	-0.03668678	-0.9659224	-0.01977492	-0.00793468	-0.01477561	-0.0004590323	0.05053473	0.01059838
	0.04873002	-0.01396854	-0.01477561	-0.0004590324	-0.02074728	-0.02496153	-0.03725674	-0.965882
	-0.01478271	-0.000461369	0.05053473	0.01059838	-0.03725674	-0.965882	-0.01982211	-0.007886174
2.8e+08	-0.02162947	-0.02414292	-0.09344284	-0.9613758	0.04854854	-0.01777703	-0.01545212	0.0004628119
	-0.09344284	-0.9613758	-0.01952667	-0.005841213	-0.01544465	0.000464995	0.05206193	0.008510067
	0.04854854	-0.01777703	-0.01544465	0.0004649949	-0.02170298	-0.02418686	-0.09403056	-0.9612997
	-0.01545212	0.0004628118	0.05206193	0.008510067	-0.09403056	-0.9612997	-0.01956522	-0.005785484
2.9e+08	-0.02242896	-0.02336406	-0.1497795	-0.9535158	0.04799627	-0.0216317	-0.01606621	0.00147759
	-0.1497795	-0.9535158	-0.01894776	-0.003767532	-0.01605834	0.001479549	0.05344165	0.006323302
	0.04799627	-0.0216317	-0.01605834	0.001479549	-0.0225018	-0.02340891	-0.1503836	-0.9534028
	-0.01606621	0.00147759	0.05344165	0.006323302	-0.1503836	-0.9534028	-0.01897663	-0.003705108
3e+08	-0.023077	-0.02260657	-0.2055073	-0.9423766	0.04706669	-0.02549733	-0.01661511	0.002580145
	-0.2055073	-0.9423766	-0.01803881	-0.001755222	-0.01660676	0.002581841	0.05467104	0.004051915
	0.04706669	-0.02549733	-0.01660676	0.002581841	-0.02314905	-0.02265312	-0.2061254	-0.9422236
	-0.01661511	0.002580145	0.05467104	0.004051915	-0.2061254	-0.9422236	-0.01805661	-0.001686864
3.1e+08	-0.02358286	-0.0218946	-0.2604371	-0.9280002	0.04575644	-0.02933804	-0.01708825	0.003766477
	-0.2604371	-0.9280002	-0.0168052	0.0001541316	-0.01707943	0.003767841	0.0557483	0.001709293
	0.04575644	-0.02933804	-0.01707943	0.003767841	-0.02365425	-0.02194371	-0.2610665	-0.9278043
	-0.01708825	0.003766477	0.0557483	0.001709293	-0.2610665	-0.9278043	-0.01681035	0.0002274889
3.2e+08	-0.02395898	-0.02125065	-0.3143854	-0.9104407	0.04406548	-0.03311757	-0.01747581	0.005031399
	-0.3143854	-0.9104407	-0.01525731	0.00191987	-0.01746664	0.005032396	0.05667309	-0.0006916523
	0.04406548	-0.03311757	-0.01746664	0.005032396	-0.02403019	-0.02130308	-0.3150213	-0.9102014
	-0.01747581	0.005031399	0.05667309	-0.0006916524	-0.3150213	-0.9102014	-0.01524892	0.001996822
3.3e+08	-0.02422139	-0.02069523	-0.3671665	-0.8897652	0.04199716	-0.03679971	-0.01776805	0.006368485
	-0.3671665	-0.8897652	-0.01341074	0.003502273	-0.01775848	0.006369031	0.05744624	-0.00313856
	0.04199716	-0.03679971	-0.01775848	0.006369031	-0.02429273	-0.0207517	-0.3678087	-0.8894795
	-0.01776805	0.006368485	0.05744624	-0.00313856	-0.3678087	-0.8894795	-0.01338747	0.00358154
3.4e+08	-0.02438852	-0.02024641	-0.4186062	-0.8660459	0.03955825	-0.04034864	-0.01795608	0.007770232
	-0.4186062	-0.8660459	-0.01128512	0.004863725	-0.01794614	0.007770299	0.05806991	-0.005619749
	0.03955825	-0.04034864	-0.01794614	0.007770299	-0.02446065	-0.0203077	-0.4192496	-0.8657139
	-0.01795608	0.007770232	0.05806991	-0.00561975	-0.4192496	-0.8657139	-0.01124619	0.004943601
3.5e+08	-0.02448169	-0.01991933	-0.468529	-0.839369	0.03675884	-0.04372882	-0.01803137	0.009227966
	-0.468529	-0.839369	-0.008905008	0.005968777	-0.01802122	0.009227532	0.05854674	-0.008124326
	0.03675884	-0.04372882	-0.01802122	0.009227531	-0.02455526	-0.01998615	-0.4691714	-0.8389892
	-0.01803137	0.009227966	0.05854674	-0.008124326	-0.4691714	-0.8389892	-0.008849529	0.006047573
3.6e+08	-0.02452438	-0.01972597	-0.5167658	-0.8098302	0.03361222	-0.04690598	-0.01798655	0.01073207
	-0.5167658	-0.8098302	-0.006298842	0.006784851	-0.01797616	0.01073108	0.05888089	-0.01064227
	0.03361222	-0.04690598	-0.01797616	0.01073108	-0.02460034	-0.01979901	-0.5174025	-0.809401
	-0.01798655	0.01073207	0.05888089	-0.01064227	-0.5174025	-0.809401	-0.006226386	0.006860537
3.7e+08	-0.02454144	-0.01967521	-0.5631549	-0.7775309	0.03013483	-0.04984681	-0.01781485	0.01227201
	-0.5631549	-0.7775309	-0.003498641	0.007282607	-0.01780428	0.01227045	0.05907679	-0.01316457
	0.03013483	-0.04984681	-0.01780428	0.01227045	-0.02462071	-0.019755	-0.5637836	-0.7770523
	-0.01781485	0.01227201	0.05907679	-0.01316457	-0.5637836	-0.7770523	-0.003408884	0.007353313
3.8e+08	-0.0245595	-0.0197719	-0.6075369	-0.7425866	0.0263463	-0.05251964	-0.01751076	0.01383639
	-0.6075369	-0.7425866	-0.0005402627	0.007436293	-0.0175001	0.01383425	0.05913971	-0.01568309
	0.0263463	-0.05251964	-0.0175001	0.01383425	-0.02464333	-0.01985892	-0.6081526	-0.7420576
	-0.01751076	0.01383639	0.05913971	-0.01568309	-0.6081526	-0.7420576	-0.00043316	0.007499875
3.9e+08	-0.02460537	-0.0200175	-0.649764	-0.7051182	0.02226916	-0.05489444	-0.01706984	0.01541324
	-0.649764	-0.7051182	0.002537893	0.007224464	-0.01705907	0.01541047	0.0590753	-0.01819087
	0.02226916	-0.05489444	-0.01705907	0.01541047	-0.02469498	-0.02011203	-0.6503638	-0.7045383
	-0.01706984	0.01541324	0.0590753	-0.01819087	-0.6503638	-0.7045383	0.00266226	0.007278923
4e+08	-0.02470685	-0.02040919	-0.6896913	-0.6652574	0.01792866	-0.05694327	-0.01648893	0.01698999
	-0.6896913	-0.6652574	0.005694615	0.006629811	-0.01647812	0.01698661	0.05888967	-0.02068211
	0.01792866	-0.05694327	-0.01647812	0.01698661	-0.0248036	-0.02051143	-0.6902713	-0.6646266
	-0.01648893	0.01698999	0.05888967	-0.02068211	-0.6902713	-0.6646266	0.005835868	0.006673084
4.1e+08	-0.02489106	-0.02094019	-0.7271837	-0.6231442	0.01335282	-0.05864032	-0.01576602	0.01855355
	-0.7271837	-0.6231442	0.008886745	0.005639947	-0.01575533	0.01854964	0.05858878	-0.02315176
	0.01335282	-0.05864032	-0.01575533	0.01854964	-0.02499641	-0.02105014	-0.7277392	-0.6224634
	-0.01576602	0.01855355	0.05858878	-0.02315176	-0.7277392	-0.6224634	0.009044193	0.005669991
4.2e+08	-0.0251844	-0.02160034	-0.7621126	-0.5789238	0.008571609	-0.05996241	-0.01490061	0.02009083
	-0.7621126	-0.5789238	0.01206964	0.004246992	-0.01489002	0.02008637	0.05817888	-0.025596
	0.008571609	-0.05996241	-0.01489002	0.02008637	-0.02529998	-0.02171773	-0.7626404	-0.5781932
	-0.01490061	0.02009083	0.05817888	-0.025596	-0.7626404	-0.5781932	0.01224265	0.004261807
4.3e+08	-0.0256122	-0.022375	-0.7943596	-0.5327516	0.003617552	-0.06088922	-0.01389341	0.02158847
	-0.7943596	-0.5327516	0.01519807	0.002448389	-0.0138829	0.02158344	0.05766588	-0.02801204
	0.003617552	-0.06088922	-0.0138829	0.02158344	-0.02573951	-0.02249945	-0.7948556	-0.5319735
	-0.01389341	0.02158847	0.05766588	-0.02801204	-0.7948556	-0.5319735	0.01538542	0.00244624
4.4e+08	-0.02619791	-0.02324616	-0.8238156	-0.4847897	-0.001475106	-0.06140313	-0.0127464	0.02303311
	-0.8238156	-0.4847897	0.01822611	0.000246817	-0.01273617	0.02302771	0.05705574	-0.03039823
	-0.001475106	-0.06140313	-0.01273617	0.02302771	-0.0263386	-0.02337699	-0.8242745	-0.4839639
	-0.0127464	0.02303311	0.05705574	-0.03039823	-0.8242745	-0.4839639	0.01842658	0.0002256044
4.5e+08	-0.02696297	-0.02419222	-0.8503797	-0.4352063	-0.00667061	-0.06148958	-0.01146303	0.0244117
	-0.8503797	-0.4352063	0.02110814	-0.002350445	-0.01145304	0.02440592	0.05635373	-0.03275346
	-0.00667061	-0.06148958	-0.01145304	0.02440592	-0.02711851	-0.02432867	-0.8507985	-0.4343352
	-0.01146303	0.0244117	0.05635373	-0.03275346	-0.8507985	-0.4343352	0.02132032	-0.002392228
4.6e+08	-0.02792576	-0.02518865	-0.8739611	-0.3841734	-0.01193148	-0.0611374	-0.01004796	0.02571157
	-0.8739611	-0.3841734	0.02379951	-0.005330415	-0.01003826	0.02570548	0.0555649	-0.03507783
	-0.01193148	-0.0611374	-0.01003826	0.02570548	-0.02809789	-0.02532957	-0.874335	-0.3832583
	-0.01004796	0.02571157	0.0555649	-0.03507783	-0.874335	-0.3832583	0.02402181	-0.005394665
4.7e+08	-0.02910185	-0.02620764	-0.8944798	-0.3318713	-0.01721971	-0.06033871	-0.008507178	0.02692036
	-0.8944798	-0.3318713	0.02625686	-0.008675744	-0.00849769	0.02691397	0.05469335	-0.03737168
	-0.01721971	-0.06033871	-0.00849769	0.02691397	-0.02929184	-0.02635184	-0.8948072	-0.330915
	-0.008507178	0.02692036	0.05469335	-0.03737168	-0.8948072	-0.330915	0.02648744	-0.008763593
4.8e+08	-0.03050312	-0.02721899	-0.9118673	-0.2784854	-0.02249619	-0.05908905	-0.006847661	0.02802631
	-0.9118673	-0.2784854	0.02843864	-0.01236342	-0.006838408	0.02801971	0.0537428	-0.03963646
	-0.02249619	-0.05908905	-0.006838408	0.02801971	-0.03071265	-0.02736479	-0.9121424	-0.2774899
	-0.006847661	0.02802631	0.0537428	-0.03963646	-0.9121424	-0.2774899	0.02867557	-0.01247645
4.9e+08	-0.03213756	-0.02819082	-0.9260675	-0.2242021	-0.02772156	-0.05738762	-0.005077731	0.02901871
	-0.9260675	-0.2242021	0.03030643	-0.01636663	-0.005068685	0.02901198	0.05271608	-0.04187378
	-0.02772156	-0.05738762	-0.005068685	0.02901198	-0.03236773	-0.02833651	-0.9262867	-0.2231704
	-0.005077731	0.02901871	0.05271608	-0.04187378	-0.9262867	-0.2231704	0.03054753	-0.01650581
5e+08	-0.03400941	-0.02908919	-0.9370301	-0.1692138	-0.03285645	-0.05523674	-0.003206454	0.0298873
	-0.9370301	-0.1692138	0.03182377	-0.02065416	-0.003197608	0.0298805	0.05161504	-0.04408606
	-0.03285645	-0.05523674	-0.003197608	0.0298805	-0.03426122	-0.02923278	-0.9371914	-0.1681486
	-0.003206454	0.0298873	0.05161504	-0.04408606	-0.9371914	-0.1681486	0.03206694	-0.02082032
5.1e+08	-0.03611797	-0.0298794	-0.9447234	-0.1137124	-0.03786166	-0.05264264	-0.001243885	0.03062282
	-0.9447234	-0.1137124	0.03295896	-0.02519044	-0.001235166	0.03061604	0.05044073	-0.04627537
	-0.03786166	-0.05264264	-0.001235166	0.03061604	-0.03639246	-0.0300187	-0.9448223	-0.1126178
	-0.001243885	0.03062282	0.05044073	-0.04627537	-0.9448223	-0.1126178	0.03320179	-0.02538443
