!$
! Info: Touchstone file created by Circ.  Input file=C2M_PCB_93ohms_5p5in_20230620_v3.circ
!$
# Hz S RI R 50
0	0.007775243	2.97726e-24	0.9921944	-2.769942e-24	0.0001517193	8.166806e-23	-0.0001480171	1.82275e-20
	0.9921944	-2.62528e-24	0.007593969	1.551625e-24	-0.0001453536	1.790129e-20	6.984722e-06	8.322371e-21
	0.0001517194	8.170226e-23	-0.0001453536	1.790108e-20	0.007778588	3.459141e-24	0.9922077	-2.677763e-24
	-0.0001480171	1.822753e-20	6.984701e-06	8.322445e-21	0.9922077	-2.694508e-24	0.007607392	1.975961e-24
1e+07	0.0110618	0.0003436202	0.984798	-0.08789242	0.0005298765	0.002904759	-0.0002663021	-0.0005520824
	0.984798	-0.08789242	0.01087411	0.0004217306	-0.0002643525	-0.0005528446	0.0003351687	0.002986337
	0.0005298765	0.002904759	-0.0002643525	-0.0005528446	0.01127628	0.0003245222	0.9845944	-0.08791744
	-0.0002663021	-0.0005520824	0.0003351688	0.002986337	0.9845944	-0.08791744	0.011088	0.0004007029
2e+07	0.0133498	-0.00201041	0.9708295	-0.1721239	0.001415789	0.005662801	-0.0003769149	-0.001078355
	0.9708295	-0.1721239	0.01302858	-0.00189415	-0.0003757734	-0.001078915	0.0009724558	0.005839068
	0.001415818	0.005662709	-0.0003757511	-0.001078964	0.01350978	-0.002119729	0.9706631	-0.172092
	-0.0003768901	-0.0010784	0.0009724759	0.005839065	0.9706631	-0.172092	0.01318488	-0.002005491
3e+07	0.01450901	-0.005463786	0.9505062	-0.2537776	0.002879552	0.008112535	-0.0005977718	-0.001503694
	0.9505062	-0.2537776	0.01390189	-0.005270132	-0.0005970448	-0.001503896	0.001997949	0.008468591
	0.00287954	0.008112527	-0.0005970527	-0.001503892	0.01462279	-0.005608789	0.9503674	-0.2537373
	-0.0005977809	-0.00150369	0.001997941	0.008468608	0.9503674	-0.2537373	0.01400911	-0.00541577
4e+07	0.0147908	-0.009274181	0.9237513	-0.3329528	0.004836771	0.0102209	-0.0008908168	-0.001879232
	0.9237513	-0.3329528	0.01376577	-0.008907786	-0.0008902911	-0.001878935	0.003356562	0.0109019
	0.004836772	0.0102209	-0.0008902925	-0.001878932	0.01486266	-0.009438819	0.9236337	-0.3329172
	-0.0008908179	-0.00187923	0.003356558	0.0109019	0.9236337	-0.3329172	0.0138277	-0.00907078
5e+07	0.01430979	-0.01318488	0.8906845	-0.4092754	0.007193549	0.01192762	-0.0012229	-0.002222913
	0.8906845	-0.4092754	0.0127645	-0.01251208	-0.001222363	-0.002222061	0.004992388	0.01312228
	0.00719355	0.01192762	-0.001222365	-0.00222206	0.01434287	-0.01335909	0.8905819	-0.4092515
	-0.001222902	-0.002222912	0.004992384	0.01312228	0.8905819	-0.4092515	0.01278473	-0.01268136
6e+07	0.01314251	-0.01703265	0.8515227	-0.4823001	0.009880094	0.01316858	-0.001599096	-0.002536736
	0.8515227	-0.4823001	0.01100547	-0.01589188	-0.001598388	-0.002535355	0.006877297	0.01509945
	0.009880094	0.01316858	-0.001598386	-0.002535354	0.01314047	-0.01720882	0.8514291	-0.482293
	-0.001599095	-0.002536737	0.0068773	0.01509945	0.8514291	-0.482293	0.01098725	-0.0160591
7e+07	0.01135768	-0.0206918	0.8065427	-0.551573	0.01281454	0.01389052	-0.002023618	-0.002819058
	0.8065427	-0.551573	0.008591394	-0.01889968	-0.002022619	-0.0028172	0.008975108	0.01680656
	0.01281454	0.01389052	-0.002022616	-0.002817202	0.01132405	-0.02086389	0.8064517	-0.5515853
	-0.002023617	-0.002819061	0.008975111	0.01680656	0.8064517	-0.5515853	0.008538739	-0.01905757
8e+07	0.009027854	-0.02405958	0.7560717	-0.6166545	0.01590629	0.01405375	-0.002500204	-0.00306554
	0.7560717	-0.6166545	0.005631223	-0.02141674	-0.002498787	-0.003063245	0.01124485	0.01822295
	0.01590629	0.01405375	-0.002498789	-0.003063243	0.008966518	-0.02422255	0.7559766	-0.6166879
	-0.002500205	-0.003065538	0.01124485	0.01822296	0.7559766	-0.6166879	0.005548759	-0.02155896
9e+07	0.006233295	-0.02705164	0.7004743	-0.6771284	0.01905903	0.01363362	-0.003031815	-0.003269272
	0.7004743	-0.6771284	0.002243852	-0.02334787	-0.003029864	-0.003266632	0.0136429	0.0193349
	0.01905903	0.01363362	-0.003029865	-0.003266623	0.006149019	-0.0272009	0.7003689	-0.6771842
	-0.003031814	-0.003269263	0.0136429	0.01933491	0.7003689	-0.6771842	0.002137043	-0.02346897
1e+08	0.003071001	-0.02959246	0.6401404	-0.7326199	0.02217276	0.01262005	-0.003619788	-0.003420181
	0.6401404	-0.7326199	-0.001431928	-0.02461319	-0.003617223	-0.003417357	0.01612441	0.02013506
	0.02217276	0.01262005	-0.003617222	-0.003417358	0.002971455	-0.02972223	0.640014	-0.7326999
	-0.003619788	-0.003420182	0.01612441	0.02013506	0.640014	-0.7326999	-0.001554835	-0.02470679
1.1e+08	-0.0003472689	-0.03170134	0.5754853	-0.7826817	0.02514236	0.011024	-0.004260465	-0.003509485
	0.5754853	-0.7826817	-0.005234544	-0.02527169	-0.004256555	-0.003508015	0.0186421	0.02062664
	0.02514236	0.01102401	-0.004256555	-0.003508016	-0.0004469821	-0.03181016	0.5753274	-0.7827701
	-0.004260465	-0.003509487	0.0186421	0.02062664	0.5753274	-0.7827701	-0.005297572	-0.02533996
1.2e+08	-0.004015442	-0.03332909	0.5070646	-0.8270371	0.0278749	0.0088704	-0.004955125	-0.003529614
	0.5070646	-0.8270371	-0.009143154	-0.02521919	-0.004951259	-0.003528718	0.02115761	0.02081841
	0.0278749	0.0088704	-0.004951259	-0.00352872	-0.004117014	-0.03343066	0.5068765	-0.827128
	-0.004955125	-0.003529615	0.02115761	0.02081841	0.5068765	-0.827128	-0.009200372	-0.02529784
1.3e+08	-0.00783154	-0.03443678	0.4353551	-0.8654299	0.03027672	0.006197248	-0.005700512	-0.003465841
	0.4353551	-0.8654299	-0.01299221	-0.02444381	-0.005696715	-0.003464775	0.02363122	0.02072312
	0.03027672	0.006197249	-0.005696715	-0.003464777	-0.00793849	-0.0345356	0.4351353	-0.8655161
	-0.005700512	-0.003465843	0.02363122	0.02072312	0.4351353	-0.8655161	-0.01307003	-0.02452435
1.4e+08	-0.01170244	-0.03501644	0.3608625	-0.8976297	0.03226172	0.003057974	-0.006489145	-0.0033038
	0.3608625	-0.8976297	-0.01664293	-0.02297061	-0.006485008	-0.003302324	0.02602721	0.02036028
	0.03226172	0.003057975	-0.006485008	-0.003302325	-0.01181774	-0.03511276	0.3606124	-0.8977071
	-0.006489145	-0.003303801	0.02602721	0.02036028	0.3606124	-0.8977071	-0.01674642	-0.02303852
1.5e+08	-0.01554088	-0.03507898	0.2841127	-0.9234522	0.03375244	-0.0004807443	-0.007309781	-0.003030057
	0.2841127	-0.9234522	-0.01997096	-0.02084638	-0.007304921	-0.003028298	0.02831422	0.01975379
	0.03375244	-0.000480744	-0.007304922	-0.003028298	-0.01566569	-0.03517123	0.283833	-0.9235149
	-0.007309781	-0.003030058	0.02831422	0.01975379	0.283833	-0.9235149	-0.02009521	-0.02089137
1.6e+08	-0.01926636	-0.03465067	0.2056411	-0.9427521	0.03468232	-0.004340614	-0.008147878	-0.002632794
	0.2056411	-0.9427521	-0.02286478	-0.01813611	-0.008142095	-0.002631038	0.03046624	0.01893176
	0.03468232	-0.004340614	-0.008142095	-0.002631039	-0.01940053	-0.03473702	0.2053335	-0.9427955
	-0.008147878	-0.002632795	0.03046624	0.01893176	0.2053335	-0.9427955	-0.02300167	-0.01815286
1.7e+08	-0.02280811	-0.03377022	0.1259934	-0.9554282	0.0349972	-0.008433221	-0.008985827	-0.002102473
	0.1259934	-0.9554282	-0.02522679	-0.0149214	-0.008979045	-0.002101064	0.03246276	0.01792505
	0.0349972	-0.008433221	-0.008979045	-0.002101065	-0.02295051	-0.03384932	0.1256601	-0.9554481
	-0.008985827	-0.002102473	0.03246276	0.01792505	0.1256601	-0.9554481	-0.02536809	-0.01490848
1.8e+08	-0.02610509	-0.03248672	0.04571852	-0.9614251	0.03465692	-0.01266235	-0.009803653	-0.001432401
	0.04571852	-0.9614251	-0.02697485	-0.0112979	-0.009795947	-0.001431643	0.03428935	0.01676638
	0.03465692	-0.01266235	-0.009795947	-0.001431643	-0.02625439	-0.03255776	0.04536199	-0.9614187
	-0.009803654	-0.001432401	0.03428935	0.01676637	0.04536199	-0.9614187	-0.02711337	-0.01125621
1.9e+08	-0.02910855	-0.03085674	-0.03463275	-0.9607312	0.03363628	-0.01692603	-0.01057935	-0.0006193098
	-0.03463275	-0.9607312	-0.02804425	-0.007373318	-0.01057087	-0.0006194709	0.03593772	0.01548949
	0.03363628	-0.01692603	-0.01057087	-0.000619471	-0.02926309	-0.03091968	-0.03501013	-0.960693
	-0.01057935	-0.00061931	0.03593772	0.01548949	-0.03501013	-0.960693	-0.02817386	-0.007305137
2e+08	-0.03178114	-0.02894256	-0.1145145	-0.9533772	0.03192531	-0.02111848	-0.01128965	0.000336267
	-0.1145145	-0.9533772	-0.02838888	-0.003264081	-0.01128062	0.0003349937	0.03740523	0.01412746
	0.03192531	-0.02111848	-0.01128062	0.0003349936	-0.03193978	-0.0289977	-0.1149086	-0.9533048
	-0.01128965	0.0003362669	0.03740523	0.01412746	-0.1149086	-0.9533048	-0.02850502	-0.003172636
2.1e+08	-0.03409834	-0.02680977	-0.1933813	-0.9394388	0.02953031	-0.02513285	-0.01191074	0.001429618
	-0.1933813	-0.9394388	-0.02798262	0.0009072005	-0.01190139	0.001427087	0.03869516	0.01271252
	0.02953031	-0.02513285	-0.01190139	0.001427087	-0.03426015	-0.02685768	-0.1937897	-0.9393285
	-0.01191074	0.001429618	0.03869516	0.01271252	-0.1937897	-0.9393285	-0.02808151	0.001018673
2.2e+08	-0.03604817	-0.02452458	-0.2707017	-0.9190335	0.02647359	-0.02886338	-0.01241921	0.002651802
	-0.2707017	-0.9190335	-0.02681992	0.005015634	-0.01240978	0.002647952	0.03981641	0.01127486
	0.02647359	-0.02886338	-0.01240978	0.002647952	-0.03621255	-0.02456595	-0.2711207	-0.9188836
	-0.01241921	0.002651802	0.03981641	0.01127486	-0.2711207	-0.9188836	-0.02689899	0.005143542
2.3e+08	-0.0376306	-0.0221519	-0.3459556	-0.8923216	0.0227931	-0.0322074	-0.01279261	0.003989621
	-0.3459556	-0.8923216	-0.02491603	0.008936999	-0.01278337	0.003984425	0.04078176	0.009841071
	0.0227931	-0.0322074	-0.01278337	0.003984424	-0.0377973	-0.02218752	-0.3463803	-0.89213
	-0.01279261	0.003989621	0.04078176	0.009841071	-0.3463803	-0.89213	-0.02497313	0.009077897
2.4e+08	-0.03885717	-0.01975386	-0.4186333	-0.8595019	0.01854225	-0.03506817	-0.01301059	0.005425908
	-0.4186333	-0.8595019	-0.02230584	0.01255106	-0.01300181	0.005419384	0.0416091	0.008434949
	0.01854225	-0.03506817	-0.01300181	0.005419384	-0.03902615	-0.01978425	-0.4190601	-0.8592656
	-0.01301059	0.005425908	0.0416091	0.008434949	-0.4190601	-0.8592656	-0.02233922	0.01270162
2.5e+08	-0.03974979	-0.01738644	-0.4882499	-0.8208152	0.01378861	-0.0373567	-0.01305549	0.006939867
	-0.4882499	-0.8208152	-0.01904358	0.01574542	-0.01304738	0.006932118	0.04231949	0.007075599
	0.01378861	-0.0373567	-0.01304738	0.006932118	-0.03992121	-0.01741227	-0.4886742	-0.8205327
	-0.01305549	0.006939866	0.04231949	0.007075599	-0.4886742	-0.8205327	-0.01905218	0.01590219
2.6e+08	-0.04033955	-0.01509921	-0.5543358	-0.7765391	0.008613106	-0.03899412	-0.01291325	0.008507756
	-0.5543358	-0.7765391	-0.01520138	0.01841724	-0.01290608	0.008498886	0.04293658	0.005777513
	0.008613106	-0.03899412	-0.01290608	0.008498886	-0.04051379	-0.01512076	-0.5547524	-0.7762107
	-0.01291325	0.008507756	0.04293658	0.005777513	-0.5547524	-0.7762107	-0.01518427	0.01857703
2.7e+08	-0.04066486	-0.01293333	-0.616449	-0.7269886	0.003108186	-0.03991285	-0.01257347	0.01010337
	-0.616449	-0.7269886	-0.0108664	0.02047743	-0.01256736	0.01009348	0.04348589	0.004550076
	0.003108186	-0.03991285	-0.01256736	0.01009348	-0.04084231	-0.01295088	-0.616854	-0.7266119
	-0.01257347	0.01010337	0.04348589	0.004550076	-0.616854	-0.7266119	-0.01082295	0.02063688
2.8e+08	-0.04076995	-0.01091996	-0.674172	-0.6725121	-0.002623648	-0.0400592	-0.01203025	0.01169898
	-0.674172	-0.6725121	-0.006139389	0.02185167	-0.01202545	0.01168835	0.04399426	0.003397682
	-0.002623648	-0.0400592	-0.01202545	0.01168835	-0.04095128	-0.01093368	-0.6745588	-0.6720881
	-0.01203025	0.01169898	0.04399426	0.003397682	-0.6745588	-0.6720881	-0.006069305	0.02200734
2.9e+08	-0.04070261	-0.009080281	-0.727117	-0.613493	-0.008471699	-0.03939386	-0.011282	0.01326595
	-0.727117	-0.613493	-0.001131918	0.02248309	-0.01127867	0.01325479	0.04448771	0.002318887
	-0.008471699	-0.03939386	-0.01127867	0.01325479	-0.04088835	-0.009089835	-0.7274818	-0.6130225
	-0.011282	0.01326595	0.04448771	0.002318887	-0.7274818	-0.6130225	-0.001035459	0.02263156
3e+08	-0.0405122	-0.007424684	-0.7749302	-0.5503444	-0.01431954	-0.03789386	-0.01033222	0.01477615
	-0.7749302	-0.5503444	0.004037137	0.02233357	-0.01033041	0.01476467	0.0449922	0.001307469
	-0.01431954	-0.03789386	-0.01033041	0.01476467	-0.04070307	-0.007429946	-0.7752671	-0.5498274
	-0.01033222	0.01477615	0.0449922	0.001307469	-0.7752671	-0.5498274	0.00415949	0.02247125
3.1e+08	-0.04024767	-0.005952815	-0.817289	-0.4835062	-0.02004709	-0.03555295	-0.00918828	0.01620194
	-0.817289	-0.4835062	0.009244486	0.02138429	-0.00918806	0.01619044	0.04553158	0.0003520275
	-0.02004709	-0.03555295	-0.009188061	0.01619044	-0.04044442	-0.005953326	-0.817592	-0.4829437
	-0.009188281	0.01620194	0.04553158	0.0003520274	-0.817592	-0.4829437	0.009391939	0.02150768
3.2e+08	-0.03995524	-0.004654248	-0.8539106	-0.4134436	-0.02553307	-0.03238211	-0.007862018	0.01751774
	-0.8539106	-0.4134436	0.01436566	0.01963672	-0.007863441	0.01750661	0.04612718	-0.0005635669
	-0.02553307	-0.03238211	-0.007863441	0.01750661	-0.04015852	-0.00464906	-0.854174	-0.41284
	-0.007862018	0.01751774	0.04612718	-0.000563567	-0.854174	-0.41284	0.01453632	0.01974239
3.3e+08	-0.03967661	-0.003508598	-0.8845498	-0.3406496	-0.03065754	-0.02840987	-0.006368757	0.01870016
	-0.8845498	-0.3406496	0.0192777	0.01711228	-0.006371729	0.01868965	0.04679685	-0.00145962
	-0.03065754	-0.02840987	-0.006371729	0.01868965	-0.03988691	-0.00349683	-0.8847696	-0.3400049
	-0.006368757	0.01870016	0.04679685	-0.00145962	-0.8847696	-0.3400049	0.01946987	0.017197
3.4e+08	-0.03944712	-0.00248752	-0.9090043	-0.2656283	-0.03530457	-0.02368206	-0.004727058	0.01972907
	-0.9090043	-0.2656283	0.02386365	0.01385136	-0.004731429	0.01971952	0.0475546	-0.002359947
	-0.03530457	-0.02368206	-0.004731429	0.01971952	-0.03966483	-0.002467843	-0.9091754	-0.2649477
	-0.004727058	0.01972907	0.0475546	-0.002359947	-0.9091754	-0.2649477	0.02407466	0.01391229
3.5e+08	-0.03929397	-0.001555385	-0.9271138	-0.1889055	-0.03936423	-0.01826121	-0.002957749	0.02058748
	-0.9271138	-0.1889055	0.02801423	0.009912817	-0.002963366	0.02057927	0.04840915	-0.003291201
	-0.03936423	-0.01826121	-0.002963366	0.02057927	-0.03951931	-0.001526428	-0.927232	-0.188192
	-0.002957749	0.02058748	0.04840915	-0.003291201	-0.927232	-0.188192	0.02824136	0.009947416
3.6e+08	-0.0392351	-0.0006713756	-0.9387635	-0.1110182	-0.04273573	-0.01222554	-0.001083468	0.02126235
	-0.9387635	-0.1110182	0.03163168	0.005371916	-0.001090016	0.02125568	0.04936469	-0.004282047
	-0.04273573	-0.01222554	-0.001090016	0.02125568	-0.039468	-0.0006314086	-0.9388233	-0.1102769
	-0.001083468	0.02126235	0.04936469	-0.004282047	-0.9388233	-0.1102769	0.03187147	0.005378005
3.7e+08	-0.03927863	0.0002083156	-0.9438826	-0.03250815	-0.04532904	-0.005667685	0.0008724098	0.02174416
	-0.9438826	-0.03250815	0.03463191	0.0003180185	0.000865265	0.02173923	0.05041946	-0.00536217
	-0.04532904	-0.005667685	0.0008652649	0.02173923	-0.03951868	0.0002609667	-0.9438813	-0.0317432
	0.0008724098	0.02174416	0.05041946	-0.00536217	-0.9438813	-0.0317432	0.03488089	0.0002940471
3.8e+08	-0.03942146	0.001128991	-0.9424478	0.04607374	-0.04706738	0.001306785	0.002886172	0.02202725
	-0.9424478	0.04607374	0.03694635	-0.005147283	0.002878825	0.02202423	0.05156619	-0.006561346
	-0.04706738	0.001306785	0.002878825	0.02202423	-0.03966789	0.001196275	-0.9423809	0.04685625
	0.002886172	0.02202725	0.05156619	-0.006561346	-0.9423809	0.04685625	0.03720064	-0.005202395
3.9e+08	-0.03965015	0.002134392	-0.9344832	0.1241824	-0.04788871	0.008581423	0.004934721	0.02210939
	-0.9344832	0.1241824	0.03852424	-0.01091353	0.004927593	0.02210825	0.05279191	-0.007908386
	-0.04788871	0.008581423	0.004927593	0.02210825	-0.0399018	0.002218114	-0.9343478	0.1249775
	0.004934721	0.02210939	0.05279191	-0.007908386	-0.9343478	0.1249775	0.03878005	-0.01100026
4e+08	-0.03994013	0.003265485	-0.9200582	0.2012724	-0.04774741	0.01603112	0.006995953	0.02199157
	-0.9200582	0.2012724	0.03933319	-0.01686406	0.006989512	0.02199229	0.05407821	-0.009430425
	-0.04774741	0.01603112	0.006989512	0.02199229	-0.0401955	0.003367424	-0.9198519	0.202074
	0.006995953	0.02199157	0.05407821	-0.009430425	-0.9198519	0.202074	0.03958665	-0.01698229
4.1e+08	-0.04025713	0.004557277	-0.8992897	0.276809	-0.04661536	0.0235242	0.009049309	0.02167725
	-0.8992897	0.276809	0.03936025	-0.02287921	0.009043995	0.0216798	0.05540122	-0.01115129
	-0.04661536	0.0235242	0.009043995	0.0216798	-0.04051425	0.004679073	-0.8990108	0.2776096
	0.009049309	0.02167725	0.05540122	-0.01115129	-0.8990108	0.2776096	0.03960752	-0.02302818
4.2e+08	-0.04055858	0.006037487	-0.8723367	0.3502697	-0.04448272	0.03092557	0.01107621	0.02117233
	-0.8723367	0.3502697	0.03861161	-0.02883992	0.01107247	0.02117641	0.05673275	-0.01309128
	-0.04448272	0.03092557	0.01107247	0.02117641	-0.04081499	0.006180607	-0.8719838	0.3510635
	0.01107621	0.02117233	0.05673275	-0.01309128	-0.8719838	0.3510635	0.03884927	-0.02901847
4.3e+08	-0.04079412	0.007724459	-0.8394044	0.4211491	-0.04135869	0.03809865	0.01306015	0.02048411
	-0.8394044	0.4211491	0.03711305	-0.03463043	0.01305833	0.0204893	0.05804034	-0.01526604
	-0.04135869	0.03809865	0.01305833	0.0204893	-0.04104714	0.007889935	-0.8389782	0.4219284
	0.01306015	0.02048411	0.05804034	-0.01526604	-0.8389782	0.4219284	0.03733771	-0.03483662
4.4e+08	-0.04090833	0.009625752	-0.8007396	0.4889622	-0.03727105	0.04490835	0.0149867	0.0196208
	-0.8007396	0.4889622	0.03490798	-0.04014145	0.0149872	0.01962688	0.05928875	-0.01768612
	-0.03727105	0.04490835	0.0149872	0.01962688	-0.04115483	0.009814301	-0.8002384	0.4897195
	0.0149867	0.0196208	0.05928875	-0.01768612	-0.8002384	0.4897195	0.03511658	-0.04037324
4.5e+08	-0.04084237	0.01173713	-0.7566278	0.5532469	-0.03226596	0.05122371	0.01684357	0.01859124
	-0.7566278	0.5532469	0.03205651	-0.04527353	0.01684663	0.01859764	0.06044016	-0.02035589
	-0.03226596	0.05122371	0.01684663	0.01859764	-0.04107916	0.01194893	-0.7560534	0.5539755
	0.01684357	0.01859124	0.06044016	-0.02035589	-0.7560534	0.5539755	0.03224661	-0.04552821
4.6e+08	-0.04053693	0.01404156	-0.7073891	0.6135695	-0.02640775	0.0569201	0.01862037	0.01740423
	-0.7073891	0.6135695	0.02863338	-0.04993853	0.01862615	0.01741042	0.06145585	-0.02327412
	-0.02640775	0.0569201	0.01862615	0.01741042	-0.04076031	0.01427642	-0.7067422	0.6142619
	0.01862037	0.01740423	0.06145585	-0.02327412	-0.7067422	0.6142619	0.02880291	-0.05021342
4.7e+08	-0.03993379	0.01650908	-0.6533811	0.6695253	-0.0197771	0.06188224	0.02030812	0.01606813
	-0.6533811	0.6695253	0.02472603	-0.05406312	0.02031664	0.01607341	0.06229659	-0.02643259
	-0.0197771	0.06188224	0.02031664	0.01607341	-0.04014033	0.01676606	-0.6526652	0.6701762
	0.02030812	0.01606813	0.0622966	-0.02643259	-0.6526652	0.6701762	0.02487337	-0.05435497
4.8e+08	-0.03897908	0.01909687	-0.5949924	0.7207426	-0.01247031	0.06600573	0.02189901	0.01459046
	-0.5949924	0.7207426	0.02043161	-0.05758903	0.0219102	0.01459423	0.06292436	-0.02981736
	-0.01247031	0.06600573	0.0219102	0.01459423	-0.03916485	0.0193746	-0.5942092	0.7213435
	0.02189901	0.01459046	0.06292436	-0.02981736	-0.5942092	0.7213435	0.02055579	-0.05789472
4.9e+08	-0.03762586	0.02175026	-0.5326378	0.7668871	-0.004597447	0.06919952	0.0233862	0.0129782
	-0.5326378	0.7668871	0.01585469	-0.06047598	0.02339988	0.01297985	0.06330306	-0.03340808
	-0.004597447	0.06919952	0.02339988	0.01297985	-0.03778743	0.02204655	-0.5317909	0.7674314
	0.0233862	0.0129782	0.06330306	-0.03340808	-0.5317909	0.7674314	0.01595517	-0.06079212
5e+08	-0.03583561	0.0244035	-0.4667566	0.807655	0.003719865	0.07138729	0.02476286	0.01123707
	-0.4667566	0.807655	0.0111034	-0.06270118	0.02477867	0.01123604	0.06339933	-0.03717919
	0.003719865	0.07138729	0.02477867	0.01123604	-0.03596967	0.02471554	-0.4658502	0.8081377
	0.02476286	0.01123707	0.06339933	-0.03717919	-0.4658502	0.8081377	0.01118027	-0.06302457
5.1e+08	-0.0335816	0.02698122	-0.3978095	0.8427878	0.01234989	0.07250918	0.02602202	0.009372061
	-0.3978095	0.8427878	0.006287692	-0.06426007	0.02603956	0.009367807	0.06318384	-0.04109939
	0.01234989	0.07250918	0.02603956	0.009367807	-0.03368496	0.02730573	-0.3968483	0.8432015
	0.02602202	0.009372061	0.06318384	-0.04109939	-0.3968483	0.8432015	0.006341526	-0.06458769
5.2e+08	-0.03084965	0.02940105	-0.3262767	0.8720616	0.02115344	0.0725231	0.02715627	0.007387598
	-0.3262767	0.8720616	0.001515088	-0.06516666	0.02717491	0.007379608	0.06263213	-0.04513359
