!$
! Info: Touchstone file created by Circ.  Input file=C2M_PCB_93ohms_3p5in_20230620_v3.circ
!$
# Hz S RI R 50
0	0.005966695	2.430461e-24	0.9940029	-2.188916e-24	0.0001414292	7.159002e-23	-0.0001377203	1.693564e-20
	0.9940029	-2.044004e-24	0.005785533	9.466658e-25	-0.0001350521	1.660891e-20	-3.323468e-06	8.272272e-21
	0.0001414293	7.162436e-23	-0.0001350521	1.66087e-20	0.005970053	2.935784e-24	0.9940162	-2.141925e-24
	-0.0001377202	1.693566e-20	-3.32349e-06	8.272346e-21	0.9940162	-2.158693e-24	0.005798907	1.422345e-24
1e+07	0.008453256	0.0006931772	0.989076	-0.0674872	0.0003968848	0.00258975	-0.0002345782	-0.0005640727
	0.989076	-0.0674872	0.008303335	0.0007697779	-0.0002325903	-0.0005647421	0.000257876	0.002655879
	0.0003968848	0.00258975	-0.0002325903	-0.0005647421	0.008614003	0.0006837963	0.9889273	-0.06751781
	-0.0002345782	-0.0005640727	0.000257876	0.002655879	0.9889273	-0.06751781	0.008463707	0.0007591322
2e+07	0.01029485	-0.000602027	0.9803834	-0.1324776	0.0009843105	0.005090105	-0.0003365932	-0.001097331
	0.9803834	-0.1324776	0.01012274	-0.000509697	-0.0003353229	-0.001097791	0.0007515342	0.005194775
	0.0009843474	0.005090015	-0.0003352986	-0.001097838	0.01041876	-0.0006752682	0.9802571	-0.1324742
	-0.0003365665	-0.001097375	0.0007515542	0.005194773	0.9802571	-0.1324742	0.0102446	-0.0005843289
3e+07	0.01142367	-0.002725974	0.9680115	-0.1959489	0.001959915	0.007416486	-0.0005257713	-0.001551813
	0.9680115	-0.1959489	0.01114478	-0.002623622	-0.0005248382	-0.001551962	0.001527893	0.007578045
	0.001959905	0.007416477	-0.0005248463	-0.001551959	0.01151691	-0.002824264	0.9679016	-0.1959453
	-0.0005257806	-0.00155181	0.001527885	0.007578062	0.9679016	-0.1959453	0.01123476	-0.002722572
4e+07	0.01203053	-0.005151942	0.9518352	-0.2581417	0.003281337	0.009571527	-0.00077477	-0.001968326
	0.9518352	-0.2581417	0.01157011	-0.005009931	-0.0007739964	-0.001968072	0.002556736	0.009843121
	0.003281338	0.00957153	-0.000773998	-0.001968069	0.01209632	-0.005264517	0.9517374	-0.2581467
	-0.0007747712	-0.001968324	0.002556733	0.009843122	0.9517374	-0.2581467	0.01163114	-0.005122223
5e+07	0.01219884	-0.007719185	0.9318568	-0.318932	0.004904164	0.01152833	-0.001058849	-0.002358603
	0.9318568	-0.318932	0.01149624	-0.007489464	-0.001058073	-0.002357919	0.003809096	0.01198346
	0.004904165	0.01152833	-0.001058075	-0.002357919	0.01223925	-0.007839599	0.931767	-0.3189505
	-0.001058851	-0.002358602	0.003809093	0.01198346	0.931767	-0.3189505	0.01153084	-0.007608292
6e+07	0.0119744	-0.01033539	0.9081374	-0.3781327	0.006805656	0.01325211	-0.001380443	-0.002723809
	0.9081374	-0.3781327	0.01097941	-0.009958391	-0.001379566	-0.002722736	0.005276565	0.01397953
	0.006805655	0.01325211	-0.001379564	-0.002722736	0.01199179	-0.01045872	0.9080516	-0.3781683
	-0.001380442	-0.00272381	0.005276569	0.01397952	0.9080516	-0.3781683	0.01098947	-0.01007888
7e+07	0.01138985	-0.01293244	0.8807672	-0.435539	0.008957085	0.01470974	-0.001740739	-0.00306327
	0.8807672	-0.435539	0.01006248	-0.01233878	-0.001739706	-0.003061858	0.006944824	0.01581136
	0.008957085	0.01470974	-0.001739703	-0.00306186	0.01138626	-0.01305487	0.8806808	-0.4355937
	-0.001740737	-0.003063272	0.006944827	0.01581135	0.8806808	-0.4355937	0.01005023	-0.01245658
8e+07	0.01047526	-0.01545424	0.8498601	-0.4909437	0.01132521	0.01587136	-0.002140518	-0.003375382
	0.8498601	-0.4909437	0.008785595	-0.01456584	-0.002139276	-0.003373646	0.008795974	0.01746078
	0.01132521	0.01587136	-0.002139278	-0.003373644	0.01045289	-0.0155725	0.8497686	-0.491019
	-0.002140519	-0.00337538	0.008795972	0.01746078	0.8497686	-0.491019	0.008753472	-0.01467703
9e+07	0.009262559	-0.01785247	0.8155447	-0.5441428	0.01387339	0.01671118	-0.002580423	-0.003657705
	0.8155447	-0.5441428	0.007191068	-0.01658284	-0.002578918	-0.003655685	0.01080975	0.01891194
	0.01387339	0.01671118	-0.002578921	-0.003655675	0.009224136	-0.01796325	0.8154439	-0.5442401
	-0.002580423	-0.003657696	0.01080975	0.01891195	0.8154439	-0.5442401	0.00714188	-0.01668387
1e+08	0.007792757	-0.0200776	0.7779592	-0.5949491	0.01656185	0.01720679	-0.0030609	-0.003906401
	0.7779592	-0.5949491	0.005331809	-0.01833242	-0.003059092	-0.003904178	0.01296418	0.0201509
	0.01656185	0.01720679	-0.003059092	-0.003904179	0.007743003	-0.02017599	0.7778415	-0.5950709
	-0.0030609	-0.003906402	0.01296418	0.0201509	0.7778415	-0.5950709	0.005269954	-0.0184183
1.1e+08	0.006126466	-0.02214045	0.7372354	-0.6431071	0.01934489	0.01734342	-0.003579793	-0.004117996
	0.7372354	-0.6431071	0.003294885	-0.01985643	-0.003576616	-0.004116914	0.01523341	0.02116874
	0.01934489	0.01734342	-0.003576615	-0.004116915	0.006073934	-0.02222085	0.7370918	-0.6432429
	-0.003579792	-0.004117997	0.01523342	0.02116874	0.7370918	-0.6432429	0.003294044	-0.01992612
1.2e+08	0.004237067	-0.02401663	0.693616	-0.6884517	0.02218214	0.01711054	-0.004137898	-0.004292643
	0.693616	-0.6884517	0.001033144	-0.02106414	-0.004134945	-0.004292182	0.01759676	0.02195915
	0.02218214	0.01711054	-0.004134945	-0.004292184	0.004184806	-0.02409102	0.6934464	-0.6885982
	-0.004137897	-0.004292644	0.01759676	0.02195914	0.6934464	-0.6885982	0.001039436	-0.02115378
1.3e+08	0.002166723	-0.02566627	0.6472799	-0.7308283	0.02502872	0.01650079	-0.004736548	-0.004424536
	0.6472799	-0.7308283	-0.00137382	-0.02192176	-0.004734072	-0.004423912	0.02003019	0.02251632
	0.02502872	0.01650079	-0.004734072	-0.004423914	0.002113366	-0.02574003	0.6470813	-0.7309802
	-0.004736548	-0.004424537	0.02003019	0.02251632	0.6470813	-0.7309802	-0.001387879	-0.02202347
1.4e+08	-4.414419e-05	-0.02706748	0.5984202	-0.7700803	0.02783976	0.01551284	-0.005375261	-0.004507409
	0.5984202	-0.7700803	-0.003863462	-0.02241606	-0.005372978	-0.00450621	0.02250982	0.02283823
	0.02783976	0.01551284	-0.005372978	-0.004506211	-0.0001010521	-0.02714236	0.5981927	-0.770235
	-0.005375261	-0.00450741	0.02250982	0.02283823	0.5981927	-0.770235	-0.003904315	-0.02251575
1.5e+08	-0.00235506	-0.02820791	0.5472447	-0.8060669	0.03057019	0.01415027	-0.006052204	-0.004534794
	0.5472447	-0.8060669	-0.006378906	-0.02254149	-0.006049749	-0.004532945	0.02501192	0.0229251
	0.03057019	0.01415027	-0.00604975	-0.004532946	-0.002417241	-0.0282835	0.5469873	-0.8062199
	-0.006052204	-0.004534795	0.02501192	0.0229251	0.5469873	-0.8062199	-0.006443287	-0.02262904
1.6e+08	-0.00472556	-0.02908242	0.4939663	-0.8386569	0.03317565	0.01242167	-0.006764475	-0.004500165
	0.4939663	-0.8386569	-0.008865638	-0.02229846	-0.006761596	-0.004497771	0.02751363	0.02278001
	0.03317565	0.01242167	-0.006761597	-0.004497771	-0.004793853	-0.02915757	0.4936788	-0.8388046
	-0.006764475	-0.004500165	0.02751363	0.02278001	0.4936788	-0.8388046	-0.0089472	-0.02236849
1.7e+08	-0.007117192	-0.02969261	0.4388073	-0.8677321	0.03561279	0.01034063	-0.007508015	-0.00439699
	0.4388073	-0.8677321	-0.01127068	-0.02169387	-0.007504534	-0.004394229	0.02999291	0.02240834
	0.03561279	0.01034063	-0.007504534	-0.004394229	-0.007191502	-0.02976603	0.43849	-0.867871
	-0.007508015	-0.00439699	0.02999291	0.02240834	0.43849	-0.867871	-0.01136302	-0.02174456
1.8e+08	-0.009492814	-0.0300455	0.3819957	-0.8931901	0.03784018	0.007925436	-0.008277845	-0.004218882
	0.3819957	-0.8931901	-0.01354255	-0.02074088	-0.008273706	-0.004215933	0.03242913	0.0218177
	0.03784018	0.007925436	-0.008273706	-0.004215933	-0.009572709	-0.03011623	0.3816494	-0.893318
	-0.008277845	-0.004218883	0.03242913	0.0218177	0.3816494	-0.893318	-0.01364028	-0.02077243
1.9e+08	-0.01181874	-0.03015345	0.3237657	-0.9149428	0.03981871	0.005198937	-0.00906781	-0.003959712
	0.3237657	-0.9149428	-0.01563215	-0.01945941	-0.009063007	-0.003956742	0.03480325	0.02101792
	0.03981871	0.005198937	-0.009063007	-0.003956742	-0.01190313	-0.03022083	0.3233901	-0.9150548
	-0.00906781	-0.003959713	0.03480325	0.02101792	0.3233901	-0.9150548	-0.01573096	-0.01947304
2e+08	-0.01406367	-0.03003303	0.2643533	-0.9329157	0.04151146	0.002188124	-0.009870704	-0.003613762
	0.2643533	-0.9329157	-0.01749324	-0.01787555	-0.00986528	-0.003610898	0.03709763	0.02002014
	0.04151146	0.002188124	-0.00986528	-0.003610898	-0.01415167	-0.0300969	0.2639505	-0.9330093
	-0.009870704	-0.003613762	0.03709763	0.02002014	0.2639505	-0.9330093	-0.01759016	-0.0178731
2.1e+08	-0.01619997	-0.02970506	0.2040034	-0.9470493	0.04288494	-0.001076005	-0.01067819	-0.003175951
	0.2040034	-0.9470493	-0.01908332	-0.0160216	-0.01067218	-0.003173296	0.03929663	0.01883731
	0.04288494	-0.001076005	-0.01067218	-0.003173296	-0.01629072	-0.02976546	0.2035731	-0.9471209
	-0.01067819	-0.003175951	0.03929663	0.01883731	0.2035731	-0.9471209	-0.01917607	-0.01600464
2.2e+08	-0.01820422	-0.02919351	0.1429583	-0.9573	0.04390912	-0.004558974	-0.01148101	-0.002642026
	0.1429583	-0.9573	-0.0203647	-0.01393519	-0.01147448	-0.002639634	0.04138691	0.01748374
	0.04390912	-0.004558974	-0.01147448	-0.002639634	-0.01829694	-0.02925075	0.1425023	-0.9573476
	-0.01148101	-0.002642026	0.04138691	0.01748374	0.1425023	-0.9573476	-0.0204519	-0.01390539
2.3e+08	-0.02005714	-0.028525	0.08146318	-0.96364	0.04455738	-0.008222998	-0.01226882	-0.00200869
	0.08146318	-0.96364	-0.02130517	-0.01165887	-0.0122618	-0.002006614	0.04335623	0.01597395
	0.04455738	-0.008222998	-0.0122618	-0.002006614	-0.02015122	-0.0285796	0.08098399	-0.9636605
	-0.01226882	-0.00200869	0.04335623	0.01597395	0.08098399	-0.9636605	-0.02138553	-0.01161748
2.4e+08	-0.02174363	-0.02772869	0.01976725	-0.9660527	0.0448076	-0.01202758	-0.01303058	-0.001273831
	0.01976725	-0.9660527	-0.02187773	-0.009239268	-0.01302313	-0.001272123	0.04519532	0.01432395
	0.0448076	-0.01202758	-0.01302313	-0.001272124	-0.02183872	-0.02778114	0.01926544	-0.9660426
	-0.01303058	-0.001273832	0.04519532	0.01432395	0.01926544	-0.9660426	-0.02195014	-0.0091872
2.5e+08	-0.023254	-0.0268346	-0.04188538	-0.9645417	0.04464182	-0.01592996	-0.01375455	-0.0004366606
	-0.04188538	-0.9645417	-0.02206218	-0.006725937	-0.01374669	-0.000435324	0.04689678	0.01254971
	0.04464182	-0.01592996	-0.01374669	-0.0004353241	-0.02334966	-0.02688556	-0.04240772	-0.9644984
	-0.01375455	-0.0004366607	0.04689678	0.01254971	-0.04240772	-0.9644984	-0.02212573	-0.006664113
2.6e+08	-0.02458296	-0.0258739	-0.1032473	-0.9591218	0.04404694	-0.01988553	-0.01442874	0.0005021584
	-0.1032473	-0.9591218	-0.021845	-0.004171424	-0.01442052	0.0005030593	0.0484551	0.0106674
	0.04404694	-0.01988553	-0.01442052	0.0005030592	-0.02467915	-0.025924	-0.1037868	-0.9590436
	-0.01442874	0.0005021583	0.0484551	0.0106674	-0.1037868	-0.9590436	-0.02189852	-0.004100512
2.7e+08	-0.02573001	-0.02487767	-0.1640755	-0.9498252	0.04301411	-0.02384817	-0.01504063	0.001540484
	-0.1640755	-0.9498252	-0.02121914	-0.001629139	-0.01503198	0.001540901	0.04986691	0.008692948
	0.04301411	-0.02384817	-0.01503198	0.001540901	-0.02582663	-0.02492751	-0.1646317	-0.9497089
	-0.01504063	0.001540484	0.04986691	0.008692948	-0.1646317	-0.9497089	-0.02126145	-0.001549836
2.8e+08	-0.02669991	-0.02387616	-0.2241288	-0.9366965	0.04153978	-0.02777112	-0.01557781	0.002674551
	-0.2241288	-0.9366965	-0.0201847	0.0008464233	-0.01556886	0.00267447	0.05113108	0.006642214
	0.04153978	-0.02777112	-0.01556886	0.00267447	-0.026797	-0.02392655	-0.2246971	-0.9365398
	-0.01557781	0.002674551	0.05113108	0.006642214	-0.2246971	-0.9365398	-0.02021433	0.0009332028
2.9e+08	-0.0275017	-0.02289834	-0.2831687	-0.9197971	0.03962498	-0.03160682	-0.01602779	0.003898972
	-0.2831687	-0.9197971	-0.018749	0.003201133	-0.01601858	0.003898314	0.0522475	0.004529896
	0.03962498	-0.03160682	-0.01601858	0.003898314	-0.02759963	-0.02294978	-0.2837471	-0.919599
	-0.01602779	0.003898971	0.0522475	0.004529896	-0.2837471	-0.919599	-0.01876476	0.003294347
3e+08	-0.02814886	-0.02197112	-0.3409627	-0.8992023	0.03727594	-0.03530819	-0.01637916	0.00520682
	-0.3409627	-0.8992023	-0.01692601	0.005382057	-0.01636966	0.005205532	0.05321853	0.002370336
	0.03727594	-0.03530819	-0.01636966	0.005205532	-0.02824781	-0.0220244	-0.3415481	-0.8989599
	-0.01637916	0.00520682	0.05321853	0.002370336	-0.3415481	-0.8989599	-0.01692644	0.005480369
3.1e+08	-0.02865897	-0.02111883	-0.3972814	-0.874999	0.0345037	-0.03882862	-0.0166204	0.00658953
	-0.3972814	-0.874999	-0.01473611	0.007338002	-0.01661069	0.006587551	0.05404763	0.0001767239
	0.0345037	-0.03882862	-0.01661069	0.006587551	-0.02875936	-0.02117472	-0.3978701	-0.8747099
	-0.0166204	0.00658953	0.05404763	0.0001767238	-0.3978701	-0.8747099	-0.01471964	0.007439879
3.2e+08	-0.02905292	-0.02036263	-0.4519038	-0.8472892	0.03132413	-0.04212255	-0.01674132	0.008037157
	-0.4519038	-0.8472892	-0.01220614	0.009020751	-0.01673156	0.008034489	0.05473977	-0.002038975
	0.03132413	-0.04212255	-0.01673156	0.008034489	-0.02915553	-0.02042169	-0.4524907	-0.8469534
	-0.01674132	0.008037157	0.05473977	-0.002038976	-0.4524907	-0.8469534	-0.01217199	0.009124217
3.3e+08	-0.02935509	-0.0197199	-0.5046109	-0.8161916	0.02775784	-0.04514603	-0.01673251	0.009538305
	-0.5046109	-0.8161916	-0.009369408	0.01038531	-0.01672274	0.009534881	0.05530097	-0.004266083
	0.02775784	-0.04514603	-0.01672274	0.009534881	-0.02946053	-0.0197827	-0.5051947	-0.8158064
	-0.01673251	0.009538305	0.05530097	-0.004266083	-0.5051947	-0.8158064	-0.009316376	0.01048846
3.4e+08	-0.02959195	-0.01920413	-0.5551974	-0.7818323	0.02382999	-0.04785733	-0.01658612	0.01108048
	-0.5551974	-0.7818323	-0.006264023	0.01139109	-0.01657642	0.01107631	0.05573839	-0.006495315
	0.02382999	-0.04785733	-0.01657642	0.01107631	-0.02970121	-0.01927113	-0.5557728	-0.7813985
	-0.01658612	0.01108048	0.05573839	-0.006495315	-0.5557728	-0.7813985	-0.006191616	0.01149167
3.5e+08	-0.02979218	-0.0188241	-0.6034613	-0.7443544	0.01957022	-0.05021687	-0.01629538	0.01265
	-0.6034613	-0.7443544	-0.002933668	0.0120023	-0.01628595	0.01264514	0.05605938	-0.00871888
	0.01957022	-0.05021687	-0.01628595	0.01264514	-0.0299062	-0.01889571	-0.6040253	-0.743871
	-0.01629538	0.01265	0.05605938	-0.00871888	-0.6040253	-0.743871	-0.0028413	0.01209805
3.6e+08	-0.02998565	-0.01858391	-0.6492111	-0.7039133	0.01501205	-0.05218842	-0.01585537	0.01423246
	-0.6492111	-0.7039133	0.0005739308	0.01218862	-0.01584624	0.0142269	0.05627243	-0.01093054
	0.01501205	-0.05218842	-0.01584624	0.0142269	-0.0301057	-0.01866036	-0.6497584	-0.7033798
	-0.01585537	0.01423246	0.05627243	-0.01093054	-0.6497584	-0.7033798	0.000686239	0.01227698
3.7e+08	-0.03020263	-0.01848325	-0.6922659	-0.6606721	0.01019286	-0.05373883	-0.01526251	0.01581271
	-0.6922659	-0.6606721	0.004207602	0.01192557	-0.01525378	0.01580651	0.05638583	-0.01312565
	0.01019286	-0.05373883	-0.01525378	0.01580651	-0.03032988	-0.01856461	-0.6927936	-0.6600889
	-0.01526251	0.01581271	0.05638583	-0.01312565	-0.6927936	-0.6600889	0.004339702	0.0120042
3.8e+08	-0.03047353	-0.01851631	-0.7324528	-0.6148103	0.005153505	-0.05483896	-0.01451516	0.01737517
	-0.7324528	-0.6148103	0.007912813	0.01119503	-0.01450693	0.01736841	0.05640813	-0.01530106
	0.005153505	-0.05483896	-0.01450693	0.01736841	-0.03060942	-0.01860244	-0.7329555	-0.6141777
	-0.01451516	0.01737517	0.05640813	-0.01530106	-0.7329555	-0.6141777	0.008064154	0.01126136
3.9e+08	-0.03082748	-0.01867303	-0.7696143	-0.5665141	-6.208157e-05	-0.05546363	-0.0136133	0.01890409
	-0.7696143	-0.5665141	0.01163343	0.009985698	-0.01360558	0.0188968	0.05634765	-0.0174552
	-6.208157e-05	-0.05546363	-0.01360558	0.0188968	-0.03097338	-0.01876359	-0.7700884	-0.5658322
	-0.0136133	0.01890409	0.05634765	-0.0174552	-0.7700884	-0.5658322	0.0118033	0.01003737
4e+08	-0.03129256	-0.01893798	-0.803601	-0.5159822	-0.005407403	-0.05559208	-0.01255878	0.02038374
	-0.803601	-0.5159822	0.01531167	0.008292986	-0.01255164	0.02037603	0.05621243	-0.01958815
	-0.005407403	-0.05559208	-0.01255164	0.02037603	-0.03144992	-0.01903245	-0.8040423	-0.5152522
	-0.01255878	0.02038374	0.05621243	-0.01958815	-0.8040423	-0.5152522	0.015499	0.00832766
4.1e+08	-0.03189418	-0.01929138	-0.8342785	-0.4634224	-0.01083355	-0.05520826	-0.01135511	0.02179844
	-0.8342785	-0.4634224	0.01888946	0.006119559	-0.01134867	0.0217905	0.05600963	-0.02170101
	-0.01083355	-0.05520826	-0.01134867	0.0217905	-0.03206444	-0.01938898	-0.834682	-0.4626466
	-0.01135511	0.02179844	0.05600963	-0.02170101	-0.834682	-0.4626466	0.0190928	0.006135028
4.2e+08	-0.03265501	-0.01970969	-0.8615235	-0.409049	-0.01629034	-0.05430092	-0.01000757	0.02313324
	-0.8615235	-0.409049	0.02230907	0.003474727	-0.01000179	0.02312514	0.05574586	-0.02379636
	-0.01629034	-0.05430092	-0.01000179	0.02312514	-0.03283964	-0.01980927	-0.8618858	-0.4082284
	-0.01000757	0.02313324	0.05574586	-0.02379636	-0.8618858	-0.4082284	0.02252702	0.003468884
4.3e+08	-0.03359414	-0.02016494	-0.8852289	-0.3530859	-0.02172609	-0.05286419	-0.008523014	0.02437366
	-0.8852289	-0.3530859	0.02551448	0.0003750483	-0.008517845	0.02436546	0.05542654	-0.02587789
	-0.02172609	-0.05286419	-0.008517845	0.02436546	-0.03379442	-0.02026528	-0.885546	-0.3522242
	-0.008523014	0.02437366	0.05542654	-0.02587789	-0.885546	-0.3522242	0.02574502	0.0003461951
4.4e+08	-0.03472657	-0.02062616	-0.9053021	-0.2957639	-0.02708848	-0.05089712	-0.006909709	0.02550597
	-0.9053021	-0.2957639	0.02845144	-0.003156077	-0.006905243	0.02549798	0.05505627	-0.02795045
	-0.02708848	-0.05089712	-0.006905243	0.02549798	-0.03494377	-0.02072568	-0.9055684	-0.2948625
	-0.006909709	0.02550597	0.05505627	-0.02795045	-0.9055684	-0.2948625	0.02869251	-0.003209918
4.5e+08	-0.03606288	-0.02105948	-0.9216642	-0.2373194	-0.03232517	-0.04840397	-0.00517742	0.02651758
	-0.9216642	-0.2373194	0.03106877	-0.007089346	-0.005173549	0.02650985	0.05463804	-0.03001929
	-0.03232517	-0.04840397	-0.005173549	0.02650985	-0.03629799	-0.02115655	-0.9218768	-0.2363819
	-0.00517742	0.02651758	0.05463804	-0.03001929	-0.9218768	-0.2363819	0.03131816	-0.007169447
4.6e+08	-0.03760845	-0.02142931	-0.9342511	-0.1779915	-0.03738393	-0.04539454	-0.003337074	0.02739704
	-0.9342511	-0.1779915	0.03331906	-0.01138886	-0.003333739	0.02738973	0.05417382	-0.03209067
	-0.03738393	-0.04539454	-0.003333739	0.02738973	-0.03786251	-0.02152179	-0.9344056	-0.1770208
	-0.003337074	0.02739704	0.05417382	-0.03209067	-0.9344056	-0.1770208	0.03357437	-0.01149676
4.7e+08	-0.03936343	-0.0216981	-0.9430163	-0.1180262	-0.04221388	-0.04188359	-0.001400747	0.02813404
	-0.9430163	-0.1180262	0.03515938	-0.01601379	-0.001397778	0.02812718	0.05366368	-0.03417071
	-0.04221388	-0.04188359	-0.001397778	0.02812718	-0.03963699	-0.02178403	-0.9431113	-0.1170259
	-0.001400747	0.02813404	0.05366368	-0.03417071	-0.9431113	-0.1170259	0.03541804	-0.0161502
4.8e+08	-0.04132229	-0.02182787	-0.9479294	-0.057672	-0.04676531	-0.0378911	0.0006187289	0.02871955
	-0.9479294	-0.057672	0.03655173	-0.02091753	0.0006214434	0.02871326	0.05310655	-0.03626615
	-0.04676531	-0.0378911	0.0006214434	0.02871326	-0.04161596	-0.02190463	-0.9479595	-0.05664614
	0.0006187289	0.02871955	0.05310655	-0.03626615	-0.9479595	-0.05664614	0.03681105	-0.02108343
4.9e+08	-0.04347397	-0.02178106	-0.9489774	0.002823955	-0.05099067	-0.03344205	0.002707658	0.02914632
	-0.9489774	0.002823955	0.03746437	-0.02605004	0.002710284	0.02914068	0.05249969	-0.03838329
	-0.05099067	-0.03344205	0.002710284	0.02914068	-0.04378779	-0.02184625	-0.9489399	0.003870966
	0.002707658	0.02914632	0.05249969	-0.03838329	-0.9489399	0.003870966	0.03772156	-0.02624572
5e+08	-0.04580178	-0.02152043	-0.9461589	0.06321052	-0.05484482	-0.02856575	0.00485196	0.02940811
	-0.9461589	0.06321052	0.03787071	-0.0313575	0.00485464	0.02940319	0.05183873	-0.04052856
	-0.05484482	-0.02856575	0.00485464	0.02940319	-0.04613549	-0.02157148	-0.9460522	0.06427476
	0.00485196	0.02940811	0.05183873	-0.04052856	-0.9460522	0.06427476	0.03812311	-0.03158307
5.1e+08	-0.04828303	-0.02101096	-0.9394946	0.1232415	-0.05828561	-0.02329629	0.007037124	0.02950028
	-0.9394946	0.1232415	0.03775195	-0.03678304	0.007040082	0.02949612	0.05111788	-0.04270723
	-0.05828561	-0.02329629	0.007040082	0.02949612	-0.04863626	-0.02104509	-0.9393154	0.1243174
	0.007037124	0.02950028	0.05111788	-0.04270723	-0.9393154	0.1243174	0.03799665	-0.03703846
