!$
! Info: Touchstone file created by Circ.  Input file=C2M_PCB_93ohms_4p0in_20230620_v3.circ
!$
# Hz S RI R 50
0	0.00641945	2.567831e-24	0.9935501	-2.334724e-24	0.000144009	7.411812e-23	-0.0001403017	1.725952e-20
	0.9935501	-2.189875e-24	0.00623826	1.098331e-24	-0.0001376347	1.693292e-20	-7.391605e-07	8.284814e-21
	0.0001440091	7.415242e-23	-0.0001376347	1.693271e-20	0.006422805	3.06727e-24	0.9935635	-2.276401e-24
	-0.0001403017	1.725954e-20	-7.391822e-07	8.284888e-21	0.9935635	-2.293164e-24	0.006251646	1.561138e-24
1e+07	0.009108046	0.0006158424	0.9880448	-0.07260186	0.0004289749	0.002669177	-0.0002426173	-0.0005613331
	0.9880448	-0.07260186	0.008948656	0.0006926733	-0.0002406383	-0.000562026	0.000275953	0.002738957
	0.0004289749	0.002669177	-0.0002406383	-0.000562026	0.009282319	0.0006042362	0.9878823	-0.07263128
	-0.0002426173	-0.0005613331	0.000275953	0.002738957	0.9878823	-0.07263128	0.009122502	0.000679635
2e+07	0.01107124	-0.000931334	0.9781443	-0.1424374	0.001088006	0.005236947	-0.0003470613	-0.001093041
	0.9781443	-0.1424374	0.01086158	-0.0008341598	-0.000345822	-0.001093528	0.0008019152	0.005357932
	0.001088041	0.005236856	-0.0003457982	-0.001093575	0.01120449	-0.001013358	0.9780078	-0.1424272
	-0.000347035	-0.001093085	0.0008019352	0.005357929	0.9780078	-0.1424272	0.01099238	-0.0009177445
3e+07	0.01222836	-0.003376668	0.9639608	-0.2105247	0.002182383	0.007601495	-0.0005448589	-0.001540353
	0.9639608	-0.2105247	0.01186616	-0.003255205	-0.0005439767	-0.001540521	0.001635455	0.007806635
	0.002182372	0.007601486	-0.0005439848	-0.001540518	0.01232729	-0.003486461	0.9638433	-0.2105122
	-0.0005448681	-0.00154035	0.001635447	0.007806652	0.9638433	-0.2105122	0.011961	-0.003365688
4e+07	0.01278509	-0.00614299	0.9453738	-0.2770831	0.003661231	0.009757978	-0.0008058888	-0.001946563
	0.9453738	-0.2770831	0.01217976	-0.005953346	-0.0008051795	-0.001946306	0.002741028	0.01012067
	0.003661231	0.00975798	-0.000805181	-0.001946304	0.0128532	-0.006268556	0.9452705	-0.2770782
	-0.00080589	-0.00194656	0.002741025	0.01012067	0.9452705	-0.2770782	0.01224178	-0.006078364
5e+07	0.0128315	-0.009048751	0.922406	-0.3419392	0.005470218	0.01167186	-0.001103073	-0.0023248
	0.922406	-0.3419392	0.01190934	-0.008723993	-0.001102365	-0.002324086	0.004083961	0.01229132
	0.005470219	0.01167186	-0.001102367	-0.002324086	0.01287108	-0.009182822	0.9223123	-0.3419474
	-0.001103075	-0.002324799	0.004083958	0.01229132	0.9223123	-0.3419474	0.01194128	-0.008855767
6e+07	0.01241908	-0.01198668	0.8951463	-0.4048534	0.007577701	0.01330109	-0.001439255	-0.00267648
	0.8951463	-0.4048534	0.01112067	-0.01144429	-0.001438436	-0.002675344	0.005652112	0.01429653
	0.007577701	0.01330109	-0.001438434	-0.002675343	0.01243277	-0.01212372	0.8950578	-0.4048784
	-0.001439253	-0.00267648	0.005652115	0.01429653	0.8950578	-0.4048784	0.01112467	-0.01157715
7e+07	0.01158687	-0.01487648	0.863719	-0.4655686	0.009944724	0.01460674	-0.001816127	-0.003000863
	0.863719	-0.4655686	0.009867515	-0.01402076	-0.001815132	-0.002999353	0.007426951	0.01611443
	0.009944724	0.01460675	-0.001815129	-0.002999354	0.01157703	-0.01501217	0.8636306	-0.4656128
	-0.001816125	-0.003000866	0.007426954	0.01611442	0.8636306	-0.4656128	0.009846166	-0.01414969
8e+07	0.01037244	-0.01765192	0.8282771	-0.5238283	0.01252677	0.01555487	-0.002235022	-0.003295978
	0.8282771	-0.5238283	0.008202643	-0.01637592	-0.00223378	-0.003294109	0.00938604	0.01772567
	0.01252677	0.01555487	-0.002233782	-0.003294107	0.01034162	-0.01778256	0.8281837	-0.5238931
	-0.002235023	-0.003295976	0.009386037	0.01772568	0.8281837	-0.5238931	0.008158813	-0.01649641
9e+07	0.008816393	-0.02025643	0.7889928	-0.5793819	0.01527514	0.01611743	-0.002697091	-0.003558699
	0.7889928	-0.5793819	0.006182657	-0.01844301	-0.002695534	-0.003556518	0.01150438	0.01911407
	0.01527514	0.01611743	-0.002695536	-0.003556509	0.008767754	-0.02037839	0.7888898	-0.5794689
	-0.002697091	-0.00355869	0.01150438	0.01911408	0.7888898	-0.5794689	0.006119693	-0.018551
1e+08	0.006970159	-0.02263381	0.7460507	-0.6320001	0.0181375	0.0162717	-0.003203107	-0.00378414
	0.7460507	-0.6320001	0.003877086	-0.02015719	-0.003201182	-0.003781741	0.01375521	0.02026616
	0.0181375	0.0162717	-0.003201181	-0.003781742	0.006909093	-0.02274191	0.7459298	-0.6321115
	-0.003203106	-0.003784141	0.01375521	0.02026615	0.7459298	-0.6321115	0.003800223	-0.02024728
1.1e+08	0.00490454	-0.02479629	0.6996354	-0.6813817	0.02105512	0.01600507	-0.003750771	-0.003967966
	0.6996354	-0.6813817	0.001387972	-0.02156205	-0.003747494	-0.003966747	0.01610795	0.02117455
	0.02105512	0.01600507	-0.003747493	-0.003966748	0.004841358	-0.02488573	0.699487	-0.6815058
	-0.00375077	-0.003967967	0.01610795	0.02117455	0.699487	-0.6815058	0.001371507	-0.02163394
1.2e+08	0.00259714	-0.02671258	0.6500505	-0.7273327	0.0239755	0.01531105	-0.004341451	-0.004109011
	0.6500505	-0.7273327	-0.001319617	-0.02256011	-0.004338368	-0.004108376	0.01853778	0.0218351
	0.0239755	0.01531105	-0.004338368	-0.004108377	0.002533757	-0.02679597	0.6498748	-0.7274656
	-0.00434145	-0.004109013	0.01853778	0.02183509	0.6498748	-0.7274656	-0.0013297	-0.02264986
1.3e+08	0.0001019842	-0.02834068	0.5975315	-0.7696707	0.0268417	0.0141882	-0.004976072	-0.004199678
	0.5975315	-0.7696707	-0.004147944	-0.02311792	-0.004973374	-0.004198838	0.02101669	0.02224487
	0.0268417	0.0141882	-0.004973374	-0.004198839	3.644771e-05	-0.0284233	0.5973257	-0.7698066
	-0.004976072	-0.00419968	0.02101669	0.02224486	0.5973257	-0.7698066	-0.00417896	-0.02321745
1.4e+08	-0.002529793	-0.02965934	0.5423319	-0.8082158	0.02959758	0.01264311	-0.005653334	-0.004231937
	0.5423319	-0.8082158	-0.007017672	-0.0232259	-0.005650697	-0.004230512	0.02351736	0.02240541
	0.02959758	0.01264311	-0.005650697	-0.004230513	-0.002600158	-0.02974262	0.5420965	-0.8083518
	-0.005653334	-0.004231938	0.02351736	0.0224054	0.5420965	-0.8083518	-0.00707582	-0.02332094
1.5e+08	-0.00524782	-0.03065875	0.4847218	-0.8428095	0.0321878	0.01068919	-0.006370152	-0.004197603
	0.4847218	-0.8428095	-0.009856095	-0.02288501	-0.006367192	-0.00419556	0.02601326	0.02232111
	0.0321878	0.01068919	-0.006367193	-0.00419556	-0.005324687	-0.030742	0.4844559	-0.8429405
	-0.006370153	-0.004197604	0.02601326	0.02232111	0.4844559	-0.8429405	-0.009937787	-0.02296531
1.6e+08	-0.008002673	-0.03133808	0.4249776	-0.8733073	0.03455905	0.008346547	-0.007121922	-0.004088548
	0.4249776	-0.8733073	-0.01259409	-0.02210485	-0.007118385	-0.004086033	0.02847945	0.02199971
	0.03455905	0.008346547	-0.007118385	-0.004086033	-0.008086709	-0.03141996	0.4246816	-0.8734295
	-0.007121922	-0.004088549	0.02847945	0.0219997	0.4246816	-0.8734295	-0.01269262	-0.02216494
1.7e+08	-0.01074813	-0.03170455	0.3633866	-0.8995839	0.03666061	0.005641856	-0.007902438	-0.00389687
	0.3633866	-0.8995839	-0.0151657	-0.02090389	-0.007898152	-0.0038941	0.03089259	0.02145157
	0.03666061	0.005641856	-0.007898152	-0.003894101	-0.01083902	-0.0317837	0.3630612	-0.8996935
	-0.007902439	-0.00389687	0.03089259	0.02145157	0.3630612	-0.8996935	-0.01527425	-0.02094188
1.8e+08	-0.01344056	-0.03177209	0.3002422	-0.921535	0.0384454	0.002607798	-0.008704161	-0.003615117
	0.3002422	-0.921535	-0.01750841	-0.01930896	-0.008699083	-0.003612304	0.03323161	0.02068952
	0.0384454	0.002607798	-0.008699083	-0.003612305	-0.01353768	-0.03184756	0.2998884	-0.9216296
	-0.008704161	-0.003615117	0.03323161	0.02068952	0.2998884	-0.9216296	-0.0176212	-0.01932508
1.9e+08	-0.01604132	-0.03156072	0.2358438	-0.9390759	0.03987063	-0.0007173426	-0.009518005	-0.003236516
	0.2358438	-0.9390759	-0.01956433	-0.01735546	-0.009512147	-0.003233859	0.03547786	0.01972866
	0.03987063	-0.0007173425	-0.009512148	-0.003233859	-0.01614343	-0.03163198	0.235462	-0.9391504
	-0.009518005	-0.003236516	0.03547786	0.01972866	0.235462	-0.9391504	-0.0196766	-0.017351
2e+08	-0.01851567	-0.03109545	0.1704927	-0.9521412	0.04089779	-0.004290226	-0.01033353	-0.002755203
	0.1704927	-0.9521412	-0.02128096	-0.01508636	-0.01032696	-0.002752857	0.03761501	0.01858534
	0.04089779	-0.004290226	-0.01032696	-0.002752857	-0.01862183	-0.03116242	0.1700854	-0.9521928
	-0.01033353	-0.002755203	0.03761501	0.01858534	0.1700854	-0.9521928	-0.02138931	-0.01506333
2.1e+08	-0.02083428	-0.0304058	0.1044983	-0.9606856	0.04149407	-0.008063026	-0.01113897	-0.002166539
	0.1044983	-0.9606856	-0.02261223	-0.01255191	-0.01113176	-0.002164633	0.03962951	0.01727754
	0.04149407	-0.008063026	-0.01113176	-0.002164634	-0.02094359	-0.03046867	0.1040659	-0.9607108
	-0.01113897	-0.002166539	0.03962951	0.01727754	0.1040659	-0.9607108	-0.02271394	-0.0125121
2.2e+08	-0.02297366	-0.02952447	0.0381663	-0.9646854	0.04163237	-0.01198418	-0.01192154	-0.001467334
	0.0381663	-0.9646854	-0.02351971	-0.009808267	-0.01191376	-0.001465947	0.04151098	0.01582423
	0.04163237	-0.01198418	-0.01191376	-0.001465947	-0.02308538	-0.02958366	0.03771095	-0.9646819
	-0.01192154	-0.001467334	0.04151098	0.01582423	0.03771095	-0.9646819	-0.02361301	-0.009753625
2.3e+08	-0.02491612	-0.02848655	-0.02819621	-0.9641371	0.04129144	-0.01599878	-0.01266736	-0.0006560431
	-0.02819621	-0.9641371	-0.02397339	-0.006916681	-0.01265909	-0.0006552507	0.04325087	0.01424415
	0.04129144	-0.01599878	-0.01265909	-0.0006552508	-0.02502972	-0.02854269	-0.02867145	-0.964102
	-0.01266736	-0.0006560432	0.04325087	0.01424415	-0.02867145	-0.964102	-0.02405663	-0.006848812
2.4e+08	-0.02664982	-0.02732918	-0.09427968	-0.9590544	0.04045686	-0.02004964	-0.01336203	0.0002670168
	-0.09427968	-0.9590544	-0.02395142	-0.003942238	-0.01335336	0.0002671445	0.04484424	0.01255698
	0.04045686	-0.02004964	-0.01335336	0.0002671444	-0.02676505	-0.02738281	-0.09477346	-0.9589842
	-0.01336203	0.0002670167	0.04484424	0.01255698	-0.09477346	-0.9589842	-0.02402314	-0.003862486
2.5e+08	-0.02816972	-0.0260894	-0.1597822	-0.9494756	0.03912076	-0.0240779	-0.01399068	0.001299525
	-0.1597822	-0.9494756	-0.02344158	-0.0009521908	-0.01398169	0.001298971	0.04628865	0.01078167
	0.03912076	-0.0240779	-0.01398169	0.001298971	-0.02828629	-0.02614125	-0.1602918	-0.9493676
	-0.01399068	0.001299525	0.04628865	0.01078167	-0.1602918	-0.9493676	-0.02350062	-0.0008619568
2.6e+08	-0.02947656	-0.02480437	-0.2244008	-0.9354552	0.03728239	-0.02802391	-0.01453865	0.002437097
	-0.2244008	-0.9354552	-0.02244122	0.001984316	-0.01452943	0.002435794	0.04758401	0.008936623
	0.03728239	-0.02802391	-0.01452943	0.002435794	-0.02959459	-0.02485504	-0.2249223	-0.9353082
	-0.01453865	0.002437097	0.04758401	0.008936623	-0.2249223	-0.9353082	-0.0224862	0.002083848
2.7e+08	-0.03057697	-0.02350985	-0.2878399	-0.9170696	0.03494751	-0.03182765	-0.01499122	0.003673259
	-0.2878399	-0.9170696	-0.02095665	0.004798874	-0.01498177	0.003671146	0.04873272	0.007039202
	0.03494751	-0.03182765	-0.01498177	0.003671146	-0.03069653	-0.02355993	-0.2883721	-0.9168803
	-0.01499122	0.003673259	0.04873272	0.007039202	-0.2883721	-0.9168803	-0.02098624	0.004906428
2.8e+08	-0.03148366	-0.0222391	-0.3498088	-0.8944123	0.03212918	-0.03543009	-0.01533445	0.004999438
	-0.3498088	-0.8944123	-0.01900378	0.007423916	-0.01532495	0.004996528	0.0497397	0.005105802
	0.03212918	-0.03543009	-0.01532495	0.004996528	-0.03160502	-0.02228937	-0.3503464	-0.8941789
	-0.01533445	0.004999438	0.0497397	0.005105802	-0.3503464	-0.8941789	-0.01901648	0.00753797
2.9e+08	-0.03221422	-0.02102254	-0.4100232	-0.8675976	0.02884707	-0.03877319	-0.01555504	0.006405011
	-0.4100232	-0.8675976	-0.01660782	0.009794574	-0.0155456	0.006401248	0.05061098	0.003150767
	0.02884707	-0.03877319	-0.0155456	0.006401247	-0.03233791	-0.02107334	-0.4105637	-0.8673194
	-0.01555504	0.006405011	0.05061098	0.003150767	-0.4105637	-0.8673194	-0.01660247	0.009913474
3e+08	-0.03279092	-0.01988665	-0.4682087	-0.8367581	0.02512763	-0.04180149	-0.01564156	0.007877644
	-0.4682087	-0.8367581	-0.01380233	0.01184981	-0.01563221	0.007872995	0.05135504	0.001187167
	0.02512763	-0.04180149	-0.01563221	0.007872995	-0.03291739	-0.01993865	-0.4687481	-0.8364327
	-0.01564156	0.007877644	0.05135504	0.001187167	-0.4687481	-0.8364327	-0.01377759	0.01197157
3.1e+08	-0.03324011	-0.01885345	-0.5240977	-0.8020416	0.02100368	-0.04446234	-0.01558335	0.009403119
	-0.5240977	-0.8020416	-0.01062873	0.01353317	-0.01557422	0.009397576	0.05198135	-0.0007740007
	0.02100368	-0.04446234	-0.01557422	0.009397576	-0.03337004	-0.01890723	-0.5246317	-0.8016671
	-0.01558335	0.009403119	0.05198135	-0.0007740008	-0.5246317	-0.8016671	-0.01058327	0.01365562
3.2e+08	-0.03359106	-0.01794002	-0.577436	-0.7636145	0.01651407	-0.04670668	-0.01537196	0.01096592
	-0.577436	-0.7636145	-0.00713577	0.0147943	-0.01536327	0.01095956	0.05250057	-0.002723864
	0.01651407	-0.04670668	-0.01536327	0.01095956	-0.03372543	-0.01799582	-0.5779589	-0.7631919
	-0.01537196	0.01096592	0.05250057	-0.002723864	-0.5779589	-0.7631919	-0.007069138	0.01491489
3.3e+08	-0.03387575	-0.0171577	-0.6279765	-0.7216638	0.01170331	-0.04848978	-0.01500064	0.01254922
	-0.6279765	-0.7216638	-0.003379208	0.01558941	-0.01499246	0.01254203	0.05292401	-0.004655709
	0.01170331	-0.04848978	-0.01499246	0.01254203	-0.03401538	-0.01721579	-0.6284863	-0.7211906
	-0.01500064	0.01254922	0.05292401	-0.004655709	-0.6284863	-0.7211906	-0.003290596	0.01570562
3.4e+08	-0.03412725	-0.01651235	-0.67549	-0.6763859	0.006621042	-0.04977202	-0.014465	0.01413541
	-0.67549	-0.6763859	0.0005804307	0.01588233	-0.01445745	0.0141275	0.05326361	-0.006565011
	0.006621042	-0.04977202	-0.01445745	0.0141275	-0.03427332	-0.01657274	-0.6759811	-0.6758639
	-0.014465	0.01413541	0.05326361	-0.006565011	-0.6759811	-0.6758639	0.0006909979	0.01599142
3.5e+08	-0.03437935	-0.01600348	-0.7197572	-0.6279977	0.00132169	-0.05051901	-0.01376264	0.01570616
	-0.7197572	-0.6279977	0.004677494	0.01564513	-0.01375593	0.01569767	0.05353082	-0.008449487
	0.00132169	-0.05051901	-0.01375593	0.01569767	-0.03453295	-0.01606613	-0.7202259	-0.6274267
	-0.01376264	0.01570616	0.05353082	-0.008449487	-0.7202259	-0.6274267	0.004810028	0.01574437
3.6e+08	-0.03466535	-0.01562461	-0.7605745	-0.5767301	-0.004136583	-0.05070267	-0.01289369	0.017243
	-0.7605745	-0.5767301	0.008843292	0.01485869	-0.01288785	0.01723403	0.05373748	-0.01030906
	-0.004136583	-0.05070267	-0.01288785	0.01723403	-0.03482783	-0.01568917	-0.7610151	-0.5761108
	-0.01289369	0.017243	0.05373748	-0.01030906	-0.7610151	-0.5761108	0.008997082	0.01494515
3.7e+08	-0.03501711	-0.0153638	-0.7977548	-0.5228237	-0.009692209	-0.05030122	-0.01186029	0.01872742
	-0.7977548	-0.5228237	0.01300715	0.01351283	-0.0118554	0.01871812	0.05389436	-0.01214579
	-0.009692209	-0.05030122	-0.0118554	0.01871812	-0.03518964	-0.01542975	-0.7981641	-0.5221573
	-0.01186029	0.01872742	0.05389436	-0.01214579	-0.7981641	-0.5221573	0.01318133	0.01358385
3.8e+08	-0.03546425	-0.0152028	-0.8311257	-0.4665371	-0.01528107	-0.04929993	-0.01066706	0.02014133
	-0.8311257	-0.4665371	0.01709697	0.01160679	-0.01066317	0.02013189	0.05401155	-0.01396366
	-0.01528107	-0.04929993	-0.01066317	0.02013189	-0.03564819	-0.0152693	-0.8314979	-0.4658251
	-0.01066706	0.02014133	0.05401155	-0.01396366	-0.8314979	-0.4658251	0.01729019	0.01165964
3.9e+08	-0.03603296	-0.01511882	-0.8605362	-0.4081355	-0.02083718	-0.04769114	-0.009320588	0.02146734
	-0.8605362	-0.4081355	0.0210415	0.009149276	-0.00931769	0.02145787	0.05409788	-0.01576852
	-0.02083718	-0.04769114	-0.00931769	0.02145787	-0.03622949	-0.01518481	-0.8608674	-0.4073792
	-0.009320588	0.02146734	0.05409788	-0.01576852	-0.8608674	-0.4073792	0.02125223	0.009181484
4e+08	-0.03674566	-0.01508352	-0.8858504	-0.3478978	-0.02629368	-0.0454745	-0.00782963	0.02268904
	-0.8858504	-0.3478978	0.02477063	0.006158147	-0.007827692	0.02267975	0.05416085	-0.01756805
	-0.02629368	-0.0454745	-0.007827692	0.02267975	-0.03695593	-0.01514777	-0.8861363	-0.3470996
	-0.00782963	0.02268904	0.05416085	-0.01756805	-0.8861363	-0.3470996	0.02499693	0.006167416
4.1e+08	-0.03761956	-0.01506484	-0.9069542	-0.2861112	-0.03158333	-0.04265723	-0.006204667	0.02379106
	-0.9069542	-0.2861112	0.02821715	0.002660457	-0.006203702	0.02378222	0.05420591	-0.01937092
	-0.03158333	-0.04265723	-0.006203702	0.02378222	-0.03784457	-0.01512579	-0.9071901	-0.2852747
	-0.006204667	0.02379106	0.05420591	-0.01937092	-0.9071901	-0.2852747	0.02845671	0.002644761
4.2e+08	-0.03866675	-0.01502764	-0.9237511	-0.223069	-0.03663993	-0.03925377	-0.004457865	0.02475973
	-0.9237511	-0.223069	0.03131763	-0.001308574	-0.004457729	0.02475148	0.05423694	-0.02118712
	-0.03663993	-0.03925377	-0.004457729	0.02475148	-0.03890736	-0.01508339	-0.9239334	-0.2221966
	-0.004457865	0.02475973	0.05423694	-0.02118712	-0.9239334	-0.2221966	0.03156819	-0.001351073
4.3e+08	-0.03989302	-0.0149338	-0.9361677	-0.1590722	-0.04139868	-0.03528628	-0.00260274	0.02558285
	-0.9361677	-0.1590722	0.03401413	-0.005705465	-0.002603269	0.02557526	0.05425542	-0.02302747
	-0.04139868	-0.03528628	-0.002603269	0.02557526	-0.04014982	-0.01498242	-0.9362929	-0.1581687
	-0.00260274	0.02558285	0.05425542	-0.02302747	-0.9362929	-0.1581687	0.03427289	-0.005776041
4.4e+08	-0.0412978	-0.0147439	-0.9441518	-0.09442609	-0.0457971	-0.03078391	-0.0006538891	0.0262498
	-0.9441518	-0.09442609	0.03625441	-0.01047944	-0.0006549941	0.02624323	0.05426101	-0.02490338
	-0.0457971	-0.03078391	-0.0006549941	0.02624323	-0.04157115	-0.01478313	-0.9442148	-0.09349483
	-0.0006538891	0.0262498	0.05426101	-0.02490338	-0.9442148	-0.09349483	0.03651847	-0.01057951
4.5e+08	-0.0428739	-0.01441775	-0.9476718	-0.02943976	-0.04977592	-0.02578254	0.00137315	0.026752
	-0.9476718	-0.02943976	0.03799321	-0.01557388	0.001371709	0.02674649	0.05425072	-0.02682607
	-0.04977592	-0.02578254	0.001371709	0.02674649	-0.04316384	-0.01444539	-0.9476702	-0.02848545
	0.00137315	0.026752	0.05425072	-0.02682607	-0.9476702	-0.02848545	0.03825968	-0.01570409
4.6e+08	-0.04460722	-0.0139161	-0.9467168	0.03557858	-0.05327972	-0.02032501	0.003462302	0.02708269
	-0.9467168	0.03557858	0.03919302	-0.02092629	0.003460743	0.02707836	0.05421961	-0.02880692
	-0.05327972	-0.02032501	0.003460743	0.02707836	-0.04491355	-0.01392949	-0.9466468	0.03655149
	0.003462302	0.02708269	0.05421961	-0.02880692	-0.9466468	0.03655149	0.03945886	-0.02108739
4.7e+08	-0.04647674	-0.01320074	-0.9412999	0.1003182	-0.05625798	-0.01445975	0.005597048	0.0272369
	-0.9412999	0.1003182	0.03982475	-0.02647051	0.005595674	0.02723371	0.05416004	-0.03085622
	-0.05625798	-0.01445975	0.005595674	0.02723371	-0.04679882	-0.01319758	-0.9411609	0.1013052
	0.005597048	0.0272369	0.05416004	-0.03085622	-0.9411609	0.1013052	0.04008688	-0.02666236
4.8e+08	-0.04845477	-0.01223633	-0.9314563	0.1644702	-0.05866529	-0.008240972	0.007760896	0.02721136
	-0.9314563	0.1644702	0.03986798	-0.03213641	0.007759971	0.02720936	0.05406252	-0.03298381
	-0.05866529	-0.008240972	0.007759971	0.02720936	-0.04879167	-0.01221374	-0.9312442	0.1654656
	0.007760896	0.02721136	0.05406252	-0.03298381	-0.9312442	0.1654656	0.04012331	-0.03235901
4.9e+08	-0.05050762	-0.0109914	-0.9172434	0.2277327	-0.06046235	-0.001727728	0.009937431	0.02700498
	-0.9172434	0.2277327	0.03931197	-0.03785293	0.009937256	0.02700411	0.05391544	-0.03519785
	-0.06046235	-0.001727728	0.009937256	0.02700411	-0.05085792	-0.01094701	-0.9169564	0.2287307
	0.009937431	0.02700498	0.05391544	-0.03519785	-0.9169564	0.2287307	0.03955741	-0.03810555
5e+08	-0.05259566	-0.009438583	-0.8987356	0.2898039	-0.06161601	0.005017027	0.01211063	0.02661784
	-0.8987356	0.2898039	0.03815427	-0.04354793	0.01211146	0.02661802	0.0537051	-0.0375054
	-0.06161601	0.005017027	0.01211146	0.02661802	-0.05295754	-0.009370009	-0.8983734	0.2907997
	0.01211063	0.02661784	0.0537051	-0.0375054	-0.8983734	0.2907997	0.03838703	-0.04382965
5.1e+08	-0.05467405	-0.007556679	-0.8760332	0.3503945	-0.06210017	0.01192662	0.01426491	0.02605166
	-0.8760332	0.3503945	0.03640289	-0.04914979	0.01426707	0.02605274	0.05341632	-0.03991095
	-0.06210017	0.01192662	0.01426707	0.02605274	-0.05504541	-0.007461504	-0.8755941	0.3513812
	0.01426491	0.02605166	0.05341632	-0.03991095	-0.8755941	0.3513812	0.0366201	-0.04945944
