!$
! Info: Touchstone file created by Circ.  Input file=C2M_PCB_93ohms_9p5in_20230620_v3.circ
!$
# Hz S RI R 50
0	0.01137266	4.049648e-24	0.9885971	-3.914512e-24	0.0001720692	1.015519e-22	-0.0001683804	2.078229e-20
	0.9885971	-3.770345e-24	0.01119117	2.748023e-24	-0.0001657259	2.045712e-20	2.737055e-05	8.422014e-21
	0.0001720692	1.015858e-22	-0.0001657259	2.045691e-20	0.01137598	4.485395e-24	0.9886103	-3.733071e-24
	-0.0001683803	2.078232e-20	2.737053e-05	8.422088e-21	0.9886103	-3.74977e-24	0.01120469	3.070832e-24
1e+07	0.01618237	-0.0006721276	0.9750281	-0.128255	0.0008318936	0.003511948	-0.0003257677	-0.0005201672
	0.9750281	-0.128255	0.01592009	-0.0005863447	-0.0003239123	-0.0005211055	0.0005288531	0.003631019
	0.0008318936	0.003511948	-0.0003239123	-0.0005211055	0.01650114	-0.0007170049	0.9747168	-0.1282623
	-0.0003257677	-0.0005201672	0.0005288531	0.003631019	0.9747168	-0.1282623	0.01623777	-0.0006344411
2e+07	0.01900463	-0.005518986	0.9470139	-0.2497024	0.002402308	0.006682071	-0.0004434744	-0.001028114
	0.9470139	-0.2497024	0.01839647	-0.005319451	-0.000442619	-0.001028811	0.001563043	0.007050124
	0.002402322	0.006681977	-0.000442601	-0.001028862	0.01922604	-0.005707157	0.946775	-0.2496052
	-0.0004434537	-0.001028162	0.001563063	0.007050121	0.946775	-0.2496052	0.01861089	-0.005510512
3e+07	0.01950985	-0.01188489	0.9053389	-0.3650811	0.004914513	0.009131818	-0.0007056559	-0.001396926
	0.9053389	-0.3650811	0.01829872	-0.01139604	-0.0007053296	-0.001397076	0.00323065	0.01002686
	0.004914499	0.009131813	-0.0007053371	-0.001397072	0.01964656	-0.01212686	0.9051553	-0.3649594
	-0.0007056646	-0.001396921	0.003230642	0.01002688	0.9051553	-0.3649594	0.01842251	-0.01163748
4e+07	0.01811073	-0.01845295	0.8503656	-0.4736706	0.008115491	0.0107237	-0.001059477	-0.00170141
	0.8503656	-0.4736706	0.01611345	-0.01739067	-0.00105931	-0.001700779	0.005385972	0.01254419
	0.008115492	0.01072371	-0.001059311	-0.001700777	0.01816994	-0.0187188	0.850226	-0.4735471
	-0.001059478	-0.001701408	0.005385968	0.01254419	0.850226	-0.4735471	0.01615358	-0.01764997
5e+07	0.01506948	-0.02465168	0.7828868	-0.5741228	0.01171418	0.01133523	-0.00146629	-0.001973611
	0.7828868	-0.5741228	0.01220479	-0.02265661	-0.001465869	-0.001972138	0.007873755	0.01456089
	0.01171418	0.01133524	-0.001465871	-0.001972137	0.01505831	-0.02492143	0.7827804	-0.5740102
	-0.001466291	-0.00197361	0.007873752	0.01456089	0.7827804	-0.5740102	0.01216953	-0.02291123
6e+07	0.0106459	-0.03008454	0.7039536	-0.6650849	0.01544237	0.01088455	-0.00194629	-0.00220966
	0.7039536	-0.6650849	0.00694876	-0.02675639	-0.001945255	-0.002207453	0.01057748	0.01603557
	0.01544237	0.01088455	-0.001945253	-0.002207453	0.01057307	-0.03034328	0.7038698	-0.6649914
	-0.001946289	-0.002209661	0.01057748	0.01603557	0.7038698	-0.6649914	0.006847712	-0.02698916
7e+07	0.0051281	-0.03445838	0.6148095	-0.7453083	0.01901521	0.009359031	-0.002515684	-0.002392007
	0.6148095	-0.7453083	0.0007575242	-0.02938912	-0.002513744	-0.002389291	0.0133716	0.0169551
	0.01901521	0.009359032	-0.002513742	-0.002389294	0.005003027	-0.03469468	0.6147371	-0.7452379
	-0.002515683	-0.002392009	0.0133716	0.0169551	0.6147371	-0.7452379	0.0006024491	-0.0295863
8e+07	-0.001166363	-0.03756923	0.5168549	-0.8136975	0.02215071	0.006818366	-0.003182981	-0.002492353
	0.5168549	-0.8136975	-0.005927708	-0.03037618	-0.0031799	-0.002489431	0.01613194	0.01733704
	0.02215071	0.006818366	-0.003179901	-0.002489428	-0.001333264	-0.03777456	0.516783	-0.8136518
	-0.003182982	-0.00249235	0.01613194	0.01733704	0.516783	-0.8136518	-0.006123373	-0.03052736
9e+07	-0.007900715	-0.03929881	0.4116112	-0.8693334	0.02458837	0.003391665	-0.003945321	-0.002475087
	0.4116112	-0.8693334	-0.01265381	-0.029656	-0.003940987	-0.002472362	0.01874432	0.01722781
	0.02458837	0.003391665	-0.003940985	-0.002472353	-0.008097756	-0.03946715	0.4115286	-0.8693126
	-0.003945317	-0.002475079	0.01874431	0.01722782	0.4115286	-0.8693126	-0.0128751	-0.02975431
1e+08	-0.01471974	-0.03960559	0.3006719	-0.9114987	0.02610415	-0.0007308914	-0.004784893	-0.002301008
	0.3006719	-0.9114987	-0.01896228	-0.02727568	-0.004779398	-0.002298952	0.02111096	0.01669779
	0.02610415	-0.0007308915	-0.004779398	-0.002298953	-0.0149313	-0.03973239	0.3005614	-0.9115008
	-0.004784893	-0.002301009	0.02111097	0.01669779	0.3005614	-0.9115008	-0.01919003	-0.0273167
1.1e+08	-0.0213102	-0.03863281	0.1857552	-0.9395244	0.02652305	-0.005297114	-0.005668221	-0.001942147
	0.1857552	-0.9395244	-0.0244621	-0.02352278	-0.005661657	-0.001942513	0.02315451	0.01584275
	0.02652305	-0.005297114	-0.005661657	-0.001942514	-0.02151369	-0.03873069	0.1856084	-0.9395209
	-0.005668221	-0.001942148	0.02315452	0.01584275	0.1856084	-0.9395209	-0.02461739	-0.02351751
1.2e+08	-0.02747883	-0.03641421	0.06870696	-0.9532102	0.02574841	-0.01002743	-0.006561416	-0.001371895
	0.06870696	-0.9532102	-0.02892179	-0.01850303	-0.006554917	-0.001373664	0.02483323	0.01476634
	0.02574841	-0.01002743	-0.006554918	-0.001373666	-0.02768436	-0.03649447	0.06853088	-0.9531924
	-0.006561416	-0.001371896	0.02483323	0.01476633	0.06853088	-0.9531924	-0.02905643	-0.0184879
1.3e+08	-0.03294661	-0.03309223	-0.04875371	-0.9524814	0.02374406	-0.01462204	-0.007411606	-0.0005710269
	-0.04875371	-0.9524814	-0.03202348	-0.01251854	-0.007405138	-0.0005736785	0.02612653	0.01357648
	0.02374406	-0.01462204	-0.007405139	-0.0005736794	-0.03315853	-0.03315543	-0.04895478	-0.9524394
	-0.007411607	-0.0005710279	0.02612653	0.01357648	-0.04895478	-0.9524394	-0.03215973	-0.01248742
1.4e+08	-0.03750385	-0.02887307	-0.1648966	-0.9374533	0.02054849	-0.01877643	-0.008158991	0.0004627129
	-0.1648966	-0.9374533	-0.03356786	-0.005936817	-0.008152393	0.0004591215	0.0270422	0.01238149
	0.02054849	-0.01877643	-0.008152394	0.0004591208	-0.03772234	-0.02891682	-0.1651172	-0.9373826
	-0.008158992	0.0004627122	0.0270422	0.01238149	-0.1651172	-0.9373826	-0.03370687	-0.005878703
1.5e+08	-0.04100457	-0.02399898	-0.278023	-0.9084469	0.01627283	-0.02219919	-0.008742261	0.001713556
	-0.278023	-0.9084469	-0.03346024	0.0008446861	-0.008735615	0.001708733	0.02761414	0.01128168
	0.01627283	-0.02219919	-0.008735616	0.001708733	-0.04122683	-0.02402148	-0.2782569	-0.9083417
	-0.008742262	0.001713555	0.02761414	0.01128167	-0.2782569	-0.9083417	-0.03359366	0.0009354384
1.6e+08	-0.04336778	-0.01873098	-0.3864896	-0.8659722	0.01109632	-0.024629	-0.009104534	0.003148076
	-0.3864896	-0.8659722	-0.03170718	0.007423999	-0.009098185	0.003141791	0.0278996	0.01036439
	0.01109632	-0.024629	-0.009098186	0.003141791	-0.04359001	-0.01873189	-0.3867304	-0.8658289
	-0.009104535	0.003148076	0.0278996	0.01036438	-0.3867304	-0.8658289	-0.03182443	0.007547158
1.7e+08	-0.04457671	-0.01333122	-0.4887278	-0.8107265	0.005258402	-0.02584967	-0.00919862	0.004717201
	-0.4887278	-0.8107265	-0.02841205	0.01341757	-0.009193042	0.00470936	0.02797492	0.009698679
	0.005258402	-0.02584967	-0.009193043	0.00470936	-0.04479522	-0.01331178	-0.4889686	-0.8105428
	-0.009198621	0.004717201	0.02797492	0.009698678	-0.4889686	-0.8105428	-0.02850365	0.01356836
1.8e+08	-0.04467448	-0.008049565	-0.5832667	-0.7435836	-0.0009529369	-0.02570355	-0.008991552	0.006360048
	-0.5832667	-0.7435836	-0.02376571	0.01848234	-0.008987269	0.006350801	0.02793073	0.009331616
	-0.0009529369	-0.02570355	-0.008987269	0.006350801	-0.04488634	-0.008011762	-0.5835015	-0.7433588
	-0.008991552	0.006360048	0.02793073	0.009331615	-0.5835015	-0.7433588	-0.02382455	0.01865337
1.9e+08	-0.04375693	-0.003109126	-0.6687495	-0.6655822	-0.007215169	-0.02410177	-0.008467348	0.008008592
	-0.6687495	-0.6655822	-0.0180336	0.02233397	-0.008464836	0.007998276	0.02786643	0.009285994
	-0.007215169	-0.02410177	-0.008464836	0.007998276	-0.04396026	-0.003055686	-0.6689702	-0.6653143
	-0.008467348	0.008008592	0.02786643	0.009285994	-0.6689702	-0.6653143	-0.01805514	0.0225162
2e+08	-0.04196337	0.00130267	-0.7439521	-0.5779095	-0.0131871	-0.02103079	-0.007628279	0.009593196
	-0.7439521	-0.5779095	-0.01153845	0.0247623	-0.007627875	0.009582331	0.02788367	0.009558333
	-0.0131871	-0.02103079	-0.007627875	0.009582331	-0.04215712	0.001369371	-0.7441517	-0.5776005
	-0.007628279	0.009593196	0.02788367	0.009558333	-0.7441517	-0.5776005	-0.01152126	0.02494628
2.1e+08	-0.03946536	0.005042921	-0.8077971	-0.4818943	-0.01852668	-0.01655658	-0.006494263	0.01104803
	-0.8077971	-0.4818943	-0.004641152	0.02564211	-0.006496123	0.01103723	0.02808076	0.01011971
	-0.01852668	-0.01655658	-0.006496124	0.01103723	-0.03964905	0.005120715	-0.8079686	-0.4815445
	-0.006494263	0.01104803	0.02808076	0.01011971	-0.8079686	-0.4815445	-0.004585931	0.02581886
2.2e+08	-0.03645358	0.008017631	-0.8593753	-0.3789806	-0.02290904	-0.01082364	-0.005100556	0.01231619
	-0.8593753	-0.3789806	0.002281506	0.02493915	-0.005104609	0.01230609	0.02854661	0.01091705
	-0.02290904	-0.01082364	-0.005104609	0.01230609	-0.03662713	0.008104746	-0.8595126	-0.3785932
	-0.005100556	0.01231619	0.02854661	0.01091705	-0.8595126	-0.3785932	0.002371534	0.02510044
2.3e+08	-0.03312521	0.01018282	-0.8979566	-0.2707136	-0.02604385	-0.004050409	-0.003493864	0.0133532
	-0.8979566	-0.2707136	0.008858665	0.02271045	-0.003499839	0.01334441	0.0293539	0.01187517
	-0.02604385	-0.004050409	-0.003499839	0.01334441	-0.03328872	0.01027794	-0.8980525	-0.2702931
	-0.003493864	0.0133532	0.0293539	0.01187517	-0.8980525	-0.2702931	0.008978757	0.0228495
2.4e+08	-0.02967169	0.01154293	-0.922998	-0.1587196	-0.02769267	0.003479049	-0.001727744	0.01412964
	-0.922998	-0.1587196	0.01474761	0.01909969	-0.001735197	0.01412267	0.03055608	0.01290237
	-0.02769267	0.003479049	-0.001735197	0.01412267	-0.0298251	0.011645	-0.923046	-0.1582694
	-0.001727744	0.01412964	0.03055608	0.01290237	-0.923046	-0.1582694	0.01489185	0.01921124
2.5e+08	-0.026266	0.01214538	-0.934164	-0.04467674	-0.02768299	0.01142771	0.0001426088	0.01463153
	-0.934164	-0.04467674	0.01965369	0.0143276	0.000134308	0.01462672	0.03218217	0.0138947
	-0.02768299	0.01142771	0.000134308	0.01462672	-0.02640937	0.01225356	-0.9341582	-0.0442027
	0.0001426087	0.01463153	0.03218217	0.0138947	-0.9341582	-0.0442027	0.01981508	0.01440806
2.6e+08	-0.02305448	0.01207303	-0.9313229	0.06970355	-0.02592025	0.01942097	0.002065177	0.01485942
	-0.9313229	0.06970355	0.02334633	0.008676784	0.002056681	0.01485689	0.03423457	0.01474239
	-0.02592025	0.01942097	0.002056681	0.01485689	-0.02318745	0.01218662	-0.9312593	0.07019371
	0.002065177	0.01485942	0.03423457	0.01474239	-0.9312593	0.07019371	0.02351788	0.008724667
2.7e+08	-0.02014958	0.01143423	-0.9145574	0.1827087	-0.02239491	0.02706476	0.003995273	0.01482508
	-0.9145574	0.1827087	0.02567322	0.002474795	0.003987266	0.01482467	0.03668834	0.01533683
	-0.02239491	0.02706476	0.003987266	0.01482467	-0.02027181	0.01155246	-0.9144309	0.1832094
	0.003995273	0.01482508	0.03668834	0.01533683	-0.9144309	0.1832094	0.02584779	0.002489995
2.8e+08	-0.01762564	0.01035165	-0.8841589	0.2926492	-0.01718697	0.03396538	0.005898169	0.01454813
	-0.8841589	0.2926492	0.026567	-0.003927355	0.005891318	0.01454963	0.03949238	0.01557745
	-0.01718697	0.03396538	0.005891318	0.01454963	-0.01773662	0.01047383	-0.8839665	0.2931503
	0.005898169	0.01454813	0.03949238	0.01557745	-0.8839665	0.2931503	0.02673804	-0.003943007
2.9e+08	-0.01551937	0.008951102	-0.8406276	0.3978857	-0.01046428	0.03974926	0.007750178	0.01405107
	-0.8406276	0.3978857	0.02604825	-0.01017618	0.007744963	0.01405398	0.04257091	0.01537769
	-0.01046428	0.03974926	0.007744963	0.01405398	-0.01561829	0.009076054	-0.840368	0.3983793
	0.007750178	0.01405107	0.04257091	0.01537769	-0.840368	0.3983793	0.02620983	-0.01021963
3e+08	-0.01383215	0.00735085	-0.7846612	0.4968582	-0.002477367	0.04408337	0.009538211	0.01335568
	-0.7846612	0.4968582	0.02422303	-0.01593763	0.009534946	0.01335929	0.04582943	0.01467142
	-0.002477367	0.04408337	0.009534946	0.01335929	-0.01391837	0.007477506	-0.7843328	0.4973349
	0.009538211	0.01335568	0.04582943	0.01467142	-0.7843328	0.4973349	0.02437041	-0.0160046
3.1e+08	-0.01253573	0.005652604	-0.7171411	0.588106	0.006450895	0.04669285	0.01125724	0.01247785
	-0.7171411	0.588106	0.02127467	-0.02091694	0.01125603	0.01248147	0.0491592	0.01341667
	0.006450895	0.04669285	0.01125603	0.01248147	-0.01260847	0.005779556	-0.7167435	0.5885556
	0.01125724	0.01247785	0.0491592	0.01341667	-0.7167435	0.5885556	0.02140457	-0.02100217
3.2e+08	-0.01158028	0.00393483	-0.6391195	0.6702955	0.01593916	0.04737654	0.01290719	0.01142605
	-0.6391195	0.6702955	0.01745124	-0.02487596	0.01290797	0.01142907	0.05244432	0.01159853
	0.01593916	0.04737654	0.01290797	0.01142907	-0.01163876	0.004060068	-0.6386565	0.670707
	0.01290719	0.01142605	0.05244432	0.01159853	-0.6386565	0.670707	0.0175615	-0.02497378
3.3e+08	-0.01090315	0.00224838	-0.5518048	0.7422335	0.02556481	0.04601906	0.01448838	0.0101995
	-0.5518048	0.7422335	0.01304934	-0.02764672	0.01449076	0.0102012	0.05556854	0.009229971
	0.02556481	0.04601906	0.01449076	0.0102012	-0.01094701	0.00236972	-0.5512775	0.742599
	0.01448838	0.0101995	0.05556854	0.009229971	-0.5512775	0.742599	0.01313949	-0.02775123
3.4e+08	-0.01043908	0.0006161909	-0.4565298	0.8028909	0.03488352	0.04259891	0.01599751	0.008789107
	-0.4565298	0.8028909	0.008395172	-0.02914066	0.01600098	0.00878898	0.05842261	0.006350748
	0.03488352	0.04259891	0.01600098	0.00878898	-0.01046815	0.000730942	-0.4559447	0.8032003
	0.01599751	0.008789107	0.05842261	0.006350748	-0.4559447	0.8032003	0.008466235	-0.02924612
3.5e+08	-0.0101292	-0.0009654252	-0.3547424	0.8514099	0.04344982	0.03719164	0.01742339	0.007179226
	-0.3547424	0.8514099	0.003824262	-0.02935259	0.01742735	0.007177021	0.06090977	0.003024722
	0.04344982	0.03719164	0.01742735	0.007177021	-0.01014385	-0.0008601339	-0.3541049	0.8516548
	0.01742339	0.007179226	0.06090977	0.003024722	-0.3541049	0.8516548	0.003878746	-0.02945375
3.6e+08	-0.009929172	-0.002521726	-0.2479772	0.8871175	0.05083886	0.02996908	0.01874437	0.005351607
	-0.2479772	0.8871175	-0.000338842	-0.02836009	0.01874803	0.005347177	0.06295225	-0.0006644366
	0.05083886	0.02996908	0.01874803	0.005347177	-0.009930325	-0.002429159	-0.2472949	0.8872886
	0.01874437	0.005351607	0.06295225	-0.0006644367	-0.2472949	0.8872886	-0.0002973414	-0.02845258
3.7e+08	-0.009814956	-0.004092454	-0.1378289	0.909531	0.05666644	0.02119337	0.01992653	0.003289443
	-0.1378289	0.909531	-0.003800377	-0.0263176	0.01992917	0.003282934	0.06449429	-0.004618733
	0.05666644	0.02119337	0.01992917	0.003282934	-0.009804373	-0.004015816	-0.13711	0.9096221
	0.01992653	0.003289443	0.06449429	-0.004618733	-0.13711	0.9096221	-0.003767202	-0.02639813
3.8e+08	-0.00978705	-0.005724444	-0.02593888	0.9183638	0.06060834	0.01120732	0.02092416	0.0009826389
	-0.02593888	0.9183638	-0.006314714	-0.02344665	0.02092512	0.000974427	0.06550499	-0.008731586
	0.06060834	0.01120732	0.02092512	0.000974427	-0.009767249	-0.005667039	-0.02519359	0.9183673
	0.02092416	0.0009826389	0.06550499	-0.008731586	-0.02519359	0.9183673	-0.006284446	-0.02351329
3.9e+08	-0.009870688	-0.007461732	0.08603881	0.9135281	0.06241666	0.0004204544	0.02168156	-0.001567786
	0.08603881	0.9135281	-0.00769878	-0.02002153	0.02168025	-0.001577131	0.06597913	-0.01289452
	0.06241666	0.0004204544	0.02168025	-0.001577131	-0.009845119	-0.007426434	0.08680057	0.9134391
	0.02168156	-0.001567786	0.06597913	-0.01289452	0.08680057	0.9134391	-0.007665623	-0.02007376
4e+08	-0.01011491	-0.009337958	0.1964501	0.8951326	0.06193333	-0.01070816	0.02213667	-0.004345592
	0.1964501	0.8951326	-0.007842691	-0.016353	0.02213279	-0.00435538	0.06593638	-0.01700316
	0.06193333	-0.01070816	0.02213279	-0.00435538	-0.01008781	-0.009327151	0.1972167	0.8949471
	0.02213667	-0.004345592	0.06593638	-0.01700316	0.1972167	0.8949471	-0.007800838	-0.01639184
4.1e+08	-0.01058771	-0.01136742	0.3036692	0.8634834	0.05909974	-0.0216893	0.02222565	-0.007316759
	0.3036692	0.8634834	-0.006716226	-0.01276906	0.02221924	-0.007326208	0.06541892	-0.0209625
	0.05909974	-0.0216893	0.02221924	-0.007326208	-0.01056415	-0.01138273	0.3044273	0.8631989
	0.02222565	-0.007316759	0.06541892	-0.02096251	0.3044273	0.8631989	-0.00666027	-0.01279709
4.2e+08	-0.01136917	-0.0135395	0.4061189	0.8190751	0.05396207	-0.03202568	0.02188887	-0.01042861
	0.4061189	0.8190751	-0.004370391	-0.009595788	0.02188003	-0.01043698	0.06448861	-0.02469229
	0.05396207	-0.03202568	0.02188003	-0.01043698	-0.01135499	-0.01358159	0.4068563	0.8186905
	0.02188887	-0.01042861	0.06448861	-0.02469229	0.4068563	0.8186905	-0.004295459	-0.009616921
4.3e+08	-0.01254423	-0.01581411	0.5022919	0.7625904	0.04667241	-0.04123384	0.02107633	-0.01361048
	0.5022919	0.7625904	-0.0009342347	-0.007137468	0.02106539	-0.01361709	0.06322237	-0.02813059
	0.04667241	-0.04123384	0.02106539	-0.01361709	-0.01254558	-0.0158823	0.5029947	0.7621078
	0.02107633	-0.01361048	0.06322237	-0.02813059	0.5029947	0.7621078	-0.000836819	-0.007156666
4.4e+08	-0.01419263	-0.01812005	0.5907733	0.694889	0.03748427	-0.04886682	0.01975311	-0.01677647
	0.5907733	0.694889	0.003392047	-0.00565838	0.01974087	-0.01678091	0.06170774	-0.03123677
	0.03748427	-0.04886682	0.01974087	-0.01678091	-0.01421593	-0.0182123	0.5914273	0.6943093
	0.01975311	-0.01677647	0.06170774	-0.03123677	0.5914273	0.6943093	0.003514398	-0.005681852
4.5e+08	-0.01637968	-0.02035589	0.6702593	0.6169958	0.02674403	-0.05453562	0.01790413	-0.01982977
	0.6702593	0.6169958	0.008349223	-0.005367557	0.01789121	-0.01983178	0.06003707	-0.03399253
	0.02674403	-0.05453562	0.01789121	-0.01983178	-0.01643101	-0.02046862	0.6708515	0.6163247
	0.01790413	-0.01982977	0.06003707	-0.03399253	0.6708515	0.6163247	0.008497381	-0.005401675
4.6e+08	-0.01914635	-0.02239351	0.7395794	0.5300865	0.01487807	-0.05792843	0.01553686	-0.02266833
	0.7395794	0.5300865	0.01363417	-0.006404897	0.01552403	-0.02266793	0.05830257	-0.03640295
	0.01487807	-0.05792843	0.01552403	-0.02266793	-0.0192316	-0.02252164	0.7400961	0.5293298
	0.01553686	-0.02266833	0.05830257	-0.03640295	0.7400961	0.5293298	0.01380747	-0.006456714
4.7e+08	-0.02250173	-0.02408409	0.797714	0.4354763	0.002374542	-0.05882731	0.01268266	-0.0251909
	0.797714	0.4354763	0.01891746	-0.008833821	0.01267052	-0.02518832	0.05659045	-0.03849482
	0.002374542	-0.05882731	0.01267052	-0.02518832	-0.02262545	-0.02422104	0.7981447	0.4346433
	0.01268266	-0.0251909	0.05659045	-0.03849482	0.7981447	0.4346433	0.01911346	-0.008909584
4.8e+08	-0.0264156	-0.02526672	0.8438126	0.3345982	-0.01023677	-0.05712018	0.009395864	-0.0273037
	0.8438126	0.3345982	0.02386271	-0.01263555	0.009384969	-0.02729945	0.05497649	-0.04031551
	-0.01023677	-0.05712018	0.009384969	-0.02729945	-0.02658152	-0.02540448	0.8441438	0.3336986
	0.009395864	-0.0273037	0.05497649	-0.04031551	0.8441438	0.3336986	0.02407757	-0.0127415
4.9e+08	-0.03081411	-0.02577907	0.8772101	0.2289784	-0.02240815	-0.05280888	0.005751493	-0.02892665
	0.8772101	0.2289784	0.0281474	-0.01771133	0.005742151	-0.02892139	0.05352111	-0.04192912
	-0.02240815	-0.05280888	0.005742151	-0.02892139	-0.0310238	-0.02590863	0.8774317	0.2280245
	0.005751493	-0.02892665	0.05352111	-0.04192912	0.8774317	0.2280245	0.02837577	-0.01785231
5e+08	-0.0355784	-0.02546824	0.897431	0.1202167	-0.03359871	-0.04601101	0.001840448	-0.02999768
	0.897431	0.1202167	0.03148037	-0.02388717	0.001832732	-0.02999211	0.05226569	-0.0434131
	-0.03359871	-0.04601101	0.001832732	-0.02999211	-0.0358315	-0.02557992	0.8975356	0.1192222
	0.001840448	-0.02999768	0.05226569	-0.0434131	0.8975356	0.1192222	0.03171603	-0.02406681
5.1e+08	-0.04054492	-0.02420365	0.9042101	0.009956752	-0.04329908	-0.0369575	-0.002235636	-0.03047645
	0.9042101	0.009956752	0.03362142	-0.03092358	-0.002241993	-0.03047129	0.05123009	-0.04485233
	-0.04329908	-0.0369575	-0.002241993	-0.03047129	-0.04083901	-0.02428754	0.90419	0.008937134
	-0.002235636	-0.03047645	0.05123009	-0.04485233	0.90419	0.008937134	0.03385717	-0.03114422
5.2e+08	-0.04551094	-0.02188886	0.8974873	-0.1001365	-0.05105558	-0.02598374	-0.006370661	-0.03034599
	0.8974873	-0.1001365	0.0343934	-0.03853068	-0.006376183	-0.03034172	0.05041132	-0.04633488
