!$
! Info: Touchstone file created by Circ.  Input file=C2M_PCB_93ohms_8p0in_20230620_v3.circ
!$
# Hz S RI R 50
0	0.01002669	3.650785e-24	0.989943	-3.488007e-24	0.0001644737	9.413768e-23	-0.0001607799	1.982874e-20
	0.989943	-3.343656e-24	0.009845278	2.301473e-24	-0.0001581221	1.950318e-20	1.976166e-05	8.384734e-21
	0.0001644738	9.417169e-23	-0.0001581221	1.950297e-20	0.01003002	4.103716e-24	0.9899563	-3.339867e-24
	-0.0001607799	1.982876e-20	1.976164e-05	8.384808e-21	0.9899563	-3.356582e-24	0.009858763	2.662175e-24
1e+07	0.01427871	-0.0002424298	0.9788801	-0.1131916	0.0007131394	0.003287974	-0.0003041557	-0.000533332
	0.9788801	-0.1131916	0.01404422	-0.0001602432	-0.0003022623	-0.0005342059	0.0004502149	0.003391974
	0.0007131394	0.003287974	-0.0003022623	-0.0005342059	0.01455889	-0.0002766722	0.9786088	-0.1132066
	-0.0003041557	-0.000533332	0.0004502149	0.003391974	0.9786088	-0.1132066	0.01432352	-0.0001972278
2e+07	0.01696138	-0.004100202	0.9566705	-0.2208999	0.002014374	0.006320614	-0.0004209081	-0.001048575
	0.9566705	-0.2208999	0.01645873	-0.003937287	-0.0004199421	-0.001049232	0.001319207	0.006609443
	0.002014394	0.00632052	-0.0004199225	-0.001049282	0.01716147	-0.004257871	0.9564575	-0.2208284
	-0.0004208859	-0.001048622	0.001319228	0.00660944	0.9564575	-0.2208284	0.01665308	-0.004097581
3e+07	0.01782932	-0.009347184	0.9238281	-0.3240928	0.004126387	0.008810172	-0.0006709083	-0.001437617
	0.9238281	-0.3240928	0.01683496	-0.008985729	-0.0006704373	-0.00143781	0.002726215	0.009481236
	0.004126374	0.008810166	-0.000670445	-0.001437806	0.01796028	-0.009552502	0.9236592	-0.3240027
	-0.0006709172	-0.001437612	0.002726207	0.009481253	0.9236592	-0.3240027	0.01695533	-0.009191124
4e+07	0.01722354	-0.01490824	0.8804812	-0.4224512	0.006875118	0.01066141	-0.001005356	-0.001766012
	0.8804812	-0.4224512	0.01556191	-0.01414214	-0.001005083	-0.00176554	0.00456754	0.01200998
	0.006875119	0.01066141	-0.001005085	-0.001765538	0.01729126	-0.01513704	0.880347	-0.4223614
	-0.001005357	-0.00176601	0.004567537	0.01200998	0.880347	-0.4223614	0.01561376	-0.01436655
5e+07	0.01533055	-0.02035088	0.8270816	-0.5150705	0.01006082	0.01177038	-0.001385464	-0.002060829
	0.8270816	-0.5150705	0.01289396	-0.01891023	-0.001385067	-0.002059618	0.006733834	0.0141629
	0.01006082	0.01177039	-0.001385068	-0.002059617	0.01534023	-0.02058734	0.8269731	-0.5149916
	-0.001385466	-0.002060828	0.006733831	0.0141629	0.8269731	-0.5149916	0.01288324	-0.01913586
6e+07	0.01231409	-0.02537916	0.7642627	-0.6009983	0.0135066	0.01204946	-0.001824193	-0.002322528
	0.7642627	-0.6009983	0.009072195	-0.02295214	-0.001823393	-0.00232063	0.009150435	0.01589875
	0.0135066	0.01204946	-0.001823391	-0.00232063	0.01227204	-0.02561135	0.7641712	-0.6009369
	-0.001824191	-0.002322529	0.009150439	0.01589874	0.7641712	-0.6009369	0.009005443	-0.02316532
7e+07	0.008348612	-0.02976632	0.692788	-0.6793215	0.01701696	0.01145051	-0.002332953	-0.002542822
	0.692788	-0.6793215	0.004355978	-0.02601867	-0.002331519	-0.002540364	0.01173255	0.01719177
	0.01701696	0.01145051	-0.002331517	-0.002540367	0.008261456	-0.0299849	0.6927043	-0.6792813
	-0.002332952	-0.002542824	0.01173255	0.01719177	0.6927043	-0.6792813	0.004241268	-0.02620803
8e+07	0.003627545	-0.03333961	0.61353	-0.7492051	0.02038843	0.009969095	-0.002920067	-0.002706183
	0.61353	-0.7492051	-0.0009729429	-0.02793435	-0.002917782	-0.002703336	0.01439182	0.01803488
	0.02038843	0.009969095	-0.002917783	-0.002703333	0.003502669	-0.0335372	0.6134447	-0.7491876
	-0.002920068	-0.002706181	0.01439182	0.01803489	0.6134447	-0.7491876	-0.001126231	-0.02809068
9e+07	-0.001638412	-0.03597657	0.5274466	-0.8099078	0.02341995	0.007645196	-0.003588654	-0.002791084
	0.5274466	-0.8099078	-0.006615267	-0.02859316	-0.003585362	-0.002788106	0.01704154	0.01843975
	0.02341995	0.007645196	-0.003585361	-0.002788097	-0.001792404	-0.03614732	0.5273506	-0.8099139
	-0.003588651	-0.002791076	0.01704154	0.01843976	0.5273506	-0.8099139	-0.006796363	-0.02870946
1e+08	-0.007215144	-0.03759637	0.435551	-0.8608066	0.0259213	0.004560573	-0.004333946	-0.002770963
	0.435551	-0.8608066	-0.01225012	-0.02795183	-0.004329615	-0.002768204	0.01960074	0.01843472
	0.0259213	0.004560573	-0.004329615	-0.002768205	-0.007385876	-0.03773468	0.4354293	-0.8608359
	-0.004333946	-0.002770964	0.01960074	0.01843472	0.4354293	-0.8608359	-0.01244429	-0.02802195
1.1e+08	-0.01287886	-0.0382658	0.3389432	-0.9012533	0.02771882	0.000845046	-0.005140304	-0.002624286
	0.3389432	-0.9012533	-0.01757495	-0.02616732	-0.005134683	-0.002623455	0.02199579	0.01806861
	0.02771882	0.0008450462	-0.005134683	-0.002623457	-0.01304548	-0.03837833	0.338786	-0.9012824
	-0.005140304	-0.002624287	0.02199579	0.01806861	0.338786	-0.9012824	-0.01770402	-0.02619849
1.2e+08	-0.01851961	-0.03795098	0.2388739	-0.9309317	0.02868149	-0.003343307	-0.005994797	-0.002328477
	0.2388739	-0.9309317	-0.02243206	-0.0232151	-0.005989065	-0.002328637	0.02417479	0.01739953
	0.02868149	-0.003343307	-0.005989065	-0.002328638	-0.01868955	-0.03805067	0.2386857	-0.9309525
	-0.005994797	-0.002328479	0.02417479	0.01739953	0.2386857	-0.9309525	-0.02254897	-0.02324297
1.3e+08	-0.02392238	-0.03668484	0.1364937	-0.9495944	0.02870559	-0.00782071	-0.00687009	-0.001858851
	0.1364937	-0.9495944	-0.02653456	-0.01922851	-0.006864158	-0.001859423	0.02609528	0.0164928
	0.02870559	-0.00782071	-0.006864159	-0.001859424	-0.0241004	-0.03677379	0.1362763	-0.9495975
	-0.00687009	-0.001858852	0.02609528	0.0164928	0.1362763	-0.9495975	-0.02666318	-0.01924524
1.4e+08	-0.02890768	-0.03455341	0.03298628	-0.9571016	0.02772875	-0.01238284	-0.007730601	-0.001198297
	0.03298628	-0.9571016	-0.02966401	-0.01440268	-0.007724146	-0.001199298	0.02773157	0.01542066
	0.02772875	-0.01238284	-0.007724147	-0.001199298	-0.02909559	-0.0346298	0.03274343	-0.9570822
	-0.007730602	-0.001198298	0.02773157	0.01542066	0.03274343	-0.9570822	-0.02980678	-0.01439506
1.5e+08	-0.03332748	-0.03167627	-0.07045873	-0.9534424	0.02573192	-0.01681409	-0.008534814	-0.0003389334
	-0.07045873	-0.9534424	-0.03165875	-0.008970888	-0.008527692	-0.0003406984	0.02907469	0.0142568
	0.02573192	-0.01681409	-0.008527692	-0.000340699	-0.03352429	-0.03173778	-0.07072292	-0.9533941
	-0.008534814	-0.000338934	0.02907469	0.0142568	-0.07072292	-0.9533941	-0.03180813	-0.00893061
1.6e+08	-0.03706764	-0.02819729	-0.1726626	-0.9387232	0.02274112	-0.02089691	-0.009238183	0.0007165743
	-0.1726626	-0.9387232	-0.03241414	-0.003191303	-0.00923052	0.0007136598	0.03013231	0.01307354
	0.02274112	-0.02089691	-0.009230521	0.0007136595	-0.03727098	-0.02824233	-0.1729435	-0.9386416
	-0.009238183	0.000716574	0.0301323	0.01307354	-0.1729435	-0.9386416	-0.03255975	-0.003115675
1.7e+08	-0.04005068	-0.02427457	-0.2724666	-0.9131717	0.01882723	-0.02442064	-0.009796029	0.001954347
	-0.2724666	-0.9131717	-0.03188446	0.002664636	-0.009788123	0.001949947	0.03092746	0.01193798
	0.01882723	-0.02442064	-0.009788124	0.001949946	-0.04025765	-0.02430282	-0.2727587	-0.9130531
	-0.00979603	0.001954347	0.03092746	0.01193797	-0.2727587	-0.9130531	-0.03201629	0.002773875
1.8e+08	-0.04223545	-0.02007318	-0.3687466	-0.877133	0.01410392	-0.02719075	-0.01016678	0.003349653
	-0.3687466	-0.877133	-0.03008269	0.008324897	-0.01015907	0.003343596	0.03149718	0.01090903
	0.01410392	-0.02719075	-0.01015907	0.003343596	-0.04244346	-0.02008508	-0.3690453	-0.8769754
	-0.01016678	0.003349653	0.03149718	0.01090903	-0.3690453	-0.8769754	-0.03019238	0.008463282
1.9e+08	-0.04361671	-0.01575575	-0.4604229	-0.831065	0.008723951	-0.02903709	-0.01031464	0.004867831
	-0.4604229	-0.831065	-0.02707883	0.0135282	-0.01030762	0.00486009	0.03189026	0.01003518
	0.008723951	-0.02903709	-0.01030762	0.00486009	-0.04382365	-0.01575273	-0.4607218	-0.8308645
	-0.01031464	0.004867831	0.03189025	0.01003518	-0.4607218	-0.8308645	-0.02715979	0.01368944
2e+08	-0.04422204	-0.01147674	-0.5464712	-0.7755306	0.002873865	-0.02982078	-0.0102121	0.006466146
	-0.5464712	-0.7755306	-0.02299534	0.0180357	-0.01020625	0.006456878	0.03216426	0.009351605
	0.002873865	-0.02982078	-0.01020625	0.006456878	-0.04442657	-0.01146015	-0.546764	-0.7752871
	-0.0102121	0.006466146	0.03216426	0.009351604	-0.546764	-0.7752871	-0.02304343	0.01821252
2.1e+08	-0.04410868	-0.007375133	-0.6259287	-0.7111987	-0.003232403	-0.02944144	-0.009841761	0.0080961
	-0.6259287	-0.7111987	-0.01800156	0.02164083	-0.009837518	0.008085585	0.0323831	0.008879481
	-0.003232403	-0.02944144	-0.009837518	0.008085585	-0.04430995	-0.007346389	-0.6262098	-0.7109102
	-0.009841761	0.0080961	0.0323831	0.008879481	-0.6262098	-0.7109102	-0.01801419	0.02182586
2.2e+08	-0.04335805	-0.003569099	-0.6979117	-0.6388306	-0.009361448	-0.02784185	-0.009197604	0.009706388
	-0.6979117	-0.6388306	-0.0123051	0.0241785	-0.009195282	0.009695047	0.03261397	0.00862484
	-0.009361448	-0.02784185	-0.009195282	0.009695047	-0.04355565	-0.003529413	-0.6981751	-0.6384981
	-0.009197604	0.009706388	0.03261397	0.00862484	-0.6981751	-0.6384981	-0.01228181	0.02436431
2.3e+08	-0.0420701	-0.000152287	-0.7616197	-0.5592764	-0.01526867	-0.02501132	-0.008285008	0.01124567
	-0.7616197	-0.5592764	-0.006142538	0.02553162	-0.008284804	0.01123399	0.03292278	0.008577478
	-0.01526867	-0.02501132	-0.008284804	0.01123399	-0.04226397	-0.0001025671	-0.7618585	-0.5589014
	-0.008285008	0.01124567	0.03292278	0.008577478	-0.7618585	-0.5589014	-0.006084146	0.02571129
2.4e+08	-0.04035747	0.002808813	-0.816341	-0.4734669	-0.02070793	-0.02098815	-0.007120435	0.01266573
	-0.816341	-0.4734669	0.0002319551	0.02563578	-0.007122423	0.01265425	0.0333729	0.008712843
	-0.02070793	-0.02098815	-0.007122423	0.01265425	-0.04054751	0.002867996	-0.8165489	-0.4730498
	-0.007120435	0.01266573	0.0333729	0.008712843	-0.8165489	-0.4730498	0.0003235007	0.02580299
2.5e+08	-0.03833742	0.005276486	-0.8614719	-0.3824018	-0.025441	-0.01585926	-0.005729928	0.01392394
	-0.8614719	-0.3824018	0.006558103	0.02448214	-0.005733986	0.01391323	0.03402053	0.008991811
	-0.025441	-0.01585926	-0.005733986	0.01391323	-0.03852373	0.005344712	-0.8616425	-0.3819452
	-0.005729928	0.01392394	0.03402053	0.008991811	-0.8616425	-0.3819452	0.006679515	0.02463125
2.6e+08	-0.03612636	0.007240757	-0.8965127	-0.2871422	-0.02924731	-0.009758781	-0.004147256	0.01498567
	-0.8965127	-0.2871422	0.01258067	0.02211614	-0.004153176	0.01497622	0.03491216	0.009362783
	-0.02924731	-0.009758781	-0.004153176	0.01497622	-0.03630878	0.007318028	-0.8966403	-0.286651
	-0.004147256	0.01498567	0.03491216	0.009362783	-0.8966403	-0.286651	0.01272811	0.02224271
2.7e+08	-0.0338329	0.008717483	-0.9210824	-0.1887964	-0.03193258	-0.002863864	-0.002411114	0.01582514
	-0.9210824	-0.1887964	0.0180623	0.01863605	-0.002418501	0.0158173	0.03608204	0.009763998
	-0.03193258	-0.002863864	-0.002418501	0.0158173	-0.03401121	0.00880379	-0.9211614	-0.1882726
	-0.002411114	0.01582514	0.03608204	0.009763998	-0.9211614	-0.1882726	0.01823121	0.01873626
2.8e+08	-0.03155186	0.009745212	-0.9349192	-0.08850823	-0.03333802	0.004610271	-0.0005626626	0.0164265
	-0.9349192	-0.08850823	0.02279291	0.01418676	-0.0005710428	0.0164207	0.03755048	0.01012645
	-0.03333802	0.004610271	-0.0005710429	0.0164207	-0.03172579	0.009840812	-0.9349436	-0.08795882
	-0.0005626627	0.0164265	0.03755048	0.01012645	-0.9349436	-0.08795882	0.02297829	0.01425799
2.9e+08	-0.02936045	0.01038002	-0.937888	0.01255455	-0.03334679	0.01241758	0.001357361	0.01678314
	-0.937888	0.01255455	0.02659928	0.008953316	0.001348518	0.01677957	0.03932111	0.01037658
	-0.03334679	0.01241758	0.001348518	0.01677957	-0.0295291	0.01048512	-0.9378543	0.0131244
	0.001357361	0.01678314	0.03932111	0.01037658	-0.9378543	0.0131244	0.02679578	0.008993888
3e+08	-0.02731458	0.01069017	-0.9299814	0.1132183	-0.03189059	0.02028985	0.003310902	0.01689758
	-0.9299814	0.1132183	0.02935295	0.00315153	0.003302212	0.0168962	0.04138197	0.01044064
	-0.03189059	0.02028985	0.003302212	0.0168962	-0.02747725	0.01080504	-0.9298846	0.1138022
	0.003310902	0.01689758	0.04138197	0.01044064	-0.9298846	0.1138022	0.02955521	0.003160746
3.1e+08	-0.02544737	0.01075001	-0.9113175	0.212314	-0.02895331	0.02794613	0.005264824	0.01677845
	-0.9113175	0.212314	0.03097516	-0.002982458	0.005256867	0.01677913	0.04370433	0.01024776
	-0.02895331	0.02794613	0.005256867	0.01677913	-0.02560297	0.01087488	-0.9111534	0.2129047
	0.005264824	0.01677845	0.04370433	0.01024776	-0.9111534	0.2129047	0.03117807	-0.003004164
3.2e+08	-0.02376926	0.01063345	-0.8821425	0.3086963	-0.02457314	0.0351031	0.007192052	0.01643952
	-0.8821425	0.3086963	0.03143987	-0.009203254	0.007185405	0.0164421	0.04624412	0.009733761
	-0.02457314	0.0351031	0.007185405	0.0164421	-0.02391618	0.01076831	-0.8819098	0.309284
	0.007192052	0.01643952	0.04624412	0.009733761	-0.8819098	0.309284	0.03163822	-0.009254475
3.3e+08	-0.02226909	0.01040805	-0.8428285	0.4012499	-0.01884278	0.04148569	0.009072133	0.01589662
	-0.8428285	0.4012499	0.03077394	-0.01526767	0.009067242	0.01590059	0.0489435	0.008844479
	-0.01884278	0.04148569	0.009067242	0.01590059	-0.02240575	0.01055259	-0.8425246	0.401829
	0.009072133	0.01589662	0.0489435	0.008844478	-0.8425246	0.401829	0.03096333	-0.01534622
3.4e+08	-0.02091793	0.01012968	-0.7938613	0.4889157	-0.01190736	0.04683769	0.0108911	0.0151658
	-0.7938613	0.4889157	0.02905536	-0.02094663	0.01088833	0.01517062	0.05173371	0.007538606
	-0.01190736	0.04683769	0.01088833	0.01517062	-0.02104238	0.01028324	-0.793487	0.4894761
	0.0108911	0.0151658	0.05173371	0.007538606	-0.793487	0.4894761	0.02923188	-0.02104932
3.5e+08	-0.01967281	0.009837861	-0.7358416	0.5706917	-0.003960369	0.05093133	0.01264033	0.01426071
	-0.7358416	0.5706917	0.0264084	-0.02603487	0.01263993	0.01426584	0.05453734	0.005789942
	-0.003960369	0.05093133	0.01263993	0.01426584	-0.01978313	0.009999389	-0.7353973	0.5712257
	0.01264033	0.01426071	0.05453734	0.005789942	-0.7353973	0.5712257	0.02656909	-0.02615797
3.6e+08	-0.01848238	0.009552956	-0.6694734	0.6456514	0.004762448	0.05357681	0.01431516	0.01319152
	-0.6694734	0.6456514	0.0229975	-0.03036066	0.01431712	0.01319619	0.05727301	0.0035888
	0.004762448	0.05357681	0.01431712	0.01319619	-0.01857646	0.009720858	-0.6689604	0.6461489
	0.01431516	0.01319152	0.05727301	0.0035888	-0.6689604	0.6461489	0.02314006	-0.03049993
3.7e+08	-0.01729305	0.009275091	-0.5955499	0.7129537	0.01399055	0.05462953	0.01591268	0.01196333
	-0.5955499	0.7129537	0.0190184	-0.03379327	0.01591685	0.01196688	0.05985825	0.0009425586
	0.01399055	0.05462953	0.01591685	0.01196688	-0.01736909	0.009447217	-0.5949713	0.7134073
	0.01591268	0.01196333	0.05985825	0.0009425585	-0.5949713	0.7134073	0.01914167	-0.03394421
3.8e+08	-0.01605465	0.008983369	-0.5149523	0.7718481	0.02342752	0.05399657	0.01742964	0.01057649
	-0.5149523	0.7718481	0.01468874	-0.03624827	0.01743569	0.01057829	0.0622136	-0.002124489
	0.02342752	0.05399657	0.01743569	0.01057829	-0.01611092	0.009156981	-0.5143118	0.7722483
	0.01742964	0.01057649	0.0622136	-0.002124489	-0.5143118	0.7722483	0.01479255	-0.03640627
3.9e+08	-0.01472692	0.008638827	-0.4286289	0.8216895	0.03276099	0.05164078	0.01886022	0.009026708
	-0.4286289	0.8216895	0.01023735	-0.03769093	0.01886759	0.009026183	0.06426636	-0.005572499
	0.03276099	0.05164078	0.01886759	0.009026183	-0.01476222	0.008810668	-0.4279309	0.8220287
	0.01886022	0.009026708	0.06426636	-0.005572499	-0.4279309	0.8220287	0.01032258	-0.03785155
4e+08	-0.01328407	0.008186457	-0.3375908	0.8619355	0.04167332	0.04758325	0.02019415	0.007306546
	-0.3375908	0.8619355	0.005893495	-0.03813703	0.0202022	0.007303303	0.06595347	-0.00934804
	0.04167332	0.04758325	0.0202022	0.007303303	-0.01329771	0.008352844	-0.336841	0.8622061
	0.02019415	0.007306546	0.06595347	-0.00934804	-0.336841	0.8622061	0.005961986	-0.03829622
4.1e+08	-0.0117198	0.007560756	-0.2428958	0.892158	0.04985217	0.04190388	0.02141504	0.005407026
	-0.2428958	0.892158	0.001875919	-0.03765147	0.02142312	0.005400923	0.06722406	-0.01338616
	0.04985217	0.04190388	0.02142312	0.005400923	-0.01171176	0.007717579	-0.242102	0.8923524
	0.02141504	0.005407026	0.06722406	-0.01338616	-0.242102	0.8923524	0.001930384	-0.03780572
4.2e+08	-0.01004941	0.006691354	-0.1456365	0.9120408	0.05700176	0.0347395	0.02250005	0.003320049
	-0.1456365	0.9120408	-0.001617199	-0.03634471	0.02250732	0.003311023	0.06804179	-0.01761407
	0.05700176	0.0347395	0.02250732	0.003311023	-0.01002047	0.006834134	-0.1448056	0.9121531
	0.02250005	0.003320049	0.06804179	-0.01761407	-0.1448056	0.9121531	-0.001573226	-0.03649133
4.3e+08	-0.008311909	0.005508461	-0.04693041	0.9213871	0.06285274	0.02628101	0.02341934	0.001040719
	-0.04693041	0.9213871	-0.004416929	-0.0343671	0.02342496	0.001028944	0.06838557	-0.02195406
	0.06285274	0.02628101	0.02342496	0.001028944	-0.008263787	0.005632813	-0.04607213	0.9214122
	0.02341934	0.001040719	0.06838557	-0.02195406	-0.04607213	0.9214122	-0.004379598	-0.03450417
4.4e+08	-0.006569362	0.003950113	0.05209298	0.920118	0.06717193	0.01676753	0.02413688	-0.001430173
	0.05209298	0.920118	-0.00639198	-0.03190141	0.02414034	-0.00144425	0.06825053	-0.02632726
	0.06717193	0.01676753	0.02414034	-0.00144425	-0.006504728	0.004051618	0.0529698	0.9200495
	0.02413688	-0.001430173	0.06825053	-0.02632726	0.0529698	0.9200495	-0.006356926	-0.0320282
4.5e+08	-0.004905122	0.00196806	0.1503033	0.908272	0.06977084	0.006479622	0.02461213	-0.00408385
	0.1503033	0.908272	-0.007454086	-0.02915469	0.02461277	-0.0040997	0.06764706	-0.03065636
	0.06977084	0.006479622	0.02461277	-0.0040997	-0.004827581	0.002042804	0.1511883	0.9081071
	0.02461213	-0.00408385	0.06764706	-0.03065636	0.1511883	0.9081071	-0.007416895	-0.02927131
4.6e+08	-0.003420301	-0.0004658063	0.2465829	0.886003	0.07051306	-0.004268574	0.02480196	-0.006901937
	0.2465829	0.886003	-0.007562052	-0.02634731	0.02479939	-0.006918854	0.06660032	-0.03486963
	0.07051306	-0.004268574	0.02479939	-0.006918855	-0.003334464	-0.0004215684	0.2474656	0.8857382
	0.02480196	-0.006901937	0.06660032	-0.03486963	0.2474656	0.8857382	-0.007518316	-0.02645529
4.7e+08	-0.002229259	-0.003355328	0.3398344	0.8535839	0.06932003	-0.01513988	0.02466322	-0.009855077
	0.3398344	0.8535839	-0.00672368	-0.02370433	0.02465712	-0.009872313	0.06514817	-0.03890264
	0.06932003	-0.01513988	0.02465712	-0.009872313	-0.00214054	-0.003344202	0.3407045	0.8532194
	0.02466322	-0.009855077	0.06514817	-0.03890264	0.3407045	0.8532194	-0.00666961	-0.02380573
4.8e+08	-0.001453251	-0.006675744	0.4289945	0.8114011	0.06617483	-0.02578389	0.02415557	-0.0129028
	0.4289945	0.8114011	-0.004995589	-0.02144328	0.02414596	-0.01291954	0.06333955	-0.04270164
	0.06617483	-0.02578389	0.02414596	-0.01291954	-0.001368032	-0.006699852	0.4298393	0.8109347
	0.02415557	-0.0129028	0.06333955	-0.04270164	0.4298393	0.8109347	-0.004927636	-0.02154162
4.9e+08	-0.001213164	-0.01037166	0.5130483	0.7599506	0.06112458	-0.03584876	0.02324507	-0.01599388
	0.5130483	0.7599506	-0.002480047	-0.01976543	0.02323214	-0.01600935	0.06123172	-0.04622467
	0.06112458	-0.03584876	0.02323214	-0.01600935	-0.001138299	-0.01043153	0.5138558	0.7593835
	0.02324507	-0.01599388	0.06123172	-0.04622467	0.5138558	0.7593835	-0.00239569	-0.01986463
5e+08	-0.001622953	-0.01435681	0.5910314	0.6998319	0.05427989	-0.04499281	0.02190612	-0.01906747
	0.5910314	0.6998319	0.0006784906	-0.01884587	0.02189027	-0.01908096	0.05888731	-0.04944339
	0.05427989	-0.04499281	0.02189027	-0.01908096	-0.001565704	-0.01445171	0.5917907	0.699167
	0.02190612	-0.01906747	0.05888731	-0.04944339	0.5917907	0.699167	0.0007809669	-0.01895048
5.1e+08	-0.002781208	-0.01851442	0.6620538	0.6317473	0.04581335	-0.05289601	0.02012465	-0.02205513
	0.6620538	0.6317473	0.004301289	-0.01882447	0.02010642	-0.02206613	0.05637182	-0.05234291
	0.04581335	-0.05289601	0.02010642	-0.02206613	-0.002749013	-0.01864236	0.6627516	0.6309881
	0.02012465	-0.02205513	0.05637182	-0.05234291	0.6627516	0.6309881	0.004422482	-0.01893974
5.2e+08	-0.004764279	-0.0227013	0.7252991	0.5564927	0.03595504	-0.05927165	0.01789995	-0.0248836
	0.7252991	0.5564927	0.008181819	-0.01980069	0.01787992	-0.0248917	0.05375079	-0.05492298
