!$
! Info: Touchstone file created by Circ.  Input file=C2M_PCB_93ohms_0p5in_20230620_v3.circ
!$
# Hz S RI R 50
0	0.003241475	1.596751e-24	0.996728	-1.306266e-24	0.0001258483	5.63001e-23	-0.0001221291	1.497953e-20
	0.996728	-1.160976e-24	0.003060482	3.066898e-26	-0.0001194541	1.465202e-20	-1.893167e-05	8.196776e-21
	0.0001258484	5.633465e-23	-0.0001194541	1.465181e-20	0.003244852	2.137712e-24	0.9967414	-1.327766e-24
	-0.0001221291	1.497956e-20	-1.893169e-05	8.19685e-21	0.9967414	-1.34457e-24	0.003073782	5.84094e-25
1e+07	0.004492124	0.001014594	0.994723	-0.03662079	0.0002209386	0.002104249	-0.0001850509	-0.0005767854
	0.994723	-0.03662079	0.004399289	0.001091895	-0.0001830173	-0.0005773106	0.0001671478	0.002151472
	0.0002209386	0.002104249	-0.0001830173	-0.0005773106	0.004570502	0.001015639	0.9946582	-0.03665556
	-0.0001850509	-0.0005767854	0.0001671479	0.002151472	0.9946582	-0.03665556	0.004477573	0.001092696
2e+07	0.005480825	0.001041682	0.9916993	-0.07211245	0.0004242375	0.004161545	-0.0002691694	-0.001115931
	0.9916993	-0.07211245	0.005536735	0.001121191	-0.0002677324	-0.001116201	0.0005193149	0.004191233
	0.0004242857	0.00416146	-0.0002677052	-0.001116247	0.005544403	0.001017484	0.9916379	-0.07214624
	-0.00026914	-0.001115973	0.0005193348	0.004191231	0.9916379	-0.07214624	0.005600633	0.001096795
3e+07	0.006176771	0.0006575962	0.9876686	-0.1070623	0.0007449969	0.006163085	-0.0003972567	-0.001609657
	0.9876686	-0.1070623	0.006409916	0.0006990926	-0.000396038	-0.001609629	0.001030368	0.006137393
	0.000744988	0.006163074	-0.0003960464	-0.001609627	0.006228208	0.0006250496	0.9876097	-0.1071077
	-0.0003972662	-0.001609655	0.00103036	0.00613741	0.9876097	-0.1071077	0.006463079	0.00066658
4e+07	0.006678249	0.0001206194	0.9825428	-0.1416807	0.001172683	0.008133627	-0.0005590139	-0.002084715
	0.9825428	-0.1416807	0.007123729	0.0001020347	-0.0005578525	-0.002084345	0.001693811	0.00802842
	0.001172683	0.00813363	-0.0005578545	-0.002084343	0.006719081	8.416618e-05	0.9824853	-0.1417409
	-0.0005590154	-0.002084713	0.001693808	0.008028421	0.9824853	-0.1417409	0.007167921	6.535213e-05
5e+07	0.007033501	-0.0005010038	0.9762853	-0.1759896	0.001698226	0.01007567	-0.0007454881	-0.002546888
	0.9762853	-0.1759896	0.007734416	-0.0006022401	-0.0007442486	-0.002546184	0.002505404	0.009864644
	0.001698226	0.01007567	-0.0007442504	-0.002546184	0.007064444	-0.0005389281	0.9762279	-0.1760668
	-0.0007454901	-0.002546887	0.002505401	0.009864644	0.9762279	-0.1760668	0.007771242	-0.0006409341
6e+07	0.007265902	-0.001175193	0.9688876	-0.2099758	0.002322946	0.01198577	-0.0009587192	-0.002996413
	0.9688876	-0.2099758	0.008266472	-0.001388009	-0.0009573293	-0.002995449	0.003467536	0.01163687
	0.002322944	0.01198578	-0.0009573274	-0.002995448	0.007287948	-0.001212557	0.9688289	-0.2100717
	-0.0009587174	-0.002996414	0.003467539	0.01163687	0.9688289	-0.2100717	0.008296829	-0.001427531
7e+07	0.007387707	-0.00188108	0.9603498	-0.2436147	0.00304628	0.01385952	-0.001199265	-0.003432607
	0.9603498	-0.2436147	0.008730822	-0.002240708	-0.001197704	-0.003431462	0.004578375	0.01333433
	0.003046279	0.01385953	-0.001197701	-0.003431463	0.007401515	-0.001916502	0.9602877	-0.2437304
	-0.001199262	-0.003432609	0.004578377	0.01333432	0.9602877	-0.2437304	0.00875577	-0.002279912
8e+07	0.00740694	-0.002602024	0.9506799	-0.276878	0.003866723	0.01569235	-0.001467058	-0.003854594
	0.9506799	-0.276878	0.00913237	-0.003149574	-0.00146532	-0.003853303	0.005833852	0.01494636
	0.003866723	0.01569235	-0.001465323	-0.003853301	0.007413189	-0.002634324	0.9506123	-0.2770142
	-0.00146706	-0.003854592	0.00583385	0.01494636	0.9506123	-0.2770142	0.009152877	-0.003187415
9e+07	0.007330467	-0.003323369	0.9398864	-0.3097353	0.004782294	0.01747997	-0.001761801	-0.004261422
	0.9398864	-0.3097353	0.009473439	-0.004104746	-0.001759883	-0.004260032	0.007228582	0.01646274
	0.004782293	0.01747997	-0.001759889	-0.004260024	0.007330005	-0.003351072	0.9398122	-0.309893
	-0.001761804	-0.004261413	0.007228581	0.01646275	0.9398122	-0.309893	0.009490385	-0.004140317
1e+08	0.007167158	-0.004027411	0.9279811	-0.3421609	0.005790619	0.01921761	-0.002083171	-0.004651876
	0.9279811	-0.3421609	0.009757131	-0.005091818	-0.002081082	-0.004650454	0.008756308	0.01787329
	0.005790619	0.01921761	-0.002081081	-0.004650455	0.007161569	-0.004047806	0.9278966	-0.342342
	-0.002083171	-0.004651877	0.008756308	0.01787329	0.9278966	-0.342342	0.009771509	-0.005123257
1.1e+08	0.006935107	-0.004715388	0.9149568	-0.3740965	0.006887293	0.02090222	-0.002430493	-0.005024186
	0.9149568	-0.3740965	0.01001804	-0.006148109	-0.002426711	-0.005023653	0.01040783	0.01916931
	0.006887293	0.02090222	-0.00242671	-0.005023654	0.006921706	-0.00472171	0.9148575	-0.3742964
	-0.002430492	-0.005024187	0.01040783	0.0191693	0.9148575	-0.3742964	0.01009918	-0.006170689
1.2e+08	0.006618346	-0.005391771	0.9008617	-0.4055081	0.008071077	0.02252998	-0.002801203	-0.005380338
	0.9008617	-0.4055081	0.0101935	-0.007227648	-0.002797448	-0.005380744	0.01217713	0.02034333
	0.008071077	0.02252998	-0.002797447	-0.005380745	0.006605175	-0.005390119	0.9007473	-0.4057268
	-0.002801202	-0.005380339	0.01217713	0.02034333	0.9007473	-0.4057268	0.01028903	-0.007277155
1.3e+08	0.006220612	-0.006038489	0.8857127	-0.4363695	0.009338752	0.02409667	-0.003196501	-0.005719502
	0.8857127	-0.4363695	0.0103048	-0.008321578	-0.003193337	-0.005720241	0.01405598	0.02138668
	0.009338751	0.02409667	-0.003193337	-0.005720242	0.00620958	-0.006033148	0.8855794	-0.4366054
	-0.003196501	-0.005719503	0.01405598	0.02138668	0.8855794	-0.4366054	0.01038731	-0.008390955
1.4e+08	0.005746874	-0.006643361	0.869526	-0.4666484	0.01068714	0.02559905	-0.003616647	-0.006040294
	0.869526	-0.4666484	0.01035965	-0.009429624	-0.003614034	-0.006040917	0.01603566	0.02229199
	0.01068714	0.02559905	-0.003614034	-0.006040918	0.005737345	-0.006636833	0.869374	-0.4669006
	-0.003616647	-0.006040295	0.01603566	0.02229199	0.869374	-0.4669006	0.01042245	-0.009505708
1.5e+08	0.005203429	-0.007197061	0.8523253	-0.496314	0.01211285	0.02703369	-0.004061361	-0.006341339
	0.8523253	-0.496314	0.01036021	-0.01055079	-0.00405908	-0.006341655	0.01810672	0.02305205
	0.01211285	0.02703369	-0.00405908	-0.006341656	0.005194079	-0.007190098	0.8521525	-0.4965807
	-0.004061361	-0.00634134	0.01810672	0.02305204	0.8521525	-0.4965807	0.01040596	-0.01062455
1.6e+08	0.004597466	-0.007691356	0.8341309	-0.5253346	0.01361248	0.02839735	-0.004530175	-0.006621392
	0.8341309	-0.5253346	0.01030664	-0.01168256	-0.004528043	-0.006621398	0.02025947	0.02366058
	0.01361248	0.02839735	-0.004528043	-0.006621399	0.004587095	-0.007683844	0.8339362	-0.5256143
	-0.004530175	-0.006621392	0.02025947	0.02366058	0.8339362	-0.5256143	0.01034087	-0.01174965
1.7e+08	0.003936353	-0.008119987	0.8149658	-0.5536774	0.01518234	0.02968693	-0.005022457	-0.006879221
	0.8149658	-0.5536774	0.0101987	-0.01282146	-0.005020326	-0.006878993	0.0224837	0.02411183
	0.01518234	0.02968693	-0.005020326	-0.006878993	0.003924175	-0.008111204	0.8147485	-0.5539685
	-0.005022457	-0.006879221	0.0224837	0.02411182	0.8147485	-0.5539685	0.01022683	-0.01288102
1.8e+08	0.003227868	-0.00847697	0.7948544	-0.5813123	0.01681878	0.03089963	-0.005537671	-0.007113713
	0.7948544	-0.5813123	0.01003677	-0.01396327	-0.005535501	-0.007113362	0.02476895	0.02440072
	0.01681878	0.03089963	-0.005535501	-0.007113362	0.00321345	-0.008466238	0.7946145	-0.5816142
	-0.005537671	-0.007113713	0.02476895	0.02440072	0.7946145	-0.5816142	0.01006305	-0.0140164
1.9e+08	0.002479671	-0.008758093	0.7738226	-0.608209	0.01851808	0.03203303	-0.006075198	-0.007323687
	0.7738226	-0.608209	0.009821613	-0.01510391	-0.006072992	-0.007323327	0.02710464	0.02452306
	0.01851808	0.03203303	-0.006072993	-0.007323327	0.002463037	-0.008744368	0.7735576	-0.6085195
	-0.006075198	-0.007323688	0.02710464	0.02452306	0.7735576	-0.6085195	0.00984893	-0.01515261
2e+08	0.001699672	-0.008959161	0.7518946	-0.6343389	0.02027629	0.03308441	-0.006634442	-0.007507951
	0.7518946	-0.6343389	0.00955461	-0.01623939	-0.006632263	-0.007507671	0.02947963	0.02447494
	0.02027629	0.03308441	-0.006632263	-0.007507671	0.001681033	-0.008941817	0.7516052	-0.6346565
	-0.006634442	-0.007507951	0.02947963	0.02447494	0.7516052	-0.6346565	0.009584504	-0.01628606
2.1e+08	0.0008960348	-0.009076953	0.7291	-0.6596711	0.02208946	0.03405165	-0.007214727	-0.007665239
	0.7291	-0.6596711	0.009237702	-0.017366	-0.007212643	-0.007665093	0.03188269	0.02425342
	0.02208946	0.03405165	-0.007212643	-0.007665093	0.0008756982	-0.009055408	0.7287841	-0.6599946
	-0.007214727	-0.007665239	0.03188269	0.02425342	0.7287841	-0.6599946	0.009270835	-0.01741272
2.2e+08	7.676257e-05	-0.009109106	0.7054659	-0.684179	0.02395367	0.03493281	-0.007815395	-0.007794304
	0.7054659	-0.684179	0.008872936	-0.01848063	-0.007813509	-0.007794305	0.0343028	0.02385643
	0.02395367	0.03493281	-0.007813509	-0.007794305	5.513305e-05	-0.009082899	0.7051237	-0.6845076
	-0.007815395	-0.007794304	0.0343028	0.02385643	0.7051237	-0.6845076	0.008909055	-0.01852931
2.3e+08	-0.0007500862	-0.009053821	0.6810214	-0.707837	0.02586465	0.03572581	-0.008435598	-0.007893731
	0.6810214	-0.707837	0.008462334	-0.01958064	-0.008433994	-0.007893868	0.03672785	0.0232819
	0.02586465	0.03572581	-0.008433994	-0.007893868	-0.000772496	-0.009022607	0.680653	-0.7081686
	-0.008435598	-0.007893731	0.03672785	0.0232819	0.680653	-0.7081686	0.008500992	-0.01963254
2.4e+08	-0.001575905	-0.008909681	0.655797	-0.7306155	0.02781829	0.03642911	-0.009074497	-0.007962141
	0.655797	-0.7306155	0.008008483	-0.02066355	-0.009073257	-0.007962392	0.03914651	0.02252923
	0.02781829	0.03642911	-0.009073257	-0.007962392	-0.001598745	-0.008873276	0.6554004	-0.7309487
	-0.009074497	-0.007962141	0.03914651	0.02252923	0.6554004	-0.7309487	0.008048955	-0.02071949
2.5e+08	-0.002392728	-0.008676499	0.6298232	-0.7524928	0.02981043	0.03704118	-0.009731068	-0.007998064
	0.6298232	-0.7524928	0.007513717	-0.02172735	-0.009730285	-0.007998349	0.04154719	0.02159825
	0.02981043	0.03704118	-0.009730285	-0.007998349	-0.002415485	-0.008634579	0.629398	-0.7528262
	-0.009731068	-0.007998064	0.04154719	0.02159825	0.629398	-0.7528262	0.007555099	-0.02178787
2.6e+08	-0.003192088	-0.008354379	0.6031323	-0.7734429	0.03183695	0.03756103	-0.01040436	-0.008000179
	0.6031323	-0.7734429	0.006980138	-0.02277057	-0.01040409	-0.008000467	0.04391807	0.02048947
	0.03183695	0.03756103	-0.01040409	-0.008000467	-0.00321437	-0.008306896	0.6026794	-0.7737749
	-0.01040436	-0.008000179	0.04391807	0.02048947	0.6026794	-0.7737749	0.007021937	-0.02283572
2.7e+08	-0.003965703	-0.007943964	0.5757569	-0.7934442	0.03389351	0.03798733	-0.01109309	-0.007966929
	0.5757569	-0.7934442	0.006410306	-0.02379161	-0.01109331	-0.00796708	0.04624758	0.01920413
	0.03389351	0.03798733	-0.01109331	-0.00796708	-0.003987141	-0.007890725	0.5752739	-0.7937739
	-0.01109309	-0.007966929	0.04624758	0.01920413	0.5752739	-0.7937739	0.00645185	-0.02386138
2.8e+08	-0.004705536	-0.007447058	0.5477296	-0.8124743	0.03597604	0.03831945	-0.01179598	-0.007896884
	0.5477296	-0.8124743	0.005806409	-0.02478943	-0.0117968	-0.007896863	0.04852446	0.01774442
	0.03597604	0.03831945	-0.0117968	-0.007896863	-0.00472557	-0.007387892	0.5472177	-0.8127988
	-0.01179598	-0.007896884	0.04852446	0.01774442	0.5472177	-0.8127988	0.005847568	-0.02486357
2.9e+08	-0.005403597	-0.006865727	0.5190857	-0.8305125	0.0380801	0.03855656	-0.01251137	-0.007788426
	0.5190857	-0.8305125	0.005170488	-0.02576309	-0.01251281	-0.007788176	0.05073681	0.01611279
	0.0380801	0.03855656	-0.01251281	-0.007788176	-0.005421965	-0.006800748	0.5185446	-0.8308315
	-0.01251137	-0.007788426	0.05073681	0.01611279	0.5185446	-0.8308315	0.005210903	-0.02584151
3e+08	-0.006052141	-0.006202815	0.4898598	-0.8475408	0.04020162	0.0386983	-0.01323802	-0.007640436
	0.4898598	-0.8475408	0.004504664	-0.02671187	-0.01324001	-0.007639808	0.05287371	0.0143128
	0.04020162	0.0386983	-0.01324001	-0.007639809	-0.006068274	-0.006131783	0.4892887	-0.8478521
	-0.01323802	-0.007640437	0.05287371	0.0143128	0.4892887	-0.8478521	0.00454431	-0.02679443
3.1e+08	-0.006643566	-0.005461822	0.4600866	-0.8635388	0.04233639	0.03874442	-0.01397392	-0.007451303
	0.4600866	-0.8635388	0.003811152	-0.02763521	-0.01397647	-0.007450232	0.05492403	0.01234852
	0.04233639	0.03874442	-0.01397647	-0.007450232	-0.006656888	-0.005384624	0.4594849	-0.8638399
	-0.01397392	-0.007451303	0.05492404	0.01234852	0.4594849	-0.8638399	0.00385026	-0.02772173
3.2e+08	-0.007170605	-0.004646585	0.4298004	-0.8784907	0.04448023	0.03869482	-0.01471737	-0.007219791
	0.4298004	-0.8784907	0.003091958	-0.02853267	-0.01472055	-0.007218252	0.05687707	0.01022471
	0.04448023	0.03869482	-0.01472055	-0.007218252	-0.007180635	-0.004563379	0.4291703	-0.8787796
	-0.01471736	-0.007219791	0.05687707	0.01022471	0.4291703	-0.8787796	0.003130398	-0.02862332
3.3e+08	-0.007626305	-0.003761949	0.3990418	-0.89238	0.04662902	0.03854957	-0.01546622	-0.006944563
	0.3990418	-0.89238	0.002349026	-0.02940418	-0.01546996	-0.006942437	0.05872229	0.007946785
	0.04662902	0.03854957	-0.01546996	-0.006942437	-0.007632551	-0.003672619	0.3983806	-0.8926558
	-0.01546622	-0.006944563	0.05872229	0.007946785	0.3983806	-0.8926558	0.002386848	-0.02949896
3.4e+08	-0.008004017	-0.002812803	0.3678434	-0.9051926	0.0487788	0.038309	-0.0162185	-0.006624526
	0.3678434	-0.9051926	0.001584175	-0.03024965	-0.01622279	-0.006621719	0.06044978	0.005520789
	0.0487788	0.038309	-0.01622279	-0.006621719	-0.008005905	-0.002717502	0.3671535	-0.9054535
	-0.0162185	-0.006624526	0.06044978	0.005520789	0.3671535	-0.9054535	0.001621378	-0.03034875
3.5e+08	-0.008297652	-0.001804936	0.3362446	-0.9169151	0.05092533	0.03797357	-0.01697182	-0.006258522
	0.3362446	-0.9169151	0.0007990842	-0.03106923	-0.01697673	-0.006255015	0.06204939	0.002953404
	0.05092533	0.03797357	-0.01697673	-0.006255015	-0.008294613	-0.001703674	0.3355254	-0.9171599
	-0.01697182	-0.006258522	0.06204939	0.002953404	0.3355254	-0.9171599	0.0008357152	-0.03117276
3.6e+08	-0.008501528	-0.0007446166	0.3042843	-0.9275357	0.0530648	0.0375439	-0.01772392	-0.00584568
	0.3042843	-0.9275357	-4.472795e-06	-0.03186321	-0.01772935	-0.005841339	0.06351201	0.0002519234
	0.0530648	0.0375439	-0.01772935	-0.005841339	-0.008492926	-0.0006376332	0.3035365	-0.9277615
	-0.01772392	-0.00584568	0.06351201	0.0002519234	0.3035365	-0.9277615	3.143161e-05	-0.0319714
3.7e+08	-0.008610149	0.0003618341	0.2719979	-0.9370431	0.05519325	0.03702069	-0.0184722	-0.005385039
	0.2719979	-0.9370431	-0.0008249495	-0.03263194	-0.01847813	-0.005379778	0.0648286	-0.002575915
	0.05519325	0.03702069	-0.01847813	-0.005379778	-0.008595452	0.0004744259	0.2712216	-0.9372495
	-0.0184722	-0.005385039	0.0648286	-0.002575915	0.2712216	-0.9372495	-0.0007899348	-0.03274494
3.8e+08	-0.008618839	0.001507122	0.2394267	-0.9454272	0.05730697	0.03640497	-0.01921409	-0.004875927
	0.2394267	-0.9454272	-0.001660888	-0.03337605	-0.01922047	-0.004869662	0.06599066	-0.005521627
	0.05730697	0.03640497	-0.01922047	-0.004869662	-0.008597405	0.00162497	0.2386229	-0.9456113
	-0.01921409	-0.004875927	0.06599066	-0.005521627	0.2386229	-0.9456113	-0.001626909	-0.03349405
3.9e+08	-0.008523189	0.002684281	0.2066067	-0.9526813	0.05940216	0.03569785	-0.01994685	-0.00431771
	0.2066067	-0.9526813	-0.002511033	-0.0340961	-0.01995356	-0.004310328	0.06699032	-0.008576408
	0.05940216	0.03569785	-0.01995356	-0.004310328	-0.008494475	0.00280711	0.2057751	-0.9528419
	-0.01994685	-0.00431771	0.06699032	-0.008576408	0.2057751	-0.9528419	-0.002478291	-0.03421919
4e+08	-0.008319486	0.003885209	0.1735783	-0.9587977	0.06147523	0.03490057	-0.02066771	-0.003710001
	0.1735783	-0.9587977	-0.003374171	-0.03479293	-0.0206747	-0.003701394	0.06782021	-0.01173103
	0.06147523	0.03490057	-0.0206747	-0.003701394	-0.008282879	0.004012694	0.1727197	-0.9589332
	-0.02066771	-0.003710001	0.06782021	-0.01173103	0.1727197	-0.9589332	-0.003342884	-0.03492121
4.1e+08	-0.008004712	0.005101951	0.1403809	-0.9637718	0.06352244	0.03401462	-0.02137363	-0.003052518
	0.1403809	-0.9637718	-0.004249358	-0.03546728	-0.02138093	-0.003042658	0.06847329	-0.01497548
	0.06352244	0.03401462	-0.02138093	-0.003042658	-0.007959642	0.005233679	0.1394969	-0.9638802
	-0.02137363	-0.003052518	0.06847329	-0.01497548	0.1394969	-0.9638802	-0.004219752	-0.03560085
4.2e+08	-0.007575984	0.006326484	0.1070529	-0.9675976	0.06554048	0.03304129	-0.0220618	-0.002345191
	0.1070529	-0.9675976	-0.005135803	-0.03612009	-0.02206924	-0.00233395	0.06894335	-0.01829963
	0.06554048	0.03304129	-0.02206924	-0.00233395	-0.007521908	0.00646186	0.1061435	-0.9676777
	-0.0220618	-0.002345191	0.06894335	-0.01829963	0.1061435	-0.9676777	-0.005108004	-0.03625903
4.3e+08	-0.007031493	0.007550154	0.0736337	-0.9702731	0.06752605	0.03198244	-0.02272914	-0.001588111
	0.0736337	-0.9702731	-0.006032566	-0.03675231	-0.02273654	-0.001575389	0.06922457	-0.02169286
	0.06752605	0.03198244	-0.02273654	-0.001575389	-0.006967892	0.007688738	0.07270106	-0.970324
	-0.02272914	-0.001588111	0.06922457	-0.02169286	0.07270106	-0.970324	-0.006006929	-0.03689657
4.4e+08	-0.006369838	0.008764353	0.04016284	-0.9717978	0.06947586	0.0308398	-0.02337243	-0.0007815288
	0.04016284	-0.9717978	-0.006939239	-0.0373648	-0.02337988	-0.0007673153	0.06931204	-0.02514444
	0.06947586	0.0308398	-0.02337988	-0.0007673153	-0.006296209	0.0089055	0.03920739	-0.9718161
	-0.02337243	-0.0007815288	0.06931204	-0.02514444	0.03920739	-0.9718161	-0.006915927	-0.03751449
4.5e+08	-0.005590181	0.009960122	0.006680355	-0.9721711	0.07138676	0.0296151	-0.0239886	7.405067e-05
	0.006680355	-0.9721711	-0.007855419	-0.03795891	-0.02399592	8.985103e-05	0.06920124	-0.02864292
	0.07138676	0.0296151	-0.02399592	8.985104e-05	-0.005506049	0.01010337	0.005703487	-0.9721563
	-0.0239886	7.405068e-05	0.06920124	-0.02864292	0.005703487	-0.9721563	-0.007834657	-0.03811392
4.6e+08	-0.004692319	0.0111289	-0.02677604	-0.9713924	0.07325565	0.02831061	-0.02457456	0.0009779828
	-0.02677604	-0.9713924	-0.008780847	-0.03853518	-0.02458163	0.0009954094	0.06888846	-0.03217708
	0.07325565	0.02831061	-0.02458163	0.0009954094	-0.004597183	0.01127335	-0.02777339	-0.9713422
	-0.02457456	0.0009779828	0.06888846	-0.03217708	-0.02777339	-0.9713422	-0.00876275	-0.03869574
4.7e+08	-0.003676824	0.01226152	-0.06016607	-0.9694648	0.07507975	0.02692822	-0.02512711	0.001929275
	-0.06016607	-0.9694648	-0.009715417	-0.03909508	-0.02513371	0.001948427	0.06837045	-0.03573489
	0.07507975	0.02692822	-0.02513371	0.001948427	-0.003570326	0.01240671	-0.06118319	-0.96938
	-0.02512711	0.001929275	0.06837045	-0.03573489	-0.06118319	-0.96938	-0.009700387	-0.03926096
4.8e+08	-0.002544959	0.01334906	-0.09344964	-0.9663928	0.07685619	0.02547025	-0.02564295	0.002926884
	-0.09344964	-0.9663928	-0.01065938	-0.03963921	-0.02564896	0.002947783	0.06764489	-0.03930457
	0.07685619	0.02547025	-0.02564896	0.002947783	-0.002426628	0.01349392	-0.09448466	-0.9662699
	-0.02564295	0.002926884	0.06764489	-0.03930457	-0.09448466	-0.9662699	-0.01064741	-0.03981061
4.9e+08	-0.001298329	0.01438292	-0.1265898	-0.9621828	0.07858241	0.02393907	-0.02611924	0.003969435
	-0.1265898	-0.9621828	-0.01161276	-0.04016872	-0.02612453	0.003992121	0.0667101	-0.04287397
	0.07858241	0.02393907	-0.02612453	0.003992121	-0.001167904	0.0145268	-0.1276413	-0.9620205
	-0.02611924	0.003969435	0.0667101	-0.04287397	-0.1276413	-0.9620205	-0.01160411	-0.04034551
5e+08	6.070721e-05	0.01535399	-0.1595457	-0.9568376	0.08025575	0.02233684	-0.02655274	0.005055439
	-0.1595457	-0.9568376	-0.01257617	-0.04068463	-0.02655715	0.005079899	0.06556486	-0.04643116
	0.08025575	0.02233684	-0.02655715	0.005079899	0.0002034415	0.01549609	-0.1606131	-0.9566358
	-0.02655274	0.005055439	0.06556486	-0.04643116	-0.1606131	-0.9566358	-0.01257103	-0.04086673
5.1e+08	0.001528967	0.01625389	-0.1922816	-0.9503672	0.08187388	0.02066609	-0.02694037	0.006183131
	-0.1922816	-0.9503672	-0.01354982	-0.04118736	-0.02694378	0.006209399	0.06420883	-0.04996364
