!$
! Info: Touchstone file created by Circ.  Input file=C2M_PCB_93ohms_8p5in_20230620_v3.circ
!$
# Hz S RI R 50
0	0.01047576	3.784174e-24	0.989494	-3.630535e-24	0.0001670103	9.661469e-23	-0.0001633182	2.014719e-20
	0.989494	-3.486245e-24	0.01029431	2.450602e-24	-0.0001606615	1.982175e-20	2.230271e-05	8.397172e-21
	0.0001670104	9.664867e-23	-0.0001606615	1.982154e-20	0.01047908	4.231362e-24	0.9895072	-3.471271e-24
	-0.0001633181	2.014721e-20	2.230269e-05	8.397246e-21	0.9895072	-3.487981e-24	0.01030781	2.798648e-24
1e+07	0.0149156	-0.0003792204	0.9776211	-0.1182227	0.0007520031	0.003363142	-0.000311457	-0.0005290992
	0.9776211	-0.1182227	0.01467182	-0.0002959302	-0.0003095759	-0.0005299949	0.0004756362	0.003472032
	0.0007520031	0.003363142	-0.0003095759	-0.0005299949	0.01520872	-0.000416881	0.9773364	-0.1182352
	-0.000311457	-0.0005290992	0.0004756362	0.003472032	0.9773364	-0.1182352	0.01496398	-0.0003364928
2e+07	0.0176533	-0.004559861	0.9535475	-0.2305412	0.002141408	0.006443957	-0.000428764	-0.001041943
	0.9535475	-0.2305412	0.01711517	-0.004385444	-0.0004278345	-0.001042615	0.001397587	0.006758248
	0.002141426	0.006443863	-0.0004278154	-0.001042665	0.01786073	-0.004727583	0.9533257	-0.2304613
	-0.0004287423	-0.001041991	0.001397608	0.006758245	0.9533257	-0.2304613	0.01731644	-0.004555887
3e+07	0.01841641	-0.01017745	0.9178685	-0.3378618	0.004386267	0.008925634	-0.0006832465	-0.001424052
	0.9178685	-0.3378618	0.01734836	-0.009775663	-0.0006828248	-0.001424235	0.002889077	0.009668597
	0.004386254	0.008925629	-0.0006828324	-0.001424231	0.01854966	-0.01039497	0.9176944	-0.3377613
	-0.0006832553	-0.001424048	0.002889069	0.009668614	0.9176944	-0.3377613	0.01747024	-0.009993079
4e+07	0.01756781	-0.01608006	0.8707797	-0.4397446	0.007288502	0.01069904	-0.001024515	-0.001744037
	0.8707797	-0.4397446	0.01579008	-0.0152196	-0.001024282	-0.001743516	0.004833624	0.0121995
	0.007288504	0.01069904	-0.001024283	-0.001743513	0.01763318	-0.01632138	0.8706433	-0.4396436
	-0.001024515	-0.001744034	0.004833621	0.0121995	0.8706433	-0.4396436	0.01583848	-0.01545584
5e+07	0.01531583	-0.02179172	0.8128328	-0.535148	0.01062036	0.01165299	-0.001413506	-0.002030731
	0.8128328	-0.535148	0.01272692	-0.02017313	-0.00141311	-0.002029435	0.007107855	0.01431511
	0.01062036	0.01165299	-0.001413112	-0.002029434	0.01531909	-0.02203967	0.8127245	-0.5350578
	-0.001413507	-0.00203073	0.007107852	0.01431511	0.8127245	-0.5350578	0.01270848	-0.02040887
6e+07	0.01185178	-0.02698441	0.7447842	-0.6229933	0.0141767	0.01169952	-0.001865408	-0.002283535
	0.7447842	-0.6229933	0.008439659	-0.02426562	-0.001864544	-0.002281531	0.009624369	0.01597332
	0.0141767	0.01169952	-0.001864542	-0.002281531	0.01179995	-0.0272261	0.7446948	-0.6229212
	-0.001865406	-0.002283536	0.009624373	0.01597331	0.7446948	-0.6229212	0.008361821	-0.02448604
7e+07	0.007383065	-0.03140902	0.6675397	-0.7022598	0.01773361	0.01079898	-0.002393291	-0.002491608
	0.6675397	-0.7022598	0.003233167	-0.02722889	-0.002391707	-0.002489051	0.01228569	0.01715128
	0.01773361	0.01079898	-0.002391705	-0.002489054	0.007283629	-0.03163441	0.6674592	-0.7022094
	-0.00239329	-0.002491611	0.01228569	0.01715128	0.6674592	-0.7022094	0.003105131	-0.0274218
8e+07	0.002139694	-0.03488051	0.5821288	-0.7720253	0.02106163	0.00896406	-0.003005936	-0.002635713
	0.5821288	-0.7720253	-0.002562433	-0.02888255	-0.003003403	-0.002632813	0.01499191	0.01784843
	0.02106163	0.008964061	-0.003003404	-0.00263281	0.002000958	-0.0350818	0.5820474	-0.7719982
	-0.003005936	-0.00263571	0.01499191	0.01784843	0.5820474	-0.7719982	-0.002730037	-0.02903827
9e+07	-0.00362977	-0.03727425	0.4896782	-0.8314854	0.02393845	0.0062598	-0.003705209	-0.002690008
	0.4896782	-0.8314854	-0.008599965	-0.02912967	-0.003701579	-0.00268707	0.01764693	0.01808612
	0.02393844	0.0062598	-0.003701577	-0.00268706	-0.00379824	-0.03744547	0.489586	-0.8314821
	-0.003705206	-0.002689999	0.01764693	0.01808613	0.489586	-0.8314821	-0.008795042	-0.02924114
1e+08	-0.009653799	-0.03851757	0.3913762	-0.8799775	0.02615938	0.002799548	-0.004483012	-0.002623742
	0.3913762	-0.8799775	-0.014514	-0.02794998	-0.004478284	-0.002621158	0.02016327	0.01790485
	0.02615938	0.002799548	-0.004478284	-0.002621159	-0.009838569	-0.03865337	0.3912575	-0.8799974
	-0.004483012	-0.002623743	0.02016327	0.01790485	0.3912575	-0.8799974	-0.01472036	-0.02801147
1.1e+08	-0.01567996	-0.0386974	0.2885108	-0.9168346	0.02754523	-0.001249908	-0.005318805	-0.002412796
	0.2885108	-0.9168346	-0.01997126	-0.02553685	-0.005312839	-0.002412298	0.02246443	0.0173675
	0.02754523	-0.001249907	-0.005312839	-0.002412299	-0.01585944	-0.03880635	0.2883563	-0.9168524
	-0.005318805	-0.002412798	0.02246443	0.01736749	0.2883563	-0.9168524	-0.02011042	-0.02555679
1.2e+08	-0.02157107	-0.03779609	0.1825166	-0.9417632	0.02796981	-0.005692371	-0.006193743	-0.002032351
	0.1825166	-0.9417632	-0.02478653	-0.02190149	-0.006187695	-0.002032975	0.02449975	0.01654628
	0.02796981	-0.005692371	-0.006187695	-0.002032977	-0.02175368	-0.03789069	0.1823314	-0.9417706
	-0.006193744	-0.002032353	0.02449975	0.01654628	0.1823314	-0.9417706	-0.02491107	-0.02191568
1.3e+08	-0.02708869	-0.0358766	0.07472088	-0.9545551	0.02734404	-0.01030594	-0.007072696	-0.001458027
	0.07472088	-0.9545551	-0.02865639	-0.01722668	-0.007066486	-0.001459225	0.02623149	0.0155203
	0.02734404	-0.01030594	-0.007066486	-0.001459226	-0.02727915	-0.03595839	0.07450775	-0.9545425
	-0.007072696	-0.001458028	0.02623149	0.01552029	0.07450775	-0.9545425	-0.02878962	-0.01722774
1.4e+08	-0.03203935	-0.03305916	-0.03352036	-0.9551343	0.02563053	-0.0148511	-0.007912141	-0.0006757636
	-0.03352036	-0.9551343	-0.03136032	-0.01176007	-0.007905495	-0.0006775787	0.02764235	0.01437414
	0.02563053	-0.0148511	-0.007905496	-0.0006775795	-0.03223898	-0.03312605	-0.03375714	-0.955097
	-0.007912141	-0.0006757643	0.02764235	0.01437414	-0.03375714	-0.955097	-0.03150417	-0.01173541
1.5e+08	-0.03627015	-0.02949958	-0.1408542	-0.9435769	0.02284488	-0.01908248	-0.00866334	0.0003165098
	-0.1408542	-0.9435769	-0.03274867	-0.005787259	-0.00865619	0.0003137372	0.02873491	0.01319158
	0.02284488	-0.01908248	-0.008656191	0.0003137367	-0.03647738	-0.0295493	-0.1411099	-0.9435086
	-0.008663341	0.0003165093	0.02873491	0.01319158	-0.1411099	-0.9435086	-0.03289522	-0.005729333
1.6e+08	-0.03967113	-0.02537763	-0.2459501	-0.9200985	0.01905614	-0.02276067	-0.009276175	0.001507809
	-0.2459501	-0.9200985	-0.03274253	0.0003849716	-0.009268727	0.001503725	0.02953085	0.01205196
	0.01905614	-0.02276067	-0.009268728	0.001503725	-0.03988309	-0.02540892	-0.2462193	-0.9199948
	-0.009276175	0.001507809	0.02953085	0.01205196	-0.2462193	-0.9199948	-0.03288119	0.0004779663
1.7e+08	-0.04217736	-0.02088486	-0.3475114	-0.8850562	0.01438478	-0.02566309	-0.009702867	0.002873988
	-0.3475114	-0.8850562	-0.03133439	0.006443671	-0.009695494	0.002868317	0.03006898	0.01102584
	0.01438478	-0.02566309	-0.009695494	0.002868317	-0.04239084	-0.02089784	-0.3477883	-0.884914
	-0.009702867	0.002873988	0.03006898	0.01102584	-0.3477883	-0.884914	-0.03145512	0.006569035
1.8e+08	-0.04376782	-0.01621549	-0.4442929	-0.8389436	0.008998287	-0.02759498	-0.009901831	0.004378943
	-0.4442929	-0.8389436	-0.02858586	0.01208543	-0.009895023	0.004371607	0.03040288	0.0101717
	0.008998287	-0.02759498	-0.009895023	0.004371607	-0.04398003	-0.01621104	-0.4445721	-0.8387612
	-0.009901831	0.004378943	0.03040288	0.0101717	-0.4445721	-0.8387612	-0.02868053	0.01223772
1.9e+08	-0.04446327	-0.01155528	-0.5351121	-0.782384	0.003104798	-0.02839873	-0.009840655	0.005976532
	-0.5351121	-0.782384	-0.0246234	0.0170302	-0.009834933	0.005967618	0.03059786	0.009533426
	0.003104799	-0.02839873	-0.009834933	0.005967618	-0.04467214	-0.01153524	-0.5353869	-0.7821581
	-0.009840655	0.005976532	0.03059786	0.009533425	-0.5353869	-0.7821581	-0.02468587	0.01720216
2e+08	-0.0443218	-0.007074715	-0.6188632	-0.7161206	-0.003055023	-0.02796141	-0.009498605	0.007613529
	-0.6188632	-0.7161206	-0.01963045	0.02103473	-0.009494442	0.007603315	0.03072686	0.00913759
	-0.003055023	-0.02796141	-0.009494442	0.007603315	-0.04452602	-0.007040742	-0.6191269	-0.7158517
	-0.009498605	0.007613529	0.03072686	0.009137589	-0.6191269	-0.7158517	-0.01965726	0.02121825
2.1e+08	-0.04343347	-0.002920793	-0.6945249	-0.6410156	-0.009217667	-0.02622186	-0.00886809	0.009232986
	-0.6945249	-0.6410156	-0.01383827	0.02390352	-0.008865862	0.009221879	0.03086718	0.008992949
	-0.009217667	-0.02622186	-0.008865862	0.009221879	-0.04363226	-0.002874531	-0.6947711	-0.6407024
	-0.00886809	0.009232986	0.03086718	0.008992948	-0.6947711	-0.6407024	-0.01382774	0.0240905
2.2e+08	-0.04191276	0.0007884207	-0.7611792	-0.5580331	-0.01510774	-0.02317466	-0.007955132	0.0107781
	-0.7611792	-0.5580331	-0.007513438	0.02549798	-0.007955063	0.01076663	0.03109643	0.009089775
	-0.01510774	-0.02317466	-0.007955063	0.01076663	-0.04210579	0.0008455951	-0.761402	-0.5576773
	-0.007955132	0.0107781	0.03109643	0.009089775	-0.761402	-0.5576773	-0.007466165	0.02568049
2.3e+08	-0.03989089	0.003967249	-0.8180186	-0.4682333	-0.02044921	-0.01887199	-0.006778477	0.01219559
	-0.8180186	-0.4682333	-0.000944801	0.02574219	-0.006780634	0.01218433	0.03148722	0.009399451
	-0.02044921	-0.01887199	-0.006780634	0.01218433	-0.04007812	0.004034326	-0.8182109	-0.4678375
	-0.006778477	0.01219559	0.03148722	0.009399451	-0.8182109	-0.4678375	-0.0008628044	0.02591305
2.4e+08	-0.03750804	0.006564335	-0.864352	-0.3727613	-0.02497792	-0.01342389	-0.005368051	0.01343918
	-0.864352	-0.3727613	0.005571515	0.02462582	-0.005372348	0.01342871	0.03210513	0.009877208
	-0.02497792	-0.01342389	-0.005372348	0.01342871	-0.03768933	0.006640622	-0.8645073	-0.3723267
	-0.005368051	0.01343918	0.03210513	0.009877208	-0.8645073	-0.3723267	0.00568499	0.02477872
2.5e+08	-0.03490348	0.008562612	-0.8996253	-0.2728301	-0.02845319	-0.006995059	-0.003762253	0.01447189
	-0.8996253	-0.2728301	0.01174674	0.02220435	-0.00376839	0.01446277	0.03300369	0.01046301
	-0.02845319	-0.006995059	-0.00376839	0.01446277	-0.03507888	0.008647614	-0.8997371	-0.2723605
	-0.003762253	0.01447189	0.03300369	0.01046301	-0.8997371	-0.2723605	0.01188712	0.02233399
2.6e+08	-0.03220895	0.009976807	-0.9234177	-0.1697113	-0.03066935	0.0002000542	-0.002004922	0.01526799
	-0.9234177	-0.1697113	0.01731302	0.01859447	-0.002012513	0.01526066	0.03422152	0.01108481
	-0.03066935	0.0002000542	-0.002012513	0.01526066	-0.03237816	0.01007036	-0.9234809	-0.1692123
	-0.002004922	0.01526799	0.03422152	0.01108481	-0.9234809	-0.1692123	0.01747524	0.01869702
2.7e+08	-0.029541	0.01084933	-0.9354568	-0.06471479	-0.03146516	0.007905071	-0.000141677	0.01581289
	-0.9354568	-0.06471479	0.02203783	0.01396858	-0.0001501752	0.0158076	0.03577996	0.01166218
	-0.03146516	0.007905071	-0.0001501753	0.0158076	-0.02970365	0.01095123	-0.9354657	-0.06418978
	-0.000141677	0.01581289	0.03577996	0.01166218	-0.9354657	-0.06418978	0.02221623	0.01404112
2.8e+08	-0.0269948	0.01124482	-0.9356176	0.04082581	-0.03073318	0.01583101	0.001783193	0.01610315
	-0.9356176	0.04082581	0.02573404	0.008544364	0.001774406	0.01610014	0.03768165	0.01211053
	-0.03073318	0.01583101	0.001774406	0.01610014	-0.02715042	0.01135509	-0.9355669	0.04136876
	0.001783193	0.01610315	0.03768165	0.01211053	-0.9355669	0.04136876	0.02592275	0.008585489
2.9e+08	-0.02464096	0.01124297	-0.9239289	0.1455698	-0.0284253	0.02366746	0.003729731	0.01614436
	-0.9239289	0.1455698	0.02826898	0.002573845	0.003721264	0.01614361	0.03990866	0.01234501
	-0.0284253	0.02366746	0.003721264	0.01614361	-0.02478852	0.01136141	-0.9238158	0.1461246
	0.00372973	0.01614436	0.03990866	0.01234501	-0.9238158	0.1461246	0.02846203	0.002583251
3e+08	-0.02252304	0.01093118	-0.9005723	0.2481911	-0.02455742	0.03109544	0.005664411	0.01594982
	-0.9005723	0.2481911	0.02957081	-0.003670279	0.005656887	0.01595105	0.04242459	0.01228588
	-0.02455742	0.03109544	0.005656887	0.01595105	-0.02266165	0.01105766	-0.9003926	0.2487501
	0.005664411	0.01594982	0.04242459	0.01228588	-0.9003926	0.2487501	0.02976253	-0.003691725
3.1e+08	-0.02065765	0.01039693	-0.8658764	0.3473921	-0.01921036	0.03780033	0.007561462	0.01553625
	-0.8658764	0.3473921	0.02963078	-0.009908804	0.007555405	0.01553911	0.04517474	0.01186238
	-0.01921036	0.03780033	0.007555405	0.01553911	-0.02078611	0.01053114	-0.865627	0.347947
	0.007561462	0.01553625	0.04517474	0.01186238	-0.865627	0.347947	0.02981613	-0.009959024
3.2e+08	-0.01903688	0.009720388	-0.8203164	0.441926	-0.01252842	0.04348524	0.009403081	0.01492206
	-0.8203164	0.441926	0.02850287	-0.01587029	0.009398949	0.01492612	0.04808916	0.01101682
	-0.01252842	0.04348524	0.009398949	0.01492612	-0.01915356	0.009861616	-0.8199976	0.4424665
	0.009403081	0.01492206	0.04808916	0.01101682	-0.8199976	0.4424665	0.02867712	-0.01594628
3.3e+08	-0.01763159	0.008968077	-0.7645086	0.5306065	-0.004715207	0.04788382	0.01117853	0.01412368
	-0.7645086	0.5306065	0.02629977	-0.02130479	0.01117656	0.01412827	0.0510858	0.009707975
	-0.004715207	0.04788382	0.01117656	0.01412827	-0.01773504	0.009115279	-0.7641187	0.5311259
	0.01117853	0.01412368	0.0510858	0.009707975	-0.7641187	0.5311259	0.02645931	-0.02140282
3.4e+08	-0.01639766	0.00818821	-0.6991922	0.6123336	0.003973159	0.05077217	0.01288263	0.01315386
	-0.6991922	0.6123336	0.02318629	-0.02599673	0.01288292	0.01315828	0.05407508	0.007913307
	0.003973159	0.05077217	0.01288292	0.01315828	-0.01648618	0.008339887	-0.698734	0.6128215
	0.01288263	0.01315386	0.05407508	0.007913307	-0.698734	0.6128215	0.02332841	-0.0261123
3.5e+08	-0.01528193	0.007407094	-0.6252284	0.6860978	0.01323703	0.05197854	0.01451312	0.0120195
	-0.6252284	0.6860978	0.01936983	-0.02977485	0.01451561	0.01202315	0.05696349	0.005630378
	0.01323703	0.05197854	0.01451561	0.01202315	-0.01535406	0.007561334	-0.6247036	0.686546
	0.01451312	0.0120195	0.05696349	0.005630378	-0.6247036	0.686546	0.01949303	-0.02990316
3.6e+08	-0.01422962	0.006628215	-0.5435829	0.7509978	0.02274452	0.05139205	0.01606819	0.01072155
	-0.5435829	0.7509978	0.01508939	-0.03252069	0.01607254	0.01072372	0.05965957	0.002876946
	0.02274452	0.05139205	0.01607254	0.01072372	-0.01428394	0.006782517	-0.5429949	0.7513962
	0.01606819	0.01072155	0.05965957	0.002876945	-0.5429949	0.7513962	0.01519313	-0.03265677
3.7e+08	-0.01319134	0.005833537	-0.4553085	0.8062495	0.03214368	0.04896798	0.01754337	0.009254875
	-0.4553085	0.8062495	0.01060232	-0.03417372	0.01754911	0.009255023	0.06207752	-0.0003100914
	0.03214368	0.04896798	0.01754911	0.009255023	-0.01322698	0.005984957	-0.454662	0.8065908
	0.01754337	0.009254875	0.06207752	-0.0003100915	-0.454662	0.8065908	0.01068732	-0.03431273
3.8e+08	-0.01212959	0.004985273	-0.36154	0.8511925	0.04107588	0.04473137	0.01892918	0.007610029
	-0.36154	0.8511925	0.006171133	-0.03473361	0.01893569	0.007607757	0.06414172	-0.003876502
	0.04107588	0.04473137	0.01893569	0.007607757	-0.01214602	0.005130326	-0.3608409	0.8514673
	0.01892918	0.007610029	0.06414172	-0.003876502	-0.3608409	0.8514673	0.006239219	-0.03487106
3.9e+08	-0.01102435	0.004031692	-0.263469	0.8853013	0.04918951	0.03877735	0.02020908	0.005775143
	-0.263469	0.8853013	0.002049776	-0.0342594	0.02021556	0.005770212	0.06579035	-0.007753931
	0.04918951	0.03877735	0.02021556	0.005770212	-0.01102182	0.004166601	-0.2627234	0.8855024
	0.02020908	0.005775143	0.06579035	-0.007753931	-0.2627234	0.8855024	0.002103782	-0.03439139
4e+08	-0.00987696	0.00291158	-0.1623375	0.9081836	0.05615373	0.03126907	0.0213583	0.003738924
	-0.1623375	0.9081836	-0.00152913	-0.03286583	0.02136402	0.003731323	0.06697783	-0.01186346
	0.05615373	0.03126907	0.02136402	0.003731323	-0.00985642	0.003032363	-0.161553	0.9083043
	0.0213583	0.003738924	0.06697783	-0.01186346	-0.161553	0.9083043	-0.001485525	-0.0329893
4.1e+08	-0.008712787	0.001562224	-0.05941761	0.9195889	0.06167123	0.02243321	0.0223435	0.001493624
	-0.05941761	0.9195889	-0.00436617	-0.03071677	0.02234779	0.001483619	0.0676764	-0.01611919
	0.06167123	0.02243321	0.02234779	0.001483619	-0.008676072	0.001664792	-0.05860418	0.9196227
	0.0223435	0.001493624	0.0676764	-0.01611919	-0.05860418	0.9196227	-0.004328649	-0.03082966
4.2e+08	-0.007580778	-7.360867e-05	0.04400215	0.919405	0.06549057	0.01255244	0.02312401	-0.000961757
	0.04400215	0.919405	-0.006304921	-0.02801666	0.02312614	-0.0009737882	0.06787722	-0.02043311
	0.06549057	0.01255244	0.02312614	-0.0009737882	-0.007530709	6.669628e-06	0.04483582	0.919347
	0.02312401	-0.000961757	0.06787722	-0.02043311	0.04483582	0.919347	-0.006268652	-0.02811804
4.3e+08	-0.006552778	-0.002040965	0.1466304	0.9076636	0.06741641	0.001956804	0.0236532	-0.003618689
	0.1466304	0.9076636	-0.007239381	-0.02499967	0.02365255	-0.003632159	0.06758972	-0.02471888
	0.06741641	0.001956804	0.02365255	-0.003632159	-0.006493101	-0.001986522	0.1474729	0.9075106
	0.0236532	-0.003618689	0.06758972	-0.02471888	0.1474729	0.9075106	-0.007199649	-0.02508968
4.4e+08	-0.005719305	-0.004365593	0.2471883	0.8845372	0.06731805	-0.008987977	0.02388128	-0.006456889
	0.2471883	0.8845372	-0.007119836	-0.02191757	0.02387772	-0.006471072	0.06684094	-0.02889605
	0.06731805	-0.008987977	0.02387772	-0.006471072	-0.005654743	-0.004340084	0.2480286	0.8842846
	0.02388128	-0.006456889	0.06684094	-0.02889605	0.2480286	0.8842846	-0.007071842	-0.02199781
4.5e+08	-0.005184616	-0.007048761	0.3444234	0.8503361	0.06513592	-0.01989307	0.0237589	-0.009442924
	0.3444234	0.8503361	-0.005954798	-0.01902754	0.0237522	-0.009457053	0.06567297	-0.03289295
	0.06513592	-0.01989307	0.0237522	-0.009457053	-0.005120617	-0.007054313	0.3452498	0.8499831
	0.0237589	-0.009442924	0.06567297	-0.03289295	0.3452498	0.8499831	-0.005894237	-0.01910047
4.6e+08	-0.005059739	-0.01006261	0.4371252	0.8055041	0.06088587	-0.03035996	0.02324065	-0.01252996
	0.4371252	0.8055041	-0.003810641	-0.01657792	0.02323093	-0.01254325	0.06414092	-0.03665039
	0.06088587	-0.03035996	0.02323093	-0.01254325	-0.005002655	-0.01010063	0.4379254	0.8050498
	0.02324065	-0.01252996	0.06414092	-0.03665039	0.4379254	0.8050498	-0.00373375	-0.01664745
4.7e+08	-0.005455487	-0.01334833	0.5241372	0.7506194	0.05466015	-0.03999583	0.02228888	-0.01565827
	0.5241372	0.7506194	-0.0008085477	-0.01479712	0.02227636	-0.01567001	0.06230934	-0.04012293
	0.05466015	-0.03999583	0.02227636	-0.01567001	-0.005411942	-0.01341866	0.5249	0.7500664
	0.02228888	-0.01565827	0.06230934	-0.04012293	0.5249	0.7500664	-0.0007127006	-0.01486749
4.8e+08	-0.006473685	-0.01681524	0.6043724	0.6863857	0.04662619	-0.04842754	0.02087713	-0.01875731
	0.6043724	0.6863857	0.002881307	-0.01388031	0.02086231	-0.0187669	0.06024937	-0.04328144
	0.04662619	-0.04842754	0.02086231	-0.0187669	-0.00645096	-0.0169167	0.6050839	0.6857354
	0.02087713	-0.01875731	0.06024937	-0.04328144	0.6050839	0.6857354	0.00299794	-0.01395701
4.9e+08	-0.008198635	-0.02034281	0.6768298	0.6136237	0.03702227	-0.05531657	0.01899359	-0.02174857
	0.6768298	0.6136237	0.007048834	-0.01398078	0.01897709	-0.02175562	0.0580348	-0.04611308
	0.03702227	-0.05531657	0.01897709	-0.02175562	-0.00820368	-0.02047234	0.6774774	0.6128806
	0.01899359	-0.02174857	0.0580348	-0.04611308	0.6774774	0.6128806	0.00718664	-0.01406929
5e+08	-0.01069014	-0.02378416	0.7405991	0.5332623	0.02614998	-0.06037226	0.01664243	-0.02454887
	0.7405991	0.5332623	0.01145308	-0.01520142	0.01662498	-0.02455314	0.05573832	-0.04862197
	0.02614998	-0.06037226	0.01662498	-0.02455314	-0.0107296	-0.0239372	0.7411717	0.5324327
	0.01664243	-0.02454887	0.05573832	-0.04862197	0.7411717	0.5324327	0.01161132	-0.01530735
5.1e+08	-0.01397532	-0.02697136	0.7948861	0.4463299	0.01436508	-0.06336408	0.0138455	-0.02707464
	0.7948861	0.4463299	0.01583594	-0.01758839	0.01382778	-0.02707618	0.0534283	-0.05082758
	0.01436508	-0.06336408	0.01382778	-0.02707618	-0.01405525	-0.02714197	0.7953707	0.4454214
	0.0138455	-0.02707464	0.0534283	-0.05082758	0.7953707	0.4454214	0.01601246	-0.01771747
5.2e+08	-0.01804381	-0.0297236	0.8390127	0.353942	0.002064901	-0.06413186	0.01064215	-0.02924627
	0.8390127	0.353942	0.01993323	-0.02112984	0.01062474	-0.02924525	0.05116566	-0.05276445
