!$
! Info: Touchstone file created by Circ.  Input file=C2M_PCB_93ohms_10p0in_20230620_v3.circ
!$
# Hz S RI R 50
0	0.01182051	4.181735e-24	0.9881493	-4.055963e-24	0.0001745915	1.040122e-22	-0.0001709044	2.109895e-20
	0.9881493	-3.911858e-24	0.01163898	2.896317e-24	-0.0001682511	2.077391e-20	2.989736e-05	8.434418e-21
	0.0001745915	1.040461e-22	-0.0001682511	2.07737e-20	0.01182382	4.611785e-24	0.9881625	-3.863469e-24
	-0.0001709043	2.109898e-20	2.989734e-05	8.434491e-21	0.9881625	-3.880162e-24	0.01165251	3.206542e-24
1e+07	0.01681212	-0.0008281777	0.9736943	-0.133256	0.000872908	0.003585574	-0.0003327717	-0.0005154722
	0.9736943	-0.133256	0.01654063	-0.0007410064	-0.0003309297	-0.0005164315	0.0005566388	0.003709932
	0.000872908	0.003585574	-0.0003309297	-0.0005164315	0.01714361	-0.0008768514	0.9733698	-0.1332606
	-0.0003327717	-0.0005154722	0.0005566389	0.003709932	0.9733698	-0.1332606	0.01687095	-0.0007930566
2e+07	0.01966354	-0.006017958	0.9436043	-0.2592205	0.002536049	0.006796759	-0.0004503165	-0.001020946
	0.9436043	-0.2592205	0.01902085	-0.005804823	-0.0004494986	-0.001021654	0.00165003	0.007193085
	0.00253606	0.006796665	-0.0004494812	-0.001021704	0.01989158	-0.006216514	0.9433571	-0.2591144
	-0.0004502963	-0.001020994	0.00165005	0.007193082	0.9433571	-0.2591144	0.01924149	-0.00600634
3e+07	0.0200154	-0.01276036	0.8987725	-0.3785255	0.005182361	0.009222406	-0.0007157428	-0.00138345
	0.8987725	-0.3785255	0.01873498	-0.01222486	-0.0007154623	-0.00138358	0.003409001	0.01019747
	0.005182348	0.009222401	-0.0007154698	-0.001383576	0.02015326	-0.01301455	0.8985846	-0.378393
	-0.0007157514	-0.001383445	0.003408993	0.01019749	0.8985846	-0.378393	0.01885918	-0.01247828
4e+07	0.01830889	-0.01965002	0.8396627	-0.49029	0.008527727	0.01071084	-0.001075403	-0.001680905
	0.8396627	-0.49029	0.01620849	-0.01848067	-0.001075262	-0.001680214	0.005671263	0.01269888
	0.008527729	0.01071084	-0.001075263	-0.001680212	0.01836432	-0.01992786	0.8395221	-0.4901551
	-0.001075403	-0.001680903	0.005671259	0.01269888	0.8395221	-0.4901551	0.01624382	-0.01875117
5e+07	0.01483916	-0.02606357	0.767211	-0.5929968	0.01224572	0.01113595	-0.001491354	-0.001946716
	0.767211	-0.5929968	0.01185163	-0.02387098	-0.001490906	-0.001945153	0.008263606	0.01465402
	0.01224572	0.01113595	-0.001490908	-0.001945152	0.01482004	-0.02634358	0.7671062	-0.592873
	-0.001491355	-0.001946715	0.008263602	0.01465402	0.7671062	-0.592873	0.01180733	-0.02413434
6e+07	0.009907715	-0.03156851	0.6826422	-0.6851456	0.01603356	0.01042289	-0.001986518	-0.002174704
	0.6826422	-0.6851456	0.006096621	-0.02792507	-0.001985374	-0.002172403	0.01105313	0.01602334
	0.01603356	0.0104229	-0.001985372	-0.002172404	0.009823725	-0.03183475	0.682562	-0.6850416
	-0.001986517	-0.002174705	0.01105313	0.01602333	0.682562	-0.6850416	0.005983538	-0.02816293
7e+07	0.003851005	-0.03585088	0.5873976	-0.7653699	0.01957435	0.008578278	-0.002578432	-0.00234309
	0.5873976	-0.7653699	-0.0005822273	-0.03032948	-0.002576289	-0.00234032	0.01389905	0.01680086
	0.01957435	0.008578279	-0.002576287	-0.002340322	0.003712705	-0.03609125	0.5873302	-0.7652899
	-0.002578432	-0.002343093	0.01389905	0.01680085	0.5873302	-0.7652899	-0.0007508826	-0.03052736
8e+07	-0.002962085	-0.0387014	0.4830934	-0.8324901	0.02256062	0.005692118	-0.00327466	-0.002418239
	0.4830934	-0.8324901	-0.007681172	-0.03091369	-0.003271285	-0.002415352	0.01666481	0.01701604
	0.02256062	0.005692118	-0.003271286	-0.002415349	-0.003143111	-0.03890707	0.4830272	-0.8324356
	-0.00327466	-0.002418236	0.01666481	0.01701605	0.4830272	-0.8324356	-0.00789041	-0.03106098
9e+07	-0.01014464	-0.04001176	0.3714779	-0.8855389	0.02471624	0.001932685	-0.004068622	-0.002359241
	0.3714779	-0.8855389	-0.01468987	-0.02964395	-0.004063935	-0.002356692	0.01922799	0.01673085
	0.02471624	0.001932685	-0.004063932	-0.002356683	-0.01035555	-0.0401768	0.3714011	-0.8855099
	-0.004068618	-0.002359233	0.01922799	0.01673086	0.3714011	-0.8855099	-0.0149232	-0.02973404
1e+08	-0.01729594	-0.03976495	0.2543759	-0.9237872	0.02581395	-0.002464991	-0.004935949	-0.002122966
	0.2543759	-0.9237872	-0.02110292	-0.02661299	-0.004930101	-0.002121261	0.02148769	0.0160334
	0.02581395	-0.002464992	-0.004930101	-0.002121262	-0.01752	-0.03988536	0.2542703	-0.923781
	-0.004935949	-0.002122967	0.02148769	0.0160334	0.2542703	-0.923781	-0.02133968	-0.02664238
1.1e+08	-0.02407184	-0.03814167	0.133747	-0.9465876	0.02569023	-0.007201405	-0.005835102	-0.001680635
	0.133747	-0.9465876	-0.02650438	-0.02216689	-0.005828308	-0.001681525	0.02336917	0.01503803
	0.02569023	-0.007201405	-0.005828308	-0.001681526	-0.02428621	-0.03823218	0.1336052	-0.9465741
	-0.005835102	-0.001680637	0.02336917	0.01503803	0.1336052	-0.9465741	-0.02666555	-0.02214795
1.2e+08	-0.0302522	-0.03521193	0.01166395	-0.9538144	0.0242747	-0.01195362	-0.006723264	-0.001006652
	0.01166395	-0.9538144	-0.03064683	-0.01647025	-0.006716658	-0.00100908	0.024839	0.01386518
	0.0242747	-0.01195362	-0.006716658	-0.001009082	-0.03046768	-0.03528318	0.01149376	-0.9537847
	-0.006723265	-0.001006653	0.024839	0.01386518	0.01149376	-0.9537847	-0.03078383	-0.01643989
1.3e+08	-0.03554318	-0.03116809	-0.1099414	-0.9454919	0.0215706	-0.0163848	-0.007538138	-8.714734e-05
	-0.1099414	-0.9454919	-0.03321745	-0.009894002	-0.007531714	-9.058962e-05	0.02588947	0.01263712
	0.0215706	-0.0163848	-0.007531714	-9.059055e-05	-0.03576383	-0.0312202	-0.1101348	-0.9454363
	-0.007538139	-8.714829e-05	0.02588947	0.01263712	-0.1101348	-0.9454363	-0.03335211	-0.009846894
1.4e+08	-0.03973557	-0.02626776	-0.2291399	-0.9218673	0.01766769	-0.02016408	-0.008212402	0.001071063
	-0.2291399	-0.9218673	-0.03404313	-0.002870749	-0.008206059	0.001066568	0.02654533	0.01147249
	0.01766769	-0.02016408	-0.00820606	0.001066567	-0.03996089	-0.02629834	-0.2293505	-0.9217815
	-0.008212403	0.001071063	0.02654533	0.01147248	-0.2293505	-0.9217815	-0.03417636	-0.002796856
1.5e+08	-0.04269788	-0.02080227	-0.344054	-0.8834241	0.01273723	-0.02298774	-0.008680443	0.002440223
	-0.344054	-0.8834241	-0.03307436	0.004145907	-0.008674328	0.002434436	0.02686022	0.01047695
	0.01273723	-0.02298774	-0.008674329	0.002434436	-0.04292448	-0.02080993	-0.344275	-0.8833024
	-0.008680444	0.002440223	0.02686022	0.01047695	-0.344275	-0.8833024	-0.03319781	0.004251145
1.6e+08	-0.04437634	-0.01507585	-0.4528854	-0.8308616	0.007023634	-0.02459874	-0.00888531	0.003973297
	-0.4528854	-0.8308616	-0.03037876	0.0107119	-0.008879814	0.003966075	0.0269125	0.009737619
	0.007023634	-0.02459874	-0.008879815	0.003966075	-0.04460002	-0.01506088	-0.4531098	-0.830701
	-0.00888531	0.003973297	0.0269125	0.009737617	-0.4531098	-0.830701	-0.03048215	0.01084715
1.7e+08	-0.04479172	-0.009384932	-0.5539374	-0.7650909	0.0008320727	-0.0248033	-0.00878448	0.005607599
	-0.5539374	-0.7650909	-0.02613232	0.01641987	-0.008780094	0.005598961	0.02679947	0.009317372
	0.0008320728	-0.0248033	-0.008780094	0.005598961	-0.04500868	-0.009349241	-0.5541579	-0.7648896
	-0.00878448	0.005607599	0.02679947	0.009317371	-0.5541579	-0.7648896	-0.02620673	0.01657931
1.8e+08	-0.04403232	-0.004002304	-0.6456421	-0.6872206	-0.005488018	-0.02348471	-0.008354227	0.007270392
	-0.6456421	-0.6872206	-0.02060457	0.02092412	-0.008351446	0.00726061	0.02663098	0.009251293
	-0.005488018	-0.02348471	-0.008351446	0.00726061	-0.04423967	-0.00394851	-0.6458524	-0.6869785
	-0.008354228	0.007270392	0.02663098	0.009251292	-0.6458524	-0.6869785	-0.02064377	0.02109946
1.9e+08	-0.04224309	0.0008387582	-0.7265796	-0.5985408	-0.011562	-0.02061269	-0.007591588	0.008885149
	-0.7265796	-0.5985408	-0.01413972	0.02396021	-0.007590812	0.008874677	0.02652237	0.009544859
	-0.011562	-0.02061269	-0.007590813	0.008874677	-0.0424392	0.0009074465	-0.7267712	-0.5982566
	-0.007591588	0.008885149	0.02652236	0.009544858	-0.7267712	-0.5982566	-0.01414026	0.02414171
2e+08	-0.03961302	0.004954028	-0.7954994	-0.5005029	-0.01701063	-0.01624789	-0.006514246	0.01037833
	-0.7954994	-0.5005029	-0.007132895	0.02536011	-0.00651569	0.01036778	0.02658648	0.01017281
	-0.01701063	-0.01624789	-0.006515691	0.01036778	-0.03979706	0.005034858	-0.7956651	-0.5001793
	-0.006514246	0.01037833	0.02658648	0.01017281	-0.7956651	-0.5001793	-0.007094661	0.02553793
2.1e+08	-0.03635999	0.00821661	-0.8513374	-0.3947073	-0.02147237	-0.01054251	-0.005158142	0.01168545
	-0.8513374	-0.3947073	-4.958125e-06	0.02506089	-0.005161807	0.01167547	0.02692686	0.01108124
	-0.02147237	-0.01054251	-0.005161807	0.01167547	-0.03653173	0.008307132	-0.85147	-0.3943456
	-0.005158142	0.01168545	0.02692686	0.01108124	-0.85147	-0.3943456	6.99201e-05	0.02522598
2.2e+08	-0.03271438	0.01055966	-0.8932386	-0.2828713	-0.02462484	-0.003734741	-0.0035732	0.01275613
	-0.8932386	-0.2828713	0.006825326	0.02310694	-0.003578836	0.01274738	0.02763075	0.01219051
	-0.02462484	-0.003734741	-0.003578837	0.01274738	-0.03287394	0.01065789	-0.8933319	-0.2824755
	-0.0035732	0.01275613	0.02763075	0.01219051	-0.8933319	-0.2824755	0.006932188	0.0232514
2.3e+08	-0.02890361	0.01197507	-0.9205693	-0.1668089	-0.02620463	0.003861326	-0.001817642	0.01355684
	-0.9205693	-0.1668089	0.01296743	0.01964509	-0.001824804	0.01354984	0.02876172	0.0133992
	-0.02620463	0.003861326	-0.001824804	0.01354984	-0.02905126	0.0120795	-0.9206166	-0.1663844
	-0.001817642	0.01355684	0.02876172	0.0133992	-0.9206166	-0.1663844	0.01310017	0.01976286
2.4e+08	-0.025138	0.01250875	-0.9329258	-0.04840435	-0.02602556	0.01187055	4.80821e-05	0.01407202
	-0.9329258	-0.04840435	0.01808414	0.01491366	3.998951e-05	0.01406714	0.03035682	0.01459181
	-0.02602556	0.01187055	3.998943e-05	0.01406714	-0.02527382	0.01261809	-0.9329206	-0.0479558
	4.808202e-05	0.01407202	0.03035682	0.01459181	-0.9329206	-0.0479558	0.01823562	0.01500052
2.5e+08	-0.02159728	0.01225123	-0.9301523	0.07042486	-0.02399201	0.01987594	0.001967263	0.01430252
	-0.9301523	0.07042486	0.02191247	0.009225626	0.001958971	0.0142999	0.03242187	0.01564514
	-0.02399201	0.01987594	0.001958971	0.0142999	-0.02172147	0.01236444	-0.9300893	0.07089061
	0.001967262	0.01430252	0.03242187	0.01564514	-0.9300893	0.07089061	0.0220748	0.009279398
2.6e+08	-0.01842267	0.01132675	-0.9123361	0.1877523	-0.02010839	0.0274407	0.003891785	0.01426256
	-0.9123361	0.1877523	0.02427871	0.002946377	0.003883982	0.01426212	0.03493069	0.0164367
	-0.02010839	0.0274407	0.003883982	0.01426212	-0.01853502	0.01144282	-0.9122119	0.1882266
	0.003891785	0.01426256	0.03493069	0.0164367	-0.9122119	0.1882266	0.02444436	0.002967183
2.7e+08	-0.0157112	0.009879771	-0.8798131	0.3016821	-0.01448205	0.03413209	0.005785353	0.01397442
	-0.8798131	0.3016821	0.02510957	-0.003530185	0.005778663	0.01397574	0.03782627	0.01685322
	-0.01448205	0.03413209	0.005778663	0.01397574	-0.01581158	0.009997615	-0.8796234	0.3021583
	0.005785352	0.01397442	0.03782627	0.01685322	-0.8796234	0.3021583	0.02527126	-0.003540666
2.8e+08	-0.01351404	0.00806105	-0.8331581	0.4103781	-0.007321846	0.03954637	0.007624582	0.01346345
	-0.8331581	0.4103781	0.02443406	-0.009808909	0.00761955	0.01346609	0.04102426	0.0167985
	-0.007321846	0.03954637	0.00761955	0.01346609	-0.01360214	0.008179628	-0.8329011	0.410845
	0.007624582	0.01346345	0.04102426	0.0167985	-0.8329011	0.410845	0.0245856	-0.009847027
2.9e+08	-0.0118401	0.006014992	-0.7731784	0.5120961	0.001070498	0.04333174	0.009397869	0.0127522
	-0.7731784	0.5120961	0.02238008	-0.01551883	0.009394763	0.01275551	0.04441715	0.01619968
	0.001070498	0.04333174	0.009394763	0.01275551	-0.01191553	0.006132701	-0.7728541	0.5125454
	0.009397869	0.0127522	0.04441715	0.01619968	-0.7728541	0.5125454	0.02251636	-0.01557982
3e+08	-0.01066193	0.003868317	-0.7008958	0.6052166	0.01031375	0.04521036	0.01110268	0.01185693
	-0.7008958	0.6052166	0.01916446	-0.02033758	0.01110153	0.01186009	0.0478829	0.01501301
	0.01031375	0.04521036	0.01110153	0.01186009	-0.01072445	0.003983717	-0.7005039	0.6056378
	0.01110268	0.01185693	0.0478829	0.01501301	-0.7005039	0.6056378	0.019282	-0.02041565
3.1e+08	-0.009924813	0.001721835	-0.617526	0.688266	0.01996567	0.04499541	0.01274059	0.01078332
	-0.617526	0.688266	0.01507691	-0.02401164	0.01274119	0.01078566	0.05129185	0.01322627
	0.01996567	0.04499541	0.01274119	0.01078566	-0.009974208	0.001833125	-0.617068	0.6886484
	0.01274059	0.01078332	0.05129185	0.01322627	-0.617068	0.6886484	0.01517413	-0.02410035
3.2e+08	-0.009557754	-0.0003543411	-0.5244581	0.7599459	0.02954512	0.042604	0.01431246	0.009526802
	-0.5244581	0.7599459	0.01045957	-0.02637198	0.01431447	0.00952778	0.05451572	0.01085954
	0.02954512	0.042604	0.01431447	0.00952778	-0.009594023	-0.0002495316	-0.5239397	0.7602789
	0.01431246	0.009526802	0.05451572	0.01085954	-0.5239397	0.7602789	0.01053625	-0.02646497
3.3e+08	-0.009484437	-0.002322557	-0.423234	0.8191473	0.0385567	0.03806471	0.01581288	0.008073137
	-0.423234	0.8191473	0.005683555	-0.02734389	0.01581562	0.008072285	0.05743571	0.007963481
	0.0385567	0.03806471	0.01581562	0.008072285	-0.009508083	-0.00222662	-0.4226579	0.8194224
	0.01581288	0.008073137	0.05743571	0.007963481	-0.4226579	0.8194224	0.005741396	-0.027435
3.4e+08	-0.009634189	-0.004174556	-0.3155087	0.8649706	0.04651667	0.03151922	0.01722608	0.006402108
	-0.3155087	0.8649706	0.001124125	-0.02695044	0.01722886	0.006399214	0.05995028	0.004615449
	0.04651667	0.03151922	0.01722886	0.006399214	-0.009646111	-0.004090291	-0.3148835	0.8651782
	0.01722608	0.006402108	0.05995028	0.004615449	-0.3148835	0.8651782	0.001166319	-0.0270343
3.5e+08	-0.009951066	-0.005926849	-0.2030364	0.8967329	0.05297819	0.02321782	0.01852261	0.004492
	-0.2030364	0.8967329	-0.00286408	-0.02530964	0.01852477	0.004487168	0.06198025	0.0009139486
	0.05297819	0.02321782	0.01852477	0.004487168	-0.009952802	-0.005857017	-0.2023693	0.8968654
	0.01852261	0.004492	0.06198025	0.0009139485	-0.2023693	0.8968654	-0.002832923	-0.02538187
3.6e+08	-0.0104005	-0.007612525	-0.08763524	0.9139788	0.05755607	0.01350944	0.01965886	0.002325703
	-0.08763524	0.9139788	-0.005969799	-0.02262566	0.01965964	0.002319189	0.0634742	-0.003028184
	0.05755607	0.01350944	0.01965964	0.002319189	-0.0103943	-0.00756004	-0.08693622	0.9140278
	0.01965886	0.002325703	0.0634742	-0.003028184	-0.08693622	0.9140278	-0.005944221	-0.02268339
3.7e+08	-0.01097262	-0.00927182	0.02884296	0.9164819	0.05994758	0.002826412	0.02057788	-0.0001037203
	0.02884296	0.9164819	-0.007945254	-0.01917462	0.02057672	-0.0001113956	0.06440965	-0.007091392
	0.05994758	0.002826412	0.02057672	-0.0001113956	-0.01096156	-0.009239201	0.02956401	0.9164423
	0.02057788	-0.0001037202	0.06440965	-0.007091392	0.02956401	0.9164423	-0.007919125	-0.01921642
3.8e+08	-0.01168365	-0.01094288	0.144532	0.9042489	0.05995052	-0.008335145	0.02121314	-0.002787395
	0.144532	0.9042489	-0.008621878	-0.01528635	0.02120971	-0.002795555	0.06479374	-0.01115664
	0.05995052	-0.008335145	0.02120971	-0.002795555	-0.01167163	-0.01093239	0.1452628	0.9041149
	0.02121314	-0.002787395	0.06479374	-0.01115664	0.1452628	0.9041149	-0.008588803	-0.01531262
3.9e+08	-0.01257233	-0.01265169	0.25759	0.8775174	0.05747593	-0.01943871	0.0214936	-0.005696972
	0.25759	0.8775174	-0.007920689	-0.01132226	0.02148773	-0.005704835	0.06466154	-0.01511301
	0.05747593	-0.01943871	0.02148773	-0.005704835	-0.01256401	-0.01266476	0.2583188	0.8772857
	0.0214936	-0.005696972	0.06466154	-0.01511301	0.2583188	0.8772857	-0.007874473	-0.01133498
4e+08	-0.01369568	-0.01440477	0.3662154	0.8367508	0.0525559	-0.02993328	0.02135032	-0.008782418
	0.3662154	0.8367508	-0.005857303	-0.007652442	0.02134218	-0.008789244	0.06407274	-0.01886387
	0.0525559	-0.02993328	0.02134218	-0.008789244	-0.01369633	-0.01444196	0.366929	0.8364199
	0.02135032	-0.008782418	0.06407274	-0.01886387	0.366929	0.8364199	-0.00579241	-0.007655272
4.1e+08	-0.01512054	-0.01618224	0.4686811	0.782634	0.04534543	-0.03928035	0.02072326	-0.01197232
	0.4686811	0.782634	-0.002540913	-0.004631223	0.02071336	-0.01197746	0.06310677	-0.0223318
	0.04534543	-0.03928035	0.02071336	-0.01197746	-0.01513594	-0.01624295	0.4693648	0.7822041
	0.02072326	-0.01197232	0.06310677	-0.0223318	0.4693648	0.7822041	-0.002452894	-0.004629263
4.2e+08	-0.01691421	-0.01793516	0.5633573	0.7160593	0.03611802	-0.04698178	0.01956846	-0.01517668
	0.5633573	0.7160593	0.00183275	-0.002574842	0.01955735	-0.01517966	0.06185768	-0.02546302
	0.03611802	-0.04698178	0.01955735	-0.01517966	-0.01695046	-0.01801743	0.5639979	0.7155323
	0.01956846	-0.01517668	0.06185768	-0.02546302	0.5639979	0.7155323	0.001947194	-0.002574286
4.3e+08	-0.01913513	-0.0195842	0.6487383	0.6381202	0.02525581	-0.05260548	0.01786339	-0.01829149
	0.6487383	0.6381202	0.00699398	-0.001740487	0.01785173	-0.01829203	0.0604275	-0.02822962
	0.02525581	-0.05260548	0.01785173	-0.01829203	-0.01919798	-0.01968453	0.6493214	0.6375016
	0.01786339	-0.01829149	0.0604275	-0.02822962	0.6493214	0.6375016	0.007136185	-0.001748133
4.4e+08	-0.02182199	-0.0210225	0.7234667	0.5500928	0.01323305	-0.05580913	0.01561099	-0.02120522
	0.7234667	0.5500928	0.01261558	-0.002309592	0.01559974	-0.02120348	0.05892024	-0.03063069
	0.01323305	-0.05580913	0.01559974	-0.02120348	-0.02191684	-0.02113587	0.7239779	0.5493873
	0.01561099	-0.02120522	0.05892024	-0.03063069	0.7239779	0.5493873	0.01278534	-0.002332957
4.5e+08	-0.02498484	-0.02212092	0.7863556	0.4534166	0.0005949099	-0.05635983	0.01284175	-0.02380657
	0.7863556	0.4534166	0.01833407	-0.00437647	0.01283152	-0.02380284	0.05743468	-0.0326913
	0.0005949099	-0.05635983	0.01283152	-0.02380284	-0.02511594	-0.0222409	0.7867824	0.4526334
	0.01284175	-0.02380657	0.05743468	-0.0326913	0.7867824	0.4526334	0.01852933	-0.004422504
4.6e+08	-0.02859672	-0.02273633	0.8364104	0.3496706	-0.01206751	-0.05414893	0.009612732	-0.02599216
	0.8364104	0.3496706	0.02377287	-0.007940727	0.009604066	-0.02598704	0.05605871	-0.03446112
	-0.01206751	-0.05414893	0.009604066	-0.02598704	-0.02876731	-0.02285509	0.8367401	0.3488197
	0.009612732	-0.02599216	0.05605871	-0.03446112	0.8367401	0.3488197	0.02398987	-0.008016306
4.7e+08	-0.03258878	-0.02272156	0.8728473	0.2405534	-0.02414668	-0.04920054	0.006004617	-0.0276737
	0.8728473	0.2405534	0.02856629	-0.01290814	0.005997715	-0.02766785	0.05486309	-0.03601015
	-0.02414668	-0.04920054	0.005997715	-0.02766785	-0.0328	-0.02283042	0.8730713	0.2396473
	0.006004617	-0.0276737	0.05486309	-0.03601015	0.8730713	0.2396473	0.0287996	-0.01301855
4.8e+08	-0.03684709	-0.02193794	0.895109	0.1278507	-0.03504796	-0.04167342	0.002116312	-0.02878392
	0.895109	0.1278507	0.03238287	-0.0190949	0.002111168	-0.02877815	0.05389739	-0.03742489
	-0.03504796	-0.04167342	0.002111168	-0.02877815	-0.03709844	-0.02202731	0.8952164	0.1269035
	0.002116312	-0.02878392	0.05389739	-0.03742489	0.8952164	0.1269035	0.03262591	-0.01924462
4.9e+08	-0.04121366	-0.02026856	0.9028757	0.01340229	-0.04422028	-0.03185608	-0.001941493	-0.0292809
	0.9028757	0.01340229	0.0349476	-0.02624086	-0.001945236	-0.02927597	0.053186	-0.0388017
	-0.04422028	-0.03185608	-0.001945236	-0.02927597	-0.04150198	-0.02032898	0.9028595	0.01242952
	-0.001941493	-0.0292809	0.053186	-0.0388017	0.9028595	0.01242952	0.03519279	-0.02643228
5e+08	-0.04549081	-0.01763039	0.8960647	-0.1009254	-0.05118423	-0.02015435	-0.006054196	-0.02914895
	0.8960647	-0.1009254	0.03605784	-0.03402507	-0.006057136	-0.02914542	0.05272618	-0.04024095
	-0.05118423	-0.02015435	-0.006057136	-0.02914542	-0.04581063	-0.01765285	0.8959214	-0.1019076
	-0.006054196	-0.02914895	0.05272618	-0.04024095	0.8959214	-0.1019076	0.03629739	-0.03425889
5.1e+08	-0.04944863	-0.01398751	0.8748419	-0.213279	-0.05555725	-0.007073866	-0.01011046	-0.0283982
	0.8748419	-0.213279	0.03559842	-0.04208638	-0.01011348	-0.02839638	0.05248796	-0.04183889
	-0.05555725	-0.007073866	-0.01011348	-0.02839638	-0.04979237	-0.01396396	0.8745682	-0.2142525
	-0.01011046	-0.0283982	0.05248796	-0.04183889	0.8745682	-0.2142525	0.03582434	-0.04236159
5.2e+08	-0.0528374	-0.009360397	0.8396091	-0.3218445	-0.05707409	0.00680389	-0.01400891	-0.02706159
	0.8396091	-0.3218445	0.03354656	-0.05004739	-0.01401296	-0.02706136	0.05241586	-0.04368187
