!$
! Info: Touchstone file created by Circ.  Input file=C2M_PCB_93ohms_1p5in_20230620_v3.circ
!$
# Hz S RI R 50
0	0.004151541	1.876472e-24	0.995818	-1.601975e-24	0.0001310615	6.141995e-23	-0.0001273457	1.563402e-20
	0.995818	-1.456811e-24	0.003970491	3.371488e-25	-0.000124673	1.530678e-20	-1.370937e-05	8.221988e-21
	0.0001310615	6.145443e-23	-0.000124673	1.530656e-20	0.004154912	2.405489e-24	0.9958313	-1.60055e-24
	-0.0001273457	1.563405e-20	-1.37094e-05	8.222062e-21	0.9958313	-1.617342e-24	0.003983816	8.645603e-25
1e+07	0.005818215	0.0009347807	0.9929439	-0.04694279	0.0002763907	0.002267736	-0.0002017849	-0.0005732674
	0.9929439	-0.04694279	0.005706306	0.00101145	-0.0001997649	-0.0005738412	0.0001939862	0.002320683
	0.0002763907	0.002267736	-0.0001997649	-0.0005738412	0.005924271	0.0009329142	0.992851	-0.04697675
	-0.0002017849	-0.0005732674	0.0001939863	0.002320683	0.992851	-0.04697675	0.005812179	0.001008996
2e+07	0.007113053	0.000558209	0.9883332	-0.09234304	0.0005987637	0.004479732	-0.0002924401	-0.001111161
	0.9883332	-0.09234303	0.007092546	0.0006388723	-0.0002910547	-0.001111499	0.0005831853	0.00452999
	0.0005988081	0.004479645	-0.0002910284	-0.001111545	0.007197544	0.0005183905	0.9882496	-0.09236522
	-0.0002924116	-0.001111204	0.0005832052	0.004529988	0.9882496	-0.09236522	0.007176577	0.0005984257
3e+07	0.008000622	-0.0003668016	0.9820093	-0.1369419	0.001125696	0.006607087	-0.0004426127	-0.001592722
	0.9820093	-0.1369419	0.008061286	-0.0003154117	-0.0004414843	-0.001592766	0.00116732	0.006629368
	0.001125686	0.006607076	-0.0004414925	-0.001592763	0.008067424	-0.0004205621	0.9819324	-0.1369718
	-0.0004426221	-0.001592719	0.001167311	0.006629385	0.9819324	-0.1369718	0.008128153	-0.0003694681
4e+07	0.008611082	-0.001497677	0.9738619	-0.1809856	0.001838885	0.008671634	-0.0006363311	-0.002049291
	0.9738619	-0.1809856	0.008749259	-0.001487093	-0.0006352967	-0.002048985	0.001933193	0.008658698
	0.001838885	0.008671637	-0.0006352985	-0.002048982	0.008662337	-0.001559011	0.9737897	-0.1810283
	-0.0006363326	-0.002049289	0.00193319	0.008658699	0.9737897	-0.1810283	0.008801132	-0.001548697
5e+07	0.009004297	-0.002740232	0.9638557	-0.2244726	0.002721065	0.01066963	-0.0008591772	-0.002488182
	0.9638557	-0.2244726	0.009224766	-0.002778169	-0.0008580979	-0.002487524	0.00286971	0.01061715
	0.002721065	0.01066963	-0.0008580997	-0.002487524	0.009041169	-0.002805527	0.9637857	-0.2245311
	-0.0008591792	-0.002488181	0.002869707	0.01061715	0.9637857	-0.2245311	0.009263522	-0.002843827
6e+07	0.009209955	-0.00404684	0.951991	-0.2673558	0.003769967	0.0125903	-0.001113079	-0.002909782
	0.951991	-0.2673558	0.009519709	-0.004143139	-0.00111188	-0.002908838	0.003977386	0.01249313
	0.003769966	0.0125903	-0.001111879	-0.002908837	0.009233867	-0.004113235	0.9519212	-0.2674323
	-0.001113077	-0.002909782	0.00397739	0.01249313	0.9519212	-0.2674323	0.00954649	-0.004210631
7e+07	0.009245057	-0.005384979	0.9382818	-0.3095735	0.00498075	0.01442207	-0.001398482	-0.003313359
	0.9382818	-0.3095735	0.009651201	-0.00555183	-0.001397142	-0.003312199	0.005252166	0.01427354
	0.00498075	0.01442207	-0.001397139	-0.0033122	0.00925707	-0.005450389	0.9382093	-0.3096694
	-0.00139848	-0.003313362	0.005252169	0.01427354	0.9382093	-0.3096694	0.009667333	-0.005619115
8e+07	0.009122166	-0.006728387	0.9227529	-0.351059	0.006347025	0.01615348	-0.00171524	-0.003697879
	0.9227529	-0.351059	0.009630346	-0.006980089	-0.001713744	-0.003696528	0.006687465	0.01594555
	0.006347025	0.01615348	-0.001713746	-0.003696526	0.009123378	-0.006791008	0.9226749	-0.3511754
	-0.001715242	-0.003697877	0.006687463	0.01594556	0.9226749	-0.3511754	0.009637117	-0.007045299
9e+07	0.008853057	-0.008054032	0.9054324	-0.3917437	0.007861411	0.01777374	-0.002063004	-0.004062116
	0.9054324	-0.3917437	0.009466301	-0.00840597	-0.002061342	-0.004060615	0.008275125	0.01749702
	0.00786141	0.01777374	-0.002061346	-0.004060607	0.008844838	-0.008111804	0.9053468	-0.3918818
	-0.002063006	-0.004062107	0.008275124	0.01749703	0.9053468	-0.3918818	0.009465024	-0.008467395
1e+08	0.008453167	-0.009335394	0.8863523	-0.4315662	0.009515598	0.01927188	-0.002441416	-0.004404366
	0.8863523	-0.4315662	0.009171327	-0.00980272	-0.002439587	-0.004402778	0.01000588	0.01891606
	0.009515598	0.01927188	-0.002439587	-0.004402779	0.008437985	-0.009384785	0.8862542	-0.4317283
	-0.002441416	-0.004404367	0.01000588	0.01891606	0.8862542	-0.4317283	0.009163844	-0.009857417
1.1e+08	0.00795275	-0.01057731	0.8655253	-0.4704193	0.01129815	0.02063937	-0.002849057	-0.004722607
	0.8655253	-0.4704193	0.008792285	-0.01120988	-0.002845682	-0.004722019	0.01186712	0.02019298
	0.01129815	0.02063937	-0.002845681	-0.00472202	0.007931695	-0.01061122	0.8654084	-0.4705991
	-0.002849056	-0.004722608	0.01186712	0.02019298	0.8654084	-0.4705991	0.008849515	-0.01125419
1.2e+08	0.007327422	-0.011778	0.8430389	-0.5082362	0.01320136	0.02186775	-0.003284151	-0.005018976
	0.8430389	-0.5082362	0.00826262	-0.01256874	-0.003280943	-0.005019237	0.01384994	0.02131946
	0.01320136	0.02186775	-0.003280943	-0.005019238	0.007307292	-0.01180482	0.8429029	-0.5084328
	-0.00328415	-0.005018978	0.01384994	0.02131946	0.8429029	-0.5084328	0.008331616	-0.01263877
1.3e+08	0.006588807	-0.01291172	0.8189375	-0.5449593	0.01521476	0.02294824	-0.00374797	-0.005291778
	0.8189375	-0.5449593	0.007614519	-0.01386049	-0.00374541	-0.005292199	0.01594274	0.02228613
	0.01521476	0.02294824	-0.003745409	-0.0052922	0.006570547	-0.01293638	0.8187784	-0.5451698
	-0.003747969	-0.00529178	0.01594274	0.02228612	0.8187784	-0.5451698	0.007667694	-0.01394902
1.4e+08	0.005749259	-0.01396198	0.7932678	-0.580523	0.0173277	0.02387366	-0.00424071	-0.005538857
	0.7932678	-0.580523	0.00686573	-0.01507777	-0.004238685	-0.005538979	0.01813336	0.02308536
	0.0173277	0.02387366	-0.004238685	-0.00553898	0.005731609	-0.01398694	0.7930858	-0.5807462
	-0.004240709	-0.005538858	0.01813336	0.02308536	0.7930858	-0.5807462	0.006896291	-0.01517142
1.5e+08	0.004822391	-0.01491664	0.766086	-0.6148661	0.01952891	0.0246373	-0.004761965	-0.005758041
	0.766086	-0.6148661	0.006028759	-0.01621399	-0.004760214	-0.00575769	0.02040889	0.02371009
	0.01952891	0.0246373	-0.004760214	-0.005757691	0.004803815	-0.01494239	0.765879	-0.6150991
	-0.004761965	-0.005758042	0.02040889	0.02371009	0.765879	-0.6150991	0.006039351	-0.01630341
1.6e+08	0.003822904	-0.01576595	0.7374463	-0.6479269	0.02180687	0.02523321	-0.005311079	-0.005947229
	0.7374463	-0.6479269	0.005114468	-0.0172622	-0.0053094	-0.005946417	0.02275621	0.02415457
	0.02180687	0.02523321	-0.0053094	-0.005946418	0.003802238	-0.01579206	0.7372135	-0.6481675
	-0.005311079	-0.005947229	0.02275621	0.02415457	0.7372135	-0.6481675	0.005110669	-0.01734272
1.7e+08	0.002765495	-0.0165031	0.707408	-0.6796448	0.02414956	0.02565627	-0.005887144	-0.006104282
	0.707408	-0.6796448	0.004133671	-0.0182157	-0.005885382	-0.006103098	0.02516173	0.02441392
	0.02414956	0.02565627	-0.005885382	-0.006103098	0.00274219	-0.01652863	0.7071486	-0.679891
	-0.005887144	-0.006104283	0.02516173	0.02441392	0.7071486	-0.679891	0.004120961	-0.01828613
1.8e+08	0.001665435	-0.01712269	0.6760325	-0.7099637	0.02654488	0.02590224	-0.00648926	-0.006227097
	0.6760325	-0.7099637	0.003097938	-0.01906826	-0.006487372	-0.006225649	0.02761172	0.02448433
	0.02654488	0.02590224	-0.006487372	-0.00622565	0.001639313	-0.01714682	0.6757466	-0.7102142
	-0.00648926	-0.006227097	0.02761172	0.02448432	0.6757466	-0.7102142	0.00308069	-0.01912934
1.9e+08	0.0005374699	-0.01762189	0.6433844	-0.7388294	0.0289806	0.02596788	-0.007116312	-0.00631346
	0.6433844	-0.7388294	0.002019406	-0.0198149	-0.0071143	-0.006311853	0.03009243	0.0243632
	0.0289806	0.02596788	-0.0071143	-0.006311854	0.0005089556	-0.01764361	0.6430698	-0.7390812
	-0.007116312	-0.00631346	0.03009243	0.0243632	0.6430698	-0.7390812	0.002000699	-0.01986827
2e+08	-0.0006033567	-0.01799892	0.6095276	-0.766191	0.03144404	0.02585038	-0.007767083	-0.006361091
	0.6095276	-0.766191	0.0009108217	-0.0204519	-0.007765	-0.006359397	0.03258975	0.02404858
	0.03144404	0.02585038	-0.007765	-0.006359397	-0.0006337717	-0.01801771	0.6091853	-0.7664419
	-0.007767083	-0.006361091	0.03258975	0.02404858	0.6091853	-0.7664419	0.0008924126	-0.02049965
2.1e+08	-0.001742135	-0.01825396	0.574533	-0.7919977	0.03392268	0.02554812	-0.00844011	-0.006367622
	0.574533	-0.7919977	-0.000214536	-0.02097706	-0.008438009	-0.006365876	0.03508968	0.02353979
	0.03392268	0.02554812	-0.008438009	-0.006365877	-0.001773858	-0.01826938	0.5741613	-0.7922458
	-0.00844011	-0.006367623	0.03508968	0.02353979	0.5741613	-0.7922458	-0.0002317209	-0.0210209
2.2e+08	-0.002864539	-0.01838877	0.5384695	-0.8162051	0.03640398	0.02506022	-0.009133803	-0.006330687
	0.5384695	-0.8162051	-0.001343504	-0.02138978	-0.009131762	-0.006328879	0.03757866	0.02283733
	0.03640398	0.02506022	-0.009131762	-0.006328879	-0.002896916	-0.01840057	0.5380687	-0.8164491
	-0.009133803	-0.006330687	0.03757866	0.02283733	0.5380687	-0.8164491	-0.001359433	-0.02143133
2.3e+08	-0.003956615	-0.01840655	0.501409	-0.8387719	0.0388751	0.02438649	-0.00984619	-0.006247789
	0.501409	-0.8387719	-0.002463216	-0.02169111	-0.009844258	-0.006245888	0.0400423	0.02194196
	0.0388751	0.02438649	-0.009844258	-0.006245888	-0.003988933	-0.01841466	0.5009796	-0.8390091
	-0.00984619	-0.006247789	0.0400423	0.02194196	0.5009796	-0.8390091	-0.002477987	-0.02173135
2.4e+08	-0.005004345	-0.01831189	0.4634261	-0.8596548	0.04132353	0.02352775	-0.01057513	-0.006116485
	0.4634261	-0.8596548	-0.003560525	-0.02188337	-0.01057336	-0.006114455	0.04246731	0.02085616
	0.04132353	0.02352775	-0.01057336	-0.006114455	-0.005036102	-0.01831634	0.4629668	-0.8598831
	-0.01057513	-0.006116485	0.04246731	0.02085616	0.4629668	-0.8598831	-0.003574469	-0.02192283
2.5e+08	-0.005995175	-0.01811103	0.4245951	-0.8788211	0.04373684	0.02248549	-0.01131814	-0.005934334
	0.4245951	-0.8788211	-0.004623121	-0.02197029	-0.01131655	-0.005932081	0.04484045	0.01958305
	0.04373684	0.02248549	-0.01131655	-0.005932081	-0.006025663	-0.01811184	0.4241059	-0.8790382
	-0.01131814	-0.005934334	0.04484045	0.01958305	0.4241059	-0.8790382	-0.004636728	-0.02200927
2.6e+08	-0.006916674	-0.01781143	0.3849936	-0.8962356	0.04610294	0.02126224	-0.01207261	-0.005699082
	0.3849936	-0.8962356	-0.005639396	-0.02195722	-0.01207124	-0.005696571	0.04714857	0.0181266
	0.04610294	0.02126224	-0.01207124	-0.005696571	-0.006945427	-0.01780882	0.3844761	-0.8964398
	-0.01207261	-0.005699082	0.04714857	0.0181266	0.3844761	-0.8964398	-0.005652737	-0.0219956
2.7e+08	-0.00775733	-0.01742166	0.3446993	-0.9118701	0.04840958	0.01986092	-0.01283544	-0.005408407
	0.3446993	-0.9118701	-0.006597981	-0.02185025	-0.01283418	-0.00540552	0.04937914	0.01649167
	0.04840958	0.01986092	-0.01283418	-0.00540552	-0.007783838	-0.01741576	0.3441516	-0.9120594
	-0.01283544	-0.005408407	0.04937914	0.01649167	0.3441516	-0.9120594	-0.006611235	-0.02188781
2.8e+08	-0.008506981	-0.01695183	0.3037907	-0.9256975	0.05064522	0.0182855	-0.01360335	-0.005060224
	0.3037907	-0.9256975	-0.007488557	-0.02165692	-0.01360227	-0.005056913	0.05152029	0.01468415
	0.05064522	0.0182855	-0.01360227	-0.005056913	-0.008530587	-0.01694288	0.3032148	-0.9258688
	-0.01360335	-0.005060224	0.05152029	0.01468415	0.3032148	-0.9258688	-0.007501351	-0.02169335
2.9e+08	-0.009156278	-0.01641283	0.2623489	-0.9376952	0.05279816	0.01654053	-0.0143725	-0.004652486
	0.2623489	-0.9376952	-0.00830181	-0.02138569	-0.01437156	-0.004648716	0.05355994	0.01271027
	0.05279816	0.01654053	-0.01437156	-0.004648716	-0.009176737	-0.01640121	0.261745	-0.9378478
	-0.0143725	-0.004652486	0.05355994	0.01271027	0.261745	-0.9378478	-0.008314005	-0.0214208
3e+08	-0.009697174	-0.01581659	0.2204541	-0.9478454	0.05485743	0.01463133	-0.01513942	-0.004183673
	0.2204541	-0.9478454	-0.009029217	-0.02104595	-0.01513849	-0.00417934	0.0554873	0.0105774
	0.05485743	0.01463133	-0.01513849	-0.00417934	-0.009713809	-0.01580257	0.2198225	-0.9479762
	-0.01513942	-0.004183674	0.0554873	0.0105774	0.2198225	-0.9479762	-0.009040273	-0.02107956
3.1e+08	-0.01012284	-0.01517599	0.1781877	-0.9561299	0.05681237	0.01256386	-0.01589965	-0.003652162
	0.1781877	-0.9561299	-0.009663026	-0.02064791	-0.01589867	-0.003647236	0.05729178	0.008293432
	0.05681237	0.01256386	-0.01589867	-0.003647236	-0.01013505	-0.01515996	0.1775288	-0.956236
	-0.01589965	-0.003652162	0.05729178	0.008293432	0.1775288	-0.956236	-0.00967213	-0.0206799
3.2e+08	-0.01042769	-0.01450436	0.1356298	-0.962537	0.05865264	0.0103447	-0.01664896	-0.003056804
	0.1356298	-0.962537	-0.01019672	-0.0202024	-0.01664797	-0.00305127	0.05896361	0.00586686
	0.05865264	0.0103447	-0.01664797	-0.00305127	-0.01043514	-0.01448693	0.1349467	-0.9626166
	-0.01664896	-0.003056804	0.05896361	0.005866859	0.1349467	-0.9626166	-0.01020349	-0.02023304
3.3e+08	-0.01060778	-0.01381597	0.09286673	-0.9670583	0.06036843	0.007981045	-0.01738261	-0.002396675
	0.09286673	-0.9670583	-0.01062503	-0.01972123	-0.01738146	-0.002390487	0.06049357	0.003306798
	0.06036843	0.007981045	-0.01738146	-0.002390487	-0.01060998	-0.01379754	0.09215757	-0.9671094
	-0.01738261	-0.002396675	0.06049357	0.003306798	0.09215757	-0.9671094	-0.01062879	-0.0197506
3.4e+08	-0.01066032	-0.01312516	0.0499766	-0.9696878	0.06195053	0.005480622	-0.01809595	-0.001671262
	0.0499766	-0.9696878	-0.01094366	-0.01921639	-0.01809459	-0.001664374	0.06187339	0.0006228394
	0.06195053	0.005480622	-0.01809459	-0.001664375	-0.01065689	-0.01310642	0.0492447	-0.9697088
	-0.01809595	-0.001671262	0.06187339	0.0006228393	0.0492447	-0.9697088	-0.0109439	-0.0192449
3.5e+08	-0.01058433	-0.01244677	0.007043959	-0.9704237	0.06339	0.00285188	-0.01878388	-0.0008803456
	0.007043959	-0.9704237	-0.01114976	-0.0187005	-0.01878233	-0.0008727658	0.06309493	-0.002174925
	0.06339	0.00285188	-0.01878233	-0.0008727659	-0.01057486	-0.01242833	0.006289648	-0.970413
	-0.01878388	-0.0008803456	0.06309493	-0.002174925	0.006289648	-0.970413	-0.01114587	-0.01872848
3.6e+08	-0.01038035	-0.01179581	-0.03584777	-0.9692686	0.06467871	0.0001035238	-0.01944146	-2.417967e-05
	-0.03584777	-0.9692686	-0.01124154	-0.01818648	-0.01943956	-1.586856e-05	0.06415147	-0.005075975
	0.06467871	0.0001035238	-0.01943956	-1.586859e-05	-0.01036453	-0.0117785	-0.03662227	-0.9692232
	-0.01944146	-2.41797e-05	0.06415147	-0.005075975	-0.03662227	-0.9692232	-0.01123312	-0.0182145
3.7e+08	-0.01004997	-0.01118716	-0.07861876	-0.9662259	0.06580889	-0.002755202	-0.02006336	0.000896706
	-0.07861876	-0.9662259	-0.01121844	-0.01768733	-0.02006105	0.0009057648	0.0650366	-0.008069569
	0.06580889	-0.002755202	-0.02006105	0.0009057647	-0.01002754	-0.01117169	-0.07941267	-0.9661451
	-0.02006336	0.000896706	0.0650366	-0.008069569	-0.07941267	-0.9661451	-0.01120513	-0.01771586
3.8e+08	-0.009596917	-0.01063578	-0.1211841	-0.9613046	0.06677362	-0.005714601	-0.02064436	0.001881247
	-0.1211841	-0.9613046	-0.01108137	-0.01721642	-0.02064156	0.00189106	0.06574483	-0.01114445
	0.06677362	-0.005714601	-0.02064156	0.00189106	-0.009567727	-0.01062311	-0.1219949	-0.9611856
	-0.02064436	0.001881247	0.06574483	-0.01114445	-0.1219949	-0.9611856	-0.01106281	-0.01724608
3.9e+08	-0.009025775	-0.01015601	-0.1634655	-0.9545169	0.06756642	-0.008764549	-0.02117916	0.002928046
	-0.1634655	-0.9545169	-0.01083242	-0.01678674	-0.0211757	0.002938605	0.06627149	-0.01428934
	0.06756642	-0.008764549	-0.0211757	0.002938605	-0.008989744	-0.01014699	-0.1642924	-0.9543582
	-0.02117916	0.002928046	0.06627149	-0.01428934	-0.1642924	-0.9543582	-0.01080832	-0.01681806
4e+08	-0.008343249	-0.009762218	-0.2053803	-0.945878	0.0681815	-0.01189466	-0.02166253	0.004035189
	-0.2053803	-0.945878	-0.01047505	-0.01641143	-0.02165832	0.004046511	0.06661273	-0.01749282
	0.0681815	-0.01189466	-0.02165832	0.004046511	-0.008300319	-0.009757798	-0.2062212	-0.9456781
	-0.02166253	0.004035189	0.06661273	-0.01749282	-0.2062212	-0.9456781	-0.01044518	-0.01644504
4.1e+08	-0.007557276	-0.009467821	-0.2468485	-0.9354077	0.0686137	-0.01509402	-0.0220891	0.005200302
	-0.2468485	-0.9354077	-0.01001408	-0.01610314	-0.02208416	0.005212352	0.06676521	-0.02074303
	0.0686137	-0.01509402	-0.02208416	0.005212352	-0.007507528	-0.009468979	-0.2477006	-0.935165
	-0.0220891	0.005200302	0.06676521	-0.02074303	-0.2477006	-0.935165	-0.009978284	-0.01613971
4.2e+08	-0.006676726	-0.009285721	-0.2877911	-0.9231261	0.06885845	-0.01835187	-0.02245388	0.006420656
	-0.2877911	-0.9231261	-0.00945554	-0.01587435	-0.02244802	0.00643342	0.06672661	-0.02402827
	0.06885845	-0.01835187	-0.02244802	0.00643342	-0.006620441	-0.009293545	-0.2886532	-0.9228393
	-0.02245388	0.006420656	0.06672661	-0.02402827	-0.2886532	-0.9228393	-0.009413552	-0.01591454
4.3e+08	-0.005712414	-0.00922795	-0.3281301	-0.9090597	0.06891213	-0.02165692	-0.02275184	0.007693014
	-0.3281301	-0.9090597	-0.008806452	-0.01573689	-0.02274487	0.007706441	0.06649516	-0.02733677
	0.06891213	-0.02165692	-0.02274487	0.007706441	-0.005649828	-0.0092434	-0.328999	-0.9087285
	-0.02275184	0.007693014	0.06649516	-0.02733677	-0.328999	-0.9087285	-0.008758369	-0.01578128
4.4e+08	-0.0046761	-0.009305592	-0.3677885	-0.8932381	0.06877156	-0.02499773	-0.022978	0.009013703
	-0.3677885	-0.8932381	-0.008075403	-0.01570186	-0.02297004	0.009027768	0.06607014	-0.03065701
	0.06877156	-0.02499773	-0.02297004	0.009027768	-0.004607661	-0.00932974	-0.3686618	-0.8928595
	-0.022978	0.009013703	0.06607014	-0.03065701	-0.3686618	-0.8928595	-0.008021095	-0.01575133
4.5e+08	-0.003580836	-0.009528851	-0.4066899	-0.8756933	0.0684342	-0.02836288	-0.0231278	0.01037864
	-0.4066899	-0.8756933	-0.00727198	-0.01578014	-0.02311866	0.01039328	0.06545129	-0.03397713
	0.0684342	-0.02836288	-0.02311866	0.01039328	-0.003506927	-0.009562619	-0.4075652	-0.8752673
	-0.0231278	0.01037864	0.06545129	-0.03397713	-0.4075652	-0.8752673	-0.007211486	-0.01583526
4.6e+08	-0.002440384	-0.009906459	-0.4447606	-0.8564586	0.06789846	-0.03174047	-0.02319688	0.01178339
	-0.4447606	-0.8564586	-0.006406738	-0.01598106	-0.02318649	0.01179852	0.06463924	-0.03728585
	0.06789846	-0.03174047	-0.02318649	0.01179852	-0.002361746	-0.009951042	-0.4456354	-0.8559833
	-0.02319688	0.01178339	0.06463924	-0.03728585	-0.4456354	-0.8559833	-0.006340022	-0.01604284
4.7e+08	-0.001269962	-0.01044611	-0.4819271	-0.8355735	0.06716324	-0.03511904	-0.02318116	0.01322297
	-0.4819271	-0.8355735	-0.005491349	-0.01631383	-0.02316932	0.01323852	0.06363507	-0.04057151
	0.06716324	-0.03511904	-0.02316932	0.01323852	-0.00118715	-0.01050231	-0.4828001	-0.8350496
	-0.02318116	0.01322297	0.06363507	-0.04057151	-0.4828001	-0.8350496	-0.005418706	-0.01638275
4.8e+08	-8.549432e-05	-0.01115397	-0.5181177	-0.8130805	0.06622823	-0.03848672	-0.02307671	0.01469211
	-0.5181177	-0.8130805	-0.004538614	-0.0167858	-0.02306336	0.01470797	0.06244082	-0.04382312
	0.06622823	-0.03848672	-0.02306336	0.01470797	4.712103e-07	-0.011223	-0.5189847	-0.8125059
	-0.02307671	0.01469211	0.06244082	-0.04382312	-0.5189847	-0.8125059	-0.004460064	-0.01686295
4.9e+08	0.001096773	-0.0120348	-0.5532652	-0.7890247	0.06509392	-0.04183183	-0.02288038	0.01618528
	-0.5532652	-0.7890247	-0.003561648	-0.01740381	-0.02286544	0.01620138	0.06105905	-0.04702969
	0.06509392	-0.04183183	-0.02286544	0.01620138	0.001185032	-0.01211743	-0.5541236	-0.7883988
	-0.02288038	0.01618528	0.06105905	-0.04702969	-0.5541236	-0.7883988	-0.003477514	-0.01748986
5e+08	0.002259441	-0.01309213	-0.5872988	-0.7634516	0.06376112	-0.04514279	-0.02258896	0.01769654
	-0.5872988	-0.7634516	-0.002574971	-0.01817359	-0.02257238	0.01771273	0.05949279	-0.05018081
	0.06376112	-0.04514279	-0.02257238	0.01771273	0.002348952	-0.01318913	-0.5881469	-0.7627747
	-0.02258896	0.01769654	0.05949279	-0.05018081	-0.5881469	-0.7627747	-0.002485525	-0.01826924
5.1e+08	0.003385031	-0.01432741	-0.6201563	-0.7364125	0.06223168	-0.04840805	-0.02219981	0.01921965
	-0.6201563	-0.7364125	-0.001592933	-0.0190989	-0.02218153	0.01923585	0.05774575	-0.05326591
	0.06223168	-0.04840805	-0.02218153	0.01923585	0.00347461	-0.0144397	-0.6209902	-0.7356837
