!$
! Info: Touchstone file created by Circ.  Input file=C2M_PCB_93ohms_2p5in_20230620_v3.circ
!$
# Hz S RI R 50
0	0.005059946	2.154371e-24	0.9949096	-1.896188e-24	0.0001362551	6.651655e-23	-0.0001325427	1.628605e-20
	0.9949096	-1.751151e-24	0.00487884	6.424794e-25	-0.0001298723	1.595907e-20	-8.506666e-06	8.247153e-21
	0.0001362552	6.655096e-23	-0.0001298723	1.595886e-20	0.00506331	2.671509e-24	0.9949229	-1.871934e-24
	-0.0001325427	1.628608e-20	-8.506688e-06	8.247228e-21	0.9949229	-1.888714e-24	0.00489219	1.143976e-24
1e+07	0.007138776	0.000827577	0.9910614	-0.05723192	0.0003350536	0.002429589	-0.0002183027	-0.0005690259
	0.9910614	-0.05723192	0.007007835	0.0009040137	-0.0002162979	-0.0005696478	0.0002242394	0.002488841
	0.0003350536	0.002429589	-0.0002162979	-0.0005696478	0.007272291	0.0008222326	0.9909406	-0.05726449
	-0.0002183027	-0.0005690259	0.0002242394	0.002488841	0.9909406	-0.05726449	0.007141075	0.0008977417
2e+07	0.008718574	9.851552e-06	0.9845603	-0.1124674	0.0007855868	0.004789407	-0.0003149487	-0.001104934
	0.9845603	-0.1124674	0.00862202	9.479803e-05	-0.000313619	-0.001105335	0.0006606651	0.004864683
	0.0007856275	0.004789319	-0.0003135937	-0.001105382	0.008823186	-4.632719e-05	0.9844551	-0.1124772
	-0.0003149211	-0.001104977	0.0006606851	0.004864681	0.9844551	-0.1124772	0.00872538	3.759352e-05
3e+07	0.009751581	-0.001496336	0.9754539	-0.1665796	0.001531234	0.007025342	-0.0004855139	-0.001573335
	0.9754539	-0.1665796	0.00964136	-0.001424608	-0.0004844811	-0.001573438	0.001333441	0.007110155
	0.001531224	0.007025332	-0.0004844893	-0.001573435	0.009832328	-0.001572041	0.97536	-0.1665932
	-0.0004855233	-0.001573332	0.001333432	0.007110172	0.97536	-0.1665932	0.009720506	-0.001500841
4e+07	0.01039866	-0.003259461	0.9636186	-0.2198265	0.002543414	0.009151822	-0.0007083167	-0.002010228
	0.9636186	-0.2198265	0.01023423	-0.003195158	-0.0007074126	-0.00200996	0.002221601	0.009264859
	0.002543414	0.009151825	-0.0007074144	-0.002009957	0.01045825	-0.003346226	0.9635328	-0.2198508
	-0.0007083181	-0.002010226	0.002221597	0.00926486	0.9635328	-0.2198508	0.01029172	-0.003282022
5e+07	0.01073115	-0.005155017	0.9490303	-0.2721594	0.00379349	0.01115516	-0.0009636262	-0.002424898
	0.9490303	-0.2721594	0.01048223	-0.005082113	-0.0009627036	-0.002424247	0.003305972	0.0113257
	0.00379349	0.01115517	-0.0009627054	-0.002424247	0.01077117	-0.005247901	0.9489496	-0.2721983
	-0.0009636281	-0.002424898	0.003305969	0.0113257	0.9489496	-0.2721983	0.01052023	-0.00517457
6e+07	0.01078582	-0.007115757	0.9317112	-0.3234746	0.005271656	0.01301388	-0.001253444	-0.002818056
	0.9317112	-0.3234746	0.01042724	-0.007014226	-0.00125242	-0.002817074	0.004583661	0.0132776
	0.005271654	0.01301388	-0.001252418	-0.002817073	0.01080815	-0.007210942	0.9316325	-0.3235309
	-0.001253442	-0.002818056	0.004583665	0.0132776	0.9316325	-0.3235309	0.0104472	-0.00710883
7e+07	0.01058599	-0.009093789	0.9117031	-0.3736511	0.006964204	0.01470638	-0.001578366	-0.00318901
	0.9117031	-0.3736511	0.01009626	-0.008940334	-0.001577207	-0.003187756	0.006046649	0.01510431
	0.006964204	0.01470638	-0.001577204	-0.003187758	0.01059215	-0.009188383	0.9116226	-0.3737266
	-0.001578364	-0.003189012	0.006046652	0.0151043	0.9116226	-0.3737266	0.0100999	-0.009033977
8e+07	0.01015102	-0.01104997	0.8890639	-0.4225634	0.008854694	0.01621218	-0.001938478	-0.003536549
	0.8890639	-0.4225634	0.009511335	-0.01081822	-0.001937154	-0.003535042	0.007683936	0.01679034
	0.008854694	0.01621218	-0.001937157	-0.00353504	0.01014258	-0.01114147	0.8889779	-0.4226595
	-0.001938479	-0.003536547	0.007683934	0.01679034	0.8889779	-0.4226595	0.009500392	-0.01090807
9e+07	0.009500417	-0.0129502	0.8638591	-0.4700855	0.01092468	0.01751251	-0.002333711	-0.003859051
	0.8638591	-0.4700855	0.008694062	-0.01261003	-0.002332197	-0.003857327	0.009482574	0.01832146
	0.01092468	0.01751251	-0.002332201	-0.003857318	0.00947938	-0.01303594	0.8637646	-0.4702035
	-0.002333713	-0.003859042	0.009482573	0.01832147	0.8637646	-0.4702035	0.008670484	-0.01269348
1e+08	0.008659741	-0.01475735	0.8361601	-0.516102	0.01315383	0.01858954	-0.002763967	-0.004154054
	0.8361601	-0.516102	0.007672459	-0.0142742	-0.002762243	-0.004152178	0.0114282	0.01968425
	0.01315383	0.01858954	-0.002762242	-0.004152179	0.008629613	-0.01483307	0.8360509	-0.5162443
	-0.002763966	-0.004154055	0.0114282	0.01968425	0.8360509	-0.5162443	0.00763921	-0.01434725
1.1e+08	0.007672853	-0.01647952	0.8060231	-0.5604395	0.01551724	0.01942966	-0.003227347	-0.004419099
	0.8060231	-0.5604395	0.006510071	-0.01585119	-0.003224188	-0.004418298	0.01350274	0.0208686
	0.01551724	0.01942966	-0.003224187	-0.004418299	0.007638515	-0.0165385	0.8058914	-0.5605979
	-0.003227346	-0.0044191	0.01350274	0.02086859	0.8058914	-0.5605979	0.006539515	-0.01591142
1.2e+08	0.006511046	-0.01810505	0.7735976	-0.6029868	0.01799431	0.02002082	-0.003723281	-0.004655879
	0.7735976	-0.6029868	0.005144619	-0.01726637	-0.003720356	-0.004655808	0.01569242	0.02186621
	0.01799431	0.02002083	-0.003720356	-0.00465581	0.006477601	-0.01815768	0.7734431	-0.6031592
	-0.003723281	-0.004655881	0.01569242	0.0218662	0.7734431	-0.6031592	0.005183283	-0.01734999
1.3e+08	0.005198221	-0.01960054	0.7389791	-0.6436418	0.02056069	0.02035171	-0.004253222	-0.004861188
	0.7389791	-0.6436418	0.003627119	-0.0184914	-0.004250905	-0.004861096	0.01798031	0.02266824
	0.02056069	0.02035171	-0.004250905	-0.004861097	0.005165494	-0.01965214	0.7387981	-0.6438242
	-0.004253222	-0.004861189	0.01798031	0.02266824	0.7387981	-0.6438242	0.003647365	-0.01859091
1.4e+08	0.003758102	-0.02094583	0.7022703	-0.6822963	0.02319157	0.02041411	-0.004817309	-0.005031373
	0.7022703	-0.6822963	0.00199317	-0.01951322	-0.004815403	-0.005030809	0.02034905	0.02326843
	0.02319157	0.02041411	-0.004815403	-0.00503081	0.003724195	-0.02099862	0.702063	-0.6824867
	-0.004817309	-0.005031374	0.02034905	0.02326843	0.702063	-0.6824867	0.001988266	-0.01961488
1.5e+08	0.002215354	-0.02212725	0.6635859	-0.71885	0.02586131	0.02020188	-0.005414868	-0.005162667
	0.6635859	-0.71885	0.0002733164	-0.02032212	-0.005413059	-0.005161493	0.02278075	0.02366176
	0.02586131	0.02020188	-0.005413059	-0.005161493	0.002178581	-0.02218131	0.6633505	-0.7190448
	-0.005414868	-0.005162668	0.02278075	0.02366176	0.6633505	-0.7190448	0.0002460883	-0.0204162
1.6e+08	0.0005955723	-0.0231355	0.6230417	-0.7532055	0.02854394	0.01971118	-0.006044734	-0.00525126
	0.6230417	-0.7532055	-0.001503379	-0.02091043	-0.006042793	-0.005249521	0.02525755	0.02384517
	0.02854394	0.01971118	-0.006042793	-0.005249521	0.0005548698	-0.02319006	0.6227776	-0.7534018
	-0.006044734	-0.005251261	0.02525755	0.02384517	0.6227776	-0.7534018	-0.001547103	-0.02099188
1.7e+08	-0.00107625	-0.0239658	0.5807607	-0.7852708	0.03121311	0.01894052	-0.006705206	-0.005293238
	0.5807607	-0.7852708	-0.00330798	-0.02127308	-0.00670296	-0.005291052	0.02776149	0.02381713
	0.03121311	0.01894052	-0.006702961	-0.005291052	-0.001121146	-0.02401973	0.5804676	-0.7854659
	-0.006705206	-0.005293238	0.02776149	0.02381713	0.5804676	-0.7854659	-0.003362396	-0.02134034
1.8e+08	-0.002774958	-0.0246165	0.53687	-0.8149625	0.03384271	0.0178908	-0.007394287	-0.005284648
	0.53687	-0.8149625	-0.005111145	-0.02140779	-0.007391682	-0.005282145	0.03027493	0.02357771
	0.03384271	0.01789081	-0.007391682	-0.005282145	-0.002823946	-0.02466891	0.5365481	-0.8151544
	-0.007394287	-0.005284648	0.03027493	0.02357771	0.5365481	-0.8151544	-0.005171512	-0.02146125
1.9e+08	-0.004476896	-0.0250898	0.4915013	-0.8422033	0.03640694	0.01656535	-0.008109426	-0.005221449
	0.4915013	-0.8422033	-0.006883537	-0.02131574	-0.00810645	-0.005218748	0.03278069	0.02312876
	0.03640694	0.01656535	-0.00810645	-0.005218748	-0.004529195	-0.02513981	0.4911492	-0.842388
	-0.008109426	-0.005221449	0.03278069	0.02312876	0.4911492	-0.842388	-0.006946301	-0.02135673
2e+08	-0.006158834	-0.02539044	0.4447873	-0.8669226	0.03887998	0.01496947	-0.008847608	-0.005099568
	0.4447873	-0.8669226	-0.008596	-0.02100145	-0.008844299	-0.005096753	0.0352618	0.02247316
	0.03887998	0.01496947	-0.008844299	-0.005096753	-0.006213735	-0.02543767	0.4444065	-0.8670979
	-0.008847608	-0.005099568	0.0352618	0.02247316	0.4444065	-0.8670979	-0.008658917	-0.02103181
2.1e+08	-0.007798869	-0.02552627	0.3968692	-0.8890561	0.04123696	0.01311094	-0.009605212	-0.004914977
	0.3968692	-0.8890561	-0.0102199	-0.0204731	-0.009601601	-0.004912101	0.03770205	0.02161549
	0.04123696	0.01311094	-0.009601601	-0.004912101	-0.007855597	-0.02557055	0.3964586	-0.889219
	-0.009605212	-0.004914977	0.03770205	0.02161549	0.3964586	-0.889219	-0.01028149	-0.0204943
2.2e+08	-0.009376926	-0.02550776	0.3478864	-0.9085487	0.04345379	0.01099957	-0.01037814	-0.004663803
	0.3478864	-0.9085487	-0.01172801	-0.01974225	-0.01037427	-0.004660871	0.04008631	0.02056177
	0.04345379	0.01099957	-0.01037427	-0.004660871	-0.00943471	-0.02554909	0.3474469	-0.9086975
	-0.01037814	-0.004663803	0.04008631	0.02056177	0.3474469	-0.9086975	-0.01178766	-0.01975576
2.3e+08	-0.01087463	-0.02534761	0.2979819	-0.9253532	0.04550693	0.008647219	-0.01116153	-0.004342309
	0.2979819	-0.9253532	-0.01309485	-0.01882383	-0.01115743	-0.004339318	0.04239933	0.01931847
	0.04550693	0.008647219	-0.01115743	-0.004339318	-0.01093273	-0.02538626	0.2975148	-0.9254849
	-0.01116153	-0.004342309	0.04239933	0.01931847	0.2975148	-0.9254849	-0.01315204	-0.01883056
2.4e+08	-0.01227509	-0.02506093	0.2473031	-0.9394257	0.04737433	0.006067816	-0.01195006	-0.003947089
	0.2473031	-0.9394257	-0.01429629	-0.01773568	-0.01194574	-0.003944035	0.04462765	0.01789395
	0.04737433	0.006067816	-0.01194574	-0.003944035	-0.01233301	-0.02509718	0.2468078	-0.9395372
	-0.01195006	-0.003947089	0.04462765	0.01789395	0.2468078	-0.9395372	-0.01435068	-0.01773613
2.5e+08	-0.01356446	-0.02466454	0.1959952	-0.9507359	0.04903505	0.003277014	-0.01273774	-0.003475118
	0.1959952	-0.9507359	-0.01531093	-0.01649827	-0.01273321	-0.003471944	0.04675862	0.01629717
	0.04903505	0.003277014	-0.01273321	-0.003471945	-0.01362154	-0.02469879	0.1954727	-0.9508247
	-0.01273774	-0.003475118	0.04675862	0.01629717	0.1954727	-0.9508247	-0.01536234	-0.0164928
2.6e+08	-0.01473074	-0.02417708	0.1442081	-0.9592567	0.05046984	0.000292328	-0.01351826	-0.00292391
	0.1442081	-0.9592567	-0.01612	-0.01513496	-0.01351351	-0.002920629	0.04878042	0.01453797
	0.05046984	0.000292328	-0.01351351	-0.002920629	-0.01478666	-0.02420983	0.1436608	-0.959321
	-0.01351826	-0.00292391	0.04878042	0.01453797	0.1436608	-0.959321	-0.01616787	-0.01512359
2.7e+08	-0.01576449	-0.02361834	0.09209055	-0.9649717	0.05166049	-0.002867248	-0.01428455	-0.002291425
	0.09209055	-0.9649717	-0.0167071	-0.01367063	-0.01427945	-0.002288003	0.05068251	0.01262684
	0.05166049	-0.002867248	-0.01427945	-0.002288003	-0.01581884	-0.02365002	0.09151748	-0.9650085
	-0.01428455	-0.002291425	0.05068251	0.01262684	0.09151748	-0.9650085	-0.01675088	-0.01365332
2.8e+08	-0.01665945	-0.02300921	0.03979193	-0.9678698	0.05259095	-0.006181229	-0.01502925	-0.001576329
	0.03979193	-0.9678698	-0.01705903	-0.01213237	-0.01502386	-0.001572754	0.05245576	0.01057513
	0.05259095	-0.006181229	-0.01502386	-0.001572754	-0.01671182	-0.0230405	0.03919645	-0.9678764
	-0.01502925	-0.001576329	0.05245576	0.01057513	0.03919645	-0.9678764	-0.01709772	-0.01210915
2.9e+08	-0.01741184	-0.02237116	-0.01253675	-0.9679498	0.05324648	-0.009627673	-0.01574435	-0.0007779206
	-0.01253675	-0.9679498	-0.01716593	-0.01054858	-0.01573861	-0.0007742325	0.05409147	0.008394197
	0.05324648	-0.009627673	-0.01573861	-0.0007742325	-0.01746224	-0.02240259	-0.01315377	-0.967925
	-0.01574435	-0.0007779207	0.05409147	0.008394197	-0.01315377	-0.967925	-0.01719875	-0.01051961
3e+08	-0.01802086	-0.02172594	-0.06474685	-0.9652182	0.05361454	-0.01318363	-0.01642221	0.0001036025
	-0.06474685	-0.9652182	-0.01702102	-0.008948711	-0.01641601	0.0001074068	0.05558284	0.006096142
	0.05361454	-0.01318363	-0.01641601	0.0001074068	-0.01806891	-0.02175823	-0.0653838	-0.9651587
	-0.01642221	0.0001036025	0.05558284	0.006096142	-0.0653838	-0.9651587	-0.01704678	-0.008914284
3.1e+08	-0.01848859	-0.02109536	-0.1166889	-0.9596861	0.05368445	-0.01682507	-0.01705424	0.00106737
	-0.1166889	-0.9596861	-0.01662059	-0.007363022	-0.01704753	0.001071243	0.05692389	0.003693153
	0.05368445	-0.01682507	-0.01704753	0.001071243	-0.0185341	-0.0211293	-0.1173438	-0.9595889
	-0.01705424	0.00106737	0.05692389	0.003693153	-0.1173438	-0.9595889	-0.01663788	-0.007323581
3.2e+08	-0.01881975	-0.02050071	-0.1682168	-0.9513745	0.05344746	-0.02052712	-0.01763221	0.002111611
	-0.1682168	-0.9513745	-0.01596446	-0.005821982	-0.01762506	0.00211552	0.05810992	0.001197484
	0.05344746	-0.02052712	-0.01762506	0.00211552	-0.0188629	-0.02053712	-0.1688855	-0.9512385
	-0.01763221	0.002111611	0.05810992	0.001197483	-0.1688855	-0.9512385	-0.01597245	-0.005778432
3.3e+08	-0.01902228	-0.01996266	-0.2191802	-0.9403134	0.05289691	-0.02426419	-0.0181476	0.003233674
	-0.2191802	-0.9403134	-0.01505616	-0.00435643	-0.0181399	0.003237558	0.0591373	-0.001378596
	0.05289691	-0.02426419	-0.0181399	0.003237558	-0.01906304	-0.0200023	-0.2198632	-0.9401358
	-0.0181476	0.003233674	0.0591373	-0.001378596	-0.2198632	-0.9401358	-0.01505361	-0.004309507
3.4e+08	-0.01910628	-0.01950075	-0.2694383	-0.926537	0.05202835	-0.02801032	-0.01859226	0.00443005
	-0.2694383	-0.926537	-0.01390217	-0.002996521	-0.018584	0.00443388	0.06000367	-0.00402294
	0.05202835	-0.02801032	-0.018584	0.00443388	-0.01914495	-0.0195445	-0.2701313	-0.926317
	-0.01859226	0.00443005	0.06000367	-0.00402294	-0.2701313	-0.926317	-0.01388825	-0.002947397
3.5e+08	-0.01908482	-0.01913303	-0.3188465	-0.9100892	0.05083937	-0.03173885	-0.01895794	0.005696308
	-0.3188465	-0.9100892	-0.01251274	-0.001771914	-0.0189492	0.005700038	0.06070721	-0.006723597
	0.05083937	-0.03173885	-0.0189492	0.005700038	-0.01912164	-0.01918176	-0.3195477	-0.9098253
	-0.01895794	0.005696308	0.06070721	-0.006723597	-0.3195477	-0.9098253	-0.01248646	-0.00172172
3.6e+08	-0.01897331	-0.01887592	-0.3672637	-0.8910218	0.0493298	-0.03542331	-0.01923697	0.007027163
	-0.3672637	-0.8910218	-0.01090114	-0.0007111833	-0.01922767	0.007030736	0.06124769	-0.009468905
	0.0493298	-0.03542331	-0.01922767	0.007030736	-0.01900882	-0.01893057	-0.3679694	-0.8907117
	-0.01923697	0.007027163	0.06124769	-0.009468905	-0.3679694	-0.8907117	-0.01086189	-0.0006613814
3.7e+08	-0.0187889	-0.01874401	-0.4145542	-0.8693904	0.0475015	-0.03903704	-0.01942176	0.008416516
	-0.4145542	-0.8693904	-0.00908363	0.0001585169	-0.0194119	0.008419885	0.06162536	-0.01224769
	0.0475015	-0.03903704	-0.0194119	0.008419885	-0.01882363	-0.01880538	-0.4152625	-0.8690335
	-0.01942176	0.008416516	0.06162536	-0.01224769	-0.4152625	-0.8690335	-0.009030877	0.0002065916
3.8e+08	-0.01855125	-0.01874948	-0.4605809	-0.8452612	0.0453587	-0.04255366	-0.01950543	0.009857393
	-0.4605809	-0.8452612	-0.007079843	0.0008115541	-0.01949502	0.009860516	0.06184152	-0.01504904
	0.0453587	-0.04255366	-0.01949502	0.009860516	-0.01858602	-0.01881845	-0.4612876	-0.8448558
	-0.01950543	0.009857393	0.06184152	-0.01504904	-0.4612876	-0.8448558	-0.007013202	0.0008562918
3.9e+08	-0.01828095	-0.01890221	-0.5052158	-0.8187053	0.04290769	-0.04594701	-0.01948153	0.01134214
	-0.5052158	-0.8187053	-0.004911877	0.001224629	-0.0194705	0.01134493	0.0618982	-0.01786278
	0.04290769	-0.04594701	-0.0194705	0.01134493	-0.01831661	-0.01897949	-0.5059187	-0.8182502
	-0.01948153	0.01134214	0.0618982	-0.01786278	-0.5059187	-0.8182502	-0.004831062	0.001264538
4e+08	-0.01800075	-0.01920933	-0.5483299	-0.7898018	0.04015686	-0.04919151	-0.01934439	0.01286235
	-0.5483299	-0.7898018	-0.002604655	0.001376454	-0.01933277	0.01286478	0.06179824	-0.02067935
	0.04015686	-0.04919151	-0.01933277	0.01286478	-0.01803828	-0.01929567	-0.5490257	-0.7892963
	-0.01934439	0.01286235	0.06179824	-0.02067935	-0.5490257	-0.7892963	-0.002509591	0.001409932
4.1e+08	-0.01773401	-0.01967503	-0.5898009	-0.7586368	0.0371168	-0.0522621	-0.01908892	0.01440888
	-0.5898009	-0.7586368	-0.0001854551	0.001248594	-0.01907681	0.01441093	0.06154479	-0.02348953
	0.0371168	-0.0522621	-0.01907681	0.01441093	-0.01777455	-0.01977103	-0.5904852	-0.7580807
	-0.01908892	0.01440888	0.06154479	-0.02348953	-0.5904852	-0.7580807	-7.629974e-05	0.001273996
4.2e+08	-0.01750463	-0.02030097	-0.6295096	-0.7253	0.03379975	-0.0551348	-0.01871101	0.01597223
	-0.6295096	-0.7253	0.002316396	0.0008251141	-0.01869836	0.01597384	0.06114176	-0.02628496
	0.03379975	-0.0551348	-0.01869836	0.01597384	-0.01754956	-0.02040712	-0.6301799	-0.7246928
	-0.01871101	0.01597223	0.06114176	-0.02628496	-0.6301799	-0.7246928	0.002439575	0.0008408104
4.3e+08	-0.01733727	-0.02108536	-0.6673428	-0.6898903	0.03022035	-0.05778662	-0.01820732	0.01754229
	-0.6673428	-0.6898903	0.004870053	9.338367e-05	-0.01819408	0.01754337	0.06059329	-0.02905795
	0.03022035	-0.05778662	-0.01819408	0.01754337	-0.01738789	-0.021202	-0.6679952	-0.6892331
	-0.01820732	0.01754229	0.06059329	-0.02905795	-0.6679952	-0.6892331	0.005006656	9.790157e-05
4.4e+08	-0.01725641	-0.02202351	-0.7031927	-0.6525123	0.02639485	-0.06019557	-0.01757529	0.01910851
	-0.7031927	-0.6525123	0.007442855	-0.0009558764	-0.01756167	0.01910913	0.05990413	-0.0318017
	0.02639485	-0.06019557	-0.01756167	0.01910913	-0.01731426	-0.02215086	-0.7038227	-0.6518037
	-0.01757529	0.01910851	0.05990413	-0.0318017	-0.7038227	-0.6518037	0.007592379	-0.0009643987
4.5e+08	-0.01728641	-0.02310764	-0.7369559	-0.6132761	0.02234113	-0.062341	-0.01681351	0.02066014
	-0.7369559	-0.6132761	0.0100011	-0.002329104	-0.01679946	0.02066022	0.05907901	-0.03450975
	0.02234113	-0.062341	-0.01679946	0.02066022	-0.0173529	-0.02324578	-0.7375603	-0.6125174
	-0.01681351	0.02066014	0.05907901	-0.03450975	-0.7375603	-0.6125174	0.01016283	-0.002352047
4.6e+08	-0.01745049	-0.02432702	-0.7685351	-0.5722949	0.01807918	-0.0642037	-0.01592148	0.02218625
	-0.7685351	-0.5722949	0.01251045	-0.004028587	-0.01590705	0.02218577	0.05812304	-0.03717675
	0.01807918	-0.0642037	-0.01590705	0.02218577	-0.01752746	-0.02447585	-0.7691097	-0.571486
	-0.01592148	0.02218625	0.05812304	-0.03717675	-0.7691097	-0.571486	0.01268357	-0.004067793
4.7e+08	-0.01777128	-0.02566765	-0.7978393	-0.5296903	0.01363003	-0.06576617	-0.01489973	0.02367567
	-0.7978393	-0.5296903	0.01493604	-0.00605371	-0.01488486	0.02367457	0.05704108	-0.03979755
	0.01363003	-0.06576617	-0.01488486	0.02367457	-0.01786017	-0.0258269	-0.7983824	-0.5288331
	-0.01489973	0.02367567	0.05704108	-0.03979755	-0.7983824	-0.5288331	0.01511943	-0.006110339
4.8e+08	-0.01826979	-0.02711266	-0.8247843	-0.4855892	0.009016429	-0.06701245	-0.01374963	0.02511725
	-0.8247843	-0.4855892	0.01724278	-0.008399384	-0.01373439	0.0251155	0.05583832	-0.0423681
	0.009016429	-0.06701245	-0.01373439	0.0251155	-0.01837262	-0.02728185	-0.8252903	-0.484684
	-0.01374963	0.02511725	0.05583832	-0.0423681	-0.8252903	-0.484684	0.01743532	-0.008475181
4.9e+08	-0.01896507	-0.02864278	-0.8492948	-0.4401208	0.004262347	-0.06792857	-0.01247388	0.02650016
	-0.8492948	-0.4401208	0.01939655	-0.01105759	-0.0124583	0.02649778	0.0545197	-0.04488472
	0.004262347	-0.06792857	-0.0124583	0.02649778	-0.01908339	-0.02882119	-0.84976	-0.4391691
	-0.01247388	0.02650016	0.0545197	-0.04488472	-0.84976	-0.4391691	0.01959683	-0.01115375
5e+08	-0.01987465	-0.0302359	-0.8712966	-0.3934193	-0.0006073782	-0.06850218	-0.01107581	0.02781351
	-0.8712966	-0.3934193	0.02136301	-0.01401674	-0.01105995	0.02781047	0.05308991	-0.04734467
	-0.0006073782	-0.06850218	-0.01105995	0.02781047	-0.02001009	-0.03042257	-0.8717188	-0.3924229
	-0.01107581	0.02781351	0.05308991	-0.04734467	-0.8717188	-0.3924229	0.02156966	-0.0141344
5.1e+08	-0.02101303	-0.03186759	-0.8907301	-0.345622	-0.005566708	-0.06872319	-0.009559856	0.02904673
	-0.8907301	-0.345622	0.02311005	-0.01726108	-0.00954373	0.02904306	0.05155345	-0.04974523
	-0.005566708	-0.06872319	-0.00954373	0.02904306	-0.02116738	-0.03206146	-0.8911043	-0.3445828
	-0.009559856	0.02904673	0.05155345	-0.04974523	-0.8911043	-0.3445828	0.02332138	-0.01740155
