!$
! Info: Touchstone file created by Circ.  Input file=C2M_PCB_93ohms_10p5in_20230620_v3.circ
!$
# Hz S RI R 50
0	0.01226794	4.313392e-24	0.9877018	-4.197059e-24	0.0001771091	1.064669e-22	-0.0001734237	2.141502e-20
	0.9877018	-4.053014e-24	0.01208639	3.044334e-24	-0.0001707715	2.10901e-20	3.241944e-05	8.446811e-21
	0.0001771091	1.065007e-22	-0.0001707715	2.108989e-20	0.01227126	4.73776e-24	0.9877151	-3.993533e-24
	-0.0001734236	2.141504e-20	3.241942e-05	8.446884e-21	0.9877151	-4.01022e-24	0.01209994	3.341999e-24
1e+07	0.01743938	-0.0009905801	0.9723357	-0.1382469	0.0009146269	0.003658673	-0.0003396712	-0.0005106274
	0.9723357	-0.1382469	0.01715869	-0.0009019265	-0.0003378429	-0.0005116075	0.0005852029	0.003788449
	0.0009146269	0.003658673	-0.0003378429	-0.0005116075	0.0177835	-0.001043174	0.971998	-0.1382485
	-0.0003396712	-0.0005106274	0.0005852029	0.003788449	0.971998	-0.1382485	0.01750159	-0.0009580533
2e+07	0.02031096	-0.006529531	0.9401001	-0.2686955	0.002671899	0.006908483	-0.0004568092	-0.001013628
	0.9401001	-0.2686955	0.01963408	-0.006302111	-0.0004560291	-0.001014345	0.001739795	0.007333987
	0.002671909	0.006908389	-0.0004560122	-0.001014396	0.0205454	-0.006738574	0.9398449	-0.2685804
	-0.0004567896	-0.001013676	0.001739815	0.007333984	0.9398449	-0.2685804	0.01986071	-0.006514178
3e+07	0.02049298	-0.01364915	0.8920075	-0.3918557	0.005452347	0.009304582	-0.0007250985	-0.001370089
	0.8920075	-0.3918557	0.01914487	-0.013065	-0.0007248624	-0.001370196	0.003592147	0.0103622
	0.005452333	0.009304578	-0.0007248698	-0.001370191	0.02063163	-0.01391555	0.8918155	-0.3917123
	-0.000725107	-0.001370084	0.003592139	0.01036222	0.8918155	-0.3917123	0.01926911	-0.01333036
4e+07	0.01845802	-0.02085152	0.828636	-0.5066717	0.00893822	0.01068129	-0.00109038	-0.001661029
	0.828636	-0.5066717	0.01625913	-0.01957124	-0.001090259	-0.001660275	0.00596197	0.01284152
	0.008938222	0.01068129	-0.00109026	-0.001660272	0.01850919	-0.02114113	0.8284947	-0.5065253
	-0.00109038	-0.001661026	0.005961966	0.01284152	0.8284947	-0.5065253	0.01628924	-0.01985268
5e+07	0.0145386	-0.02745866	0.7510814	-0.6114467	0.01276526	0.01091055	-0.001515753	-0.001920992
	0.7510814	-0.6114467	0.01143861	-0.02506309	-0.001515268	-0.001919338	0.008656693	0.01472711
	0.01276526	0.01091055	-0.00151527	-0.001919337	0.01451105	-0.02774849	0.7509786	-0.6113118
	-0.001515754	-0.001920991	0.00865669	0.01472711	0.7509786	-0.6113118	0.01138489	-0.02533469
6e+07	0.009083464	-0.03300145	0.6607614	-0.7045269	0.01659423	0.009927592	-0.002026965	-0.002140971
	0.6607614	-0.7045269	0.005177914	-0.02903724	-0.002025699	-0.002138584	0.01152584	0.01598244
	0.01659423	0.009927594	-0.002025697	-0.002138585	0.008987948	-0.03327449	0.6606853	-0.7044125
	-0.002026964	-0.002140972	0.01152585	0.01598243	0.6606853	-0.7044125	0.005052569	-0.02927943
7e+07	0.00248315	-0.03714661	0.5593359	-0.7844263	0.02007566	0.007762426	-0.002642615	-0.002294337
	0.5593359	-0.7844263	-0.00198071	-0.03117102	-0.002640254	-0.002291531	0.01441274	0.01661045
	0.02007567	0.007762427	-0.002640252	-0.002291534	0.00233144	-0.03739012	0.559274	-0.7843369
	-0.002642615	-0.00229434	0.01441275	0.01661045	0.559274	-0.7843369	-0.002162898	-0.03136866
8e+07	-0.004837034	-0.03968326	0.4486579	-0.8498847	0.02287778	0.004540197	-0.003368625	-0.00234162
	0.4486579	-0.8498847	-0.009466575	-0.03130791	-0.003364949	-0.002338802	0.0171685	0.01665458
	0.02287779	0.004540197	-0.003364949	-0.0023388	-0.005032096	-0.03988816	0.448598	-0.8498217
	-0.003368625	-0.002341618	0.0171685	0.01665458	0.448598	-0.8498217	-0.009688972	-0.03145027
9e+07	-0.01243628	-0.04051862	0.3307235	-0.8998951	0.02471215	0.0004730373	-0.004193643	-0.002236485
	0.3307235	-0.8998951	-0.01671006	-0.02944965	-0.004188609	-0.00223416	0.01966341	0.0161944
	0.02471215	0.0004730378	-0.004188606	-0.002234151	-0.01266065	-0.04067917	0.3306531	-0.8998584
	-0.004193638	-0.002236477	0.01966341	0.01619441	0.3306531	-0.8998584	-0.01695459	-0.02953054
1e+08	-0.01986667	-0.03966716	0.2076078	-0.9337297	0.02535368	-0.004155355	-0.005085521	-0.001932327
	0.2076078	-0.9337297	-0.02315986	-0.02574332	-0.005079351	-0.001931027	0.02179517	0.01533754
	0.02535368	-0.004155355	-0.005079351	-0.001931028	-0.0201025	-0.03978004	0.2075078	-0.9337157
	-0.005085522	-0.001932328	0.02179517	0.01533753	0.2075078	-0.9337157	-0.0234044	-0.02576031
1.1e+08	-0.0267539	-0.03735405	0.08152939	-0.9507806	0.02465768	-0.008996087	-0.005993653	-0.001400634
	0.08152939	-0.9507806	-0.02837941	-0.02060138	-0.005986689	-0.001402099	0.02349416	0.01421809
	0.02465768	-0.008996087	-0.005986689	-0.0014021	-0.02697825	-0.03743613	0.08139326	-0.9507577
	-0.005993654	-0.001400635	0.02349416	0.01421808	0.08139326	-0.9507577	-0.02854491	-0.02056828
1.2e+08	-0.03285321	-0.03369317	-0.04519964	-0.9510184	0.02258853	-0.0136833	-0.006865595	-0.0006184498
	-0.04519964	-0.9510184	-0.03211204	-0.01425477	-0.006858973	-0.0006215772	0.02473814	0.01297357
	0.02258853	-0.0136833	-0.006858974	-0.0006215783	-0.03307747	-0.03375436	-0.04536312	-0.9509777
	-0.006865596	-0.000618451	0.02473814	0.01297357	-0.04536312	-0.9509777	-0.03224958	-0.01420908
1.3e+08	-0.03786145	-0.02893356	-0.1704248	-0.934591	0.01919795	-0.01784643	-0.007629712	0.0004206158
	-0.1704248	-0.934591	-0.03406018	-0.007148159	-0.007623457	0.0004163691	0.0255354	0.0117399
	0.01919795	-0.01784643	-0.007623458	0.0004163682	-0.0380893	-0.02897362	-0.1706096	-0.9345227
	-0.007629713	0.0004206149	0.0255354	0.0117399	-0.1706096	-0.9345227	-0.03419124	-0.007085479
1.4e+08	-0.04157745	-0.02338917	-0.2920128	-0.9019047	0.01463557	-0.02113488	-0.008212214	0.001698502
	-0.2920128	-0.9019047	-0.03408899	0.0002192765	-0.008206281	0.001693132	0.02593063	0.01064433
	0.01463557	-0.02113488	-0.008206282	0.001693131	-0.0418077	-0.02340584	-0.2922124	-0.9018048
	-0.008212215	0.001698501	0.02593063	0.01064433	-0.2922124	-0.9018048	-0.03421439	0.0003079236
1.5e+08	-0.04389335	-0.01740305	-0.4079069	-0.8536343	0.009139878	-0.02324247	-0.00854523	0.003173661
	-0.4079069	-0.8536343	-0.03220711	0.007340434	-0.008539817	0.003166999	0.02599972	0.009795162
	0.009139879	-0.02324247	-0.008539818	0.003166999	-0.04412205	-0.01739547	-0.4081138	-0.8534977
	-0.008545231	0.003173661	0.02599972	0.00979516	-0.4081138	-0.8534977	-0.03231865	0.007458464
1.6e+08	-0.04479253	-0.01132247	-0.5161579	-0.7906995	0.003024965	-0.0239292	-0.00857462	0.004784459
	-0.5161579	-0.7906995	-0.02855563	0.01373623	-0.008570143	0.004776463	0.02584388	0.009275592
	0.003024965	-0.0239292	-0.008570143	0.004776463	-0.04501519	-0.01129167	-0.5163648	-0.7905234
	-0.00857462	0.004784459	0.02584388	0.00927559	-0.5163648	-0.7905234	-0.02864352	0.01388119
1.7e+08	-0.04434318	-0.005474981	-0.6149518	-0.7142562	-0.003337342	-0.02303883	-0.008265884	0.006454788
	-0.6149518	-0.7142562	-0.02339357	0.01898686	-0.008262822	0.006445594	0.02558206	0.009138008
	-0.003337342	-0.02303883	-0.008262822	0.006445594	-0.04455596	-0.005423598	-0.6151509	-0.7140396
	-0.008265885	0.006454788	0.02558206	0.009138006	-0.6151509	-0.7140396	-0.0234497	0.01915195
1.8e+08	-0.04268764	-0.0001501841	-0.7026397	-0.6256785	-0.009539792	-0.02051202	-0.007607859	0.008101627
	-0.7026397	-0.6256785	-0.01707623	0.02275916	-0.007606644	0.008091624	0.02534271	0.009400769
	-0.009539792	-0.02051202	-0.007606644	0.008091624	-0.04288781	-8.150347e-05	-0.7028244	-0.6254217
	-0.00760786	0.008101627	0.02534271	0.009400768	-0.7028244	-0.6254217	-0.01709543	0.02293528
1.9e+08	-0.04002698	0.004417125	-0.7777612	-0.5265376	-0.01516439	-0.01639359	-0.006613295	0.00964288
	-0.7777612	-0.5265376	-0.0100289	0.02482646	-0.006614219	0.009632622	0.02525496	0.01004727
	-0.01516439	-0.01639359	-0.006614219	0.009632622	-0.04021323	0.004499409	-0.7779227	-0.5262402
	-0.006613295	0.00964288	0.02525496	0.01004727	-0.7779227	-0.5262402	-0.01000906	0.02500337
2e+08	-0.03660422	0.008056503	-0.8390683	-0.4185759	-0.01980806	-0.0108334	-0.005316784	0.01100511
	-0.8390683	-0.4185759	-0.002715902	0.02508198	-0.005319912	0.01099526	0.02543921	0.01102613
	-0.01980806	-0.0108334	-0.005319912	0.01099526	-0.03677604	0.008149261	-0.8391994	-0.4182414
	-0.005316784	0.01100511	0.02543921	0.01102613	-0.8391994	-0.4182414	-0.002658341	0.02524971
2.1e+08	-0.03268472	0.01066868	-0.8855455	-0.3036888	-0.02310931	-0.004081792	-0.003770145	0.01212974
	-0.8855455	-0.3036888	0.00439138	0.02354374	-0.003775304	0.01212096	0.02599897	0.01225504
	-0.02310931	-0.004081792	-0.003775305	0.01212096	-0.03284221	0.01076918	-0.8856388	-0.3033193
	-0.003770145	0.01212974	0.02599897	0.01225504	-0.8856388	-0.3033193	0.004483018	0.02369349
2.2e+08	-0.02853632	0.01222556	-0.9164332	-0.1838846	-0.02477252	0.003522324	-0.002035973	0.01297734
	-0.9164332	-0.1838846	0.01084769	0.02035099	-0.002042741	0.01297021	0.02701329	0.01362588
	-0.02477252	0.003522324	-0.002042741	0.01297021	-0.0286799	0.01233163	-0.9164827	-0.1834851
	-0.002035973	0.01297734	0.02701329	0.01362588	-0.9164827	-0.1834851	0.01096731	0.02047551
2.3e+08	-0.02441125	0.01276544	-0.9312404	-0.06125746	-0.0245889	0.01156872	-0.0001802577	0.01352876
	-0.9312404	-0.06125746	0.01626377	0.01575214	-0.0001880363	0.01352368	0.02852927	0.01501104
	-0.0245889	0.01156872	-0.0001880364	0.01352368	-0.02454141	0.01287537	-0.9312396	-0.06083441
	-0.0001802577	0.01352876	0.02852927	0.01501104	-0.9312396	-0.06083441	0.01640401	0.01584645
2.4e+08	-0.02053045	0.01238409	-0.929753	0.06204705	-0.02245409	0.0195985	0.001734719	0.01378411
	-0.929753	0.06204705	0.02033297	0.01008574	0.001726626	0.01378125	0.03055977	0.0162736
	-0.02245409	0.0195985	0.001726626	0.01378125	-0.02064754	0.01249637	-0.9296958	0.06248797
	0.001734719	0.01378411	0.03055977	0.0162736	-0.9296958	0.06248797	0.02048573	0.01014705
2.5e+08	-0.01707034	0.0112207	-0.9120478	0.1838778	-0.01837844	0.02713076	0.003656365	0.01375866
	-0.9120478	0.1838778	0.02285129	0.003755097	0.003648719	0.01375794	0.03308027	0.01727604
	-0.01837844	0.02713076	0.003648719	0.01375794	-0.01717478	0.01133411	-0.9119295	0.1843287
	0.003656365	0.01375866	0.03308027	0.01727604	-0.9119295	0.1843287	0.02300808	0.0037829
2.6e+08	-0.01415617	0.009443172	-0.8784844	0.302109	-0.0124915	0.03369157	0.005545706	0.01347752
	-0.8784844	0.302109	0.02372916	-0.002801913	0.00553914	0.01347862	0.03603013	0.01789048
	-0.0124915	0.03369157	0.00553914	0.01347862	-0.01424803	0.009556412	-0.8783026	0.3025603
	0.005545706	0.01347752	0.03603013	0.01789048	-0.8783026	0.3025603	0.02388234	-0.002805672
2.7e+08	-0.01185904	0.007231093	-0.8297044	0.4146868	-0.005038045	0.03884302	0.007378666	0.01296846
	-0.8297044	0.4146868	0.02299695	-0.009143689	0.007373651	0.01297076	0.03931658	0.01800835
	-0.005038045	0.03884302	0.007373651	0.01297076	-0.01193854	0.007342817	-0.8294556	0.4151308
	0.007378666	0.01296846	0.03931658	0.01800835	-0.8294556	0.4151308	0.02313958	-0.009175448
2.8e+08	-0.01019802	0.004759533	-0.7666152	0.5196637	0.003631867	0.04221204	0.009144703	0.01225603
	-0.7666152	0.5196637	0.02079949	-0.01485724	0.009141572	0.01225892	0.04282123	0.01754857
	0.003631867	0.04221204	0.009141572	0.01225892	-0.01026522	0.004868428	-0.7662992	0.5200885
	0.009144703	0.01225603	0.04282123	0.01754857	-0.7662992	0.5200885	0.02092631	-0.01491159
2.9e+08	-0.009147543	0.002185762	-0.6903754	0.6152351	0.01308078	0.04351446	0.01084285	0.01135586
	-0.6903754	0.6152351	0.01738394	-0.01958654	0.0108416	0.0113586	0.04640741	0.01646302
	0.01308078	0.04351446	0.0108416	0.0113586	-0.009202631	0.002289952	-0.6899934	0.6156318
	0.01084285	0.01135586	0.04640741	0.01646302	-0.6899934	0.6156318	0.01749118	-0.01965719
3e+08	-0.008647431	-0.0003615859	-0.6023683	0.6997743	0.02280705	0.04257585	0.01247657	0.0102723
	-0.6023683	0.6997743	0.01308057	-0.02305718	0.01247691	0.01027414	0.04993154	0.01474072
	0.02280705	0.04257585	0.01247691	0.01027414	-0.008690741	-0.0002637514	-0.6019218	0.7001319
	0.01247657	0.0102723	0.04993154	0.01474072	-0.6019218	0.7001319	0.01316654	-0.02313719
3.1e+08	-0.008615331	-0.002788814	-0.5041742	0.7718546	0.03227256	0.03934485	0.01404665	0.008996641
	-0.5041742	0.7718546	0.00827763	-0.02509438	0.01404808	0.00899704	0.05325219	0.01240774
	0.03227256	0.03934485	0.01404808	0.00899704	-0.008647345	-0.002699311	-0.5036664	0.7721621
	0.01404665	0.008996641	0.05325219	0.01240774	-0.5036664	0.7721621	0.008342814	-0.02517665
3.2e+08	-0.008960066	-0.005038973	-0.3975399	0.8302781	0.04093307	0.03389996	0.01554566	0.007510188
	-0.3975399	0.8302781	0.003392622	-0.02563381	0.01554762	0.007508845	0.05624044	0.009524891
	0.04093307	0.03389996	0.01554762	0.007508845	-0.008981697	-0.00496023	-0.3969788	0.8305251
	0.01554566	0.007510188	0.05624044	0.00952489	-0.3969788	0.8305251	0.003439059	-0.02571192
3.3e+08	-0.00959397	-0.00709018	-0.2843524	0.8740891	0.04826958	0.02644891	0.01695255	0.005788178
	-0.2843524	0.8740891	-0.001157748	-0.0247247	0.01695422	0.005784963	0.05878831	0.006182805
	0.04826958	0.02644891	0.01695422	0.005784963	-0.009606662	-0.007024468	-0.2837423	0.8742674
	0.01695255	0.005788178	0.05878831	0.006182805	-0.2837423	0.8742674	-0.001126111	-0.02479295
3.4e+08	-0.01044344	-0.008948905	-0.1665909	0.9025902	0.05381883	0.01732047	0.01823019	0.003806382
	-0.1665909	0.9025902	-0.00498703	-0.02252453	0.01823087	0.00380146	0.06081583	0.002494746
	0.05381883	0.01732047	0.01823087	0.00380146	-0.0104492	-0.008898714	-0.1659426	0.9026912
	0.01823019	0.003806382	0.06081583	0.002494746	-0.1659426	0.9026912	-0.004964911	-0.0225787
3.5e+08	-0.01145684	-0.01064202	-0.04630698	0.9153482	0.05720069	0.006949286	0.01932468	0.001547951
	-0.04630698	0.9153482	-0.007766063	-0.01928692	0.01932382	0.001541789	0.06227462	-0.001411711
	0.05720069	0.006949286	0.01932382	0.001541789	-0.0114583	-0.01060955	-0.04562965	0.915365
	0.01932468	0.001547951	0.06227462	-0.001411711	-0.04562965	0.915365	-0.007747052	-0.01932428
3.6e+08	-0.01260854	-0.01220611	0.07441623	0.9122004	0.05814244	-0.004145627	0.02016836	-0.000989362
	0.07441623	0.9122004	-0.009245351	-0.01534287	0.02016546	-0.0009961646	0.06315111	-0.005403757
	0.05814244	-0.004145627	0.02016546	-0.0009961645	-0.01260913	-0.01219341	0.07511056	0.912126
	0.02016836	-0.0009893619	0.06315111	-0.005403757	0.07511056	0.912126	-0.009222656	-0.01536269
3.7e+08	-0.01389897	-0.01367668	0.1935003	0.8932513	0.05649641	-0.0153872	0.02068442	-0.003787688
	0.1935003	0.8932513	-0.009272122	-0.01107692	0.0206793	-0.003794381	0.06346491	-0.00935246
	0.05649641	-0.0153872	0.0206793	-0.003794381	-0.01390283	-0.01368507	0.1942	0.8930825
	0.02068442	-0.003787688	0.06346491	-0.009352461	0.1942	0.8930825	-0.009238856	-0.01108026
3.8e+08	-0.01535267	-0.0150783	0.3088959	0.8588748	0.05225225	-0.02617055	0.02079442	-0.006805032
	0.3088959	0.8588748	-0.007800799	-0.006900415	0.0207872	-0.006810846	0.06326675	-0.01314073
	0.05225225	-0.02617055	0.0207872	-0.006810846	-0.01536463	-0.01510844	0.3095869	0.858608
	0.02079442	-0.006805032	0.06326675	-0.01314073	0.3095869	0.858608	-0.007750489	-0.006890337
3.9e+08	-0.01701089	-0.01641586	0.4186267	0.8097039	0.0455412	-0.03589542	0.02042629	-0.009974454
	0.4186267	0.8097039	-0.004895554	-0.003222192	0.02041727	-0.009978664	0.06263367	-0.01667087
	0.0455412	-0.03589542	0.02041727	-0.009978664	-0.01703624	-0.01646723	0.4192957	0.8093382
	0.02042629	-0.009974454	0.06263367	-0.01667087	0.4192957	0.8093382	-0.004822622	-0.003203352
4e+08	-0.01892453	-0.01766879	0.5208102	0.7466224	0.03663321	-0.04399936	0.01952291	-0.01320579
	0.5208102	0.7466224	-0.000726142	-0.0004207935	0.01951271	-0.0132079	0.06166306	-0.01987004
	0.03663321	-0.04399936	0.01951271	-0.0132079	-0.01896878	-0.0177397	0.5214428	0.746159
	0.01952291	-0.01320579	0.06166306	-0.01987004	0.5214428	0.746159	-0.000626391	-0.0003993389
4.1e+08	-0.02114288	-0.01878761	0.6136963	0.6707522	0.02592645	-0.04998954	0.01804934	-0.01639038
	0.6136963	0.6707522	0.004443825	0.001182419	0.0180388	-0.01639016	0.06046524	-0.02269383
	0.02592645	-0.04998954	0.0180388	-0.01639016	-0.02121151	-0.01887491	0.6142771	0.6701948
	0.01804934	-0.01639038	0.06046524	-0.02269383	0.6142771	0.6701948	0.004572831	0.001199291
4.2e+08	-0.02370313	-0.01969499	0.6956932	0.5834325	0.01392882	-0.05347214	0.01599875	-0.01940851
	0.6956932	0.5834325	0.01027495	0.001345117	0.01598862	-0.01940598	0.05915622	-0.02512885
	0.01392882	-0.05347214	0.01598862	-0.01940598	-0.02380131	-0.01979401	0.6962089	0.5827865
	0.01599875	-0.01940851	0.05915622	-0.02512885	0.6962089	0.5827865	0.01043398	0.001349648
4.3e+08	-0.02662037	-0.02028847	0.7653989	0.4862042	0.001233958	-0.05417673	0.01339514	-0.02213781
	0.7653989	0.4862042	0.01637555	-7.835196e-05	0.01338609	-0.02213324	0.05784939	-0.02719271
	0.001233958	-0.05417673	0.01338609	-0.02213324	-0.0267522	-0.02039311	0.7658355	0.4854786
	0.01339514	-0.02213781	0.05784939	-0.02719271	0.7658355	0.4854786	0.01656301	-9.379258e-05
4.4e+08	-0.02987782	-0.02044812	0.8216257	0.3807815	-0.01150945	-0.05197443	0.0102933	-0.02446269
	0.8216257	0.3807815	0.02232803	-0.003126632	0.01028605	-0.02445684	0.05664824	-0.02893246
	-0.01150945	-0.05197443	0.01028605	-0.02445684	-0.03004623	-0.02055093	0.8219695	0.3799851
	0.0102933	-0.02446269	0.05664824	-0.02893246	0.8219695	0.3799851	0.02254055	-0.003169636
4.5e+08	-0.03342007	-0.02004593	0.8634226	0.2690226	-0.02363167	-0.04688895	0.006775912	-0.0262834
	0.8634226	0.2690226	0.02771807	-0.007728935	0.006770669	-0.02627701	0.05563864	-0.0304206
	-0.02363167	-0.04688895	0.006770669	-0.02627701	-0.03362614	-0.02013856	0.8636629	0.2681684
	0.006775912	-0.0262834	0.05563864	-0.0304206	0.8636629	0.2681684	0.02795049	-0.007805661
4.6e+08	-0.0371484	-0.01895827	0.8900944	0.152895	-0.03447781	-0.03909946	0.002947432	-0.02752333
	0.8900944	0.152895	0.03216333	-0.01370854	0.002944173	-0.02751728	0.05488329	-0.03175061
	-0.03447781	-0.03909946	0.002944173	-0.02751728	-0.03739143	-0.01903156	0.8902209	0.1519966
	0.002947432	-0.02752333	0.05488329	-0.03175061	0.8902209	0.1519966	0.032409	-0.01382425
4.7e+08	-0.0409205	-0.01707873	0.9012179	0.03444379	-0.04344473	-0.02893397	-0.0010736	-0.02813385
	0.9012179	0.03444379	0.03533986	-0.02079604	-0.001075329	-0.02812887	0.05441632	-0.03302931
	-0.04344473	-0.02893397	-0.001075329	-0.02812887	-0.04119729	-0.01712371	0.901225	0.03351678
	-0.0010736	-0.02813385	0.05441632	-0.03302931	0.901225	0.03351678	0.03559098	-0.02095366
4.8e+08	-0.04455354	-0.01433267	0.8966492	-0.08424984	-0.05001445	-0.01685495	-0.00516374	-0.02809644
	0.8966492	-0.08424984	0.03700432	-0.02864653	-0.005164631	-0.02809316	0.05424104	-0.03437011
	-0.05001445	-0.01685495	-0.005164631	-0.02809316	-0.0448587	-0.01434044	0.8965298	-0.08518833
	-0.00516374	-0.02809644	0.05424104	-0.03437011	0.8965298	-0.08518833	0.03725254	-0.02884753
4.9e+08	-0.04783205	-0.01069063	0.8765268	-0.2011118	-0.05378436	-0.00343664	-0.009203373	-0.02742216
	0.8765268	-0.2011118	0.03701137	-0.03686522	-0.009204377	-0.02742091	0.05432869	-0.03588359
	-0.05378436	-0.00343664	-0.009204377	-0.02742091	-0.0481577	-0.01065382	0.8762782	-0.2020438
	-0.009203373	-0.02742216	0.05432869	-0.03588359	0.8762782	-0.2020438	0.03724823	-0.03710862
5e+08	-0.0505192	-0.006178952	0.8412615	-0.3141071	-0.05449048	0.01066436	-0.01308473	-0.02614705
	0.8412615	-0.3141071	0.0353218	-0.04503363	-0.01308687	-0.02614775	0.05461988	-0.03766981
	-0.05449048	0.01066436	-0.01308687	-0.02614775	-0.05085547	-0.006091905	0.8408848	-0.3150153
	-0.01308473	-0.02614705	0.05461988	-0.03766981	0.8408848	-0.3150153	0.0355395	-0.04531657
5.1e+08	-0.05237207	-0.0008891827	0.7915355	-0.4212875	-0.05202394	0.02474247	-0.01671762	-0.02432666
	0.7915355	-0.4212875	0.03200661	-0.05273869	-0.01672193	-0.02432882	0.05502867	-0.03980921
	-0.05202394	0.02474247	-0.01672193	-0.02432882	-0.05270756	-0.000748409	0.7910325	-0.4221528
	-0.01671762	-0.02432666	0.05502867	-0.03980921	0.7910325	-0.4221528	0.03219815	-0.05305664
5.2e+08	-0.05316002	0.005018919	0.7282792	-0.5208178	-0.04643872	0.03808036	-0.0200328	-0.0220287
	0.7282792	-0.5208178	0.02723934	-0.05960165	-0.02004009	-0.02203136	0.05544868	-0.04235712
