!$
! Info: Touchstone file created by Circ.  Input file=C2M_PCB_93ohms_1p0in_20230620_v3.circ
!$
# Hz S RI R 50
0	0.003696716	1.73684e-24	0.9962728	-1.454308e-24	0.0001284573	5.886294e-23	-0.0001247399	1.530709e-20
	0.9962728	-1.309081e-24	0.003515694	1.840528e-25	-0.000122066	1.497971e-20	-1.631807e-05	8.209388e-21
	0.0001284574	5.889745e-23	-0.000122066	1.49795e-20	0.00370009	2.271821e-24	0.9962861	-1.464334e-24
	-0.0001247399	1.530711e-20	-1.631809e-05	8.209462e-21	0.9962861	-1.481131e-24	0.003529007	7.244588e-25
1e+07	0.005155826	0.0009781229	0.9938464	-0.04178584	0.0002482606	0.002186193	-0.0001934433	-0.0005751176
	0.9938464	-0.04178584	0.005053449	0.001055058	-0.0001914163	-0.0005756671	0.0001801383	0.002236205
	0.0002482606	0.002186193	-0.0001914163	-0.0005756671	0.005248069	0.0009777833	0.9937675	-0.04182028
	-0.0001934433	-0.0005751176	0.0001801383	0.002236205	0.9937675	-0.04182028	0.005145555	0.001054303
2e+07	0.006300116	0.0008081375	0.9900673	-0.08224052	0.0005099394	0.004321673	-0.0002808934	-0.001113733
	0.9900673	-0.08224052	0.00631778	0.0008878309	-0.0002794817	-0.001114037	0.0005495359	0.004361085
	0.0005099857	0.004321587	-0.0002794549	-0.001114083	0.006374248	0.000776224	0.9899947	-0.0822686
	-0.0002808644	-0.001113775	0.0005495558	0.004361084	0.9899947	-0.0822686	0.006391843	0.0008555003
3e+07	0.007097422	0.0001588402	0.9849515	-0.1220307	0.0009321382	0.006388215	-0.0004202284	-0.001601515
	0.9849515	-0.1220307	0.007244166	0.0002039695	-0.0004190541	-0.001601525	0.001095149	0.00638467
	0.0009321289	0.006388204	-0.0004190624	-0.001601522	0.007156717	0.0001157837	0.9848835	-0.1220684
	-0.0004202379	-0.001601513	0.001095141	0.006384687	0.9848835	-0.1220684	0.007304357	0.0001607697
4e+07	0.007662125	-0.0006698252	0.978399	-0.1613872	0.001500693	0.008409676	-0.0005983222	-0.002067508
	0.978399	-0.1613872	0.007953491	-0.0006769237	-0.0005972236	-0.002067172	0.001807242	0.00834633
	0.001500693	0.008409678	-0.0005972255	-0.00206717	0.007708429	-0.0007186392	0.978334	-0.1614388
	-0.0005983237	-0.002067506	0.001807239	0.008346331	0.978334	-0.1614388	0.008001781	-0.0007260143
5e+07	0.008048335	-0.001597095	0.9703727	-0.2003231	0.002202754	0.01038591	-0.0008034786	-0.002518206
	0.9703727	-0.2003231	0.008507943	-0.001672704	-0.0008023191	-0.00251753	0.002678271	0.01024594
	0.002202754	0.01038591	-0.000802321	-0.00251753	0.00808259	-0.00164866	0.9703088	-0.2003911
	-0.0008034805	-0.002518205	0.002678268	0.01024594	0.9703088	-0.2003911	0.008546072	-0.001724884
6e+07	0.008282536	-0.002583535	0.9608673	-0.2388108	0.003038246	0.01231027	-0.001037669	-0.002953903
	0.9608673	-0.2388108	0.008935498	-0.002748442	-0.001036376	-0.002952956	0.003709847	0.01207326
	0.003038244	0.01231027	-0.001036374	-0.002952955	0.008305949	-0.002635419	0.9608028	-0.2388971
	-0.001037667	-0.002953903	0.00370985	0.01207326	0.9608028	-0.2388971	0.008964479	-0.002802032
7e+07	0.008379228	-0.003602834	0.9498883	-0.2768095	0.004004935	0.01417519	-0.001301372	-0.003373874
	0.9498883	-0.2768095	0.009249833	-0.003882398	-0.001299925	-0.003372732	0.004899206	0.01381644
	0.004004934	0.01417519	-0.001299922	-0.003372733	0.008392655	-0.003653315	0.9498208	-0.2769154
	-0.00130137	-0.003373876	0.004899209	0.01381644	0.9498208	-0.2769154	0.00927085	-0.003935826
8e+07	0.008348503	-0.004633882	0.9374506	-0.3142743	0.005099404	0.015973	-0.001594456	-0.00377716
	0.9374506	-0.3142743	0.009458506	-0.005057682	-0.001592846	-0.003775852	0.006241223	0.01546384
	0.005099404	0.015973	-0.001592848	-0.00377585	0.008352826	-0.004681477	0.9373776	-0.3144007
	-0.001594458	-0.003777158	0.006241221	0.01546384	0.9373776	-0.3144007	0.00947267	-0.005109509
9e+07	0.008199418	-0.005658124	0.9235707	-0.3511578	0.006317564	0.01769646	-0.001916563	-0.004162672
	0.9235707	-0.3511578	0.009566706	-0.006258882	-0.001914785	-0.004161244	0.00772934	0.01700431
	0.006317563	0.01769646	-0.00191479	-0.004161235	0.008195734	-0.005701068	0.9234905	-0.3513059
	-0.001916566	-0.004162663	0.007729339	0.01700432	0.9234905	-0.3513059	0.009575094	-0.006307814
1e+08	0.007943771	-0.006653641	0.9082685	-0.3874188	0.007654716	0.01933795	-0.002267326	-0.00452897
	0.9082685	-0.3874188	0.009581449	-0.007465784	-0.002265383	-0.004527484	0.009356023	0.01842685
	0.007654716	0.01933795	-0.002265382	-0.004527484	0.007934089	-0.006688803	0.9081769	-0.3875906
	-0.002267325	-0.00452897	0.009356024	0.01842685	0.9081769	-0.3875906	0.009585446	-0.007509418
1.1e+08	0.007605638	-0.007623478	0.8915444	-0.4229767	0.009103638	0.02089181	-0.002645666	-0.004874157
	0.8915444	-0.4229767	0.009543065	-0.008717032	-0.002642108	-0.004873621	0.0111106	0.01972223
	0.009103638	0.02089181	-0.002642107	-0.004873622	0.007589149	-0.007643831	0.8914359	-0.4231667
	-0.002645665	-0.004874158	0.0111106	0.01972223	0.8914359	-0.4231667	0.009612816	-0.008751152
1.2e+08	0.007164459	-0.00856944	0.8734637	-0.4577825	0.01066056	0.02235198	-0.003049361	-0.005200342
	0.8734637	-0.4577825	0.009386112	-0.009960823	-0.003045908	-0.005200705	0.01298584	0.02088252
	0.01066056	0.02235198	-0.003045907	-0.005200706	0.007148644	-0.008582261	0.8733381	-0.4579904
	-0.00304936	-0.005200343	0.01298584	0.02088252	0.8733381	-0.4579904	0.009468952	-0.0100214
1.3e+08	0.006627454	-0.009469641	0.8540549	-0.491796	0.01231939	0.02371196	-0.003479622	-0.005506313
	0.8540549	-0.491796	0.009136484	-0.01118343	-0.0034768	-0.005506927	0.01497205	0.0218986
	0.01231939	0.02371196	-0.0034768	-0.005506929	0.006613763	-0.009479567	0.8539082	-0.4920196
	-0.003479622	-0.005506314	0.01497205	0.0218986	0.8539082	-0.4920196	0.00920491	-0.01126335
1.4e+08	0.006002864	-0.01030972	0.8333467	-0.5249699	0.014074	0.02496647	-0.003936658	-0.005790361
	0.8333467	-0.5249699	0.008806067	-0.01238106	-0.003934393	-0.00579077	0.01705902	0.02276286
	0.014074	0.02496647	-0.003934392	-0.005790771	0.005990355	-0.01031925	0.8331791	-0.5252081
	-0.003936658	-0.005790362	0.01705902	0.02276285	0.8331791	-0.5252081	0.008853315	-0.01246707
1.5e+08	0.005300239	-0.01107884	0.8113763	-0.5572593	0.01591784	0.02611026	-0.004420117	-0.006050783
	0.8113763	-0.5572593	0.008401337	-0.01354986	-0.004418169	-0.006050804	0.01923579	0.02346799
	0.01591784	0.02611026	-0.004418169	-0.006050804	0.005287479	-0.01108861	0.8111857	-0.5575097
	-0.004420117	-0.006050784	0.01923579	0.02346799	0.8111857	-0.5575097	0.008430043	-0.01363277
1.6e+08	0.004530145	-0.01176782	0.7881781	-0.5886185	0.01784425	0.02713849	-0.004929439	-0.006285985
	0.7881781	-0.5886185	0.00792694	-0.0146849	-0.004927618	-0.00628562	0.02149113	0.0240078
	0.01784425	0.02713849	-0.004927618	-0.006285621	0.004515946	-0.01177756	0.7879636	-0.5888794
	-0.004929439	-0.006285985	0.02149113	0.0240078	0.7879636	-0.5888794	0.007942643	-0.01476023
1.7e+08	0.003703263	-0.01236988	0.7637903	-0.6190018	0.01984616	0.0280467	-0.005463873	-0.006494369
	0.7637903	-0.6190018	0.00738732	-0.01578077	-0.005462029	-0.006493699	0.0238133	0.02437674
	0.01984616	0.0280467	-0.005462029	-0.006493699	0.003686954	-0.01237877	0.7635511	-0.6192713
	-0.005463873	-0.006494369	0.0238133	0.02437673	0.7635511	-0.6192713	0.007395434	-0.0158475
1.8e+08	0.002830817	-0.01287901	0.7382529	-0.6483667	0.02191648	0.02883094	-0.006022735	-0.006674417
	0.7382529	-0.6483667	0.006787609	-0.01683184	-0.006020829	-0.006673551	0.02619038	0.02457011
	0.02191648	0.02883094	-0.006020829	-0.006673551	0.002812088	-0.01288628	0.7379889	-0.648644
	-0.006022735	-0.006674417	0.02619038	0.02457011	0.7379889	-0.648644	0.006792424	-0.01689089
1.9e+08	0.00192375	-0.01329131	0.7116079	-0.6766714	0.02404801	0.02948786	-0.006605212	-0.006824527
	0.7116079	-0.6766714	0.006133478	-0.01783303	-0.00660325	-0.006823571	0.02861029	0.02458426
	0.02404801	0.02948786	-0.00660325	-0.006823572	0.001902831	-0.01329592	0.7113168	-0.6769537
	-0.006605212	-0.006824527	0.02861029	0.02458426	0.7113168	-0.6769537	0.006137941	-0.01788624
2e+08	0.0009933503	-0.01360336	0.6838963	-0.7038763	0.02623318	0.03001411	-0.007210472	-0.006943055
	0.6838963	-0.7038763	0.00543124	-0.01877984	-0.007208513	-0.006942088	0.0310605	0.02441594
	0.02623318	0.03001411	-0.007208513	-0.006942088	0.0009705999	-0.01360472	0.6835788	-0.7041619
	-0.007210472	-0.006943056	0.0310605	0.02441594	0.6835788	-0.7041619	0.00543697	-0.01882944
2.1e+08	5.103946e-05	-0.01381311	0.6551651	-0.7299406	0.02846446	0.03040711	-0.007837539	-0.007028275
	0.6551651	-0.7299406	0.00468783	-0.01966855	-0.007835647	-0.007027338	0.03352843	0.02406303
	0.02846446	0.03040711	-0.007835647	-0.007027338	2.691969e-05	-0.0138107	0.6548193	-0.7302278
	-0.007837539	-0.007028275	0.03352843	0.02406303	0.6548193	-0.7302278	0.004695584	-0.01971644
2.2e+08	-0.000892056	-0.01391976	0.625459	-0.7548285	0.03073428	0.0306647	-0.008485405	-0.007078461
	0.625459	-0.7548285	0.00391025	-0.02049646	-0.008483673	-0.007077552	0.03600178	0.02352443
	0.03073428	0.0306647	-0.008483673	-0.007077552	-0.0009170001	-0.0139132	0.6250852	-0.7551164
	-0.008485405	-0.007078462	0.03600178	0.02352443	0.6250852	-0.7551164	0.003919883	-0.0205444
2.3e+08	-0.001824879	-0.01392341	0.5948255	-0.778506	0.03303473	0.03078488	-0.009152795	-0.00709173
	0.5948255	-0.778506	0.003105431	-0.02126183	-0.009151293	-0.007090822	0.03846728	0.02279913
	0.03303473	0.03078488	-0.009151293	-0.007090822	-0.001850013	-0.01391249	0.5944239	-0.7787921
	-0.009152795	-0.00709173	0.03846728	0.02279913	0.5944239	-0.7787921	0.003116633	-0.02131092
2.4e+08	-0.002735952	-0.01382506	0.5633137	-0.8009362	0.03535805	0.03076639	-0.00983838	-0.007066227
	0.5633137	-0.8009362	0.002280828	-0.02196354	-0.009837172	-0.007065287	0.04091253	0.02188774
	0.03535805	0.03076639	-0.009837172	-0.007065287	-0.002760832	-0.01380969	0.5628827	-0.8012187
	-0.00983838	-0.007066228	0.04091253	0.02188774	0.5628827	-0.8012187	0.002293033	-0.02201445
2.5e+08	-0.003614771	-0.01362715	0.530973	-0.8220908	0.03769646	0.03060821	-0.01054057	-0.007000038
	0.530973	-0.8220908	0.001443459	-0.02260135	-0.01053972	-0.006998971	0.04332499	0.02079139
	0.03769646	0.03060821	-0.01053972	-0.006998971	-0.003638756	-0.01360715	0.5305122	-0.822368
	-0.01054057	-0.007000038	0.04332499	0.02079139	0.5305122	-0.822368	0.001455931	-0.02265447
2.6e+08	-0.004450512	-0.01333285	0.497855	-0.841938	0.04004231	0.03031005	-0.01125779	-0.006891393
	0.497855	-0.841938	0.0005999949	-0.02317606	-0.01125735	-0.00689016	0.04569201	0.01951201
	0.04004231	0.03031005	-0.01125735	-0.00689016	-0.004473148	-0.01330831	0.4973657	-0.8422082
	-0.01125779	-0.006891393	0.04569201	0.01951201	0.4973657	-0.8422082	0.0006124176	-0.02323133
2.7e+08	-0.005232799	-0.01294619	0.4640117	-0.8604518	0.04238765	0.02987159	-0.01198805	-0.006738348
	0.4640117	-0.8604518	-0.0002426551	-0.02368868	-0.01198794	-0.006736812	0.04800131	0.01805231
	0.04238765	0.02987159	-0.01198794	-0.006736812	-0.005253614	-0.01291706	0.4634917	-0.8607134
	-0.01198805	-0.006738348	0.04800131	0.01805231	0.4634917	-0.8607134	-0.0002307469	-0.02374595
2.8e+08	-0.005951947	-0.01247258	0.4294957	-0.8776056	0.04472501	0.02929331	-0.01272928	-0.006539115
	0.4294957	-0.8776056	-0.001078161	-0.02414122	-0.01272961	-0.006537226	0.05024109	0.01641605
	0.04472501	0.02929331	-0.01272961	-0.006537226	-0.005970291	-0.01243888	0.4289465	-0.8778557
	-0.01272928	-0.006539115	0.05024109	0.01641605	0.4289465	-0.8778557	-0.001066676	-0.02420019
2.9e+08	-0.006598583	-0.011918	0.3943621	-0.8933762	0.04704651	0.02857586	-0.01347898	-0.006291796
	0.3943621	-0.8933762	-0.001900625	-0.02453618	-0.01347972	-0.0062895	0.05239907	0.01460729
	0.04704651	0.02857586	-0.01347972	-0.006289501	-0.006614171	-0.01187997	0.3937837	-0.8936143
	-0.01347898	-0.006291796	0.05239907	0.01460729	0.3937837	-0.8936143	-0.001889707	-0.02459666
3e+08	-0.007164002	-0.01128941	0.3586655	-0.9077436	0.04934476	0.02772044	-0.01423501	-0.005994985
	0.3586655	-0.9077436	-0.002704367	-0.02487664	-0.01423606	-0.005992146	0.05446404	0.01263123
	0.04934476	0.02772044	-0.01423606	-0.005992146	-0.007176159	-0.01124706	0.3580575	-0.9079669
	-0.01423501	-0.005994985	0.05446405	0.01263123	0.3580575	-0.9079669	-0.002693788	-0.02493841
3.1e+08	-0.00764007	-0.01059464	0.3224608	-0.9206864	0.05161237	0.02672859	-0.01499438	-0.005646935
	0.3224608	-0.9206864	-0.003483894	-0.02516614	-0.01499571	-0.005643495	0.0564248	0.01049365
	0.05161237	0.02672859	-0.01499571	-0.005643495	-0.007648151	-0.01054809	0.3218232	-0.9208922
	-0.01499438	-0.005646935	0.0564248	0.01049365	0.3218232	-0.9208922	-0.003473155	-0.02522901
3.2e+08	-0.008019343	-0.009842001	0.2858027	-0.9321883	0.05384204	0.02560222	-0.01575434	-0.005246295
	0.2858027	-0.9321883	-0.004234294	-0.02540865	-0.01575602	-0.005242226	0.0582707	0.008200993
	0.05384204	0.02560222	-0.01575602	-0.005242226	-0.008022881	-0.009791647	0.285138	-0.9323746
	-0.01575434	-0.005246295	0.0582707	0.008200993	0.285138	-0.9323746	-0.004223288	-0.02547278
3.3e+08	-0.008295271	-0.009040917	0.248752	-0.9422343	0.05602664	0.02434356	-0.01651169	-0.00479174
	0.248752	-0.9422343	-0.004951147	-0.02560884	-0.01651358	-0.004786948	0.05999143	0.005760391
	0.05602664	0.02434356	-0.01651358	-0.004786948	-0.008293711	-0.00898689	0.2480578	-0.9423997
	-0.01651169	-0.00479174	0.05999143	0.005760391	0.2480578	-0.9423997	-0.00493953	-0.02567421
3.4e+08	-0.008461925	-0.008200952	0.2113613	-0.9508116	0.05815935	0.02295528	-0.01726333	-0.004282236
	0.2113613	-0.9508116	-0.005630461	-0.02577152	-0.0172654	-0.004276643	0.06157745	0.003179559
	0.05815935	0.02295528	-0.0172654	-0.004276643	-0.008454726	-0.008143686	0.2106405	-0.9509543
	-0.01726333	-0.004282237	0.06157745	0.003179559	0.2106405	-0.9509543	-0.005617991	-0.02583837
3.5e+08	-0.008514523	-0.007332532	0.1736903	-0.9579096	0.06023323	0.0214404	-0.01800571	-0.003716832
	0.1736903	-0.9579096	-0.006268885	-0.02590201	-0.018008	-0.003710421	0.06301916	0.0004668374
	0.06023323	0.0214404	-0.018008	-0.003710421	-0.00850111	-0.007272341	0.1729427	-0.9580283
	-0.01800571	-0.003716832	0.06301916	0.0004668374	0.1729427	-0.9580283	-0.006255233	-0.0259705
3.6e+08	-0.008449175	-0.006446547	0.1357979	-0.9635206	0.06224187	0.01980218	-0.0187354	-0.003094918
	0.1357979	-0.9635206	-0.006863405	-0.02600594	-0.01873778	-0.003087594	0.06430814	-0.002368865
	0.06224187	0.01980218	-0.01873778	-0.003087594	-0.008428996	-0.006383996	0.135025	-0.9636121
	-0.0187354	-0.003094918	0.06430814	-0.002368865	0.135025	-0.9636121	-0.006848445	-0.02607638
3.7e+08	-0.008262543	-0.005553998	0.09773957	-0.9676372	0.06417884	0.01804417	-0.01944861	-0.00241595
	0.09773957	-0.9676372	-0.007411621	-0.02608911	-0.019451	-0.00240765	0.06543618	-0.005318261
	0.06417884	0.01804417	-0.019451	-0.00240765	-0.008235116	-0.005489514	0.09694167	-0.967701
	-0.01944861	-0.00241595	0.06543618	-0.005318261	0.09694167	-0.967701	-0.00739525	-0.02616174
3.8e+08	-0.007952772	-0.004666601	0.05957642	-0.9702555	0.06603817	0.01617032	-0.02014156	-0.001679761
	0.05957642	-0.9702555	-0.007911778	-0.02615775	-0.0201439	-0.001670433	0.06639578	-0.008371368
	0.06603817	0.01617032	-0.0201439	-0.001670433	-0.007917607	-0.004600885	0.05875524	-0.9702885
	-0.02014156	-0.001679761	0.06639578	-0.008371368	0.05875524	-0.9702885	-0.007893869	-0.0262329
3.9e+08	-0.007518514	-0.003795735	0.02136378	-0.9713744	0.06781398	0.01418487	-0.02081031	-0.0008863445
	0.02136378	-0.9713744	-0.008362723	-0.02621801	-0.02081244	-0.0008759276	0.06718018	-0.01151799
	0.06781398	0.01418487	-0.02081244	-0.0008759276	-0.007475204	-0.003729397	0.02051958	-0.9713754
	-0.02081031	-0.0008863445	0.06718018	-0.01151799	0.02051958	-0.9713754	-0.008343204	-0.02629592
4e+08	-0.00695987	-0.002953606	-0.0168384	-0.9709939	0.06950068	0.01209222	-0.02145094	-3.604893e-05
	-0.0168384	-0.9709939	-0.008763884	-0.0262764	-0.02145276	-2.447458e-05	0.06778327	-0.01474759
	0.06950068	0.01209222	-0.02145276	-2.447459e-05	-0.006907975	-0.002887337	-0.01770435	-0.9709611
	-0.02145094	-3.604894e-05	0.06778327	-0.01474759	-0.01770435	-0.9709611	-0.008742717	-0.02635735
4.1e+08	-0.006277925	-0.002152013	-0.05497196	-0.9691175	0.07109286	0.009897259	-0.02205924	0.0008705132
	-0.05497196	-0.9691175	-0.009115434	-0.02633929	-0.02206076	0.0008832482	0.06819939	-0.01804897
	0.07109286	0.009897259	-0.02206076	0.0008832482	-0.006217099	-0.002086581	-0.05585733	-0.9690491
	-0.02205924	0.0008705132	0.06819939	-0.01804897	-0.05585733	-0.9690491	-0.009092614	-0.02642359
4.2e+08	-0.005474301	-0.001402732	-0.09297946	-0.9657482	0.07258549	0.007604668	-0.02263128	0.001832467
	-0.09297946	-0.9657482	-0.009418143	-0.02641324	-0.02263232	0.001846423	0.06842379	-0.02141088
	0.07258549	0.007604668	-0.02263232	0.001846423	-0.005404314	-0.001339072	-0.09388375	-0.9656429
	-0.02263128	0.001832467	0.06842379	-0.02141088	-0.09388375	-0.9656429	-0.009393551	-0.02650117
4.3e+08	-0.004552242	-0.0007176269	-0.1308032	-0.9608939	0.07397395	0.005219759	-0.02316294	0.002848611
	-0.1308032	-0.9608939	-0.009673156	-0.02650464	-0.02316327	0.002863816	0.06845227	-0.02482176
	0.07397395	0.005219759	-0.02316327	0.002863816	-0.004472845	-0.0006565309	-0.1317237	-0.960751
	-0.02316294	0.002848611	0.06845227	-0.02482177	-0.1317237	-0.960751	-0.009646957	-0.02659641
4.4e+08	-0.00351573	-0.0001082508	-0.1683857	-0.9545647	0.07525369	0.002747882	-0.02365	0.00391746
	-0.1683857	-0.9545647	-0.009882622	-0.02661969	-0.02364972	0.003933906	0.06828158	-0.02827006
	0.07525369	0.002747882	-0.02364972	0.003933906	-0.003426795	-5.069569e-05	-0.1693212	-0.9543808
	-0.02365	0.00391746	0.06828158	-0.02827006	-0.1693212	-0.9543808	-0.009854758	-0.02671572
4.5e+08	-0.002369787	0.0004138944	-0.2056695	-0.9467718	0.07642049	0.0001944354	-0.02408846	0.005037195
	-0.2056695	-0.9467718	-0.01004917	-0.02676491	-0.02408734	0.005054897	0.06790896	-0.03174366
	0.07642049	0.0001944354	-0.02408734	0.005054897	-0.00227116	0.0004670977	-0.206618	-0.9465465
	-0.02408846	0.005037195	0.06790896	-0.03174366	-0.206618	-0.9465465	-0.0100197	-0.02686537
4.6e+08	-0.001120213	0.0008380884	-0.2425992	-0.9375267	0.0774705	-0.002434587	-0.02447438	0.006205758
	-0.2425992	-0.9375267	-0.01017596	-0.02694582	-0.02447232	0.006224689	0.06733253	-0.03523077
	0.0774705	-0.002434587	-0.02447232	0.006224689	-0.001011921	0.000885734	-0.243559	-0.9372579
	-0.02447438	0.006205758	0.06733253	-0.03523077	-0.243559	-0.9372579	-0.01014483	-0.02705127
4.7e+08	0.0002258883	0.001153615	-0.2791181	-0.9268459	0.07840022	-0.005133559	-0.02480384	0.007420619
	-0.2791181	-0.9268459	-0.01026683	-0.02716859	-0.02480059	0.007440788	0.06655092	-0.03871898
	0.07840022	-0.005133559	-0.02480059	0.007440788	0.0003438478	0.001194933	-0.2800882	-0.9265343
	-0.02480384	0.007420619	0.06655092	-0.03871898	-0.2800882	-0.9265343	-0.0102343	-0.02727909
4.8e+08	0.001660547	0.001350488	-0.31517	-0.9147482	0.07920636	-0.007896354	-0.02507289	0.008679085
	-0.31517	-0.9147482	-0.01032638	-0.02743819	-0.02506833	0.008700439	0.06556374	-0.04219633
	0.07920636	-0.007896354	-0.02506833	0.008700439	0.001787979	0.001384115	-0.3161474	-0.9143907
	-0.02507289	0.008679085	0.06556374	-0.04219633	-0.3161474	-0.9143907	-0.01029234	-0.02755435
4.9e+08	0.003175308	0.001419424	-0.3507026	-0.9012541	0.07988614	-0.01071681	-0.02527815	0.009978141
	-0.3507026	-0.9012541	-0.01035933	-0.02775984	-0.02527216	0.01000065	0.06437125	-0.04565059
	0.07988614	-0.01071681	-0.02527216	0.01000065	0.003311993	0.001444476	-0.3516853	-0.9008497
	-0.02527815	0.009978141	0.06437125	-0.04565059	-0.3516853	-0.9008497	-0.01032396	-0.02788187
5e+08	0.004760506	0.001351309	-0.3856592	-0.8863827	0.08043676	-0.01358887	-0.02541599	0.01131449
	-0.3856592	-0.8863827	-0.01037141	-0.02813835	-0.02540843	0.01133805	0.06297421	-0.04906993
	0.08043676	-0.01358887	-0.02540843	0.01133805	0.004906094	0.0013668	-0.3866462	-0.8859313
	-0.02541599	0.01131449	0.06297421	-0.04906993	-0.3866462	-0.8859313	-0.01033483	-0.02826654
5.1e+08	0.006405804	0.001138378	-0.4199901	-0.8701595	0.08085604	-0.01650617	-0.02548304	0.01268451
	-0.4199901	-0.8701595	-0.01036823	-0.02857741	-0.0254738	0.01270909	0.06137424	-0.05244212
