!$
! Info: Touchstone file created by Circ.  Input file=C2M_PCB_93ohms_2p0in_20230620_v3.circ
!$
# Hz S RI R 50
0	0.004605951	2.015648e-24	0.9953636	-1.749268e-24	0.0001336607	6.397115e-23	-0.0001299467	1.596035e-20
	0.9953636	-1.604168e-24	0.004424873	4.899574e-25	-0.0001272751	1.563323e-20	-1.110558e-05	8.234576e-21
	0.0001336608	6.400559e-23	-0.0001272751	1.563302e-20	0.004609318	2.538718e-24	0.9953769	-1.736416e-24
	-0.0001299467	1.596037e-20	-1.11056e-05	8.234651e-21	0.9953769	-1.753202e-24	0.00443821	1.004399e-24
1e+07	0.006479221	0.0008845908	0.9920156	-0.05209153	0.0003053234	0.002348871	-0.0002100725	-0.0005712364
	0.9920156	-0.05209153	0.006357791	0.0009610941	-0.0002080599	-0.0005718343	0.0002086879	0.002404898
	0.0003053234	0.002348871	-0.0002080599	-0.0005718343	0.006599035	0.0008810556	0.9919087	-0.05212486
	-0.0002100725	-0.0005712364	0.0002086879	0.002404898	0.9919087	-0.05212486	0.006477376	0.0009568011
2e+07	0.007919312	0.0002920579	0.9864974	-0.102419	0.0006906625	0.004635663	-0.0003037962	-0.001108224
	0.9864974	-0.102419	0.007860728	0.0003744734	-0.0003024381	-0.001108595	0.0006202373	0.004697878
	0.0006907051	0.004635575	-0.0003024124	-0.001108641	0.008013965	0.0002441494	0.9864029	-0.1024351
	-0.0003037681	-0.001108268	0.0006202572	0.004697876	0.9864029	-0.1024351	0.007954525	0.0003257339
3e+07	0.008885594	-0.0009187329	0.9788431	-0.1517926	0.001325464	0.006819521	-0.0004643827	-0.001583316
	0.9788431	-0.1517926	0.008860577	-0.0008584709	-0.0004633015	-0.001583391	0.001246784	0.006871268
	0.001325454	0.00681951	-0.0004633098	-0.001583388	0.008959548	-0.0009833804	0.9787575	-0.1518145
	-0.0004643921	-0.001583313	0.001246776	0.006871285	0.9787575	-0.1518145	0.008933764	-0.000923542
4e+07	0.009523709	-0.002361414	0.9689342	-0.2004679	0.002186662	0.008919132	-0.0006730055	-0.002030165
	0.9689342	-0.2004679	0.009509871	-0.002327008	-0.000672036	-0.00202988	0.002071405	0.008965034
	0.002186662	0.008919134	-0.0006720377	-0.002029878	0.009579392	-0.002435405	0.9688551	-0.2005015
	-0.0006730068	-0.002030163	0.002071402	0.008965035	0.9688551	-0.2005015	0.00956481	-0.00240121
5e+07	0.009899232	-0.003927283	0.9567396	-0.248423	0.00325178	0.01092622	-0.0009125618	-0.002457013
	0.9567396	-0.248423	0.009883328	-0.003915654	-0.0009115617	-0.002456364	0.003079149	0.01097736
	0.00325178	0.01092622	-0.0009115635	-0.002456364	0.009938026	-0.004006362	0.9566641	-0.2484717
	-0.0009125637	-0.002457013	0.003079146	0.01097736	0.9566641	-0.2484717	0.009922039	-0.003994749
6e+07	0.01004524	-0.005559501	0.9422687	-0.2955855	0.004515365	0.01282504	-0.001184983	-0.00286439
	0.9422687	-0.2955855	0.01001741	-0.005566845	-0.001183875	-0.002863434	0.004269053	0.01289504
	0.004515363	0.01282505	-0.001183873	-0.002863433	0.01006879	-0.005640347	0.9421942	-0.295652
	-0.001184981	-0.00286439	0.004269057	0.01289504	0.9421942	-0.295652	0.01004118	-0.005648024
7e+07	0.009981619	-0.007218403	0.9255472	-0.341867	0.005968821	0.0145993	-0.001490745	-0.003251577
	0.9255472	-0.341867	0.009933591	-0.007240621	-0.001489502	-0.003250379	0.005635335	0.01470349
	0.005968821	0.0145993	-0.001489499	-0.00325038	0.009991199	-0.00729854	0.9254704	-0.3419528
	-0.001490743	-0.003251579	0.005635337	0.01470349	0.9254704	-0.3419528	0.009943916	-0.007321331
8e+07	0.009723953	-0.008871755	0.9066141	-0.3871742	0.007601489	0.0162332	-0.001829769	-0.003617462
	0.9066141	-0.3871742	0.009647691	-0.008904385	-0.001828369	-0.003616044	0.007169476	0.0163886
	0.007601488	0.0162332	-0.001828371	-0.003616042	0.009720899	-0.008949042	0.9065317	-0.3872805
	-0.00182977	-0.00361746	0.007169474	0.0163886	0.9065317	-0.3872805	0.009646073	-0.008982293
9e+07	0.00928744	-0.01049137	0.8855134	-0.4314123	0.009401273	0.01771199	-0.002201794	-0.003960654
	0.8855134	-0.4314123	0.009174236	-0.01052869	-0.002200222	-0.003959054	0.008861212	0.01793716
	0.009401272	0.01771199	-0.002200226	-0.003959045	0.009273417	-0.01056344	0.885423	-0.4315405
	-0.002201796	-0.003960645	0.008861211	0.01793717	0.885423	-0.4315405	0.009162272	-0.01060165
1e+08	0.008692027	-0.01204567	0.8622939	-0.4744954	0.01135471	0.0190212	-0.002606553	-0.004279123
	0.8622939	-0.4744954	0.008532378	-0.01207961	-0.002604799	-0.004277403	0.01069902	0.01933645
	0.01135471	0.0190212	-0.002604798	-0.004277404	0.008670003	-0.01210862	0.8621899	-0.4746477
	-0.002606553	-0.004279124	0.01069902	0.01933645	0.8621899	-0.4746477	0.008512435	-0.01214414
1.1e+08	0.007974499	-0.01354118	0.8369867	-0.516285	0.01344453	0.0201495	-0.00304235	-0.004570673
	0.8369867	-0.516285	0.007776611	-0.01359724	-0.003039111	-0.004569993	0.01266784	0.02057644
	0.01344453	0.0201495	-0.00303911	-0.004569994	0.007947467	-0.01358801	0.836862	-0.5164543
	-0.003042349	-0.004570674	0.01266784	0.02057644	0.836862	-0.5164543	0.00782035	-0.01365028
1.2e+08	0.007107663	-0.01497163	0.8097069	-0.5566936	0.01565746	0.02108629	-0.003507969	-0.004837326
	0.8097069	-0.5566936	0.006841317	-0.01501515	-0.00350494	-0.004837436	0.01475659	0.02164865
	0.01565746	0.02108629	-0.003504939	-0.004837437	0.007081624	-0.01501178	0.8095612	-0.5568784
	-0.003507968	-0.004837327	0.0147566	0.02164865	0.8095612	-0.5568784	0.006895515	-0.01509289
1.3e+08	0.006108637	-0.01630739	0.7805209	-0.5956428	0.01797696	0.02182098	-0.004004774	-0.005076739
	0.7805209	-0.5956428	0.005766966	-0.01630951	-0.004002385	-0.005076917	0.01695126	0.02254375
	0.01797696	0.02182098	-0.004002384	-0.005076918	0.006083992	-0.01634601	0.7803504	-0.5958396
	-0.004004773	-0.00507674	0.01695126	0.02254375	0.7803504	-0.5958396	0.00580399	-0.0164046
1.4e+08	0.004994881	-0.01753	0.7494997	-0.6330468	0.02038616	0.02234523	-0.004532956	-0.00528613
	0.7494997	-0.6330468	0.004579141	-0.01746973	-0.004531054	-0.005285917	0.01923729	0.02325452
	0.02038616	0.02234523	-0.004531054	-0.005285918	0.004970045	-0.01756948	0.7493044	-0.633254
	-0.004532956	-0.005286131	0.01923729	0.02325452	0.7493044	-0.633254	0.004592203	-0.01756862
1.5e+08	0.003784999	-0.01862633	0.7167249	-0.6688254	0.02286739	0.02265178	-0.00509203	-0.005462655
	0.7167249	-0.6688254	0.00329832	-0.01848706	-0.005090328	-0.005461893	0.02159944	0.02377459
	0.02286739	0.02265178	-0.005090328	-0.005461894	0.003758352	-0.01866694	0.716503	-0.6690398
	-0.00509203	-0.005462656	0.02159944	0.02377459	0.716503	-0.6690398	0.003290128	-0.01858023
1.6e+08	0.002498673	-0.01958651	0.6822777	-0.7028994	0.02540265	0.0227348	-0.005681172	-0.005603489
	0.6822777	-0.7028994	0.001943488	-0.01935346	-0.005679453	-0.005602203	0.02402236	0.0240992
	0.02540265	0.0227348	-0.005679453	-0.005602204	0.00246909	-0.01962768	0.6820283	-0.7031185
	-0.005681172	-0.00560349	0.02402236	0.0240992	0.6820283	-0.7031185	0.001919712	-0.01943603
1.7e+08	0.001155357	-0.02040435	0.646245	-0.7351926	0.02797338	0.02258989	-0.006299195	-0.005705728
	0.646245	-0.7351926	0.0005336376	-0.02006211	-0.006297298	-0.005704018	0.02649032	0.02422476
	0.02797338	0.02258989	-0.006297298	-0.005704018	0.001122423	-0.02044503	0.6459676	-0.7354139
	-0.006299196	-0.005705729	0.02649032	0.02422476	0.6459676	-0.7354139	0.0004998861	-0.0201327
1.8e+08	-0.0002250294	-0.02107584	0.6087172	-0.7656348	0.03056101	0.02221418	-0.00694481	-0.005766457
	0.6087172	-0.7656348	-0.0009115386	-0.02060764	-0.006942684	-0.005764438	0.02898765	0.02414899
	0.03056101	0.02221418	-0.006942684	-0.005764438	-0.000261356	-0.02111516	0.6084119	-0.7658568
	-0.00694481	-0.005766457	0.02898765	0.02414899	0.6084119	-0.7658568	-0.0009507441	-0.02066683
1.9e+08	-0.00162348	-0.02160011	0.5697883	-0.7941596	0.03314694	0.02160638	-0.007616372	-0.005782639
	0.5697883	-0.7941596	-0.00237192	-0.02098695	-0.007614014	-0.00578042	0.03149881	0.02387112
	0.03314694	0.02160638	-0.007614014	-0.00578042	-0.001662591	-0.02163714	0.5694534	-0.7943787
	-0.007616372	-0.005782639	0.03149881	0.02387112	0.5694534	-0.7943787	-0.002413299	-0.02103619
2e+08	-0.003020931	-0.02197808	0.5295526	-0.8207051	0.03571222	0.0207663	-0.008311993	-0.005751165
	0.5295526	-0.8207051	-0.003827008	-0.02119908	-0.008309446	-0.005748818	0.03400816	0.02339116
	0.03571222	0.02076631	-0.008309446	-0.005748819	-0.003062219	-0.02201235	0.5291891	-0.8209192
	-0.008311993	-0.005751165	0.03400816	0.02339116	0.5291891	-0.8209192	-0.003868595	-0.02124032
2.1e+08	-0.004398919	-0.02221316	0.4881122	-0.8452125	0.03823825	0.01969551	-0.009029383	-0.005668866
	0.4881122	-0.8452125	-0.005256109	-0.02124556	-0.009026689	-0.005666432	0.03650037	0.02271068
	0.03823825	0.01969551	-0.009026689	-0.005666432	-0.004441686	-0.02224436	0.4877188	-0.845419
	-0.009029383	-0.005668866	0.03650037	0.02271068	0.4877188	-0.845419	-0.005296734	-0.02128036
2.2e+08	-0.005740065	-0.02231089	0.4455673	-0.8676302	0.04070671	0.0183969	-0.009765977	-0.005532614
	0.4455673	-0.8676302	-0.006639087	-0.02113034	-0.009763195	-0.005530084	0.03896085	0.02183252
	0.04070671	0.0183969	-0.009763195	-0.005530084	-0.005783583	-0.0223389	0.4451444	-0.8678276
	-0.009765977	-0.005532614	0.03896085	0.02183252	0.4451444	-0.8678276	-0.006678467	-0.02116021
2.3e+08	-0.007027892	-0.02227865	0.4020213	-0.8879117	0.04309918	0.01687464	-0.01051866	-0.005339234
	0.4020213	-0.8879117	-0.007956622	-0.02085982	-0.01051582	-0.005336585	0.04137446	0.02075995
	0.04309918	0.01687464	-0.01051582	-0.005336585	-0.00707141	-0.02230356	0.40157	-0.8880972
	-0.01051866	-0.005339234	0.04137446	0.02075995	0.40157	-0.8880972	-0.007994574	-0.02088567
2.4e+08	-0.008246479	-0.02212579	0.3575818	-0.9060112	0.045398	0.01513441	-0.01128402	-0.005085691
	0.3575818	-0.9060112	-0.009189693	-0.02044249	-0.01128115	-0.005082897	0.04372744	0.01949806
	0.045398	0.01513441	-0.01128115	-0.005082897	-0.008289486	-0.02214776	0.357101	-0.9061821
	-0.01128402	-0.005085691	0.04372744	0.01949806	0.357101	-0.9061821	-0.00922624	-0.02046479
2.5e+08	-0.009382073	-0.02186339	0.3123547	-0.9218942	0.0475859	0.01318308	-0.0120581	-0.004769085
	0.3123547	-0.9218942	-0.01032084	-0.01988884	-0.01205522	-0.004766066	0.0460064	0.0180526
	0.0475859	0.01318308	-0.01205522	-0.004766066	-0.009423848	-0.02188263	0.3118449	-0.9220482
	-0.0120581	-0.004769085	0.0460064	0.0180526	0.3118449	-0.9220482	-0.01035616	-0.01990786
2.6e+08	-0.01042175	-0.02150417	0.2664505	-0.9355267	0.04964644	0.01102896	-0.0128368	-0.004386821
	0.2664505	-0.9355267	-0.01133402	-0.01921167	-0.0128339	-0.004383559	0.04819837	0.01643026
	0.04964644	0.01102896	-0.0128339	-0.004383559	-0.01046188	-0.02152106	0.2659135	-0.9356618
	-0.0128368	-0.004386821	0.04819837	0.01643026	0.2659135	-0.9356618	-0.01136788	-0.01922732
2.7e+08	-0.01135422	-0.0210621	0.219979	-0.9468828	0.05156342	0.008681312	-0.01361529	-0.003936429
	0.219979	-0.9468828	-0.01221428	-0.01842499	-0.01361226	-0.003932844	0.05029128	0.01463852
	0.05156342	0.008681312	-0.01361226	-0.003932845	-0.01139222	-0.02107692	0.2194134	-0.9469968
	-0.01361529	-0.003936429	0.05029128	0.01463852	0.2194134	-0.9469968	-0.01224652	-0.01843707
2.8e+08	-0.01217041	-0.0205526	0.1730511	-0.9559399	0.05332187	0.006150693	-0.01438853	-0.003415853
	0.1730511	-0.9559399	-0.01294857	-0.01754471	-0.01438542	-0.003411911	0.05227407	0.01268594
	0.05332187	0.006150693	-0.01438542	-0.003411911	-0.01220569	-0.02056585	0.1724597	-0.9560296
	-0.01438853	-0.003415853	0.05227407	0.01268594	0.1724597	-0.9560296	-0.01297848	-0.01755302
2.9e+08	-0.01286277	-0.01999195	0.1257801	-0.9626821	0.05490716	0.003448753	-0.01515084	-0.002823309
	0.1257801	-0.9626821	-0.01352576	-0.01658804	-0.01514759	-0.00281901	0.05413574	0.01058127
	0.05490716	0.003448753	-0.01514759	-0.00281901	-0.0128952	-0.02000409	0.1251632	-0.9627464
	-0.01515084	-0.002823309	0.05413574	0.01058127	0.1251632	-0.9627464	-0.0135529	-0.01659249
3e+08	-0.01342588	-0.01939726	0.07827778	-0.9670993	0.05630601	0.0005880941	-0.01589685	-0.002157676
	0.07827778	-0.9670993	-0.0139365	-0.0155733	-0.01589331	-0.002152964	0.05586691	0.008334299
	0.05630601	0.0005880941	-0.01589331	-0.002152964	-0.01345488	-0.01940881	0.07763635	-0.9671352
	-0.01589685	-0.002157676	0.05586691	0.008334299	0.07763635	-0.9671352	-0.01395998	-0.01557387
3.1e+08	-0.01385633	-0.01878633	0.03065718	-0.9691835	0.05750592	-0.002417719	-0.01662016	-0.00141806
	0.03065718	-0.9691835	-0.01417312	-0.01451982	-0.01661628	-0.001412943	0.05745865	0.005955206
	0.05750592	-0.002417719	-0.01661628	-0.001412943	-0.01388147	-0.01879793	0.02999239	-0.9691879
	-0.01662016	-0.00141806	0.05745865	0.005955206	0.02999239	-0.9691879	-0.01419182	-0.0145166
3.2e+08	-0.01415267	-0.01817713	-0.01697074	-0.9689346	0.05849541	-0.00555426	-0.01731461	-0.0006042143
	-0.01697074	-0.9689346	-0.01423023	-0.01344758	-0.01731043	-0.0005987046	0.05890313	0.003454583
	0.05849541	-0.00555426	-0.01731043	-0.0005987046	-0.01417382	-0.01818954	-0.01765524	-0.9689059
	-0.01731461	-0.0006042144	0.05890313	0.003454583	-0.01765524	-0.9689059	-0.0142435	-0.0134411
3.3e+08	-0.0143159	-0.01758803	-0.06448935	-0.9663584	0.05926407	-0.00880633	-0.01797357	0.0002835922
	-0.06448935	-0.9663584	-0.01410472	-0.01237748	-0.01796894	0.0002894844	0.06019332	0.0008434218
	0.05926407	-0.00880633	-0.01796894	0.0002894844	-0.01433277	-0.01760188	-0.06519487	-0.9662941
	-0.01797357	0.0002835921	0.06019332	0.0008434217	-0.06519487	-0.9662941	-0.01411156	-0.01236807
3.4e+08	-0.01434874	-0.01703704	-0.1117907	-0.9614636	0.05980275	-0.01215808	-0.01859057	0.001244484
	-0.1117907	-0.9614636	-0.01379535	-0.01133043	-0.01858543	0.001250762	0.06132333	-0.001867027
	0.05980275	-0.01215808	-0.01858543	0.001250762	-0.01436124	-0.01705318	-0.1125134	-0.9613625
	-0.01859057	0.001244484	0.06132333	-0.001867027	-0.1125134	-0.9613625	-0.01379504	-0.0113188
3.5e+08	-0.01425642	-0.01654192	-0.1587614	-0.9542658	0.06010326	-0.0155928	-0.01915874	0.002276996
	-0.1587614	-0.9542658	-0.01330342	-0.01032769	-0.01915315	0.002283624	0.06228762	-0.004665279
	0.06010326	-0.0155928	-0.01915315	0.002283624	-0.01426443	-0.01656117	-0.1595003	-0.9541263
	-0.01915874	0.002276996	0.06228762	-0.004665279	-0.1595003	-0.9541263	-0.0132951	-0.01031451
3.6e+08	-0.01404625	-0.0161199	-0.20529	-0.9447865	0.06015878	-0.01909354	-0.01967152	0.003379003
	-0.20529	-0.9447865	-0.01263221	-0.009390428	-0.01966534	0.003385962	0.06308225	-0.007539702
	0.06015878	-0.01909354	-0.01966534	0.003385962	-0.01404984	-0.01614324	-0.206042	-0.9446058
	-0.01967152	0.003379003	0.06308225	-0.007539702	-0.206042	-0.9446058	-0.01261528	-0.009376654
3.7e+08	-0.01372704	-0.01578743	-0.251269	-0.9330492	0.05996357	-0.02264277	-0.02012212	0.004547828
	-0.251269	-0.9330492	-0.01178707	-0.008539463	-0.0201153	0.004555091	0.06370367	-0.01047872
	0.05996357	-0.02264277	-0.0201153	0.004555091	-0.01372632	-0.0158157	-0.2520329	-0.9328266
	-0.02012212	0.004547828	0.06370367	-0.01047872	-0.2520329	-0.9328266	-0.01176102	-0.008525935
3.8e+08	-0.01331019	-0.01555997	-0.2965876	-0.9190856	0.05951335	-0.02622262	-0.02050402	0.005780072
	-0.2965876	-0.9190856	-0.01077583	-0.007795357	-0.02049651	0.005787603	0.06414943	-0.01347058
	0.05951335	-0.02622262	-0.02049651	0.005787603	-0.01330548	-0.01559423	-0.29736	-0.9188187
	-0.02050402	0.005780072	0.06414943	-0.01347058	-0.29736	-0.9188187	-0.01074018	-0.007783151
3.9e+08	-0.01280817	-0.0154517	-0.3411422	-0.902931	0.05880501	-0.0298149	-0.0208108	0.007071795
	-0.3411422	-0.902931	-0.009608202	-0.007177635	-0.02080246	0.007079527	0.06441789	-0.01650381
	0.05880501	-0.0298149	-0.02080246	0.007079527	-0.01279985	-0.01549285	-0.3419216	-0.9026184
	-0.0208108	0.007071795	0.06441789	-0.01650381	-0.3419216	-0.9026184	-0.009562563	-0.00716772
4e+08	-0.01223593	-0.0154756	-0.384826	-0.8846263	0.05783671	-0.03340128	-0.02103638	0.008418373
	-0.384826	-0.8846263	-0.008296085	-0.006705231	-0.02102718	0.008426282	0.06450832	-0.01956712
	0.05783671	-0.03340128	-0.02102718	0.008426282	-0.01222444	-0.01552461	-0.3856098	-0.8842666
	-0.02103638	0.008418373	0.06450832	-0.01956712	-0.3856098	-0.8842666	-0.00824019	-0.006698692
4.1e+08	-0.01160958	-0.01564277	-0.4275367	-0.8642178	0.05660798	-0.03696314	-0.02117479	0.009814527
	-0.4275367	-0.8642178	-0.006853397	-0.006395718	-0.02116478	0.009822565	0.0644205	-0.02264912
	0.05660798	-0.03696314	-0.02116478	0.009822565	-0.01159555	-0.01570059	-0.4283212	-0.8638102
	-0.02117479	0.009814527	0.0644205	-0.02264912	-0.4283212	-0.8638102	-0.006787131	-0.006393703
4.2e+08	-0.01094628	-0.01596292	-0.4691734	-0.8417541	0.05511943	-0.04048222	-0.02122069	0.01125455
	-0.4691734	-0.8417541	-0.005295859	-0.006265643	-0.02120974	0.01126265	0.06415518	-0.02573892
	0.05511943	-0.04048222	-0.02120974	0.01126265	-0.01093059	-0.0160305	-0.4699567	-0.8412974
	-0.02122069	0.01125455	0.06415518	-0.02573892	-0.4699567	-0.8412974	-0.005218994	-0.006269288
4.3e+08	-0.01026494	-0.0164436	-0.509638	-0.8172911	0.05337334	-0.04394013	-0.02116901	0.0127321
	-0.509638	-0.8172911	-0.003640689	-0.00632987	-0.02115699	0.01274016	0.06371361	-0.02882589
	0.05337334	-0.04394013	-0.02115699	0.01274016	-0.0102484	-0.01652178	-0.5104166	-0.8167857
	-0.02116901	0.0127321	0.06371361	-0.02882589	-0.5104166	-0.8167857	-0.003553446	-0.006340218
4.4e+08	-0.00958519	-0.01709047	-0.5488356	-0.7908895	0.051373	-0.04731866	-0.02101502	0.01424029
	-0.5488356	-0.7908895	-0.001907062	-0.006601489	-0.0210021	0.01424831	0.06309799	-0.03189994
	0.051373	-0.04731866	-0.0210021	0.01424831	-0.009568864	-0.01718006	-0.5496059	-0.7903329
	-0.02101502	0.01424029	0.06309799	-0.03189994	-0.5496059	-0.7903329	-0.001809485	-0.006619945
4.5e+08	-0.008927638	-0.01790718	-0.5866728	-0.7626139	0.04912288	-0.05059988	-0.02075473	0.01577181
	-0.5866728	-0.7626139	-0.0001154789	-0.007092319	-0.0207408	0.01577969	0.06231081	-0.03495101
	0.04912288	-0.05059988	-0.0207408	0.01577969	-0.008912507	-0.01800886	-0.5874319	-0.7620066
	-0.02075473	0.01577181	0.06231081	-0.03495101	-0.5874319	-0.7620066	-7.815089e-06	-0.0071199
4.6e+08	-0.008313034	-0.01889503	-0.6230601	-0.7325307	0.04662908	-0.05376607	-0.02038468	0.01731901
	-0.6230601	-0.7325307	0.001712422	-0.007811528	-0.02036973	0.01732666	0.06135535	-0.03796987
	0.04662908	-0.05376607	-0.02036973	0.01732666	-0.008300531	-0.01900957	-0.6238046	-0.7318716
	-0.02038468	0.01731901	0.06135535	-0.03796987	-0.6238046	-0.7318716	0.001829927	-0.007849729
4.7e+08	-0.007763021	-0.02005308	-0.6579109	-0.7007143	0.04389853	-0.05680023	-0.019902	0.0188737
	-0.6579109	-0.7007143	0.003553794	-0.008766959	-0.01988591	0.01888101	0.06023508	-0.04094723
	0.04389853	-0.05680023	-0.01988591	0.01888101	-0.007754262	-0.02018091	-0.6586393	-0.7000047
	-0.019902	0.0188737	0.06023508	-0.04094723	-0.6586393	-0.7000047	0.00368056	-0.008816669
4.8e+08	-0.007299146	-0.02137794	-0.691142	-0.6672433	0.04093957	-0.05968562	-0.01930433	0.0204274
	-0.691142	-0.6672433	0.0053847	-0.009963425	-0.01928713	0.02043429	0.05895424	-0.04387474
	0.04093957	-0.05968562	-0.01928713	0.02043429	-0.007295866	-0.02151963	-0.6918494	-0.6664819
	-0.01930433	0.0204274	0.05895424	-0.04387474	-0.6918494	-0.6664819	0.005520292	-0.01002617
4.9e+08	-0.006942504	-0.02286413	-0.722677	-0.6321987	0.03776173	-0.06240627	-0.01859035	0.02197161
	-0.722677	-0.6321987	0.007181122	-0.01140409	-0.01857204	0.02197799	0.05751732	-0.04674425
	0.03776173	-0.06240627	-0.01857204	0.02197799	-0.006946104	-0.02301989	-0.7233598	-0.6313859
	-0.01859035	0.02197161	0.05751732	-0.04674425	-0.7233598	-0.6313859	0.007324793	-0.01148092
5e+08	-0.006714442	-0.02450381	-0.7524367	-0.5956647	0.03437528	-0.06494673	-0.01775906	0.02349738
	-0.7524367	-0.5956647	0.008917757	-0.01308986	-0.01773966	0.02350316	0.05592901	-0.04954847
	0.03437528	-0.06494673	-0.01773966	0.02350316	-0.006726491	-0.02467371	-0.753093	-0.5948013
	-0.01775906	0.02349738	0.05592901	-0.04954847	-0.753093	-0.5948013	0.009068803	-0.01318182
5.1e+08	-0.006635129	-0.02628653	-0.7803537	-0.5577301	0.03079188	-0.06729244	-0.01681031	0.0249957
	-0.7803537	-0.5577301	0.01057007	-0.01501853	-0.01678983	0.02500081	0.05419437	-0.05228011
	0.03079188	-0.06729244	-0.01678983	0.02500081	-0.0066574	-0.02647068	-0.7809789	-0.5568166
