# GHz S RI R 45
0.000     0.028822007000    0.000000000000    -0.000023482167    0.000000000000    0.000723041990    0.000000000000    -0.000029257600    0.000000000000
            -0.000023481564    0.000000000000    0.029216525000    0.000000000000    -0.000019043455    0.000000000000    0.000573631870    0.000000000000
            0.000723038490    0.000000000000    -0.000019043124    0.000000000000    0.028771759000    0.000000000000    -0.000028534087    0.000000000000
            -0.000029257214    0.000000000000    0.000573606760    0.000000000000    -0.000028534443    0.000000000000    0.029164179000    0.000000000000
0.025     0.036110164544    0.008721630922    -0.000041370770    -0.000057029091    0.004154754238    0.011330514313    -0.000046126363    -0.000065330125
            -0.000041370386    -0.000057029170    0.034833206878    0.008779167198    -0.000052440419    -0.000059839719    0.002686843926    0.012162453798
            0.004154735131    0.011330564989    -0.000052439759    -0.000059839872    0.036051464150    0.008723298332    -0.000058256965    -0.000064198431
            -0.000046125957    -0.000065330204    0.002686694223    0.012162282047    -0.000058257304    -0.000064198354    0.034757989068    0.008759313576
0.050     0.045765980064    0.009222964838    -0.000086217673    -0.000099499204    0.013137039105    0.019073124322    -0.000097493719    -0.000118325331
            -0.000086217234    -0.000099499399    0.040268392900    0.011336817866    -0.000098672097    -0.000088392752    0.008660145583    0.022407061993
            0.013137027862    0.019073139352    -0.000098671487    -0.000088393013    0.045729415492    0.009266725504    -0.000108733675    -0.000101923024
            -0.000097493292    -0.000118325528    0.008660150099    0.022407052743    -0.000108734033    -0.000101922861    0.040141576723    0.011346628870
0.075     0.055716608564    0.003603406137    -0.000150837316    -0.000117227294    0.025129139684    0.020809562116    -0.000174457181    -0.000141709265
            -0.000150837004    -0.000117227516    0.044722084294    0.011123359570    -0.000155957605    -0.000096860532    0.016953628699    0.029203167868
            0.025129132739    0.020809568934    -0.000155957148    -0.000096860851    0.055747375273    0.003668604345    -0.000175892175    -0.000115045728
            -0.000174456824    -0.000141709531    0.016953608365    0.029203171579    -0.000175892530    -0.000115045478    0.044553620824    0.011205400967
0.100     0.062988769425    -0.008362607788    -0.000223275278    -0.000106699160    0.036716041195    0.015636529275    -0.000261773839    -0.000130984072
            -0.000223274975    -0.000106699446    0.047143971678    0.008629867192    -0.000218197790    -0.000081728338    0.025624368607    0.032105752725
            0.036716041296    0.015636531589    -0.000218197408    -0.000081728759    0.063117387320    -0.008309862254    -0.000250097246    -0.000099516984
            -0.000261773535    -0.000130984434    0.025624343190    0.032105757658    -0.000250097525    -0.000099516691    0.046968405180    0.008820336923
0.125     0.064273425433    -0.025115373928    -0.000293765762    -0.000068011455    0.044414098014    0.004355206811    -0.000347405060    -0.000085892859
            -0.000293765562    -0.000068011787    0.046414952780    0.005162937259    -0.000277586823    -0.000042503677    0.032804266215    0.031648609565
            0.044414099822    0.004355208866    -0.000277586494    -0.000042504172    0.064517031253    -0.025122945460    -0.000321539866    -0.000054668849
            -0.000347404805    -0.000085893311    0.032804243217    0.031648616119    -0.000321540120    -0.000054668488    0.046286289968    0.005475136839
0.150     0.057264010555    -0.043638645846    -0.000354932140    -0.000003650314    0.045437171625    -0.010667768256    -0.000421953057    -0.000009182071
            -0.000354932130    -0.000003650314    0.042074896481    0.002492412515    -0.000327669659    0.000018650495    0.037137932528    0.029181752410
            0.045437173945    -0.010667767127    -0.000327669682    0.000018650439    0.057621873490    -0.043762700560    -0.000382056276    0.000017027086
            -0.000421952738    -0.000009182948    0.037137905964    0.029181761940    -0.000382056285    0.000017027086    0.042063954108    0.002910254971
0.175     0.041164041568    -0.059812517929    -0.000400643514    0.000084211077    0.038304463821    -0.025943561444    -0.000477406182    0.000096293969
            -0.000400643362    0.000084210096    0.034699346242    0.002630535378    -0.000363053704    0.000099770652    0.038078561133    0.026552621330
            0.038304466383    -0.025943561229    -0.000363053642    0.000099770158    0.041609458028    -0.060114952974    -0.000424644400    0.000112976837
            -0.000477406136    0.000096293439    0.038078538883    0.026552630509    -0.000424644419    0.000112976843    0.034863657531    0.003097110659
0.200     0.017207031210    -0.069365270752    -0.000424356490    0.000193553926    0.023263408469    -0.037513320453    -0.000505576616    0.000227410323
            -0.000424356534    0.000193552962    0.025807225712    0.007193794275    -0.000377985985    0.000198706265    0.036062366710    0.025684685220
            0.023263411487    -0.037513320934    -0.000377986047    0.000198705287    0.017684178543    -0.069900849305    -0.000442169552    0.000230024142
            -0.000505576625    0.000227410327    0.036062341776    0.025684697819    -0.000442169514    0.000230025102    0.026171676103    0.007621383921
0.225     -0.011441038754    -0.068782396751    -0.000417291049    0.000320700708    0.002402893017    -0.041757050374    -0.000496227807    0.000378854660
            -0.000417291041    0.000320700702    0.017658847843    0.016969129279    -0.000364909481    0.000311830372    0.032458335083    0.028087337553
            0.002402894589    -0.041757052287    -0.000364909594    0.000311829917    -0.011016373529    -0.069584466598    -0.000425860083    0.000363046466
            -0.000496228050    0.000378853749    0.032458315308    0.028087348180    -0.000425860113    0.000363046492    0.018200620011    0.017258089321
0.250     -0.040112957536    -0.056173535998    -0.000369559163    0.000457568777    -0.020605791779    -0.036244085241    -0.000438498294    0.000540400168
            -0.000369559163    0.000457568777    0.012813771077    0.031605482515    -0.000315570079    0.000431557016    0.029285833719    0.034425235226
            -0.020605785948    -0.036244089706    -0.000315570079    0.000431557016    -0.039844026771    -0.057239018563    -0.000366734583    0.000502534223
            -0.000438498702    0.000540399321    0.029285818557    0.034425244186    -0.000366734589    0.000502534231    0.013459102109    0.031671032216
0.275     -0.063485314675    -0.031877853338    -0.000273273132    0.000589473133    -0.041171301848    -0.020408439876    -0.000324248341    0.000694741726
            -0.000273273128    0.000589473124    0.013543522550    0.049504875999    -0.000223719987    0.000544725668    0.028714770863    0.044258486533
            -0.041171297390    -0.020408446618    -0.000223720569    0.000544724921    -0.063477220524    -0.033157289444    -0.000258495873    0.000633003788
            -0.000324248608    0.000694741348    0.028714749779    0.044258501405    -0.000258495526    0.000633004200    0.014177377043    0.049303381349
0.300     -0.076682822105    0.001347580555    -0.000127479563    0.000696464728    -0.054754730962    0.004143574155    -0.000153272369    0.000819226657
            -0.000127479556    0.000696464688    0.021219476530    0.068069372715    -0.000089407113    0.000633866460    0.032485239110    0.056088403814
            -0.054754731959    0.004143574231    -0.000089407874    0.000633865858    -0.077020641099    -0.000047909567    -0.000102055095    0.000734680347
            -0.000153272369    0.000819226657    0.032485226886    0.056088412050    -0.000102054385    0.000734680970    0.021710958269    0.067616738298
0.325     -0.076376798568    0.038737870605    0.000058455848    0.000757651073    -0.057892706635    0.033859606340    0.000063254694    0.000890587157
            0.000058455445    0.000757650844    0.035885390355    0.084226053890    0.000078354522    0.000681159467    0.041413726815    0.067701912803
            -0.057892707498    0.033859606845    0.000078353709    0.000681158997    -0.077102278166    0.037361955489    0.000091777550    0.000787806616
            0.000063253880    0.000890586694    0.041413691090    0.067701939345    0.000091777537    0.000787806617    0.036118234936    0.083601396019
0.350     -0.061582305585    0.074423450891    0.000265205076    0.000757870823    -0.048996624424    0.063955277637    0.000303395582    0.000892159756
            0.000265205066    0.000757870795    0.056170271882    0.095142692222    0.000262118702    0.000674184189    0.055176698106    0.076734676726
            -0.048996624424    0.063955277637    0.000262117778    0.000674183937    -0.062677295017    0.073219885755    0.000303111695    0.000778899312
            0.000303394714    0.000892159502    0.055176701540    0.076734673025    0.000303111661    0.000778899346    0.056073191588    0.094476446806
0.375     -0.033883612005    0.102597817715    0.000467910597    0.000692448265    -0.028664307326    0.089397480507    0.000539335368    0.000818878197
            0.000467909669    0.000692448144    0.079568315130    0.098855356737    0.000440152965    0.000609841591    0.072400437620    0.081224708357
            -0.028664307631    0.089397481459    0.000440152043    0.000609841479    -0.035264854421    0.101708599014    0.000507555477    0.000704833406
            0.000539335388    0.000818878196    0.072400403596    0.081224738684    0.000507555464    0.000704833415    0.079135200945    0.098302356326
0.400     0.002892071231    0.118610846760    0.000642863208    0.000568547450    0.000497700161    0.105869740147    0.000744662103    0.000678642734
            0.000642863220    0.000568547421    0.102988101099    0.094672332733    0.000592234581    0.000495186499    0.091013422373    0.080023282535
            0.000497698314    0.105869740156    0.000592234655    0.000495186473    0.001365684121    0.118139426654    0.000682575144    0.000573655976
            0.000744662103    0.000678642734    0.091013425167    0.080023279358    0.000682575141    0.000573655994    0.102283334105    0.094380774535
0.425     0.043420778378    0.119715624463    0.000773054475    0.000402245564    0.034426138054    0.110454408502    0.000900316114    0.000489055410
            0.000773054033    0.000402245677    0.123362244247    0.083241063691    0.000704307095    0.000344563800    0.108675163843    0.072952597572
            0.034426094427    0.110454390676    0.000704306232    0.000344564017    0.041929454448    0.119705210441    0.000812492947    0.000401369048
            0.000900315288    0.000489055674    0.108675166389    0.072952593778    0.000812493387    0.000401368947    0.122511767162    0.083321585440
0.450     0.081773493301    0.105408771206    0.000851161306    0.000213575888    0.068290464144    0.101995857995    0.000997800236    0.000272008705
            0.000851161253    0.000213575812    0.138182901214    0.066368089223    0.000770681358    0.000175221325    0.123191779657    0.060784750311
            0.068290462364    0.101995859187    0.000770680577    0.000175221742    0.080511095952    0.105828633717    0.000890880337    0.000207100673
            0.000997800232    0.000272008722    0.123191771750    0.060784743736    0.000890880324    0.000207100686    0.137353439856    0.066870727028
0.475     0.112258640172    0.077394503962    0.000879213617    0.000021250461    0.097154437938    0.081162926375    0.001038729753    0.000047945623
            0.000879213260    0.000021250742    0.145860106947    0.046673736650    0.000793422792    0.000002858287    0.132827143325    0.045084308158
            0.097154437938    0.081162926375    0.000793422451    0.000002858580    0.111403725730    0.078137358451    0.000919787907    0.000008220329
            0.001038729439    0.000047945915    0.132827144112    0.045084305840    0.000919788642    0.000008219761    0.145232257166    0.047574744969
0.500     0.130131314064    0.039329341721    0.000866192935    -0.000161402106    0.116561959762    0.050360788651    0.001032119506    -0.000168510536
            0.000866192312    -0.000161401411    0.145936400882    0.027198285298    0.000780077095    -0.000161543872    0.136557041573    0.028008446242
            0.116561958883    0.050360790685    0.000780076528    -0.000161543158    0.129818676960    0.040217652000    0.000907182027    -0.000183118161
            0.001032119503    -0.000168510555    0.136557041573    0.028008446242    0.000907182020    -0.000183118143    0.145672353433    0.028397698065
0.525     0.132162000178    -0.003579307514    0.000823968666    -0.000328816902    0.123050945247    0.013530801601    0.000989910624    -0.000370976017
            0.000823968641    -0.000328816909    0.139161671512    0.010980430582    0.000740207682    -0.000313426553    0.134256344145    0.012039196700
            0.123050945105    0.013530802889    0.000740207257    -0.000313425764    0.132455929915    -0.002776653460    0.000863073778    -0.000361709178
            0.000989910327    -0.000370975098    0.134256344145    0.012039196700    0.000863074187    -0.000361709650    0.139375923356    0.012311693953
0.550     0.117128064495    -0.045088310935    0.000762557058    -0.000483516866    0.114683799443    -0.024155626122    0.000921862902    -0.000561414998
            0.000762557058    -0.000483516866    0.127481928672    0.000622804899    0.000681572346    -0.000454619642    0.126853585759    -0.000354108213
            0.114683799443    -0.024155626122    0.000681572346    -0.000454619642    0.118000009123    -0.044629540860    0.000795352041    -0.000529081476
            0.000921862912    -0.000561414982    0.126853575760    -0.000354107920    0.000795352318    -0.000529082341    0.128211459616    0.001874374631
0.575     0.086204599827    -0.078604592002    0.000685121002    -0.000633620813    0.091549621302    -0.056803057737    0.000830428199    -0.000747226799
            0.000685120972    -0.000633620786    0.113871012994    -0.002184250958    0.000606201181    -0.000591137096    0.116350040237    -0.007177079829
            0.091549621302    -0.056803057737    0.000606201169    -0.000591136650    0.087520559167    -0.078738304226    0.000705704311    -0.000690893681
            0.000830428070    -0.000747225896    0.116349995518    -0.007176992680    0.000705704326    -0.000690893695    0.115056765485    -0.001233747576
0.600     0.043177937044    -0.098115014041    0.000584730384    -0.000787168907    0.056161346632    -0.078605807534    0.000707669652    -0.000935090625
            0.000584730358    -0.000787168901    0.101962939890    0.002868452483    0.000508024888    -0.000728415832    0.105631817503    -0.007436365148
            0.056161348957    -0.078605810789    0.000508024957    -0.000728414955    0.044699176571    -0.099034739361    0.000587372703    -0.000851728704
            0.000707669652    -0.000935090625    0.105631827530    -0.007436365113    0.000587372639    -0.000851729598    0.103446562471    0.003332615030
0.625     -0.005742560888    -0.099319119124    0.000445382337    -0.000943942116    0.013478266373    -0.084940332498    0.000536816054    -0.001122496340
            0.000445382304    -0.000943942131    0.095385375987    0.014378269335    0.000374022088    -0.000864651841    0.097935886152    -0.001604764523
            0.013478266687    -0.084940334473    0.000374022096    -0.000864651860    -0.004336323134    -0.101116502346    0.000426747423    -0.001008135215
            0.000536817498    -0.001122492213    0.097935886152    -0.001604764540    0.000426747422    -0.001008136193    0.096929539631    0.014253554178
0.650     -0.052720337706    -0.080763223115    0.000249560440    -0.001088810053    -0.029675999713    -0.073559438122    0.000300513066    -0.001291160934
            0.000249560821    -0.001088808837    0.096889352418    0.029266132963    0.000190819888    -0.000985611529    0.096052296365    0.008246195347
            -0.029675999713    -0.073559438122    0.000190819871    -0.000985611532    -0.051783128862    -0.083391003406    0.000210604440    -0.001143474850
            0.000300512616    -0.001291161450    0.096052300595    0.008246192839    0.000210604732    -0.001143475203    0.098223353396    0.028568829152
0.675     -0.089723532309    -0.044529779729    -0.000009680521    -0.001191840386    -0.065874257158    -0.045412611021    -0.000006521933    -0.001407778693
            -0.000009680543    -0.001191840486    0.107499569136    0.043342951179    -0.000045189853    -0.001065290950    0.101461484808    0.018820347946
            -0.065874260452    -0.045412613292    -0.000045189594    -0.001065290560    -0.089578665182    -0.047789954781    -0.000063260361    -0.001229095802
            -0.000006519066    -0.001407775206    0.101461476267    0.018820393988    -0.000063260254    -0.001229095808    0.108381888355    0.042215408662
0.700     -0.110286604603    0.003920327335    -0.000318870658    -0.001218272430    -0.088751147951    -0.004689911952    -0.000367500068    -0.001434848390
            -0.000318870632    -0.001218272333    0.126109976142    0.052335381983    -0.000320015153    -0.001074889132    0.113844424108    0.026462778488
            -0.088751147951    -0.004689911952    -0.000320014549    -0.001074888477    -0.111157316795    0.000353848951    -0.000378059128    -0.001234122388
            -0.000367500068    -0.001434848390    0.113844404248    0.026462863928    -0.000378059128    -0.001234122388    0.126386934325    0.051019173626
0.725     -0.110967111248    0.056880818842    -0.000644002866    -0.001143475269    -0.094445056055    0.042098858225    -0.000744003132    -0.001346567050
            -0.000644002866    -0.001143475269    0.149724468017    0.053000238340    -0.000602846087    -0.000995588173    0.131169992851    0.028159692748
            -0.094445063403    0.042098841741    -0.000602846087    -0.000995588173    -0.112927530563    0.053407319395    -0.000699226790    -0.001138990186
            -0.000744003132    -0.001346567050    0.131169974175    0.028159779743    -0.000699226790    -0.001138990186    0.149368210081    0.051780642701
0.750     -0.091964973668    0.106134588184    -0.000941175515    -0.000964170498    -0.082304344826    0.087657487918    -0.001087489315    -0.001140426875
            -0.000941175515    -0.000964170498    0.174289117974    0.043869505861    -0.000855886672    -0.000827496177    0.150351572984    0.022254397509
            -0.082304344826    0.087657487918    -0.000855886672    -0.000827496177    -0.094922209014    0.103153605991    -0.000985112296    -0.000944821745
            -0.001087489315    -0.001140426875    0.150351559117    0.022254491191    -0.000985112296    -0.000944821745    0.173399473992    0.043013693724
0.775     -0.056725342187    0.144635135714    -0.001171042993    -0.000699226572    -0.054634604948    0.125436957448    -0.001354782587    -0.000837854214
            -0.001171042993    -0.000699226572    0.195687106673    0.025401170932    -0.001046886772    -0.000589279804    0.168060722208    0.008637334889
            -0.054634610868    0.125436911240    -0.001046886772    -0.000589279804    -0.060438548760    0.142477764064    -0.001200419464    -0.000672827941
            -0.001354782587    -0.000837854214    0.168060710277    0.008637372214    -0.001200419464    -0.000672827941    0.194465815671    0.025104823243
