# GHz S RI R 45
0.000     0.028822007000    0.000000000000    -0.000055507371    0.000000000000    0.000723041990    0.000000000000    -0.000067479158    0.000000000000
            -0.000055507231    0.000000000000    0.028983910000    0.000000000000    -0.000045022326    0.000000000000    0.000634902450    0.000000000000
            0.000723038490    0.000000000000    -0.000045021941    0.000000000000    0.028771759000    0.000000000000    -0.000070531576    0.000000000000
            -0.000067478822    0.000000000000    0.000634903320    0.000000000000    -0.000070531762    0.000000000000    0.028966263000    0.000000000000
0.025     0.036110164544    0.008721630922    -0.000099159622    -0.000195224033    0.004154754238    0.011330514313    -0.000128307304    -0.000253372595
            -0.000099159511    -0.000195224067    0.034664336001    0.008778590070    -0.000083375899    -0.000156248211    0.002830205601    0.012043436766
            0.004154735131    0.011330564989    -0.000083375566    -0.000156248309    0.036051464150    0.008723298332    -0.000097838909    -0.000188695010
            -0.000128307524    -0.000253372809    0.002830082224    0.012043268529    -0.000097839079    -0.000188694855    0.034574395904    0.008714573918
0.050     0.045765980064    0.009222964838    -0.000248450696    -0.000358780409    0.013137039105    0.019073124322    -0.000317720309    -0.000462440308
            -0.000248450565    -0.000358780488    0.039953172385    0.011348411225    -0.000203347736    -0.000283547278    0.008571363732    0.022125748771
            0.013137027862    0.019073139352    -0.000203347404    -0.000283547442    0.045729415492    0.009266725504    -0.000242944475    -0.000364971656
            -0.000317720045    -0.000462440441    0.008571394239    0.022125736952    -0.000242944608    -0.000364971580    0.039776188244    0.011260613655
0.075     0.055716608564    0.003603406137    -0.000473456729    -0.000436933841    0.025129139684    0.020809562116    -0.000603154342    -0.000568471953
            -0.000473456721    -0.000436933834    0.044233035960    0.011347869259    -0.000382461859    -0.000343349724    0.016522650978    0.029024295096
            0.025129132739    0.020809568934    -0.000382461567    -0.000343349945    0.055747375273    0.003668604345    -0.000474771167    -0.000453337959
            -0.000603153979    -0.000568472207    0.016522657022    0.029024295108    -0.000474771246    -0.000453337876    0.043947500448    0.011305864072
0.100     0.062988769425    -0.008362607788    -0.000729971905    -0.000417192527    0.036716041195    0.015636529275    -0.000934506368    -0.000552886797
            -0.000729971897    -0.000417192522    0.046617072381    0.009248226701    -0.000586763424    -0.000325135295    0.024942909655    0.032296826973
            0.036716041296    0.015636531589    -0.000586762769    -0.000325136003    0.063117387320    -0.008309862254    -0.000744811939    -0.000438600298
            -0.000934506368    -0.000552886797    0.024942910830    0.032296827329    -0.000744812588    -0.000438599630    0.046246344693    0.009325554810
0.125     0.064273425433    -0.025115373928    -0.000984517437    -0.000300307383    0.044414098014    0.004355206811    -0.001270851358    -0.000411175440
            -0.000984517437    -0.000300307383    0.046106660955    0.006251430620    -0.000789484750    -0.000228428305    0.032124300610    0.032383809218
            0.044414099822    0.004355208866    -0.000789484466    -0.000228428820    0.064517031253    -0.025122945460    -0.001016610843    -0.000317840574
            -0.001270851358    -0.000411175440    0.032124301315    0.032383809928    -0.001016611105    -0.000317840072    0.045712463884    0.006499573299
0.150     0.057264010555    -0.043638645846    -0.001212739075    -0.000093821091    0.045437171625    -0.010667768256    -0.001578398486    -0.000147849106
            -0.001212738710    -0.000093821914    0.042283906448    0.003965488501    -0.000970056141    -0.000058560194    0.036795638188    0.030472444200
            0.045437173945    -0.010667767127    -0.000970056151    -0.000058560195    0.057621873490    -0.043762700560    -0.001260339142    -0.000096232598
            -0.001578398486    -0.000147849106    0.036795639728    0.030472445476    -0.001260339142    -0.000096232598    0.041959775450    0.004399397260
0.175     0.041164041568    -0.059812517929    -0.001394912782    0.000196592644    0.038304463821    -0.025943561444    -0.001826304014    0.000231940381
            -0.001394912751    0.000196592144    0.035675431924    0.004226362591    -0.001110932542    0.000179666976    0.038402740036    0.028213440491
            0.038304466383    -0.025943561229    -0.001110932506    0.000179666572    0.041609458028    -0.060114952974    -0.001449101330    0.000219177702
            -0.001826303955    0.000231940050    0.038402741647    0.028213441675    -0.001449101330    0.000219177702    0.035513926518    0.004808524250
0.200     0.017207031210    -0.069365270752    -0.001509022283    0.000567435347    0.023263408469    -0.037513320453    -0.001980650674    0.000721212659
            -0.001509022184    0.000567435611    0.027650798419    0.008511134233    -0.001192921591    0.000481700376    0.037264050211    0.027352840614
            0.023263411487    -0.037513320934    -0.001192921591    0.000481700376    0.017684178543    -0.069900849305    -0.001555076862    0.000618932363
            -0.001980650674    0.000721212659    0.037264043019    0.027352845343    -0.001555076862    0.000618932363    0.027718286529    0.009156949394
0.225     -0.011441038754    -0.068782396751    -0.001523781740    0.001010759404    0.002402893017    -0.041757050374    -0.001998891126    0.001303875182
            -0.001523781740    0.001010759404    0.020250720033    0.017555212429    -0.001190579237    0.000838208947    0.034541860011    0.029296318332
            0.002402894589    -0.041757052287    -0.001190579366    0.000838208416    -0.011016373529    -0.069584466598    -0.001545485052    0.001085689907
            -0.001998891186    0.001303874724    0.034541862559    0.029296318420    -0.001545485052    0.001085689907    0.020565280127    0.018150466312
0.250     -0.040112957536    -0.056173535998    -0.001400914029    0.001503592772    -0.020605791779    -0.036244085241    -0.001834531257    0.001944234131
            -0.001400914029    0.001503592772    0.015794474279    0.031081675027    -0.001074892641    0.001227460828    0.032002717795    0.034726717176
            -0.020605785948    -0.036244089706    -0.001074893086    0.001227460040    -0.039844026771    -0.057239018563    -0.001386777061    0.001587164193
            -0.001834531729    0.001944233273    0.032002720968    0.034726716971    -0.001386777061    0.001587164193    0.016314423102    0.031509687268
0.275     -0.063485314675    -0.031877853338    -0.001105666909    0.001998476239    -0.041171301848    -0.020408439876    -0.001449701198    0.002578861489
            -0.001105666909    0.001998476239    0.016368891111    0.047694610080    -0.000821875542    0.001609166966    0.031593194758    0.043358946343
            -0.041171297390    -0.020408446618    -0.000821876012    0.001609166501    -0.063477220524    -0.033157289444    -0.001054337673    0.002070677232
            -0.001449701550    0.002578861062    0.031593198963    0.043358945754    -0.001054337673    0.002070677232    0.016995746015    0.047867712376
0.300     -0.076682822105    0.001347580555    -0.000624759395    0.002425325434    -0.054754730962    0.004143574155    -0.000834440170    0.003121083643
            -0.000624759395    0.002425325434    0.023283392195    0.065084235114    -0.000426106424    0.001927356602    0.034932521227    0.053957237315
            -0.054754731959    0.004143574231    -0.000426106087    0.001927356677    -0.077020641099    -0.000047909567    -0.000546807626    0.002468110416
            -0.000834440170    0.003121083643    0.034932524994    0.053957234876    -0.000546806851    0.002468110997    0.023882292031    0.064970334331
0.325     -0.076376798568    0.038737870605    0.000018914445    0.002704956471    -0.057892706635    0.033859606340    -0.000021198033    0.003477355089
            0.000018914446    0.002704956571    0.036678983313    0.080471298771    0.000089169303    0.002121969392    0.042867558296    0.064606520259
            -0.057892707498    0.033859606845    0.000089169303    0.002121969392    -0.077102278166    0.037361955489    0.000104081045    0.002709359181
            -0.000021198033    0.003477355089    0.042867562806    0.064606517266    0.000104081045    0.002709359181    0.037109042562    0.080107101113
0.350     -0.061582305585    0.074423450891    0.000763550951    0.002772579310    -0.048996624424    0.063955277637    0.000914211384    0.003573505529
            0.000763550951    0.002772579310    0.055420492701    0.091236093401    0.000671910026    0.002147229407    0.055250898460    0.073190852871
            -0.048996624424    0.063955277637    0.000671910026    0.002147229407    -0.062677295017    0.073219885755    0.000834913344    0.002742615460
            0.000914211446    0.003573505513    0.055250901690    0.073190849180    0.000834913315    0.002742615365    0.055569847233    0.090723537985
0.375     -0.033883612005    0.102597817715    0.001520826943    0.002597823717    -0.028664307326    0.089397480507    0.001867760786    0.003375650511
            0.001520826994    0.002597823803    0.077312742575    0.095485388915    0.001252729035    0.001985795019    0.070981433729    0.077880679511
            -0.028664307631    0.089397481459    0.001252729035    0.001985795019    -0.035264854421    0.101708599014    0.001564032275    0.002549076160
            0.001867756287    0.003375650029    0.070981431071    0.077880668403    0.001564032283    0.002549076272    0.077125762529    0.094971472326
0.400     0.002892071231    0.118610846760    0.002198753281    0.002194163301    0.000497700161    0.105869740147    0.002732874641    0.002899419041
            0.002198753351    0.002194163372    0.099566492795    0.092448747730    0.001763250374    0.001653800366    0.088284219222    0.077521939147
            0.000497698314    0.105869740156    0.001763250374    0.001653800366    0.001365684121    0.118139426654    0.002212050688    0.002147497909
            0.002732874641    0.002899419041    0.088284221928    0.077521936065    0.002212050688    0.002147497909    0.099059922106    0.092094449895
0.425     0.043420778378    0.119715624463    0.002723955322    0.001612829983    0.034426138054    0.110454408502    0.003424580097    0.002201982063
            0.002723955322    0.001612829983    0.119345278833    0.082573372734    0.002152293507    0.001193649631    0.105078787229    0.071808550426
            0.034426094427    0.110454390676    0.002152293528    0.001193649593    0.041929454448    0.119705210441    0.002719146843    0.001585623408
            0.003424580097    0.002201982063    0.105078780226    0.071808542950    0.002719146757    0.001585623358    0.118606872342    0.082521855453
0.450     0.081773493301    0.105408771206    0.003056627273    0.000927009539    0.068290464144    0.101995857995    0.003895089674    0.001364117172
            0.003056627273    0.000927009539    0.134266671406    0.067398066508    0.002395022702    0.000660669184    0.119356203900    0.061295272283
            0.068290462364    0.101995859187    0.002395022702    0.000660669184    0.080511095952    0.105828633717    0.003054651736    0.000925213697
            0.003895089674    0.001364117172    0.119356204970    0.061295270200    0.003054651736    0.000925213697    0.133441308629    0.067744194847
0.475     0.112258640172    0.077394503962    0.003193825556    0.000211977362    0.097154437938    0.081162926375    0.004136353787    0.000468526398
            0.003193825658    0.000211977346    0.142753645416    0.049250238090    0.002492811128    0.000108319319    0.129472368617    0.047273936940
            0.097154437938    0.081162926375    0.002492811127    0.000108319332    0.111403725730    0.078137358451    0.003216159541    0.000226004440
            0.004136353787    0.000468526398    0.129472369442    0.047273934680    0.003216159541    0.000226004440    0.142020014017    0.050021218950
0.500     0.130131314064    0.039329341721    0.003163845399    -0.000472452925    0.116561959762    0.050360788651    0.004172985015    -0.000418690754
            0.003163845294    -0.000472452949    0.144253763578    0.030888837945    0.002467114523    -0.000423243889    0.134390112007    0.031602373199
            0.116561958883    0.050360790685    0.002467108606    -0.000423236983    0.129818676960    0.040217652000    0.003222479258    -0.000466211951
            0.004172985011    -0.000418690797    0.134390112007    0.031602373199    0.003222479170    -0.000466211858    0.143793391948    0.032033542418
0.525     0.132162000178    -0.003579307514    0.003012581937    -0.001094344170    0.123050945247    0.013530801601    0.004047052168    -0.001260088359
            0.003012581918    -0.001094344222    0.139319041379    0.015109705666    0.002348792766    -0.000913881775    0.133853981816    0.016465601890
            0.123050945105    0.013530802889    0.002348792782    -0.000913881734    0.132455929915    -0.002776653460    0.003101893080    -0.001126063827
            0.004047052168    -0.001260088359    0.133853972092    0.016465599034    0.003101893193    -0.001126063807    0.139285085610    0.016500570860
0.550     0.117128064495    -0.045088310935    0.002785683219    -0.001654539110    0.114683799443    -0.024155626122    0.003799251163    -0.002050477128
            0.002785683219    -0.001654539110    0.129596252885    0.004347676777    0.002165966442    -0.001364862957    0.128531335574    0.004083293536
            0.114683799443    -0.024155626122    0.002165966442    -0.001364862957    0.118000009123    -0.044629540860    0.002879503913    -0.001748991313
            0.003799251040    -0.002050477147    0.128531335574    0.004083293536    0.002879503913    -0.001748991313    0.130079907249    0.005794875114
0.575     0.086204599827    -0.078604592002    0.002508059237    -0.002180904709    0.091549621302    -0.056803057737    0.003448749855    -0.002809329279
            0.002508059464    -0.002180904753    0.117674272886    0.000250728999    0.001930952595    -0.001793269202    0.120037177787    -0.003685747950
            0.091549621302    -0.056803057737    0.001930952490    -0.001793269168    0.087520559167    -0.078738304226    0.002564557714    -0.002344532493
            0.003448749855    -0.002809329279    0.120037187113    -0.003685770045    0.002564557714    -0.002344532493    0.118679488973    0.001530710380
0.600     0.043177937044    -0.098115014041    0.002168206128    -0.002710089253    0.056161346632    -0.078605807534    0.002979122933    -0.003561015790
            0.002168206128    -0.002710089253    0.106769426807    0.003272945247    0.001631241163    -0.002218567325    0.110796120797    -0.005790287687
            0.056161348957    -0.078605810789    0.001631241125    -0.002218567353    0.044699176571    -0.099034739361    0.002142709902    -0.002921954643
            0.002979122933    -0.003561015790    0.110796120807    -0.005790287493    0.002142709953    -0.002921954606    0.108199296763    0.004169666861
0.625     -0.005742560888    -0.099319119124    0.001715900573    -0.003258041159    0.013478266373    -0.084940332498    0.002338850510    -0.004305166223
            0.001715900573    -0.003258041159    0.100165733293    0.012377653882    0.001230228214    -0.002642094846    0.103620265255    -0.002398474163
            0.013478266687    -0.084940334473    0.001230228168    -0.002642094868    -0.004336323134    -0.101116502346    0.001578784020    -0.003469928587
            0.002338850510    -0.004305166223    0.103620265239    -0.002398474887    0.001578784020    -0.003469928587    0.101828963557    0.012729919973
0.650     -0.052720337706    -0.080763223115    0.001083017462    -0.003791757362    -0.029675999713    -0.073559438122    0.001464929488    -0.004990263911
            0.001083017462    -0.003791757362    0.100483551437    0.025029304743    0.000684312939    -0.003028938613    0.101065107385    0.004940871844
            -0.029675999713    -0.073559438122    0.000684312939    -0.003028938613    -0.051783128862    -0.083391003406    0.000835800526    -0.003940062378
            0.001464929488    -0.004990263911    0.101065107385    0.004940871844    0.000835800526    -0.003940062378    0.102126205133    0.024774808250
0.675     -0.089723532309    -0.044529779729    0.000223983319    -0.004220005850    -0.065874257158    -0.045412611021    0.000324683367    -0.005507812922
            0.000223983319    -0.004220005850    0.108930284870    0.037613503120    -0.000027024395    -0.003304921812    0.104686660596    0.013534934695
            -0.065874260452    -0.045412613292    -0.000027024453    -0.003304921812    -0.089578665182    -0.047789954781    -0.000094239623    -0.004246796504
            0.000324683367    -0.005507812922    0.104686660596    0.013534934695    -0.000094239549    -0.004246796506    0.110289441932    0.036811882277
0.700     -0.110286604603    0.003920327335    -0.000843452645    -0.004417821953    -0.088751147951    -0.004689911952    -0.001044438604    -0.005721027425
            -0.000843452570    -0.004417821561    0.124876072320    0.046263642977    -0.000873620173    -0.003378953306    0.114556264975    0.020210989714
            -0.088751147951    -0.004689911952    -0.000873620298    -0.003378953790    -0.111157316795    0.000353848951    -0.001164071503    -0.004292966097
            -0.001044438604    -0.005721027425    0.114556264975    0.020210989714    -0.001164071503    -0.004292966097    0.125739662871    0.045089822957
0.725     -0.110967111248    0.056880818842    -0.002023977942    -0.004275279179    -0.094445056055    0.042098858225    -0.002523916074    -0.005516406434
            -0.002023977984    -0.004275279270    0.145941931423    0.047829633418    -0.001769688658    -0.003181209159    0.129214007966    0.022157276488
            -0.094445063403    0.042098841741    -0.001769688658    -0.003181209159    -0.112927530563    0.053407319395    -0.002269323466    -0.004009892097
            -0.002523911729    -0.005516404573    0.129214009242    0.022157269045    -0.002269323515    -0.004009892184    0.146198181729    0.046534968850
0.750     -0.091964973668    0.106134588184    -0.003168424629    -0.003744705722    -0.082304344826    0.087657487918    -0.003942135357    -0.004851618209
            -0.003168424629    -0.003744705722    0.168625604160    0.040614590316    -0.002597950814    -0.002695892364    0.146131820056    0.017609036576
            -0.082304344826    0.087657487918    -0.002597950814    -0.002695892364    -0.094922209014    0.103153605991    -0.003276422494    -0.003389949315
            -0.003942135357    -0.004851618209    0.146131820056    0.017609036576    -0.003276422494    -0.003389949315    0.168284663850    0.039472333027
0.775     -0.056725342187    0.144635135714    -0.004120301432    -0.002859008898    -0.054634604948    0.125436957448    -0.005124721967    -0.003771969353
            -0.004120301432    -0.002859008898    0.189149245186    0.024640856354    -0.003247950421    -0.001968111237    0.162382742110    0.006128259746
            -0.054634610868    0.125436911240    -0.003247950421    -0.001968111237    -0.060438548760    0.142477764064    -0.004063670926    -0.002491256933
            -0.005124721967    -0.003771969353    0.162382742110    0.006128259746    -0.004063670926    -0.002491256933    0.188335701526    0.023889571319
