# GHz S RI R 45
0.000     0.028822007000    0.000000000000    0.970748350000    -0.000000000000    0.000723041990    0.000000000000    -0.000888735840    0.000000000000
            0.970748350000    -0.000000000000    0.028626637000    0.000000000000    -0.000890076640    0.000000000000    0.000513587570    0.000000000000
            0.000723038490    0.000000000000    -0.000890050570    0.000000000000    0.028771759000    0.000000000000    0.970769650000    -0.000000000000
            -0.000888708770    0.000000000000    0.000513586850    0.000000000000    0.970769650000    -0.000000000000    0.028595299000    0.000000000000
0.025     0.036110164544    0.008721630922    0.942541817524    -0.215389220087    0.004154754238    0.011330514313    -0.001439383178    -0.002044152042
            0.942541817524    -0.215389220087    0.034136561957    0.008724650995    -0.001435963846    -0.002041177609    0.002643368673    0.011877227915
            0.004154735131    0.011330564989    -0.001435935743    -0.002041245918    0.036051464150    0.008723298332    0.942686623795    -0.215040940010
            -0.001439455842    -0.002044227950    0.002643244470    0.011877059884    0.942686623795    -0.215040940010    0.034044003127    0.008736075007
0.050     0.045765980064    0.009222964838    0.869867875815    -0.414883442206    0.013137039105    0.019073124322    -0.003099643806    -0.003604219302
            0.869867875815    -0.414883442206    0.039227011997    0.011378328107    -0.003092799646    -0.003602742869    0.008115820943    0.021882545074
            0.013137027862    0.019073139352    -0.003092774905    -0.003602762395    0.045729415492    0.009266725504    0.870244008030    -0.414287918030
            -0.003099620098    -0.003604240087    0.008115851114    0.021882533884    0.870244008030    -0.414287918030    0.039099864568    0.011454312607
0.075     0.055716608564    0.003603406137    0.756466132860    -0.592989976926    0.025129139684    0.020809562116    -0.005369731337    -0.004191778440
            0.756466132860    -0.592989976926    0.043294628202    0.011646960792    -0.005359332056    -0.004192308121    0.015717607473    0.028949589773
            0.025129132739    0.020809568934    -0.005359306911    -0.004192326145    0.055747375273    0.003668604345    0.757168313188    -0.592236700983
            -0.005369707889    -0.004191794827    0.015717613480    0.028949588788    0.757168313188    -0.592236700983    0.043153654616    0.011816557381
0.100     0.062988769425    -0.008362607788    0.607746760914    -0.741525965821    0.036716041195    0.015636529275    -0.007762167643    -0.003839303152
            0.607746760914    -0.741525965821    0.045588876564    0.010011168484    -0.007746908574    -0.003844415826    0.023884524184    0.032654413689
            0.036716041296    0.015636531589    -0.007746888032    -0.003844437648    0.063117387320    -0.008309862254    0.608848973512    -0.740734630563
            -0.007762149265    -0.003839326099    0.023884523023    0.032654413299    0.608848973512    -0.740734630563    0.045467821914    0.010295129132
0.125     0.064273425433    -0.025115373928    0.431028804079    -0.853850110536    0.044414098014    0.004355206811    -0.010027646871    -0.002729385256
            0.431028804079    -0.853850110536    0.045235598549    0.007587031240    -0.010007919941    -0.002743743723    0.031065457758    0.033357174544
            0.044414099822    0.004355208866    -0.010007905528    -0.002743769820    0.064517031253    -0.025122945460    0.432570504510    -0.853166626891
            -0.010027633924    -0.002729406169    0.031065457077    0.033357173812    0.432570504510    -0.853166626891    0.045180051472    0.007988065953
0.150     0.057264010555    -0.043638645846    0.234762351198    -0.924972515848    0.045437171625    -0.010667768256    -0.012129761205    -0.001007852140
            0.234762351198    -0.924972515848    0.041887957535    0.005838288502    -0.012109730058    -0.001037011875    0.036085098332    0.032086288175
            0.045437173945    -0.010667767127    -0.012109719734    -0.001037038669    0.057621873490    -0.043762700560    0.236736229606    -0.924554744124
            -0.012129750770    -0.001007881116    0.036085096837    0.032086286846    0.236736229606    -0.924554744124    0.041954355537    0.006338888174
0.175     0.041164041568    -0.059812517929    0.028183317992    -0.951757751190    0.038304463821    -0.025943561444    -0.014106711028    0.001374555019
            0.028183317992    -0.951757751190    0.036044600131    0.006415157504    -0.014094937736    0.001327313169    0.038390264292    0.030293980405
            0.038304466383    -0.025943561229    -0.014094933315    0.001327285452    0.041609458028    -0.060114952974    0.030534113935    -0.951764604626
            -0.014106706700    0.001374527257    0.038390271935    0.030293975563    0.030534113935    -0.951764604626    0.036279385577    0.006966853782
0.200     0.017207031210    -0.069365270752    -0.178946240246    -0.932956520141    0.023263408469    -0.037513320453    -0.015865485085    0.004651258916
            -0.178946240246    -0.932956520141    0.028948357600    0.010639179162    -0.015873244650    0.004588059961    0.038191926070    0.029539757180
            0.023263411487    -0.037513320934    -0.015873245132    0.004588033084    0.017684178543    -0.069900849305    -0.176322540333    -0.933536659997
            -0.015865486486    0.004651229256    0.038191923182    0.029539756011    -0.176322542189    -0.933536669823    0.029373233863    0.011169850782
0.225     -0.011441038754    -0.068782396751    -0.376622918020    -0.869392774496    0.002402893017    -0.041757050374    -0.017018720176    0.009082554925
            -0.376622918020    -0.869392774496    0.022433699690    0.019168206491    -0.017056291961    0.009012547362    0.036449788856    0.031112590303
            0.002402894589    -0.041757052287    -0.017056299240    0.009012520743    -0.011016373529    -0.069584466598    -0.373882053539    -0.870665568201
            -0.017018726682    0.009082527867    0.036449785489    0.031112589627    -0.373882053539    -0.870665568201    0.023034630105    0.019595897493
0.250     -0.040112957536    -0.056173535998    -0.555059111901    -0.764167115529    -0.020605791779    -0.036244085241    -0.016877617496    0.014697335845
            -0.555059111901    -0.764167115529    0.018582578220    0.031765251402    -0.016949630405    0.014635619382    0.034676728663    0.035695549834
            -0.020605785948    -0.036244089706    -0.016949639393    0.014635601323    -0.039844026771    -0.057239018563    -0.552397210606    -0.766206779689
            -0.016877626551    0.014697317833    0.034676726720    0.035695550328    -0.552397210606    -0.766206779689    0.019306271901    0.032016766792
0.275     -0.063485314675    -0.031877853338    -0.705298167439    -0.622702838425    -0.041171301848    -0.020408439876    -0.014638501072    0.021057658600
            -0.705298167439    -0.622702838425    0.019281097914    0.047201211043    -0.014740781081    0.021021353013    0.034583839116    0.043140544812
            -0.041171297390    -0.020408446618    -0.014740794833    0.021021333599    -0.063477220524    -0.033157289444    -0.702938648665    -0.625528718030
            -0.014638517986    0.021057635881    0.034583839997    0.043140542824    -0.702938648665    -0.625528718030    0.020040735264    0.047231478709
0.300     -0.076682822105    0.001347580555    -0.819935225871    -0.452550331620    -0.054754730962    0.004143574155    -0.009725933530    0.027195974412
            -0.819935225871    -0.452550331620    0.025743534092    0.063428031263    -0.009845219066    0.027198452288    0.037646927814    0.052462086098
            -0.054754731959    0.004143574231    -0.009845239397    0.027198434293    -0.077020641099    -0.000047909567    -0.818110098746    -0.456106174518
            -0.009725953896    0.027195956508    0.037646924484    0.052462087257    -0.818110098746    -0.456106174518    0.026435807704    0.063235260566
0.325     -0.076376798568    0.038737870605    -0.893740215168    -0.262849510305    -0.057892706635    0.033859606340    -0.002134703962    0.031797747149
            -0.893740215168    -0.262849510305    0.038162684115    0.077952842624    -0.002251894228    0.031843427903    0.044712819183    0.062045079129
            -0.057892707498    0.033859606845    -0.002251918392    0.031843414164    -0.077102278166    0.037361955489    -0.892665157673    -0.267013392690
            -0.002134724936    0.031797735718    0.044712815934    0.062045081470    -0.892665157673    -0.267013392690    0.038688452815    0.077583673994
0.350     -0.061582305585    0.074423450891    -0.924048448544    -0.063555289797    -0.048996624424    0.063955277637    0.007400871307    0.033598456286
            -0.924048448544    -0.063555289797    0.055594464235    0.088384328574    0.007304211201    0.033680982131    0.055783291688    0.070040696626
            -0.048996624424    0.063955277637    0.007304193422    0.033680976777    -0.062677295017    0.073219885755    -0.923898986036    -0.068141480061
            0.007400852736    0.033598450137    0.055783289866    0.070040699355    -0.923898986036    -0.068141480061    0.055882860032    0.087928162738
0.375     -0.033883612005    0.102597817715    -0.910741782138    0.135410791883    -0.028664307326    0.089397480507    0.017519453148    0.031819856427
            -0.910741782138    0.135410791883    0.076122155717    0.092937449470    0.017454893412    0.031924257942    0.070015119276    0.074784926881
            -0.028664307631    0.089397481459    0.017454865677    0.031924254871    -0.035264854421    0.101708599014    -0.911638672870    0.130629099209
            0.017519425365    0.031819854600    0.070015115360    0.074784930547    -0.911638672870    0.130629099209    0.076146912314    0.092509632048
0.400     0.002892071231    0.118610846760    -0.855925233689    0.324868681010    0.000497700161    0.105869740147    0.026599292596    0.026469085545
            -0.855925224339    0.324868677462    0.097249789693    0.090807721264    0.026567586671    0.026577597809    0.085935572426    0.075154488754
            0.000497698314    0.105869740156    0.026567567982    0.026577599524    0.001365684121    0.118139426654    -0.857927096349    0.320143689265
            0.026599265054    0.026469087704    0.085935569803    0.075154491753    -0.857927096349    0.320143689265    0.097037328763    0.090527765117
0.425     0.043420778378    0.119715624463    -0.763397131011    0.496799158558    0.034426138054    0.110454408502    0.033228822578    0.018362467072
            -0.763397131011    0.496799158558    0.116382723206    0.082287351061    0.033220275395    0.018461514900    0.101746381465    0.070743520901
            0.034426094427    0.110454390676    0.033220247832    0.018461525384    0.041929454448    0.119705210441    -0.766500982334    0.492389096008
            0.033228798959    0.018362476732    0.101746388440    0.070743528385    -0.766500982334    0.492389096008    0.116009634299    0.082255650843
0.450     0.081773493301    0.105408771206    -0.638125984695    0.644485842429    0.068290464144    0.101995857995    0.036611304962    0.008884003659
            -0.638125984695    0.644485842429    0.131290796951    0.068678747127    0.036610349048    0.008970011214    0.115656008194    0.061903602078
            0.068290462364    0.101995859187    0.036610325239    0.008970024345    0.080511095952    0.105828633717    -0.642273050626    0.640640293513
            0.036611281340    0.008884016196    0.115656014850    0.061903610834    -0.642273050626    0.640640293513    0.130871382319    0.068957163899
0.475     0.112258640172    0.077394503962    -0.485860147341    0.762433575769    0.097154437938    0.081162926375    0.036759727507    -0.000435909655
            -0.485860147341    0.762433575769    0.140446017231    0.052035943925    0.036752172581    -0.000354475219    0.126145199081    0.049652647514
            0.097154437938    0.081162926375    0.036752172581    -0.000354475219    0.111403725730    0.078137358451    -0.490946155355    0.759389299749
            0.036759727507    -0.000435909655    0.126145199081    0.049652647514    -0.490946155355    0.759389299749    0.140114718868    0.052635748985
0.500     0.130131314064    0.039329341721    -0.312938711320    0.846227000910    0.116561959762    0.050360788651    0.034440078493    -0.008376345409
            -0.312938711320    0.846227000910    0.143241275423    0.034842302581    0.034421134616    -0.008281214003    0.132192641914    0.035535708796
            0.116561958883    0.050360790685    0.034421134616    -0.008281214003    0.129818676960    0.040217652000    -0.318812179851    0.844200296325
            0.034440020280    -0.008376275863    0.132192650331    0.035535716006    -0.318812179851    0.844200296325    0.143130145679    0.035717553465
0.525     0.132162000178    -0.003579307514    -0.126263935871    0.892416314129    0.123050945247    0.013530801601    0.030872749646    -0.014382320444
            -0.126263935871    0.892416314129    0.140071706147    0.019643349211    0.030852236488    -0.014252902076    0.133434118466    0.021420727169
            0.123050945105    0.013530802889    0.030852214752    -0.014252863286    0.132455929915    -0.002776653460    -0.132730118493    0.891604527997
            0.030872728058    -0.014382281534    0.133434118205    0.021420728800    -0.132730118493    0.891604527997    0.140288311243    0.020695310095
0.550     0.117128064495    -0.045088310935    0.066610422623    0.898566889813    0.114683799443    -0.024155626122    0.027279275714    -0.018713738238
            0.066610422623    0.898566889813    0.132326014719    0.008682689918    0.027282300623    -0.018536586099    0.130293039187    0.009251935852
            0.114683799443    -0.024155626122    0.027282300623    -0.018536586099    0.118000009123    -0.044629540860    0.059794276639    0.899138040566
            0.027279275714    -0.018713738238    0.130293039187    0.009251935852    0.059794276639    0.899138040566    0.132931500249    0.009771130790
0.575     0.086204599827    -0.078604592002    0.257390581571    0.863483869307    0.091549621302    -0.056803057737    0.024391392238    -0.022310877438
            0.257390581571    0.863483869307    0.122244289179    0.003523211273    0.024452814309    -0.022089390359    0.124010210906    0.000718096162
            0.091549621302    -0.056803057737    0.024452814309    -0.022089390359    0.087520559167    -0.078738304226    0.250522480146    0.865570749530
            0.024391392238    -0.022310877438    0.124010210906    0.000718096162    0.250522480146    0.865570749530    0.123237617383    0.004487421063
0.600     0.043177937044    -0.098115014041    0.437119324319    0.787648479150    0.056161346632    -0.078605807534    0.022094586988    -0.026376533557
            0.437119324319    0.787648479150    0.112644593036    0.004697308919    0.022247977750    -0.026136570582    0.116550095584    -0.003118180023
            0.056161348957    -0.078605810789    0.022247986181    -0.026136480672    0.044699176571    -0.099034739361    0.430547319121    0.791319343749
            0.022094586988    -0.026376533557    0.116550095595    -0.003118179616    0.430547319121    0.791319343749    0.113954181099    0.005384862702
0.625     -0.005742560888    -0.099319119124    0.596532585158    0.673734105823    0.013478266373    -0.084940332498    0.019379657203    -0.031768683956
            0.596532585158    0.673734105823    0.106449932710    0.011450972440    0.019643377770    -0.031556281012    0.110276318561    -0.002177765231
            0.013478266687    -0.084940334473    0.019643392208    -0.031556236687    -0.004336323134    -0.101116502346    0.590648325969    0.678967310630
            0.019379657203    -0.031768683956    0.110276318572    -0.002177764653    0.590648325969    0.678967310630    0.107940151517    0.011749161640
0.650     -0.052720337706    -0.080763223115    0.726828561183    0.526985255937    -0.029675999713    -0.073559438122    0.014710237809    -0.038434750987
            0.726828561183    0.526985255937    0.106081270458    0.021716395236    0.015075645513    -0.038305981896    0.107447785913    0.002463803362
            -0.029675999713    -0.073559438122    0.015075646182    -0.038305981632    -0.051783128862    -0.083391003406    0.722034777244    0.533653026395
            0.014710237809    -0.038434750987    0.107447785913    0.002463803362    0.722034777244    0.533653026395    0.107574727850    0.021581199530
0.675     -0.089723532309    -0.044529779729    0.820687730448    0.355200520823    -0.065874257158    -0.045412611021    0.006729969907    -0.045173400079
            0.820687730448    0.355200520823    0.112814464458    0.032423561300    0.007157946644    -0.045177063999    0.109599551253    0.008706297205
            -0.065874260452    -0.045412613292    0.007158004276    -0.045176994119    -0.089578665182    -0.047789954781    0.817361619396    0.363051526667
            0.006729969907    -0.045173400079    0.109599550949    0.008706301030    0.817361619396    0.363051526667    0.114127776444    0.031894876307
0.700     -0.110286604603    0.003920327335    0.873305527321    0.168098792770    -0.088751147951    -0.004689911952    -0.004981182069    -0.049928736332
            0.873305527321    0.168098792770    0.126373956877    0.040154291320    -0.004552872247    -0.050089311771    0.117094911454    0.013911364180
            -0.088751147951    -0.004689911952    -0.004552872247    -0.050089311771    -0.111157316795    0.000353848951    0.871748596528    0.176772399467
            -0.004981182069    -0.049928736332    0.117094911454    0.013911364180    0.871748596528    0.176772399467    0.127357858126    0.039351298926
0.725     -0.110967111248    0.056880818842    0.882964296478    -0.023784457326    -0.094445056055    0.042098858225    -0.019489044827    -0.050535032423
            0.882964296520    -0.023784455785    0.144917014720    0.041959306542    -0.019128894181    -0.050843093672    0.128989187597    0.015576261495
            -0.094445063403    0.042098841741    -0.019128855939    -0.050843072802    -0.112927530563    0.053407319395    0.883370469620    -0.014732352779
            -0.019489045187    -0.050535033356    0.128989187189    0.015576264872    0.883370479618    -0.014732352945    0.145490883498    0.041055508598
0.750     -0.091964973668    0.106134588184    0.850972189085    -0.210366376223    -0.082304344826    0.087657487918    -0.034662815342    -0.045583420831
            0.850972192756    -0.210366361371    0.165485709955    0.036044555416    -0.034426499017    -0.045996871738    0.143328903291    0.011950671401
            -0.082304344826    0.087657487918    -0.034426416933    -0.045996845739    -0.094922209014    0.103153605991    0.853404497987    -0.201408944557
            -0.034662815948    -0.045583421627    0.143328902665    0.011950678906    0.853404497987    -0.201408944557    0.165653034620    0.035230777347
0.775     -0.056725342187    0.144635135714    0.781006002882    -0.382950168481    -0.054634604948    0.125436957448    -0.047825724611    -0.034991334671
            0.781006002882    -0.382950168481    0.184700106317    0.022105151832    -0.047740679940    -0.035447705114    0.157662375014    0.002359526596
            -0.054634610868    0.125436911240    -0.047740678334    -0.035447703922    -0.060438548760    0.142477764064    0.785404225847    -0.374551951390
            -0.047825722996    -0.034991333490    0.157662375010    0.002359526844    0.785404225847    -0.374551951390    0.184545364220    0.021549932101
