# GHz S RI R 45
0.000     0.028822007000    0.000000000000    -0.000002513093    0.000000000000    0.000723041990    0.000000000000    -0.000007259149    0.000000000000
            -0.000002513129    0.000000000000    0.027465670000    0.000000000000    0.000025910186    0.000000000000    0.000642826820    -0.000000000000
            0.000723038490    0.000000000000    0.000025910167    0.000000000000    0.028771759000    0.000000000000    -0.000007964928    0.000000000000
            -0.000007259304    0.000000000000    0.000642822390    -0.000000000000    -0.000007964901    0.000000000000    0.027422994000    0.000000000000
0.025     0.036110164544    0.008721630922    -0.000003109114    0.000002669965    0.004154754238    0.011330514313    0.000002741740    0.000006201470
            -0.000003109146    0.000002669979    0.034355511561    0.007801654787    0.000055856091    0.000137551813    0.003789862296    0.010100755758
            0.004154735131    0.011330564989    0.000055856077    0.000137551819    0.036051464150    0.008723298332    0.000004165600    0.000007885654
            0.000002741597    0.000006201525    0.003789841442    0.010100806306    0.000004165631    0.000007885644    0.034276155891    0.007695965907
0.050     0.045765980064    0.009222964838    -0.000000835210    0.000006372794    0.013137039105    0.019073124322    0.000006382699    0.000002008853
            -0.000000835240    0.000006372826    0.043641516236    0.008044694375    0.000134217014    0.000261714781    0.012174744467    0.017068159972
            0.013137027862    0.019073139352    0.000134216995    0.000261714790    0.045729415492    0.009266725504    0.000008509336    0.000003746196
            0.000006382578    0.000002008963    0.012174732178    0.017068174879    0.000008509360    0.000003746181    0.043517324261    0.007875988807
0.075     0.055716608564    0.003603406137    0.000002754661    0.000008061403    0.025129139684    0.020809562116    0.000006644575    -0.000001238557
            0.000002754651    0.000008061442    0.053658880717    0.002679969694    0.000249803029    0.000347456605    0.023663230357    0.018641419124
            0.025129132739    0.020809568934    0.000249803023    0.000347456621    0.055747375273    0.003668604345    0.000008881238    0.000000903684
            0.000006644504    -0.000001238416    0.023663221954    0.018641426560    0.000008881258    0.000000903661    0.053489322357    0.002475757086
0.100     0.062988769425    -0.008362607788    0.000006405213    0.000008155575    0.036716041195    0.015636529275    0.000005732361    -0.000003640938
            0.000006405214    0.000008155610    0.061854145516    -0.008767614655    0.000386747563    0.000387944423    0.035311607935    0.013817360240
            0.036716041296    0.015636531589    0.000386747563    0.000387944436    0.063117387320    -0.008309862254    0.000008156228    -0.000000594050
            0.000005732344    -0.000003640777    0.035311607901    0.013817363069    0.000008156240    -0.000000594081    0.061655964976    -0.008978426516
0.125     0.064273425433    -0.025115373928    0.000009829313    0.000007175450    0.044414098014    0.004355206811    0.000004298482    -0.000005236477
            0.000009829326    0.000007175486    0.065176475640    -0.025268218290    0.000529482046    0.000381094484    0.044011775930    0.003002398795
            0.044414099822    0.004355208866    0.000529482055    0.000381094505    0.064517031253    -0.025122945460    0.000007521487    -0.000000925921
            0.000004298519    -0.000005236334    0.044011776718    0.003002401936    0.000007521488    -0.000000925960    0.064990706967    -0.025468795758
0.150     0.057264010555    -0.043638645846    0.000013123341    0.000005172033    0.045437171625    -0.010667768256    0.000002771039    -0.000006195454
            0.000013123364    0.000005172057    0.061310920685    -0.044500348578    0.000663878165    0.000328434051    0.047109996989    -0.012043032300
            0.045437173945    -0.010667767127    0.000663878178    0.000328434071    0.057621873490    -0.043762700560    0.000007714054    -0.000000769046
            0.000002771121    -0.000006195337    0.047109999557    -0.012043030328    0.000007714046    -0.000000769076    0.061169370721    -0.044696980632
0.175     0.041164041568    -0.059812517929    0.000016100549    0.000001793608    0.038304463821    -0.025943561444    0.000001358809    -0.000006872534
            0.000016100580    0.000001793621    0.049012275623    -0.063057360528    0.000776400881    0.000234832943    0.042907500160    -0.028516261689
            0.038304466383    -0.025943561229    0.000776400896    0.000234832962    0.041609458028    -0.060114952974    0.000008843624    -0.000001150812
            0.000001358936    -0.000006872450    0.042907502486    -0.028516259996    0.000008843605    -0.000001150844    0.048954985301    -0.063276210875
0.200     0.017207031210    -0.069365270752    0.000017965135    -0.000003268402    0.023263408469    -0.037513320453    -0.000000124734    -0.000007606166
            0.000017965166    -0.000003268402    0.028680718928    -0.077159512026    0.000855062801    0.000108962692    0.031046511397    -0.043040438889
            0.023263411487    -0.037513320934    0.000855062821    0.000108962697    0.017684178543    -0.069900849305    0.000010175414    -0.000002884378
            -0.000000124589    -0.000007606129    0.031046514820    -0.043040438885    0.000010175389    -0.000002884398    0.028733109702    -0.077451887632
0.225     -0.011441038754    -0.068782396751    0.000017508401    -0.000009611165    0.002402893017    -0.041757050374    -0.000002164009    -0.000008403016
            0.000017508438    -0.000009611177    0.002350837261    -0.083369627406    0.000890740021    -0.000036723271    0.012666817772    -0.052264000404
            0.002402894589    -0.041757052287    0.000890740041    -0.000036723273    -0.011016373529    -0.069584466598    0.000010441779    -0.000006059646
            -0.000002163864    -0.000008403041    0.012666820744    -0.052264000712    0.000010441745    -0.000006059661    0.002508650497    -0.083801013177
0.250     -0.040112957536    -0.056173535998    0.000013779130    -0.000015846488    -0.020605791779    -0.036244085241    -0.000005155373    -0.000008722824
            0.000013779152    -0.000015846508    -0.026530595318    -0.079278255950    0.000878826056    -0.000186803547    -0.009689302773    -0.053509261023
            -0.020605785948    -0.036244089706    0.000878826076    -0.000186803552    -0.039844026771    -0.057239018563    0.000008556032    -0.000009717211
            -0.000005155241    -0.000008722893    -0.009689303129    -0.053509262991    0.000008555990    -0.000009717212    -0.026306083769    -0.079912011869
0.275     -0.063485314675    -0.031877853338    0.000006916087    -0.000019931613    -0.041171301848    -0.020408439876    -0.000008957864    -0.000007672721
            0.000006916103    -0.000019931646    -0.053624476205    -0.064040110001    0.000820556080    -0.000324759577    -0.032447580937    -0.045333634140
            -0.041171297390    -0.020408446618    0.000820556090    -0.000324759580    -0.063477220524    -0.033157289444    0.000004305983    -0.000012223327
            -0.000008957774    -0.000007672823    -0.032447582101    -0.045333635766    0.000004305944    -0.000012223314    -0.053404166813    -0.064919947478
0.300     -0.076682822105    0.001347580555    -0.000001529157    -0.000020116490    -0.054754730962    0.004143574155    -0.000012662971    -0.000004537067
            -0.000001529156    -0.000020116523    -0.074421129995    -0.038691988697    0.000723265296    -0.000435584594    -0.051606617431    -0.027908878878
            -0.054754731959    0.004143574231    0.000723265306    -0.000435584617    -0.077020641099    -0.000047909567    -0.000001260762    -0.000012075339
            -0.000012662919    -0.000004537201    -0.051606619190    -0.027908879829    -0.000001260799    -0.000012075315    -0.074297891676    -0.039826810977
0.325     -0.076376798568    0.038737870605    -0.000009041096    -0.000015959150    -0.057892706635    0.033859606340    -0.000014899693    0.000000640040
            -0.000009041108    -0.000015959183    -0.085052735189    -0.006103937248    0.000599184684    -0.000508308477    -0.063458246109    -0.003093145770
            -0.057892707498    0.033859606845    0.000599184683    -0.000508308494    -0.077102278166    0.037361955489    -0.000006259017    -0.000008768589
            -0.000014899690    0.000000639905    -0.063458247108    -0.003093145819    -0.000006259042    -0.000008768553    -0.085123510989    -0.007458360677
0.350     -0.061582305585    0.074423450891    -0.000013288779    -0.000008721439    -0.048996624424    0.063955277637    -0.000014497544    0.000006836397
            -0.000013288799    -0.000008721468    -0.083043735857    0.029408275264    0.000463090983    -0.000537513086    -0.065297623851    0.025819415415
            -0.048996624424    0.063955277637    0.000463090980    -0.000537513102    -0.062677295017    0.073219885755    -0.000008854078    -0.000003181107
            -0.000014497585    0.000006836271    -0.065297624781    0.025819415783    -0.000008854092    -0.000003181064    -0.083388088013    0.027914389264
0.375     -0.033883612005    0.102597817715    -0.000013250858    -0.000000856583    -0.028664307326    0.089397480507    -0.000011159934    0.000012426178
            -0.000013250883    -0.000000856597    -0.067801621927    0.062775011723    0.000329701026    -0.000523357519    -0.055934347948    0.054635794252
            -0.028664307631    0.089397481459    0.000329701017    -0.000523357525    -0.035264854421    0.101708599014    -0.000008210855    0.000002851576
            -0.000011160016    0.000012426077    -0.055934358914    0.054635785887    -0.000008210855    0.000002851620    -0.068462086522    0.061256605581
0.400     0.002892071231    0.118610846760    -0.000009665789    0.000005194583    0.000497700161    0.105869740147    -0.000005671570    0.000015915753
            -0.000009665823    0.000005194576    -0.040784157067    0.089007134933    0.000211758487    -0.000470407409    -0.035935668183    0.078969198247
            0.000497698314    0.105869740156    0.000211758466    -0.000470407429    0.001365684121    0.118139426654    -0.000004856008    0.000007454127
            -0.000005671679    0.000015915689    -0.035935668598    0.078969199157    -0.000004855991    0.000007454173    -0.041752042006    0.087596228733
0.425     0.043420778378    0.119715624463    -0.000004538471    0.000008142793    0.034426138054    0.110454408502    0.000000473400    0.000016639401
            -0.000004538494    0.000008142803    -0.005285596362    0.103996867541    0.000119236095    -0.000386064344    -0.007535856039    0.094941669805
            0.034426094427    0.110454390676    0.000119236082    -0.000386064348    0.041929454448    0.119705210441    -0.000000291779    0.000009636245
            0.000000473262    0.000016639422    -0.007535857775    0.094941670670    -0.000000291748    0.000009636279    -0.006495527243    0.102819710245
0.450     0.081773493301    0.105408771206    -0.000000002836    0.000008345611    0.068290464144    0.101995857995    0.000005799321    0.000014980891
            -0.000000002862    0.000008345626    0.034058292710    0.105153814827    0.000059419636    -0.000279377724    0.025705790884    0.099782166270
            0.068290462364    0.101995859187    0.000059419620    -0.000279377718    0.080511095952    0.105828633717    0.000003882720    0.000009644304
            0.000005799208    0.000014980914    0.025705787401    0.099782167167    0.000003882766    0.000009644324    0.032723241644    0.104307109758
0.475     0.112258640172    0.077394503962    0.000002798212    0.000007399433    0.097154437938    0.081162926375    0.000009528702    0.000012061752
            0.000002798203    0.000007399453    0.071944414218    0.091765181618    0.000037237265    -0.000160537896    0.059421619586    0.092204128120
            0.097154437938    0.081162926375    0.000037237249    -0.000160537890    0.111403725730    0.078137358451    0.000006834293    0.000008633720
            0.000009528602    0.000012061813    0.059421617977    0.092204129157    0.000006834345    0.000008633725    0.070639258918    0.091296054419
0.500     0.130131314064    0.039329341721    0.000004281138    0.000007087280    0.116561959762    0.050360788651    0.000011851810    0.000009053036
            0.000004281133    0.000007087305    0.103129367743    0.065093493114    0.000055260026    -0.000040867317    0.089025600953    0.072586856147
            0.116561958883    0.050360790685    0.000055260006    -0.000040867300    0.129818676960    0.040217652000    0.000008870088    0.000007842119
            0.000011851734    0.000009053125    0.089025600953    0.072586856147    0.000008870143    0.000007842111    0.102026733476    0.064986154416
0.525     0.132162000178    -0.003579307514    0.000006120299    0.000008213438    0.123050945247    0.013530801601    0.000013679496    0.000006487230
            0.000006120303    0.000008213457    0.123110981845    0.028215308705    0.000113133496    0.000067225982    0.110291673109    0.042937117479
            0.123050945105    0.013530802889    0.000113133488    0.000067225996    0.132455929915    -0.002776653460    0.000011157255    0.000007732714
            0.000013679458    0.000006487333    0.110291640233    0.042937146797    0.000011157305    0.000007732684    0.122375648158    0.028385309373
0.550     0.117128064495    -0.045088310935    0.000010202233    0.000009883202    0.114683799443    -0.024155626122    0.000015951968    0.000003900504
            0.000010202239    0.000009883227    0.128715398437    -0.014334809724    0.000206597520    0.000150841765    0.119902319146    0.006693054664
            0.114683799443    -0.024155626122    0.000206597515    0.000150841772    0.118000009123    -0.044629540860    0.000014885680    0.000007539133
            0.000015951972    0.000003900610    0.119902319018    0.006693056966    0.000014885715    0.000007539098    0.128477997280    -0.014037127392
0.575     0.086204599827    -0.078604592002    0.000017261865    0.000009696255    0.091549621302    -0.056803057737    0.000018842505    0.000000048707
            0.000017261882    0.000009696270    0.118534761909    -0.057087849716    0.000326633652    0.000198075624    0.115899739508    -0.031638959553
            0.091549621302    -0.056803057737    0.000326633659    0.000198075652    0.087520559167    -0.078738304226    0.000020285091    0.000005517454
            0.000018842539    0.000000048801    0.115899740060    -0.031638957531    0.000020285111    0.000005517405    0.118866740265    -0.056863188327
0.600     0.043177937044    -0.098115014041    0.000025885781    0.000004912582    0.056161346632    -0.078605807534    0.000021252127    -0.000006293657
            0.000025885885    0.000004912551    0.093201524347    -0.094294763153    0.000459417640    0.000200313241    0.098045699880    -0.066995461495
            0.056161348957    -0.078605810789    0.000459417646    0.000200313253    0.044699176571    -0.099034739361    0.000025998355    -0.000000097853
            0.000021252184    -0.000006293581    0.098045701049    -0.066995459784    0.000025998360    -0.000000097901    0.094094490514    -0.094371579270
0.625     -0.005742560888    -0.099319119124    0.000032588676    -0.000005801975    0.013478266373    -0.084940332498    0.000021030919    -0.000015280989
            0.000032588699    -0.000005801976    0.055428832584    -0.120667147077    0.000587737267    0.000154721175    0.067985190339    -0.094391360332
            0.013478266687    -0.084940334473    0.000587737277    0.000154721178    -0.004336323134    -0.101116502346    0.000029311334    -0.000009824305
            0.000021031003    -0.000015280946    0.067985191987    -0.094391359145    0.000029311317    -0.000009824362    0.056783729565    -0.121269839649
0.650     -0.052720337706    -0.080763223115    0.000033216842    -0.000020987593    -0.029675999713    -0.073559438122    0.000016005853    -0.000025278591
            0.000033216861    -0.000020987599    0.009784829513    -0.132150826595    0.000693959880    0.000065876468    0.029184910012    -0.109651205681
            -0.029675999713    -0.073559438122    0.000693959890    0.000065876468    -0.051783128862    -0.083391003406    0.000027329062    -0.000022046972
            0.000016005942    -0.000025278575    0.029184915753    -0.109651204153    0.000027329028    -0.000022047013    0.011414949897    -0.133461700435
0.675     -0.089723532309    -0.044529779729    0.000025174572    -0.000036360605    -0.065874257158    -0.045412611021    0.000005397515    -0.000033118222
            0.000025174580    -0.000036360619    -0.037841944770    -0.126596987107    0.000763818016    -0.000054563724    -0.013439588858    -0.110093579819
            -0.065874260452    -0.045412613292    0.000763818026    -0.000054563730    -0.089578665182    -0.047789954781    0.000018623353    -0.000033228140
            0.000005397605    -0.000033118236    -0.013439590069    -0.110093589745    0.000018623303    -0.000033228169    -0.036193147402    -0.128721637225
0.700     -0.110286604603    0.003920327335    0.000009185967    -0.000046479808    -0.088751147951    -0.004689911952    -0.000009247560    -0.000035404105
            0.000009185964    -0.000046479823    -0.081056504618    -0.104213680547    0.000789497922    -0.000190415279    -0.054190997494    -0.095069997700
            -0.088751147951    -0.004689911952    0.000789497932    -0.000190415282    -0.111157316795    0.000353848951    0.000004373233    -0.000039323165
            -0.000009247524    -0.000035404144    -0.054190997494    -0.095069997700    0.000004373123    -0.000039323170    -0.079680628211    -0.107153948945
0.725     -0.110967111248    0.056880818842    -0.000010604858    -0.000047320569    -0.094445056055    0.042098858225    -0.000024349897    -0.000030232658
            -0.000010604878    -0.000047320620    -0.113927088040    -0.067635811031    0.000770629193    -0.000324829834    -0.087455131049    -0.066156985855
            -0.094445063403    0.042098841741    0.000770629224    -0.000324829863    -0.112927530563    0.053407319395    -0.000011826239    -0.000037710772
            -0.000024349872    -0.000030232702    -0.087455131049    -0.066156985855    -0.000011826308    -0.000037710760    -0.113107412603    -0.071279159885
0.750     -0.091964973668    0.106134588184    -0.000028386646    -0.000038214263    -0.082304344826    0.087657487918    -0.000035751373    -0.000018244429
            -0.000028386656    -0.000038214276    -0.131937272531    -0.021571793410    0.000712911348    -0.000443698618    -0.108611471326    -0.026969166931
            -0.082304344826    0.087657487918    0.000712911339    -0.000443698613    -0.094922209014    0.103153605991    -0.000025469650    -0.000028462920
            -0.000035751369    -0.000018244474    -0.108611471326    -0.026969166931    -0.000025469747    -0.000028462848    -0.131901839900    -0.025701170920
0.775     -0.056725342187    0.144635135714    -0.000039236700    -0.000022046091    -0.054634604948    0.125436957448    -0.000040491329    -0.000002373077
            -0.000039236706    -0.000022046103    -0.132686752009    0.027935895831    0.000625414658    -0.000537288947    -0.114747272811    0.017419451739
            -0.054634610868    0.125436911240    0.000625414642    -0.000537288951    -0.060438548760    0.142477764064    -0.000033075222    -0.000014226679
            -0.000040491313    -0.000002373162    -0.114747272811    0.017419451739    -0.000033075258    -0.000014226633    -0.133570819776    0.023613824000
