# GHz S RI R 45
0.000     0.028822007000    0.000000000000    -0.000004442136    0.000000000000    0.000723041990    0.000000000000    0.000000047676    -0.000000000000
            -0.000004442048    0.000000000000    0.028512598000    0.000000000000    -0.000007768574    0.000000000000    0.000758619270    -0.000000000000
            0.000723038490    0.000000000000    -0.000007768226    0.000000000000    0.028771759000    0.000000000000    0.000015539266    -0.000000000000
            0.000000047671    -0.000000000000    0.000758619280    -0.000000000000    0.000015539287    -0.000000000000    0.028349244000    0.000000000000
0.025     0.036110164544    0.008721630922    -0.000002963767    -0.000005211098    0.004154754238    0.011330514313    -0.000002799681    -0.000008643824
            -0.000002963683    -0.000005211134    0.035141671607    0.007605543081    -0.000002485585    -0.000004743296    0.003674287198    0.010127944682
            0.004154735131    0.011330564989    -0.000002485467    -0.000004743335    0.036051464150    0.008723298332    -0.000012522705    -0.000020963958
            -0.000002799683    -0.000008643824    0.003674270953    0.010127994190    -0.000012522712    -0.000020963955    0.035097036606    0.007590427354
0.050     0.045765980064    0.009222964838    -0.000011065037    -0.000011371492    0.013137039105    0.019073124322    -0.000013202723    -0.000013343872
            -0.000011064976    -0.000011371544    0.043803386107    0.007733899896    -0.000011430317    -0.000014571840    0.011547033379    0.017299888311
            0.013137027862    0.019073139352    -0.000011430248    -0.000014571899    0.045729415492    0.009266725504    -0.000028341224    -0.000012429578
            -0.000013202726    -0.000013343870    0.011547024379    0.017299900330    -0.000028341224    -0.000012429578    0.043770748711    0.007716506499
0.075     0.055716608564    0.003603406137    -0.000023490474    -0.000008861166    0.025129139684    0.020809562116    -0.000026347031    -0.000009871958
            -0.000023490432    -0.000008861240    0.052738541865    0.002508892438    -0.000027621507    -0.000012862429    0.022246767895    0.019304292837
            0.025129132739    0.020809568934    -0.000027621463    -0.000012862508    0.055747375273    0.003668604345    -0.000037594472    -0.000001510397
            -0.000026347034    -0.000009871948    0.022246761249    0.019304295919    -0.000037594471    -0.000001510397    0.052741219778    0.002486868951
0.100     0.062988769425    -0.008362607788    -0.000033654734    0.000002458446    0.036716041195    0.015636529275    -0.000037114134    0.000002377857
            -0.000033654720    0.000002458368    0.059458964143    -0.008317216866    -0.000041502510    0.000000579297    0.032882011416    0.015280016571
            0.036716041296    0.015636531589    -0.000041502495    0.000000579203    0.063117387320    -0.008309862254    -0.000043053585    0.000013444212
            -0.000037114131    0.000002377850    0.032882011149    0.015280017145    -0.000043053586    0.000013444205    0.059520946387    -0.008357188638
0.125     0.064273425433    -0.025115373928    -0.000036771818    0.000020028710    0.044414098014    0.004355206811    -0.000040739930    0.000021215484
            -0.000036771833    0.000020028627    0.061104390455    -0.023501989768    -0.000046702562    0.000022477760    0.040473897156    0.005767675914
            0.044414099822    0.004355208866    -0.000046702576    0.000022477677    0.064517031253    -0.025122945460    -0.000042475229    0.000032188407
            -0.000040739928    0.000021215483    0.040473897156    0.005767675914    -0.000042475229    0.000032188407    0.061245909993    -0.023586819520
0.150     0.057264010555    -0.043638645846    -0.000030076191    0.000039426158    0.045437171625    -0.010667768256    -0.000034126051    0.000042356389
            -0.000030076239    0.000039426078    0.055598240380    -0.040588840917    -0.000039523640    0.000047248776    0.042562081333    -0.007379501307
            0.045437173945    -0.010667767127    -0.000039523686    0.000047248697    0.057621873490    -0.043762700560    -0.000033296272    0.000052236789
            -0.000034126051    0.000042356389    0.042562081333    -0.007379501307    -0.000033296282    0.000052236784    0.055830383231    -0.040758227436
0.175     0.041164041568    -0.059812517929    -0.000013272035    0.000055336886    0.038304463821    -0.025943561444    -0.000016577563    0.000060327393
            -0.000013272102    0.000055336828    0.042065177685    -0.056105024433    -0.000019404255    0.000068129772    0.037701312194    -0.021329637803
            0.038304466383    -0.025943561229    -0.000019404328    0.000068129713    0.041609458028    -0.060114952974    -0.000014291835    0.000069497464
            -0.000016577563    0.000060327393    0.037701312194    -0.021329637803    -0.000014291835    0.000069497465    0.042380461651    -0.056409056743
0.200     0.017207031210    -0.069365270752    0.000011334225    0.000062840460    0.023263408469    -0.037513320453    0.000009872022    0.000069746137
            0.000011334138    0.000062840429    0.021314245396    -0.066363585029    0.000010925906    0.000078840602    0.025827545487    -0.032774659663
            0.023263411487    -0.037513320934    0.000010925823    0.000078840571    0.017684178543    -0.069900849305    0.000013535795    0.000078957509
            0.000009872027    0.000069746136    0.025827545487    -0.032774659663    0.000013535795    0.000078957510    0.021680885456    -0.066853387767
0.225     -0.011441038754    -0.068782396751    0.000039186912    0.000058473940    0.002402893017    -0.041757050374    0.000040657874    0.000066528328
            0.000039186822    0.000058473940    -0.004215525320    -0.068196949007    0.000045891193    0.000074875147    0.008383414421    -0.038562275600
            0.002402894589    -0.041757052287    0.000045891102    0.000074875148    -0.011016373529    -0.069584466598    0.000046615230    0.000076144145
            0.000040657876    0.000066528325    0.008383414421    -0.038562275600    0.000046615232    0.000076144143    -0.003856149926    -0.068912927333
0.250     -0.040112957536    -0.056173535998    0.000064396259    0.000041253486    -0.020605791779    -0.036244085241    0.000069502163    0.000049079889
            0.000064396175    0.000041253514    -0.030752322385    -0.059664547672    0.000078218056    0.000054769989    -0.011834232968    -0.036371581634
            -0.020605785948    -0.036244089706    0.000078217972    0.000054770018    -0.039844026771    -0.057239018563    0.000078989348    0.000058443357
            0.000069502163    0.000049079883    -0.011834232968    -0.036371581634    0.000078989433    0.000058443328    -0.030481086379    -0.060622237349
0.275     -0.063485314675    -0.031877853338    0.000080981276    0.000013138624    -0.041171301848    -0.020408439876    0.000089713313    0.000018978948
            0.000080981207    0.000013138679    -0.053815062514    -0.040579410201    0.000100416881    0.000020666195    -0.031132282554    -0.025277954171
            -0.041171297390    -0.020408446618    0.000100416808    0.000020666250    -0.063477220524    -0.033157289444    0.000103601079    0.000026344994
            0.000089713312    0.000018978943    -0.031132282554    -0.025277954171    0.000103601117    0.000026344965    -0.053723600092    -0.041758010852
0.300     -0.076682822105    0.001347580555    0.000084422919    -0.000021186230    -0.054754730962    0.004143574155    0.000095874908    -0.000019063194
            0.000084422916    -0.000021186228    -0.069052372881    -0.012749215764    0.000106664601    -0.000021913471    -0.045629947889    -0.006075917421
            -0.054754731959    0.004143574231    0.000106664556    -0.000021913390    -0.077020641099    -0.000047909567    0.000113915056    -0.000016113755
            0.000095874907    -0.000019063197    -0.045629947889    -0.006075917421    0.000113915056    -0.000016113755    -0.069225924609    -0.014085180130
0.325     -0.076376798568    0.038737870605    0.000072841436    -0.000055307315    -0.057892706635    0.033859606340    0.000085272426    -0.000058142089
            0.000072841422    -0.000055307226    -0.073133001999    0.020224817655    0.000094236307    -0.000065188310    -0.052056937140    0.018773380602
            -0.057892707498    0.033859606845    0.000094236289    -0.000065188265    -0.077102278166    0.037361955489    0.000105811282    -0.000062022311
            0.000085272425    -0.000058142091    -0.052056937140    0.018773380602    0.000105811284    -0.000062022307    -0.073629339918    0.018834314407
0.350     -0.061582305585    0.074423450891    0.000047523776    -0.000082656217    -0.048996624424    0.063955277637    0.000058667072    -0.000090799945
            0.000047523770    -0.000082656216    -0.064479072613    0.053541025342    0.000064242999    -0.000100963276    -0.048455598647    0.045572880078
            -0.048996624424    0.063955277637    0.000064242999    -0.000100963276    -0.062677295017    0.073219885755    0.000078735020    -0.000103066961
            0.000058667066    -0.000090799949    -0.048455598647    0.045572880078    0.000078734995    -0.000103067043    -0.065310999142    0.052224766114
0.375     -0.033883612005    0.102597817715    0.000012504870    -0.000097996602    -0.028664307326    0.089397480507    0.000020042758    -0.000110728570
            0.000012504889    -0.000097996560    -0.043620210853    0.082071961728    0.000021261256    -0.000122419112    -0.034578469030    0.070089146716
            -0.028664307631    0.089397481459    0.000021261298    -0.000122419034    -0.035264854421    0.101708599014    0.000035871230    -0.000131485097
            0.000020042754    -0.000110728570    -0.034578469030    0.070089146716    0.000035871235    -0.000131485096    -0.044744342427    0.080963635882
0.400     0.002892071231    0.118610846760    -0.000026514423    -0.000098442980    0.000497700161    0.105869740147    -0.000024440393    -0.000114041441
            -0.000026514353    -0.000098442926    -0.013127695241    0.101287433674    -0.000027844470    -0.000125455179    -0.011925854749    0.088336208444
            0.000497698314    0.105869740156    -0.000027844411    -0.000125455120    0.001365684121    0.118139426654    -0.000016628433    -0.000141596682
            -0.000024440393    -0.000114041441    -0.011925854749    0.088336208444    -0.000016628433    -0.000141596682    -0.014444222529    0.100500987799
0.425     0.043420778378    0.119715624463    -0.000063413586    -0.000083679280    0.034426138054    0.110454408502    -0.000067802336    -0.000099720442
            -0.000063413500    -0.000083679258    0.022845065271    0.108005375911    -0.000075387441    -0.000109116161    0.016557097280    0.097231993560
            0.034426094427    0.110454390676    -0.000075387441    -0.000109116161    0.041929454448    0.119705210441    -0.000070976009    -0.000130695435
            -0.000067802336    -0.000099720442    0.016557097280    0.097231993560    -0.000070976004    -0.000130695426    0.021481916436    0.107611974222
0.450     0.081773493301    0.105408771206    -0.000092674432    -0.000055634544    0.068290464144    0.101995857995    -0.000103447250    -0.000069424544
            -0.000092674344    -0.000055634535    0.059239351247    0.100860818692    -0.000114165586    -0.000075370997    0.046977896020    0.095045161566
            0.068290462364    0.101995859187    -0.000114165586    -0.000075370997    0.080511095952    0.105828633717    -0.000119026953    -0.000099196516
            -0.000103447250    -0.000069424544    0.046977896020    0.095045161566    -0.000119026953    -0.000099196516    0.058002725204    0.100871219922
0.475     0.112258640172    0.077394503962    -0.000109940863    -0.000017905263    0.097154437938    0.081162926375    -0.000125927194    -0.000026932136
            -0.000109940820    -0.000017905275    0.090832372056    0.080450715521    -0.000138284100    -0.000028497141    0.075058641164    0.081585822374
            0.097154437938    0.081162926375    -0.000138284100    -0.000028497141    0.111403725730    0.078137358451    -0.000153326017    -0.000050353864
            -0.000125927194    -0.000026932136    0.075058641164    0.081585822374    -0.000153326017    -0.000050353864    0.089898584779    0.080806553419
0.500     0.130131314064    0.039329341721    -0.000112286765    0.000024755037    0.116561959762    0.050360788651    -0.000131371911    0.000022413313
            -0.000112286765    0.000024755037    0.112928597021    0.049235581278    -0.000143642741    0.000025547717    0.096683079827    0.058222357686
            0.116561958883    0.050360790685    -0.000143642746    0.000025547692    0.129818676960    0.040217652000    -0.000167835995    0.000010131279
            -0.000131371911    0.000022413313    0.096683079827    0.058222357686    -0.000167835995    0.000010131279    0.112450285526    0.049808488218
0.525     0.132162000178    -0.003579307514    -0.000098369117    0.000066778472    0.123050945247    0.013530801601    -0.000117762180    0.000072134425
            -0.000098369100    0.000066778461    0.121945082674    0.011248306470    -0.000128230024    0.000079630687    0.108385956122    0.027751683650
            0.123050945105    0.013530802889    -0.000128230002    0.000079630704    0.132455929915    -0.002776653460    -0.000158588139    0.000074535430
            -0.000117762171    0.000072134419    0.108385956122    0.027751683650    -0.000158588161    0.000074535407    0.122024995053    0.011849803174
0.550     0.117128064495    -0.045088310935    -0.000068711503    0.000102093613    0.114683799443    -0.024155626122    -0.000085305238    0.000115020882
            -0.000068711503    0.000102093613    0.115901828632    -0.028331780404    -0.000092497598    0.000125940490    0.107823954702    -0.005838095618
            0.114683799443    -0.024155626122    -0.000092497552    0.000125940474    0.118000009123    -0.044629540860    -0.000124414409    0.000133603785
            -0.000085305238    0.000115020882    0.107823954702    -0.005838095618    -0.000124414446    0.000133603778    0.116568922446    -0.027932553055
0.575     0.086204599827    -0.078604592002    -0.000026113999    0.000124625407    0.091549621302    -0.056803057737    -0.000036928526    0.000143743370
            -0.000026113999    0.000124625407    0.094793894659    -0.063745384370    -0.000039818757    0.000156682766    0.094195493967    -0.037750401972
            0.091549621302    -0.056803057737    -0.000039818757    0.000156682766    0.087520559167    -0.078738304226    -0.000067752075    0.000177436391
            -0.000036928526    0.000143743370    0.094195493967    -0.037750401972    -0.000067752075    0.000177436391    0.095985557620    -0.063792624056
0.600     0.043177937044    -0.098115014041    0.000024013408    0.000129250208    0.056161346632    -0.078605807534    0.000021317888    0.000151980502
            0.000024013441    0.000129250131    0.060813944302    -0.089381505761    0.000023182243    0.000165268158    0.068587880914    -0.062959450667
            0.056161348957    -0.078605810789    0.000023182246    0.000165268157    0.044699176571    -0.099034739361    0.000004719752    0.000196984986
            0.000021317927    0.000151980436    0.068587880914    -0.062959450667    0.000004719749    0.000196984986    0.062368734504    -0.090096056146
0.625     -0.005742560888    -0.099319119124    0.000073851501    0.000113194046    0.013478266373    -0.084940332498    0.000080452269    0.000136030633
            0.000073851501    0.000113194046    0.018307242305    -0.100643397653    0.000086902341    0.000147954722    0.034098027024    -0.076980836318
            0.013478266687    -0.084940334473    0.000086902341    0.000147954722    -0.004336323134    -0.101116502346    0.000082231486    0.000186171136
            0.000080452269    0.000136030633    0.034098027024    -0.076980836318    0.000082231486    0.000186171136    0.019972790595    -0.102181069116
0.650     -0.052720337706    -0.080763223115    0.000114352347    0.000077452684    -0.029675999713    -0.073559438122    0.000129858222    0.000096518077
            0.000114352347    0.000077452684    -0.026665608574    -0.094860585183    0.000140147255    0.000105534347    -0.004406942381    -0.076768691752
            -0.029675999713    -0.073559438122    0.000140147255    0.000105534347    -0.051783128862    -0.083391003406    0.000151401471    0.000144112722
            0.000129858222    0.000096518077    -0.004406942381    -0.076768691752    0.000151401471    0.000144112722    -0.025203622494    -0.097271730543
0.675     -0.089723532309    -0.044529779729    0.000137395694    0.000027414284    -0.065874257158    -0.045412611021    0.000159734552    0.000039209674
            0.000137395693    0.000027414286    -0.067219009749    -0.071999948812    0.000172629680    0.000044114152    -0.040995414197    -0.061481862076
            -0.065874260452    -0.045412613292    0.000172629681    0.000044114149    -0.089578665182    -0.047789954781    0.000199132538    0.000076353914
            0.000159734537    0.000039209652    -0.040995414197    -0.061481862076    0.000199132519    0.000076353907    -0.066290281260    -0.075204449539
0.700     -0.110286604603    0.003920327335    0.000138218125    -0.000028024382    -0.088751147951    -0.004689911952    0.000163934256    -0.000025845292
            0.000138218125    -0.000028024382    -0.096888540024    -0.034912778247    0.000177841485    -0.000025780267    -0.069770668771    -0.032864967343
            -0.088751147951    -0.004689911952    0.000177841484    -0.000025780267    -0.111157316795    0.000353848951    0.000216090817    -0.000005813370
            0.000163934256    -0.000025845292    -0.069770668771    -0.032864967343    0.000216090817    -0.000005813370    -0.096778876303    -0.038697170506
0.725     -0.110967111248    0.056880818842    0.000116887545    -0.000078785112    -0.094445056055    0.042098858225    0.000141816151    -0.000086880588
            0.000116887199    -0.000078784820    -0.110907341526    0.011086524666    0.000154940597    -0.000091791419    -0.086059939425    0.005002935899
            -0.094445063403    0.042098841741    0.000154940589    -0.000091791432    -0.112927530563    0.053407319395    0.000199215342    -0.000088102077
            0.000141816139    -0.000086880588    -0.086059939425    0.005002935899    0.000199215342    -0.000088102077    -0.111803489582    0.007042444583
0.750     -0.091964973668    0.106134588184    0.000078049561    -0.000116375281    -0.082304344826    0.087657487918    0.000098165514    -0.000133599990
            0.000078049526    -0.000116375256    -0.107132878949    0.059243813559    0.000108724671    -0.000142963648    -0.087338850891    0.046535174990
            -0.082304344826    0.087657487918    0.000108724666    -0.000142963652    -0.094922209014    0.103153605991    0.000152151520    -0.000156892354
            0.000098165471    -0.000133599985    -0.087338850891    0.046535174990    0.000152151523    -0.000156892351    -0.109083270947    0.055316614715
0.775     -0.056725342187    0.144635135714    0.000029128967    -0.000135771878    -0.054634604948    0.125436957448    0.000041302605    -0.000159489853
            0.000029128967    -0.000135771878    -0.086321553400    0.102680866986    0.000047783100    -0.000172135424    -0.073566692844    0.085777635655
            -0.054634610868    0.125436911240    0.000047783089    -0.000172135396    -0.060438548760    0.142477764064    0.000083533200    -0.000202197979
