# GHz S RI R 45
0.000     0.028822007000    0.000000000000    -0.000000032947    -0.000000000000    0.000723041990    0.000000000000    -0.000002329514    0.000000000000
            -0.000000032939    -0.000000000000    0.027933485000    0.000000000000    -0.000002262837    0.000000000000    0.000726327340    -0.000000000000
            0.000723038490    0.000000000000    -0.000002262829    0.000000000000    0.028771759000    0.000000000000    0.000000200259    -0.000000000000
            -0.000002329500    0.000000000000    0.000726329370    -0.000000000000    0.000000200250    -0.000000000000    0.027854186000    0.000000000000
0.025     0.036110164544    0.008721630922    -0.000001695960    -0.000002320604    0.004154754238    0.011330514313    -0.000000744011    -0.000001086353
            -0.000001695952    -0.000002320608    0.034391253206    0.007310186283    -0.000001971366    -0.000001747724    0.003523329728    0.009555303912
            0.004154735131    0.011330564989    -0.000001971368    -0.000001747724    0.036051464150    0.008723298332    -0.000001978771    -0.000003430926
            -0.000000744003    -0.000001086356    0.003523315036    0.009555350896    -0.000001978783    -0.000003430916    0.034313904168    0.007221056571
0.050     0.045765980064    0.009222964838    -0.000004221941    -0.000002774843    0.013137039105    0.019073124322    -0.000003000795    -0.000003702081
            -0.000004221933    -0.000002774851    0.042913934496    0.007423778268    -0.000004744471    -0.000003728207    0.011113940459    0.016337725966
            0.013137027862    0.019073139352    -0.000004744470    -0.000003728208    0.045729415492    0.009266725504    -0.000005720336    -0.000004346604
            -0.000003000792    -0.000003702084    0.011113932728    0.016337736062    -0.000005720346    -0.000004346595    0.042812095270    0.007265916837
0.075     0.055716608564    0.003603406137    -0.000007033711    -0.000001576538    0.025129139684    0.020809562116    -0.000007144869    -0.000003378483
            -0.000007033711    -0.000001576539    0.051897413845    0.002376412433    -0.000009025768    -0.000002749857    0.021539890239    0.018224112634
            0.025129132739    0.020809568934    -0.000009025766    -0.000002749862    0.055747375273    0.003668604345    -0.000009972604    -0.000002782075
            -0.000007144867    -0.000003378489    0.021539884768    0.018224114456    -0.000009972608    -0.000002782068    0.051769500152    0.002167570884
0.100     0.062988769425    -0.008362607788    -0.000009237444    0.000001429266    0.036716041195    0.015636529275    -0.000010787351    -0.000000055481
            -0.000009237445    0.000001429263    0.059008709947    -0.008175953098    -0.000012586029    0.000001249868    0.032112226033    0.014323424660
            0.036716041296    0.015636531589    -0.000012586029    0.000001249868    0.063117387320    -0.008309862254    -0.000013382064    0.000001514682
            -0.000010787350    -0.000000055491    0.032112226283    0.014323424100    -0.000013382066    0.000001514696    0.058867403924    -0.008418492628
0.125     0.064273425433    -0.025115373928    -0.000009851941    0.000005842384    0.044414098014    0.004355206811    -0.000012315902    0.000005478922
            -0.000009851943    0.000005842374    0.061497199444    -0.023199030930    -0.000013783684    0.000007491276    0.040019068185    0.005024937459
            0.044414099822    0.004355208866    -0.000013783683    0.000007491276    0.064517031253    -0.025122945460    -0.000014481136    0.000007913434
            -0.000012315904    0.000005478910    0.040019068317    0.005024936411    -0.000014481135    0.000007913443    0.061364309514    -0.023467235355
0.150     0.057264010555    -0.043638645846    -0.000008180504    0.000010764516    0.045437171625    -0.010667768256    -0.000010758739    0.000011871509
            -0.000008180508    0.000010764514    0.057266597971    -0.040508039595    -0.000011603319    0.000014515020    0.042871270690    -0.008060701632
            0.045437173945    -0.010667767127    -0.000011603316    0.000014515021    0.057621873490    -0.043762700560    -0.000012257066    0.000015101856
            -0.000010758745    0.000011871500    0.042871269426    -0.008060702944    -0.000012257066    0.000015101856    0.057171374685    -0.040813065019
0.175     0.041164041568    -0.059812517929    -0.000004014662    0.000015013787    0.038304463821    -0.025943561444    -0.000005902950    0.000017456176
            -0.000004014667    0.000015013785    0.045278976024    -0.056913224099    -0.000005830898    0.000020524564    0.039156378575    -0.022382384301
            0.038304466383    -0.025943561229    -0.000005830901    0.000020524562    0.041609458028    -0.060114952974    -0.000006427725    0.000021362343
            -0.000005902961    0.000017456169    0.039156378185    -0.022382384984    -0.000006427715    0.000021362350    0.045242669039    -0.057283597012
0.200     0.017207031210    -0.069365270752    0.000002259057    0.000017362176    0.023263408469    -0.037513320453    0.000001665350    0.000020641949
            0.000002259056    0.000017362181    0.026018611338    -0.068928970429    0.000002866239    0.000023789099    0.028587631523    -0.034878852556
            0.023263411487    -0.037513320934    0.000002866237    0.000023789100    0.017684178543    -0.069900849305    0.000002448738    0.000024950921
            0.000001665349    0.000020641950    0.028587630280    -0.034878852282    0.000002448751    0.000024950922    0.026046015923    -0.069406216042
0.225     -0.011441038754    -0.068782396751    0.000009673050    0.000016822641    0.002402893017    -0.041757050374    0.000010644856    0.000020231699
            0.000009673045    0.000016822642    0.001478892373    -0.073427995535    0.000013042801    0.000023003422    0.012245116647    -0.042529001596
            0.002402894589    -0.041757052287    0.000013042801    0.000023003422    -0.011016373529    -0.069584466598    0.000013006697    0.000024481715
            0.000010644846    0.000020231701    0.012245115628    -0.042529000848    0.000013006697    0.000024481714    0.001551349383    -0.074058300199
0.250     -0.040112957536    -0.056173535998    0.000016816712    0.000012926892    -0.020605791779    -0.036244085241    0.000019269999    0.000015731128
            0.000016816704    0.000012926895    -0.025052439163    -0.068279455540    0.000022736963    0.000017640537    -0.007516390304    -0.042949152900
            -0.020605785948    -0.036244089706    0.000022736964    0.000017640539    -0.039844026771    -0.057239018563    0.000023290969    0.000019291656
            0.000019269913    0.000015731158    -0.007516390881    -0.042949151784    0.000023290971    0.000019291653    -0.024979029807    -0.069101087999
0.275     -0.063485314675    -0.031877853338    0.000022123468    0.000005918257    -0.041171301848    -0.020408439876    0.000025657387    0.000007515942
            0.000022123469    0.000005918259    -0.049495621439    -0.052849246329    0.000029854558    0.000008128098    -0.027418666088    -0.034911603643
            -0.041171297390    -0.020408446618    0.000029854559    0.000008128099    -0.063477220524    -0.033157289444    0.000031137849    0.000009681347
            0.000025657387    0.000007515944    -0.027418665471    -0.034911602857    0.000031137849    0.000009681342    -0.049486515937    -0.053879299020
0.300     -0.076682822105    0.001347580555    0.000024246418    -0.000003216288    -0.054754730962    0.004143574155    0.000028251655    -0.000003185613
            0.000024246424    -0.000003216288    -0.067674224007    -0.028283278105    0.000032662237    -0.000004157971    -0.043832459494    -0.018685477767
            -0.054754731959    0.004143574231    0.000032662235    -0.000004157975    -0.077020641099    -0.000047909567    0.000034666590    -0.000003049267
            0.000028251656    -0.000003185609    -0.043832464595    -0.018685470901    0.000034666590    -0.000003049267    -0.067805182791    -0.029506921923
0.325     -0.076376798568    0.038737870605    0.000022411313    -0.000012931041    -0.057892706635    0.033859606340    0.000026197415    -0.000014529636
            0.000022411317    -0.000012931040    -0.076092900276    0.002566022882    0.000030191626    -0.000017153697    -0.053457140625    0.003916069810
            -0.057892707498    0.033859606845    0.000030191626    -0.000017153697    -0.077102278166    0.037361955489    0.000032737373    -0.000016833253
            0.000026197418    -0.000014529633    -0.053457139628    0.003916069737    0.000032737370    -0.000016833255    -0.076433582196    0.001199900707
0.350     -0.061582305585    0.074423450891    0.000016625916    -0.000021471327    -0.048996624424    0.063955277637    0.000019553231    -0.000024476030
            0.000016625920    -0.000021471326    -0.072638381404    0.035544468985    0.000022490684    -0.000028559943    -0.053973776066    0.029802487796
            -0.048996624424    0.063955277637    0.000022490682    -0.000028559941    -0.062677295017    0.073219885755    0.000025237221    -0.000029277141
            0.000019553231    -0.000024476030    -0.053973775191    0.029802487312    0.000025237222    -0.000029277142    -0.073235085679    0.034119850523
0.375     -0.033883612005    0.102597817715    0.000007662550    -0.000027269428    -0.028664307326    0.089397480507    0.000009250324    -0.000031227289
            0.000007662553    -0.000027269429    -0.057013596570    0.065884977025    0.000010586450    -0.000036324525    -0.044495026369    0.055134488568
            -0.028664307631    0.089397481459    0.000010586452    -0.000036324527    -0.035264854421    0.101708599014    0.000013087822    -0.000038171008
            0.000009250327    -0.000031227290    -0.044495026369    0.055134488568    0.000013087820    -0.000038171007    -0.057874535701    0.064506889774
0.400     0.002892071231    0.118610846760    -0.000003145022    -0.000029251554    0.000497700161    0.105869740147    -0.000003154312    -0.000033574821
            -0.000003145019    -0.000029251558    -0.030844112408    0.089012135143    -0.000003766248    -0.000039037861    -0.025743244507    0.075992375251
            0.000497698314    0.105869740156    -0.000003766244    -0.000039037862    0.001365684121    0.118139426654    -0.000001983209    -0.000041907067
            -0.000003154308    -0.000033574822    -0.025743244186    0.075992374304    -0.000001983213    -0.000041907062    -0.031930974242    0.087788216742
0.425     0.043420778378    0.119715624463    -0.000014195716    -0.000026975128    0.034426138054    0.110454408502    -0.000015814490    -0.000031041314
            -0.000014195712    -0.000026975133    0.002578285982    0.101284118923    -0.000018451889    -0.000036109252    0.000082157233    0.089012752085
            0.034426094427    0.110454390676    -0.000018451889    -0.000036109251    0.041929454448    0.119705210441    -0.000017805186    -0.000039698696
            -0.000015814490    -0.000031041314    0.000082158786    0.089012751084    -0.000017805186    -0.000039698695    0.001349585402    0.100304701172
0.450     0.081773493301    0.105408771206    -0.000023889905    -0.000020618623    0.068290464144    0.101995857995    -0.000026908126    -0.000023861009
            -0.000023889908    -0.000020618625    0.038802403745    0.100551072446    -0.000031348151    -0.000027775328    0.029657295496    0.091900315418
            0.068290462364    0.101995859187    -0.000031348151    -0.000027775328    0.080511095952    0.105828633717    -0.000032120820    -0.000031616624
            -0.000026908042    -0.000023861001    0.029657296793    0.091900313949    -0.000032120820    -0.000031616624    0.037553088460    0.099870270044
0.475     0.112258640172    0.077394503962    -0.000030815887    -0.000010884371    0.097154437938    0.081162926375    -0.000034846262    -0.000012859466
            -0.000030815902    -0.000010884412    0.072864735608    0.086443114544    -0.000040581443    -0.000014980370    0.059017906331    0.083727995966
            0.097154437938    0.081162926375    -0.000040581445    -0.000014980371    0.111403725730    0.078137358451    -0.000042862434    -0.000018497867
            -0.000034846260    -0.000012859472    0.059017906331    0.083727995966    -0.000042862436    -0.000018497858    0.071737306631    0.086065026398
0.500     0.130131314064    0.039329341721    -0.000033863330    0.000001103518    0.116561959762    0.050360788651    -0.000038400131    0.000000676096
            -0.000033863338    0.000001103512    0.099960347755    0.060415873517    -0.000044700564    0.000000764027    0.084084770429    0.065059487564
            0.116561958883    0.050360790685    -0.000044700558    0.000000764027    0.129818676960    0.040217652000    -0.000048344005    -0.000001826145
            -0.000038400060    0.000000676048    0.084084771565    0.065059486097    -0.000048344007    -0.000001826145    0.099098699467    0.060287074731
0.525     0.132162000178    -0.003579307514    -0.000032306646    0.000013880945    0.123050945247    0.013530801601    -0.000036783251    0.000015097199
            -0.000032306649    0.000013880947    0.116054890643    0.025573725534    -0.000042793917    0.000017511028    0.101164217625    0.037896144490
            0.123050945105    0.013530802889    -0.000042793917    0.000017511028    0.132455929915    -0.002776653460    -0.000047410665    0.000016386914
            -0.000036783252    0.000015097199    0.101164218287    0.037896142725    -0.000047410663    0.000016386913    0.115581878334    0.025583519700
0.550     0.117128064495    -0.045088310935    -0.000025915013    0.000025717398    0.114683799443    -0.024155626122    -0.000029758942    0.000028483531
            -0.000025915024    0.000025717399    0.118410375851    -0.013670895958    -0.000034622170    0.000033009180    0.107425192769    0.005496747130
            0.114683799443    -0.024155626122    -0.000034622170    0.000033009180    0.118000009123    -0.044629540860    -0.000039605921    0.000033724830
            -0.000029758923    0.000028483453    0.107425192788    0.005496746755    -0.000039605919    0.000033724829    0.118405897277    -0.013682652669
0.575     0.086204599827    -0.078604592002    -0.000015097444    0.000034744891    0.091549621302    -0.056803057737    -0.000017784823    0.000038777419
            -0.000015097449    0.000034744853    0.105988684376    -0.052084881634    -0.000020767466    0.000044886202    0.101307903914    -0.027942941314
            0.091549621302    -0.056803057737    -0.000020767468    0.000044886205    0.087520559167    -0.078738304226    -0.000025363198    0.000047559689
            -0.000017784824    0.000038777421    0.101307894274    -0.027942938655    -0.000025363188    0.000047559690    0.106469838078    -0.052311165562
0.600     0.043177937044    -0.098115014041    -0.000001042189    0.000039206767    0.056161346632    -0.078605807534    -0.000002157822    0.000044045237
            -0.000001042190    0.000039206771    0.079712034388    -0.084236421410    -0.000002765168    0.000050960391    0.082863389714    -0.057759410139
            0.056161348957    -0.078605810789    -0.000002765168    0.000050960391    0.044699176571    -0.099034739361    -0.000006180982    0.000055389515
            -0.000002157824    0.000044045239    0.082863380502    -0.057759405866    -0.000006180949    0.000055389595    0.080619538186    -0.084878626227
0.625     -0.005742560888    -0.099319119124    0.000014266336    0.000037844203    0.013478266373    -0.084940332498    0.000014962541    0.000042883618
            0.000014266336    0.000037844209    0.042509381090    -0.105221553470    0.000016906697    0.000049685477    0.053922240628    -0.079432061613
            0.013478266687    -0.084940334473    0.000016906698    0.000049685475    -0.004336323134    -0.101116502346    0.000015357577    0.000055335705
            0.000014962512    0.000042883587    0.053922240628    -0.079432061613    0.000015357578    0.000055335703    0.043702926783    -0.106458694740
0.650     -0.052720337706    -0.080763223115    0.000028279781    0.000030338870    -0.029675999713    -0.073559438122    0.000030791456    0.000034895362
            0.000028279783    0.000030338878    -0.000919414355    -0.111442857436    0.000035111622    0.000040651079    0.018024022138    -0.089308730686
            -0.029675999713    -0.073559438122    0.000035111619    0.000040651075    -0.051783128862    -0.083391003406    0.000035861871    0.000046713068
            0.000030791455    0.000034895366    0.018024022138    -0.089308730686    0.000035861872    0.000046713067    0.000348550502    -0.113397364330
0.675     -0.089723532309    -0.044529779729    0.000038409152    0.000017603441    -0.065874257158    -0.045412611021    0.000042470569    0.000021015459
            0.000038409154    0.000017603442    -0.044675553533    -0.101291842433    0.000048656388    0.000024909441    -0.019985101348    -0.085291412281
            -0.065874260452    -0.045412613292    0.000048656392    0.000024909444    -0.089578665182    -0.047789954781    0.000051772174    0.000030428070
            0.000042470570    0.000021015461    -0.019985101348    -0.085291412281    0.000051772173    0.000030428066    -0.043592460839    -0.103999734591
0.700     -0.110286604603    0.003920327335    0.000042708223    0.000001714568    -0.088751147951    -0.004689911952    0.000047803771    0.000003460464
            0.000042708230    0.000001714572    -0.082544371209    -0.075573098940    0.000055073335    0.000004910578    -0.054680639244    -0.067341045446
            -0.088751147951    -0.004689911952    0.000055073332    0.000004910575    -0.111157316795    0.000353848951    0.000060214433    0.000008961628
            0.000047803775    0.000003460465    -0.054680639244    -0.067341045446    0.000060214433    0.000008961627    -0.081914344225    -0.078966008562
0.725     -0.110967111248    0.056880818842    0.000040414401    -0.000014576426    -0.094445056055    0.042098858225    0.000045857745    -0.000014778719
            0.000040414403    -0.000014576427    -0.109028816813    -0.037491746697    0.000053257742    -0.000016034338    -0.080976590338    -0.037585779901
            -0.094445063403    0.042098841741    0.000053257743    -0.000016034339    -0.112927530563    0.053407319395    0.000059727653    -0.000014168982
            0.000045857745    -0.000014778719    -0.080976587617    -0.037585778638    0.000059727651    -0.000014168984    -0.109085493237    -0.041396607882
0.750     -0.091964973668    0.106134588184    0.000032097248    -0.000028564031    -0.082304344826    0.087657487918    0.000037150777    -0.000030708949
            0.000032097248    -0.000028564031    -0.120308855977    0.007841006463    0.000043684951    -0.000034564947    -0.095032592737    0.000007065771
            -0.082304344826    0.087657487918    0.000043684956    -0.000034564949    -0.094922209014    0.103153605991    0.000050556074    -0.000035268764
            0.000037150777    -0.000030708949    -0.095032592737    0.000007065771    0.000050556070    -0.000035268765    -0.121208044152    0.003681134584
0.775     -0.056725342187    0.144635135714    0.000019362199    -0.000038213875    -0.054634604948    0.125436957448    0.000023358796    -0.000042023698
            0.000019362203    -0.000038213879    -0.114857299290    0.054285978682    0.000028129079    -0.000048011190    -0.094873766953    0.040345121355
            -0.054634610868    0.125436911240    0.000028129083    -0.000048011195    -0.060438548760    0.142477764064    0.000034401388    -0.000051279953
