# GHz S RI R 45
0.000     0.028822007000    0.000000000000    0.000000233338    -0.000000000000    0.000723041990    0.000000000000    -0.000016314562    0.000000000000
            0.000000233322    -0.000000000000    0.027424943000    0.000000000000    0.000005416141    -0.000000000000    0.000690901490    -0.000000000000
            0.000723038490    0.000000000000    0.000005416097    -0.000000000000    0.028771759000    0.000000000000    -0.000012028259    0.000000000000
            -0.000016314558    0.000000000000    0.000690921630    -0.000000000000    -0.000012028258    0.000000000000    0.027410464000    0.000000000000
0.025     0.036110164544    0.008721630922    -0.000000135851    -0.000001239401    0.004154754238    0.011330514313    0.000004012786    0.000008624615
            -0.000000135867    -0.000001239394    0.033983636279    0.007018072099    -0.000002937618    -0.000005210849    0.003458626174    0.009270388442
            0.004154735131    0.011330564989    -0.000002937666    -0.000005210834    0.036051464150    0.008723298332    0.000000957712    0.000004668850
            0.000004012796    0.000008624611    0.003458628542    0.009270430359    0.000000957704    0.000004668852    0.033923469306    0.006980473455
0.050     0.045765980064    0.009222964838    -0.000001423508    -0.000002152577    0.013137039105    0.019073124322    0.000005653404    -0.000002938718
            -0.000001423521    -0.000002152568    0.042484221355    0.006921556888    -0.000006119473    -0.000001744925    0.010978741562    0.015825312857
            0.013137027862    0.019073139352    -0.000006119513    -0.000001744890    0.045729415492    0.009266725504    0.000000377942    -0.000003184540
            0.000005653418    -0.000002938730    0.010978747415    0.015825312447    0.000000377944    -0.000003184543    0.042406073291    0.006880606090
0.075     0.055716608564    0.003603406137    -0.000003330849    -0.000002079458    0.025129139684    0.020809562116    -0.000000820036    -0.000007550805
            -0.000003330858    -0.000002079443    0.051517707843    0.001735742476    -0.000006697886    0.000000977517    0.021356400618    0.017574447544
            0.025129132739    0.020809568934    -0.000006697911    0.000000977562    0.055747375273    0.003668604345    -0.000005627534    -0.000005163870
            -0.000000820031    -0.000007550814    0.021356404732    0.017574434676    -0.000005627538    -0.000005163866    0.051438298475    0.001707289062
0.100     0.062988769425    -0.008362607788    -0.000005236755    -0.000000804955    0.036716041195    0.015636529275    -0.000007872255    -0.000005799424
            -0.000005236760    -0.000000804933    0.058824067890    -0.008921491543    -0.000006509394    0.000003379281    0.031977844171    0.013610167497
            0.036716041296    0.015636531589    -0.000006509403    0.000003379333    0.063117387320    -0.008309862254    -0.000011352434    -0.000001694767
            -0.000007872252    -0.000005799441    0.031977848537    0.013610149579    -0.000011352437    -0.000001694761    0.058770006531    -0.008926684307
0.125     0.064273425433    -0.025115373928    -0.000006498116    0.000001632660    0.044414098014    0.004355206811    -0.000011990763    0.000000119313
            -0.000006498114    0.000001632678    0.061684544021    -0.024107213191    -0.000005729140    0.000005734336    0.040090708145    0.004257447797
            0.044414099822    0.004355208866    -0.000005729124    0.000005734382    0.064517031253    -0.025122945460    -0.000013810780    0.000005235706
            -0.000011990767    0.000000119299    0.040090706092    0.004257429252    -0.000013810780    0.000005235714    0.061697598795    -0.024091468761
0.150     0.057264010555    -0.043638645846    -0.000006504677    0.000004872522    0.045437171625    -0.010667768256    -0.000011768963    0.000007651943
            -0.000006504672    0.000004872538    0.058025977316    -0.041742025069    -0.000004157100    0.000008051406    0.043326868193    -0.008971175084
            0.045437173945    -0.010667767127    -0.000004157070    0.000008051449    0.057621873490    -0.043762700560    -0.000011791704    0.000013138881
            -0.000011768969    0.000007651932    0.043326860675    -0.008971191666    -0.000011791702    0.000013138888    0.058135625167    -0.041731172158
0.175     0.041164041568    -0.059812517929    -0.000004843975    0.000008256680    0.038304463821    -0.025943561444    -0.000007251528    0.000014114685
            -0.000004843963    0.000008256692    0.046724933684    -0.058765848435    -0.000001588401    0.000010061860    0.040140135041    -0.023636975226
            0.038304466383    -0.025943561229    -0.000001588361    0.000010061892    0.041609458028    -0.060114952974    -0.000005488931    0.000019405188
            -0.000007251534    0.000014114679    0.040140122518    -0.023636988609    -0.000005488926    0.000019405195    0.046958721182    -0.058801757970
0.200     0.017207031210    -0.069365270752    -0.000001452080    0.000010922661    0.023263408469    -0.037513320453    0.000000320359    0.000017495749
            -0.000001452064    0.000010922670    0.028124290702    -0.071778165124    0.000002012236    0.000011246239    0.030148052639    -0.036777615683
            0.023263411487    -0.037513320934    0.000002012273    0.000011246251    0.017684178543    -0.069900849305    0.000003718290    0.000022061080
            0.000000320349    0.000017495745    0.030148035982    -0.036777624165    0.000003718287    0.000022061082    0.028491749515    -0.071921354246
0.225     -0.011441038754    -0.068782396751    0.000003290692    0.000012004402    0.002402893017    -0.041757050374    0.000008926686    0.000016680264
            0.000003290708    0.000012004407    0.004028671266    -0.077672498803    0.000006379118    0.000011030245    0.014276891954    -0.045426087516
            0.002402894589    -0.041757052287    0.000006379163    0.000011030241    -0.011016373529    -0.069584466598    0.000013691263    0.000020049735
            0.000008926672    0.000016680265    0.014276873612    -0.045426090136    0.000013691261    0.000020049739    0.004508767114    -0.077991594687
0.250     -0.040112957536    -0.056173535998    0.000008570039    0.000010861973    -0.020605791779    -0.036244085241    0.000016401177    0.000011702232
            0.000008570065    0.000010861968    -0.022485443882    -0.074244490191    0.000010870788    0.000008953021    -0.005309988252    -0.047173798608
            -0.020605785948    -0.036244089706    0.000010870833    0.000008953001    -0.039844026771    -0.057239018563    0.000022137494    0.000013486441
            0.000016401176    0.000011702232    -0.005310006142    -0.047173794581    0.000022137495    0.000013486443    -0.021947663674    -0.074800271725
0.275     -0.063485314675    -0.031877853338    0.000013289470    0.000007301614    -0.041171301848    -0.020408439876    0.000020868903    0.000003616109
            0.000013289486    0.000007301605    -0.047524196747    -0.060674317540    0.000014616888    0.000004896343    -0.025521664883    -0.040664079603
            -0.041171297390    -0.020408446618    0.000014616923    0.000004896309    -0.063477220524    -0.033157289444    0.000027073520    0.000003533950
            0.000020868902    0.000003616110    -0.025521679609    -0.040664071541    0.000027073522    0.000003533952    -0.047013415583    -0.061502829424
0.300     -0.076682822105    0.001347580555    0.000016326346    0.000001688598    -0.054754730962    0.004143574155    0.000021248928    -0.000005823947
            0.000016326364    0.000001688578    -0.067007536307    -0.037818771694    0.000016682878    -0.000000788906    -0.042852452787    -0.025933388708
            -0.054754731959    0.004143574231    0.000016682897    -0.000000788953    -0.077020641099    -0.000047909567    0.000027331088    -0.000007901987
            0.000021248926    -0.000005823948    -0.042852464406    -0.025933375303    0.000027331091    -0.000007901986    -0.066626574245    -0.038917781971
0.325     -0.076376798568    0.038737870605    0.000016822183    -0.000005097374    -0.057892706635    0.033859606340    0.000017403700    -0.000014590764
            0.000016822192    -0.000005097390    -0.077389519081    -0.008186737641    0.000016364617    -0.000007318957    -0.054001971624    -0.004494572797
            -0.057892707498    0.033859606845    0.000016364620    -0.000007319000    -0.077102278166    0.037361955489    0.000022724550    -0.000018614505
            0.000017403699    -0.000014590765    -0.054001979172    -0.004494554444    0.000022724564    -0.000018614548    -0.077240783040    -0.009507800887
0.350     -0.061582305585    0.074423450891    0.000014406036    -0.000011855507    -0.048996624424    0.063955277637    0.000010126033    -0.000020921145
            0.000014406038    -0.000011855525    -0.076331491904    0.024382815508    0.000013372472    -0.000013612297    -0.056495895142    0.020856204945
            -0.048996624424    0.063955277637    0.000013372467    -0.000013612297    -0.062677295017    0.073219885755    0.000014058316    -0.000026633737
            0.000010126032    -0.000020921146    -0.056495895142    0.020856204945    0.000014058312    -0.000026633824    -0.076496013712    0.022933271122
0.375     -0.033883612005    0.102597817715    0.000009277461    -0.000017336910    -0.028664307326    0.089397480507    0.000000862355    -0.000023635434
            0.000009277426    -0.000017336992    -0.063161724159    0.055317339090    0.000007921170    -0.000018556207    -0.049149494307    0.046484183909
            -0.028664307631    0.089397481459    0.000007921145    -0.000018556245    -0.035264854421    0.101708599014    0.000002854880    -0.000030571809
            0.000000862353    -0.000023635434    -0.049149494307    0.046484183909    0.000002854883    -0.000030571811    -0.063679682546    0.053867193693
0.400     0.002892071231    0.118610846760    0.000002143141    -0.000020503895    0.000497700161    0.105869740147    -0.000008684559    -0.000022346577
            0.000002143082    -0.000020503960    -0.039056565712    0.080046869204    0.000000680962    -0.000021214964    -0.032307565742    0.068517989411
            0.000497698314    0.105869740156    0.000000680959    -0.000021214957    0.001365684121    0.118139426654    -0.000009029351    -0.000029854312
            -0.000008684564    -0.000022346578    -0.032307512755    0.068518063041    -0.000009029346    -0.000029854314    -0.039913694785    0.078739813443
0.425     0.043420778378    0.119715624463    -0.000005945152    -0.000020701337    0.034426138054    0.110454408502    -0.000016894593    -0.000017390250
            -0.000005945190    -0.000020701361    -0.006885482749    0.094730266496    -0.000007372241    -0.000020999363    -0.007799034160    0.083467367275
            0.034426094427    0.110454390676    -0.000007372281    -0.000020999374    0.041929454448    0.119705210441    -0.000019756138    -0.000024677225
            -0.000016894556    -0.000017390230    -0.007798998330    0.083467392719    -0.000019756136    -0.000024677231    -0.008008261918    0.093702245601
0.450     0.081773493301    0.105408771206    -0.000013780990    -0.000017729475    0.068290464144    0.101995857995    -0.000022516753    -0.000009657634
            -0.000013780985    -0.000017729481    0.029204199036    0.096852348488    -0.000015109830    -0.000017724418    0.021335778019    0.088763790781
            0.068290462364    0.101995859187    -0.000015109832    -0.000017724407    0.080511095952    0.105828633717    -0.000027802078    -0.000015869642
            -0.000022516747    -0.000009657641    0.021335861350    0.088763817033    -0.000027802083    -0.000015869645    0.027943728757    0.096207669953
0.475     0.112258640172    0.077394503962    -0.000020170729    -0.000011837892    0.097154437938    0.081162926375    -0.000024762112    -0.000000374755
            -0.000020170734    -0.000011837895    0.064381853803    0.085585921372    -0.000021405837    -0.000011611883    0.051283686538    0.083121207941
            0.097154437938    0.081162926375    -0.000021405876    -0.000011611865    0.111403725730    0.078137358451    -0.000032081780    -0.000004687820
            -0.000024762114    -0.000000374759    0.051283774925    0.083121205110    -0.000032081783    -0.000004687826    0.063151256463    0.085376271914
0.500     0.130131314064    0.039329341721    -0.000024068130    -0.000003685547    0.116561959762    0.050360788651    -0.000023346393    0.000009107430
            -0.000024068134    -0.000003685552    0.093794993947    0.061916670152    -0.000025243919    -0.000003268233    0.077976098085    0.066722190358
            0.116561958883    0.050360790685    -0.000025243983    -0.000003268178    0.129818676960    0.040217652000    -0.000032023627    0.000007378332
            -0.000023346392    0.000009107429    0.077976098085    0.066722190358    -0.000032023711    0.000007378369    0.092780751967    0.062127193391
0.525     0.132162000178    -0.003579307514    -0.000024686843    0.000005714358    0.123050945247    0.013530801601    -0.000018450267    0.000017444287
            -0.000024686848    0.000005714359    0.113205800717    0.028526969807    -0.000025829065    0.000006353439    0.097608734413    0.041208530793
            0.123050945105    0.013530802889    -0.000025829058    0.000006353437    0.132455929915    -0.002776653460    -0.000027567802    0.000018744085
            -0.000018450267    0.000017444287    0.097608810684    0.041208478689    -0.000027567806    0.000018744080    0.112586847865    0.029070333213
0.550     0.117128064495    -0.045088310935    -0.000021618735    0.000015064852    0.114683799443    -0.024155626122    -0.000010688465    0.000023431280
            -0.000021618767    0.000015064936    0.119550187620    -0.010511478018    -0.000022705587    0.000015994654    0.107139889518    0.009521451326
            0.114683799443    -0.024155626122    -0.000022705580    0.000015994655    0.118000009123    -0.044629540860    -0.000019176716    0.000027875115
            -0.000010688464    0.000023431279    0.107139889518    0.009521451326    -0.000019176718    0.000027875118    0.119470269336    -0.009791844536
0.575     0.086204599827    -0.078604592002    -0.000014958061    0.000022902205    0.091549621302    -0.056803057737    -0.000001082530    0.000026104600
            -0.000014958065    0.000022902210    0.111362804038    -0.050208812268    -0.000015898025    0.000024195243    0.104704285444    -0.024410154756
            0.091549621302    -0.056803057737    -0.000015898015    0.000024195282    0.087520559167    -0.078738304226    -0.000007837157    0.000033422838
            -0.000001082534    0.000026104602    0.104704285444    -0.024410154756    -0.000007837163    0.000033422888    0.111904315479    -0.049523902442
0.600     0.043177937044    -0.098115014041    -0.000005408294    0.000027793811    0.056161346632    -0.078605807534    0.000009006240    0.000024899275
            -0.000005408300    0.000027793815    0.089047048146    -0.085255948094    -0.000006042407    0.000029477998    0.089942815571    -0.056117079986
            0.056161348957    -0.078605810789    -0.000006042369    0.000029478071    0.044699176571    -0.099034739361    0.000004979668    0.000034425079
            0.000009006241    0.000024899275    0.089942815571    -0.056117079986    0.000004979691    0.000034425167    0.090209532276    -0.084847122465
0.625     -0.005742560888    -0.099319119124    0.000005702568    0.000028623899    0.013478266373    -0.084940332498    0.000017999961    0.000019808691
            0.000005702567    0.000028623907    0.054931499683    -0.110704844461    0.000005574124    0.000030641326    0.064162124087    -0.081148294565
            0.013478266687    -0.084940334473    0.000005574126    0.000030641315    -0.004336323134    -0.101116502346    0.000017440188    0.000030519459
            0.000017999935    0.000019808661    0.064162124087    -0.081148294565    0.000017440185    0.000030519463    0.056620780504    -0.110811514549
0.650     -0.052720337706    -0.080763223115    0.000016573326    0.000024915068    -0.029675999713    -0.073559438122    0.000024367434    0.000011503671
            0.000016573401    0.000024915119    0.013081093979    -0.122680308937    0.000017139633    0.000027098110    0.030295888863    -0.095713364239
            -0.029675999713    -0.073559438122    0.000017139630    0.000027098103    -0.051783128862    -0.083391003406    0.000027623072    0.000022122581
            0.000024367433    0.000011503674    0.030295887193    -0.095713364768    0.000027623075    0.000022122585    0.015110856469    -0.123501459786
0.675     -0.089723532309    -0.044529779729    0.000025279148    0.000017052988    -0.065874257158    -0.045412611021    0.000026955244    0.000001312523
            0.000025279195    0.000017053003    -0.031169391949    -0.119004669579    0.000026659311    0.000019129848    -0.007402018370    -0.097291659885
            -0.065874260452    -0.045412613292    0.000026659306    0.000019129840    -0.089578665182    -0.047789954781    0.000033894061    0.000010459887
            0.000026955207    0.000001312517    -0.007402018370    -0.097291659885    0.000033894063    0.000010459894    -0.029059558693    -0.120662997474
0.700     -0.110286604603    0.003920327335    0.000030236696    0.000006283260    -0.088751147951    -0.004689911952    0.000025309770    -0.000009023876
            0.000030236704    0.000006283263    -0.071935750783    -0.099630795452    0.000032425976    0.000007917235    -0.043922413434    -0.085121736620
            -0.088751147951    -0.004689911952    0.000032425968    0.000007917235    -0.111157316795    0.000353848951    0.000035289690    -0.000002640874
            0.000025309777    -0.000009023871    -0.043922413434    -0.085121736620    0.000035289701    -0.000002640872    -0.070046770326    -0.102144389530
0.725     -0.110967111248    0.056880818842    0.000030601305    -0.000005573178    -0.094445056055    0.042098858225    0.000019815410    -0.000017747450
            0.000030601346    -0.000005573196    -0.103655338128    -0.066745629707    0.000033442489    -0.000004721648    -0.074246713643    -0.060403568585
            -0.094445063403    0.042098841741    0.000033442557    -0.000004721688    -0.112927530563    0.053407319395    0.000031733060    -0.000015142162
            0.000019815406    -0.000017747449    -0.074246713643    -0.060403568585    0.000031733063    -0.000015142160    -0.102285688976    -0.070015444957
0.750     -0.091964973668    0.106134588184    0.000026429312    -0.000016576601    -0.082304344826    0.087657487918    0.000011571730    -0.000023512298
            0.000026429316    -0.000016576605    -0.121961700323    -0.024495447038    0.000029617926    -0.000016776820    -0.094150338881    -0.026172553899
            -0.082304344826    0.087657487918    0.000029617914    -0.000016776817    -0.094922209014    0.103153605991    0.000023989344    -0.000025250711
            0.000011571725    -0.000023512296    -0.094150338881    -0.026172553899    0.000023989348    -0.000025250710    -0.121359377572    -0.028312492764
0.775     -0.056725342187    0.144635135714    0.000018552874    -0.000025104017    -0.054634604948    0.125436957448    0.000002071015    -0.000025642886
            0.000018552878    -0.000025104020    -0.124359123780    0.021641142248    0.000021675830    -0.000026493064    -0.100856641651    0.013171348051
            -0.054634610868    0.125436911240    0.000021675822    -0.000026493057    -0.060438548760    0.142477764064    0.000013400566    -0.000031738367
