# GHz S RI R 45
0.000     0.028822007000    0.000000000000    -0.000025611329    0.000000000000    0.000723041990    0.000000000000    -0.000024922980    0.000000000000
            -0.000025611236    0.000000000000    0.029341096000    0.000000000000    -0.000003139594    0.000000000000    0.000467817490    0.000000000000
            0.000723038490    0.000000000000    -0.000003139568    0.000000000000    0.028771759000    0.000000000000    -0.000004646158    0.000000000000
            -0.000024922787    0.000000000000    0.000467792680    0.000000000000    -0.000004646241    0.000000000000    0.029269272000    0.000000000000
0.025     0.036110164544    0.008721630922    -0.000009730849    -0.000010901741    0.004154754238    0.011330514313    -0.000014529868    -0.000017144772
            -0.000009730805    -0.000010901757    0.035238300057    0.009134850632    -0.000006627764    -0.000019638746    0.002766299788    0.012497222538
            0.004154735131    0.011330564989    -0.000006627736    -0.000019638754    0.036051464150    0.008723298332    -0.000009909829    -0.000022147053
            -0.000014529770    -0.000017144796    0.002766149677    0.012497056045    -0.000009909912    -0.000022147031    0.035128139826    0.009104553944
0.050     0.045765980064    0.009222964838    -0.000019090993    -0.000043186112    0.013137039105    0.019073124322    -0.000029562437    -0.000048840873
            -0.000019090940    -0.000043186136    0.041086032329    0.011680251329    -0.000021599454    -0.000036837087    0.009101865433    0.022831612936
            0.013137027862    0.019073139352    -0.000021599434    -0.000036837097    0.045729415492    0.009266725504    -0.000026534360    -0.000040498797
            -0.000029562337    -0.000048840919    0.009101869615    0.022831603733    -0.000026534431    -0.000040498766    0.040922753466    0.011657605480
0.075     0.055716608564    0.003603406137    -0.000050157999    -0.000060189409    0.025129139684    0.020809562116    -0.000064084993    -0.000064655090
            -0.000050157953    -0.000060189439    0.045890506377    0.011159411632    -0.000044493465    -0.000045474176    0.017772566250    0.029449045751
            0.025129132739    0.020809568934    -0.000044493439    -0.000045474198    0.055747375273    0.003668604345    -0.000051742199    -0.000049699554
            -0.000064084916    -0.000064655148    0.017772545669    0.029449048828    -0.000051742249    -0.000049699515    0.045677327002    0.011196751202
0.100     0.062988769425    -0.008362607788    -0.000087763889    -0.000060554019    0.036716041195    0.015636529275    -0.000104982886    -0.000062797519
            -0.000087763889    -0.000060554019    0.048445898394    0.008127744228    -0.000070962302    -0.000044097712    0.026678641194    0.031923835467
            0.036716041296    0.015636531589    -0.000070962303    -0.000044097713    0.063117387320    -0.008309862254    -0.000080962527    -0.000047992405
            -0.000104982814    -0.000062797600    0.026678615670    0.031923841159    -0.000080962587    -0.000047992345    0.048220622718    0.008267214495
0.125     0.064273425433    -0.025115373928    -0.000125065479    -0.000044975383    0.044414098014    0.004355206811    -0.000145152640    -0.000043677974
            -0.000125065444    -0.000044975420    0.047511817680    0.004032735954    -0.000097559707    -0.000032587101    0.033815550452    0.030895025434
            0.044414099822    0.004355208866    -0.000097559686    -0.000032587132    0.064517031253    -0.025122945460    -0.000110455182    -0.000035048399
            -0.000145152565    -0.000043678117    0.033815522463    0.030895032348    -0.000110455226    -0.000035048328    0.047335855376    0.004289634638
0.150     0.057264010555    -0.043638645846    -0.000157458578    -0.000015179066    0.045437171625    -0.010667768256    -0.000179486832    -0.000009152399
            -0.000157458550    -0.000015179147    0.042595908314    0.000851685869    -0.000121650125    -0.000011413363    0.037760877887    0.027883033441
            0.045437173945    -0.010667767127    -0.000121650125    -0.000011413363    0.057621873490    -0.043762700560    -0.000137204718    -0.000011279534
            -0.000179486764    -0.000009152552    0.037760850099    0.027883042455    -0.000137204744    -0.000011279464    0.042546640447    0.001205637506
0.175     0.041164041568    -0.059812517929    -0.000181178393    0.000026788025    0.038304463821    -0.025943561444    -0.000203808867    0.000038476045
            -0.000181178382    0.000026787959    0.034349455839    0.000796617551    -0.000140822026    0.000018973917    0.037997382454    0.024930350800
            0.038304466383    -0.025943561229    -0.000140822026    0.000018973917    0.041609458028    -0.060114952974    -0.000158407844    0.000022833382
            -0.000203808854    0.000038475895    0.037997364555    0.024930358030    -0.000158407862    0.000022833469    0.034489229063    0.001182127986
0.200     0.017207031210    -0.069365270752    -0.000192983700    0.000078905913    0.023263408469    -0.037513320453    -0.000214571430    0.000096759391
            -0.000192983700    0.000078905834    0.024473339904    0.005639119720    -0.000152332294    0.000058101483    0.035095927203    0.024129246490
            0.023263411487    -0.037513320934    -0.000152332296    0.000058101392    0.017684178543    -0.069900849305    -0.000170924417    0.000066643739
            -0.000214571434    0.000096759212    0.035095900945    0.024129258206    -0.000170924410    0.000066643839    0.024827224115    0.005956240495
0.225     -0.011441038754    -0.068782396751    -0.000189185324    0.000138334380    0.002402893017    -0.041757050374    -0.000207893285    0.000162357667
            -0.000189185332    0.000138334335    0.015487671059    0.016216087618    -0.000152562343    0.000104655055    0.030646723042    0.027075305480
            0.002402894589    -0.041757052287    -0.000152562363    0.000104654991    -0.011016373529    -0.069584466598    -0.000170774369    0.000118540033
            -0.000207893318    0.000162357576    0.030646698063    0.027075318650    -0.000170774360    0.000118540115    0.016026871858    0.016352233717
0.250     -0.040112957536    -0.056173535998    -0.000166110933    0.000200733413    -0.020605791779    -0.036244085241    -0.000180081919    0.000230358986
            -0.000166110933    0.000200733413    0.010228109528    0.032081092531    -0.000137516524    0.000155496869    0.026926197664    0.034391140334
            -0.020605785948    -0.036244089706    -0.000137516524    0.000155496869    -0.039844026771    -0.057239018563    -0.000153697758    0.000174934230
            -0.000180081919    0.000230358986    0.026926172373    0.034391153785    -0.000153697717    0.000174934306    0.010865507602    0.031940403997
0.275     -0.063485314675    -0.031877853338    -0.000121238661    0.000259240373    -0.041171301848    -0.020408439876    -0.000128774304    0.000293313767
            -0.000121238661    0.000259240373    0.011173003829    0.051393850305    -0.000104130816    0.000204910438    0.026319462921    0.045454806524
            -0.041171297390    -0.020408446618    -0.000104130816    0.000204910438    -0.063477220524    -0.033157289444    -0.000116524052    0.000229561287
            -0.000128774304    0.000293313767    0.026319448348    0.045454816117    -0.000116524021    0.000229561325    0.011775454637    0.050927935879
0.300     -0.076682822105    0.001347580555    -0.000055045551    0.000305267508    -0.054754730962    0.004143574155    -0.000054815062    0.000342116186
            -0.000055045551    0.000305267508    0.019752841576    0.071220469889    -0.000052117340    0.000245231952    0.030662786354    0.058484214964
            -0.054754731959    0.004143574231    -0.000052117340    0.000245231952    -0.077020641099    -0.000047909567    -0.000059074007    0.000274171781
            -0.000054815067    0.000342116215    0.030662788396    0.058484213894    -0.000059074059    0.000274171790    0.020169202898    0.070448146725
0.325     -0.076376798568    0.038737870605    0.000027675934    0.000330175616    -0.057892706635    0.033859606340    0.000036463617    0.000367750963
            0.000027675934    0.000330175616    0.035886568778    0.088152831652    0.000014815372    0.000268630285    0.040707441856    0.070963095834
            -0.057892707498    0.033859606845    0.000014815377    0.000268630285    -0.077102278166    0.037361955489    0.000014626950    0.000300416105
            0.000036463625    0.000367750972    0.040707403970    0.070963124484    0.000014626950    0.000300416105    0.035982608423    0.087164610251
0.350     -0.061582305585    0.074423450891    0.000118218982    0.000328073178    -0.048996624424    0.063955277637    0.000135724430    0.000364169274
            0.000118218982    0.000328073178    0.057921429780    0.099125735100    0.000089291979    0.000269640500    0.055919093963    0.080295740836
            -0.048996624424    0.063955277637    0.000089291984    0.000269640498    -0.062677295017    0.073219885755    0.000096721604    0.000302465133
            0.000135724430    0.000364169274    0.055919094793    0.080295739039    0.000096721604    0.000302465133    0.057613394235    0.098068611480
0.375     -0.033883612005    0.102597817715    0.000205837241    0.000297599085    -0.028664307326    0.089397480507    0.000231595267    0.000330079024
            0.000205837246    0.000297599081    0.082992211755    0.102107320900    0.000162098081    0.000246863069    0.074631869029    0.084421010951
            -0.028664307631    0.089397481459    0.000162098081    0.000246863069    -0.035264854421    0.101708599014    0.000177446337    0.000278750221
            0.000231595267    0.000330079024    0.074631871976    0.084421008346    0.000177446333    0.000278750224    0.082268969392    0.101155512966
0.400     0.002892071231    0.118610846760    0.000280622219    0.000242325524    0.000497700161    0.105869740147    0.000313645071    0.000269310889
            0.000280622219    0.000242325524    0.107664018286    0.096510212954    0.000224745594    0.000203241085    0.094478490414    0.082234555723
            0.000497698314    0.105869740156    0.000224745594    0.000203241085    0.001365684121    0.118139426654    0.000247778658    0.000232229311
            0.000313645071    0.000269310889    0.094478491849    0.082234554074    0.000247778658    0.000232229311    0.106591318306    0.095829875415
0.425     0.043420778378    0.119715624463    0.000335653257    0.000169394592    0.034426138054    0.110454408502    0.000374586981    0.000189367521
            0.000335653248    0.000169394587    0.128611901673    0.083218001160    0.000271432460    0.000144778163    0.112878444429    0.073718098160
            0.034426094427    0.110454390676    0.000271432461    0.000144778182    0.041929454448    0.119705210441    0.000301462565    0.000169050798
            0.000374586981    0.000189367521    0.112878411611    0.073718130124    0.000301462556    0.000169050793    0.127321888192    0.082935284544
0.450     0.081773493301    0.105408771206    0.000368172636    0.000087377625    0.068290464144    0.101995857995    0.000411446371    0.000099202294
            0.000368172637    0.000087377578    0.143191474922    0.064350775806    0.000299947429    0.000078592691    0.127483099760    0.059877939733
            0.068290462364    0.101995859187    0.000299947459    0.000078592699    0.080511095952    0.105828633717    0.000335925914    0.000096548960
            0.000411445569    0.000099202717    0.127483100805    0.059877937508    0.000335925931    0.000096548972    0.141860249081    0.064526943882
0.475     0.112258640172    0.077394503962    0.000379281485    0.000004125399    0.097154437938    0.081162926375    0.000425217875    0.000007002507
            0.000379281122    0.000004125690    0.149803790721    0.042868796666    0.000311327732    0.000011027428    0.136495680780    0.042553627435
            0.097154437938    0.081162926375    0.000311327722    0.000011027427    0.111403725730    0.078137358451    0.000351918248    0.000021299434
            0.000425217875    0.000007002502    0.136495680780    0.042553627435    0.000351918248    0.000021299434    0.148622340702    0.043487375973
0.500     0.130131314064    0.039329341721    0.000372898681    -0.000074908691    0.116561959762    0.050360788651    0.000419753039    -0.000081507101
            0.000372898679    -0.000074908697    0.148107169257    0.022141891621    0.000308828942    -0.000053704404    0.138931682976    0.024194588218
            0.116561958883    0.050360790685    0.000308828943    -0.000053704401    0.129818676960    0.040217652000    0.000352432986    -0.000052254166
            0.000419753041    -0.000081507147    0.138931683271    0.024194586520    0.000352432981    -0.000052254128    0.147248345816    0.023106183532
0.525     0.132162000178    -0.003579307514    0.000354005765    -0.000147568234    0.123050945247    0.013530801601    0.000399942495    -0.000163940465
            0.000354005765    -0.000147568234    0.139092827543    0.005494545630    0.000296384251    -0.000114194666    0.134820407634    0.007567083205
            0.123050945105    0.013530802889    0.000296384249    -0.000114194671    0.132455929915    -0.002776653460    0.000341129022    -0.000122447582
            0.000399942277    -0.000163940074    0.134820385248    0.007567125146    0.000341129024    -0.000122447576    0.138679793847    0.006637391650
0.550     0.117128064495    -0.045088310935    0.000326622345    -0.000215086659    0.114683799443    -0.024155626122    0.000369658070    -0.000241270600
            0.000326622301    -0.000215086671    0.125072852868    -0.004274957238    0.000276885880    -0.000171761458    0.125376115000    -0.004627662540
            0.114683799443    -0.024155626122    0.000276885922    -0.000171761485    0.118000009123    -0.044629540860    0.000320599695    -0.000190266484
            0.000369658070    -0.000241270600    0.125376115000    -0.004627662540    0.000320599700    -0.000190266494    0.125148052911    -0.003167846171
0.575     0.086204599827    -0.078604592002    0.000291689894    -0.000280903738    0.091549621302    -0.056803057737    0.000329668103    -0.000316573905
            0.000291689894    -0.000280903738    0.109492390127    -0.005440265647    0.000250473776    -0.000229336236    0.113012937109    -0.010290989531
            0.091549621302    -0.056803057737    0.000250473733    -0.000229335779    0.087520559167    -0.078738304226    0.000290697992    -0.000258169687
            0.000329668103    -0.000316573905    0.113012920909    -0.010290946888    0.000290697996    -0.000258169682    0.109997944423    -0.004593389061
0.600     0.043177937044    -0.098115014041    0.000245768583    -0.000348092009    0.056161346632    -0.078605807534    0.000276412708    -0.000392395334
            0.000245768589    -0.000348092005    0.096489405907    0.002107045022    0.000213571766    -0.000289196669    0.101096776945    -0.008542284692
            0.056161348957    -0.078605810789    0.000213571767    -0.000289196681    0.044699176571    -0.099034739361    0.000247660319    -0.000327783388
            0.000276412715    -0.000392395330    0.101096777005    -0.008542283987    0.000247660324    -0.000327783384    0.097264044549    0.002508071131
0.625     -0.005742560888    -0.099319119124    0.000181754294    -0.000415748992    0.013478266373    -0.084940332498    0.000202847719    -0.000467158443
            0.000181754290    -0.000415749005    0.090086222829    0.016490835397    0.000159692040    -0.000349895628    0.093274988193    -0.000236098452
            0.013478266687    -0.084940334473    0.000159692040    -0.000349895628    -0.004336323134    -0.101116502346    0.000185030565    -0.000396861517
            0.000202847853    -0.000467158036    0.093274988193    -0.000236098452    0.000185030595    -0.000396861525    0.090888517803    0.016349352694
0.650     -0.052720337706    -0.080763223115    0.000092510067    -0.000476296368    -0.029675999713    -0.073559438122    0.000102186419    -0.000532561019
            0.000092510059    -0.000476296328    0.093145178974    0.033958355308    0.000082739024    -0.000404103623    0.092503754772    0.011958777033
            -0.029675999713    -0.073559438122    0.000082739024    -0.000404103623    -0.051783128862    -0.083391003406    0.000097069511    -0.000457236351
            0.000102186378    -0.000532561058    0.092503754772    0.011958777033    0.000097069535    -0.000457236386    0.093704051216    0.033302386558
0.675     -0.089723532309    -0.044529779729    -0.000023703717    -0.000516092961    -0.065874257158    -0.045412611021    -0.000026649163    -0.000574366105
            -0.000023703717    -0.000516092961    0.106412744241    0.049645013361    -0.000018263788    -0.000439409522    0.100067786356    0.024116799874
            -0.065874260452    -0.045412613292    -0.000018263795    -0.000439409522    -0.089578665182    -0.047789954781    -0.000016505078    -0.000495796179
            -0.000026649173    -0.000574366104    0.100067786356    0.024116799874    -0.000016505069    -0.000495796179    0.106494558708    0.048631781257
0.700     -0.110286604603    0.003920327335    -0.000159360070    -0.000520386575    -0.088751147951    -0.004689911952    -0.000175235045    -0.000577512504
            -0.000159360053    -0.000520386518    0.128171163455    0.058846338127    -0.000135993621    -0.000442895406    0.115132568224    0.032157129700
            -0.088751147951    -0.004689911952    -0.000135993618    -0.000442895397    -0.111157316795    0.000353848951    -0.000147424461    -0.000499226311
            -0.000175235140    -0.000577512455    0.115132572153    0.032157115633    -0.000147424458    -0.000499226302    0.127639811546    0.057727803617
0.725     -0.110967111248    0.056880818842    -0.000298471198    -0.000479977554    -0.094445056055    0.042098858225    -0.000326641791    -0.000532867904
            -0.000298471187    -0.000479977537    0.154691558128    0.058279722473    -0.000255886405    -0.000406999537    0.135020403873    0.032989770820
            -0.094445063403    0.042098841741    -0.000255886416    -0.000406999554    -0.112927530563    0.053407319395    -0.000280110318    -0.000459962009
            -0.000326641314    -0.000532867751    0.135020393509    0.032989813238    -0.000280110323    -0.000459962017    0.153542454420    0.057342600388
0.750     -0.091964973668    0.106134588184    -0.000421925986    -0.000395452824    -0.082304344826    0.087657487918    -0.000460946912    -0.000441429526
            -0.000421925993    -0.000395452831    0.181311837942    0.046800709273    -0.000361119795    -0.000333010802    0.156099785405    0.025211755235
            -0.082304344826    0.087657487918    -0.000361119795    -0.000333010802    -0.094922209014    0.103153605991    -0.000396841982    -0.000379654172
            -0.000460946905    -0.000441429519    0.156099771808    0.025211839421    -0.000396841975    -0.000379654165    0.179666665159    0.046300918256
0.775     -0.056725342187    0.144635135714    -0.000513799857    -0.000276624958    -0.054634604948    0.125436957448    -0.000561688527    -0.000313634001
            -0.000513799875    -0.000276624968    0.203576070448    0.025392661087    -0.000438201107    -0.000230191180    0.174730685029    0.009149486596
            -0.054634610868    0.125436911240    -0.000438201107    -0.000230191180    -0.060438548760    0.142477764064    -0.000483488012    -0.000268161426
            -0.000561688527    -0.000313634001    0.174730685492    0.009149477752    -0.000483488012    -0.000268161426    0.201651130430    0.025505419056
