# GHz S RI R 45
0.000     0.028822007000    0.000000000000    -0.000001895593    0.000000000000    0.000723041990    0.000000000000    -0.000001988564    0.000000000000
            -0.000001895609    0.000000000000    0.029648232000    0.000000000000    0.000033136212    -0.000000000000    0.000685649210    0.000000000000
            0.000723038490    0.000000000000    0.000033136114    -0.000000000000    0.028771759000    0.000000000000    -0.000002924270    0.000000000000
            -0.000001988566    0.000000000000    0.000685567600    0.000000000000    -0.000002924279    0.000000000000    0.029584818000    0.000000000000
0.025     0.036110164544    0.008721630922    0.000001687362    -0.000000226915    0.004154754238    0.011330514313    0.000000229389    -0.000001169393
            0.000001687352    -0.000000226909    0.035273132790    0.008360292210    -0.000011880591    -0.000026613296    0.002961792750    0.011629186725
            0.004154735131    0.011330564989    -0.000011880609    -0.000026613288    0.036051464150    0.008723298332    0.000003153354    0.000001382952
            0.000000229390    -0.000001169392    0.002961585494    0.011629023837    0.000003153344    0.000001382957    0.035224632760    0.008396691300
0.050     0.045765980064    0.009222964838    0.000000698662    -0.000004376692    0.013137039105    0.019073124322    -0.000001112977    -0.000004715634
            0.000000698647    -0.000004376686    0.040809034134    0.010245852918    -0.000025796523    -0.000006795428    0.008960932408    0.021119844630
            0.013137027862    0.019073139352    -0.000025796523    -0.000006795428    0.045729415492    0.009266725504    0.000003373968    -0.000003695702
            -0.000001112970    -0.000004715637    0.008960881381    0.021119840209    0.000003373960    -0.000003695698    0.040796507673    0.010329016166
0.075     0.055716608564    0.003603406137    -0.000002538619    -0.000006604324    0.025129139684    0.020809562116    -0.000004510074    -0.000006583378
            -0.000002538618    -0.000006604322    0.045259084542    0.009265659891    -0.000024136324    0.000006183143    0.017159962170    0.027097660494
            0.025129132739    0.020809568934    -0.000024135939    0.000006183403    0.055747375273    0.003668604345    0.000000557379    -0.000006848751
            -0.000004510076    -0.000006583377    0.017159888421    0.027097671687    0.000000557371    -0.000006848743    0.045315073137    0.009367755902
0.100     0.062988769425    -0.008362607788    -0.000006572701    -0.000006893786    0.036716041195    0.015636529275    -0.000008608181    -0.000006582373
            -0.000006572705    -0.000006893778    0.047555387032    0.005905328293    -0.000018573865    0.000013622620    0.025595662551    0.029115626521
            0.036716041296    0.015636531589    -0.000018573867    0.000013622627    0.063117387320    -0.008309862254    -0.000003356272    -0.000008125366
            -0.000008608181    -0.000006582371    0.025595584309    0.029115642045    -0.000003356272    -0.000008125366    0.047691978453    0.005983099065
0.125     0.064273425433    -0.025115373928    -0.000010528835    -0.000005390560    0.044414098014    0.004355206811    -0.000012625449    -0.000004811205
            -0.000010528840    -0.000005390551    0.046518399035    0.001434992919    -0.000012364369    0.000016923863    0.032358708779    0.027715111923
            0.044414099822    0.004355208866    -0.000012364367    0.000016923866    0.064517031253    -0.025122945460    -0.000007503330    -0.000007680697
            -0.000012625408    -0.000004811229    0.032358631758    0.027715131134    -0.000007503333    -0.000007680690    0.046723467327    0.001440415651
0.150     0.057264010555    -0.043638645846    -0.000013866248    -0.000002310424    0.045437171625    -0.010667768256    -0.000016036859    -0.000001451237
            -0.000013866262    -0.000002310401    0.041625685116    -0.002276696081    -0.000006940507    0.000017477348    0.036037778353    0.024281277663
            0.045437173945    -0.010667767127    -0.000006939463    0.000017478961    0.057621873490    -0.043762700560    -0.000011419709    -0.000005629548
            -0.000016036858    -0.000001451234    0.036037693346    0.024281303608    -0.000011419746    -0.000005629547    0.041866676137    -0.002381521020
0.175     0.041164041568    -0.059812517929    -0.000016126108    0.000002044776    0.038304463821    -0.025943561444    -0.000018382838    0.000003250661
            -0.000016126112    0.000002044794    0.033380797671    -0.003180981779    -0.000003050887    0.000016499180    0.036037733406    0.020726270932
            0.038304466383    -0.025943561229    -0.000003050901    0.000016499276    0.041609458028    -0.060114952974    -0.000014647464    -0.000002122006
            -0.000018382837    0.000003250664    0.036037658305    0.020726297212    -0.000014647464    -0.000002122001    0.033605490414    -0.003419779985
0.200     0.017207031210    -0.069365270752    -0.000016938976    0.000007359189    0.023263408469    -0.037513320453    -0.000019252870    0.000009015462
            -0.000016938978    0.000007359200    0.023247497542    0.000444309079    -0.000000674438    0.000015140505    0.032764410326    0.019072282786
            0.023263411487    -0.037513320934    -0.000000674437    0.000015140601    0.017684178543    -0.069900849305    -0.000016739935    0.000002691900
            -0.000019252870    0.000009015462    0.032764337219    0.019072312964    -0.000016739935    0.000002691909    0.023391682882    0.000072746587
0.225     -0.011441038754    -0.068782396751    -0.000015949712    0.000013185697    0.002402893017    -0.041757050374    -0.000018224512    0.000015410887
            -0.000015949710    0.000013185710    0.013481854993    0.009535111884    0.000000598651    0.000014273583    0.027600228490    0.020953204926
            0.002402894589    -0.041757052287    0.000000598666    0.000014273629    -0.011016373529    -0.069584466598    -0.000017193647    0.000008478480
            -0.000018224511    0.000015410886    0.027600156233    0.020953238914    -0.000017193647    0.000008478487    0.013481486626    0.009062677805
0.250     -0.040112957536    -0.056173535998    -0.000012890094    0.000018933713    -0.020605791779    -0.036244085241    -0.000014957451    0.000021814728
            -0.000012890098    0.000018933712    0.006709098084    0.023905242927    0.000001580193    0.000014241077    0.022635803719    0.027164632279
            -0.020605785948    -0.036244089706    0.000001580237    0.000014241157    -0.039844026771    -0.057239018563    -0.000015547794    0.000014688031
            -0.000014957446    0.000021814730    0.022635724872    0.027164674550    -0.000015547795    0.000014688032    0.006515193283    0.023394034344
0.275     -0.063485314675    -0.031877853338    -0.000007709257    0.000023805090    -0.041171301848    -0.020408439876    -0.000009346400    0.000027360496
            -0.000007709261    0.000023805088    0.005351329663    0.042098130175    0.000003020983    0.000014949652    0.020180783533    0.037371222739
            -0.041171297390    -0.020408446618    0.000003021014    0.000014949688    -0.063477220524    -0.033157289444    -0.000011564788    0.000020476459
            -0.000009346400    0.000027360496    0.020180715643    0.037371263946    -0.000011564782    0.000020476465    0.004944254880    0.041632696698
0.300     -0.076682822105    0.001347580555    -0.000000713440    0.000026949570    -0.054754730962    0.004143574155    -0.000001684515    0.000031105572
            -0.000000713363    0.000026949631    0.011000305117    0.061586792968    0.000005396012    0.000015785383    0.022167612865    0.050114388532
            -0.054754731959    0.004143574231    0.000005396082    0.000015785442    -0.077020641099    -0.000047909567    -0.000005402091    0.000024873592
            -0.000001684514    0.000031105572    0.022167546806    0.050114433061    -0.000005402095    0.000024873591    0.010400603772    0.061259518265
0.325     -0.076376798568    0.038737870605    0.000007368261    0.000027655901    -0.057892706635    0.033859606340    0.000007269906    0.000032249802
            0.000007368251    0.000027655899    0.023953933435    0.079261949387    0.000008761497    0.000016077070    0.029624165223    0.063127761008
            -0.057892707498    0.033859606845    0.000008761536    0.000016077090    -0.077102278166    0.037361955489    0.000002288726    0.000027009177
            0.000007269903    0.000032249798    0.029624102607    0.063127808066    0.000002288726    0.000027009176    0.023223356837    0.079152962627
0.350     -0.061582305585    0.074423450891    0.000015525350    0.000025611874    -0.048996624424    0.063955277637    0.000016441630    0.000030416254
            0.000015525341    0.000025611875    0.043065891662    0.092135405365    0.000012678852    0.000015245547    0.042402569818    0.073895532268
            -0.048996624424    0.063955277637    0.000012678845    0.000015245544    -0.062677295017    0.073219885755    0.000010503629    0.000026405509
            0.000016441643    0.000030416240    0.042402509222    0.073895582026    0.000010503631    0.000026405510    0.042300165185    0.092294470976
0.375     -0.033883612005    0.102597817715    0.000022699642    0.000020999559    -0.028664307326    0.089397480507    0.000024695865    0.000025756743
            0.000022699676    0.000020999566    0.065970294456    0.097992353693    0.000016585015    0.000013092687    0.059225049404    0.080232716806
            -0.028664307631    0.089397481459    0.000016584824    0.000013092951    -0.035264854421    0.101708599014    0.000018131882    0.000023111099
            0.000024695862    0.000025756743    0.059224977519    0.080232783542    0.000018131876    0.000023111106    0.065283558233    0.098424666416
0.400     0.002892071231    0.118610846760    0.000028078074    0.000014433293    0.000497700161    0.105869740147    0.000031146259    0.000018886428
            0.000028078078    0.000014433297    0.089590431574    0.095846196534    0.000019883186    0.000009779740    0.078006738189    0.080742777780
            0.000497698314    0.105869740156    0.000019883275    0.000009779756    0.001365684121    0.118139426654    0.000024275446    0.000017648736
            0.000031146259    0.000018886425    0.078006674675    0.080742853045    0.000024275444    0.000017648741    0.089094197254    0.096507928819
0.425     0.043420778378    0.119715624463    0.000031231657    0.000006751688    0.034426138054    0.110454408502    0.000035307619    0.000010660957
            0.000031231657    0.000006751694    0.110744932467    0.086066421410    0.000022268079    0.000005670616    0.096290538795    0.075026904345
            0.034426094427    0.110454390676    0.000022268120    0.000005670603    0.041929454448    0.119705210441    0.000028417344    0.000010811698
            0.000035307621    0.000010660956    0.096290470671    0.075026975506    0.000028417343    0.000010811698    0.110528248355    0.086867963557
0.450     0.081773493301    0.105408771206    0.000032143692    -0.000001220530    0.068290464144    0.101995857995    0.000037120837    0.000001928376
            0.000032143775    -0.000001220569    0.126703279329    0.070252161930    0.000023656275    0.000001186513    0.111682570315    0.063701236483
            0.068290462364    0.101995859187    0.000023656359    0.000001186474    0.080511095952    0.105828633717    0.000030464332    0.000003407616
            0.000037120836    0.000001928374    0.111682505135    0.063701310391    0.000030464333    0.000003407609    0.126814473606    0.071068895101
0.475     0.112258640172    0.077394503962    0.000031091273    -0.000008841057    0.097154437938    0.081162926375    0.000036827574    -0.000006649780
            0.000031091275    -0.000008841055    0.135581937741    0.050919039370    0.000024191198    -0.000003407423    0.122197825291    0.048262983398
            0.097154437938    0.081162926375    0.000024191198    -0.000003407423    0.111403725730    0.078137358451    0.000030636134    -0.000003924767
            0.000036827573    -0.000006649782    0.122197798301    0.048263024512    0.000030636132    -0.000003924770    0.136016694744    0.051609974454
0.500     0.130131314064    0.039329341721    0.000028495020    -0.000015743254    0.116561959762    0.050360788651    0.000034811915    -0.000014686965
            0.000028495021    -0.000015743255    0.136598353260    0.031127696840    0.000024067114    -0.000008015305    0.126543043079    0.030901809671
            0.116561958883    0.050360790685    0.000024067116    -0.000008015307    0.129818676960    0.040217652000    0.000029306637    -0.000010825114
            0.000034811916    -0.000014686966    0.126542993441    0.030901886481    0.000029306637    -0.000010825114    0.137292995450    0.031554540431
0.525     0.132162000178    -0.003579307514    0.000024751380    -0.000021825069    0.123050945247    0.013530801601    0.000031427296    -0.000022056710
            0.000024751386    -0.000021825066    0.130192192724    0.014068369654    0.000023406062    -0.000012762848    0.124337572300    0.014239054980
            0.123050945105    0.013530802889    0.000023406081    -0.000012762886    0.132455929915    -0.002776653460    0.000026826215    -0.000017204680
            0.000031427295    -0.000022056713    0.124337522569    0.014239137667    0.000026826212    -0.000017204680    0.131025342092    0.014121122715
0.550     0.117128064495    -0.045088310935    0.000020091988    -0.000027178534    0.114683799443    -0.024155626122    0.000026861552    -0.000028811917
            0.000020091994    -0.000027178535    0.118058902516    0.002628510766    0.000022125281    -0.000017865717    0.116303426607    0.000994679093
            0.114683799443    -0.024155626122    0.000022125314    -0.000017865808    0.118000009123    -0.044629540860    0.000023365367    -0.000023172718
            0.000026861552    -0.000028811917    0.116303375879    0.000994763961    0.000023365367    -0.000023172719    0.118861351166    0.002249731640
0.575     0.086204599827    -0.078604592002    0.000014492795    -0.000031931182    0.091549621302    -0.056803057737    0.000021050091    -0.000035023935
            0.000014492801    -0.000031931226    0.103042077949    -0.001099140707    0.000019848783    -0.000023505540    0.104337618546    -0.006482765077
            0.091549621302    -0.056803057737    0.000019848794    -0.000023505635    0.087520559167    -0.078738304226    0.000018818181    -0.000028864981
            0.000021050089    -0.000035023935    0.104337573859    -0.006482678027    0.000018818183    -0.000028865020    0.103619599711    -0.001892472396
0.600     0.043177937044    -0.098115014041    0.000007679620    -0.000036036328    0.056161346632    -0.078605807534    0.000013695407    -0.000040573578
            0.000007679621    -0.000036036328    0.088828446673    0.003671538876    0.000015951425    -0.000029574342    0.091384536977    -0.006777639219
            0.056161348957    -0.078605810789    0.000015951423    -0.000029574342    0.044699176571    -0.099034739361    0.000012806753    -0.000034215794
            0.000013695407    -0.000040573578    0.091384498452    -0.006777550241    0.000012806756    -0.000034215790    0.088995750546    0.002568830029
0.625     -0.005742560888    -0.099319119124    -0.000000693833    -0.000039061935    0.013478266373    -0.084940332498    0.000004446873    -0.000044946977
            -0.000000693833    -0.000039061935    0.079335321646    0.015999082171    0.000009744731    -0.000035472569    0.080954751994    0.000044088965
            0.013478266687    -0.084940334473    0.000009744728    -0.000035472567    -0.004336323134    -0.101116502346    0.000004874606    -0.000038730439
            0.000004446870    -0.000044946977    0.080954717945    0.000044180265    0.000004874612    -0.000038730435    0.078958502219    0.014775145871
0.650     -0.052720337706    -0.080763223115    -0.000010704526    -0.000040136394    -0.029675999713    -0.073559438122    -0.000006751670    -0.000047191034
            -0.000010704528    -0.000040136399    0.077836364251    0.033119671962    0.000000884779    -0.000040048606    0.076323479223    0.012179199043
            -0.029675999713    -0.073559438122    0.000000884604    -0.000040048405    -0.051783128862    -0.083391003406    -0.000005149340    -0.000041422330
            -0.000006751669    -0.000047191035    0.076323479138    0.012179199576    -0.000005149343    -0.000041422305    0.076872891959    0.032018762706
0.675     -0.089723532309    -0.044529779729    -0.000021795428    -0.000038196194    -0.065874257158    -0.045412611021    -0.000019302187    -0.000046165020
            -0.000021795427    -0.000038196193    0.086026176373    0.050880501443    -0.000010241175    -0.000041871411    0.079583833401    0.026336615068
            -0.065874260452    -0.045412613292    -0.000010241174    -0.000041871405    -0.089578665182    -0.047789954781    -0.000016754634    -0.000041068332
            -0.000019302188    -0.000046165022    0.079583821080    0.026336661848    -0.000016754664    -0.000041068363    0.084548009199    0.050154682963
0.700     -0.110286604603    0.003920327335    -0.000032679621    -0.000032501741    -0.088751147951    -0.004689911952    -0.000031855678    -0.000041066598
            -0.000032679621    -0.000032501741    0.103442038224    0.064705239677    -0.000022369482    -0.000039798154    0.090988596733    0.038553884994
            -0.088751147951    -0.004689911952    -0.000022369481    -0.000039798153    -0.111157316795    0.000353848951    -0.000028631713    -0.000036750676
            -0.000031855677    -0.000041066596    0.090988577219    0.038553979749    -0.000028631714    -0.000036750677    0.101630697955    0.064558142320
0.725     -0.110967111248    0.056880818842    -0.000041677296    -0.000023124121    -0.094445056055    0.042098858225    -0.000042655492    -0.000031919419
            -0.000041677339    -0.000023124126    0.127524022179    0.070763760601    -0.000033703901    -0.000033510045    0.108870270863    0.045259283620
            -0.094445063403    0.042098841741    -0.000033703759    -0.000033509868    -0.112927530563    0.053407319395    -0.000039001448    -0.000028381872
            -0.000042655482    -0.000031919412    0.108870263018    0.045259380642    -0.000039001440    -0.000028381867    0.125637125128    0.071302731426
0.750     -0.091964973668    0.106134588184    -0.000047327715    -0.000011049159    -0.082304344826    0.087657487918    -0.000050155300    -0.000019687291
            -0.000047327800    -0.000011049188    0.154333652499    0.066874023019    -0.000042540829    -0.000023684564    0.130201537155    0.044145552442
            -0.082304344826    0.087657487918    -0.000042540902    -0.000023684595    -0.094922209014    0.103153605991    -0.000046247098    -0.000016845283
            -0.000050155296    -0.000019687290    0.130201536385    0.044145554715    -0.000046247097    -0.000016845283    0.152652236520    0.068088173069
0.775     -0.056725342187    0.144635135714    -0.000048884695    0.000002165468    -0.054634604948    0.125436957448    -0.000053523347    -0.000005925798
            -0.000048884691    0.000002165468    0.179553843170    0.052826419223    -0.000047813292    -0.000011677649    0.151434958738    0.034520959583
            -0.054634610868    0.125436911240    -0.000047813330    -0.000011677650    -0.060438548760    0.142477764064    -0.000049445629    -0.000003673126
            -0.000053523341    -0.000005925797    0.151434958245    0.034521006737    -0.000049445627    -0.000003673126    0.178329926790    0.054590750984
