# GHz S RI R 45
0.000     0.028822007000    0.000000000000    0.000001448570    -0.000000000000    0.000723041990    0.000000000000    -0.000003050119    0.000000000000
            0.000001448465    -0.000000000000    0.029438974000    0.000000000000    -0.000003135130    0.000000000000    0.000786319970    0.000000000000
            0.000723038490    0.000000000000    -0.000003135171    0.000000000000    0.028771759000    0.000000000000    0.000027844150    -0.000000000000
            -0.000003050139    0.000000000000    0.000786432440    0.000000000000    0.000027844260    -0.000000000000    0.029459249000    0.000000000000
0.025     0.036110164544    0.008721630922    0.000001019031    -0.000006134340    0.004154754238    0.011330514313    -0.000000478462    -0.000005823087
            0.000001018926    -0.000006134315    0.034953614153    0.008110996114    0.000001462896    -0.000003185850    0.002872307144    0.011295440021
            0.004154735131    0.011330564989    0.000001462862    -0.000003185859    0.036051464150    0.008723298332    -0.000014214723    -0.000029676444
            -0.000000478489    -0.000005823086    0.002872300191    0.011295267410    -0.000014214625    -0.000029676465    0.034854598811    0.008045186844
0.050     0.045765980064    0.009222964838    -0.000003561604    -0.000012094908    0.013137039105    0.019073124322    -0.000005095149    -0.000014872749
            -0.000003561703    -0.000012094862    0.040206267345    0.010085451330    -0.000001661529    -0.000011323035    0.008531455356    0.020693537487
            0.013137027862    0.019073139352    -0.000001661553    -0.000011323028    0.045729415492    0.009266725504    -0.000031377292    -0.000016059619
            -0.000005095175    -0.000014872742    0.008531597955    0.020693514390    -0.000031377193    -0.000016059665    0.040026502124    0.009992341658
0.075     0.055716608564    0.003603406137    -0.000010697388    -0.000015385318    0.025129139684    0.020809562116    -0.000014646250    -0.000019967853
            -0.000010697465    -0.000015385257    0.044481791389    0.009378525521    -0.000009142399    -0.000015933259    0.016375564816    0.026818170287
            0.025129132739    0.020809568934    -0.000009142423    -0.000015933249    0.055747375273    0.003668604345    -0.000036076627    -0.000006429734
            -0.000014646271    -0.000019967845    0.016375682402    0.026818152384    -0.000036076542    -0.000006429797    0.044199956627    0.009319902862
0.100     0.062988769425    -0.008362607788    -0.000019067841    -0.000015553602    0.036716041195    0.015636529275    -0.000026214432    -0.000020440560
            -0.000019067910    -0.000015553520    0.046790845757    0.006407721401    -0.000018291184    -0.000016693495    0.024575878541    0.029209556107
            0.036716041296    0.015636531589    -0.000018291207    -0.000016693482    0.063117387320    -0.008309862254    -0.000038260473    0.000000859319
            -0.000026214450    -0.000020440552    0.024575989777    0.029209533088    -0.000038260404    0.000000859237    0.046425261056    0.006450018933
0.125     0.064273425433    -0.025115373928    -0.000027594113    -0.000012609601    0.044414098014    0.004355206811    -0.000038033401    -0.000016280326
            -0.000027594159    -0.000012609511    0.046013336259    0.002336670547    -0.000027603777    -0.000013776508    0.031345364457    0.028321948004
            0.044414099822    0.004355208866    -0.000027603799    -0.000013776489    0.064517031253    -0.025122945460    -0.000039948388    0.000007160882
            -0.000038033423    -0.000016280304    0.031345473731    0.028321919544    -0.000039948338    0.000007160786    0.045617796111    0.002528515693
0.150     0.057264010555    -0.043638645846    -0.000035513860    -0.000006642472    0.045437171625    -0.010667768256    -0.000048801100    -0.000007688042
            -0.000035513890    -0.000006642363    0.041624469747    -0.001114107352    -0.000036119247    -0.000007431444    0.035338097124    0.025393861067
            0.045437173945    -0.010667767127    -0.000036119265    -0.000007431421    0.057621873490    -0.043762700560    -0.000041679138    0.000013672594
            -0.000048801136    -0.000007687961    0.035338208115    0.025393824853    -0.000041679110    0.000013672496    0.041278908217    -0.000756628089
0.175     0.041164041568    -0.059812517929    -0.000042091200    0.000002266780    0.038304463821    -0.025943561444    -0.000057284940    0.000005006494
            -0.000042091203    0.000002266876    0.034052540944    -0.002022588415    -0.000042962235    0.000002080151    0.035942208415    0.022166034652
            0.038304466383    -0.025943561229    -0.000042962244    0.000002080159    0.041609458028    -0.060114952974    -0.000043404222    0.000021423338
            -0.000057284947    0.000005006484    0.035942312254    0.022165993917    -0.000043404215    0.000021423231    0.033838268995    -0.001528718279
0.200     0.017207031210    -0.069365270752    -0.000046437879    0.000014058778    0.023263408469    -0.037513320453    -0.000062239823    0.000021365952
            -0.000046437857    0.000014058886    0.024620109476    0.001243807087    -0.000047208378    0.000014516357    0.033455919838    0.020506691336
            0.023263411487    -0.037513320934    -0.000047208384    0.000014516449    0.017684178543    -0.069900849305    -0.000044298666    0.000031216155
            -0.000062239827    0.000021366039    0.033456025858    0.020506644663    -0.000044298679    0.000031216061    0.024597497404    0.001803547671
0.225     -0.011441038754    -0.068782396751    -0.000047360116    0.000028368498    0.002402893017    -0.041757050374    -0.000062238864    0.000040534226
            -0.000047360078    0.000028368587    0.015396148563    0.009607703626    -0.000047698455    0.000029323599    0.029075520751    0.021961131316
            0.002402894589    -0.041757052287    -0.000047698450    0.000029323687    -0.011016373529    -0.069584466598    -0.000042988261    0.000043423735
            -0.000062238863    0.000040534272    0.029075618464    0.021961081589    -0.000042988287    0.000043423685    0.015585026361    0.010135551712
0.250     -0.040112957536    -0.056173535998    -0.000043530356    0.000044227446    -0.020605791779    -0.036244085241    -0.000055918904    0.000061021974
            -0.000043530298    0.000044227525    0.008816608797    0.022970433355    -0.000043221722    0.000045401605    0.024667018037    0.027342207470
            -0.020605785948    -0.036244089706    -0.000043221738    0.000045401606    -0.039844026771    -0.057239018563    -0.000037789602    0.000057404789
            -0.000055918881    0.000061022056    0.024667108173    0.027342155783    -0.000037789659    0.000057404702    0.009184889188    0.023364508158
0.275     -0.063485314675    -0.031877853338    -0.000033934386    0.000059823078    -0.041171301848    -0.020408439876    -0.000042406581    0.000080497189
            -0.000033934323    0.000059823137    0.007169317051    0.040061965286    -0.000032928822    0.000060866580    0.022338999984    0.036452980833
            -0.041171297390    -0.020408446618    -0.000032928814    0.000060866615    -0.063477220524    -0.033157289444    -0.000027298870    0.000071568946
            -0.000042406600    0.000080497191    0.022339090555    0.036452922983    -0.000027298944    0.000071568878    0.007634552328    0.040243348845
0.300     -0.076682822105    0.001347580555    -0.000018447588    0.000072725754    -0.054754730962    0.004143574155    -0.000021886237    0.000096122558
            -0.000018447505    0.000072725800    0.012019349354    0.058602872444    -0.000016863621    0.000073317012    0.023913331859    0.048069807357
            -0.054754731959    0.004143574231    -0.000016863568    0.000073317077    -0.077020641099    -0.000047909567    -0.000011108954    0.000083440814
            -0.000021886240    0.000096122569    0.023913415788    0.048069748851    -0.000011109035    0.000083440769    0.012465962335    0.058540014267
0.325     -0.076376798568    0.038737870605    0.000001781806    0.000080455257    -0.057892706635    0.033859606340    0.000004073361    0.000105138783
            0.000001781896    0.000080455287    0.023771133126    0.075725500262    0.000003693089    0.000080370703    0.030440941403    0.060196194477
            -0.057892707498    0.033859606845    0.000003693076    0.000080370717    -0.077102278166    0.037361955489    0.000009894718    0.000090482596
            0.000004073392    0.000105138822    0.030441025735    0.060196131660    0.000009894632    0.000090482566    0.024075556639    0.075446226391
0.350     -0.061582305585    0.074423450891    0.000024452976    0.000081282671    -0.048996624424    0.063955277637    0.000032720287    0.000105719329
            0.000024453063    0.000081282682    0.041497320228    0.088605162311    0.000026384937    0.000080442916    0.041929519829    0.070543863202
            -0.048996624424    0.063955277637    0.000026384922    0.000080442932    -0.062677295017    0.073219885755    0.000033534265    0.000090816522
            0.000032720282    0.000105719352    0.041929603996    0.070543794562    0.000033534170    0.000090816508    0.041559026068    0.088195148680
0.375     -0.033883612005    0.102597817715    0.000046686108    0.000074757773    -0.028664307326    0.089397480507    0.000060748339    0.000097454810
            0.000046686201    0.000074757768    0.063106000262    0.095064190766    0.000048347868    0.000073222277    0.057345909872    0.077053636705
            -0.028664307631    0.089397481459    0.000048347952    0.000073222307    -0.035264854421    0.101708599014    0.000057067328    0.000083840268
            0.000060748341    0.000097454832    0.057345984441    0.077053571236    0.000057067235    0.000083840270    0.062872030521    0.094650268501
0.400     0.002892071231    0.118610846760    0.000065834989    0.000061792952    0.000497700161    0.105869740147    0.000085172000    0.000081408574
            0.000065835079    0.000061792928    0.085777153291    0.094022676930    0.000067012947    0.000059720964    0.074875259010    0.078330183813
            0.000497698314    0.105869740156    0.000067013040    0.000059720979    0.001365684121    0.118139426654    0.000077877110    0.000070281751
            0.000085171993    0.000081408596    0.074875324631    0.078330121086    0.000077877024    0.000070281772    0.085257081739    0.093747008477
0.425     0.043420778378    0.119715624463    0.000080095427    0.000044253617    0.034426138054    0.110454408502    0.000103928887    0.000059642593
            0.000080095505    0.000044253582    0.106514831510    0.085656720229    0.000080674036    0.000041848895    0.092299216045    0.073863591079
            0.034426094427    0.110454390676    0.000080674141    0.000041848892    0.041929454448    0.119705210441    0.000094178139    0.000051783741
            0.000103928932    0.000059642615    0.092299280576    0.073863526446    0.000094178026    0.000051783573    0.105781123668    0.085647497475
0.450     0.081773493301    0.105408771206    0.000088785568    0.000024346566    0.068290464144    0.101995857995    0.000116160222    0.000034566764
            0.000088785635    0.000024346508    0.122674027093    0.071318390242    0.000088741870    0.000021800914    0.107396743251    0.064077379967
            0.068290462364    0.101995859187    0.000088741891    0.000021800922    0.080511095952    0.105828633717    0.000105188887    0.000030328133
            0.000116160314    0.000034566736    0.107396806279    0.064077313363    0.000105188886    0.000030328279    0.121850747614    0.071664573427
0.475     0.112258640172    0.077394503962    0.000092223478    0.000004031059    0.097154437938    0.081162926375    0.000122039847    0.000008328024
            0.000092223534    0.000004030993    0.132354995460    0.053267068357    0.000091592650    0.000001488667    0.118272751357    0.050224605841
            0.097154437938    0.081162926375    0.000091592673    0.000001488684    0.111403725730    0.078137358451    0.000111050373    0.000007636070
            0.000122039866    0.000008328040    0.118272814034    0.050224534997    0.000111050319    0.000007636133    0.131598035459    0.053999456690
0.500     0.130131314064    0.039329341721    0.000091403356    -0.000015387607    0.116561959762    0.050360788651    0.000122425957    -0.000017591438
            0.000091403399    -0.000015387681    0.134665582539    0.034327028039    0.000090232496    -0.000017845115    0.123631137424    0.034224903101
            0.116561958883    0.050360790685    0.000090232522    -0.000017845107    0.129818676960    0.040217652000    0.000112444780    -0.000015151715
            0.000122426039    -0.000017591496    0.123631199867    0.034224827462    0.000112444740    -0.000015151641    0.134136620150    0.035408397417
0.525     0.132162000178    -0.003579307514    0.000087520139    -0.000033445346    0.123050945247    0.013530801601    0.000118354664    -0.000042528243
            0.000087520163    -0.000033445427    0.129851174644    0.017498182239    0.000085821810    -0.000035778899    0.122984949405    0.018427954644
            0.123050945105    0.013530802889    0.000085821857    -0.000035778936    0.132455929915    -0.002776653460    0.000110150476    -0.000037642491
            0.000118354741    -0.000042528325    0.122985028233    0.018427833457    0.000110150452    -0.000037642407    0.129689893372    0.018823307829
0.550     0.117128064495    -0.045088310935    0.000081476525    -0.000050484256    0.114683799443    -0.024155626122    0.000110558642    -0.000066559235
            0.000081476534    -0.000050484336    0.119334582366    0.005549094662    0.000079200180    -0.000052649852    0.116831282236    0.005317919820
            0.114683799443    -0.024155626122    0.000079200287    -0.000052649827    0.118000009123    -0.044629540860    0.000104584747    -0.000060042267
            0.000110558664    -0.000066559237    0.116831336119    0.005317835637    0.000104584746    -0.000060042189    0.119629649956    0.006956490692
0.575     0.086204599827    -0.078604592002    0.000073391727    -0.000067329425    0.091549621302    -0.056803057737    0.000099016185    -0.000090134324
            0.000073391717    -0.000067329508    0.105623630486    0.000566564539    0.000070436687    -0.000069211405    0.106725095232    -0.002897117585
            0.091549621302    -0.056803057737    0.000070436719    -0.000069211504    0.087520559167    -0.078738304226    0.000095402471    -0.000082817276
            0.000099016204    -0.000090134332    0.106725161712    -0.002897248198    0.000095402489    -0.000082817285    0.106389695320    0.001861534176
0.600     0.043177937044    -0.098115014041    0.000062330989    -0.000084662437    0.056161346632    -0.078605807534    0.000082762638    -0.000113441818
            0.000062330964    -0.000084662517    0.092052095723    0.003491274672    0.000058609209    -0.000086021443    0.095188918660    -0.004773172650
            0.056161348957    -0.078605810789    0.000058609218    -0.000086021546    0.044699176571    -0.099034739361    0.000081377764    -0.000106039039
            0.000082762654    -0.000113441831    0.095188956133    -0.004773263969    0.000081377804    -0.000106038996    0.093215711582    0.004481100618
0.625     -0.005742560888    -0.099319119124    0.000046489876    -0.000102158926    0.013478266373    -0.084940332498    0.000060157798    -0.000135599415
            0.000046489846    -0.000102158951    0.082256265921    0.013724584233    0.000042030361    -0.000102632629    0.085328777112    -0.000121770986
            0.013478266687    -0.084940334473    0.000042030381    -0.000102632653    -0.004336323134    -0.101116502346    0.000060705299    -0.000128644118
            0.000060157810    -0.000135599431    0.085328807982    -0.000121861812    0.000060705299    -0.000128644228    0.083659975587    0.014259464418
0.650     -0.052720337706    -0.080763223115    0.000024079257    -0.000117839303    -0.029675999713    -0.073559438122    0.000029828547    -0.000154115133
            0.000024079239    -0.000117839246    0.079421677873    0.028995352815    0.000019122992    -0.000117023697    0.080174480948    0.009720526696
            -0.029675999713    -0.073559438122    0.000019123003    -0.000117023716    -0.051783128862    -0.083391003406    0.000031971665    -0.000147957082
            0.000029828512    -0.000154115171    0.080174506061    0.009720435887    0.000031971672    -0.000147957101    0.080848808184    0.029007791895
0.675     -0.089723532309    -0.044529779729    -0.000005340053    -0.000128183536    -0.065874257158    -0.045412611021    -0.000008034398    -0.000165146378
            -0.000005340056    -0.000128183506    0.085436686582    0.045665100443    -0.000010314050    -0.000125779397    0.081853858815    0.022026279276
            -0.065874260452    -0.045412613292    -0.000010314050    -0.000125779417    -0.089578665182    -0.047789954781    -0.000004609887    -0.000160021103
            -0.000008034393    -0.000165146398    0.081853893208    0.022026139920    -0.000004609882    -0.000160021123    0.086656231926    0.045192954508
0.700     -0.110286604603    0.003920327335    -0.000039831457    -0.000129350778    -0.088751147951    -0.004689911952    -0.000050778618    -0.000164826090
            -0.000039831524    -0.000129350674    0.100298392782    0.059512967523    -0.000044188632    -0.000125305325    0.090956754336    0.033304866057
            -0.088751147951    -0.004689911952    -0.000044188642    -0.000125305353    -0.111157316795    0.000353848951    -0.000046354075    -0.000160929793
            -0.000050778621    -0.000164826099    0.090956773741    0.033304772344    -0.000046354053    -0.000160929820    0.101117609572    0.058696700425
0.725     -0.110967111248    0.056880818842    -0.000075217028    -0.000118896835    -0.094445056055    0.042098858225    -0.000093586352    -0.000150977928
            -0.000075217018    -0.000118896818    0.122034162785    0.066768592732    -0.000078327958    -0.000113469100    0.106342649852    0.040205155828
            -0.094445063403    0.042098841741    -0.000078327969    -0.000113469116    -0.112927530563    0.053407319395    -0.000088475131    -0.000148498779
            -0.000093586363    -0.000150977945    0.106342668805    0.040205020865    -0.000088475141    -0.000148498796    0.122343604061    0.065820681417
0.750     -0.091964973668    0.106134588184    -0.000106439927    -0.000096971293    -0.082304344826    0.087657487918    -0.000130976732    -0.000124220352
            -0.000106439905    -0.000096971273    0.147225434517    0.065002846768    -0.000107843034    -0.000090682607    0.125518611388    0.040343452956
            -0.082304344826    0.087657487918    -0.000107843057    -0.000090682626    -0.094922209014    0.103153605991    -0.000125565669    -0.000123307815
            -0.000130976790    -0.000124220363    0.125518637045    0.040343275092    -0.000125565704    -0.000123307850    0.147021027424    0.064161331440
0.775     -0.056725342187    0.144635135714    -0.000129277991    -0.000066216515    -0.054634604948    0.125436957448    -0.000158562181    -0.000087715556
            -0.000129278422    -0.000066216508    0.171863768755    0.053560907949    -0.000128783598    -0.000059728794    0.145328481485    0.032730902947
            -0.054634610868    0.125436911240    -0.000128783614    -0.000059728829    -0.060438548760    0.142477764064    -0.000153318347    -0.000088411706
            -0.000158562208    -0.000087715570    0.145328489438    0.032730822120    -0.000153317973    -0.000088411633    0.171242956908    0.053038279978
