# GHz S RI R 45
0.000     0.028822007000    0.000000000000    0.000001264007    0.000000000000    0.000723041990    0.000000000000    -0.000033613353    0.000000000000
            0.000001264204    0.000000000000    0.028740285000    0.000000000000    0.000012504468    0.000000000000    0.000672036350    0.000000000000
            0.000723038490    0.000000000000    0.000012506441    0.000000000000    0.028771759000    0.000000000000    -0.000006112828    0.000000000000
            -0.000033613211    0.000000000000    0.000672036310    0.000000000000    -0.000006112812    0.000000000000    0.028729145000    0.000000000000
0.025     0.036110164544    0.008721630922    -0.000022930012    -0.000061242444    0.004154754238    0.011330514313    -0.000053501670    -0.000053069122
            -0.000022930018    -0.000061242428    0.033989754119    0.007947239258    -0.000027661700    -0.000071646387    0.002581629871    0.010904743614
            0.004154735131    0.011330564989    -0.000027661691    -0.000071646400    0.036051464150    0.008723298332    -0.000023325472    -0.000063937975
            -0.000053501660    -0.000053069112    0.002581505744    0.010904576720    -0.000023325479    -0.000063937959    0.033916325949    0.007966283908
0.050     0.045765980064    0.009222964838    -0.000068118851    -0.000100803184    0.013137039105    0.019073124322    -0.000104768082    -0.000095780878
            -0.000068118857    -0.000100803192    0.038832078593    0.010022485593    -0.000077316623    -0.000104810648    0.007685698911    0.020144987200
            0.013137027862    0.019073139352    -0.000077316629    -0.000104810656    0.045729415492    0.009266725504    -0.000072360389    -0.000113214209
            -0.000104768082    -0.000095780878    0.007685728791    0.020144974729    -0.000072360408    -0.000113214196    0.038736114323    0.010088024632
0.075     0.055716608564    0.003603406137    -0.000128646181    -0.000119275603    0.025129139684    0.020809562116    -0.000172880228    -0.000104911500
            -0.000128646181    -0.000119275603    0.042661803859    0.009795517971    -0.000136438453    -0.000121117502    0.014839614816    0.026585627577
            0.025129132739    0.020809568934    -0.000136438446    -0.000121117496    0.055747375273    0.003668604345    -0.000142038203    -0.000135161870
            -0.000172880158    -0.000104911539    0.014839619967    0.026585626992    -0.000142038196    -0.000135161863    0.042554929764    0.009931758481
0.100     0.062988769425    -0.008362607788    -0.000196735471    -0.000112733489    0.036716041195    0.015636529275    -0.000240760741    -0.000082076962
            -0.000196735479    -0.000112733494    0.044761748313    0.007691163572    -0.000203396950    -0.000115842824    0.022536236834    0.029797811952
            0.036716041296    0.015636531589    -0.000203397016    -0.000115842768    0.063117387320    -0.008309862254    -0.000218857044    -0.000126704961
            -0.000240760674    -0.000082077034    0.022536236834    0.029797811952    -0.000218857106    -0.000126704895    0.044669474078    0.007915059493
0.125     0.064273425433    -0.025115373928    -0.000264049982    -0.000080825198    0.044414098014    0.004355206811    -0.000297610569    -0.000034434612
            -0.000264049982    -0.000080825198    0.044254434332    0.004705507528    -0.000272071529    -0.000086839879    0.029283435046    0.030086233449
            0.044414099822    0.004355208866    -0.000272071529    -0.000086839879    0.064517031253    -0.025122945460    -0.000292147545    -0.000089938111
            -0.000297610569    -0.000034434612    0.029283435046    0.030086233449    -0.000292147545    -0.000089938111    0.044214104731    0.005019373808
0.150     0.057264010555    -0.043638645846    -0.000323829584    -0.000025247389    0.045437171625    -0.010667768256    -0.000339254699    0.000029799378
            -0.000323829623    -0.000025247279    0.040747222898    0.002275333428    -0.000336220017    -0.000033711481    0.033920260839    0.028393261821
            0.045437173945    -0.010667767127    -0.000336220027    -0.000033711482    0.057621873490    -0.043762700560    -0.000355122588    -0.000029225095
            -0.000339254665    0.000029799315    0.033920260839    0.028393261821    -0.000355122588    -0.000029225095    0.040798890777    0.002665773599
0.175     0.041164041568    -0.059812517929    -0.000370476021    0.000051994744    0.038304463821    -0.025943561444    -0.000365829462    0.000105248120
            -0.000370476021    0.000051994744    0.034620480698    0.001970499953    -0.000389752388    0.000043545611    0.035846000729    0.026084937624
            0.038304466383    -0.025943561229    -0.000389752388    0.000043545611    0.041609458028    -0.060114952974    -0.000403859234    0.000051713137
            -0.000365829462    0.000105248120    0.035846000729    0.026084937624    -0.000403859254    0.000051713139    0.034799316380    0.002400182413
0.200     0.017207031210    -0.069365270752    -0.000398323451    0.000148862301    0.023263408469    -0.037513320453    -0.000378219515    0.000190622849
            -0.000398323461    0.000148862305    0.026960389078    0.005120685628    -0.000425434566    0.000144242279    0.035168161153    0.024671144732
            0.023263411487    -0.037513320934    -0.000425434576    0.000144242282    0.017684178543    -0.069900849305    -0.000435131655    0.000151037279
            -0.000378219532    0.000190622858    0.035168161153    0.024671144732    -0.000435131700    0.000151037210    0.027281769494    0.005533588614
0.225     -0.011441038754    -0.068782396751    -0.000400420853    0.000262288854    0.002402893017    -0.041757050374    -0.000374377645    0.000287318866
            -0.000400420870    0.000262288865    0.019445356136    0.012488754551    -0.000434217533    0.000265784548    0.032710244932    0.025459812745
            0.002402894589    -0.041757052287    -0.000434217533    0.000265784548    -0.011016373529    -0.069584466598    -0.000443693486    0.000267811265
            -0.000374377803    0.000287318364    0.032710244932    0.025459812745    -0.000443693495    0.000267811270    0.019896501162    0.012821887246
0.250     -0.040112957536    -0.056173535998    -0.000368835768    0.000386253580    -0.020605791779    -0.036244085241    -0.000347757464    0.000396015021
            -0.000368835768    0.000386253580    0.014052749749    0.024035365679    -0.000406030011    0.000401385359    0.029859198831    0.029239059710
            -0.020605785948    -0.036244089706    -0.000406030018    0.000401385366    -0.039844026771    -0.057239018563    -0.000421344779    0.000399337304
            -0.000347757464    0.000396015021    0.029859198831    0.029239059710    -0.000421344779    0.000399337304    0.014589430388    0.024233784277
0.275     -0.063485314675    -0.031877853338    -0.000296535149    0.000510072009    -0.041171301848    -0.020408439876    -0.000288436930    0.000512443984
            -0.000296535149    0.000510072009    0.012668794941    0.038793359747    -0.000332281836    0.000538652975    0.028262055014    0.036043170474
            -0.041171297390    -0.020408446618    -0.000332281836    0.000538652975    -0.063477220524    -0.033157289444    -0.000358266932    0.000537801509
            -0.000288436930    0.000512443984    0.028262055014    0.036043170474    -0.000358267032    0.000537801455    0.013221525359    0.038825960473
0.300     -0.076682822105    0.001347580555    -0.000180754440    0.000618557160    -0.054754730962    0.004143574155    -0.000187300572    0.000625076573
            -0.000180754440    0.000618557160    0.016647441245    0.054978870311    -0.000209704091    0.000660058056    0.029435747560    0.045103783294
            -0.054754731959    0.004143574231    -0.000209704091    0.000660058056    -0.077020641099    -0.000047909567    -0.000246984190    0.000668826687
            -0.000187300572    0.000625076573    0.029435747560    0.045103783294    -0.000246984190    0.000668826687    0.017134481080    0.054849584791
0.325     -0.076376798568    0.038737870605    -0.000025936606    0.000694499508    -0.057892706635    0.033859606340    -0.000041239916    0.000715917075
            -0.000025936606    0.000694499508    0.026456629343    0.070286775762    -0.000043381269    0.000746126648    0.034386596881    0.054994024846
            -0.057892707498    0.033859606845    -0.000043381269    0.000746126648    -0.077102278166    0.037361955489    -0.000086938462    0.000772877851
            -0.000041239916    0.000715917075    0.034386596881    0.054994024846    -0.000086938462    0.000772877851    0.026801869289    0.070038649843
0.350     -0.061582305585    0.074423450891    0.000155428893    0.000723193131    -0.048996624424    0.063955277637    0.000143182019    0.000765071879
            0.000155428981    0.000723193174    0.041509434070    0.082366266072    0.000152552891    0.000780485320    0.043363140418    0.063958224152
            -0.048996624424    0.063955277637    0.000152552929    0.000780485293    -0.062677295017    0.073219885755    0.000112679173    0.000830031141
            0.000143182033    0.000765071876    0.043363139302    0.063958224909    0.000112679174    0.000830031151    0.041661128218    0.082076397565
0.375     -0.033883612005    0.102597817715    0.000345010592    0.000696547209    -0.028664307326    0.089397480507    0.000349590580    0.000756558539
            0.000345010600    0.000696547194    0.060244992703    0.089296769501    0.000357650055    0.000754387511    0.055796572220    0.070297158604
            -0.028664307631    0.089397481459    0.000357650059    0.000754387520    -0.035264854421    0.101708599014    0.000333577060    0.000825477761
            0.000349590580    0.000756558539    0.055796572220    0.070297158604    0.000333577046    0.000825477767    0.060189337267    0.089061990632
0.400     0.002892071231    0.118610846760    0.000523038704    0.000615266304    0.000497700161    0.105869740147    0.000555364284    0.000683227964
            0.000523038704    0.000615266304    0.080429110733    0.089982527651    0.000550075745    0.000668944620    0.070443955757    0.072727926704
            0.000497698314    0.105869740156    0.000550075745    0.000668944620    0.001365684121    0.118139426654    0.000552399578    0.000753815564
            0.000555364290    0.000683227972    0.070443955757    0.072727926704    0.000552399578    0.000753815564    0.080197220371    0.089901365898
0.425     0.043420778378    0.119715624463    0.000672808013    0.000487849054    0.034426138054    0.110454408502    0.000736951168    0.000548436942
            0.000672808021    0.000487849060    0.099577023535    0.084333473650    0.000711659225    0.000533895820    0.085645446231    0.070601644261
            0.034426094427    0.110454390676    0.000711659225    0.000533895820    0.041929454448    0.119705210441    0.000746074887    0.000619932310
            0.000736951176    0.000548436948    0.085645446231    0.070601644261    0.000746074895    0.000619932316    0.099242044403    0.084486126781
0.450     0.081773493301    0.105408771206    0.000783719420    0.000327571908    0.068290464144    0.101995857995    0.000875042659    0.000364749151
            0.000783719420    0.000327571908    0.115393331352    0.073257023542    0.000831210551    0.000364166434    0.099632120952    0.063993600297
            0.068290462364    0.101995859187    0.000831210551    0.000364166434    0.080511095952    0.105828633717    0.000896615064    0.000437079787
            0.000875042659    0.000364749151    0.099632120952    0.063993600297    0.000896615064    0.000437079787    0.115059561899    0.073688623753
0.475     0.112258640172    0.077394503962    0.000851858516    0.000148641451    0.097154437938    0.081162926375    0.000957776059    0.000150395707
            0.000851858852    0.000148641153    0.126127766309    0.058472123645    0.000905177126    0.000175476637    0.110798872279    0.053659502607
            0.097154437938    0.081162926375    0.000905177156    0.000175476642    0.111403725730    0.078137358451    0.000993656928    0.000223016138
            0.000957776058    0.000150395711    0.110798872279    0.053659502607    0.000993656928    0.000223016138    0.125915245934    0.059182270424
0.500     0.130131314064    0.039329341721    0.000878794692    -0.000036914433    0.116561959762    0.050360788651    0.000981885246    -0.000074915299
            0.000878794692    -0.000036914439    0.130829373529    0.042238651970    0.000936196886    -0.000019238650    0.117940592523    0.040930055521
            0.116561958883    0.050360790685    0.000936196886    -0.000019238654    0.129818676960    0.040217652000    0.001034923510    -0.000004117299
            0.000981885245    -0.000074915305    0.117940592523    0.040930055521    0.001034923510    -0.000004117296    0.130853312451    0.043176576372
0.525     0.132162000178    -0.003579307514    0.000869037425    -0.000221113390    0.123050945247    0.013530801601    0.000951644829    -0.000293935603
            0.000869037422    -0.000221113406    0.129476625179    0.027026742808    0.000930097043    -0.000212036274    0.120431388782    0.027535516146
            0.123050945105    0.013530802889    0.000930097043    -0.000212036274    0.132455929915    -0.002776653460    0.001024597041    -0.000229310043
            0.000951644829    -0.000293935603    0.120431388782    0.027535516146    0.001024597041    -0.000229310043    0.129828761902    0.028095010273
0.550     0.117128064495    -0.045088310935    0.000827237434    -0.000400354707    0.114683799443    -0.024155626122    0.000876345917    -0.000494805646
            0.000827237443    -0.000400354711    0.123018114602    0.015175627770    0.000892488128    -0.000400309339    0.118372105891    0.015389851480
            0.114683799443    -0.024155626122    0.000892488119    -0.000400309335    0.118000009123    -0.044629540860    0.000970509533    -0.000442958356
            0.000876346004    -0.000494805695    0.118372105891    0.015389851480    0.000970509639    -0.000442958364    0.123746201720    0.016241063480
0.575     0.086204599827    -0.078604592002    0.000755390117    -0.000574162821    0.091549621302    -0.056803057737    0.000766442840    -0.000672270073
            0.000755390117    -0.000574162821    0.113293524066    0.008530838636    0.000825375320    -0.000585205155    0.112659347546    0.006294614811
            0.091549621302    -0.056803057737    0.000825375320    -0.000585205155    0.087520559167    -0.078738304226    0.000880330837    -0.000641344392
            0.000766442840    -0.000672270073    0.112659347557    0.006294614614    0.000880330837    -0.000641344392    0.114388180730    0.009443616191
0.600     0.043177937044    -0.098115014041    0.000651149333    -0.000742425495    0.056161346632    -0.078605807534    0.000629543401    -0.000826634837
            0.000651149333    -0.000742425495    0.102838918332    0.008092748500    0.000725157041    -0.000768184974    0.104954075120    0.001596701871
            0.056161348957    -0.078605810789    0.000725157041    -0.000768184974    0.044699176571    -0.099034739361    0.000758011133    -0.000824911714
            0.000629543401    -0.000826634837    0.104954075120    0.001596701871    0.000758011133    -0.000824911714    0.104226621912    0.008712198039
0.625     -0.005742560888    -0.099319119124    0.000508042004    -0.000901376397    0.013478266373    -0.084940332498    0.000467508656    -0.000960027492
            0.000508042004    -0.000901376397    0.094514191201    0.013718959306    0.000582939110    -0.000946167901    0.097457439579    0.001823307764
            0.013478266687    -0.084940334473    0.000582939110    -0.000946167901    -0.004336323134    -0.101116502346    0.000601588894    -0.000994085654
            0.000467508656    -0.000960027492    0.097457439579    0.001823307764    0.000601588946    -0.000994085740    0.096063085866    0.013941587775
0.650     -0.052720337706    -0.080763223115    0.000318842063    -0.001040118012    -0.029675999713    -0.073559438122    0.000276847476    -0.001071279180
            0.000318842063    -0.001040118012    0.090981132782    0.023990300454    0.000388583475    -0.001107367852    0.092504780272    0.006437604366
            -0.029675999713    -0.073559438122    0.000388583475    -0.001107367852    -0.051783128862    -0.083391003406    0.000404613903    -0.001144148123
            0.000276847476    -0.001071279180    0.092504780261    0.006437604527    0.000404613903    -0.001144148123    0.092520505069    0.023776192272
0.675     -0.089723532309    -0.044529779729    0.000081507479    -0.001139841007    -0.065874257158    -0.045412611021    0.000053005305    -0.001151864073
            0.000081507479    -0.001139841007    0.094088362777    0.036351323335    0.000137656503    -0.001230296235    0.092002691159    0.013820936194
            -0.065874260452    -0.045412613292    0.000137656503    -0.001230296235    -0.089578665182    -0.047789954781    0.000161338001    -0.001261689212
            0.000053005305    -0.001151864073    0.092002692414    0.013820934577    0.000161338023    -0.001261689210    0.095440661906    0.035738890370
0.700     -0.110286604603    0.003920327335    -0.000194947755    -0.001178094733    -0.088751147951    -0.004689911952    -0.000203064242    -0.001186318945
            -0.000194947755    -0.001178094733    0.104371747826    0.047582016352    -0.000161642080    -0.001288531440    0.096922147834    0.021588215457
            -0.088751147951    -0.004689911952    -0.000161642080    -0.001288531440    -0.111157316795    0.000353848951    -0.000126121430    -0.001326061411
            -0.000203064242    -0.001186318945    0.096922147834    0.021588215457    -0.000126121430    -0.001326061411    0.105389505099    0.046685153257
0.725     -0.110967111248    0.056880818842    -0.000488640160    -0.001136662996    -0.094445056055    0.042098858225    -0.000480100971    -0.001157435812
            -0.000488640160    -0.001136662996    0.120843444623    0.054505092398    -0.000486084104    -0.001259606432    0.107007331553    0.027147974229
            -0.094445063403    0.042098841741    -0.000486084104    -0.001259606432    -0.112927530563    0.053407319395    -0.000443057702    -0.001315809738
            -0.000480100971    -0.001157435812    0.107007331553    0.027147974229    -0.000443057702    -0.001315809738    0.121442185847    0.053492315938
0.750     -0.091964973668    0.106134588184    -0.000769170728    -0.001009374249    -0.082304344826    0.087657487918    -0.000756904764    -0.001053764700
            -0.000769170728    -0.001009374249    0.141204725120    0.054707878262    -0.000801880799    -0.001134105428    0.120865847459    0.028331443095
            -0.082304344826    0.087657487918    -0.000801880799    -0.001134105428    -0.094922209014    0.103153605991    -0.000763301513    -0.001217271697
            -0.000756904764    -0.001053764700    0.120865847459    0.028331443095    -0.000763301513    -0.001217271697    0.141380596294    0.053768691994
0.775     -0.056725342187    0.144635135714    -0.001005948064    -0.000805009613    -0.054634604948    0.125436957448    -0.001007416878    -0.000874660754
            -0.001005948142    -0.000805009675    0.162375873207    0.047034944160    -0.001073801700    -0.000919449165    0.136341148281    0.023841837731
            -0.054634610868    0.125436911240    -0.001073801700    -0.000919449165    -0.060438548760    0.142477764064    -0.001055549742    -0.001030003830
            -0.001007416878    -0.000874660754    0.136341148281    0.023841837731    -0.001055549742    -0.001030003830    0.162205158576    0.046341851020
