# GHz S RI R 45
0.000     0.028822007000    0.000000000000    0.000006634947    -0.000000000000    0.000723041990    0.000000000000    0.000000746959    -0.000000000000
            0.000006634987    -0.000000000000    0.027870369000    0.000000000000    0.000003450678    -0.000000000000    0.000680549830    -0.000000000000
            0.000723038490    0.000000000000    0.000003450624    -0.000000000000    0.028771759000    0.000000000000    0.000003175766    -0.000000000000
            0.000000746965    -0.000000000000    0.000680469630    -0.000000000000    0.000003175729    -0.000000000000    0.027820979000    0.000000000000
0.025     0.036110164544    0.008721630922    -0.000001805162    -0.000001980363    0.004154754238    0.011330514313    -0.000000078528    0.000001830992
            -0.000001805130    -0.000001980385    0.034744774395    0.008005414770    0.000001721657    0.000001040266    0.003858391015    0.010370171123
            0.004154735131    0.011330564989    0.000001721607    0.000001040290    0.036051464150    0.008723298332    0.000004675747    0.000001842436
            -0.000000078569    0.000001831007    0.003858296561    0.010370247878    0.000004675725    0.000001842446    0.034675930093    0.007967887991
0.050     0.045765980064    0.009222964838    -0.000000439719    0.000004045825    0.013137039105    0.019073124322    0.000002440414    0.000004427512
            -0.000000439688    0.000004045794    0.044018773562    0.008352693941    0.000004019395    0.000003812776    0.012313793237    0.017544155657
            0.013137027862    0.019073139352    0.000004019352    0.000003812815    0.045729415492    0.009266725504    0.000007292268    0.000001969600
            0.000002440386    0.000004427538    0.012313721550    0.017544216967    0.000007292247    0.000001969622    0.043942437499    0.008309916591
0.075     0.055716608564    0.003603406137    0.000004709207    0.000005760547    0.025129139684    0.020809562116    0.000006642898    0.000004349682
            0.000004709224    0.000005760507    0.053909222154    0.003038177445    0.000008384273    0.000003383282    0.023843336072    0.019226921775
            0.025129132739    0.020809568934    0.000008384248    0.000003383331    0.055747375273    0.003668604345    0.000010210213    0.000000223374
            0.000006642882    0.000004349717    0.023843288393    0.019226990459    0.000010210200    0.000000223407    0.053849391994    0.003000563434
0.100     0.062988769425    -0.008362607788    0.000009874912    0.000003309723    0.036716041195    0.015636529275    0.000010511101    0.000001471760
            0.000009874911    0.000003309690    0.061801175365    -0.008362669036    0.000012118874    -0.000000181637    0.035420360957    0.014435894374
            0.036716041296    0.015636531589    0.000012118867    -0.000000181577    0.063117387320    -0.008309862254    0.000012426940    -0.000003485306
            0.000010511097    0.000001471797    0.035420342258    0.014435974701    0.000012426942    -0.000003485273    0.061789559603    -0.008393205455
0.125     0.064273425433    -0.025115373928    0.000012845623    -0.000002101152    0.044414098014    0.004355206811    0.000012604341    -0.000003587547
            0.000012845608    -0.000002101187    0.064622206567    -0.024718288091    0.000013580924    -0.000005966761    0.043872792873    0.003651036465
            0.044414099822    0.004355208866    0.000013580936    -0.000005966708    0.064517031253    -0.025122945460    0.000012890987    -0.000008730290
            0.000012604350    -0.000003587515    0.043872801512    0.003651113516    0.000012891000    -0.000008730269    0.064697018493    -0.024756648616
0.150     0.057264010555    -0.043638645846    0.000012527614    -0.000008832410    0.045437171625    -0.010667768256    0.000012009046    -0.000009711804
            0.000012527587    -0.000008832436    0.060047019141    -0.043588044032    0.000011893202    -0.000012511445    0.046526744979    -0.011256802772
            0.045437173945    -0.010667767127    0.000011893235    -0.000012511396    0.057621873490    -0.043762700560    0.000010867642    -0.000014562258
            0.000012009065    -0.000009711778    0.046526775089    -0.011256737852    0.000010867661    -0.000014562245    0.060241509705    -0.043669387748
0.175     0.041164041568    -0.059812517929    0.000008725146    -0.000015034056    0.038304463821    -0.025943561444    0.000008417083    -0.000015503507
            0.000008725112    -0.000015034070    0.046939710779    -0.061432400761    0.000006961357    -0.000018169466    0.041725228254    -0.027360197693
            0.038304466383    -0.025943561229    0.000006961401    -0.000018169434    0.041609458028    -0.060114952974    0.000006096006    -0.000019786087
            0.000008417114    -0.000015503487    0.041725282342    -0.027360142561    0.000006096030    -0.000019786083    0.047273119514    -0.061612910237
0.200     0.017207031210    -0.069365270752    0.000002070134    -0.000019120496    0.023263408469    -0.037513320453    0.000002163314    -0.000019588616
            0.000002070104    -0.000019120494    0.025863293457    -0.074389312064    -0.000000561246    -0.000021482126    0.029221071637    -0.041173390676
            0.023263411487    -0.037513320934    -0.000000561189    -0.000021482110    0.017684178543    -0.069900849305    -0.000001111648    -0.000023126868
            0.000002163346    -0.000019588610    0.029221144554    -0.041173354867    -0.000001111626    -0.000023126873    0.026329453916    -0.074739123014
0.225     -0.011441038754    -0.068782396751    -0.000006175958    -0.000019959449    0.002402893017    -0.041757050374    -0.000005832334    -0.000020837352
            -0.000006175999    -0.000019959432    -0.000934132732    -0.079011823209    -0.000009438373    -0.000021406831    0.010330225373    -0.049288237256
            0.002402894589    -0.041757052287    -0.000009438318    -0.000021406837    -0.011016373529    -0.069584466598    -0.000009899819    -0.000023504264
            -0.000005832301    -0.000020837358    0.010330302510    -0.049288228241    -0.000009899801    -0.000023504279    -0.000375820578    -0.079602419839
0.250     -0.040112957536    -0.056173535998    -0.000014433113    -0.000017115976    -0.020605791779    -0.036244085241    -0.000014225025    -0.000018612352
            -0.000014433134    -0.000017115953    -0.029771173336    -0.072986842280    -0.000018100186    -0.000017542635    -0.012187596880    -0.049061912145
            -0.020605785948    -0.036244089706    -0.000018100134    -0.000017542663    -0.039844026771    -0.057239018563    -0.000018933753    -0.000020253304
            -0.000014224997    -0.000018612369    -0.012187527654    -0.049061926251    -0.000018933742    -0.000020253320    -0.029196470907    -0.073873869028
0.275     -0.063485314675    -0.031877853338    -0.000021070879    -0.000010888316    -0.041171301848    -0.020408439876    -0.000021467117    -0.000012917533
            -0.000021070892    -0.000010888286    -0.056108299210    -0.055692146547    -0.000024911264    -0.000010204240    -0.034548726575    -0.039206166885
            -0.041171297390    -0.020408446618    -0.000024911229    -0.000010204276    -0.063477220524    -0.033157289444    -0.000026639180    -0.000013337367
            -0.000021467098    -0.000012917558    -0.034548655734    -0.039206210650    -0.000026639174    -0.000013337392    -0.055620915040    -0.056898105751
0.300     -0.076682822105    0.001347580555    -0.000024781701    -0.000002247383    -0.054754730962    0.004143574155    -0.000026136670    -0.000004443799
            -0.000024781704    -0.000002247344    -0.075343333026    -0.028500683653    -0.000028521640    -0.000000391756    -0.052620122194    -0.020164849799
            -0.054754731959    0.004143574231    -0.000028521597    -0.000000391840    -0.077020641099    -0.000047909567    -0.000031488969    -0.000003438036
            -0.000026136663    -0.000004443831    -0.052620067893    -0.020164913251    -0.000031488984    -0.000003438049    -0.075058680429    -0.030001151957
0.325     -0.076376798568    0.038737870605    -0.000024812309    0.000007364412    -0.057892706635    0.033859606340    -0.000027237482    0.000005546157
            -0.000024812297    0.000007364441    -0.083687743137    0.005327467785    -0.000028132209    0.000010393316    -0.062707290334    0.005859625787
            -0.057892707498    0.033859606845    -0.000028132207    0.000010393270    -0.077102278166    0.037361955489    -0.000032367279    0.000008133504
            -0.000027237482    0.000005546128    -0.062707259685    0.005859534603    -0.000032367296    0.000008133496    -0.083710809451    0.003608344698
0.350     -0.061582305585    0.074423450891    -0.000021118196    0.000016376484    -0.048996624424    0.063955277637    -0.000024418981    0.000015496757
            -0.000021118171    0.000016376511    -0.078943927021    0.041131215928    -0.000023667841    0.000020476889    -0.062299253813    0.035244064143
            -0.048996624424    0.063955277637    -0.000023667851    0.000020476891    -0.062677295017    0.073219885755    -0.000028810390    0.000019684181
            -0.000024418996    0.000015496724    -0.062299251554    0.035243976746    -0.000028810421    0.000019684091    -0.079345713255    0.039314325628
0.375     -0.033883612005    0.102597817715    -0.000014305176    0.000023401259    -0.028664307326    0.089397480507    -0.000018012731    0.000023887624
            -0.000014305160    0.000023401252    -0.060959716282    0.073644525925    -0.000015748910    0.000028348335    -0.050557621830    0.063579182086
            -0.028664307631    0.089397481459    -0.000015748936    0.000028348300    -0.035264854421    0.101708599014    -0.000021099592    0.000029503244
            -0.000018012768    0.000023887577    -0.050557628464    0.063579144870    -0.000021099632    0.000029503214    -0.061758328650    0.071879182931
0.400     0.002892071231    0.118610846760    -0.000005420867    0.000027495079    0.000497700161    0.105869740147    -0.000008891526    0.000029521441
            -0.000005420859    0.000027495064    -0.031702436747    0.097903925764    -0.000005494486    0.000032938430    -0.028481870542    0.086446883942
            0.000497698314    0.105869740156    -0.000005494549    0.000032938499    0.001365684121    0.118139426654    -0.000010146491    0.000036164811
            -0.000008891594    0.000029521387    -0.028481930335    0.086446811598    -0.000010146567    0.000036164764    -0.032853449903    0.096343746810
0.425     0.043420778378    0.119715624463    0.000004301791    0.000028232320    0.034426138054    0.110454408502    0.000001758696    0.000031670317
            0.000004301837    0.000028232318    0.005071933206    0.110056682634    0.000005743415    0.000033729091    0.001282714119    0.100136784797
            0.034426094427    0.110454390676    0.000005743375    0.000033729080    0.041929454448    0.119705210441    0.000002731754    0.000038733843
            0.000001758696    0.000031670324    0.001282641822    0.100136735719    0.000002731747    0.000038733863    0.003675047800    0.108833668973
0.450     0.081773493301    0.105408771206    0.000013685822    0.000025652262    0.068290464144    0.101995857995    0.000012670071    0.000030077678
            0.000013685820    0.000025652238    0.044413854236    0.107943877629    0.000016634304    0.000030713296    0.034875941272    0.102203578483
            0.068290462364    0.101995859187    0.000016634220    0.000030713292    0.080511095952    0.105828633717    0.000016047699    0.000036796295
            0.000012669988    0.000030077679    0.034875857341    0.102203554292    0.000016047701    0.000036796314    0.042927828352    0.107143838201
0.475     0.112258640172    0.077394503962    0.000021731020    0.000020131379    0.097154437938    0.081162926375    0.000022640700    0.000024881696
            0.000021731051    0.000020131350    0.080905936773    0.091370039075    0.000026017484    0.000024277245    0.067784628828    0.091771109205
            0.097154437938    0.081162926375    0.000026017406    0.000024277271    0.111403725730    0.078137358451    0.000028327025    0.000030418421
            0.000022640707    0.000024881704    0.067784547401    0.091771119621    0.000028327037    0.000030418441    0.079518147103    0.091015294962
0.500     0.130131314064    0.039329341721    0.000027649978    0.000012246254    0.116561959762    0.050360788651    0.000030594209    0.000016515263
            0.000027649958    0.000012246242    0.109389509501    0.062111587343    0.000032951579    0.000015058871    0.095433245692    0.069641462271
            0.116561958883    0.050360790685    0.000032951594    0.000015058877    0.129818676960    0.040217652000    0.000038191125    0.000020062848
            0.000030594219    0.000016515267    0.095433162761    0.069641491094    0.000038191140    0.000020062864    0.108293001146    0.062150687308
0.525     0.132162000178    -0.003579307514    0.000030840681    0.000002706908    0.123050945247    0.013530801601    0.000035593245    0.000005662027
            0.000030840659    0.000002706902    0.125610095908    0.023693360569    0.000036705051    0.000003873795    0.113735136532    0.038212791185
            0.123050945105    0.013530802889    0.000036705034    0.000003873829    0.132455929915    -0.002776653460    0.000044414328    0.000006549716
            0.000035593207    0.000005662098    0.113735075272    0.038212847922    0.000044414356    0.000006549723    0.124975665701    0.024000788964
0.550     0.117128064495    -0.045088310935    0.000030851360    -0.000007659330    0.114683799443    -0.024155626122    0.000036845751    -0.000006737986
            0.000030851337    -0.000007659322    0.126765953269    -0.018996498663    0.000036726410    -0.000008305636    0.119616843437    0.001264790827
            0.114683799443    -0.024155626122    0.000036726417    -0.000008305643    0.118000009123    -0.044629540860    0.000045961960    -0.000008937944
            0.000036845759    -0.000006737987    0.119616802637    0.001264866250    0.000045961952    -0.000008937866    0.126714011911    -0.018612334885
0.575     0.086204599827    -0.078604592002    0.000027410598    -0.000017871090    0.091549621302    -0.056803057737    0.000033789662    -0.000019450941
            0.000027410575    -0.000017871122    0.111922614714    -0.060242040125    0.000032686427    -0.000020321634    0.111465573069    -0.036408191597
            0.091549621302    -0.056803057737    0.000032686437    -0.000020321600    0.087520559167    -0.078738304226    0.000042115187    -0.000024834883
            0.000033789671    -0.000019450949    0.111465556625    -0.036408145319    0.000042115251    -0.000024834898    0.112498151448    -0.060018444836
0.600     0.043177937044    -0.098115014041    0.000020512754    -0.000026774373    0.056161346632    -0.078605807534    0.000026244775    -0.000030945088
            0.000020512736    -0.000026774351    0.082282420688    -0.094175655482    0.000024575486    -0.000030816601    0.089505815579    -0.069533235630
            0.056161348957    -0.078605810789    0.000024575520    -0.000030816532    0.044699176571    -0.099034739361    0.000032658190    -0.000039215076
            0.000026244781    -0.000030945099    0.089505822210    -0.069533145593    0.000032658238    -0.000039215018    0.083436024651    -0.094366261310
0.625     -0.005742560888    -0.099319119124    0.000010578848    -0.000033117490    0.013478266373    -0.084940332498    0.000014631640    -0.000039521313
            0.000010578813    -0.000033117497    0.041218225021    -0.115572480475    0.000012879978    -0.000038325921    0.055975832296    -0.093057238970
            0.013478266687    -0.084940334473    0.000012879978    -0.000038325935    -0.004336323134    -0.101116502346    0.000018123095    -0.000049968392
            0.000014631670    -0.000039521291    0.055975868241    -0.093057159000    0.000018123128    -0.000049968385    0.042799657206    -0.116409082952
0.650     -0.052720337706    -0.080763223115    -0.000001426369    -0.000035746506    -0.029675999713    -0.073559438122    0.000000123711    -0.000043599626
            -0.000001426364    -0.000035746480    -0.006004016729    -0.120703867224    -0.000001288278    -0.000041497205    0.015028969779    -0.102977654514
            -0.029675999713    -0.073559438122    -0.000001288205    -0.000041497171    -0.051783128862    -0.083391003406    -0.000000044479    -0.000055145486
            0.000000123705    -0.000043599638    0.015029032652    -0.102977594808    -0.000000044483    -0.000055145514    -0.004235831909    -0.122354200926
0.675     -0.089723532309    -0.044529779729    -0.000014014217    -0.000033927602    -0.065874257158    -0.045412611021    -0.000015398485    -0.000042147777
            -0.000014014200    -0.000033927577    -0.052884952932    -0.108075584725    -0.000016213048    -0.000039451943    -0.027756307551    -0.097115735646
            -0.065874260452    -0.045412613292    -0.000016213018    -0.000039451947    -0.089578665182    -0.047789954781    -0.000019549155    -0.000053453964
            -0.000015398452    -0.000042147777    -0.027756265407    -0.097115716490    -0.000019549129    -0.000053453978    -0.051232867197    -0.110605766304
0.700     -0.110286604603    0.003920327335    -0.000025409609    -0.000027621614    -0.088751147951    -0.004689911952    -0.000029671215    -0.000035039157
            -0.000025409596    -0.000027621599    -0.092694050443    -0.078862796852    -0.000029833173    -0.000032096633    -0.066236930494    -0.075666419278
            -0.088751147951    -0.004689911952    -0.000029833179    -0.000032096639    -0.111157316795    0.000353848951    -0.000037615874    -0.000044677756
            -0.000029671233    -0.000035039166    -0.066236838149    -0.075666420374    -0.000037615902    -0.000044677774    -0.091477009414    -0.082215253764
0.725     -0.110967111248    0.056880818842    -0.000033965777    -0.000017585381    -0.094445056055    0.042098858225    -0.000040581962    -0.000023169533
            -0.000033965750    -0.000017585375    -0.119623502275    -0.036837998716    -0.000040201273    -0.000020251197    -0.094766547440    -0.041270506028
            -0.094445063403    0.042098841741    -0.000040201208    -0.000020251244    -0.112927530563    0.053407319395    -0.000051602842    -0.000029829540
            -0.000040581971    -0.000023169538    -0.094766461653    -0.041270527698    -0.000051602867    -0.000029829542    -0.119123619845    -0.040830222164
0.750     -0.091964973668    0.106134588184    -0.000038542891    -0.000005184429    -0.082304344826    0.087657487918    -0.000046653854    -0.000008216603
            -0.000038542919    -0.000005184371    -0.129822854906    0.012243663226    -0.000045915699    -0.000005460966    -0.109213799175    0.001416131988
            -0.082304344826    0.087657487918    -0.000045915712    -0.000005460967    -0.094922209014    0.103153605991    -0.000059575658    -0.000010907268
            -0.000046653864    -0.000008216596    -0.109213729923    0.001416073896    -0.000059575684    -0.000010907262    -0.130235455504    0.007894382805
0.775     -0.056725342187    0.144635135714    -0.000038712104    0.000007974524    -0.054634604948    0.125436957448    -0.000047294620    0.000007822781
            -0.000038712083    0.000007974506    -0.122012185818    0.061667675157    -0.000046373628    0.000010399392    -0.107614930688    0.046584481901
            -0.054634610868    0.125436911240    -0.000046373637    0.000010399402    -0.060438548760    0.142477764064    -0.000060635589    0.000009615385
