# GHz S RI R 45
0.000     0.028822007000    0.000000000000    0.000017404459    -0.000000000000    0.000723041990    0.000000000000    0.000008533742    -0.000000000000
            0.000017404462    -0.000000000000    0.028296624000    0.000000000000    0.000000497274    -0.000000000000    0.000753732210    -0.000000000000
            0.000723038490    0.000000000000    0.000000497287    -0.000000000000    0.028771759000    0.000000000000    0.000007899156    0.000000000000
            0.000008533752    -0.000000000000    0.000753724160    -0.000000000000    0.000007899128    0.000000000000    0.028163071000    0.000000000000
0.025     0.036110164544    0.008721630922    -0.000015483272    -0.000017337543    0.004154754238    0.011330514313    -0.000007090967    -0.000010633389
            -0.000015483208    -0.000017337562    0.034772256290    0.007363876353    -0.000005033630    -0.000005784556    0.003596056700    0.009803449631
            0.004154735131    0.011330564989    -0.000005033613    -0.000005784558    0.036051464150    0.008723298332    -0.000005541653    -0.000010741650
            -0.000007090958    -0.000010633392    0.003596031292    0.009803501557    -0.000005541683    -0.000010741640    0.034713479983    0.007371866527
0.050     0.045765980064    0.009222964838    -0.000025207927    -0.000000455704    0.013137039105    0.019073124322    -0.000014790243    -0.000004700977
            -0.000025207854    -0.000000455765    0.043324644105    0.007427286054    -0.000010738742    -0.000005570630    0.011295793583    0.016759121246
            0.013137027862    0.019073139352    -0.000010738729    -0.000005570640    0.045729415492    0.009266725504    -0.000013962833    -0.000007205731
            -0.000014790232    -0.000004700988    0.011295777924    0.016759139037    -0.000013962853    -0.000007205713    0.043267916777    0.007464637177
0.075     0.055716608564    0.003603406137    -0.000023065061    0.000011444764    0.025129139684    0.020809562116    -0.000018035589    0.000001671619
            -0.000023065063    0.000011444760    0.052243331405    0.002248648877    -0.000016424166    -0.000002296124    0.021819369117    0.018703786518
            0.025129132739    0.020809568934    -0.000016424159    -0.000002296135    0.055747375273    0.003668604345    -0.000019453968    -0.000001813142
            -0.000018035585    0.000001671615    0.021819359324    0.018703797942    -0.000019453984    -0.000001813113    0.052212261285    0.002321906910
0.100     0.062988769425    -0.008362607788    -0.000017457072    0.000019563395    0.036716041195    0.015636529275    -0.000018894343    0.000009110009
            -0.000017457074    0.000019563391    0.059120418456    -0.008467841925    -0.000020673134    0.000004540298    0.032388115386    0.014761611009
            0.036716041296    0.015636531589    -0.000020673130    0.000004540282    0.063117387320    -0.008309862254    -0.000022878591    0.000006194970
            -0.000018894342    0.000009110013    0.032388116054    0.014761616776    -0.000022878597    0.000006194993    0.059144984367    -0.008362041411
0.125     0.064273425433    -0.025115373928    -0.000010306955    0.000024920507    0.044414098014    0.004355206811    -0.000016731794    0.000017303226
            -0.000010306955    0.000024920506    0.061157625348    -0.023587677009    -0.000021499118    0.000014222591    0.040117016514    0.005392672983
            0.044414099822    0.004355208866    -0.000021499122    0.000014222572    0.064517031253    -0.025122945460    -0.000022804085    0.000016419463
            -0.000016731792    0.000017303231    0.040117019847    0.005392678207    -0.000022804084    0.000016419474    0.061270074912    -0.023467364682
0.150     0.057264010555    -0.043638645846    -0.000002052540    0.000028033790    0.045437171625    -0.010667768256    -0.000010884559    0.000025027839
            -0.000002052543    0.000028033788    0.056271151806    -0.040794866678    -0.000017393112    0.000024888602    0.042588134387    -0.007680975173
            0.045437173945    -0.010667767127    -0.000017393111    0.000024888600    0.057621873490    -0.043762700560    -0.000017894467    0.000027263681
            -0.000010884560    0.000025027840    0.042588140112    -0.007680971600    -0.000017894424    0.000027263759    0.056498673646    -0.040697741067
0.175     0.041164041568    -0.059812517929    0.000007121156    0.000028853136    0.038304463821    -0.025943561444    -0.000001361066    0.000030557297
            0.000007121121    0.000028853107    0.043507682534    -0.056768588024    -0.000007876203    0.000033992297    0.038324005630    -0.021779961318
            0.038304466383    -0.025943561229    -0.000007876240    0.000033992265    0.041609458028    -0.060114952974    -0.000007686987    0.000036375378
            -0.000001361064    0.000030557296    0.038324014159    -0.021779956431    -0.000007686954    0.000036375410    0.043861107314    -0.056748435796
0.200     0.017207031210    -0.069365270752    0.000016903825    0.000026841739    0.023263408469    -0.037513320453    0.000010903977    0.000032086780
            0.000016903824    0.000026841739    0.023508931878    -0.067931629500    0.000006210943    0.000038836110    0.027144059326    -0.033731383990
            0.023263411487    -0.037513320934    0.000006210948    0.000038836109    0.017684178543    -0.069900849305    0.000007041618    0.000041132348
            0.000010903984    0.000032086779    0.027144064777    -0.033731384737    0.000007041618    0.000041132347    0.023974512069    -0.068051292866
0.225     -0.011441038754    -0.068782396751    0.000026504391    0.000021389797    0.002402893017    -0.041757050374    0.000024083243    0.000028275706
            0.000026504342    0.000021389800    -0.001518473402    -0.071142139531    0.000022732223    0.000037240817    0.010298536697    -0.040456920553
            0.002402894589    -0.041757052287    0.000022732224    0.000037240812    -0.011016373529    -0.069584466598    0.000024225887    0.000039346725
            0.000024083244    0.000028275704    0.010298546651    -0.040456924211    0.000024225883    0.000039346728    -0.000985407963    -0.071461658268
0.250     -0.040112957536    -0.056173535998    0.000034494795    0.000012162102    -0.020605791779    -0.036244085241    0.000035671520    0.000018711789
            0.000034494707    0.000012162138    -0.028057011707    -0.064363888841    0.000038546464    0.000028178230    -0.009651588360    -0.039605925000
            -0.020605785948    -0.036244089706    0.000038546465    0.000028178225    -0.039844026771    -0.057239018563    0.000040730375    0.000029912232
            0.000035671523    0.000018711782    -0.009651589543    -0.039605929858    0.000040730459    0.000029912200    -0.027530579257    -0.064925044780
0.275     -0.063485314675    -0.031877853338    0.000039172030    -0.000000434035    -0.041171301848    -0.020408439876    0.000043041842    0.000004219766
            0.000039171961    -0.000000433971    -0.051837564426    -0.047178329455    0.000050164245    0.000012198227    -0.029235051196    -0.030094679178
            -0.041171297390    -0.020408446618    0.000050164242    0.000012198224    -0.063477220524    -0.033157289444    0.000053003726    0.000013301704
            0.000043041842    0.000004219760    -0.029235042781    -0.030094691535    0.000053003723    0.000013301703    -0.051413060735    -0.047989946043
0.300     -0.076682822105    0.001347580555    0.000038923410    -0.000015021244    -0.054754730962    0.004143574155    0.000044082843    -0.000013111514
            0.000038923367    -0.000015021161    -0.068600824991    -0.021047593184    0.000054570887    -0.000008479749    -0.044705163766    -0.012440408808
            -0.054754731959    0.004143574231    0.000054570884    -0.000008479750    -0.077020641099    -0.000047909567    0.000057900840    -0.000008295044
            0.000044082844    -0.000013111514    -0.044705164485    -0.012440417415    0.000057900840    -0.000008295044    -0.068379476872    -0.022075821461
0.325     -0.076376798568    0.038737870605    0.000032881720    -0.000029474152    -0.057892706635    0.033859606340    0.000037821333    -0.000030333301
            0.000032881709    -0.000029474062    -0.074928610109    0.010817028219    0.000050020298    -0.000030376949    -0.052774824977    0.011237410906
            -0.057892707498    0.033859606845    0.000050020290    -0.000030376952    -0.077102278166    0.037361955489    0.000053532196    -0.000031356873
            0.000037821322    -0.000030333258    -0.052774827912    0.011237411531    0.000053532194    -0.000031356874    -0.074996832118    0.009651196322
0.350     -0.061582305585    0.074423450891    0.000021243465    -0.000041291347    -0.048996624424    0.063955277637    0.000024737683    -0.000044281570
            0.000021243467    -0.000041291348    -0.068961391440    0.043948160457    0.000036524242    -0.000049510599    -0.051294043519    0.037558422466
            -0.048996624424    0.063955277637    0.000036524236    -0.000049510599    -0.062677295017    0.073219885755    0.000039784706    -0.000051779073
            0.000024737680    -0.000044281571    -0.051294045940    0.037558424238    0.000039784709    -0.000051779070    -0.069370664642    0.042760929184
0.375     -0.033883612005    0.102597817715    0.000005307244    -0.000048280252    -0.028664307326    0.089397480507    0.000006659344    -0.000052323290
            0.000005307248    -0.000048280252    -0.050797253618    0.073398727001    0.000015841246    -0.000062289616    -0.039678594187    0.062490499659
            -0.028664307631    0.089397481459    0.000015841267    -0.000062289575    -0.035264854421    0.101708599014    0.000018348923    -0.000065798275
            0.000006659343    -0.000052323289    -0.039678606702    0.062490495266    0.000018348879    -0.000065798352    -0.051548927510    0.072326884487
0.400     0.002892071231    0.118610846760    -0.000012784407    -0.000048957228    0.000497700161    0.105869740147    -0.000013672568    -0.000052872391
            -0.000012784408    -0.000048957232    -0.022519710025    0.094605848887    -0.000008943858    -0.000066233192    -0.019024149564    0.082074956057
            0.000497698314    0.105869740156    -0.000008943866    -0.000066233184    0.001365684121    0.118139426654    -0.000007683781    -0.000070727945
            -0.000013672568    -0.000052872390    -0.019024164566    0.082074955659    -0.000007683843    -0.000070728007    -0.023557756828    0.093784382224
0.425     0.043420778378    0.119715624463    -0.000030530100    -0.000042819214    0.034426138054    0.110454408502    -0.000033203616    -0.000045590075
            -0.000030530093    -0.000042819219    0.012155302830    0.104141330522    -0.000034086532    -0.000060328370    0.008105875928    0.093076394775
            0.034426094427    0.110454390676    -0.000034086492    -0.000060328349    0.041929454448    0.119705210441    -0.000034482063    -0.000065352192
            -0.000033203615    -0.000045590075    0.008105871402    0.093076399184    -0.000034482063    -0.000065352192    0.010941003579    0.103679451470
0.450     0.081773493301    0.105408771206    -0.000045424325    -0.000030308705    0.068290464144    0.101995857995    -0.000049066156    -0.000031289009
            -0.000045424237    -0.000030308704    0.048469807150    0.100231323028    -0.000055821523    -0.000045054903    0.038104492774    0.093467827386
            0.068290462364    0.101995859187    -0.000055821430    -0.000045054893    0.080511095952    0.105828633717    -0.000058106464    -0.000049977150
            -0.000049066159    -0.000031288998    0.038104493287    0.093467837976    -0.000058106463    -0.000049977149    0.047231608733    0.100191834674
0.475     0.112258640172    0.077394503962    -0.000055286700    -0.000012673770    0.097154437938    0.081162926375    -0.000058919526    -0.000011682507
            -0.000055286615    -0.000012673801    0.081321544098    0.082977683472    -0.000070848959    -0.000022176199    0.066846012883    0.082679589092
            0.097154437938    0.081162926375    -0.000070848915    -0.000022176213    0.111403725730    0.078137358451    -0.000075010491    -0.000026257851
            -0.000058919526    -0.000011682507    0.066845973407    0.082679608150    -0.000075010491    -0.000026257851    0.080233704416    0.083361889711
0.500     0.130131314064    0.039329341721    -0.000058400109    0.000008158213    0.116561959762    0.050360788651    -0.000061114254    0.000010856440
            -0.000058400045    0.000008158163    0.105948002985    0.054332461733    -0.000076656538    0.000005519069    0.090225182638    0.061670110174
            0.116561958883    0.050360790685    -0.000076656534    0.000005519069    0.129818676960    0.040217652000    -0.000082380103    0.000003024240
            -0.000061114254    0.000010856440    0.090225189818    0.061670117392    -0.000082380100    0.000003024240    0.105183084787    0.055072585142
0.525     0.132162000178    -0.003579307514    -0.000053681146    0.000029711930    0.123050945247    0.013530801601    -0.000054802248    0.000033490097
            -0.000053681149    0.000029711931    0.118528673741    0.017862540946    -0.000071747290    0.000034473086    0.104654777697    0.032833363407
            0.123050945105    0.013530802889    -0.000071747279    0.000034473096    0.132455929915    -0.002776653460    -0.000078407314    0.000034191987
            -0.000054802246    0.000033490096    0.104654777124    0.032833365234    -0.000078407343    0.000034192016    0.118231034840    0.018823960938
0.550     0.117128064495    -0.045088310935    -0.000040880937    0.000049047117    0.114683799443    -0.024155626122    -0.000040082104    0.000053069374
            -0.000040880912    0.000049047035    0.116693399756    -0.021635966586    -0.000055883586    0.000060614887    0.107538100024    -0.000212511046
            0.114683799443    -0.024155626122    -0.000055883584    0.000060614884    0.118000009123    -0.044629540860    -0.000062590515    0.000062915761
            -0.000040082100    0.000053069369    0.107538110027    -0.000212509320    -0.000062590515    0.000062915761    0.116952748561    -0.020643951165
0.575     0.086204599827    -0.078604592002    -0.000020860251    0.000063009642    0.091549621302    -0.056803057737    -0.000018207330    0.000066386734
            -0.000020860272    0.000063009558    0.099906508669    -0.058665477465    -0.000030351896    0.000079729264    0.097680418441    -0.032975364733
            0.091549621302    -0.056803057737    -0.000030351894    0.000079729258    0.087520559167    -0.078738304226    -0.000036064289    0.000084605343
            -0.000018207332    0.000066386648    0.097680428491    -0.032975366226    -0.000036064288    0.000084605341    0.100736732601    -0.057867868571
0.600     0.043177937044    -0.098115014041    0.000004147865    0.000068677514    0.056161346632    -0.078605807534    0.000008220949    0.000070630799
            0.000004147860    0.000068677520    0.069706921110    -0.087697954043    0.000001825861    0.000088057224    0.075629300561    -0.060609685879
            0.056161348957    -0.078605810789    0.000001825867    0.000088057214    0.044699176571    -0.099034739361    -0.000001869064    0.000095060906
            0.000008220948    0.000070630798    0.075629304463    -0.060609689006    -0.000001869030    0.000095060987    0.071031750830    -0.087323400946
0.625     -0.005742560888    -0.099319119124    0.000030548023    0.000064082524    0.013478266373    -0.084940332498    0.000035306803    0.000064080345
            0.000030547991    0.000064082497    0.029710301742    -0.103963798788    0.000035974825    0.000083132550    0.043822125628    -0.078598422236
            0.013478266687    -0.084940334473    0.000035974764    0.000083132479    -0.004336323134    -0.101116502346    0.000035105350    0.000091394276
            0.000035306806    0.000064080342    0.043822128550    -0.078598427476    0.000035105348    0.000091394277    0.031361405200    -0.104208202260
0.650     -0.052720337706    -0.080763223115    0.000053837710    0.000048992269    -0.029675999713    -0.073559438122    0.000058372502    0.000046854981
            0.000053837712    0.000048992278    -0.014717980386    -0.104292149926    0.000066373877    0.000064676181    0.006439897216    -0.083557730027
            -0.029675999713    -0.073559438122    0.000066373874    0.000064676172    -0.051783128862    -0.083391003406    0.000068741749    0.000073019091
            0.000058372503    0.000046854977    0.006439899289    -0.083557737891    0.000068741743    0.000073019082    -0.012985009289    -0.105278842135
0.675     -0.089723532309    -0.044529779729    0.000069613793    0.000025368306    -0.065874257158    -0.045412611021    0.000072994725    0.000021326762
            0.000069613814    0.000025368321    -0.057177827543    -0.087809536622    0.000087440334    0.000035107951    -0.031128939722    -0.073964524187
            -0.065874260452    -0.045412613292    0.000087440324    0.000035107927    -0.089578665182    -0.047789954781    0.000092946991    0.000042239151
            0.000072994684    0.000021326759    -0.031128942050    -0.073964529718    0.000092946990    0.000042239153    -0.055651666242    -0.089559248016
0.700     -0.110286604603    0.003920327335    0.000074790518    -0.000002856249    -0.088751147951    -0.004689911952    0.000076251010    -0.000008178538
            0.000074790440    -0.000002856221    -0.091285979084    -0.056292798112    0.000095178237    -0.000000720943    -0.063188482517    -0.050616024544
            -0.088751147951    -0.004689911952    0.000095178232    -0.000000720947    -0.111157316795    0.000353848951    0.000103205655    0.000004020583
            0.000076251008    -0.000008178540    -0.063188488761    -0.050616029545    0.000103205645    0.000004020581    -0.090253055051    -0.058708329875
0.725     -0.110967111248    0.056880818842    0.000068493145    -0.000030767915    -0.094445056055    0.042098858225    0.000067597875    -0.000036449724
            0.000068493145    -0.000030767914    -0.111833833931    -0.013979315774    0.000088261926    -0.000036660628    -0.084788889198    -0.016584809029
            -0.094445063403    0.042098841741    0.000088261924    -0.000036660628    -0.112927530563    0.053407319395    0.000097762202    -0.000035167397
            0.000067597871    -0.000036449725    -0.084788892192    -0.016584824979    0.000097762192    -0.000035167395    -0.111528598037    -0.016852779239
0.750     -0.091964973668    0.106134588184    0.000052175132    -0.000053784714    -0.082304344826    0.087657487918    0.000048928316    -0.000058785035
            0.000052175132    -0.000053784714    -0.115752890355    0.033171515276    0.000068254355    -0.000066822774    -0.092663395589    0.023336842734
            -0.082304344826    0.087657487918    0.000068254355    -0.000066822774    -0.094922209014    0.103153605991    0.000077916619    -0.000068975800
            0.000048928316    -0.000058785035    -0.092663399468    0.023336843711    0.000077916619    -0.000068975800    -0.116314917123    0.030128758123
0.775     -0.056725342187    0.144635135714    0.000028945272    -0.000068707070    -0.054634604948    0.125436957448    0.000023807410    -0.000072075304
            0.000028945275    -0.000068707067    -0.102594885937    0.078575594243    0.000038902686    -0.000086884211    -0.085738794337    0.063562828449
            -0.054634610868    0.125436911240    0.000038902682    -0.000086884214    -0.060438548760    0.142477764064    0.000047350021    -0.000092566313
