!$
! Info: Touchstone file created by Circ.  Input file=Intel_C2M_200G_3p0in_202208016_staggered.circ
!$
# Hz S RI R 50
0	0.01475555	2.10652e-24	4.13779e-05	4.61582e-23	8.520823e-05	2.394017e-22	4.137028e-05	4.605876e-23
	4.13779e-05	4.61582e-23	0.01476871	2.375888e-24	4.138266e-05	4.620342e-23	8.479909e-05	2.380766e-22
	8.526632e-05	2.395296e-22	4.138265e-05	4.620434e-23	0.01475036	2.179633e-24	4.137294e-05	4.609719e-23
	4.137027e-05	4.605969e-23	8.485719e-05	2.382034e-22	4.137294e-05	4.609719e-23	0.01476664	2.255721e-24
1e+07	0.01764539	0.004576207	3.016197e-06	1.677944e-05	0.001049696	0.004518361	5.931646e-06	1.377548e-05
	3.016198e-06	1.677943e-05	0.01779235	0.00465999	2.414647e-06	2.380049e-05	0.001055127	0.004577428
	0.001049696	0.004518361	2.414647e-06	2.380049e-05	0.01776772	0.004705597	3.011139e-06	1.713042e-05
	5.931646e-06	1.377548e-05	0.001055127	0.004577428	3.011139e-06	1.713042e-05	0.01767453	0.004611377
2e+07	0.0204639	0.00673104	5.159653e-06	1.384333e-05	0.002115955	0.008560185	2.957394e-06	1.044389e-05
	5.159658e-06	1.384334e-05	0.02066967	0.006819988	1.975908e-05	3.058236e-05	0.002127499	0.008677008
	0.002115966	0.008560173	1.975908e-05	3.058236e-05	0.0206489	0.006912546	5.454934e-06	1.445145e-05
	2.957394e-06	1.044389e-05	0.002127511	0.008676996	5.454933e-06	1.445145e-05	0.02050596	0.006795203
3e+07	0.02278723	0.007737345	9.680592e-06	1.259646e-05	0.0036553	0.01250346	3.432601e-06	9.809509e-06
	9.680594e-06	1.259646e-05	0.02303796	0.007814549	3.382151e-05	3.129714e-05	0.003676129	0.01267606
	0.003655269	0.01250349	3.382152e-05	3.129714e-05	0.02301577	0.007960656	1.020873e-05	1.330102e-05
	3.432602e-06	9.809509e-06	0.003676097	0.01267609	1.020873e-05	1.330102e-05	0.02283652	0.007832568
4e+07	0.02462199	0.008156748	1.335209e-05	1.092898e-05	0.005726867	0.01616611	5.997622e-06	8.595128e-06
	1.335209e-05	1.092898e-05	0.0249087	0.00821339	4.533668e-05	2.85367e-05	0.005759642	0.01639203
	0.005726859	0.01616614	4.533668e-05	2.85367e-05	0.02489428	0.008411788	1.408473e-05	1.168337e-05
	5.997622e-06	8.595128e-06	0.005759634	0.01639205	1.408473e-05	1.168337e-05	0.02468555	0.008279492
5e+07	0.0260858	0.008290758	1.633967e-05	8.799495e-06	0.008267158	0.01952158	8.117525e-06	7.084795e-06
	1.633967e-05	8.799494e-06	0.0264019	0.008321249	5.486679e-05	2.351888e-05	0.00831416	0.01979791
	0.008267159	0.01952159	5.486679e-05	2.351888e-05	0.02639923	0.008570122	1.726477e-05	9.573011e-06
	8.117526e-06	7.084795e-06	0.008314161	0.01979792	1.726477e-05	9.57301e-06	0.02616588	0.008438667
6e+07	0.02724101	0.008257926	1.870843e-05	6.265512e-06	0.01124077	0.02252005	9.782814e-06	5.307885e-06
	1.870843e-05	6.265512e-06	0.0275812	0.008258241	6.264861e-05	1.681436e-05	0.01130379	0.02284343
	0.01124079	0.02252004	6.26486e-05	1.681436e-05	0.02759368	0.008555767	1.982413e-05	7.033081e-06
	9.782813e-06	5.307885e-06	0.01130381	0.02284342	1.982413e-05	7.033081e-06	0.02733986	0.008429619
7e+07	0.02811838	0.008153396	2.047957e-05	3.382969e-06	0.01460193	0.02511391	1.100126e-05	3.30463e-06
	2.047957e-05	3.382969e-06	0.02847824	0.008120261	6.875744e-05	8.715477e-06	0.01468217	0.02548054
	0.01460193	0.02511391	6.875744e-05	8.715477e-06	0.02850906	0.008463912	2.179052e-05	4.119537e-06
	1.100126e-05	3.30463e-06	0.01468217	0.02548054	2.179052e-05	4.119537e-06	0.02823886	0.008347442
8e+07	0.02875707	0.008062704	2.164978e-05	1.906282e-07	0.01830013	0.02726126	1.176302e-05	1.110168e-06
	2.164978e-05	1.906282e-07	0.02913274	0.007992973	7.317999e-05	-6.374031e-07	0.0183981	0.02766699
	0.01830013	0.02726126	7.317999e-05	-6.374032e-07	0.02918468	0.008379821	2.316023e-05	8.609336e-07
	1.176302e-05	1.110168e-06	0.0183981	0.027667	2.316023e-05	8.609335e-07	0.02890257	0.008277753
9e+07	0.02921078	0.008058189	2.216981e-05	-3.330758e-06	0.02228154	0.02892584	1.202724e-05	-1.267732e-06
	2.216981e-05	-3.330759e-06	0.02959864	0.007947784	7.576866e-05	-1.13315e-05	0.02239703	0.02936635
	0.02228154	0.02892585	7.576866e-05	-1.13315e-05	0.02967336	0.008374279	2.388617e-05	-2.773398e-06
	1.202724e-05	-1.267733e-06	0.02239703	0.02936636	2.388617e-05	-2.773398e-06	0.02938473	0.008292436
1e+08	0.02956592	0.008230276	2.170736e-05	-7.594721e-06	0.02649138	0.03007687	1.154819e-05	-4.040088e-06
	2.170736e-05	-7.594721e-06	0.02996044	0.008068375	7.551951e-05	-2.48494e-05	0.02662338	0.03054765
	0.02649138	0.03007687	7.551951e-05	-2.48494e-05	0.03005829	0.008530649	2.363441e-05	-7.251501e-06
	1.154819e-05	-4.040088e-06	0.02662338	0.03054765	2.363441e-05	-7.251501e-06	0.02977213	0.008481621
1.1e+08	0.02997165	0.008372442	1.903597e-05	-1.033693e-05	0.03088114	0.03068123	9.750968e-06	-5.658711e-06
	1.903597e-05	-1.033693e-05	0.03034394	0.008170297	6.77872e-05	-3.413679e-05	0.03102756	0.03117821
	0.03088115	0.03068123	6.77872e-05	-3.413679e-05	0.03052859	0.008659294	2.098451e-05	-1.023088e-05
	9.750968e-06	-5.658711e-06	0.03102756	0.03117821	2.098451e-05	-1.023088e-05	0.0302743	0.008631871
1.2e+08	0.03022449	0.008613245	1.684977e-05	-1.20291e-05	0.03533941	0.03072706	8.295199e-06	-6.596609e-06
	1.684977e-05	-1.20291e-05	0.03057879	0.008385212	6.224131e-05	-3.857646e-05	0.03549762	0.03124627
	0.03533941	0.03072706	6.224131e-05	-3.857646e-05	0.03079506	0.008872022	1.881533e-05	-1.209227e-05
	8.295199e-06	-6.596609e-06	0.03549762	0.03124627	1.881533e-05	-1.209227e-05	0.0305703	0.008853759
1.3e+08	0.03042279	0.009017466	1.541313e-05	-1.250929e-05	0.03981577	0.030212	7.0145e-06	-7.318597e-06
	1.541313e-05	-1.250929e-05	0.0307619	0.008769888	6.04884e-05	-3.656802e-05	0.03998242	0.03074976
	0.03981577	0.03021199	6.04884e-05	-3.656802e-05	0.03098389	0.009262791	1.752228e-05	-1.244726e-05
	7.0145e-06	-7.318596e-06	0.03998242	0.03074976	1.752228e-05	-1.244726e-05	0.03078928	0.009248862
1.4e+08	0.03062896	0.009597928	1.447164e-05	-1.199443e-05	0.04425038	0.02913836	5.845581e-06	-7.888096e-06
	1.447164e-05	-1.199443e-05	0.03095581	0.009335124	5.865646e-05	-3.521765e-05	0.04442144	0.02969139
	0.04425038	0.02913836	5.865646e-05	-3.521765e-05	0.03117842	0.009844723	1.666877e-05	-1.190212e-05
	5.845581e-06	-7.888096e-06	0.04442144	0.02969139	1.666877e-05	-1.190212e-05	0.0310155	0.009831688
1.5e+08	0.03089716	0.01035531	1.380065e-05	-1.155265e-05	0.04858103	0.027514	5.04085e-06	-7.718767e-06
	1.380065e-05	-1.155265e-05	0.03121487	0.01008033	5.675028e-05	-3.422915e-05	0.04875184	0.02807951
	0.04858102	0.027514	5.675028e-05	-3.422915e-05	0.0314402	0.01061137	1.583764e-05	-1.145723e-05
	5.04085e-06	-7.718767e-06	0.04875184	0.02807951	1.583764e-05	-1.145723e-05	0.03131098	0.01059615
1.6e+08	0.03127716	0.0112813	1.31196e-05	-1.117732e-05	0.05274561	0.02535322	4.409452e-06	-7.42153e-06
	1.31196e-05	-1.117732e-05	0.03158913	0.01099625	5.480066e-05	-3.347768e-05	0.05291092	0.02592901
	0.05274561	0.02535321	5.480066e-05	-3.347768e-05	0.03182059	0.01154863	1.518015e-05	-1.107446e-05
	4.409452e-06	-7.42153e-06	0.05291092	0.02592901	1.518015e-05	-1.107446e-05	0.03172749	0.01152815
1.7e+08	0.03181586	0.01235964	1.243307e-05	-1.083972e-05	0.05668342	0.02267675	3.999535e-06	-7.144111e-06
	1.243307e-05	-1.083972e-05	0.03212552	0.01206565	5.282596e-05	-3.288207e-05	0.05683752	0.02326137
	0.05668341	0.02267675	5.282596e-05	-3.288207e-05	0.03236497	0.01263643	1.45181e-05	-1.074207e-05
	3.999535e-06	-7.144111e-06	0.05683752	0.02326137	1.45181e-05	-1.074207e-05	0.0323107	0.01260733
1.8e+08	0.03255628	0.01356592	1.174887e-05	-1.052085e-05	0.06033625	0.01951185	3.592118e-06	-6.874753e-06
	1.174887e-05	-1.052085e-05	0.03286738	0.01326332	5.083955e-05	-3.238748e-05	0.06047302	0.02010458
	0.06033625	0.01951184	5.083955e-05	-3.238748e-05	0.0331144	0.01384842	1.385702e-05	-1.043839e-05
	3.592118e-06	-6.874753e-06	0.06047302	0.02010458	1.385702e-05	-1.043839e-05	0.03310166	0.01380685
1.9e+08	0.03353752	0.01486821	1.107197e-05	-1.020933e-05	0.06364941	0.01589224	3.191301e-06	-6.60695e-06
	1.107197e-05	-1.020933e-05	0.03385385	0.01455648	4.88511e-05	-3.195512e-05	0.06376243	0.01649318
	0.06364941	0.01589224	4.88511e-05	-3.195512e-05	0.03410568	0.01515182	1.320145e-05	-1.015064e-05
	3.191301e-06	-6.60695e-06	0.06376243	0.01649318	1.320145e-05	-1.015064e-05	0.03413706	0.01509342
2e+08	0.03479298	0.01622734	1.040697e-05	-9.896324e-06	0.06657238	0.01185741	2.800622e-06	-6.336015e-06
	1.040697e-05	-9.896324e-06	0.03511818	0.01590509	4.686827e-05	-3.155635e-05	0.066655	0.01246757
	0.06657238	0.01185741	4.686827e-05	-3.155635e-05	0.03537083	0.01650788	1.255517e-05	-9.869367e-06
	2.800622e-06	-6.336015e-06	0.066655	0.01246757	1.255517e-05	-9.869367e-06	0.0354488	0.01642763
2.1e+08	0.03634915	0.01759859	9.757713e-06	-9.576705e-06	0.06905922	0.007452194	2.423027e-06	-6.05902e-06
	9.757713e-06	-9.576705e-06	0.03668675	0.01726359	4.48975e-05	-3.117025e-05	0.06910479	0.008073501
	0.06905922	0.007452194	4.48975e-05	-3.117025e-05	0.03693489	0.01787191	1.19214e-05	-9.588558e-06
	2.423027e-06	-6.05902e-06	0.06910479	0.008073501	1.19214e-05	-9.588558e-06	0.03706153	0.01776415
2.2e+08	0.0382254	0.01893159	9.12767e-06	-9.246614e-06	0.07106935	0.002726119	2.061073e-06	-5.77416e-06
	9.12767e-06	-9.246614e-06	0.03857857	0.01858073	4.294457e-05	-3.07807e-05	0.07107124	0.003361443
	0.07106934	0.002726119	4.294457e-05	-3.07807e-05	0.03881615	0.01919464	1.130306e-05	-9.303592e-06
	2.061073e-06	-5.77416e-06	0.07107124	0.003361442	1.130306e-05	-9.303592e-06	0.03899303	0.01905308
2.3e+08	0.04043289	0.02017249	8.519351e-06	-8.904919e-06	0.07256828	-0.002267287	1.716967e-06	-5.480395e-06
	8.519351e-06	-8.904919e-06	0.04080434	0.01980194	4.101348e-05	-3.037929e-05	0.07252002	-0.00161413
	0.07256828	-0.002267287	4.101348e-05	-3.037929e-05	0.04102565	0.02042305	1.070268e-05	-9.01098e-06
	1.716967e-06	-5.480395e-06	0.07252002	-0.00161413	1.070268e-05	-9.01098e-06	0.04125372	0.02024076
2.4e+08	0.04297414	0.02126508	7.936044e-06	-8.548938e-06	0.07352747	-0.007470959	1.392696e-06	-5.177553e-06
	7.936044e-06	-8.548938e-06	0.04336598	0.02087023	3.910993e-05	-2.995257e-05	0.0734229	-0.006795234
	0.07352747	-0.007470959	3.910993e-05	-2.995257e-05	0.04356518	0.02150134	1.012282e-05	-8.708873e-06
	1.392696e-06	-5.177553e-06	0.0734229	-0.006795234	1.012282e-05	-8.708873e-06	0.04384458	0.02127083
2.5e+08	0.0458425	0.02215182	7.380433e-06	-8.177888e-06	0.0739248	-0.01282538	1.08995e-06	-4.865826e-06
	7.380433e-06	-8.177888e-06	0.04625611	0.02172742	3.723758e-05	-2.949571e-05	0.07375816	-0.0121214
	0.0739248	-0.01282538	3.723758e-05	-2.949571e-05	0.04642844	0.02237293	9.565119e-06	-8.396985e-06
	1.08995e-06	-4.865826e-06	0.07375816	-0.0121214	9.565119e-06	-8.396985e-06	0.04675839	0.02208623
2.6e+08	0.04902259	0.02277546	6.854902e-06	-7.792216e-06	0.07374527	-0.01826913	8.101455e-07	-4.54595e-06
	6.854902e-06	-7.792216e-06	0.04945852	0.02231572	3.540191e-05	-2.900086e-05	0.07351134	-0.01753038
	0.07374527	-0.01826913	3.540191e-05	-2.900086e-05	0.04959975	0.02298075	9.031861e-06	-8.073994e-06
	8.101455e-07	-4.54595e-06	0.07351134	-0.01753038	9.031861e-06	-8.073994e-06	0.0499784	0.02262956
2.7e+08	0.05249013	0.0230801	6.361472e-06	-7.392824e-06	0.07298007	-0.02373958	5.544456e-07	-4.218934e-06
	6.361472e-06	-7.392824e-06	0.05294798	0.02257879	3.360775e-05	-2.846367e-05	0.07267431	-0.02295863
	0.07298007	-0.02373958	3.360775e-05	-2.846367e-05	0.05305496	0.02326946	8.52487e-06	-7.739808e-06
	5.544456e-07	-4.218934e-06	0.07267431	-0.02295863	8.52487e-06	-7.739808e-06	0.05347933	0.02284523
2.8e+08	0.05621173	0.02301269	5.901903e-06	-6.981082e-06	0.07162753	-0.02917383	3.237751e-07	-3.886042e-06
	5.901903e-06	-6.981082e-06	0.05669005	0.02246328	3.185972e-05	-2.788167e-05	0.07124616	-0.02834258
	0.07162753	-0.02917383	3.185972e-05	-2.788167e-05	0.05676104	0.02318665	8.045706e-06	-7.39501e-06
	3.237751e-07	-3.886042e-06	0.07124616	-0.02834258	8.045706e-06	-7.39501e-06	0.05722683	0.02268077
2.9e+08	0.06014613	0.02252422	5.477582e-06	-6.558738e-06	0.06969286	-0.03450942	1.188074e-07	-3.548725e-06
	5.477582e-06	-6.558738e-06	0.06064234	0.02192004	3.016227e-05	-2.725348e-05	0.06923296	-0.03361904
	0.06969286	-0.03450942	3.016227e-05	-2.725348e-05	0.06067656	0.02268324	7.595648e-06	-7.040551e-06
	1.188074e-07	-3.548725e-06	0.06923296	-0.03361904	7.595648e-06	-7.040551e-06	0.06117819	0.02208719
3e+08	0.06424424	0.02157087	5.089579e-06	-6.127848e-06	0.0671875	-0.03968474	-6.000405e-08	-3.208566e-06
	5.089579e-06	-6.127848e-06	0.06475461	0.02090524	2.851964e-05	-2.65787e-05	0.06664716	-0.03872585
	0.0671875	-0.03968474	2.851964e-05	-2.65787e-05	0.06475281	0.02171561	7.175713e-06	-6.677706e-06
	-6.000406e-08	-3.208566e-06	0.06664716	-0.03872585	7.175713e-06	-6.677706e-06	0.06528331	0.02102122
3.1e+08	0.06845023	0.02011501	4.738621e-06	-5.690705e-06	0.06412964	-0.04464026	-2.124509e-07	-2.867256e-06
	4.738621e-06	-5.690705e-06	0.06896979	0.01938147	2.693589e-05	-2.585782e-05	0.06350797	-0.04360301
	0.06412964	-0.04464026	2.693589e-05	-2.585782e-05	0.06893364	0.02024604	6.786661e-06	-6.307979e-06
	-2.124509e-07	-2.867256e-06	0.06350797	-0.04360301	6.786661e-06	-6.307979e-06	0.06948464	0.01944561
3.2e+08	0.07270176	0.01812591	4.425094e-06	-5.24975e-06	0.06054351	-0.0493189	-3.385452e-07	-2.526534e-06
	4.425094e-06	-5.24975e-06	0.07322432	0.0173183	2.541488e-05	-2.50921e-05	0.05984077	-0.0481931
	0.06054351	-0.0493189	2.541488e-05	-2.50921e-05	0.07315708	0.0182447	6.42899e-06	-5.933076e-06
	-3.385452e-07	-2.526534e-06	0.05984077	-0.0481931	6.42899e-06	-5.933076e-06	0.07371885	0.01733128
3.3e+08	0.0769317	0.01558093	4.149046e-06	-4.807517e-06	0.05645898	-0.05366628	-4.384932e-07	-2.188154e-06
	4.149046e-06	-4.807517e-06	0.07744982	0.01469374	2.396025e-05	-2.428346e-05	0.05567664	-0.05244153
	0.05645898	-0.05366628	2.396025e-05	-2.428346e-05	0.07735563	0.01568877	6.102966e-06	-5.554812e-06
	-4.384932e-07	-2.188154e-06	0.05567664	-0.05244153	6.102966e-06	-5.554812e-06	0.07791709	0.01465635
3.4e+08	0.08106841	0.01246638	3.910164e-06	-4.366587e-06	0.05191145	-0.05763219	-5.127268e-07	-1.853866e-06
	3.910164e-06	-4.366587e-06	0.08157349	0.01149483	2.257527e-05	-2.343444e-05	0.05105218	-0.05629803
	0.05191145	-0.05763219	2.257527e-05	-2.343444e-05	0.08145823	0.01256495	5.808575e-06	-5.175082e-06
	-5.127269e-07	-1.853866e-06	0.05105218	-0.05629803	5.808575e-06	-5.175082e-06	0.08200702	0.01140867
3.5e+08	0.0850376	0.008777708	3.707856e-06	-3.929508e-06	0.04694106	-0.06117009	-5.618391e-07	-1.525374e-06
	3.707856e-06	-3.929508e-06	0.0855199	0.00771799	2.126299e-05	-2.254812e-05	0.04600882	-0.05971609
	0.04694106	-0.06117009	2.126299e-05	-2.254812e-05	0.08539002	0.008868534	5.545588e-06	-4.795801e-06
	-5.618391e-07	-1.525374e-06	0.04600882	-0.05971609	5.545588e-06	-4.795801e-06	0.08591265	0.007584977
3.6e+08	0.08876288	0.004519902	3.541214e-06	-3.498776e-06	0.04159263	-0.0642382	-5.866156e-07	-1.204326e-06
	3.541214e-06	-3.498776e-06	0.08921164	0.003369355	2.002605e-05	-2.162808e-05	0.04059265	-0.06265424
	0.04159263	-0.0642382	2.002605e-05	-2.162808e-05	0.08907501	0.004605255	5.313512e-06	-4.418874e-06
	-5.866156e-07	-1.204326e-06	0.04059265	-0.06265424	5.313512e-06	-4.418874e-06	0.089557	0.003192552
3.7e+08	0.09216787	-0.0002917967	3.409062e-06	-3.076743e-06	0.0359145	-0.06679996	-5.879852e-07	-8.9226e-07
	3.409062e-06	-3.076743e-06	0.09257146	-0.001534463	1.886669e-05	-2.067821e-05	0.03485323	-0.06507629
	0.0359145	-0.06679996	1.886669e-05	-2.067821e-05	0.09243686	-0.0002095067	5.111658e-06	-4.046135e-06
	-5.879852e-07	-8.9226e-07	0.03485323	-0.06507629	5.111658e-06	-4.046135e-06	0.09286285	-0.001751393
3.8e+08	0.09517661	-0.0056324	3.310001e-06	-2.665625e-06	0.02995832	-0.06882364	-5.670078e-07	-5.906279e-07
	3.310001e-06	-2.665625e-06	0.09552268	-0.006966955	1.77868e-05	-1.970281e-05	0.02884344	-0.06695108
	0.02995832	-0.06882364	1.77868e-05	-1.970281e-05	0.09539936	-0.005550589	4.939153e-06	-3.679342e-06
	-5.670078e-07	-5.906279e-07	0.02884344	-0.06695108	4.939153e-06	-3.679342e-06	0.09575344	-0.007219753
3.9e+08	0.09771475	-0.01146613	3.242397e-06	-2.26746e-06	0.02377876	-0.07028363	-5.248812e-07	-3.007661e-07
	3.242397e-06	-2.26746e-06	0.09799033	-0.01289067	1.678785e-05	-1.870646e-05	0.02261911	-0.06825367
	0.02377876	-0.07028363	1.678785e-05	-1.870646e-05	0.09788913	-0.01138166	4.79495e-06	-3.320161e-06
	-5.248812e-07	-3.007661e-07	0.02261911	-0.06825367	4.79495e-06	-3.320161e-06	0.098155	-0.01317403
4e+08	0.09971186	-0.0177478	3.204466e-06	-1.884065e-06	0.01743209	-0.07115968	-4.628763e-07	-2.387044e-08
	3.204466e-06	-1.884065e-06	0.09990371	-0.01925857	1.587084e-05	-1.769394e-05	0.01623757	-0.06896465
	0.01743209	-0.07115968	1.587084e-05	-1.769394e-05	0.09983544	-0.01765781	4.67788e-06	-2.970083e-06
	-4.628763e-07	-2.387043e-08	0.01623757	-0.06896465	4.67788e-06	-2.970083e-06	0.0999967	-0.01956708
4.1e+08	0.1011025	-0.02442315	3.194285e-06	-1.517036e-06	0.01097634	-0.07143737	-3.823477e-07	2.390057e-07
	3.194285e-06	-1.517036e-06	0.1011973	-0.02601448	1.503636e-05	-1.667012e-05	0.009757832	-0.06907064
	0.01097634	-0.07143737	1.503636e-05	-1.667012e-05	0.101173	-0.02432415	4.586661e-06	-2.630483e-06
	-3.823477e-07	2.390057e-07	0.009757832	-0.06907064	4.586661e-06	-2.630483e-06	0.1012135	-0.02634168
4.2e+08	0.1018263	-0.03142771	3.209837e-06	-1.167724e-06	0.004470196	-0.07110867	-2.847191e-07	4.869411e-07
	3.209837e-06	-1.167724e-06	0.1018109	-0.03309191	1.428459e-05	-1.564014e-05	0.003239445	-0.06856464
	0.004470196	-0.07110867	1.428459e-05	-1.564014e-05	0.1018417	-0.03131598	4.519938e-06	-2.302584e-06
	-2.847191e-07	4.869411e-07	0.003239445	-0.06856464	4.519938e-06	-2.302584e-06	0.1017458	-0.03343073
4.3e+08	0.1018306	-0.03868961	3.249078e-06	-8.372489e-07	-0.002027616	-0.07017089	-1.714217e-07	7.19173e-07
	3.249078e-06	-8.372489e-07	0.1016923	-0.04041691	1.361522e-05	-1.460903e-05	-0.003258118	-0.06744525
	-0.002027616	-0.07017089	1.361522e-05	-1.460903e-05	0.1017892	-0.03856154	4.47632e-06	-1.987425e-06
	-1.714217e-07	7.19173e-07	-0.003258118	-0.06744525	4.47632e-06	-1.987425e-06	0.1015421	-0.04076006
4.4e+08	0.1010706	-0.04612969	3.309917e-06	-5.264775e-07	-0.008458422	-0.06862738	-4.392053e-08	9.350711e-07
	3.309917e-06	-5.264775e-07	0.1007976	-0.04790828	1.302755e-05	-1.358187e-05	-0.009675596	-0.06571702
	-0.008458422	-0.06862738	1.302755e-05	-1.358187e-05	0.1009709	-0.04598105	4.454375e-06	-1.685916e-06
	-4.392053e-08	9.350711e-07	-0.009675596	-0.06571702	4.454375e-06	-1.685916e-06	0.1005592	-0.04824756
4.5e+08	0.09951082	-0.05366118	3.390304e-06	-2.360689e-07	-0.01476472	-0.06648733	9.632547e-08	1.13414e-06
	3.390304e-06	-2.360689e-07	0.09909228	-0.05547723	1.252048e-05	-1.256376e-05	-0.01595506	-0.06339052
	-0.01476472	-0.06648733	1.252048e-05	-1.256376e-05	0.09935146	-0.05348771	4.452694e-06	-1.398806e-06
	9.632547e-08	1.13414e-06	-0.01595506	-0.06339052	4.452694e-06	-1.398806e-06	0.09876308	-0.05580419
4.6e+08	0.09712532	-0.06119218	3.488259e-06	3.352927e-08	-0.02089043	-0.06376517	2.478878e-07	1.316019e-06
	3.488259e-06	3.352927e-08	0.09655187	-0.0630299	1.20925e-05	-1.155965e-05	-0.02204011	-0.06048161
	-0.02089043	-0.06376517	1.20925e-05	-1.155965e-05	0.0969054	-0.06099005	4.469895e-06	-1.12671e-06
	2.478878e-07	1.316019e-06	-0.02204011	-0.06048161	4.469895e-06	-1.12671e-06	0.09613041	-0.06333632
4.7e+08	0.09390029	-0.06862756	3.601856e-06	2.820975e-07	-0.02678177	-0.06048062	4.093698e-07	1.480479e-06
	3.601856e-06	2.820975e-07	0.09316429	-0.07046943	1.174171e-05	-1.057434e-05	-0.02787689	-0.0570114
	-0.02678177	-0.06048062	1.174171e-05	-1.057434e-05	0.09361857	-0.06839176	4.504651e-06	-8.701145e-07
	4.093698e-07	1.48048e-06	-0.02787689	-0.0570114	4.504651e-06	-8.701145e-07	0.09264921	-0.07074578
4.8e+08	0.08983143	-0.07586825	3.729327e-06	5.095378e-07	-0.03238703	-0.05665839	5.794326e-07	1.627382e-06
	3.729327e-06	5.095378e-07	0.08892724	-0.07769508	1.146593e-05	-9.612525e-06	-0.03341369	-0.05300601
	-0.03238703	-0.05665839	1.146593e-05	-9.612525e-06	0.089488	-0.07559412	4.555687e-06	-6.294225e-07
	5.794326e-07	1.627382e-06	-0.03341369	-0.05300601	4.555687e-06	-6.294225e-07	0.08831916	-0.07793221
