!$
! Info: Touchstone file created by Circ.  Input file=Intel_C2M_200G_3p0in_202208016_staggered.circ
!$
# Hz S RI R 50
0	0.01476871	2.375888e-24	0.9850303	-4.27653e-24	8.479909e-05	2.380766e-22	-0.0002163303	2.649282e-20
	0.9850303	-4.274925e-24	0.01532501	4.768527e-24	-0.0002163856	2.649959e-20	0.0003099447	3.950647e-22
	8.485719e-05	2.382034e-22	-0.0002165232	2.651644e-20	0.01476664	2.255721e-24	0.9850306	-4.305488e-24
	-0.0002164679	2.650968e-20	0.0003100139	3.953395e-22	0.9850306	-4.307108e-24	0.01532642	4.838919e-24
1e+07	0.01779235	0.00465999	0.9800078	-0.06715091	0.001055127	0.004577428	-0.0007930886	-0.0007653733
	0.9800078	-0.06715091	0.01804243	0.004507488	-0.0007932415	-0.0007652764	0.001023758	0.004588635
	0.001055127	0.004577428	-0.0007932415	-0.0007652764	0.01767453	0.004611377	0.98013	-0.06707819
	-0.0007930886	-0.0007653733	0.001023758	0.004588635	0.98013	-0.06707819	0.01792053	0.00446112
2e+07	0.02066967	0.006819988	0.9706925	-0.1314293	0.002127499	0.008677008	-0.001072344	-0.0011631
	0.9706925	-0.1314293	0.02179868	0.00651721	-0.001072674	-0.001162653	0.001949694	0.008777605
	0.002127511	0.008676996	-0.001072668	-0.001162764	0.02050596	0.006795203	0.9708735	-0.131363
	-0.001072338	-0.001163204	0.001949783	0.0087775	0.9708735	-0.131363	0.02161591	0.006509263
3e+07	0.02303796	0.007814549	0.9579001	-0.1938067	0.003676129	0.01267606	-0.001380653	-0.001516469
	0.9579001	-0.1938067	0.0251364	0.006861806	-0.001381075	-0.001515339	0.003399006	0.01276995
	0.003676097	0.01267609	-0.001381118	-0.00151534	0.02283652	0.007832568	0.9581238	-0.1937657
	-0.001380665	-0.001516476	0.003398983	0.01276992	0.9581238	-0.1937657	0.02492288	0.00690988
4e+07	0.0249087	0.00821339	0.9414862	-0.2547201	0.005759642	0.01639203	-0.001721313	-0.001813401
	0.9414862	-0.2547201	0.02844666	0.006508582	-0.001721531	-0.00181146	0.005272915	0.01657102
	0.005759634	0.01639205	-0.001721537	-0.001811456	0.02468555	0.008279492	0.9417417	-0.2547141
	-0.001721316	-0.001813388	0.005272915	0.01657102	0.9417417	-0.2547141	0.02821568	0.006623223
5e+07	0.0264019	0.008321249	0.9214588	-0.3141173	0.00831416	0.01979791	-0.002089592	-0.002050943
	0.9214588	-0.3141173	0.03173473	0.005490616	-0.002089299	-0.002048274	0.007575083	0.02011253
	0.008314161	0.01979792	-0.002089296	-0.002048275	0.02616588	0.008438667	0.9217375	-0.3141532
	-0.002089589	-0.002050944	0.007575086	0.02011254	0.9217375	-0.3141532	0.03150147	0.005677771
6e+07	0.0275812	0.008258241	0.8978839	-0.3718593	0.01130379	0.02284343	-0.002477612	-0.002231641
	0.8978839	-0.3718593	0.03494559	0.003896831	-0.002476559	-0.002228351	0.0102695	0.02334922
	0.01130381	0.02284342	-0.002476556	-0.002228352	0.02733986	0.008429619	0.8981776	-0.3719426
	-0.002477609	-0.00223164	0.0102695	0.02334922	0.8981776	-0.3719426	0.03472532	0.004159044
7e+07	0.02847824	0.008120261	0.8708521	-0.4277836	0.01468217	0.02548054	-0.002879754	-0.002358694
	0.8708521	-0.4277836	0.03805477	0.001790552	-0.002877628	-0.002355047	0.01331761	0.02624265
	0.01468217	0.02548054	-0.002877574	-0.002355093	0.02823886	0.008347442	0.8711512	-0.4279183
	-0.002879751	-0.002358696	0.01331761	0.02624265	0.8711512	-0.4279183	0.0378621	0.002127374
8e+07	0.02913274	0.007992973	0.8404685	-0.481718	0.0183981	0.02766699	-0.003291312	-0.002434836
	0.8404685	-0.481718	0.04103538	-0.0007925806	-0.003287907	-0.002431175	0.01667662	0.02875871
	0.0183981	0.027667	-0.003287909	-0.002431173	0.02890257	0.008277753	0.8407653	-0.481908
	-0.003291314	-0.002434834	0.01667662	0.02875871	0.8407653	-0.481908	0.04088467	-0.0003838528
9e+07	0.02959864	0.007947784	0.8068491	-0.5334915	0.02239703	0.02936635	-0.003708526	-0.002462468
	0.8068491	-0.5334915	0.04385243	-0.003821531	-0.003703712	-0.00245923	0.02030113	0.03086906
	0.02239703	0.02936636	-0.003703713	-0.002459221	0.02938473	0.008292436	0.8071321	-0.5337396
	-0.003708529	-0.002462458	0.02030113	0.03086906	0.8071321	-0.5337396	0.04375864	-0.003344635
1e+08	0.02996044	0.008068375	0.7700948	-0.5829659	0.02662338	0.03054765	-0.004130617	-0.002443947
	0.7700948	-0.5829659	0.04649281	-0.007233631	-0.004124416	-0.002441762	0.02414617	0.03255092
	0.02662338	0.03054765	-0.004124415	-0.002441763	0.02977213	0.008481621	0.7703497	-0.5832811
	-0.004130617	-0.002443948	0.02414617	0.03255092	0.7703497	-0.5832811	0.04647727	-0.006690922
1.1e+08	0.03034394	0.008170297	0.7302744	-0.6297611	0.03102756	0.03117821	-0.004550298	-0.002366054
	0.7302744	-0.6297611	0.04901342	-0.01117072	-0.004543724	-0.002364461	0.02815467	0.03377477
	0.03102756	0.03117821	-0.004543724	-0.002364463	0.0302743	0.008631871	0.7304751	-0.6301173
	-0.004550297	-0.002366055	0.02815467	0.03377477	0.7304751	-0.6301173	0.04909717	-0.01058425
1.2e+08	0.03057879	0.008385212	0.6877632	-0.6737657	0.03549762	0.03124627	-0.004952588	-0.002250977
	0.6877632	-0.6737657	0.05115122	-0.01555808	-0.004945268	-0.002250482	0.03226661	0.03453874
	0.03549762	0.03124627	-0.004945267	-0.002250483	0.0305703	0.008853759	0.6879135	-0.6741515
	-0.004952588	-0.002250978	0.03226661	0.03453874	0.6879135	-0.6741515	0.05133058	-0.01495828
1.3e+08	0.0307619	0.008769888	0.6427121	-0.7148769	0.03998242	0.03074976	-0.005341744	-0.002101548
	0.6427121	-0.7148769	0.05290169	-0.02030116	-0.005334043	-0.002102967	0.03643202	0.03484069
	0.03998242	0.03074976	-0.005334043	-0.002102969	0.03078928	0.009248862	0.6428125	-0.7152867
	-0.005341744	-0.00210155	0.03643202	0.03484069	0.6428125	-0.7152867	0.05317079	-0.01970781
1.4e+08	0.03095581	0.009335124	0.5953038	-0.7529663	0.04442144	0.02969139	-0.005718432	-0.001920419
	0.5953038	-0.7529663	0.05424339	-0.02534188	-0.005711242	-0.00192368	0.04059914	0.03468341
	0.04442144	0.02969139	-0.005711242	-0.001923682	0.0310155	0.009831688	0.5953529	-0.7533916
	-0.005718432	-0.00192042	0.04059914	0.03468341	0.5953529	-0.7533916	0.05459402	-0.02476852
1.5e+08	0.03121487	0.01008033	0.5457304	-0.7879102	0.04875184	0.02807951	-0.006083001	-0.001709421
	0.5457304	-0.7879102	0.05515612	-0.03062865	-0.006076886	-0.001714398	0.04471753	0.03407522
	0.04875184	0.02807951	-0.006076886	-0.001714399	0.03131098	0.01059615	0.5457289	-0.7883444
	-0.006083001	-0.001709422	0.04471753	0.03407522	0.5457289	-0.7883444	0.05558015	-0.03008491
1.6e+08	0.03158913	0.01099625	0.4941923	-0.8195921	0.05291092	0.02592901	-0.006435559	-0.001470007
	0.4941923	-0.8195921	0.05562225	-0.03611198	-0.006430983	-0.001476279	0.04873849	0.03303032
	0.05291092	0.02592901	-0.006430983	-0.001476279	0.03172749	0.01152815	0.4941402	-0.8200305
	-0.006435559	-0.001470008	0.04873849	0.03303032	0.4941402	-0.8200305	0.05611184	-0.0356051
1.7e+08	0.03212552	0.01206565	0.4408973	-0.8479102	0.05683752	0.02326137	-0.006776077	-0.001203285
	0.4408973	-0.8479102	0.05562758	-0.04174329	-0.006773358	-0.001210252	0.05261561	0.03156775
	0.05683752	0.02326137	-0.006773358	-0.001210252	0.0323107	0.01260733	0.4407954	-0.8483476
	-0.006776078	-0.001203286	0.05261561	0.03156775	0.4407954	-0.8483476	0.05617556	-0.04127893
1.8e+08	0.03286738	0.01326332	0.3860587	-0.8727743	0.06047302	0.02010458	-0.007104492	-0.0009100432
	0.3860587	-0.8727743	0.0551621	-0.04747387	-0.007103727	-0.0009171821	0.05630588	0.02971163
	0.06047302	0.02010458	-0.007103727	-0.0009171824	0.03310166	0.01380685	0.3859079	-0.8732053
	-0.007104492	-0.0009100435	0.05630588	0.02971163	0.3859079	-0.8732053	0.05576099	-0.04705669
1.9e+08	0.03385385	0.01455648	0.329896	-0.8941049	0.06376243	0.01649318	-0.00742065	-0.0005904033
	0.329896	-0.8941049	0.05421921	-0.05325489	-0.007421805	-0.0005972206	0.05976971	0.02749103
	0.06376243	0.01649318	-0.007421805	-0.0005972209	0.03413706	0.01509342	0.3296993	-0.8945264
	-0.00742065	-0.0005904035	0.05976971	0.02749103	0.3296993	-0.8945264	0.05486235	-0.05288867
2e+08	0.03511818	0.01590509	0.2726328	-0.9118374	0.066655	0.01246757	-0.007724117	-0.0002443409
	0.2726328	-0.9118374	0.05279761	-0.05903773	-0.007727048	-0.0002505541	0.06297142	0.0249385
	0.066655	0.01246757	-0.007727048	-0.0002505543	0.0354488	0.01642763	0.27239	-0.9122443
	-0.007724117	-0.000244341	0.06297142	0.0249385	0.27239	-0.9122443	0.05347719	-0.05872538
2.1e+08	0.03668675	0.01726359	0.2144948	-0.9259221	0.06910479	0.008073501	-0.008014324	0.0001281112
	0.2144948	-0.9259221	0.05089966	-0.06477424	-0.008018866	0.0001230964	0.06588061	0.0220906
	0.06910479	0.008073501	-0.008018866	0.0001230964	0.03706153	0.01776415	0.2142086	-0.92631
	-0.008014324	0.0001281111	0.06588061	0.0220906	0.2142086	-0.92631	0.0516089	-0.06451789
2.2e+08	0.03857857	0.01858073	0.1557104	-0.9363215	0.07107124	0.003361443	-0.008290268	0.0005276277
	0.1557104	-0.9363215	0.04853316	-0.0704171	-0.00829615	0.000524001	0.06847125	0.01898655
	0.07107124	0.003361442	-0.00829615	0.0005240008	0.03899303	0.01905308	0.1553829	-0.9366866
	-0.008290268	0.0005276275	0.06847125	0.01898655	0.1553829	-0.9366866	0.04926449	-0.07021788
2.3e+08	0.04080434	0.01980194	0.09651124	-0.943011	0.07252002	-0.00161413	-0.008550631	0.0009542103
	0.09651124	-0.943011	0.04571012	-0.07592004	-0.008557644	0.0009524868	0.07072268	0.01566773
	0.07252002	-0.00161413	-0.008557644	0.0009524866	0.04125372	0.02024076	0.09614355	-0.9433505
	-0.008550631	0.0009542101	0.07072268	0.01566773	0.09614355	-0.9433505	0.04645619	-0.07577823
2.4e+08	0.04336598	0.02087023	0.0371258	-0.9459838	0.0734229	-0.006795234	-0.008794006	0.001408724
	0.0371258	-0.9459838	0.04244707	-0.08123907	-0.008801756	0.001408938	0.07262	0.01217735
	0.0734229	-0.006795234	-0.008801756	0.001408938	0.04384458	0.02127083	0.03672163	-0.946295
	-0.008794006	0.001408723	0.07262	0.01217735	0.03672163	-0.946295	0.04320093	-0.08115389
2.5e+08	0.04625611	0.02172742	-0.02221427	-0.9452463	0.07375816	-0.0121214	-0.009018525	0.001891417
	-0.02221427	-0.9452463	0.03876541	-0.0863323	-0.009026548	0.001893754	0.07415364	0.008559178
	0.07375816	-0.0121214	-0.009026548	0.001893754	0.04675839	0.02208623	-0.02265367	-0.9455246
	-0.009018525	0.001891417	0.07415364	0.008559178	-0.02265367	-0.9455246	0.03952006	-0.08630181
2.6e+08	0.04945852	0.02231572	-0.08128218	-0.9408172	0.07351134	-0.01753038	-0.009222274	0.002402289
	-0.08128218	-0.9408172	0.03468963	-0.09116024	-0.009230078	0.002407108	0.07531958	0.00485704
	0.07351134	-0.01753038	-0.009230078	0.002407108	0.0499784	0.02262956	-0.08175199	-0.9410593
	-0.009222274	0.002402289	0.07531958	0.00485704	-0.08175199	-0.9410593	0.035439	-0.09118185
2.7e+08	0.05294798	0.02257879	-0.1398515	-0.9327286	0.07267431	-0.02295863	-0.009402997	0.002941462
	-0.1398515	-0.9327286	0.03024871	-0.09568674	-0.009410114	0.002948535	0.07611932	0.001114437
	0.07267431	-0.02295863	-0.009410114	0.002948535	0.05347933	0.02284523	-0.1403496	-0.9329332
	-0.009402997	0.002941462	0.07611932	0.001114437	-0.1403496	-0.9329332	0.03098713	-0.09575708
2.8e+08	0.05669005	0.02246328	-0.1976999	-0.9210287	0.07124616	-0.02834258	-0.009558296	0.003508539
	-0.1976999	-0.9210287	0.0254749	-0.09987928	-0.009564173	0.003518046	0.07655978	-0.002626755
	0.07124616	-0.02834258	-0.009564173	0.003518046	0.05722683	0.02268077	-0.1982229	-0.9211934
	-0.009558296	0.003508539	0.07655978	-0.002626755	-0.1982229	-0.9211934	0.02619745	-0.09999392
2.9e+08	0.06064234	0.02192004	-0.2546082	-0.9057781	0.06923296	-0.03361904	-0.00968552	0.004103551
	-0.2546082	-0.9057781	0.02040307	-0.1037088	-0.009689797	0.004115115	0.07665271	-0.00632622
	0.06923296	-0.03361904	-0.009689797	0.004115115	0.06117819	0.02208719	-0.2551528	-0.9059011
	-0.00968552	0.004103551	0.07665271	-0.00632622	-0.2551528	-0.9059011	0.02110581	-0.1038629
3e+08	0.06475461	0.02090524	-0.3103629	-0.8870488	0.06664716	-0.03872585	-0.009782299	0.004725485
	-0.3103629	-0.8870488	0.01507106	-0.1071502	-0.009784543	0.00473885	0.07641444	-0.009946734
	0.06664716	-0.03872585	-0.009784543	0.00473885	0.06528331	0.02102122	-0.3109256	-0.8871276
	-0.009782299	0.004725485	0.07641444	-0.009946734	-0.3109256	-0.8871276	0.0157509	-0.1073385
3.1e+08	0.06896979	0.01938147	-0.3647573	-0.8649268	0.06350797	-0.04360301	-0.009846115	0.005373465
	-0.3647573	-0.8649268	0.00951858	-0.1101832	-0.009845616	0.005388409	0.07586601	-0.01345345
	0.06350797	-0.04360301	-0.009845616	0.005388409	0.06948464	0.01944561	-0.3653326	-0.8649594
	-0.009846115	0.005373465	0.07586601	-0.01345345	-0.3653326	-0.8649594	0.01017344	-0.1103998
3.2e+08	0.07322432	0.0173183	-0.417587	-0.8395096	0.05984077	-0.0481931	-0.009874353	0.006046431
	-0.417587	-0.8395096	0.003787227	-0.1127913	-0.009870782	0.006062551	0.07503203	-0.0168157
	0.05984077	-0.0481931	-0.009870782	0.006062551	0.07371885	0.01733128	-0.418174	-0.8394955
	-0.009874353	0.00604643	0.07503203	-0.0168157	-0.418174	-0.8394955	0.004415679	-0.1130308
3.3e+08	0.07744982	0.01469374	-0.4686587	-0.8109048	0.05567664	-0.05244153	-0.009864267	0.006743389
	-0.4686587	-0.8109048	-0.002080692	-0.1149628	-0.009857704	0.006759683	0.07393997	-0.02000653
	0.05567664	-0.05244153	-0.009857704	0.006759683	0.07791709	0.01465635	-0.4692521	-0.8108437
	-0.009864267	0.006743389	0.07393997	-0.02000653	-0.4692521	-0.8108437	-0.00147843	-0.1152195
3.4e+08	0.08157349	0.01149483	-0.5177826	-0.7792337	0.05105218	-0.05629803	-0.009813626	0.00746241
	-0.5177826	-0.7792337	-0.008041533	-0.1166908	-0.009803533	0.007478711	0.07262072	-0.02300314
	0.05105218	-0.05629803	-0.009803533	0.007478711	0.08200702	0.01140867	-0.5183817	-0.7791253
	-0.009813627	0.00746241	0.07262072	-0.02300314	-0.5183817	-0.7791253	-0.007465076	-0.116959
3.5e+08	0.0855199	0.00771799	-0.5647821	-0.7446264	0.04600882	-0.05971609	-0.009719859	0.008202239
	-0.5647821	-0.7446264	-0.01405245	-0.1179729	-0.009706104	0.008217856	0.07110675	-0.02578783
	0.04600882	-0.05971609	-0.009706104	0.008217856	0.08591265	0.007584977	-0.5653793	-0.7444699
	-0.009719859	0.008202239	0.07110675	-0.02578783	-0.5653793	-0.7444699	-0.01349945	-0.1182474
3.6e+08	0.08921164	0.003369355	-0.6094838	-0.7072242	0.04059265	-0.06265424	-0.009580421	0.008961194
	-0.6094838	-0.7072242	-0.0200701	-0.1188114	-0.009563365	0.008975349	0.06943207	-0.02834727
	0.04059265	-0.06265424	-0.009563365	0.008975349	0.089557	0.003192552	-0.6100765	-0.7070196
	-0.009580421	0.008961194	0.06943207	-0.02834727	-0.6100765	-0.7070196	-0.01953787	-0.1190872
3.7e+08	0.09257146	-0.001534463	-0.6517263	-0.6671756	0.03485323	-0.06507629	-0.009393121	0.009737303
	-0.6517263	-0.6671756	-0.02605239	-0.1192129	-0.009372699	0.009749531	0.06763156	-0.03067309
	0.03485323	-0.06507629	-0.0093727	0.009749531	0.09286285	-0.001751393	-0.6523124	-0.6669236
	-0.009393121	0.009737303	0.06763156	-0.03067309	-0.6523124	-0.6669236	-0.0255376	-0.1194858
3.8e+08	0.09552268	-0.006966955	-0.691358	-0.6246394	0.02884344	-0.06695108	-0.009154909	0.0105292
	-0.691358	-0.6246394	-0.03195845	-0.1191881	-0.009131969	0.01053843	0.0657401	-0.03276184
	0.02884344	-0.06695108	-0.009131969	0.01053843	0.09575344	-0.007219753	-0.6919318	-0.6243398
	-0.009154909	0.0105292	0.0657401	-0.03276184	-0.6919318	-0.6243398	-0.03145646	-0.1194549
3.9e+08	0.09799033	-0.01289067	-0.7282342	-0.5797839	0.02261911	-0.06825367	-0.008864023	0.01133434
	-0.7282342	-0.5797839	-0.03774906	-0.1187529	-0.008838165	0.01134052	0.06379235	-0.03461513
	0.02261911	-0.06825367	-0.008838165	0.01134052	0.098155	-0.01317403	-0.7287947	-0.5794394
	-0.008864023	0.01133434	0.06379235	-0.03461513	-0.7287947	-0.5794394	-0.0372553	-0.1190107
4e+08	0.09990371	-0.01925857	-0.7622227	-0.5327862	0.01623757	-0.06896465	-0.008517182	0.01215095
	-0.7622227	-0.5327862	-0.04338723	-0.1179266	-0.00848945	0.01215339	0.06182165	-0.03623911
	0.01623757	-0.06896465	-0.00848945	0.01215339	0.0999967	-0.01956708	-0.7627654	-0.5323952
	-0.008517182	0.01215095	0.06182165	-0.03623911	-0.7627654	-0.5323952	-0.04289607	-0.1181734
4.1e+08	0.1011973	-0.02601448	-0.7932024	-0.4838241	0.009757832	-0.06907064	-0.008111493	0.01297681
	-0.7932024	-0.4838241	-0.04883863	-0.1167315	-0.00808261	0.01297497	0.05985967	-0.03764392
	0.009757832	-0.06907064	-0.00808261	0.01297497	0.1012135	-0.02634168	-0.7937257	-0.4833877
	-0.008111493	0.01297681	0.05985967	-0.03764392	-0.7937257	-0.4833877	-0.04834459	-0.1169665
4.2e+08	0.1018109	-0.03309191	-0.8210623	-0.4330903	0.003239445	-0.06856464	-0.007644499	0.01380927
	-0.8210623	-0.4330903	-0.05407191	-0.1151943	-0.007614841	0.0138029	0.05793577	-0.03884507
	0.003239445	-0.06856464	-0.007614841	0.0138029	0.1017458	-0.03343073	-0.8215618	-0.4326109
	-0.007644499	0.01380927	0.05793577	-0.03884507	-0.8215618	-0.4326109	-0.0535687	-0.115418
4.3e+08	0.1016923	-0.04041691	-0.8457032	-0.3807781	-0.003258118	-0.06744525	-0.007112355	0.01464569
	-0.8457032	-0.3807781	-0.05905877	-0.1133442	-0.00708305	0.01463475	0.05607651	-0.03986059
	-0.003258118	-0.06744525	-0.00708305	0.01463475	0.1015421	-0.04076006	-0.8461767	-0.380256
	-0.007112355	0.01464569	0.05607651	-0.03986059	-0.8461767	-0.380256	-0.05854085	-0.1135576
4.4e+08	0.1007976	-0.04790828	-0.8670377	-0.3270868	-0.009675596	-0.06571702	-0.006511901	0.01548289
	-0.8670377	-0.3270868	-0.06377479	-0.1112128	-0.006483421	0.01546722	0.054305	-0.04071272
	-0.009675596	-0.06571702	-0.006483421	0.01546722	0.1005592	-0.04824756	-0.8674818	-0.326524
	-0.006511901	0.01548289	0.054305	-0.04071272	-0.8674818	-0.326524	-0.06323608	-0.1114185
4.5e+08	0.09909228	-0.05547723	-0.8849887	-0.272224	-0.01595506	-0.06339052	-0.005839507	0.01631722
	-0.8849887	-0.272224	-0.06819912	-0.1088345	-0.005812637	0.01629705	0.05264103	-0.04142634
	-0.01595506	-0.06339052	-0.005812637	0.01629705	0.09876308	-0.05580419	-0.8854008	-0.2716218
	-0.005839507	0.01631722	0.05264103	-0.04142634	-0.8854008	-0.2716218	-0.067634	-0.1090358
4.6e+08	0.09655187	-0.0630299	-0.8994924	-0.2163997	-0.02204011	-0.06048161	-0.005090896	0.0171445
	-0.8994924	-0.2163997	-0.07231505	-0.1062457	-0.005066785	0.01712012	0.05110013	-0.04202906
	-0.02204011	-0.06048161	-0.005066785	0.01712012	0.09613041	-0.06333632	-0.8998695	-0.2157581
	-0.005090896	0.0171445	0.05110013	-0.04202906	-0.8998695	-0.2157581	-0.07171843	-0.1064468
4.7e+08	0.09316429	-0.07046943	-0.9105013	-0.1598243	-0.02787689	-0.0570114	-0.004262911	0.01795975
	-0.9105013	-0.1598243	-0.07611068	-0.1034828	-0.004241974	0.01793155	0.04969327	-0.04254972
	-0.02787689	-0.0570114	-0.004241974	0.01793155	0.09264921	-0.07074578	-0.9108383	-0.159146
	-0.004262911	0.01795975	0.04969327	-0.04254972	-0.9108383	-0.159146	-0.0754776	-0.1036893
4.8e+08	0.08892724	-0.07769508	-0.9179717	-0.1027135	-0.03341369	-0.05300601	-0.003350808	0.01875742
	-0.9179717	-0.1027135	-0.07957692	-0.1005842	-0.003334198	0.01872589	0.0484273	-0.04301883
	-0.03341369	-0.05300601	-0.003334198	0.01872589	0.08831916	-0.07793221	-0.9182691	-0.1020007
	-0.003350808	0.01875742	0.0484273	-0.04301883	-0.9182691	-0.1020007	-0.07890396	-0.1008023
4.9e+08	0.083852	-0.08460432	-0.9218803	-0.04528974	-0.03860254	-0.04849623	-0.00235159	0.01953097
	-0.9218803	-0.04528974	-0.08271049	-0.0975888	-0.00233936	0.01949679	0.04730408	-0.0434676
	-0.03860254	-0.04849623	-0.00233936	0.01949679	0.08315164	-0.08479309	-0.922134	-0.04454173
	-0.00235159	0.01953097	0.04730408	-0.0434676	-0.922134	-0.04454173	-0.08199458	-0.09782528
5e+08	0.07796217	-0.09109655	-0.9222164	0.01223333	-0.04339845	-0.0435166	-0.001260819	0.02027259
	-0.9222164	0.01223333	-0.08551228	-0.09453424	-0.001253922	0.02023675	0.04632083	-0.04392675
	-0.04339845	-0.0435166	-0.001253922	0.02023675	0.07717122	-0.09122705	-0.9224221	0.013011
	-0.001260819	0.02027259	0.04632083	-0.04392675	-0.9224221	0.013011	-0.08475116	-0.09479739
5.1e+08	0.0712928	-0.09707082	-0.9189771	0.06963198	-0.04775992	-0.03810612	-7.611524e-05	0.02097412
	-0.9189771	0.06963198	-0.08798678	-0.09145886	-7.480267e-05	0.0209374	0.04546998	-0.04442679
	-0.04775992	-0.03810612	-7.480267e-05	0.0209374	0.07041431	-0.0971341	-0.9191342	0.07043827
	-7.611524e-05	0.02097412	0.04546998	-0.04442679	-0.9191342	0.07043827	-0.08717978	-0.09175662
5.2e+08	0.06389245	-0.1024305	-0.9121787	0.1266854	-0.05165057	-0.03230652	0.001205604	0.02162566
	-0.9121787	0.1266854	-0.0901435	-0.0883992	0.001201578	0.02158897	0.04473967	-0.04499678
