!$
! Info: Touchstone file created by Circ.  Input file=Intel_C2M_200G_3p0in_202208016_staggered.circ
!$
# Hz S RI R 50
0	0.01475549	2.18453e-24	4.165971e-05	4.626928e-23	8.518578e-05	2.393212e-22	4.159291e-05	4.616607e-23
	4.165971e-05	4.626928e-23	0.01476871	2.375888e-24	4.164205e-05	4.624721e-23	8.479909e-05	2.380766e-22
	8.524387e-05	2.39449e-22	4.164204e-05	4.624813e-23	0.01475029	2.106345e-24	4.160575e-05	4.614606e-23
	4.159291e-05	4.616699e-23	8.485719e-05	2.382034e-22	4.160575e-05	4.614606e-23	0.01476664	2.255721e-24
1e+07	0.01786988	0.004661041	3.093341e-05	7.420002e-06	0.0008720887	0.004494734	3.128485e-06	2.581552e-05
	3.093341e-05	7.420002e-06	0.01779235	0.00465999	3.330832e-05	2.230393e-05	0.001055127	0.004577428
	0.0008720887	0.004494734	3.330832e-05	2.230393e-05	0.01815811	0.004632365	1.780285e-05	1.764795e-05
	3.128485e-06	2.581552e-05	0.001055127	0.004577428	1.780285e-05	1.764795e-05	0.01767453	0.004611377
2e+07	0.02072532	0.006784317	2.252934e-05	1.632616e-05	0.001951598	0.008587624	1.597935e-05	2.762077e-05
	2.252934e-05	1.632616e-05	0.02066967	0.006819988	3.750075e-05	2.277364e-05	0.002127499	0.008677008
	0.00195161	0.008587612	3.750076e-05	2.277364e-05	0.02088945	0.006647006	1.844778e-05	1.177341e-05
	1.597935e-05	2.762077e-05	0.002127511	0.008676996	1.844778e-05	1.177341e-05	0.02050596	0.006795203
3e+07	0.02307443	0.0077651	2.154267e-05	2.27994e-05	0.003502472	0.01255293	2.618428e-05	2.829083e-05
	2.154267e-05	2.27994e-05	0.02303796	0.007814549	4.163493e-05	2.472343e-05	0.003676129	0.01267606
	0.003502441	0.01255296	4.163493e-05	2.472343e-05	0.02313895	0.007633097	1.929023e-05	1.079209e-05
	2.618428e-05	2.829083e-05	0.003676097	0.01267609	1.929023e-05	1.079209e-05	0.02283652	0.007832568
4e+07	0.02492599	0.008154714	2.084246e-05	2.5701e-05	0.005585354	0.01623176	3.487158e-05	2.764334e-05
	2.084246e-05	2.5701e-05	0.0249087	0.00821339	4.550439e-05	2.520489e-05	0.005759642	0.01639203
	0.005585346	0.01623178	4.550439e-05	2.520489e-05	0.02491616	0.00805751	2.012088e-05	1.027109e-05
	3.487158e-05	2.764334e-05	0.005759634	0.01639205	2.012088e-05	1.027109e-05	0.02468555	0.008279492
5e+07	0.02639816	0.008255585	2.009917e-05	2.675687e-05	0.008137167	0.0196004	4.255007e-05	2.594656e-05
	2.009917e-05	2.675687e-05	0.0264019	0.008321249	5.309838e-05	2.231356e-05	0.00831416	0.01979791
	0.008137168	0.01960041	5.309838e-05	2.231356e-05	0.02633021	0.008209733	2.225731e-05	8.956728e-06
	4.255007e-05	2.594656e-05	0.008314161	0.01979792	2.225731e-05	8.956728e-06	0.02616588	0.008438667
6e+07	0.02755342	0.008187566	1.911247e-05	2.665278e-05	0.01112267	0.02260992	4.926248e-05	2.306962e-05
	1.911247e-05	2.665278e-05	0.0275812	0.008258241	5.944578e-05	1.812518e-05	0.01130379	0.02284343
	0.01112269	0.02260991	5.944578e-05	1.812518e-05	0.02744151	0.008204623	2.402655e-05	7.367153e-06
	4.926248e-05	2.306962e-05	0.01130381	0.02284342	2.402655e-05	7.367153e-06	0.02733986	0.008429619
7e+07	0.02842252	0.008047058	2.296595e-05	2.442028e-05	0.01449612	0.02521301	5.502175e-05	1.90606e-05
	2.296595e-05	2.442028e-05	0.02847824	0.008120261	6.444819e-05	1.270937e-05	0.01468217	0.02548054
	0.01449612	0.025213	6.444819e-05	1.270937e-05	0.02828026	0.008135356	2.532918e-05	5.554993e-06
	5.502176e-05	1.90606e-05	0.01468217	0.02548054	2.532918e-05	5.554993e-06	0.02823886	0.008347442
8e+07	0.02904444	0.007920759	2.719943e-05	2.096433e-05	0.01820705	0.02736788	5.987866e-05	1.403176e-05
	2.719943e-05	2.096433e-05	0.02913274	0.007992973	6.810979e-05	6.317652e-06	0.0183981	0.02766699
	0.01820705	0.02736788	6.810979e-05	6.317652e-06	0.02888532	0.00808707	2.615862e-05	3.573932e-06
	5.987866e-05	1.403176e-05	0.0183981	0.027667	2.615862e-05	3.573932e-06	0.02890257	0.008277753
9e+07	0.0294722	0.007881796	3.019137e-05	1.670087e-05	0.02220161	0.02903829	6.376447e-05	7.86914e-06
	3.019137e-05	1.670087e-05	0.02959864	0.007947784	7.029017e-05	-1.005487e-06	0.02239703	0.02936635
	0.02220161	0.0290383	7.029017e-05	-1.005487e-06	0.02931009	0.008132735	2.64567e-05	1.453517e-06
	6.376447e-05	7.86914e-06	0.02239703	0.02936636	2.64567e-05	1.453517e-06	0.02938473	0.008292436
1e+08	0.0297878	0.008019523	3.123352e-05	1.103816e-05	0.02642515	0.03019302	6.610105e-05	-7.387203e-07
	3.123352e-05	1.103816e-05	0.02996044	0.008068375	7.018014e-05	-1.017105e-05	0.02662338	0.03054765
	0.02642515	0.03019302	7.018014e-05	-1.017105e-05	0.02964204	0.008370426	2.661323e-05	9.911444e-07
	6.610105e-05	-7.387203e-07	0.02662338	0.03054765	2.661323e-05	9.911444e-07	0.02977213	0.008481621
1.1e+08	0.03013971	0.008152514	2.872758e-05	8.229449e-06	0.03082718	0.03079879	6.28443e-05	-6.894755e-06
	2.872758e-05	8.229449e-06	0.03034394	0.008170297	6.785235e-05	-9.083324e-06	0.03102756	0.03117821
	0.03082719	0.03079879	6.785235e-05	-9.083324e-06	0.03012076	0.008569001	2.614202e-05	2.272716e-06
	6.28443e-05	-6.894755e-06	0.03102756	0.03117821	2.614202e-05	2.272716e-06	0.0302743	0.008631871
1.2e+08	0.03034646	0.008395801	2.739344e-05	7.13329e-06	0.03529717	0.0308452	6.131656e-05	-8.875116e-06
	2.739344e-05	7.13329e-06	0.03057879	0.008385212	6.650165e-05	-7.265291e-06	0.03549762	0.03124627
	0.03529717	0.0308452	6.650165e-05	-7.265291e-06	0.03039227	0.008828282	2.600903e-05	3.237065e-06
	6.131656e-05	-8.875116e-06	0.03549762	0.03124627	2.600903e-05	3.237065e-06	0.0305703	0.008853759
1.3e+08	0.03050269	0.00880995	2.723886e-05	6.678084e-06	0.03978477	0.03032964	6.203376e-05	-6.237755e-06
	2.723886e-05	6.678084e-06	0.0307619	0.008769888	6.541055e-05	-5.758068e-06	0.03998242	0.03074976
	0.03978477	0.03032963	6.541055e-05	-5.758068e-06	0.0305859	0.009258304	2.615318e-05	3.966907e-06
	6.203376e-05	-6.237755e-06	0.03998242	0.03074976	2.615318e-05	3.966907e-06	0.03078928	0.009248862
1.4e+08	0.03067052	0.009406435	2.808701e-05	6.617933e-06	0.04423009	0.02925446	6.288358e-05	-4.198956e-06
	2.808701e-05	6.617933e-06	0.03095581	0.009335124	6.456354e-05	-4.421338e-06	0.04442144	0.02969139
	0.04423009	0.02925446	6.456354e-05	-4.421338e-06	0.03078587	0.009875551	2.643742e-05	4.659474e-06
	6.288358e-05	-4.198956e-06	0.04442144	0.02969139	2.643742e-05	4.659474e-06	0.0310155	0.009831688
1.5e+08	0.03090423	0.01018503	2.911717e-05	6.615933e-06	0.04857084	0.02762757	6.389485e-05	-2.602859e-06
	2.911717e-05	6.615933e-06	0.03121487	0.01008033	6.395676e-05	-3.196891e-06	0.04875184	0.02807951
	0.04857084	0.02762757	6.395676e-05	-3.196891e-06	0.03105412	0.01067496	2.686625e-05	5.31199e-06
	6.389485e-05	-2.602859e-06	0.04875184	0.02807951	2.686625e-05	5.31199e-06	0.03131098	0.01059615
1.6e+08	0.03125378	0.01113666	3.03398e-05	6.616639e-06	0.05274485	0.02546335	6.508093e-05	-1.377929e-06
	3.03398e-05	6.616639e-06	0.03158913	0.01099625	6.358724e-05	-2.069771e-06	0.05291092	0.02592901
	0.05274485	0.02546335	6.358724e-05	-2.069771e-06	0.03144234	0.01164313	2.74411e-05	5.915096e-06
	6.508093e-05	-1.377929e-06	0.05291092	0.02592901	2.74411e-05	5.915096e-06	0.03172749	0.01152815
1.7e+08	0.03176622	0.01224434	3.175863e-05	6.568287e-06	0.05669133	0.02278261	6.644617e-05	-4.902998e-07
	3.175863e-05	6.568287e-06	0.03212552	0.01206565	6.386001e-05	-1.136116e-06	0.05683752	0.02326137
	0.05669133	0.02278261	6.386001e-05	-1.136116e-06	0.03199612	0.01276036	2.827578e-05	6.420101e-06
	6.644617e-05	-4.902998e-07	0.05683752	0.02326137	2.827578e-05	6.420101e-06	0.0323107	0.01260733
1.8e+08	0.03248493	0.01348308	3.337552e-05	6.427661e-06	0.06035203	0.0196127	6.798793e-05	7.273966e-08
	3.337552e-05	6.427661e-06	0.03286738	0.01326332	6.45585e-05	-4.666284e-07	0.06047302	0.02010458
	0.06035203	0.0196127	6.45585e-05	-4.666284e-07	0.0327566	0.01400043	2.939864e-05	6.771604e-06
	6.798793e-05	7.273967e-08	0.06047302	0.02010458	2.939864e-05	6.771604e-06	0.03310166	0.01380685
1.9e+08	0.0334492	0.0148203	3.518933e-05	6.159591e-06	0.06367216	0.01598746	6.970046e-05	3.157961e-07
	3.518933e-05	6.159591e-06	0.03385385	0.01455648	6.536875e-05	-1.279285e-08	0.06376243	0.01649318
	0.06367216	0.01598746	6.536875e-05	-1.279284e-08	0.03376065	0.01533059	3.061825e-05	6.990269e-06
	6.970046e-05	3.157961e-07	0.06376243	0.01649318	3.061825e-05	6.990269e-06	0.03413706	0.01509342
2e+08	0.03469256	0.01621619	3.719424e-05	5.72373e-06	0.06660119	0.01194645	7.157264e-05	2.322733e-07
	3.719424e-05	5.72373e-06	0.03511818	0.01590509	6.629188e-05	2.295078e-07	0.066655	0.01246757
	0.06660119	0.01194644	6.629188e-05	2.295078e-07	0.03504036	0.01671203	3.193413e-05	7.06696e-06
	7.157264e-05	2.322733e-07	0.066655	0.01246757	3.193413e-05	7.06696e-06	0.0354488	0.01642763
2.1e+08	0.03624156	0.0176254	3.93789e-05	5.080399e-06	0.06909315	0.007534623	7.35885e-05	-1.897674e-07
	3.93789e-05	5.080399e-06	0.03668675	0.01726359	6.732447e-05	2.527528e-07	0.06910479	0.008073501
	0.06909315	0.007534622	6.732447e-05	2.527528e-07	0.03662073	0.01810001	3.334379e-05	6.989831e-06
	7.35885e-05	-1.897673e-07	0.06910479	0.008073501	3.334379e-05	6.989831e-06	0.03706153	0.01776415
2.2e+08	0.03811562	0.01899689	4.172723e-05	4.191089e-06	0.07110743	0.002801645	7.572801e-05	-9.650425e-07
	4.172723e-05	4.191089e-06	0.03857857	0.01858073	6.846004e-05	4.909055e-08	0.07107124	0.003361443
	0.07110743	0.002801645	6.846004e-05	4.909055e-08	0.03851999	0.01944513	3.484239e-05	6.744975e-06
	7.572801e-05	-9.650425e-07	0.07107124	0.003361442	3.484239e-05	6.744975e-06	0.03899303	0.01905308
2.3e+08	0.04032586	0.02027624	4.461413e-05	3.408813e-06	0.07260953	-0.002198878	7.795531e-05	-2.151607e-06
	4.461413e-05	3.408813e-06	0.04080434	0.01980194	6.967758e-05	-4.352794e-07	0.07252002	-0.00161413
	0.07260953	-0.002198878	6.967758e-05	-4.352794e-07	0.0407491	0.02069423	3.642151e-05	6.320635e-06
	7.795531e-05	-2.151607e-06	0.07252002	-0.00161413	3.642151e-05	6.320635e-06	0.04125372	0.02024076
2.4e+08	0.04287467	0.02140664	4.763549e-05	2.266893e-06	0.07357089	-0.007409759	8.024668e-05	-3.725741e-06
	4.763549e-05	2.266893e-06	0.04336598	0.02087023	7.09688e-05	-1.173375e-06	0.0734229	-0.006795234
	0.07357089	-0.007409759	7.09688e-05	-1.173375e-06	0.04330977	0.02179137	3.807288e-05	5.697909e-06
	8.024668e-05	-3.725741e-06	0.0734229	-0.006795234	3.807288e-05	5.697909e-06	0.04384458	0.02127083
2.5e+08	0.04575525	0.02232998	5.072907e-05	7.061116e-07	0.07396943	-0.01277138	8.25707e-05	-5.700692e-06
	5.072907e-05	7.061116e-07	0.04625611	0.02172742	7.231841e-05	-2.177308e-06	0.07375816	-0.0121214
	0.07396943	-0.01277138	7.231841e-05	-2.177308e-06	0.04619552	0.02267986	3.978364e-05	4.861043e-06
	8.25707e-05	-5.700692e-06	0.07375816	-0.0121214	3.978364e-05	4.861043e-06	0.04675839	0.02208623
2.6e+08	0.04895198	0.02298843	5.38573e-05	-1.298934e-06	0.07379017	-0.0182222	8.489135e-05	-8.091284e-06
	5.38573e-05	-1.298934e-06	0.04945852	0.02231572	7.370733e-05	-3.461948e-06	0.07351134	-0.01753038
	0.07379017	-0.0182222	7.370733e-05	-3.461948e-06	0.04939052	0.02330251	4.153856e-05	3.793437e-06
	8.489135e-05	-8.091284e-06	0.07351134	-0.01753038	4.153856e-05	3.793437e-06	0.0499784	0.02262956
2.7e+08	0.05244034	0.02332561	5.697789e-05	-3.772205e-06	0.07302433	-0.02369948	8.716916e-05	-1.091133e-05
	5.697789e-05	-3.772205e-06	0.05294798	0.02257879	7.511262e-05	-5.042828e-06	0.07267431	-0.02295863
	0.07302433	-0.02369948	7.511262e-05	-5.042828e-06	0.05287042	0.02360386	4.331958e-05	2.477878e-06
	8.716916e-05	-1.091133e-05	0.07267431	-0.02295863	4.331958e-05	2.477878e-06	0.05347933	0.02284523
2.8e+08	0.05618655	0.02328804	6.00432e-05	-6.732195e-06	0.07167028	-0.02914026	8.936086e-05	-1.417081e-05
	6.00432e-05	-6.732195e-06	0.05669005	0.02246328	7.650828e-05	-6.935663e-06	0.07124616	-0.02834258
	0.07167028	-0.02914026	7.650828e-05	-6.935663e-06	0.05660199	0.02353144	4.510556e-05	8.996189e-07
	8.936086e-05	-1.417081e-05	0.07124616	-0.02834258	4.510556e-05	8.996189e-07	0.05722683	0.02268077
2.9e+08	0.06014901	0.02282622	6.300105e-05	-1.019416e-05	0.06973326	-0.03448195	9.142034e-05	-1.787596e-05
	6.300105e-05	-1.019416e-05	0.06064234	0.02192004	7.78646e-05	-9.153053e-06	0.06923296	-0.03361904
	0.06973326	-0.03448195	7.78646e-05	-9.153053e-06	0.06054359	0.02303608	4.687254e-05	-9.561005e-07
	9.142034e-05	-1.787596e-05	0.06923296	-0.03361904	4.687254e-05	-9.561005e-07	0.06117819	0.02208719
3e+08	0.06427821	0.02189602	6.579527e-05	-1.417076e-05	0.06722484	-0.03966289	9.329802e-05	-2.203004e-05
	6.579527e-05	-1.417076e-05	0.06475461	0.02090524	7.914901e-05	-1.170515e-05	0.06664716	-0.03872585
	0.06722484	-0.03966289	7.914901e-05	-1.170515e-05	0.06464627	0.02207417	4.859357e-05	-3.102426e-06
	9.329802e-05	-2.203004e-05	0.06664716	-0.03872585	4.859357e-05	-3.102426e-06	0.06528331	0.02102122
3.1e+08	0.06851784	0.02045946	6.836634e-05	-1.866405e-05	0.0641632	-0.04462347	9.494259e-05	-2.663147e-05
	6.836634e-05	-1.866405e-05	0.06896979	0.01938147	8.032521e-05	-1.4603e-05	0.06350797	-0.04360301
	0.0641632	-0.04462347	8.032521e-05	-1.4603e-05	0.06885364	0.02060793	5.023914e-05	-5.549506e-06
	9.494259e-05	-2.663147e-05	0.06350797	-0.04360301	5.023914e-05	-5.549506e-06	0.06948464	0.01944561
3.2e+08	0.07280512	0.01848552	7.065109e-05	-2.367493e-05	0.06057269	-0.04930652	9.630045e-05	-3.167267e-05
	7.065109e-05	-2.367493e-05	0.07322432	0.0173183	8.135495e-05	-1.78502e-05	0.05984077	-0.0481931
	0.06057269	-0.04930652	8.135495e-05	-1.78502e-05	0.07310351	0.0186076	5.177646e-05	-8.307336e-06
	9.630045e-05	-3.167267e-05	0.05984077	-0.0481931	5.177646e-05	-8.307336e-06	0.07371885	0.01733128
3.3e+08	0.07707236	0.0159514	7.25844e-05	-2.91946e-05	0.05648328	-0.05365763	9.731641e-05	-3.714235e-05
	7.25844e-05	-2.91946e-05	0.07744982	0.01469374	8.219659e-05	-2.145101e-05	0.05567664	-0.05244153
	0.05648328	-0.05365763	8.219659e-05	-2.145101e-05	0.07732814	0.01605036	5.317082e-05	-1.138061e-05
	9.731641e-05	-3.714235e-05	0.05567664	-0.05244153	5.317082e-05	-1.138061e-05	0.07791709	0.01465635
3.4e+08	0.08124745	0.01284325	7.409925e-05	-3.520841e-05	0.05193041	-0.05762654	9.793554e-05	-4.301991e-05
	7.409925e-05	-3.520841e-05	0.08157349	0.01149483	8.280508e-05	-2.540135e-05	0.05105218	-0.05629803
	0.05193041	-0.05762654	8.280508e-05	-2.540135e-05	0.08145627	0.01292301	5.438447e-05	-1.477315e-05
	9.793554e-05	-4.301991e-05	0.05105218	-0.05629803	5.438447e-05	-1.477315e-05	0.08200702	0.01140867
3.5e+08	0.08525552	0.009156439	7.512949e-05	-4.169129e-05	0.04695433	-0.06116665	9.810071e-05	-4.928439e-05
	7.512949e-05	-4.169129e-05	0.0855199	0.00771799	8.313728e-05	-2.969679e-05	0.04600882	-0.05971609
	0.04695433	-0.06116665	8.313728e-05	-2.969679e-05	0.08541276	0.009220933	5.537768e-05	-1.848369e-05
	9.810071e-05	-4.928439e-05	0.04600882	-0.05971609	5.537768e-05	-1.848369e-05	0.08591265	0.007584977
3.6e+08	0.08901966	0.004895921	7.560502e-05	-4.861492e-05	0.04159999	-0.06423617	9.775685e-05	-5.590352e-05
	7.560502e-05	-4.861492e-05	0.08921164	0.003369355	8.314452e-05	-3.433024e-05	0.04059265	-0.06265424
	0.04159999	-0.06423617	8.314452e-05	-3.433024e-05	0.08912149	0.004949999	5.610943e-05	-2.250586e-05
	9.775685e-05	-5.590352e-05	0.04059265	-0.06265424	5.610943e-05	-2.250586e-05	0.089557	0.003192552
3.7e+08	0.09246295	7.699344e-05	7.546296e-05	-5.593729e-05	0.03591577	-0.06679854	9.685001e-05	-6.283935e-05
	7.546296e-05	-5.593729e-05	0.09257146	-0.001534463	8.278e-05	-3.928332e-05	0.03485323	-0.06507629
	0.03591577	-0.06679854	8.278e-05	-3.928332e-05	0.0925059	0.0001257198	5.653526e-05	-2.683278e-05
	9.685001e-05	-6.283935e-05	0.03485323	-0.06507629	5.653526e-05	-2.683278e-05	0.09286285	-0.001751393
3.8e+08	0.09550896	-0.00527526	7.463592e-05	-6.36128e-05	0.02995343	-0.06882202	9.532851e-05	-7.004762e-05
	7.463592e-05	-6.36128e-05	0.09552268	-0.006966955	8.199362e-05	-4.453729e-05	0.02884344	-0.06695108
	0.02995343	-0.06882202	8.199362e-05	-4.453729e-05	0.09548964	-0.00522661	5.661269e-05	-3.14479e-05
	9.532851e-05	-7.004762e-05	0.02884344	-0.06695108	5.661269e-05	-3.14479e-05	0.09575344	-0.007219753
3.9e+08	0.09808275	-0.01112492	7.306342e-05	-7.158518e-05	0.02376775	-0.07028098	9.314024e-05	-7.748059e-05
	7.306342e-05	-7.158518e-05	0.09799033	-0.01289067	8.073552e-05	-5.006658e-05	0.02261911	-0.06825367
	0.02376775	-0.07028098	8.073552e-05	-5.006658e-05	0.09799918	-0.01107042	5.629459e-05	-3.633443e-05
	9.314024e-05	-7.748059e-05	0.02261911	-0.06825367	5.629459e-05	-3.633443e-05	0.098155	-0.01317403
4e+08	0.1001134	-0.01742655	7.068921e-05	-7.978831e-05	0.01741508	-0.07115518	9.024227e-05	-8.507822e-05
	7.068921e-05	-7.978831e-05	0.09990371	-0.01925857	7.895704e-05	-5.583762e-05	0.01623757	-0.06896465
	0.01741508	-0.07115518	7.895704e-05	-5.583762e-05	0.09996366	-0.01736067	5.553825e-05	-4.146493e-05
	9.024227e-05	-8.507822e-05	0.01623757	-0.06896465	5.553825e-05	-4.146493e-05	0.0999967	-0.01956708
4.1e+08	0.1015352	-0.02412567	6.745932e-05	-8.81523e-05	0.01095354	-0.07143027	8.6589e-05	-9.277895e-05
	6.745932e-05	-8.81523e-05	0.1011973	-0.02601448	7.660958e-05	-6.181153e-05	0.009757832	-0.06907064
	0.01095354	-0.07143027	7.660958e-05	-6.181153e-05	0.1013177	-0.02404224	5.429672e-05	-4.681131e-05
	8.6589e-05	-9.277895e-05	0.009757832	-0.06907064	5.429672e-05	-4.681131e-05	0.1012135	-0.02634168
4.2e+08	0.1022872	-0.03115746	6.332696e-05	-9.659609e-05	0.004441876	-0.07109821	8.214693e-05	-0.0001005119
	6.332696e-05	-9.659609e-05	0.1018109	-0.03309191	7.364767e-05	-6.794628e-05	0.003239445	-0.06856464
	0.004441876	-0.07109821	7.364767e-05	-6.794628e-05	0.1020012	-0.03105024	5.252656e-05	-5.233593e-05
	8.214693e-05	-0.0001005119	0.003239445	-0.06856464	5.252656e-05	-5.233593e-05	0.1017458	-0.03343073
4.3e+08	0.1023163	-0.03844965	5.825241e-05	-0.0001050325	-0.00206106	-0.07015637	7.688497e-05	-0.0001082013
	5.825241e-05	-0.0001050325	0.1016923	-0.04041691	7.002545e-05	-7.418716e-05	-0.003258118	-0.06744525
	-0.00206106	-0.07015637	7.002545e-05	-7.418716e-05	0.1019616	-0.03831269	5.018617e-05	-5.799674e-05
	7.688497e-05	-0.0001082013	-0.003258118	-0.06744525	5.018617e-05	-5.799674e-05	0.1015421	-0.04076006
4.4e+08	0.1015775	-0.04592277	5.220664e-05	-0.0001133687	-0.008496566	-0.06860816	7.077553e-05	-0.0001157687
	5.220664e-05	-0.0001133687	0.1007976	-0.04790828	6.570232e-05	-8.047702e-05	-0.009675596	-0.06571702
	-0.008496566	-0.06860816	6.570232e-05	-8.047702e-05	0.1011545	-0.04574959	4.723675e-05	-6.374352e-05
	7.077553e-05	-0.0001157687	-0.009675596	-0.06571702	4.723675e-05	-6.374352e-05	0.1005592	-0.04824756
4.5e+08	0.1000349	-0.05348952	4.516476e-05	-0.0001215045	-0.01480705	-0.06646278	6.380454e-05	-0.0001231269
	4.516476e-05	-0.0001215045	0.09909228	-0.05547723	6.064341e-05	-8.675137e-05	-0.01595506	-0.06339052
	-0.01480705	-0.06646278	6.064341e-05	-8.675137e-05	0.09954435	-0.053274	4.36386e-05	-6.952261e-05
	6.380454e-05	-0.0001231269	-0.01595506	-0.06339052	4.36386e-05	-6.952261e-05	0.09876308	-0.05580419
4.6e+08	0.09766246	-0.06105757	3.711363e-05	-0.0001293346	-0.02093633	-0.06373475	5.596362e-05	-0.0001301846
	3.711363e-05	-0.0001293346	0.09655187	-0.0630299	5.481207e-05	-9.294003e-05	-0.02204011	-0.06048161
	-0.02093633	-0.06373475	5.481207e-05	-9.294003e-05	0.09710587	-0.06079418	3.936148e-05	-7.527218e-05
	5.596362e-05	-0.0001301846	-0.02204011	-0.06048161	3.936148e-05	-7.527218e-05	0.09613041	-0.06333632
4.7e+08	0.09444616	-0.06853131	2.804874e-05	-0.0001367511	-0.02683065	-0.06044387	4.724895e-05	-0.0001368517
	2.804874e-05	-0.0001367511	0.09316429	-0.07046943	4.818432e-05	-9.896182e-05	-0.02787689	-0.0570114
	-0.02683065	-0.06044387	4.818432e-05	-9.896182e-05	0.09382488	-0.06821369	3.437923e-05	-8.092211e-05
	4.724895e-05	-0.0001368517	-0.02787689	-0.0570114	3.437923e-05	-8.092211e-05	0.09264921	-0.07074578
4.8e+08	0.09038158	-0.07581112	1.79809e-05	-0.0001436406	-0.0324382	-0.0566149	3.767437e-05	-0.0001430298
	1.79809e-05	-0.0001436406	0.08892724	-0.07769508	4.073866e-05	-0.0001047337	-0.03341369	-0.05300601
	-0.0324382	-0.0566149	4.073866e-05	-0.0001047337	0.08969851	-0.07543361	2.866797e-05	-8.640123e-05
	3.767437e-05	-0.0001430298	-0.03341369	-0.05300601	2.866797e-05	-8.640123e-05	0.08831916	-0.07793221
4.9e+08	0.08547761	-0.0827953	6.931974e-06	-0.000149888	-0.03771077	-0.05227732	2.725539e-05	-0.0001486222
