!$
! Info: Touchstone file created by Circ.  Input file=Intel_C2M_200G_10p5in_202208016_staggered.circ
!$
# Hz S RI R 50
0	0.02667536	5.009085e-24	0.0001018583	1.558105e-22	0.000144641	3.470623e-22	0.0001018517	1.555786e-22
	0.0001018583	1.558105e-22	0.02668821	5.431324e-24	0.0001018626	1.559368e-22	0.0001442399	3.445007e-22
	0.0001446977	3.471871e-22	0.0001018626	1.559385e-22	0.02667029	5.255674e-24	0.0001018539	1.556927e-22
	0.0001018517	1.555804e-22	0.0001442966	3.446245e-22	0.0001018539	1.556927e-22	0.02668619	5.136314e-24
1e+07	0.03218803	-0.006318115	6.61669e-06	3.153909e-05	0.00259891	0.007939591	1.702492e-05	3.048741e-05
	6.616692e-06	3.15391e-05	0.0324188	-0.00635918	3.482284e-06	8.473465e-06	0.002605836	0.00799871
	0.00259891	0.007939591	3.482284e-06	8.473465e-06	0.03240666	-0.006288967	6.407386e-06	3.00901e-05
	1.702492e-05	3.048741e-05	0.002605836	0.00799871	6.407386e-06	3.00901e-05	0.03221022	-0.006325339
2e+07	0.03462987	-0.01829143	7.466895e-06	1.694622e-05	0.006484649	0.01432756	1.158954e-05	2.059713e-05
	7.466909e-06	1.694625e-05	0.0347946	-0.01845413	2.015287e-05	1.667551e-05	0.006503099	0.01444099
	0.006484655	0.01432755	2.015287e-05	1.667551e-05	0.03482124	-0.01831981	5.613776e-06	1.492625e-05
	1.158954e-05	2.059713e-05	0.006503106	0.01444098	5.613776e-06	1.492625e-05	0.0346458	-0.01831507
3e+07	0.03247629	-0.03213698	1.116452e-05	1.159858e-05	0.0121593	0.01927384	8.626985e-06	1.91151e-05
	1.116452e-05	1.159857e-05	0.03255826	-0.03236375	3.612555e-05	1.604041e-05	0.01219184	0.01943403
	0.01215929	0.01927388	3.612555e-05	1.604041e-05	0.03264297	-0.03217252	8.153365e-06	9.941049e-06
	8.626986e-06	1.91151e-05	0.01219183	0.01943408	8.153366e-06	9.941048e-06	0.03246443	-0.03216915
4e+07	0.02626914	-0.04544879	1.34399e-05	6.987074e-06	0.0191127	0.02215156	1.345175e-05	1.466635e-05
	1.34399e-05	6.987073e-06	0.02625357	-0.04570822	4.694293e-05	8.589138e-06	0.01915877	0.02235061
	0.01911271	0.02215158	4.694293e-05	8.589138e-06	0.02642007	-0.04548674	9.641107e-06	6.045883e-06
	1.345175e-05	1.466635e-05	0.01915877	0.02235063	9.641107e-06	6.045883e-06	0.02622019	-0.04548549
5e+07	0.01676302	-0.05695892	1.436416e-05	2.626173e-06	0.02665661	0.02271866	1.674657e-05	9.660017e-06
	1.436416e-05	2.626173e-06	0.01664219	-0.05722004	5.301131e-05	-1.996678e-06	0.02671227	0.02294911
	0.02665662	0.02271866	5.301131e-05	-1.996678e-06	0.01690054	-0.05699845	1.011758e-05	2.568328e-06
	1.674657e-05	9.660017e-06	0.02671228	0.02294911	1.011758e-05	2.568328e-06	0.01666645	-0.05698985
6e+07	0.004751752	-0.06587053	1.404474e-05	-1.376978e-06	0.03407669	0.02090619	1.837283e-05	4.487544e-06
	1.404474e-05	-1.376977e-06	0.004526063	-0.0661027	5.475002e-05	-1.371928e-05	0.03413485	0.02116223
	0.0340767	0.02090617	5.475002e-05	-1.371928e-05	0.004876396	-0.06591273	9.672368e-06	-4.899592e-07
	1.837283e-05	4.487544e-06	0.03413485	0.02116221	9.672367e-06	-4.899585e-07	0.004601319	-0.06588223
7e+07	-0.008891716	-0.07166117	1.26568e-05	-4.801245e-06	0.04067037	0.01685883	1.847714e-05	-5.133041e-07
	1.26568e-05	-4.801245e-06	-0.009213979	-0.07183577	5.261098e-05	-2.523247e-05	0.04072152	0.01713752
	0.04067037	0.01685882	5.261098e-05	-2.523247e-05	-0.008781769	-0.07170844	8.443734e-06	-2.994468e-06
	1.847714e-05	-5.133042e-07	0.04072151	0.01713751	8.443733e-06	-2.994469e-06	-0.009097925	-0.0716395
8e+07	-0.02323939	-0.07408495	1.043344e-05	-7.437404e-06	0.04581391	0.0109164	1.724505e-05	-5.047925e-06
	1.043344e-05	-7.437404e-06	-0.02364267	-0.07417718	4.713695e-05	-3.556693e-05	0.0458472	0.0112185
	0.04581391	0.01091641	4.713695e-05	-3.556693e-05	-0.02314815	-0.07413964	6.62803e-06	-4.798746e-06
	1.724505e-05	-5.047925e-06	0.0458472	0.0112185	6.62803e-06	-4.798746e-06	-0.02349902	-0.07401637
9e+07	-0.03737738	-0.07316183	7.63855e-06	-9.137516e-06	0.04901223	0.003577759	1.485701e-05	-8.898776e-06
	7.63855e-06	-9.137516e-06	-0.03783978	-0.07315245	3.88486e-05	-4.408948e-05	0.04901692	0.003908058
	0.04901224	0.00357776	3.88486e-05	-4.408948e-05	-0.03731088	-0.07322483	4.45873e-06	-5.798244e-06
	1.485701e-05	-8.898776e-06	0.04901693	0.003908059	4.458729e-06	-5.798244e-06	-0.03768486	-0.07303403
1e+08	-0.05041853	-0.06912513	4.362734e-06	-9.835855e-06	0.04993439	-0.00454831	1.112696e-05	-1.201746e-05
	4.362734e-06	-9.835855e-06	-0.050913	-0.06900178	2.722917e-05	-5.068657e-05	0.04990109	-0.004181053
	0.04993439	-0.004548311	2.722917e-05	-5.068657e-05	-0.05038357	-0.06919474	2.075345e-06	-5.931546e-06
	1.112696e-05	-1.201746e-05	0.04990108	-0.004181053	2.075345e-06	-5.931546e-06	-0.05076541	-0.06892792
1.1e+08	-0.06178129	-0.06273054	1.596629e-06	-8.600169e-06	0.04840429	-0.0127928	6.94232e-06	-1.215229e-05
	1.596629e-06	-8.600169e-06	-0.06228224	-0.06249185	1.460569e-05	-4.920675e-05	0.0483264	-0.0123754
	0.04840429	-0.0127928	1.460569e-05	-4.920675e-05	-0.06180206	-0.06286114	3.053644e-07	-4.756792e-06
	6.94232e-06	-1.215229e-05	0.0483264	-0.0123754	3.053645e-07	-4.756792e-06	-0.06217593	-0.06251045
1.2e+08	-0.0711248	-0.05423393	-7.140711e-08	-7.104985e-06	0.04449533	-0.0203988	4.089281e-06	-1.146391e-05
	-7.140695e-08	-7.104985e-06	-0.07160797	-0.05388171	7.492319e-06	-4.522721e-05	0.04437106	-0.01991655
	0.04449532	-0.0203988	7.49232e-06	-4.522721e-05	-0.07123176	-0.05435717	-6.559504e-07	-3.506406e-06
	4.089281e-06	-1.146391e-05	0.04437106	-0.01991655	-6.559502e-07	-3.506406e-06	-0.07157523	-0.05392333
1.3e+08	-0.07799714	-0.04425229	-1.189152e-06	-5.644908e-06	0.03846335	-0.02673785	2.020737e-06	-1.040003e-05
	-1.189152e-06	-5.644908e-06	-0.07843872	-0.04379484	5.41958e-06	-4.038433e-05	0.03829529	-0.02617509
	0.03846335	-0.02673785	5.41958e-06	-4.038433e-05	-0.07817466	-0.04433426	-1.244252e-06	-2.376347e-06
	2.020737e-06	-1.040003e-05	0.03829529	-0.02617509	-1.244252e-06	-2.376347e-06	-0.07846753	-0.04382529
1.4e+08	-0.08219795	-0.03346753	-1.619811e-06	-4.171792e-06	0.03071869	-0.03126211	5.70549e-07	-9.186709e-06
	-1.619811e-06	-4.171793e-06	-0.08257706	-0.03291915	3.712181e-06	-3.589366e-05	0.03051429	-0.03060356
	0.03071869	-0.03126211	3.712181e-06	-3.589366e-05	-0.08243089	-0.03349949	-1.358007e-06	-1.272093e-06
	5.70549e-07	-9.186709e-06	0.03051429	-0.03060356	-1.358007e-06	-1.272093e-06	-0.08265612	-0.03292914
1.5e+08	-0.0837145	-0.02256004	-8.937764e-07	-2.899549e-06	0.02180235	-0.03354705	-4.394145e-07	-7.966185e-06
	-8.937763e-07	-2.899549e-06	-0.08401482	-0.02194006	2.417773e-06	-3.171941e-05	0.02157392	-0.03277924
	0.02180235	-0.03354705	2.417773e-06	-3.171941e-05	-0.08399667	-0.02253919	-1.076158e-06	-3.160954e-07
	-4.394145e-07	-7.966185e-06	0.02157392	-0.03277924	-1.076158e-06	-3.160955e-07	-0.08414177	-0.02192571
1.6e+08	-0.08270325	-0.01216482	-3.078166e-08	-1.937499e-06	0.01235204	-0.03332198	-8.807332e-07	-6.824469e-06
	-3.078162e-08	-1.937499e-06	-0.08291419	-0.0114962	1.566953e-06	-2.785434e-05	0.01211627	-0.03243469
	0.01235204	-0.03332198	1.566953e-06	-2.785434e-05	-0.08303381	-0.01208615	-1.284954e-07	3.475012e-07
	-8.807332e-07	-6.824469e-06	0.01211627	-0.03243469	-1.284953e-07	3.475011e-07	-0.08309185	-0.01145085
1.7e+08	-0.07946697	-0.002833377	8.735248e-07	-1.275873e-06	0.003061143	-0.03049076	-6.241852e-07	-5.889523e-06
	8.735248e-07	-1.275873e-06	-0.07958461	-0.002141078	1.174878e-06	-2.432621e-05	0.002838289	-0.02947839
	0.003061144	-0.03049076	1.174878e-06	-2.432621e-05	-0.07984511	-0.002687185	8.287758e-07	7.348107e-07
	-6.241852e-07	-5.889523e-06	0.002838289	-0.02947839	8.287759e-07	7.348107e-07	-0.07981537	-0.002052641
1.8e+08	-0.07442342	0.004998921	1.819469e-06	-9.245561e-07	-0.005366373	-0.02514266	-3.08817e-07	-5.113059e-06
	1.819469e-06	-9.245562e-07	-0.07445076	0.005689944	1.190399e-06	-2.118656e-05	-0.005553751	-0.02400541
	-0.005366372	-0.02514266	1.190399e-06	-2.118656e-05	-0.07484475	0.005225858	1.798047e-06	8.366777e-07
	-3.08817e-07	-5.113059e-06	-0.005553751	-0.02400541	1.798047e-06	8.366776e-07	-0.07473284	0.005837617
1.9e+08	-0.06806771	0.01103533	2.737334e-06	-8.801567e-07	-0.01226396	-0.01755248	4.495083e-08	-4.494718e-06
	2.737334e-06	-8.801567e-07	-0.06801443	0.01170211	1.540407e-06	-1.847788e-05	-0.01239264	-0.01629717
	-0.01226396	-0.01755248	1.540407e-06	-1.847788e-05	-0.06852211	0.01135727	2.714036e-06	6.562618e-07
	4.495083e-08	-4.494718e-06	-0.01239264	-0.01629717	2.714036e-06	6.562618e-07	-0.06833948	0.01192663
2e+08	-0.06092854	0.01512949	3.557124e-06	-1.123407e-06	-0.01705023	-0.00816781	4.128642e-07	-4.032665e-06
	3.557124e-06	-1.123407e-06	-0.06080964	0.01575309	2.139993e-06	-1.622373e-05	-0.01709828	-0.006808297
	-0.01705023	-0.00816781	2.139993e-06	-1.622373e-05	-0.06140006	0.01555864	3.511769e-06	2.172401e-07
	4.128642e-07	-4.032665e-06	-0.01709828	-0.006808296	3.511769e-06	2.172401e-07	-0.06116338	0.0160698
2.1e+08	-0.05352372	0.01728238	4.214307e-06	-1.615559e-06	-0.01927378	0.002415611	7.684522e-07	-3.719137e-06
	4.214307e-06	-1.615559e-06	-0.05335898	0.01784875	2.889903e-06	-1.443282e-05	-0.01922272	0.00385865
	-0.01927378	0.002415611	2.889903e-06	-1.443282e-05	-0.05399186	0.01782676	4.13094e-06	-4.421759e-07
	7.684522e-07	-3.719137e-06	-0.01922272	0.00385865	4.13094e-06	-4.42176e-07	-0.05372073	0.01826962
2.2e+08	-0.04631986	0.01762814	4.655281e-06	-2.303136e-06	-0.01865107	0.01349098	1.085306e-06	-3.541263e-06
	4.655281e-06	-2.303136e-06	-0.04613155	0.01812948	3.693719e-06	-1.309287e-05	-0.01848804	0.01499092
	-0.01865107	0.01349098	3.693719e-06	-1.309287e-05	-0.04676097	0.01828949	4.523021e-06	-1.268425e-06
	1.085306e-06	-3.541263e-06	-0.01848804	0.01499092	4.523021e-06	-1.268425e-06	-0.04647643	0.0186597
2.3e+08	-0.03969842	0.01640595	4.841123e-06	-3.121162e-06	-0.01509434	0.02428798	1.338837e-06	-3.48062e-06
	4.841123e-06	-3.121162e-06	-0.03950932	0.01684099	4.458776e-06	-1.217209e-05	-0.01481399	0.02581389
	-0.01509434	0.02428798	4.458776e-06	-1.217209e-05	-0.04008835	0.01717953	4.654204e-06	-2.197135e-06
	1.338837e-06	-3.48062e-06	-0.01481399	0.02581389	4.654204e-06	-2.197135e-06	-0.03981098	0.01747848
2.4e+08	-0.03393377	0.01392469	4.750062e-06	-3.997354e-06	-0.008725039	0.03402717	1.508105e-06	-3.513379e-06
	4.750062e-06	-3.997354e-06	-0.03376512	0.01429826	5.101274e-06	-1.161995e-05	-0.008330871	0.03554599
	-0.008725038	0.03402718	5.101274e-06	-1.161995e-05	-0.03424896	0.0147991	4.507778e-06	-3.157353e-06
	1.508105e-06	-3.513379e-06	-0.00833087	0.03554599	4.507778e-06	-3.157353e-06	-0.03399729	0.01503326
2.5e+08	-0.02918399	0.01052322	4.378682e-06	-4.856662e-06	0.0001282626	0.04197796	1.577567e-06	-3.611001e-06
	4.378682e-06	-4.856662e-06	-0.02905389	0.01084514	5.550927e-06	-1.136908e-05	0.0006231125	0.04345718
	0.0001282626	0.04197797	5.550927e-06	-1.136908e-05	-0.02940439	0.01148086	4.085246e-06	-4.076246e-06
	1.577567e-06	-3.611001e-06	0.0006231127	0.04345718	4.085246e-06	-4.076246e-06	-0.02919361	0.01166051
2.6e+08	-0.02549663	0.006531621	3.742014e-06	-5.625891e-06	0.01094818	0.0475143	1.538711e-06	-3.741602e-06
	3.742014e-06	-5.625891e-06	-0.02541891	0.006815223	5.755332e-06	-1.133862e-05	0.01152115	0.04892481
	0.01094818	0.0475143	5.755332e-06	-1.133862e-05	-0.02560634	0.00754979	3.406204e-06	-4.883796e-06
	1.538711e-06	-3.741602e-06	0.01152115	0.04892481	3.406204e-06	-4.883796e-06	-0.02544761	0.007687604
2.7e+08	-0.02282562	0.00223829	2.872384e-06	-6.23799e-06	0.02306277	0.05016235	1.391191e-06	-3.871877e-06
	2.872384e-06	-6.23799e-06	-0.02280943	0.002498657	5.683334e-06	-1.143877e-05	0.02368288	0.05148117
	0.02306277	0.05016235	5.683334e-06	-1.143877e-05	-0.02281466	0.003290312	2.506905e-06	-5.517173e-06
	1.391191e-06	-3.871877e-06	0.02368288	0.05148117	2.506905e-06	-5.517173e-06	-0.02271501	0.003399878
2.8e+08	-0.02105784	-0.002134214	1.8175e-06	-6.636045e-06	0.03569124	0.04963814	1.143334e-06	-3.969463e-06
	1.8175e-06	-6.636045e-06	-0.02110782	-0.001881816	5.327009e-06	-1.157622e-05	0.03632095	0.05085082
	0.03569124	0.04963814	5.327009e-06	-1.157622e-05	-0.02092324	-0.001077147	1.437931e-06	-5.924627e-06
	1.143334e-06	-3.969463e-06	0.03632095	0.05085082	1.437931e-06	-5.924627e-06	-0.02088597	-0.0009827505
2.9e+08	-0.02004481	-0.006440235	6.37578e-07	-6.776628e-06	0.04799812	0.04587013	8.117845e-07	-4.00549e-06
	6.37578e-07	-6.776628e-06	-0.02016181	-0.006181697	4.702143e-06	-1.166022e-05	0.04859573	0.04697248
	0.04799812	0.04587013	4.702143e-06	-1.166022e-05	-0.01979026	-0.00540764	2.609674e-07	-6.068584e-06
	8.117845e-07	-4.00549e-06	0.04859573	0.04697248	2.609674e-07	-6.068584e-06	-0.0198158	-0.005316807
3e+08	-0.01963396	-0.01061134	-5.982117e-07	-6.632383e-06	0.05915075	0.03900589	4.202841e-07	-3.956896e-06
	-5.982117e-07	-6.632383e-06	-0.0198161	-0.01033452	3.846895e-06	-1.160855e-05	0.0596733	0.040005
	0.05915075	0.03900589	3.846895e-06	-1.160855e-05	-0.01927027	-0.009631371	-9.550303e-07	-5.927809e-06
	4.202841e-07	-3.956896e-06	0.0596733	0.040005	-9.550303e-07	-5.927809e-06	-0.01935726	-0.009534583
3.1e+08	-0.01969634	-0.01464512	-1.815833e-06	-6.193905e-06	0.06837632	0.02940451	-2.276169e-09	-3.808333e-06
	-1.815833e-06	-6.193905e-06	-0.01994019	-0.01434026	2.818864e-06	-1.135301e-05	0.06878263	0.03031897
	0.06837632	0.02940451	2.818864e-06	-1.135301e-05	-0.01924071	-0.01374355	-2.138049e-06	-5.498702e-06
	-2.276169e-09	-3.808333e-06	0.06878263	0.03031897	-2.138049e-06	-5.498702e-06	-0.01938715	-0.01363347
3.2e+08	-0.02014717	-0.01858686	-2.94088e-06	-5.470424e-06	0.07501377	0.01761409	-4.243513e-07	-3.553233e-06
	-2.94088e-06	-5.470424e-06	-0.02044883	-0.01824641	1.690815e-06	-1.084374e-05	0.07526741	0.01847343
	0.07501377	0.01761409	1.690815e-06	-1.084374e-05	-0.01962341	-0.01778477	-3.217398e-06	-4.79542e-06
	-4.243513e-07	-3.553233e-06	0.07526741	0.01847343	-3.217398e-06	-4.79542e-06	-0.0198277	-0.01765589
3.3e+08	-0.02095824	-0.02250507	-3.903199e-06	-4.489452e-06	0.07855772	0.004337545	-8.144255e-07	-3.194014e-06
	-3.903199e-06	-4.489452e-06	-0.02131428	-0.02212326	5.453328e-07	-1.005225e-05	0.07862979	0.005180965
	0.07855772	0.004337545	5.453328e-07	-1.005225e-05	-0.02039474	-0.0218182	-4.127972e-06	-3.848935e-06
	-8.144255e-07	-3.194014e-06	0.07862979	0.005180965	-4.127972e-06	-3.848935e-06	-0.02065652	-0.02166613
3.4e+08	-0.02216089	-0.02646639	-4.641391e-06	-3.295314e-06	0.07869365	-0.009610881	-1.143522e-06	-2.741462e-06
	-4.641391e-06	-3.295314e-06	-0.02256891	-0.02603837	-5.308123e-07	-8.973042e-06	0.07856523	-0.0087365
	0.07869365	-0.009610881	-5.308123e-07	-8.973042e-06	-0.02158946	-0.02590322	-4.814223e-06	-2.70516e-06
	-1.143522e-06	-2.741462e-06	0.07856523	-0.008736501	-4.814223e-06	-2.70516e-06	-0.02191006	-0.02572366
3.5e+08	-0.02383951	-0.0305109	-5.106773e-06	-1.946358e-06	0.07531975	-0.02335612	-1.387283e-06	-2.213273e-06
	-5.106773e-06	-1.946358e-06	-0.02429843	-0.03003187	-1.452537e-06	-7.623435e-06	0.07498388	-0.02239862
	0.07531975	-0.02335612	-1.452537e-06	-7.623435e-06	-0.02329385	-0.03007302	-5.233386e-06	-1.422044e-06
	-1.387283e-06	-2.213273e-06	0.07498388	-0.02239862	-5.233386e-06	-1.422044e-06	-0.02367638	-0.02986056
3.6e+08	-0.02611832	-0.03463205	-5.26653e-06	-5.113399e-07	0.0685579	-0.03601691	-1.527343e-06	-1.63223e-06
	-5.26653e-06	-5.113399e-07	-0.02662814	-0.03409629	-2.141795e-06	-6.042333e-06	0.06802096	-0.03492193
	0.0685579	-0.03601691	-2.141795e-06	-6.042333e-06	-0.02563235	-0.03431264	-5.358008e-06	-6.604992e-08
	-1.527343e-06	-1.63223e-06	0.06802096	-0.03492193	-5.358008e-06	-6.604992e-08	-0.02608119	-0.03405963
3.7e+08	-0.02914143	-0.03876098	-5.105758e-06	9.350539e-07	0.05874964	-0.04676246	-1.551969e-06	-1.024144e-06
	-5.105758e-06	9.350539e-07	-0.02970277	-0.03816089	-2.532368e-06	-4.28765e-06	0.05803209	-0.04547673
	0.05874964	-0.04676246	-2.532368e-06	-4.28765e-06	-0.02874729	-0.03854541	-5.177354e-06	1.291937e-06
	-1.551969e-06	-1.024144e-06	0.05803209	-0.04547673	-5.177354e-06	1.291937e-06	-0.02926717	-0.03824079
3.8e+08	-0.03304941	-0.04275906	-4.628166e-06	2.316888e-06	0.04643897	-0.05486601	-1.455979e-06	-4.159949e-07
	-4.628166e-06	2.316888e-06	-0.0336625	-0.04208455	-2.57382e-06	-2.432947e-06	0.04557518	-0.05334104
	0.04643897	-0.05486601	-2.57382e-06	-2.432947e-06	-0.03277591	-0.0426255	-4.697751e-06	2.580728e-06
	-1.455979e-06	-4.159949e-07	0.04557518	-0.05334104	-4.697751e-06	2.580728e-06	-0.03337045	-0.04225416
3.9e+08	-0.03795385	-0.04641655	-3.855582e-06	3.561661e-06	0.03234229	-0.05975502	-1.240209e-06	1.655033e-07
	-3.855582e-06	3.561661e-06	-0.03861736	-0.04565465	-2.234611e-06	-5.635864e-07	0.03137958	-0.05795075
	0.03234229	-0.05975502	-2.234611e-06	-5.635864e-07	-0.03782391	-0.04633608	-3.942019e-06	3.732884e-06
	-1.240209e-06	1.655033e-07	0.03137958	-0.05795075	-3.942019e-06	3.732884e-06	-0.03849379	-0.04587854
4e+08	-0.04390982	-0.04946072	-2.82616e-06	4.60453e-06	0.01730436	-0.06105147	-9.107495e-07	6.949269e-07
	-2.82616e-06	4.60453e-06	-0.04461934	-0.0485957	-1.504473e-06	1.227905e-06	0.01630085	-0.05893978
	0.01730436	-0.06105147	-1.504473e-06	1.227905e-06	-0.04393992	-0.04939979	-2.947788e-06	4.688396e-06
	-9.107495e-07	6.949269e-07	0.01630085	-0.05893978	-2.947788e-06	4.688396e-06	-0.04468082	-0.04883277
4.1e+08	-0.05089223	-0.05157246	-1.591735e-06	5.391775e-06	0.00224593	-0.05860072	-4.78264e-07	1.148651e-06
	-1.591735e-06	5.391775e-06	-0.05163869	-0.05058652	-3.958334e-07	2.846663e-06	0.001267541	-0.0561685
	0.00224593	-0.05860072	-3.958334e-07	2.846663e-06	-0.05109109	-0.05149336	-1.765235e-06	5.397719e-06
	-4.78264e-07	1.148651e-06	0.001267541	-0.0561685	-1.765235e-06	5.397719e-06	-0.05189163	-0.05079109
4.2e+08	-0.05877734	-0.05240865	-2.145192e-07	5.883317e-06	-0.01189663	-0.05248607	4.246516e-08	1.50509e-06
	-2.145192e-07	5.883317e-06	-0.05954557	-0.05128329	1.055799e-06	4.200527e-06	-0.0127802	-0.04973739
	-0.01189663	-0.05248607	1.055799e-06	4.200527e-06	-0.05914457	-0.0522718	-4.541939e-07	5.824144e-06
	4.246516e-08	1.50509e-06	-0.0127802	-0.04973739	-4.541939e-07	5.824144e-06	-0.05998466	-0.05140814
4.3e+08	-0.0673288	-0.05163503	1.236506e-06	6.054219e-06	-0.02423345	-0.04302526	6.326135e-07	1.745022e-06
	1.236506e-06	6.054219e-06	-0.06809652	-0.05035312	2.792344e-06	5.205682e-06	-0.0249534	-0.03998253
	-0.02423345	-0.04302526	2.792344e-06	5.205682e-06	-0.06785483	-0.05140131	9.190922e-07	5.945378e-06
	6.326135e-07	1.745022e-06	-0.0249534	-0.03998253	9.190922e-07	5.945378e-06	-0.06870468	-0.05035276
4.4e+08	-0.07619578	-0.04896143	2.68908e-06	5.89533e-06	-0.0339804	-0.03075172	1.269185e-06	1.852092e-06
	2.68908e-06	5.89533e-06	-0.07693322	-0.04750974	4.735025e-06	5.791879e-06	-0.03447373	-0.0274554
	-0.0339804	-0.03075172	4.735025e-06	5.791879e-06	-0.07686169	-0.04859374	2.285236e-06	5.754361e-06
	1.269185e-06	1.852092e-06	-0.03447373	-0.0274554	2.285236e-06	5.754361e-06	-0.07768188	-0.04734287
4.5e+08	-0.08492051	-0.04417856	4.071006e-06	5.413164e-06	-0.0405115	-0.01637942	1.924895e-06	1.81376e-06
	4.071006e-06	5.413164e-06	-0.08559104	-0.04255074	6.787485e-06	5.907456e-06	-0.04072602	-0.01288639
	-0.0405115	-0.01637942	6.787485e-06	5.907456e-06	-0.08569872	-0.04364455	3.575082e-06	5.259414e-06
	1.924895e-06	1.81376e-06	-0.04072602	-0.01288639	3.575082e-06	5.259414e-06	-0.08644145	-0.0421836
4.6e+08	-0.09295947	-0.03719533	5.313141e-06	4.629272e-06	-0.04339872	-0.0007552854	2.568355e-06	1.622714e-06
	5.313141e-06	4.629272e-06	-0.09352127	-0.03539465	8.84027e-06	5.523882e-06	-0.04329731	0.002864191
	-0.04339872	-0.0007552854	8.84027e-06	5.523882e-06	-0.09381511	-0.03646983	4.72286e-06	4.483712e-06
	2.568355e-06	1.622714e-06	-0.04329731	0.002864191	4.72286e-06	4.483712e-06	-0.09442687	-0.03480396
4.7e+08	-0.09971613	-0.02807051	6.352102e-06	3.579304e-06	-0.04243763	0.01519656	3.164882e-06	1.278537e-06
	6.352102e-06	3.579304e-06	-0.1001251	-0.02611224	1.077639e-05	4.63909e-06	-0.04200175	0.01886311
	-0.04243763	0.01519656	1.077639e-05	4.63909e-06	-0.100608	-0.02713595	5.669164e-06	3.464248e-06
	3.164882e-06	1.278537e-06	-0.04200175	0.01886311	5.669164e-06	3.464248e-06	-0.1010334	-0.02528575
4.8e+08	-0.1045839	-0.01703013	7.132737e-06	2.311724e-06	-0.03765653	0.03053308	3.678074e-06	7.892345e-07
