!$
! Info: Touchstone file created by Circ.  Input file=Intel_C2M_200G_10p5in_202208016_staggered.circ
!$
# Hz S RI R 50
0	0.02668821	5.431324e-24	0.9731132	-9.203583e-24	0.0001442399	3.445007e-22	-0.0002741668	3.357574e-20
	0.9731132	-9.199878e-24	0.02723962	9.671644e-24	-0.0002742229	3.358262e-20	0.0003661783	9.697344e-22
	0.0001442966	3.446245e-22	-0.0002743582	3.359918e-20	0.02668619	5.136314e-24	0.9731135	-9.408455e-24
	-0.000274302	3.359231e-20	0.0003662442	9.704185e-22	0.9731135	-9.412171e-24	0.02724104	9.914124e-24
1e+07	0.0324188	-0.00635918	0.9554193	-0.1479482	0.002605836	0.00799871	-0.001223158	-0.0001592184
	0.9554193	-0.1479482	0.03204517	-0.00588253	-0.001223201	-0.0001590837	0.002339658	0.008080264
	0.002605836	0.00799871	-0.001223201	-0.0001590837	0.03221022	-0.006325339	0.9556343	-0.1479576
	-0.001223158	-0.0001592184	0.002339658	0.008080264	0.9556343	-0.1479576	0.03183546	-0.005846973
2e+07	0.0347946	-0.01845413	0.9172654	-0.2860909	0.006503099	0.01444099	-0.001167765	0.0002553207
	0.9172654	-0.2860909	0.03352658	-0.01707009	-0.001167698	0.0002555005	0.005484459	0.01492633
	0.006503106	0.01444098	-0.001167711	0.0002553919	0.0346458	-0.01831507	0.9174385	-0.28619
	-0.001167776	0.0002552181	0.005484543	0.01492623	0.9174385	-0.28619	0.03336806	-0.01692245
3e+07	0.03255826	-0.03236375	0.8613273	-0.4146537	0.01219184	0.01943403	-0.0008219123	0.0004805973
	0.8613273	-0.4146537	0.02952701	-0.02962271	-0.0008219199	0.000481007	0.01018455	0.02061346
	0.01219183	0.01943408	-0.0008219595	0.0004810174	0.03246443	-0.03216915	0.8614616	-0.4147957
	-0.0008219246	0.0004805955	0.01018453	0.02061344	0.8614616	-0.4147957	0.02942911	-0.02942072
4e+07	0.02625357	-0.04570822	0.7884798	-0.5325437	0.01915877	0.02235061	-0.0003308019	0.000413901
	0.7884798	-0.5325437	0.0213709	-0.04053565	-0.0003307979	0.0004147125	0.0159726	0.02483817
	0.01915877	0.02235063	-0.0003308007	0.0004147174	0.02622019	-0.04548549	0.7885745	-0.5327156
	-0.0003307989	0.0004139139	0.0159726	0.02483817	0.7885745	-0.5327156	0.02133072	-0.04030153
5e+07	0.01664219	-0.05722004	0.7003196	-0.6378061	0.02671227	0.02294911	0.00013019	9.075003e-06
	0.7003196	-0.6378061	0.01009593	-0.04861926	0.0001303039	1.036454e-05	0.02241268	0.02737088
	0.02671228	0.02294911	0.0001303067	1.03627e-05	0.01666645	-0.05698985	0.7003733	-0.6380002
	0.0001301927	9.072753e-06	0.02241269	0.0273709	0.7003733	-0.6380002	0.01011024	-0.04837018
6e+07	0.004526063	-0.0661027	0.5988435	-0.7286124	0.03413485	0.02116223	0.0003834728	-0.0007023872
	0.5988435	-0.7286124	-0.003157951	-0.05305945	0.0003838735	-0.0007004454	0.02900357	0.02814922
	0.03413485	0.02116221	0.0003838739	-0.0007004472	0.004601319	-0.06588223	0.5988534	-0.7288211
	0.0003834738	-0.0007023885	0.02900357	0.02814922	0.5988534	-0.7288211	-0.003095285	-0.05280926
7e+07	-0.009213979	-0.07183577	0.4863141	-0.8034278	0.04072152	0.01713752	0.0002807443	-0.001610011
	0.4863141	-0.8034278	-0.01713337	-0.0534636	0.0002817733	-0.001607437	0.03526281	0.02725925
	0.04072151	0.01713751	0.0002817931	-0.001607503	-0.009097925	-0.0716395	0.4862764	-0.8036424
	0.0002807455	-0.001610014	0.0352628	0.02725925	0.4862764	-0.8036424	-0.01703158	-0.05322263
8e+07	-0.02364267	-0.07417718	0.3651647	-0.8610681	0.0458472	0.0112185	-0.0002650468	-0.002545411
	0.3651647	-0.8610681	-0.03058165	-0.04984392	-0.0002630349	-0.002542345	0.04076639	0.02491537
	0.0458472	0.0112185	-0.0002630344	-0.002542343	-0.02349902	-0.07401637	0.3650786	-0.8612801
	-0.0002650469	-0.002545408	0.04076639	0.02491537	0.3650786	-0.8612801	-0.03045216	-0.04961883
9e+07	-0.03783978	-0.07315245	0.237915	-0.9007154	0.04901692	0.003908058	-0.001262399	-0.003314171
	0.237915	-0.9007154	-0.04235731	-0.04256308	-0.001259001	-0.003310864	0.04518118	0.02143283
	0.04901693	0.003908059	-0.001258995	-0.003310858	-0.03768486	-0.07303403	0.2377798	-0.9009124
	-0.001262395	-0.003314163	0.04518118	0.02143283	0.2377798	-0.9009124	-0.04221195	-0.04235524
1e+08	-0.050913	-0.06900178	0.1070176	-0.9219177	0.04990109	-0.004181053	-0.002641666	-0.003728313
	0.1070176	-0.9219177	-0.05143485	-0.03226485	-0.002636539	-0.003725066	0.04828725	0.01718913
	0.04990108	-0.004181053	-0.002636539	-0.003725067	-0.05076541	-0.06892792	0.1068384	-0.9220895
	-0.002641666	-0.003728314	0.04828725	0.01718913	0.1068384	-0.9220895	-0.05128558	-0.03207175
1.1e+08	-0.06228224	-0.06249185	-0.02475704	-0.9240217	0.0483264	-0.0123754	-0.004237246	-0.003633627
	-0.02475704	-0.9240217	-0.05722004	-0.02015189	-0.004228495	-0.003632193	0.04994357	0.01259867
	0.0483264	-0.0123754	-0.004228495	-0.003632194	-0.06217593	-0.06251045	-0.02497773	-0.9241625
	-0.004237247	-0.003633628	0.04994357	0.01259867	-0.02497773	-0.9241625	-0.05707543	-0.01994784
1.2e+08	-0.07160797	-0.05388171	-0.1545264	-0.9077518	0.04437106	-0.01991655	-0.005865833	-0.002985889
	-0.1545264	-0.9077518	-0.05951161	-0.006883572	-0.005855663	-0.002987406	0.05018275	0.008113793
	0.04437106	-0.01991655	-0.005855664	-0.002987406	-0.07157523	-0.05392333	-0.154782	-0.9078507
	-0.005865834	-0.002985889	0.05018275	0.008113794	-0.154782	-0.9078507	-0.05936778	-0.006671114
1.3e+08	-0.07843872	-0.04379484	-0.2799968	-0.8737395	0.03829529	-0.02617509	-0.007331694	-0.001777862
	-0.2799968	-0.8737395	-0.05805155	0.00653123	-0.007321444	-0.001782354	0.04914173	0.004115627
	0.03829529	-0.02617509	-0.007321444	-0.001782354	-0.07846753	-0.04382529	-0.2802788	-0.8737907
	-0.007331695	-0.001777862	0.04914172	0.004115628	-0.2802788	-0.8737907	-0.0579099	0.00675494
1.4e+08	-0.08257706	-0.03291915	-0.3988989	-0.822858	0.03051429	-0.03060356	-0.008445666	-8.119609e-05
	-0.3988989	-0.822858	-0.05294796	0.01906484	-0.008435836	-8.836519e-05	0.04704447	0.0009315378
	0.03051429	-0.03060356	-0.008435837	-8.836534e-05	-0.08265612	-0.03292914	-0.3991965	-0.8228552
	-0.008445667	-8.119625e-05	0.04704447	0.0009315384	-0.3991965	-0.8228552	-0.05280816	0.01930658
1.5e+08	-0.08401482	-0.02194006	-0.5090916	-0.7562353	0.02157392	-0.03277924	-0.009056682	0.001967803
	-0.5090916	-0.7562353	-0.04459607	0.02977156	-0.009047947	0.001957714	0.04418795	-0.001186509
	0.02157392	-0.03277924	-0.009047948	0.001957714	-0.08414177	-0.02192571	-0.5093935	-0.7561757
	-0.009056682	0.001967802	0.04418795	-0.001186509	-0.5093935	-0.7561757	-0.04445441	0.03003966
1.6e+08	-0.08291419	-0.0114962	-0.608587	-0.6752434	0.01211627	-0.03243469	-0.009073402	0.00418841
	-0.608587	-0.6752434	-0.0336343	0.03786047	-0.009066691	0.004175335	0.04092134	-0.002075277
	0.01211627	-0.03243469	-0.009066692	0.004175335	-0.08309185	-0.01145085	-0.6088828	-0.6751259
	-0.009073402	0.00418841	0.04092134	-0.002075277	-0.6088828	-0.6751259	-0.03348304	0.03816286
1.7e+08	-0.07958461	-0.002141078	-0.695581	-0.5814896	0.002838289	-0.02947839	-0.008475595	0.006382061
	-0.695581	-0.5814896	-0.02088842	0.04275462	-0.00847199	0.006366389	0.03762277	-0.001670899
	0.002838289	-0.02947839	-0.008471991	0.006366389	-0.07981537	-0.002052641	-0.6958593	-0.581316
	-0.008475595	0.006382061	0.03762277	-0.001670898	-0.6958593	-0.581316	-0.02071626	0.04309652
1.8e+08	-0.07445076	0.005689944	-0.7684778	-0.4768033	-0.005553751	-0.02400541	-0.007314196	0.00836078
	-0.7684778	-0.4768033	-0.0073034	0.04413198	-0.007314853	0.008343374	0.03467492	-1.306354e-05
	-0.005553751	-0.02400541	-0.007314853	0.008343374	-0.07473284	0.005837617	-0.7687271	-0.4765776
	-0.007314196	0.00836078	0.03467492	-1.306327e-05	-0.7687271	-0.4765776	-0.007097168	0.04451471
1.9e+08	-0.06801443	0.01170211	-0.8259178	-0.36322	-0.01239264	-0.01629717	-0.005700094	0.009972963
	-0.8259178	-0.36322	0.006131156	0.04194637	-0.005705837	0.009955252	0.03243818	0.002755587
	-0.01239264	-0.01629717	-0.005705837	0.009955252	-0.06833948	0.01192663	-0.82613	-0.3629507
	-0.005700094	0.009972963	0.03243818	0.002755588	-0.82613	-0.3629507	0.006385742	0.04236728
2e+08	-0.06080964	0.01575309	-0.866817	-0.2429583	-0.01709828	-0.006808297	-0.003784431	0.01112211
	-0.866817	-0.2429583	0.01846199	0.03642901	-0.003795735	0.011106	0.03122302	0.006396058
	-0.01709828	-0.006808296	-0.003795736	0.011106	-0.06116338	0.0160698	-0.8669839	-0.2426517
	-0.003784431	0.01112211	0.03122302	0.006396058	-0.8669839	-0.2426517	0.01877812	0.03688033
2.1e+08	-0.05335898	0.01784875	-0.8903992	-0.118386	-0.01922272	0.00385865	-0.001733332	0.01177653
	-0.8903992	-0.118386	0.02884592	0.02806558	-0.001749486	0.01176405	0.03126499	0.01058852
	-0.01922272	0.00385865	-0.001749486	0.01176405	-0.05372073	0.01826962	-0.8905162	-0.1180522
	-0.001733332	0.01177653	0.03126499	0.01058852	-0.8905162	-0.1180522	0.02923562	0.02853578
2.2e+08	-0.04613155	0.01812948	-0.8962256	0.008021133	-0.01848804	0.01499092	0.0002997509	0.01196694
	-0.8962256	0.008021133	0.0366199	0.01755387	0.0002799242	0.01195986	0.03270161	0.01495483
	-0.01848804	0.01499092	0.0002799241	0.01195986	-0.04647643	0.0186597	-0.8962904	0.008373198
	0.0002997508	0.01196694	0.03270161	0.01495483	-0.8962904	0.008373198	0.03709148	0.01802797
2.3e+08	-0.03950932	0.01684099	-0.8842189	0.1337307	-0.01481399	0.02581389	0.002195983	0.01177427
	-0.8842189	0.1337307	0.04135162	0.005742942	0.002174689	0.01177387	0.03555795	0.01908817
	-0.01481399	0.02581389	0.002174689	0.01177387	-0.03981098	0.01747848	-0.8842312	0.134094
	0.002195983	0.01177427	0.03555795	0.01908817	-0.8842312	0.134094	0.04190957	0.006203265
2.4e+08	-0.03376512	0.01429826	-0.8546784	0.256219	-0.008330871	0.03554599	0.003888253	0.01130878
	-0.8546784	0.256219	0.04287351	-0.00644092	0.003867768	0.01131551	0.03974116	0.022588
	-0.00833087	0.03554599	0.003867767	0.01131551	-0.03399729	0.01503326	-0.8546397	0.2565858
	0.003888253	0.01130878	0.03974116	0.022588	-0.8546397	0.2565858	0.04351711	-0.006013222
2.5e+08	-0.02905389	0.01084514	-0.8082762	0.3730289	0.0006231125	0.04345718	0.0053651	0.01068503
	-0.8082762	0.3730289	0.04129069	-0.01807438	0.005347963	0.01069835	0.04504611	0.02509461
	0.0006231127	0.04345718	0.005347963	0.01069835	-0.02919361	0.01166051	-0.8081854	0.3733941
	0.0053651	0.01068503	0.04504611	0.02509461	-0.8081854	0.3733941	0.04201388	-0.01769808
2.6e+08	-0.02541891	0.006815223	-0.7460382	0.4818374	0.01152115	0.04892481	0.006665396	0.00999786
	-0.7460382	0.4818374	0.03696538	-0.02831551	0.006654119	0.01001614	0.05117258	0.0263214
	0.01152115	0.04892481	0.006654119	0.01001614	-0.02544761	0.007687604	-0.7458964	0.4821943
	0.006665396	0.00999786	0.05117258	0.0263214	-0.7458964	0.4821943	0.03775685	-0.02800748
2.7e+08	-0.02280943	0.002498657	-0.6693171	0.5805087	0.02368288	0.05148117	0.007863193	0.009302662
	-0.6693171	0.5805087	0.03048019	-0.03647345	0.007859216	0.009323692	0.05775196	0.02608016
	0.02368288	0.05148117	0.007859216	0.009323692	-0.02271501	0.003399878	-0.6691251	0.5808535
	0.007863193	0.009302662	0.05775196	0.02608016	-0.6691251	0.5808535	0.03132436	-0.03624699
2.8e+08	-0.02110782	-0.001881816	-0.5797533	0.6671446	0.03632095	0.05085082	0.009045402	0.008605245
	-0.5797533	0.6671446	0.02258215	-0.04206251	0.009049586	0.008625969	0.06438002	0.02429509
	0.03632095	0.05085082	0.009049586	0.008625969	-0.02088597	-0.0009827505	-0.5795106	0.6674723
	0.009045402	0.008605245	0.06438002	0.02429509	-0.5795106	0.6674723	0.02345991	-0.04192591
2.9e+08	-0.02016181	-0.006181697	-0.4792265	0.7401196	0.04859573	0.04697248	0.01028853	0.007861116
	-0.4792265	0.7401196	0.01411463	-0.04483667	0.01030036	0.007878686	0.07065176	0.02100709
	0.04859573	0.04697248	0.01030036	0.007878686	-0.0198158	-0.005316807	-0.4789325	0.740424
	0.01028853	0.007861117	0.07065176	0.02100709	-0.4789325	0.740424	0.01500527	-0.04479287
3e+08	-0.0198161	-0.01033452	-0.3698039	0.7981048	0.0596733	0.040005	0.01163634	0.006986552
	-0.3698039	0.7981048	0.005945448	-0.0448038	0.01165428	0.006998207	0.07619483	0.0163654
	0.0596733	0.040005	0.01165428	0.006998207	-0.01935726	-0.009534583	-0.3694578	0.7983781
	0.01163634	0.006986552	0.07619483	0.0163654	-0.3694578	0.7983781	0.006828216	-0.04484947
3.1e+08	-0.01994019	-0.01434026	-0.253694	0.8400849	0.06878263	0.03031897	0.01308539	0.005875645
	-0.253694	0.8400849	-0.001105863	-0.04221751	0.01310674	0.005879034	0.08069812	0.01061243
	0.06878263	0.03031897	0.01310674	0.005879034	-0.01938715	-0.01363347	-0.2532976	0.8403161
	0.01308539	0.005875645	0.08069812	0.01061243	-0.2532976	0.8403161	-0.0002500442	-0.04234365
3.2e+08	-0.02044883	-0.01824641	-0.1332025	0.8653592	0.07526741	0.01847343	0.01457846	0.004423068
	-0.1332025	0.8653592	-0.00633331	-0.03755085	0.01459993	0.004417213	0.0839321	0.004059522
	0.07526741	0.01847343	0.01459993	0.004417213	-0.0198277	-0.01765589	-0.1327568	0.8655405
	0.01457846	0.004423068	0.0839321	0.004059522	-0.1327568	0.8655405	-0.005519837	-0.03774319
3.3e+08	-0.02131428	-0.02212326	-0.01068497	0.8735472	0.07862979	0.005180965	0.01600805	0.002547093
	-0.01068497	0.8735472	-0.009198419	-0.03145357	0.01602614	0.002532889	0.08576158	-0.002938691
	0.07862979	0.005180965	0.01602614	0.002532889	-0.02065652	-0.02166613	-0.01019672	0.8736672
	0.01600805	0.002547094	0.08576158	-0.002938691	-0.01019672	0.8736672	-0.008437707	-0.031694
3.4e+08	-0.02256891	-0.02603837	0.1114826	0.8645851	0.07856523	-0.0087365	0.01722921	0.0002105848
	0.1114826	0.8645851	-0.009370741	-0.02469777	0.01724054	0.0001892544	0.08615189	-0.01001141
	0.07856523	-0.008736501	0.01724054	0.0001892545	-0.02191006	-0.02572366	0.1120082	0.8646345
	0.01722921	0.0002105849	0.08615189	-0.01001141	0.1120082	0.8646345	-0.008667305	-0.02496558
3.5e+08	-0.02429843	-0.03003187	0.2309499	0.838723	0.07498388	-0.02239862	0.01807908	-0.002567424
	0.2309499	0.838723	-0.006751371	-0.01811521	0.01808112	-0.002592928	0.08516579	-0.01679874
	0.07498388	-0.02239862	0.01808112	-0.002592928	-0.02367638	-0.02986056	0.2314984	0.8386895
	0.01807908	-0.002567424	0.08516579	-0.01679874	0.2314984	0.8386895	-0.006103391	-0.01839012
3.6e+08	-0.02662814	-0.03409629	0.3454153	0.7965178	0.06802096	-0.03492193	0.0184003	-0.005706126
	0.3454153	0.7965178	-0.001479772	-0.01253259	0.01839205	-0.005731803	0.08295632	-0.02297463
	0.06802096	-0.03492193	0.01839205	-0.005731803	-0.02608119	-0.03405963	0.3459738	0.796394
	0.0184003	-0.005706126	0.08295632	-0.02297463	0.3459738	0.796394	-0.0008788553	-0.0127947
3.7e+08	-0.02970277	-0.03816089	0.452671	0.7388295	0.05803209	-0.04547673	0.01806484	-0.009067995
	0.452671	0.7388295	0.006077801	-0.008705079	0.01804646	-0.009089979	0.07975416	-0.02826838
	0.05803209	-0.04547673	0.01804646	-0.009089979	-0.02926717	-0.03824079	0.4532241	0.7386109
	0.01806484	-0.009067995	0.07975416	-0.02826838	0.4532241	0.7386109	0.006645751	-0.008938238
3.8e+08	-0.0336625	-0.04208455	0.5506365	0.6668142	0.04557518	-0.05334104	0.01699307	-0.01247358
	0.5506365	0.6668142	0.01535621	-0.007257164	0.01696692	-0.0124876	0.0758507	-0.03248189
	0.04557518	-0.05334104	0.01696692	-0.0124876	-0.03337045	-0.04225416	0.5511639	0.6664984
	0.01699307	-0.01247358	0.0758507	-0.03248189	0.5511639	0.6664984	0.01590983	-0.00745058
3.9e+08	-0.03861736	-0.04565465	0.6373959	0.5819122	0.03137958	-0.05795075	0.01516876	-0.01572014
	0.6373959	0.5819122	0.02563395	-0.008632703	0.01513747	-0.01572391	0.07157827	-0.03550301
	0.03137958	-0.05795075	0.01513747	-0.01572391	-0.03849379	-0.04587854	0.6378808	0.581504
	0.01516876	-0.01572013	0.07157827	-0.03550301	0.6378808	0.581504	0.02619519	-0.008780272
4e+08	-0.04461934	-0.0485957	0.7112464	0.4858301	0.01630085	-0.05893978	0.01264089	-0.01860794
	0.7112464	0.4858301	0.03609065	-0.01305611	0.01260925	-0.01859982	0.06728617	-0.03731393
	0.01630085	-0.05893978	0.01260925	-0.01859982	-0.04468082	-0.04883277	0.7116694	0.4853341
	0.01264089	-0.01860794	0.06728617	-0.03731393	0.7116694	0.4853341	0.03668295	-0.01316011
4.1e+08	-0.05163869	-0.05058652	0.7707382	0.3805063	0.001267541	-0.0561685	0.009520043	-0.02096281
	0.7707382	0.3805063	0.04587238	-0.02051423	0.009492847	-0.02094305	0.06331524	-0.03799344
	0.001267541	-0.0561685	0.009492847	-0.02094305	-0.05189163	-0.05079109	0.7710837	0.3799336
	0.009520043	-0.02096281	0.06331524	-0.03799344	0.7710837	0.3799336	0.0465184	-0.02058337
4.2e+08	-0.05954557	-0.05128329	0.8147141	0.2680877	-0.0127802	-0.04973739	0.005964445	-0.02265622
	0.8147141	0.2680877	0.05415911	-0.03075325	0.005945708	-0.02262704	0.0599714	-0.03771406
	-0.0127802	-0.04973739	0.005945708	-0.02262704	-0.05998466	-0.05140814	0.8149665	0.2674541
	0.005964445	-0.02265622	0.0599714	-0.03771406	0.8149665	0.2674541	0.05487864	-0.03080306
4.3e+08	-0.06809652	-0.05035312	0.8423446	0.1508705	-0.0249534	-0.03998253	0.002157535	-0.02361813
	0.8423446	0.1508705	0.06023367	-0.04329953	0.002150854	-0.02358349	0.05749984	-0.03672795
	-0.0249534	-0.03998253	0.002150854	-0.02358349	-0.06870468	-0.05035276	0.8424937	0.1501925
	0.002157535	-0.02361813	0.05749984	-0.03672795	0.8424937	0.1501925	0.06104173	-0.04335175
4.4e+08	-0.07693322	-0.04750974	0.8531537	0.03125023	-0.03447373	-0.0274554	-0.001713205	-0.02384011
	0.8531537	0.03125023	0.0635397	-0.05749715	-0.001706493	-0.02380478	0.05606315	-0.03534914
	-0.03447373	-0.0274554	-0.001706493	-0.02380478	-0.07768188	-0.04734287	0.8531925	0.03054775
	-0.001713205	-0.02384011	0.05606315	-0.03534914	0.8531925	0.03054775	0.06444529	-0.05757778
4.5e+08	-0.08559104	-0.04255074	0.847032	-0.0883366	-0.04072602	-0.01288639	-0.005479723	-0.02336954
	0.847032	-0.0883366	0.063727	-0.07256161	-0.005460049	-0.02333891	0.05572627	-0.03392664
	-0.04072602	-0.01288639	-0.005460049	-0.02333891	-0.08644145	-0.0421836	0.8469579	-0.08904378
	-0.005479723	-0.02336954	0.05572627	-0.03392664	0.8469579	-0.08904378	0.06473165	-0.07269939
4.6e+08	-0.09352127	-0.03539465	0.8242368	-0.2054817	-0.04329731	0.002864191	-0.009010818	-0.02229524
	0.8242368	-0.2054817	0.06067936	-0.08764608	-0.008980359	-0.02227442	0.05644876	-0.03281447
	-0.04329731	0.002864191	-0.008980359	-0.02227442	-0.09442687	-0.03480396	0.8240503	-0.2061751
	-0.009010818	-0.02229524	0.05644876	-0.03281447	0.8240503	-0.2061751	0.06177624	-0.08787031
4.7e+08	-0.1001251	-0.02611224	0.7853787	-0.3178695	-0.04200175	0.01886311	-0.01222051	-0.02072915
	0.7853787	-0.3178695	0.05452106	-0.1019106	-0.01218387	-0.02072174	0.05808793	-0.03233931
	-0.04200175	0.01886311	-0.01218387	-0.02072174	-0.1010334	-0.02528575	0.7850839	-0.3185289
	-0.01222051	-0.02072915	0.05808793	-0.03233931	0.7850839	-0.3185289	0.05569527	-0.1022485
4.8e+08	-0.1047971	-0.01494289	0.7313858	-0.4233211	-0.03688826	0.03416325	-0.01507135	-0.01878491
	0.7313858	-0.4233211	0.04560103	-0.1145902	-0.01503368	-0.01879301	0.06041164	-0.03277248
	-0.03688826	0.03416325	-0.01503368	-0.01879301	-0.1056535	-0.01388258	0.7309933	-0.4239312
	-0.01507135	-0.01878491	0.06041164	-0.03277248	0.7309933	-0.4239312	0.0468309	-0.1150647
4.9e+08	-0.1069747	-0.002303995	0.6634806	-0.5198464	-0.02823384	0.04786266	-0.01756465	-0.01656088
	0.6634806	-0.5198464	0.03446168	-0.125053	-0.01753243	-0.01658394	0.06311912	-0.03430571
	-0.02823384	0.04786266	-0.01753243	-0.01658394	-0.1077258	-0.001024874	0.6629987	-0.5203945
	-0.01756465	-0.01656088	0.06311912	-0.03430571	0.6629987	-0.5203945	0.03571865	-0.1256816
5e+08	-0.1061929	0.01121861	0.5831226	-0.6056842	-0.01652158	0.05915607	-0.01972921	-0.01412568
	0.5831226	-0.6056842	0.0217893	-0.1328496	-0.01970795	-0.01416144	0.06586812	-0.03703534
	-0.01652158	0.05915607	-0.01970795	-0.01416144	-0.1067894	0.01268862	0.5825643	-0.6061557
	-0.01972921	-0.01412568	0.06586812	-0.03703534	0.5825643	-0.6061557	0.02304106	-0.1336412
5.1e+08	-0.1021315	0.02489674	0.4919711	-0.6793062	-0.00241029	0.06737899	-0.02160286	-0.01151499
	0.4919711	-0.6793062	0.008356993	-0.1377389	-0.02159705	-0.01155868	0.06830446	-0.04095683
	-0.00241029	0.06737899	-0.02159705	-0.01155868	-0.1025323	0.02651772	0.49135	-0.6796946
	-0.02160286	-0.01151499	0.06830446	-0.04095683	0.49135	-0.6796946	0.009569403	-0.1386943
5.2e+08	-0.0946597	0.0378967	0.3918444	-0.7394436	0.01330614	0.07204336	-0.02321664	-0.008730798
	0.3918444	-0.7394436	-0.00503697	-0.139703	-0.02322906	-0.008775892	0.07009138	-0.04596673
