!$
! Info: Touchstone file created by Circ.  Input file=Intel_C2M_200G_13p5in_202208016_staggered.circ
!$
# Hz S RI R 50
0	0.03611253	6.409692e-24	0.9636908	-1.085084e-23	0.0001642435	3.786965e-22	-0.0002929076	3.587084e-20
	0.9636908	-1.084641e-23	0.0366601	1.129658e-23	-0.0002929637	3.587771e-20	0.0003836569	1.422477e-21
	0.0001642991	3.788179e-22	-0.0002930971	3.589405e-20	0.03611055	6.057169e-24	0.9636911	-1.111858e-23
	-0.000293041	3.588717e-20	0.0003837202	1.423487e-21	0.9636911	-1.112301e-23	0.03666152	1.159801e-23
1e+07	0.04396285	0.003838694	0.9402305	-0.1770402	0.00354508	0.009110992	-0.001818971	-0.0004480055
	0.9402305	-0.1770402	0.04428859	0.003861896	-0.001821561	-0.0004480065	0.003217155	0.009229535
	0.00354508	0.009110992	-0.001821561	-0.0004480065	0.04406166	0.002829391	0.9401687	-0.1760151
	-0.001818971	-0.0004480055	0.003217155	0.009229535	0.9401687	-0.1760151	0.04431659	0.002836267
2e+07	0.05209593	-0.0009608882	0.8856713	-0.3394353	0.008691918	0.01587552	-0.00207789	8.825471e-05
	0.8856713	-0.3394353	0.05330973	-0.00136379	-0.002082287	9.576522e-05	0.007464758	0.01655711
	0.008691923	0.0158755	-0.002082306	9.565885e-05	0.05097132	-0.002413808	0.8869271	-0.3380327
	-0.002077908	8.81543e-05	0.007464846	0.016557	0.8869271	-0.3380327	0.0519726	-0.002663499
3e+07	0.05566242	-0.01016826	0.8069583	-0.4860851	0.01594271	0.02036421	-0.002016352	0.0005954274
	0.8069583	-0.4860851	0.05737941	-0.01164787	-0.002015071	0.0006120521	0.01358839	0.02207974
	0.01594271	0.02036425	-0.002015111	0.0006120664	0.05369016	-0.01133953	0.8091371	-0.4850819
	-0.002016365	0.0005954272	0.01358837	0.02207971	0.8091371	-0.4850819	0.05516911	-0.01240753
4e+07	0.05521223	-0.02031016	0.7059326	-0.6154071	0.02432623	0.02181084	-0.001707892	0.0009542205
	0.7059326	-0.6154071	0.0573518	-0.02307799	-0.001693378	0.000975471	0.0207983	0.02536293
	0.02432624	0.02181086	-0.001693381	0.000975477	0.05268339	-0.02095111	0.7087197	-0.6151111
	-0.001707888	0.0009542335	0.0207983	0.02536293	0.7087197	-0.6151111	0.05468257	-0.02301075
5e+07	0.05145219	-0.02979748	0.585591	-0.7244658	0.03268724	0.02005422	-0.001286172	0.001068132
	0.585591	-0.7244658	0.05368953	-0.03411252	-0.00125495	0.001084811	0.02831088	0.02620179
	0.03268725	0.02005422	-0.001254948	0.001084809	0.04862379	-0.02979147	0.5886813	-0.7250455
	-0.001286169	0.00106813	0.02831089	0.0262018	0.5886813	-0.7250455	0.0509531	-0.03313263
6e+07	0.0451537	-0.03765538	0.4495744	-0.8106341	0.03989033	0.01530221	-0.0009098655	0.0009156371
	0.4495744	-0.8106341	0.04703286	-0.04356442	-0.0008644915	0.000917133	0.03530369	0.02469685
	0.03989033	0.01530219	-0.0008644905	0.0009171306	0.04225939	-0.03696947	0.4526629	-0.8121636
	-0.0009098638	0.0009156351	0.03530369	0.02469685	0.4526629	-0.8121636	0.04457559	-0.0417282
7e+07	0.03719232	-0.04328527	0.3019596	-0.8718665	0.04493885	0.008145993	-0.0007242985	0.000560197
	0.3019596	-0.8718665	0.03825175	-0.05061724	-0.00067347	0.000537939	0.04104945	0.02121868
	0.04493885	0.008145991	-0.0006734644	0.0005378712	0.0344398	-0.04194864	0.3047426	-0.8743384
	-0.0007242978	0.000560194	0.04104945	0.02121868	0.3047426	-0.8743384	0.03635169	-0.04808614
8e+07	0.02847948	-0.04645338	0.1471044	-0.9068021	0.04710159	-0.0005146316	-0.0008208406	0.000129527
	0.1471044	-0.9068021	0.02832882	-0.05482742	-0.0007777214	8.050173e-05	0.0449983	0.01635436
	0.04710159	-0.0005146303	-0.0007777204	8.050407e-05	0.02604808	-0.04454205	0.1492855	-0.9101347
	-0.0008208401	0.0001295296	0.0449983	0.01635436	0.1492855	-0.9101347	0.027181	-0.05183463
9e+07	0.01985055	-0.04724909	-0.01049423	-0.9148077	0.04600038	-0.009582379	-0.001215858	-0.0002196491
	-0.01049423	-0.9148077	0.01825634	-0.05609638	-0.001194839	-0.0002911175	0.0468391	0.01083174
	0.04600039	-0.009582383	-0.001194831	-0.0002911126	0.01789464	-0.04487292	-0.009207309	-0.9188385
	-0.001215852	-0.0002196423	0.0468391	0.01083174	-0.009207309	-0.9188385	0.01797093	-0.05291608
1e+08	0.01198925	-0.04601499	-0.1663614	-0.8959763	0.04165148	-0.01789515	-0.001848885	-0.0003399099
	-0.1663614	-0.8959763	0.008961495	-0.05462333	-0.001863251	-0.0004209835	0.04652846	0.005425086
	0.04165148	-0.01789515	-0.001863252	-0.0004209841	0.01069605	-0.04330109	-0.1663313	-0.9004428
	-0.001848886	-0.0003399106	0.04652846	0.005425086	-0.1663313	-0.9004428	0.009613177	-0.05157278
1.1e+08	0.005259408	-0.04321626	-0.3159305	-0.8509772	0.03444926	-0.02434564	-0.00259209	-0.0001324696
	-0.3159305	-0.8509772	0.001228764	-0.05095183	-0.002637621	-0.0002022066	0.04426929	0.0008854379
	0.03444925	-0.02434564	-0.002637622	-0.0002022075	0.004595651	-0.04065749	-0.3171095	-0.8551429
	-0.002592091	-0.0001324704	0.04426929	0.000885438	-0.3171095	-0.8551429	0.002499173	-0.04846814
1.2e+08	3.067356e-05	-0.03933185	-0.4549249	-0.7815724	0.0252188	-0.02800571	-0.003303042	0.0004340202
	-0.4549249	-0.7815724	-0.004476759	-0.0456869	-0.003371194	0.0003855882	0.04054539	-0.002172493
	0.0252188	-0.02800571	-0.003371196	0.0003855876	-0.0002112791	-0.03697128	-0.4570282	-0.7852516
	-0.003303043	0.0004340196	0.04054539	-0.002172493	-0.4570282	-0.7852516	-0.002893963	-0.04376084
1.3e+08	-0.003627173	-0.03495525	-0.5795226	-0.6899861	0.01500047	-0.02831492	-0.00382665	0.001333588
	-0.5795226	-0.6899861	-0.007825163	-0.03957678	-0.003906732	0.001312244	0.03598893	-0.003350691
	0.01500047	-0.02831491	-0.003906734	0.001312244	-0.003551509	-0.03283211	-0.5823616	-0.6930358
	-0.003826651	0.001333588	0.03598893	-0.00335069	-0.5823616	-0.6930358	-0.006125417	-0.03816438
1.4e+08	-0.005844123	-0.0305855	-0.6862864	-0.5790367	0.004976387	-0.02507946	-0.004036982	0.002474048
	-0.6862864	-0.5790367	-0.008768401	-0.03341106	-0.004117618	0.002480527	0.0313208	-0.002487393
	0.004976387	-0.02507946	-0.004117619	0.002480528	-0.005550526	-0.02872692	-0.6896761	-0.5813502
	-0.004036982	0.002474048	0.0313208	-0.002487392	-0.6896761	-0.5813502	-0.007092107	-0.03243407
1.5e+08	-0.00688425	-0.02659473	-0.7722889	-0.4520681	-0.003659485	-0.01850691	-0.003860073	0.003722019
	-0.7722889	-0.4520681	-0.007511795	-0.0279244	-0.003932066	0.003752623	0.027267	0.0003266279
	-0.003659484	-0.01850691	-0.003932067	0.003752623	-0.006468188	-0.02500089	-0.7760446	-0.453578
	-0.003860074	0.003722019	0.027267	0.0003266283	-0.7760446	-0.453578	-0.005950595	-0.02728611
1.6e+08	-0.007084399	-0.02320218	-0.8351985	-0.3128677	-0.009834428	-0.009193455	-0.003283666	0.004931473
	-0.8351985	-0.3128677	-0.004472621	-0.02372091	-0.003340766	0.004980104	0.02447519	0.004763985
	-0.009834427	-0.009193454	-0.003340767	0.004980105	-0.006627725	-0.02184719	-0.8391382	-0.3135421
	-0.003283667	0.004931474	0.02447519	0.004763986	-0.8391382	-0.3135421	-0.003074653	-0.02332023
1.7e+08	-0.006789948	-0.02047014	-0.8733614	-0.1655629	-0.0127198	0.00193334	-0.002352289	0.005971689
	-0.8733614	-0.1655629	-0.000219331	-0.02121797	-0.00239134	0.006031441	0.02344138	0.01030098
	-0.0127198	0.001933341	-0.002391341	0.006031441	-0.006353137	-0.01930955	-0.8773078	-0.1654054
	-0.002352289	0.005971689	0.02344138	0.01030098	-0.8773078	-0.1654054	0.001004273	-0.02096141
1.8e+08	-0.006293616	-0.01832342	-0.885855	-0.01450064	-0.01182975	0.01370944	-0.001150774	0.006747945
	-0.885855	-0.01450064	0.004602662	-0.02061423	-0.001171471	0.006812357	0.02445543	0.01628106
	-0.01182975	0.01370944	-0.001171472	0.006812357	-0.005913056	-0.01730385	-0.8896413	-0.01354753
	-0.001150774	0.006747945	0.02445543	0.01628106	-0.8896413	-0.01354753	0.005668473	-0.02042449
1.9e+08	-0.005788947	-0.01659058	-0.8725209	0.1358853	-0.007084549	0.02485827	0.0002185226	0.007210754
	-0.8725209	0.1358853	0.009347862	-0.02188544	0.0002145844	0.007274667	0.02756984	0.02199183
	-0.007084549	0.02485827	0.0002145843	0.007274668	-0.005477876	-0.0156589	-0.8759984	0.1375679
	0.0002185225	0.007210754	0.02756984	0.02199183	-0.8759984	0.1375679	0.01029143	-0.02170623
2e+08	-0.005344034	-0.01506039	-0.8339721	0.2812191	0.001171148	0.03413001	0.001657429	0.00735318
	-0.8339721	0.2812191	0.01344437	-0.02480526	0.001667519	0.007413132	0.03259591	0.02674699
	0.001171149	0.03413001	0.001667519	0.007413132	-0.00509708	-0.01417064	-0.8370086	0.283542
	0.001657429	0.00735318	0.03259591	0.02674699	-0.8370086	0.283542	0.01430966	-0.02460294
2.1e+08	-0.004902934	-0.01354325	-0.771566	0.417324	0.0121965	0.04043996	0.003087988	0.007198991
	-0.771566	0.417324	0.01645037	-0.02898879	0.00310956	0.007252864	0.03912883	0.02996595
	0.0121965	0.04043996	0.00310956	0.007252864	-0.004700668	-0.01266164	-0.7740541	0.4201763
	0.003087988	0.007198991	0.03912883	0.02996595	-0.7740541	0.4201763	0.01728281	-0.02875118
2.2e+08	-0.00431144	-0.01192475	-0.6873455	0.5403514	0.02492736	0.04299057	0.004459793	0.006785276
	-0.6873455	0.5403514	0.01809445	-0.03395107	0.004490407	0.006832145	0.04659601	0.03123864
	0.02492736	0.04299057	0.004490407	0.006832145	-0.004127373	-0.01103233	-0.6892029	0.5436083
	0.004459793	0.006785276	0.04659601	0.03123864	-0.6892029	0.5436083	0.01893259	-0.03368349
2.3e+08	-0.003364923	-0.01020348	-0.5839599	0.6468934	0.03808531	0.04136313	0.00574635	0.006147409
	-0.5839599	0.6468934	0.01828921	-0.03917189	0.005784478	0.006186677	0.05432557	0.03037022
	0.03808531	0.04136313	0.005784478	0.006186677	-0.003171132	-0.009295699	-0.58513	0.6504206
	0.005746349	0.006147409	0.05432557	0.03037022	-0.58513	0.6504206	0.01916108	-0.03889209
2.4e+08	-0.001866784	-0.008504368	-0.4645632	0.7340772	0.05030986	0.03556819	0.006936383	0.005307496
	-0.4645632	0.7340772	0.01712443	-0.04415917	0.00698065	0.005338798	0.06162499	0.02740044
	0.05030986	0.03556819	0.00698065	0.005338798	-0.001639049	-0.007590303	-0.465018	0.7377345
	0.006936383	0.005307496	0.06162499	0.02740044	-0.465018	0.7377345	0.01804515	-0.04389146
2.5e+08	0.0003123295	-0.007066096	-0.3327072	0.799623	0.06029997	0.02605142	0.008019914	0.004272159
	-0.3327072	0.799623	0.0148399	-0.04850312	0.008069197	0.004294779	0.06785985	0.02259397
	0.06029997	0.02605142	0.008069197	0.004294779	0.0005900429	-0.006164553	-0.3324427	0.8032688
	0.008019914	0.004272159	0.06785985	0.02259397	-0.3324427	0.8032688	0.01581169	-0.04827245
2.6e+08	0.003185224	-0.006203773	-0.1922251	0.8418847	0.06694923	0.01365458	0.008977574	0.003037092
	-0.1922251	0.8418847	0.01178294	-0.05191557	0.009030652	0.003049895	0.07252469	0.01640618
	0.06694923	0.01365458	0.009030652	0.003049895	0.00351807	-0.005340072	-0.191267	0.8453821
	0.008977574	0.003037092	0.07252469	0.01640618	-0.191267	0.8453821	0.01279735	-0.0517433
2.7e+08	0.00661759	-0.006254492	-0.04713015	0.8598699	0.0694609	-0.0004640663	0.009774169	0.001596218
	-0.04713015	0.8598699	0.008359681	-0.05425324	0.009829255	0.001598545	0.07529725	0.009428109
	0.0694609	-0.0004640664	0.009829255	0.001598545	0.00699834	-0.005455353	-0.04552638	0.8630923
	0.009774169	0.001596218	0.07529725	0.009428109	-0.04552638	0.8630923	0.009400744	-0.05415326
2.8e+08	0.01032074	-0.007513014	0.09848736	0.8532467	0.06743394	-0.01493994	0.01035885	-4.637517e-05
	0.09848736	0.8532467	0.004982093	-0.05552221	0.01041375	-5.527334e-05	0.07607093	0.002316553
	0.06743394	-0.01493994	0.01041375	-5.527326e-05	0.0107302	-0.006801577	0.1006659	0.8560795
	0.01035885	-4.63751e-05	0.07607093	0.002316553	0.1006659	0.8560795	0.006030391	-0.05549926
2.9e+08	0.01387147	-0.01016719	0.2405539	0.8223379	0.06091087	-0.02833382	0.0106715	-0.001868027
	0.2405539	0.8223379	0.002018861	-0.05586537	0.01072387	-0.001887824	0.0749621	-0.004280302
	0.06091087	-0.02833382	0.01072387	-0.001887824	0.01428012	-0.009559225	0.243217	0.8246833
	0.0106715	-0.001868027	0.0749621	-0.004280302	0.243217	0.8246833	0.003055829	-0.05591558
3e+08	0.01675549	-0.01424369	0.3751045	0.7681082	0.05038319	-0.03927231	0.0106533	-0.003821657
	0.3751045	0.7681082	-0.0002443543	-0.05553673	0.01070081	-0.003851472	0.07229306	-0.009796427
	0.05038319	-0.03927231	0.01070081	-0.003851472	0.01712698	-0.01374362	0.3781464	0.7698873
	0.0106533	-0.003821657	0.07229306	-0.009796427	0.3781464	0.7698873	0.0007668647	-0.0556487
3.1e+08	0.01843133	-0.01957157	0.4983746	0.6921502	0.03675488	-0.04658553	0.01025759	-0.005838268
	0.4983746	0.6921502	-0.001634725	-0.05486378	0.01029807	-0.005876608	0.068553	-0.0138095
	0.03675488	-0.04658553	0.01029807	-0.005876607	0.01872619	-0.01917028	0.5016756	0.6933068
	0.01025759	-0.005838268	0.068553	-0.0138095	0.5016756	0.6933068	-0.0006571765	-0.05502161
3.2e+08	0.01840626	-0.02577101	0.6068884	0.5966557	0.02126387	-0.04942814	0.009458691	-0.007833207
	0.6068884	0.5966557	-0.002106882	-0.05420405	0.009490967	-0.007878143	0.06433961	-0.01608839
	0.02126387	-0.04942814	0.009490967	-0.007878143	0.01858802	-0.02544413	0.6103266	0.597158
	0.009458691	-0.007833207	0.06433961	-0.01608839	0.6103266	0.597158	-0.001163013	-0.0543904
3.3e+08	0.01631707	-0.03227039	0.6975637	0.4843754	0.005368761	-0.04737236	0.008256003	-0.00971604
	0.6975637	0.4843754	-0.001741929	-0.05389982	0.008280144	-0.009765427	0.06028929	-0.01661712
	0.005368761	-0.04737236	0.008280144	-0.009765427	0.0163568	-0.0319801	0.701011	0.4842166
	0.008256003	-0.00971604	0.06028929	-0.01661712	0.701011	0.4842166	-0.0008239342	-0.05409939
3.4e+08	0.01200267	-0.03835391	0.7678041	0.3585664	-0.009390731	-0.04046335	0.006674052	-0.01140005
	0.7678041	0.3585664	-0.0007317302	-0.0542367	0.006689758	-0.01145269	0.05700396	-0.01559553
	-0.009390731	-0.04046335	0.006689758	-0.01145269	0.01188477	-0.03805182	0.7711385	0.3577613
	0.006674052	-0.01140005	0.05700396	-0.01559553	0.7711385	0.3577613	0.0001739313	-0.0544392
3.5e+08	0.005558897	-0.04323709	0.8155998	0.222903	-0.02154565	-0.0292267	0.004755758	-0.01281073
	0.8155998	0.222903	0.0006494188	-0.05541065	0.00476329	-0.0128658	0.05497951	-0.01341543
	-0.02154565	-0.0292267	0.00476329	-0.0128658	0.005284031	-0.04286847	0.8187	0.2214922
	0.004755758	-0.01281073	0.05497951	-0.01341543	0.8187	0.2214922	0.00155993	-0.05561345
3.6e+08	-0.002635961	-0.04616129	0.8396017	0.08137962	-0.02984772	-0.01462838	0.002555702	-0.01388829
	0.8396017	0.08137962	0.00208277	-0.05750819	0.002555234	-0.0139457	0.05454772	-0.01061286
	-0.02984772	-0.01462838	0.002555234	-0.0139457	-0.003047648	-0.04567152	0.8423617	0.07942236
	0.002555702	-0.01388829	0.05454772	-0.01061286	0.8423617	0.07942236	0.003015465	-0.05771597
3.7e+08	-0.0119308	-0.0464982	0.8391875	-0.06182349	-0.03340011	0.002013723	0.0001334316	-0.0145867
	0.8391875	-0.06182349	0.003246482	-0.06049954	0.0001237964	-0.01464639	0.05583712	-0.007804196
	-0.03340011	0.002013723	0.0001237965	-0.01464639	-0.01244039	-0.04583943	0.8415155	-0.06425005
	0.0001334316	-0.0145867	0.05583712	-0.007804196	0.8415155	-0.06425005	0.004215437	-0.0607251
3.8e+08	-0.02145144	-0.0438477	0.8144912	-0.2024802	-0.03175297	0.01915575	-0.002451582	-0.01486896
	0.8144912	-0.2024802	0.003855619	-0.06424854	-0.002471539	-0.01493063	0.05875792	-0.005612124
	-0.03175297	0.01915575	-0.002471539	-0.01493063	-0.02200369	-0.04298523	0.8163098	-0.205282
	-0.002451582	-0.01486896	0.05875792	-0.005612124	0.8163098	-0.205282	0.004868987	-0.06451064
3.9e+08	-0.03018418	-0.03811643	0.7663985	-0.3364657	-0.02495543	0.03517894	-0.005136963	-0.01470267
	0.7663985	-0.3364657	0.003694706	-0.0685352	-0.005170373	-0.01476441	0.06301392	-0.004590895
	-0.02495543	0.03517894	-0.005170373	-0.01476441	-0.03071235	-0.03703534	0.7676541	-0.3395396
	-0.005136963	-0.01470267	0.06301392	-0.004590895	0.7676541	-0.3395396	0.004752498	-0.06885479
4e+08	-0.03708876	-0.02956376	0.6965097	-0.459906	-0.01355431	0.04854974	-0.007855919	-0.01405622
	0.6965097	-0.459906	0.0026408	-0.07308594	-0.007904686	-0.01411527	0.06813896	-0.005160614
	-0.01355431	0.04854974	-0.007904686	-0.01411527	-0.03752168	-0.02827111	0.6971638	-0.4631408
	-0.007855919	-0.01405622	0.06813896	-0.005160614	0.6971638	-0.4631408	0.003734524	-0.07348445
4.1e+08	-0.04122306	-0.01880478	0.6070599	-0.5693078	0.001455971	0.05796972	-0.01052916	-0.01290109
	0.6070599	-0.5693078	0.0006728532	-0.07761093	-0.01059466	-0.01295293	0.07355404	-0.007558332
	0.001455971	0.05796972	-0.01059466	-0.01295293	-0.04149244	-0.01733125	0.6070986	-0.5725891
	-0.01052916	-0.01290109	0.07355404	-0.007558332	0.6070986	-0.5725891	0.001785575	-0.07810553
4.2e+08	-0.04186364	-0.006768354	0.5008341	-0.661655	0.01872824	0.06250254	-0.01306064	-0.01121864
	0.5008341	-0.661655	-0.002132701	-0.08183902	-0.01314262	-0.01125715	0.07863564	-0.01181381
	0.01872824	0.06250254	-0.01314262	-0.01125715	-0.04191209	-0.005167362	0.5002646	-0.6648674
	-0.01306064	-0.01121864	0.07863564	-0.01181381	0.5002646	-0.6648674	-0.00102368	-0.08244033
4.3e+08	-0.03860995	0.005385143	0.3810442	-0.734491	0.03669109	0.06166263	-0.01533755	-0.009008293
	0.3810442	-0.734491	-0.005616061	-0.08554918	-0.01543317	-0.009027621	0.08278905	-0.01774725
	0.03669109	0.06166263	-0.01543317	-0.009027621	-0.03839848	0.007041886	0.3798942	-0.7375248
	-0.01533755	-0.009008293	0.08278905	-0.01774725	0.3798942	-0.7375248	-0.0045374	-0.08625951
4.4e+08	-0.03145385	0.01637796	0.2512203	-0.7859611	0.0536958	0.05546095	-0.01723444	-0.006299906
	0.2512203	-0.7859611	-0.009559082	-0.08859421	-0.01733812	-0.006294386	0.08551469	-0.02499464
	0.0536958	0.05546095	-0.01733812	-0.006294386	-0.03096741	0.01800662	0.2495372	-0.7887141
	-0.01723444	-0.006299906	0.08551469	-0.02499464	0.2495372	-0.7887141	-0.008537007	-0.08940633
4.5e+08	-0.02080978	0.02494746	0.1151	-0.8148332	0.06816947	0.04440421	-0.01862473	-0.003160922
	0.1151	-0.8148332	-0.01371484	-0.09091392	-0.01872876	-0.003127213	0.08646301	-0.03305069
	0.06816947	0.04440421	-0.01872876	-0.003127213	-0.02006081	0.02646062	0.1129481	-0.8172149
	-0.01862473	-0.003160922	0.08646301	-0.03305069	0.1129481	-0.8172149	-0.01277239	-0.09181146
4.6e+08	-0.007500356	0.02998584	-0.02347783	-0.8205024	0.07875926	0.02944864	-0.01939566	0.0003011368
	-0.02347783	-0.8205024	-0.01783949	-0.09253763	-0.01949107	0.000363066	0.08546998	-0.0413278
	0.07875926	0.02944864	-0.01949107	0.000363066	-0.006529144	0.03130182	-0.02602077	-0.8224358
	-0.01939566	0.0003011368	0.08546998	-0.0413278	-0.02602077	-0.8224358	-0.01699329	-0.09349661
4.7e+08	0.007302236	0.03067087	-0.1606674	-0.8029824	0.08445633	0.01191401	-0.01946478	0.003941823
	-0.1606674	-0.8029824	-0.02172241	-0.09357473	-0.01954243	0.004029157	0.08257211	-0.04922093
	0.08445633	0.01191401	-0.01954243	0.004029157	0.008429809	0.03172115	-0.1635092	-0.8044059
	-0.01946478	0.003941823	0.08257211	-0.04922093	-0.1635092	-0.8044059	-0.02097978	-0.09456658
4.8e+08	0.02217581	0.0265709	-0.2926901	-0.7628799	0.0846881	-0.006633988	-0.01879297	0.00759423
	-0.2926901	-0.7628799	-0.02521064	-0.09419844	-0.01884542	0.007700126	0.07799929	-0.05617424
	0.0846881	-0.006633988	-0.01884542	0.007700126	0.02337276	0.0273098	-0.2957323	-0.7637534
	-0.01879297	0.00759423	0.07799929	-0.05617424	-0.2957323	-0.7637534	-0.02456869	-0.09519281
4.9e+08	0.03557622	0.01772173	-0.4159152	-0.7013903	0.07937349	-0.02452464	-0.01739264	0.01108368
	-0.4159152	-0.7013903	-0.02822706	-0.0946193	-0.01741496	0.01119968	0.0721475	-0.06174053
	0.07937349	-0.02452464	-0.01741496	0.01119968	0.03674298	0.01813137	-0.4190555	-0.7016879
	-0.01739264	0.01108368	0.0721475	-0.06174053	-0.4190555	-0.7016879	-0.02767214	-0.09558852
5e+08	0.04599262	0.00465966	-0.5269463	-0.6202634	0.06893257	-0.04013225	-0.01532547	0.01425001
	-0.5269463	-0.6202634	-0.03077686	-0.09505685	-0.01531692	0.01436581	0.06553363	-0.06562889
	0.06893257	-0.04013225	-0.01531692	0.01436581	0.04702483	0.004753639	-0.5300752	-0.6199805
	-0.01532547	0.01425001	0.06553363	-0.06562889	-0.5300752	-0.6199805	-0.03028584	-0.09597937
5.1e+08	0.05210639	-0.01159687	-0.6226832	-0.5217808	0.05425343	-0.05202366	-0.01269498	0.01696309
	-0.6226832	-0.5217808	-0.03294435	-0.09570967	-0.01265819	0.01706918	0.05873768	-0.06773572
	0.05425343	-0.05202366	-0.01265819	0.01706918	0.05290634	-0.01177193	-0.6256986	-0.5209317
	-0.01269498	0.01696309	0.05873768	-0.06773572	-0.6256986	-0.5209317	-0.03248711	-0.09657309
5.2e+08	0.05294871	-0.02961298	-0.7004221	-0.4087203	0.03661405	-0.05909141	-0.009627372	0.0191359
