!$
! Info: Touchstone file created by Circ.  Input file=Intel_C2M_200G_13p5in_202208016_staggered.circ
!$
# Hz S RI R 50
0	0.0366601	1.129566e-23	-0.0001439074	1.762358e-20	0.0003836587	1.422471e-21	-0.0001397445	1.711377e-20
	-0.0001439075	1.762359e-20	0.03611253	6.409692e-24	-0.0001508153	1.846954e-20	0.0001642435	3.786965e-22
	0.0003837219	1.42348e-21	-0.0001508153	1.846955e-20	0.03666134	1.160106e-23	-0.0001439324	1.762664e-20
	-0.0001397445	1.711377e-20	0.0001642991	3.788179e-22	-0.0001439323	1.762662e-20	0.03611055	6.057169e-24
1e+07	0.04580768	0.002597045	-0.001074644	1.206278e-06	0.002677765	0.009145542	-8.018319e-05	-0.0001007389
	-0.001074644	1.206278e-06	0.04396285	0.003838694	-0.0006643312	0.0004302273	0.00354508	0.009110992
	0.002677765	0.009145542	-0.0006643312	0.0004302273	0.04555601	0.003286335	-0.000849716	5.836726e-05
	-8.018319e-05	-0.0001007389	0.00354508	0.009110992	-0.000849716	5.836726e-05	0.04406166	0.002829391
2e+07	0.05292292	-0.003534779	-0.001001501	-8.596929e-05	0.006908538	0.01665526	-0.0001131313	-0.0001181271
	-0.0010015	-8.596924e-05	0.05209593	-0.0009608882	-0.0007527536	0.0005068322	0.008691918	0.01587552
	0.006908626	0.01665515	-0.0007527535	0.0005068323	0.05354519	-0.002505765	-0.000806477	-0.0002541927
	-0.0001131313	-0.0001181271	0.008691923	0.0158755	-0.0008064771	-0.0002541927	0.05097132	-0.002413808
3e+07	0.0556587	-0.0134317	-0.001011087	-0.0001346092	0.01305689	0.0223149	-0.0001692603	-0.0001505021
	-0.001011087	-0.0001346092	0.05566242	-0.01016826	-0.000772364	0.000628984	0.01594271	0.02036421
	0.01305686	0.02231487	-0.000772364	0.000628984	0.05690414	-0.01261382	-0.0008236207	-0.0003408553
	-0.0001692602	-0.000150502	0.01594271	0.02036425	-0.0008236208	-0.0003408553	0.05369016	-0.01133953
4e+07	0.05479101	-0.02400941	-0.001047098	-0.0001176829	0.02033133	0.02571822	-0.0002425237	-0.0001656179
	-0.001047098	-0.0001176829	0.05521223	-0.02031016	-0.00075097	0.0007426838	0.02432623	0.02181084
	0.02033133	0.02571822	-0.00075097	0.0007426838	0.05642597	-0.02361423	-0.0008744919	-0.000358614
	-0.0002425237	-0.0001656179	0.02432624	0.02181086	-0.0008744919	-0.0003586139	0.05268339	-0.02095111
5e+07	0.05077103	-0.03399687	-0.001090004	-5.75945e-05	0.02794137	0.02665206	-0.0003221197	-0.0001581657
	-0.001090004	-5.759448e-05	0.05145219	-0.02979748	-0.000707097	0.0008366917	0.03268724	0.02005422
	0.02794138	0.02665207	-0.000707097	0.0008366917	0.05256667	-0.03411618	-0.0009366683	-0.000330536
	-0.0003221197	-0.0001581657	0.03268725	0.02005422	-0.0009366683	-0.000330536	0.04862379	-0.02979147
6e+07	0.04420195	-0.0423963	-0.00112629	3.414664e-05	0.03505478	0.02520891	-0.0004032595	-0.0001280917
	-0.00112629	3.414664e-05	0.0451537	-0.03765538	-0.0006592634	0.000909653	0.03989033	0.01530221
	0.03505478	0.02520891	-0.0006592634	0.000909653	0.04594348	-0.0430342	-0.0009954474	-0.0002697057
	-0.0004032595	-0.0001280917	0.03989033	0.01530219	-0.0009954474	-0.0002697057	0.04225939	-0.03696947
7e+07	0.03588601	-0.04853599	-0.001151646	0.0001589715	0.04093258	0.02175424	-0.0004814543	-7.541298e-05
	-0.001151646	0.0001589715	0.03719232	-0.04328527	-0.000623296	0.0009690583	0.04493885	0.008145993
	0.04093258	0.02175424	-0.000623296	0.0009690583	0.03738693	-0.0496269	-0.001042471	-0.0001872632
	-0.0004814543	-7.541298e-05	0.04493885	0.008145991	-0.001042471	-0.0001872633	0.0344398	-0.04194864
8e+07	0.02671462	-0.0520783	-0.001155805	0.0003118942	0.04501252	0.01687353	-0.0005504533	-1.469217e-06
	-0.001155805	0.0003118942	0.02847948	-0.04645338	-0.0006084575	0.001027212	0.04710159	-0.0005146316
	0.04501252	0.01687353	-0.0006084575	0.001027212	0.02782945	-0.0535032	-0.001091415	-5.508765e-06
	-0.0005504533	-1.469217e-06	0.04710159	-0.0005146303	-0.001091415	-5.508746e-06	0.02604808	-0.04454205
9e+07	0.01757971	-0.05299522	-0.001127462	0.0004705877	0.04697136	0.01129677	-0.0006068388	9.201769e-05
	-0.001127462	0.0004705877	0.01985055	-0.04724909	-0.0006238201	0.001104049	0.04600038	-0.009582379
	0.04697136	0.01129677	-0.0006238201	0.001104049	0.01821099	-0.05459661	-0.001094848	0.0002415656
	-0.0006068388	9.201768e-05	0.04600039	-0.009582383	-0.001094848	0.0002415657	0.01789464	-0.04487292
1e+08	0.009361113	-0.051558	-0.001053691	0.0006255194	0.04675657	0.005800991	-0.0006478628	0.0002038756
	-0.001053691	0.0006255194	0.01198925	-0.04601499	-0.0006939041	0.001228249	0.04165148	-0.01789515
	0.04675657	0.005800991	-0.0006939041	0.001228249	0.009436303	-0.05314359	-0.001014169	0.0004831993
	-0.0006478628	0.0002038756	0.04165148	-0.01789515	-0.001014169	0.0004831993	0.01069605	-0.04330109
1.1e+08	0.002352234	-0.04848148	-0.0009562243	0.0007970769	0.04453927	0.001148764	-0.0006692082	0.0003336325
	-0.0009562243	0.0007970769	0.005259408	-0.04321626	-0.000774543	0.001300375	0.03444926	-0.02434564
	0.04453927	0.001148764	-0.000774543	0.001300375	0.00202301	-0.04975007	-0.000914698	0.0006329392
	-0.0006692082	0.0003336325	0.03444925	-0.02434564	-0.000914698	0.0006329392	0.004595651	-0.04065749
1.2e+08	-0.00297563	-0.04380632	-0.0008555788	0.0009653224	0.04081916	-0.002008721	-0.0006642312	0.0004794535
	-0.0008555788	0.0009653224	3.067356e-05	-0.03933185	-0.0007910283	0.001427776	0.0252188	-0.02800571
	0.04081916	-0.00200872	-0.0007910283	0.001427776	-0.003530316	-0.04474447	-0.0008326303	0.0007801592
	-0.0006642312	0.0004794535	0.0252188	-0.02800571	-0.0008326303	0.0007801592	-0.0002112791	-0.03697128
1.3e+08	-0.006162621	-0.03825239	-0.000733542	0.001130972	0.03624012	-0.00326941	-0.0006277129	0.0006363852
	-0.000733542	0.001130972	-0.003627173	-0.03495525	-0.0007552272	0.001601493	0.01500047	-0.02831492
	0.03624012	-0.00326941	-0.0007552272	0.001601493	-0.006825548	-0.03886199	-0.0007416265	0.0009311853
	-0.0006277129	0.0006363852	0.01500047	-0.02831491	-0.0007416265	0.0009311853	-0.003551509	-0.03283211
1.4e+08	-0.007104519	-0.03257445	-0.0005821136	0.001291465	0.03153217	-0.002467716	-0.0005533243	0.0007962968
	-0.0005821136	0.001291465	-0.005844123	-0.0305855	-0.0006554329	0.001804542	0.004976387	-0.02507946
	0.03153217	-0.002467716	-0.0006554329	0.001804542	-0.007780341	-0.0328756	-0.0006290815	0.001087703
	-0.0005533243	0.0007962968	0.004976387	-0.02507946	-0.0006290815	0.001087703	-0.005550526	-0.02872692
1.5e+08	-0.005959366	-0.02748486	-0.0003948786	0.001440378	0.02742997	0.0003068955	-0.0004380265	0.0009495479
	-0.0003948786	0.001440378	-0.00688425	-0.02659473	-0.0004828901	0.002014665	-0.003659485	-0.01850691
	0.02742997	0.000306896	-0.0004828901	0.002014665	-0.00657001	-0.02751365	-0.0004832216	0.001245591
	-0.0004380264	0.0009495479	-0.003659484	-0.01850691	-0.0004832216	0.001245591	-0.006468188	-0.02500089
1.6e+08	-0.003101698	-0.02357776	-0.000167987	0.001567508	0.02458902	0.004725852	-0.0002816741	0.001085059
	-0.000167987	0.001567508	-0.007084399	-0.02320218	-0.0002361165	0.002207075	-0.009834428	-0.009193455
	0.02458902	0.004725852	-0.0002361165	0.002207075	-0.003586485	-0.02338303	-0.0002945256	0.001394664
	-0.0002816741	0.001085059	-0.009834427	-0.009193454	-0.0002945256	0.001394664	-0.006627725	-0.02184719
1.7e+08	0.0009376593	-0.02127157	9.840236e-05	0.001659946	0.02351165	0.01026214	-8.747306e-05	0.001191391
	9.840237e-05	0.001659946	-0.006789948	-0.02047014	7.820447e-05	0.002357947	-0.0127198	0.00193334
	0.02351165	0.01026214	7.820447e-05	0.002357947	0.0006215457	-0.02091125	-5.812536e-05	0.001519599
	-8.747306e-05	0.001191391	-0.0127198	0.001933341	-5.812536e-05	0.001519599	-0.006353137	-0.01930955
1.8e+08	0.00554445	-0.02077466	0.0003988901	0.001703889	0.02449223	0.01625446	0.000137818	0.001257949
	0.0003988901	0.001703889	-0.006293616	-0.01832342	0.0004464861	0.002447472	-0.01182975	0.01370944
	0.02449223	0.01625446	0.0004464861	0.002447472	0.005420676	-0.02031151	0.0002239972	0.001602332
	0.000137818	0.001257949	-0.01182975	0.01370944	0.0002239972	0.001602332	-0.005913056	-0.01730385
1.9e+08	0.01009683	-0.02207872	0.0007226779	0.001686897	0.02758561	0.02198495	0.0003843108	0.001276274
	0.0007226779	0.001686897	-0.005788947	-0.01659058	0.0008502997	0.002461824	-0.007084549	0.02485827
	0.02758561	0.02198495	0.0008502997	0.002461824	0.01017084	-0.02157543	0.0005421312	0.001625058
	0.0003843108	0.001276274	-0.007084549	0.02485827	0.0005421312	0.001625058	-0.005477876	-0.0156589
2e+08	0.01403854	-0.02497701	0.001054023	0.001600008	0.03260331	0.02676194	0.0006397883	0.001240997
	0.001054023	0.001600008	-0.005344034	-0.01506039	0.001276993	0.002391433	0.001171148	0.03413001
	0.03260331	0.02676194	0.001276993	0.002391433	0.01429786	-0.02449141	0.0008792949	0.001573685
	0.0006397883	0.001240997	0.001171149	0.03413001	0.0008792949	0.001573685	-0.00509708	-0.01417064
2.1e+08	0.01693567	-0.02910511	0.001374556	0.001440002	0.03913899	0.03000008	0.00089102	0.001150491
	0.001374556	0.001440002	-0.004902934	-0.01354325	0.001697244	0.002235558	0.0121965	0.04043996
	0.03913899	0.03000008	0.001697244	0.002235558	0.01735373	-0.0286863	0.001213393	0.001441111
	0.00089102	0.001150491	0.0121965	0.04043996	0.001213393	0.001441111	-0.004700668	-0.01266164
2.2e+08	0.01851774	-0.03399746	0.001665197	0.001209748	0.0466172	0.03128583	0.001125013	0.001006864
	0.001665197	0.001209748	-0.00431144	-0.01192475	0.002092827	0.001998689	0.02492736	0.04299057
	0.0466172	0.03128583	0.002092827	0.001998689	0.01905595	-0.03368195	0.001520387	0.001228497
	0.001125013	0.001006864	0.02492736	0.04299057	0.001520387	0.001228497	-0.004127373	-0.01103233
2.3e+08	0.01869273	-0.03915038	0.001908711	0.0009181065	0.05436237	0.03042234	0.001330217	0.0008155749
	0.001908711	0.0009181065	-0.003364923	-0.01020348	0.002448573	0.001688647	0.03808531	0.04136313
	0.05436237	0.03042234	0.002448573	0.001688647	0.01930564	-0.03895993	0.001777936	0.0009456229
	0.001330217	0.0008155749	0.03808531	0.04136313	0.001777936	0.0009456229	-0.003171132	-0.009295699
2.4e+08	0.01754177	-0.04408428	0.002091896	0.0005784536	0.06167818	0.02744888	0.001497416	0.0005845476
	0.002091896	0.0005784536	-0.001866784	-0.008504368	0.002752534	0.001314922	0.05030986	0.03556819
	0.06167818	0.02744888	0.002752534	0.001314922	0.01818163	-0.04402489	0.001968762	0.0006092855
	0.001497416	0.0005845476	0.05030986	0.03556819	0.001968762	0.0006092855	-0.001639049	-0.007590303
2.5e+08	0.01529377	-0.04839728	0.002206641	0.0002068468	0.06792672	0.02263103	0.001620179	0.0003230522
	0.002206641	0.0002068468	0.0003123295	-0.007066096	0.00299529	0.0008876518	0.06029997	0.02605142
	0.06792672	0.02263103	0.00299529	0.0008876518	0.01591528	-0.04845941	0.002082986	0.0002405812
	0.001620179	0.0003230522	0.06029997	0.02605142	0.002082986	0.0002405812	0.0005900429	-0.006164553
2.6e+08	0.01228461	-0.05180468	0.002250181	-0.0001803992	0.07259984	0.01642621	0.001694825	4.077024e-05
	0.002250181	-0.0001803992	0.003185224	-0.006203773	0.003169276	0.0004172305	0.06694923	0.01365458
	0.07259984	0.01642621	0.003169276	0.0004172305	0.01284954	-0.05196538	0.002118893	-0.0001386915
	0.001694825	4.077024e-05	0.06694923	0.01365458	0.002118893	-0.0001386915	0.00351807	-0.005340072
2.7e+08	0.008909752	-0.05416259	0.002224281	-0.0005686352	0.07537369	0.009428195	0.001719933	-0.000253318
	0.002224281	-0.0005686352	0.00661759	-0.006254492	0.003268149	-8.558715e-05	0.0694609	-0.0004640663
	0.07537369	0.009428195	0.003268149	-8.558715e-05	0.009390527	-0.05438812	0.002082093	-0.0005094147
	0.001719933	-0.000253318	0.0694609	-0.0004640664	0.002082093	-0.0005094147	0.00699834	-0.005455353
2.8e+08	0.005572297	-0.05547339	0.002133664	-0.0009461754	0.07614118	0.002296788	0.001695599	-0.0005512165
	0.002133664	-0.0009461754	0.01032074	-0.007513014	0.003286551	-0.0006095842	0.06743394	-0.01493994
	0.07614118	0.002296788	0.003286551	-0.0006095842	0.005954763	-0.05572301	0.001983274	-0.0008577076
	0.001695599	-0.0005512165	0.06743394	-0.01493994	0.001983274	-0.0008577076	0.0107302	-0.006801577
2.9e+08	0.002634663	-0.05587406	0.001984138	-0.001304619	0.07501936	-0.004316971	0.001622606	-0.0008461666
	0.001984138	-0.001304619	0.01387147	-0.01016719	0.003220234	-0.001142546	0.06091087	-0.02833382
	0.07501936	-0.004316971	0.003220234	-0.001142546	0.002919589	-0.05610525	0.001835032	-0.001176277
	0.001622606	-0.0008461666	0.06091087	-0.02833382	0.001835032	-0.001176277	0.01428012	-0.009559225
3e+08	0.0003789244	-0.05561165	0.001780925	-0.001638337	0.0723322	-0.009844754	0.001501693	-0.001132238
	0.001780925	-0.001638337	0.01675549	-0.01424369	0.003066463	-0.001671108	0.05038319	-0.03927231
	0.0723322	-0.009844754	0.003066463	-0.001671108	0.0005818487	-0.05578442	0.001648604	-0.001463909
	0.001501693	-0.001132238	0.05038319	-0.03927231	0.001648604	-0.001463909	0.01712698	-0.01374362
3.1e+08	-0.001022932	-0.05500653	0.001527593	-0.001943123	0.06857122	-0.01386274	0.001333114	-0.00140365
	0.001527593	-0.001943123	0.01843133	-0.01957157	0.002824443	-0.002181002	0.03675488	-0.04658553
	0.06857122	-0.01386274	0.002824443	-0.002181002	-0.0008735362	-0.05508851	0.00143126	-0.001723623
	0.001333114	-0.00140365	0.03675488	-0.04658553	0.00143126	-0.001723623	0.01872619	-0.01917028
3.2e+08	-0.001524013	-0.05440993	0.001225788	-0.002214516	0.06433676	-0.01613931	0.001116877	-0.001653865
	0.001225788	-0.002214516	0.01840626	-0.02577101	0.00249595	-0.002657283	0.02126387	-0.04942814
	0.06433676	-0.01613931	0.00249595	-0.002657283	-0.001389536	-0.05438	0.001184724	-0.001959812
	0.001116877	-0.001653865	0.02126387	-0.04942814	0.001184724	-0.001959812	0.01858802	-0.02544413
3.3e+08	-0.00120214	-0.05415903	0.0008760298	-0.002446272	0.06026785	-0.01665896	0.0008531683	-0.001875048
	0.0008760298	-0.002446272	0.01631707	-0.03227039	0.002085247	-0.003085135	0.005368761	-0.04737236
	0.06026785	-0.01665896	0.002085247	-0.003085135	-0.001037855	-0.05401038	0.0009054591	-0.002174875
	0.0008531683	-0.001875048	0.005368761	-0.04737236	0.0009054591	-0.002174875	0.0163568	-0.0319801
3.4e+08	-0.0002447222	-0.05453619	0.0004792561	-0.002629422	0.05696864	-0.01562296	0.0005434041	-0.002057719
	0.0004792561	-0.002629422	0.01200267	-0.03835391	0.001599374	-0.00345025	-0.009390731	-0.04046335
	0.05696864	-0.01562296	0.001599374	-0.00345025	-5.374915e-06	-0.05427754	0.0005864803	-0.002366354
	0.0005434041	-0.002057719	-0.009390731	-0.04046335	0.0005864803	-0.002366354	0.01188477	-0.03805182
3.5e+08	0.00107882	-0.05573591	3.873377e-05	-0.002752259	0.05493655	-0.01342525	0.0001913358	-0.00219092
	3.873377e-05	-0.002752259	0.005558897	-0.04323709	0.001047684	-0.003739485	-0.02154565	-0.0292267
	0.05493655	-0.01342525	0.001047684	-0.003739485	0.001434257	-0.05539174	0.0002205465	-0.002525226
	0.0001913358	-0.00219092	-0.02154565	-0.0292267	0.0002205465	-0.002525226	0.005284031	-0.04286847
3.6e+08	0.002454453	-0.05784496	-0.0004381616	-0.002801471	0.05450395	-0.0106044	-0.0001959641	-0.002263166
	-0.0004381616	-0.002801471	-0.002635961	-0.04616129	0.0004414644	-0.003940987	-0.02984772	-0.01462838
	0.05450395	-0.0106044	0.0004414644	-0.003940987	0.002957466	-0.05745211	-0.0001961909	-0.002636067
	-0.0001959641	-0.002263166	-0.02984772	-0.01462838	-0.0001961909	-0.002636067	-0.003047648	-0.04567152
3.7e+08	0.003564291	-0.06083527	-0.0009388081	-0.002763976	0.05579905	-0.007779295	-0.0006076176	-0.002263665
	-0.0009388081	-0.002763976	-0.0119308	-0.0464982	-0.0002060408	-0.004044324	-0.03340011	0.002013723
	0.05579905	-0.007779295	-0.0002060408	-0.004044324	0.004232793	-0.06044039	-0.0006608501	-0.002678902
	-0.0006076176	-0.002263665	-0.03340011	0.002013723	-0.0006608501	-0.002678902	-0.01244039	-0.04583943
3.8e+08	0.004126284	-0.06457335	-0.001445077	-0.002629477	0.05873077	-0.005574849	-0.001028742	-0.002183959
	-0.001445077	-0.002629477	-0.02145144	-0.0438477	-0.0008796277	-0.004040557	-0.03175297	0.01915575
	0.05873077	-0.005574849	-0.0008796277	-0.004040557	0.004962281	-0.06422759	-0.00116139	-0.002632736
	-0.001028742	-0.002183959	-0.03175297	0.01915575	-0.00116139	-0.002632736	-0.02200369	-0.04298523
3.9e+08	0.003926559	-0.06884241	-0.001934525	-0.002392803	0.06300095	-0.004546847	-0.001441417	-0.002019428
	-0.001934525	-0.002392803	-0.03018418	-0.03811643	-0.001562093	-0.003922487	-0.02495543	0.03517894
	0.06300095	-0.004546847	-0.001562093	-0.003922487	0.004915228	-0.06859471	-0.001676457	-0.002479875
	-0.001441417	-0.002019428	-0.02495543	0.03517894	-0.001676457	-0.002479875	-0.03071235	-0.03703534
4e+08	0.002842564	-0.07337212	-0.002382449	-0.00205568	0.06814104	-0.00511609	-0.001825932	-0.001770517
	-0.002382449	-0.00205568	-0.03708876	-0.02956376	-0.002233912	-0.003685114	-0.01355431	0.04854974
	0.06814104	-0.00511609	-0.002233912	-0.003685114	0.003953944	-0.07326523	-0.002177033	-0.002210009
	-0.001825932	-0.001770517	-0.01355431	0.04854974	-0.002177033	-0.002210009	-0.03752168	-0.02827111
4.1e+08	0.0008524843	-0.07787512	-0.002763246	-0.001627311	0.07356959	-0.007519407	-0.002162683	-0.001443229
	-0.002763246	-0.001627311	-0.04122306	-0.01880478	-0.002905742	-0.003297662	0.001455971	0.05796972
	0.07356959	-0.007519407	-0.002905742	-0.003297662	0.002044241	-0.07794018	-0.002629316	-0.001824404
	-0.002162683	-0.001443229	0.001455971	0.05796972	-0.002629316	-0.001824404	-0.04149244	-0.01733125
4.2e+08	-0.00196845	-0.08208249	-0.003056766	-0.001124647	0.07866093	-0.0117854	-0.002434031	-0.001049122
	-0.003056766	-0.001124647	-0.04186364	-0.006768354	-0.003522878	-0.00276602	0.01872824	0.06250254
	0.07866093	-0.0117854	-0.003522878	-0.00276602	-0.0007462801	-0.08233529	-0.003001093	-0.001334549
	-0.002434031	-0.001049122	0.01872824	0.06250254	-0.003001093	-0.001334549	-0.04191209	-0.005167362
4.3e+08	-0.005462209	-0.08577467	-0.003248587	-0.0005695182	0.0828188	-0.0177325	-0.002626189	-0.0006040032
	-0.003248587	-0.0005695182	-0.03860995	0.005385143	-0.004039699	-0.002114313	0.03669109	0.06166263
	0.0828188	-0.0177325	-0.004039699	-0.002114313	-0.004262419	-0.0862141	-0.003264817	-0.0007628057
	-0.002626189	-0.0006040032	0.03669109	0.06166263	-0.003264817	-0.0007628057	-0.03839848	0.007041886
4.4e+08	-0.009412561	-0.08880487	-0.003330665	1.34995e-05	0.08554281	-0.02499439	-0.002730285	-0.0001266005
	-0.003330665	1.34995e-05	-0.03145385	0.01637796	-0.004430494	-0.001362099	0.0536958	0.05546095
	0.08554281	-0.02499439	-0.004430494	-0.001362099	-0.008283873	-0.08941312	-0.0034016	-0.0001402831
	-0.002730285	-0.0001266005	0.0536958	0.05546095	-0.0034016	-0.0001402831	-0.03096741	0.01800662
4.5e+08	-0.01357419	-0.09111265	-0.00330228	0.0005997517	0.08648357	-0.03306349	-0.002742835	0.0003634429
	-0.00330228	0.0005997517	-0.02080978	0.02494746	-0.004673665	-0.0005356232	0.06816947	0.04440421
	0.08648357	-0.03306349	-0.004673665	-0.0005356232	-0.01255673	-0.09185729	-0.003403988	0.000498096
	-0.002742835	0.0003634429	0.06816947	0.04440421	-0.003403988	0.000498096	-0.02006081	0.02646062
4.6e+08	-0.01770445	-0.09272647	-0.003169059	0.001166889	0.08547795	-0.04135	-0.002665332	0.0008474401
	-0.003169059	0.001166889	-0.007500356	0.02998584	-0.004753966	0.0003330624	0.07875926	0.02944864
	0.08547795	-0.04135	-0.004753966	0.0003330624	-0.01682532	-0.09356413	-0.00327609	0.001118314
	-0.002665332	0.0008474401	0.07875926	0.02944864	-0.00327609	0.001118314	-0.006529144	0.03130182
4.7e+08	-0.02159314	-0.09375471	-0.002941182	0.001696867	0.0825641	-0.04924727	-0.002503295	0.001308873
	-0.002941182	0.001696867	0.007302236	0.03067087	-0.004664378	0.001208382	0.08445633	0.01191401
	0.0825641	-0.04924727	-0.004664378	0.001208382	-0.02086337	-0.09463634	-0.003032064	0.001691165
	-0.002503295	0.001308873	0.08445633	0.01191401	-0.003032064	0.001691165	0.008429809	0.03172115
4.8e+08	-0.02508726	-0.09436962	-0.002631156	0.002176458	0.07797406	-0.05619844	-0.00226483	0.001734352
	-0.002631156	0.002176458	0.02217581	0.0265709	-0.004407092	0.002053935	0.0846881	-0.006633988
	0.07797406	-0.05619844	-0.004407092	0.002053935	-0.02450096	-0.09524531	-0.002692681	0.002195735
	-0.00226483	0.001734352	0.0846881	-0.006633988	-0.002692681	0.002195735	0.02337276	0.0273098
4.9e+08	-0.02810914	-0.09478108	-0.002251643	0.002596928	0.0721061	-0.0617562	-0.001959262	0.002113604
