!$
! Info: Touchstone file created by Circ.  Input file=Intel_C2M_200G_13p5in_202208016_staggered.circ
!$
# Hz S RI R 50
0	0.03609993	5.939132e-24	0.0001226769	1.922172e-22	0.0001646374	3.822295e-22	0.0001226708	1.919304e-22
	0.0001226769	1.922172e-22	0.03611253	6.409692e-24	0.000122681	1.923771e-22	0.0001642435	3.786965e-22
	0.000164693	3.823519e-22	0.000122681	1.923791e-22	0.03609496	6.243246e-24	0.0001226728	1.920733e-22
	0.0001226708	1.919324e-22	0.0001642991	3.788179e-22	0.0001226728	1.920733e-22	0.03611055	6.057169e-24
1e+07	0.04403389	0.002828203	1.424691e-05	5.025138e-05	0.00353819	0.009053168	2.003933e-05	3.412355e-05
	1.424691e-05	5.025139e-05	0.04396285	0.003838694	1.281493e-05	6.261111e-05	0.00354508	0.009110992
	0.00353819	0.009053168	1.281493e-05	6.261111e-05	0.04394676	0.003901311	1.460865e-05	5.278258e-05
	2.003933e-05	3.412355e-05	0.00354508	0.009110992	1.460865e-05	5.278258e-05	0.04406166	0.002829391
2e+07	0.05093357	-0.002400293	2.677894e-05	3.814418e-05	0.008677642	0.01576262	1.498826e-05	1.917089e-05
	2.677895e-05	3.814419e-05	0.05209593	-0.0009608882	5.051806e-05	5.655146e-05	0.008691918	0.01587552
	0.008677646	0.01576261	5.051806e-05	5.655146e-05	0.05210869	-0.0008407682	3.00031e-05	4.161392e-05
	1.498825e-05	1.917089e-05	0.008691923	0.0158755	3.00031e-05	4.161392e-05	0.05097132	-0.002413808
3e+07	0.05365813	-0.01131165	4.201655e-05	2.653789e-05	0.01591682	0.02020202	1.220922e-05	1.541083e-05
	4.201655e-05	2.653789e-05	0.05566242	-0.01016826	7.911999e-05	3.889181e-05	0.01594271	0.02036421
	0.01591682	0.02020206	7.911999e-05	3.88918e-05	0.05571689	-0.009996331	4.726695e-05	2.938429e-05
	1.220922e-05	1.541082e-05	0.01594271	0.02036425	4.726695e-05	2.938429e-05	0.05369016	-0.01133953
4e+07	0.05266447	-0.02090405	5.105064e-05	1.266752e-05	0.02428931	0.02160733	1.277252e-05	1.035118e-05
	5.105064e-05	1.266752e-05	0.05521223	-0.02031016	9.570167e-05	1.442965e-05	0.02432623	0.02181084
	0.02428932	0.02160735	9.570167e-05	1.442965e-05	0.05532394	-0.02011069	5.768777e-05	1.430434e-05
	1.277252e-05	1.035118e-05	0.02432624	0.02181086	5.768777e-05	1.430434e-05	0.05268339	-0.02095111
5e+07	0.04862888	-0.02972728	5.435139e-05	-2.009971e-06	0.0326443	0.01981648	1.368539e-05	4.249138e-06
	5.435139e-05	-2.009971e-06	0.05145219	-0.02979748	0.0001011983	-1.232907e-05	0.03268724	0.02005422
	0.03264431	0.01981648	0.0001011983	-1.232907e-05	0.05162284	-0.02959571	6.181859e-05	-1.902063e-06
	1.368539e-05	4.249137e-06	0.03268725	0.02005422	6.181859e-05	-1.902063e-06	0.04862379	-0.02979147
6e+07	0.04229746	-0.03689389	5.266067e-05	-1.594501e-05	0.03985005	0.01503445	1.244652e-05	-9.069725e-07
	5.266066e-05	-1.594501e-05	0.0451537	-0.03765538	9.697485e-05	-3.789335e-05	0.03989033	0.01530221
	0.03985004	0.01503443	9.697485e-05	-3.789335e-05	0.045375	-0.03747542	6.043072e-05	-1.751954e-05
	1.244652e-05	-9.069699e-07	0.03989033	0.01530219	6.043072e-05	-1.751954e-05	0.04225939	-0.03696947
7e+07	0.03451774	-0.04186922	4.689123e-05	-2.791683e-05	0.04491196	0.007847991	9.66774e-06	-4.592369e-06
	4.689123e-05	-2.791683e-05	0.03719232	-0.04328527	8.49364e-05	-5.96494e-05	0.04493885	0.008145993
	0.04491196	0.007847989	8.49364e-05	-5.96494e-05	0.03744662	-0.04314707	5.446005e-05	-3.119511e-05
	9.66774e-06	-4.592368e-06	0.04493885	0.008145991	5.446005e-05	-3.119511e-05	0.0344398	-0.04194864
8e+07	0.02617059	-0.04446752	3.807157e-05	-3.706161e-05	0.0470988	-0.0008483617	6.074123e-06	-6.478368e-06
	3.807157e-05	-3.706161e-05	0.02847948	-0.04645338	6.717811e-05	-7.583187e-05	0.04710159	-0.0005146316
	0.0470988	-0.0008483603	6.717811e-05	-7.583187e-05	0.02874198	-0.04636918	4.495983e-05	-4.195212e-05
	6.074123e-06	-6.478368e-06	0.04710159	-0.0005146303	4.495983e-05	-4.195212e-05	0.02604808	-0.04454205
9e+07	0.01806449	-0.04481318	2.722839e-05	-4.289793e-05	0.04602991	-0.009962293	2.44738e-06	-6.52307e-06
	2.722839e-05	-4.289793e-05	0.01985055	-0.04724909	4.57705e-05	-8.548791e-05	0.04600038	-0.009582379
	0.04602992	-0.009962297	4.57705e-05	-8.548791e-05	0.0200924	-0.04722075	3.297613e-05	-4.921513e-05
	2.447379e-06	-6.52307e-06	0.04600039	-0.009582383	3.297613e-05	-4.921513e-05	0.01789464	-0.04487292
1e+08	0.0109138	-0.04326675	1.44895e-05	-4.533323e-05	0.04171685	-0.01833574	-6.195163e-07	-4.889509e-06
	1.44895e-05	-4.533323e-05	0.01198925	-0.04601499	2.111274e-05	-8.835586e-05	0.04165148	-0.01789515
	0.04171685	-0.01833574	2.111274e-05	-8.835586e-05	0.01218177	-0.04603293	1.85121e-05	-5.283791e-05
	-6.19516e-07	-4.889509e-06	0.04165148	-0.01789515	1.85121e-05	-5.283791e-05	0.01069605	-0.04330109
1.1e+08	0.004906917	-0.0406289	3.534344e-06	-4.03063e-05	0.03454826	-0.02486254	-1.545853e-06	-1.915229e-06
	3.534345e-06	-4.03063e-05	0.005259408	-0.04321626	5.674085e-07	-7.716949e-05	0.03444926	-0.02434564
	0.03454825	-0.02486253	5.674089e-07	-7.716949e-05	0.005335536	-0.04329345	5.551869e-06	-4.778426e-05
	-1.545853e-06	-1.915229e-06	0.03444925	-0.02434564	5.55187e-06	-4.778426e-05	0.004595651	-0.04065749
1.2e+08	0.000166834	-0.03702386	-2.880871e-06	-3.421925e-05	0.02534299	-0.02861476	-8.836724e-07	3.728985e-07
	-2.88087e-06	-3.421925e-05	3.067356e-05	-0.03933185	-1.138826e-05	-6.450774e-05	0.0252188	-0.02800571
	0.02534298	-0.02861476	-1.138826e-05	-6.450774e-05	-3.705842e-06	-0.03937854	-2.387059e-06	-4.126085e-05
	-8.836721e-07	3.728981e-07	0.0252188	-0.02800571	-2.387058e-06	-4.126085e-05	-0.0002112791	-0.03697128
1.3e+08	-0.003150274	-0.0329792	-4.970614e-06	-2.831952e-05	0.01513448	-0.02902889	2.390788e-07	1.875917e-06
	-4.970614e-06	-2.831952e-05	-0.003627173	-0.03495525	-1.123219e-05	-5.326336e-05	0.01500047	-0.02831492
	0.01513448	-0.02902889	-1.123219e-05	-5.326336e-05	-0.003741239	-0.03493698	-4.953401e-06	-3.477916e-05
	2.390789e-07	1.875917e-06	0.01500047	-0.02831491	-4.953401e-06	-3.477916e-05	-0.003551509	-0.03283211
1.4e+08	-0.005150054	-0.02895853	-4.093014e-06	-2.343129e-05	0.005099382	-0.02590529	1.655958e-06	2.695467e-06
	-4.093014e-06	-2.343129e-05	-0.005844123	-0.0305855	-1.012855e-05	-4.337715e-05	0.004976387	-0.02507946
	0.005099382	-0.02590529	-1.012855e-05	-4.337715e-05	-0.006017477	-0.03048891	-4.633431e-06	-2.920495e-05
	1.655958e-06	2.695467e-06	0.004976387	-0.02507946	-4.633431e-06	-2.920495e-05	-0.005550526	-0.02872692
1.5e+08	-0.006077843	-0.02530784	-2.990571e-06	-1.946023e-05	-0.003571492	-0.01944355	3.373429e-06	2.739025e-06
	-2.990572e-06	-1.946023e-05	-0.00688425	-0.02659473	-7.924336e-06	-3.49778e-05	-0.003659485	-0.01850691
	-0.003571491	-0.01944354	-7.924336e-06	-3.49778e-05	-0.007101954	-0.02640731	-3.788936e-06	-2.450023e-05
	3.373428e-06	2.739025e-06	-0.003659484	-0.01850691	-3.788936e-06	-2.450023e-05	-0.006468188	-0.02500089
1.6e+08	-0.006252273	-0.02222686	-1.58182e-06	-1.631857e-05	-0.009805474	-0.01023058	4.997835e-06	2.021787e-06
	-1.58182e-06	-1.631857e-05	-0.007084399	-0.02320218	-4.880729e-06	-2.818989e-05	-0.009834428	-0.009193455
	-0.009805473	-0.01023058	-4.880729e-06	-2.818989e-05	-0.007328818	-0.02291006	-2.693143e-06	-2.062002e-05
	4.997835e-06	2.021786e-06	-0.009834427	-0.009193454	-2.693143e-06	-2.062002e-05	-0.006627725	-0.02184719
1.7e+08	-0.006000302	-0.01976393	-3.883247e-08	-1.398544e-05	-0.01277038	0.0008152891	6.206928e-06	7.479986e-07
	-3.883256e-08	-1.398544e-05	-0.006789948	-0.02047014	-1.354901e-06	-2.302899e-05	-0.0127198	0.00193334
	-0.01277038	0.0008152894	-1.354901e-06	-2.302899e-05	-0.007036178	-0.02006218	-1.342545e-06	-1.754026e-05
	6.206928e-06	7.479985e-07	-0.0127198	0.001933341	-1.342545e-06	-1.754026e-05	-0.006353137	-0.01930955
1.8e+08	-0.005596238	-0.0178351	1.470021e-06	-1.236092e-05	-0.01197331	0.01253792	7.151955e-06	-1.151782e-06
	1.470021e-06	-1.236092e-05	-0.006293616	-0.01832342	2.308925e-06	-1.94455e-05	-0.01182975	0.01370944
	-0.0119733	0.01253792	2.308925e-06	-1.94455e-05	-0.006510427	-0.01779659	1.031e-07	-1.518424e-05
	7.151955e-06	-1.151782e-06	-0.01182975	0.01370944	1.030999e-07	-1.518424e-05	-0.005913056	-0.01730385
1.9e+08	-0.005215891	-0.01626463	2.801752e-06	-1.139332e-05	-0.0073244	0.02366592	7.408936e-06	-3.298444e-06
	2.801752e-06	-1.139332e-05	-0.005788947	-0.01659058	5.772077e-06	-1.734101e-05	-0.007084549	0.02485827
	-0.0073244	0.02366592	5.772077e-06	-1.734101e-05	-0.005942727	-0.01595377	1.498701e-06	-1.35293e-05
	7.408936e-06	-3.298444e-06	-0.007084549	0.02485827	1.498701e-06	-1.35293e-05	-0.005477876	-0.0156589
2e+08	-0.004910796	-0.01484101	3.821176e-06	-1.095364e-05	0.0008434816	0.03295084	6.915198e-06	-5.43817e-06
	3.821176e-06	-1.095364e-05	-0.005344034	-0.01506039	8.717334e-06	-1.649569e-05	0.001171148	0.03413001
	0.000843482	0.03295084	8.717334e-06	-1.649569e-05	-0.005405012	-0.01433494	2.698789e-06	-1.247342e-05
	6.915198e-06	-5.43817e-06	0.001171149	0.03413001	2.698788e-06	-1.247342e-05	-0.00509708	-0.01417064
2.1e+08	-0.004610214	-0.01337791	4.440566e-06	-1.087828e-05	0.01180175	0.03930494	5.712117e-06	-7.338549e-06
	4.440566e-06	-1.087828e-05	-0.004902934	-0.01354325	1.090493e-05	-1.66204e-05	0.0121965	0.04043996
	0.01180175	0.03930494	1.090493e-05	-1.66204e-05	-0.004849472	-0.01276102	3.596878e-06	-1.187702e-05
	5.712116e-06	-7.338549e-06	0.0121965	0.04043996	3.596878e-06	-1.187702e-05	-0.004700668	-0.01266164
2.2e+08	-0.004147365	-0.01176692	4.622966e-06	-1.099321e-05	0.02449717	0.04192327	3.911076e-06	-8.790088e-06
	4.622966e-06	-1.099321e-05	-0.00431144	-0.01192475	1.218581e-05	-1.73838e-05	0.02492736	0.04299057
	0.02449717	0.04192327	1.218581e-05	-1.73838e-05	-0.004134597	-0.01112422	4.130669e-06	-1.158445e-05
	3.911076e-06	-8.790088e-06	0.02492736	0.04299057	4.130669e-06	-1.158445e-05	-0.004127373	-0.01103233
2.3e+08	-0.003307596	-0.01001486	4.383822e-06	-1.112947e-05	0.0376594	0.04037604	1.682766e-06	-9.627987e-06
	4.383822e-06	-1.112947e-05	-0.003364923	-0.01020348	1.251085e-05	-1.844082e-05	0.03808531	0.04136313
	0.0376594	0.04037604	1.251085e-05	-1.844082e-05	-0.003069642	-0.009423922	4.285542e-06	-1.143782e-05
	1.682766e-06	-9.627987e-06	0.03808531	0.04136313	4.285542e-06	-1.143782e-05	-0.003171132	-0.009295699
2.4e+08	-0.001887072	-0.008256333	3.786114e-06	-1.113847e-05	0.04993206	0.03466016	-7.602255e-07	-9.748618e-06
	3.786114e-06	-1.113847e-05	-0.001866784	-0.008504368	1.192911e-05	-1.946188e-05	0.05030986	0.03556819
	0.04993206	0.03466016	1.192911e-05	-1.946188e-05	-0.00147107	-0.007781402	4.092149e-06	-1.129087e-05
	-7.602255e-07	-9.748618e-06	0.05030986	0.03556819	4.092149e-06	-1.129087e-05	-0.001639049	-0.007590303
2.5e+08	0.0002478928	-0.006740522	2.930881e-06	-1.090455e-05	0.06001355	0.02520654	-3.185188e-06	-9.119078e-06
	2.930881e-06	-1.090455e-05	0.0003123295	-0.007066096	1.057729e-05	-2.01596e-05	0.06029997	0.02605142
	0.06001355	0.02520654	1.057729e-05	-2.01596e-05	0.0007797009	-0.006426451	3.619845e-06	-1.102136e-05
	-3.185188e-06	-9.119078e-06	0.06029997	0.02605142	3.619845e-06	-1.102136e-05	0.0005900429	-0.006164553
2.6e+08	0.003111584	-0.005793082	1.944848e-06	-1.035373e-05	0.06679204	0.01284255	-5.362352e-06	-7.779022e-06
	1.944848e-06	-1.035373e-05	0.003185224	-0.006203773	8.662185e-06	-2.031068e-05	0.06694923	0.01365458
	0.06679204	0.01284255	8.662185e-06	-2.031068e-05	0.003688759	-0.00566311	2.966919e-06	-1.054018e-05
	-5.362352e-06	-7.779022e-06	0.06694923	0.01365458	2.966919e-06	-1.054018e-05	0.00351807	-0.005340072
2.7e+08	0.006568596	-0.005761102	9.664055e-07	-9.457819e-06	0.06946072	-0.001285946	-7.086608e-06	-5.834909e-06
	9.664055e-07	-9.457819e-06	0.00661759	-0.006254492	6.438144e-06	-1.977107e-05	0.0694609	-0.0004640663
	0.06946072	-0.001285946	6.438144e-06	-1.977107e-05	0.007119432	-0.005815605	2.249099e-06	-9.796998e-06
	-7.086608e-06	-5.834909e-06	0.0694609	-0.0004640664	2.249099e-06	-9.796998e-06	0.00699834	-0.005455353
2.8e+08	0.0103269	-0.006948184	1.315755e-07	-8.234418e-06	0.06760462	-0.01582345	-8.195765e-06	-3.448393e-06
	1.315754e-07	-8.234418e-06	0.01032074	-0.007513014	4.182081e-06	-1.84839e-05	0.06743394	-0.01493994
	0.06760462	-0.01582345	4.182081e-06	-1.84839e-05	0.01078542	-0.007165957	1.587384e-06	-8.782285e-06
	-8.195765e-06	-3.448393e-06	0.06743394	-0.01493994	1.587384e-06	-8.782285e-06	0.0107302	-0.006801577
2.9e+08	0.01395833	-0.009549663	-4.389468e-07	-6.742818e-06	0.06124939	-0.02933536	-8.583816e-06	-8.201327e-07
	-4.389468e-07	-6.742818e-06	0.01387147	-0.01016719	2.167578e-06	-1.648021e-05	0.06091087	-0.02833382
	0.06124939	-0.02933536	2.167578e-06	-1.648021e-05	0.01426972	-0.009891909	1.096215e-06	-7.525746e-06
	-8.583816e-06	-8.201327e-07	0.06091087	-0.02833382	1.096215e-06	-7.525746e-06	0.01428012	-0.009559225
3e+08	0.01694228	-0.01359809	-6.502756e-07	-5.076785e-06	0.05086817	-0.04044743	-8.208356e-06	1.828728e-06
	-6.502757e-07	-5.076785e-06	0.01675549	-0.01424369	6.409139e-07	-1.387274e-05	0.05038319	-0.03927231
	0.05086817	-0.04044743	6.409139e-07	-1.387274e-05	0.01706744	-0.01401278	8.731431e-07	-6.092072e-06
	-8.208356e-06	1.828728e-06	0.05038319	-0.03927231	8.731431e-07	-6.092072e-06	0.01712698	-0.01374362
3.1e+08	0.01873004	-0.01892697	-4.414624e-07	-3.355266e-06	0.03734678	-0.04798294	-7.092576e-06	4.275624e-06
	-4.414624e-07	-3.355266e-06	0.01843133	-0.01957157	-2.003265e-07	-1.084393e-05	0.03675488	-0.04658553
	0.03734678	-0.04798294	-2.003265e-07	-1.084393e-05	0.01864744	-0.0193545	9.901399e-07	-4.574275e-06
	-7.092576e-06	4.275624e-06	0.03675488	-0.04658553	9.901399e-07	-4.574275e-06	0.01872619	-0.01917028
3.2e+08	0.01882083	-0.02515925	2.095863e-07	-1.711764e-06	0.02190712	-0.05108379	-5.321818e-06	6.314651e-06
	2.095863e-07	-1.711764e-06	0.01840626	-0.02577101	-2.244355e-07	-7.629116e-06	0.02126387	-0.04942814
	0.02190712	-0.05108379	-2.244355e-07	-7.629116e-06	0.01852816	-0.02553731	1.486904e-06	-3.085595e-06
	-5.321818e-06	6.314651e-06	0.02126387	-0.04942814	1.486904e-06	-3.085595e-06	0.01858802	-0.02544413
3.3e+08	0.01684255	-0.03172456	1.283665e-06	-2.833812e-07	0.005995947	-0.04930396	-3.035891e-06	7.772434e-06
	1.283665e-06	-2.833812e-07	0.01631707	-0.03227039	6.220189e-07	-4.495879e-06	0.005368761	-0.04737236
	0.005995947	-0.04930396	6.220189e-07	-4.495879e-06	0.01635516	-0.03199417	2.366285e-06	-1.749951e-06
	-3.035891e-06	7.772434e-06	0.005368761	-0.04737236	2.366285e-06	-1.749951e-06	0.0163568	-0.0319801
3.4e+08	0.01262456	-0.0379061	2.720372e-06	8.004607e-07	-0.008852702	-0.04266634	-4.180735e-07	8.5214e-06
	2.720372e-06	8.004607e-07	0.01200267	-0.03835391	2.307133e-06	-1.720601e-06	-0.009390731	-0.04046335
	-0.008852702	-0.04266634	2.307133e-06	-1.720601e-06	0.0119741	-0.03801644	3.591621e-06	-6.915583e-07
	-4.180734e-07	8.5214e-06	-0.009390731	-0.04046335	3.591621e-06	-6.915583e-07	0.01188477	-0.03805182
3.5e+08	0.006252836	-0.04291578	4.420602e-06	1.429078e-06	-0.02116805	-0.03167252	2.318679e-06	8.48951e-06
	4.420602e-06	1.429078e-06	0.005558897	-0.04323709	4.713232e-06	4.366392e-07	-0.02154565	-0.0292267
	-0.02116805	-0.03167252	4.713232e-06	4.366392e-07	0.005483164	-0.04282753	5.086807e-06	-2.361704e-08
	2.318679e-06	8.48951e-06	-0.02154565	-0.0292267	5.086807e-06	-2.361703e-08	0.005284031	-0.04286847
3.6e+08	-0.001903669	-0.04598813	6.251647e-06	1.521424e-06	-0.02969178	-0.01726523	4.947328e-06	7.666868e-06
	6.251647e-06	1.521424e-06	-0.002635961	-0.04616129	7.64303e-06	1.757475e-06	-0.02984772	-0.01462838
	-0.02969178	-0.01726523	7.64303e-06	1.757475e-06	-0.002739438	-0.04567666	6.73884e-06	1.636025e-07
	4.947328e-06	7.666868e-06	-0.02984772	-0.01462838	6.73884e-06	1.636025e-07	-0.003047648	-0.04567152
3.7e+08	-0.01120144	-0.04648457	8.05527e-06	1.03619e-06	-0.0335093	-0.0007428389	7.243976e-06	6.108276e-06
	8.05527e-06	1.03619e-06	-0.0119308	-0.0464982	1.083351e-05	2.088918e-06	-0.03340011	0.002013723
	-0.0335093	-0.0007428383	1.083351e-05	2.088918e-06	-0.01204605	-0.04594157	8.404413e-06	-1.854754e-07
	7.243976e-06	6.108276e-06	-0.03340011	0.002013723	8.404413e-06	-1.854754e-07	-0.01244039	-0.04583943
3.8e+08	-0.02077061	-0.0439918	9.659155e-06	-1.973145e-08	-0.03214678	0.01636385	9.005748e-06	3.931556e-06
	9.659155e-06	-1.973145e-08	-0.02145144	-0.0438477	1.397705e-05	1.363014e-06	-0.03175297	0.01915575
	-0.03214678	0.01636385	1.397705e-05	1.363014e-06	-0.02156731	-0.04322535	9.920325e-06	-1.081359e-06
	9.005748e-06	3.931556e-06	-0.03175297	0.01915575	9.920325e-06	-1.081359e-06	-0.02200369	-0.04298523
3.9e+08	-0.02959723	-0.03840148	1.089178e-05	-1.585791e-06	-0.0256256	0.03244083	1.006885e-05	1.311045e-06
	1.089178e-05	-1.585791e-06	-0.03018418	-0.03811643	1.67487e-05	-3.899634e-07	-0.02495543	0.03517894
	-0.0256256	0.03244083	1.67487e-05	-3.899634e-07	-0.03029459	-0.03743613	1.111795e-05	-2.481952e-06
	1.006885e-05	1.311045e-06	-0.02495543	0.03517894	1.111795e-05	-2.481952e-06	-0.03071235	-0.03703534
4e+08	-0.03663542	-0.02995805	1.159984e-05	-3.547147e-06	-0.01446408	0.04594999	1.032495e-05	-1.534681e-06
	1.159984e-05	-3.547147e-06	-0.03708876	-0.02956376	1.883823e-05	-3.037481e-06	-0.01355431	0.04854974
	-0.01446408	0.04594999	1.883823e-05	-3.037481e-06	-0.03719198	-0.02883113	1.184111e-05	-4.290353e-06
	1.032495e-05	-1.534681e-06	-0.01355431	0.04854974	1.184111e-05	-4.290353e-06	-0.03752168	-0.02827111
4.1e+08	-0.04093241	-0.01926337	1.166678e-05	-5.740091e-06	0.0003694998	0.05557927	9.733721e-06	-4.359951e-06
	1.166678e-05	-5.740091e-06	-0.04122306	-0.01880478	1.998521e-05	-6.352275e-06	0.001455971	0.05796972
	0.0003694998	0.05557927	1.998521e-05	-6.352275e-06	-0.0413193	-0.01802252	1.196818e-05	-6.359642e-06
	9.733721e-06	-4.359951e-06	0.001455971	0.05796972	1.196818e-05	-6.359642e-06	-0.04149244	-0.01733125
4.2e+08	-0.04174933	-0.007237856	1.102866e-05	-7.964982e-06	0.01754882	0.06037067	8.331278e-06	-6.914427e-06
	1.102866e-05	-7.964982e-06	-0.04186364	-0.006768354	2.00032e-05	-1.002986e-05	0.01872824	0.06250254
	0.01754882	0.06037067	2.00032e-05	-1.002986e-05	-0.04195362	-0.005936163	1.142101e-05	-8.504847e-06
	8.331278e-06	-6.914427e-06	0.01872824	0.06250254	1.142101e-05	-8.504847e-06	-0.04191209	-0.005167362
4.3e+08	-0.03866828	0.004961061	9.686544e-06	-1.000452e-05	0.03551587	0.0598112	6.228914e-06	-8.967738e-06
	9.686544e-06	-1.000452e-05	-0.03860995	0.005385143	1.880396e-05	-1.371221e-05	0.03669109	0.06166263
	0.03551587	0.0598112	1.880396e-05	-1.371221e-05	-0.03869312	0.006270932	1.018003e-05	-1.051541e-05
	6.228914e-06	-8.967738e-06	0.03669109	0.06166263	1.018003e-05	-1.051541e-05	-0.03839848	0.007041886
4.4e+08	-0.0316636	0.016053	7.710785e-06	-1.164618e-05	0.05262623	0.05388113	3.603836e-06	-1.033243e-05
	7.710785e-06	-1.164618e-05	-0.03145385	0.01637796	1.641562e-05	-1.702459e-05	0.0536958	0.05546095
	0.05262623	0.05388113	1.641562e-05	-1.702459e-05	-0.03152678	0.01732277	8.296178e-06	-1.217925e-05
	3.603836e-06	-1.033243e-05	0.0536958	0.05546095	8.296178e-06	-1.217925e-05	-0.03096741	0.01800662
4.5e+08	-0.02113389	0.0247675	5.236794e-06	-1.270546e-05	0.06730187	0.04305611	6.826721e-07	-1.088367e-05
	5.236794e-06	-1.270546e-05	-0.02080978	0.02494746	1.298113e-05	-1.961212e-05	0.06816947	0.04440421
	0.06730187	0.04305611	1.298113e-05	-1.961212e-05	-0.02086541	0.02595776	5.885939e-06	-1.330539e-05
	6.826721e-07	-1.088367e-05	0.06816947	0.04440421	5.885939e-06	-1.330539e-05	-0.02006081	0.02646062
4.6e+08	-0.007888939	0.02998478	2.452963e-06	-1.304622e-05	0.07817538	0.02826379	-2.281231e-06	-1.057181e-05
	2.452963e-06	-1.304622e-05	-0.007500356	0.02998584	8.747266e-06	-2.117513e-05	0.07875926	0.02944864
	0.07817538	0.02826379	8.747266e-06	-2.117513e-05	-0.007527012	0.03106807	3.121648e-06	-1.374456e-05
	-2.281231e-06	-1.057181e-05	0.07875926	0.02944864	3.121648e-06	-1.374456e-05	-0.006529144	0.03130182
4.7e+08	0.006908181	0.03086756	-4.177801e-07	-1.259539e-05	0.08421507	0.01080061	-5.033413e-06	-9.426367e-06
	-4.177801e-07	-1.259539e-05	0.007302236	0.03067087	4.042972e-06	-2.149848e-05	0.08445633	0.01191401
	0.08421507	0.01080061	4.042972e-06	-2.149848e-05	0.007321238	0.03182814	2.154093e-07	-1.34046e-05
	-5.033413e-06	-9.426367e-06	0.08445633	0.01191401	2.154093e-07	-1.34046e-05	0.008429809	0.03172115
