!
!4 port subset of full cascaded channels using these ports:3 1 4 2
# Hz S RI R 50
0	0.014473	6.387351e-20	0.98554	-6.859813e-22	0.002330759	4.847037e-21	-0.002359947	2.927327e-19
	0.9855351	-6.859016e-22	0.01447576	6.387753e-20	-0.002352063	2.917753e-19	0.002351072	4.781657e-21
	0.002330375	4.847326e-21	-0.00235235	2.918101e-19	0.01422216	6.387151e-20	0.9858033	-6.860805e-22
	-0.002359957	2.927336e-19	0.002350986	4.781955e-21	0.9858033	-6.860004e-22	0.0137773	6.38797e-20
1e+07	0.02643433	0.03600804	0.9614048	-0.1876697	0.009424564	0.0325917	-0.005299709	-0.006036601
	0.9614048	-0.1876697	0.02643433	0.03600804	-0.00529971	-0.0060366	0.009424563	0.0325917
	0.009424564	0.0325917	-0.00529971	-0.0060366	0.02643208	0.03598669	0.9613954	-0.1876917
	-0.005299709	-0.006036601	0.009424563	0.0325917	0.9613954	-0.1876917	0.02643207	0.03598669
2e+07	0.04825115	0.06147362	0.9033578	-0.3615069	0.02795331	0.0596279	-0.01176354	-0.008819063
	0.9033578	-0.3615069	0.0482971	0.06147493	-0.01176548	-0.008817446	0.02795053	0.05962739
	0.02795282	0.05962695	-0.01176811	-0.008809682	0.04828565	0.06145308	0.9033502	-0.3615406
	-0.01176617	-0.008811296	0.02795004	0.05962645	0.9033502	-0.3615406	0.04828582	0.06145664
3e+07	0.07712996	0.07692512	0.8152132	-0.5177019	0.05476083	0.07774743	-0.01945517	-0.007140494
	0.8152132	-0.5177019	0.07710964	0.07697552	-0.01945659	-0.007143212	0.05476274	0.07774414
	0.0547608	0.0777474	-0.01945636	-0.007142894	0.07711345	0.07692515	0.8151929	-0.5177263
	-0.01945496	-0.007140178	0.0547627	0.07774411	0.8151929	-0.5177263	0.07711272	0.07692595
4e+07	0.1088733	0.08074784	0.7018891	-0.6519127	0.0858831	0.08505962	-0.0258489	-0.001050982
	0.7018891	-0.6519127	0.1088138	0.08064365	-0.02584242	-0.001052368	0.08588723	0.08506879
	0.08588301	0.08505966	-0.02584262	-0.001052546	0.1088219	0.08066716	0.701868	-0.6519475
	-0.02584906	-0.001051189	0.08588729	0.08506877	0.701868	-0.6519475	0.1088213	0.08065157
5e+07	0.1393318	0.0733582	0.5690022	-0.7612175	0.1173349	0.0813441	-0.02892903	0.008166027
	0.5690019	-0.7612175	0.1392702	0.07333662	-0.02892843	0.008163561	0.1173438	0.08134645
	0.1173339	0.08134474	-0.02892854	0.008163356	0.13927	0.07330826	0.5689625	-0.7612601
	-0.02892912	0.008165772	0.117346	0.08134416	0.5689628	-0.76126	0.1392607	0.07330216
6e+07	0.1652333	0.05651622	0.4218811	-0.8439969	0.1456238	0.06760584	-0.02762781	0.01853057
	0.4218794	-0.8439929	0.1652813	0.0565024	-0.02762709	0.01853718	0.1456188	0.06760159
	0.1456218	0.06760406	-0.02762754	0.01853637	0.1652044	0.05646556	0.4218118	-0.8440302
	-0.02762809	0.01852975	0.1456191	0.06760245	0.4218114	-0.84403	0.1652154	0.05646493
7e+07	0.1843373	0.03258709	0.2653599	-0.8995647	0.1679812	0.04572879	-0.02191328	0.02792259
	0.265359	-0.8995606	0.1843804	0.03254605	-0.02190804	0.02792997	0.167974	0.04572721
	0.1679796	0.04572645	-0.02190903	0.02792913	0.1842894	0.03253357	0.2652873	-0.8995729
	-0.02191395	0.02792177	0.1679746	0.04572793	0.2652868	-0.8995726	0.1843029	0.03252232
8e+07	0.1951653	0.004160335	0.1037766	-0.9278335	0.1824928	0.01812866	-0.01267549	0.03450375
	0.1037769	-0.9278339	0.1951507	0.004180844	-0.01267464	0.03450863	0.1824935	0.0181223
	0.1824912	0.01812671	-0.01267505	0.03450807	0.1950844	0.004133983	0.1036819	-0.9278562
	-0.01267634	0.03450296	0.1824932	0.01812303	0.1036815	-0.9278558	0.1950827	0.004145903
9e+07	0.1970134	-0.02593094	-0.05893076	-0.9290719	0.1880333	-0.01252921	-0.001481464	0.03705413
	-0.05893084	-0.9290717	0.1970153	-0.0259348	-0.001481368	0.03705483	0.1880354	-0.0125285
	0.1880341	-0.01252922	-0.001481349	0.0370548	0.1969294	-0.02595275	-0.0590423	-0.929073
	-0.001481519	0.03705364	0.1880351	-0.01252879	-0.05904221	-0.9290731	0.1969311	-0.02595293
1e+08	0.190052	-0.05508973	-0.2190732	-0.9037081	0.1842206	-0.04345886	0.009786208	0.03515886
	-0.2190732	-0.9037081	0.1900521	-0.05508993	0.009786105	0.03515858	0.1842206	-0.04345871
	0.1842206	-0.04345869	0.009786074	0.03515872	0.1899567	-0.05509493	-0.2191982	-0.9036878
	0.009786177	0.035159	0.1842206	-0.04345867	-0.2191982	-0.9036878	0.1899567	-0.05509463
1.1e+08	0.1750634	-0.08098095	-0.3730608	-0.8523247	0.1713567	-0.07189547	0.019309	0.02923279
	-0.3730608	-0.8523247	0.1750681	-0.08097437	0.0192937	0.02922991	0.1713885	-0.07189797
	0.1713566	-0.07189548	0.01929366	0.02922996	0.1748825	-0.08095113	-0.3731936	-0.8522793
	0.01930899	0.02923285	0.1713885	-0.07189792	-0.3731936	-0.8522793	0.1750249	-0.0809989
1.2e+08	0.1532054	-0.1011402	-0.5171992	-0.7757369	0.1505756	-0.09522773	0.02550395	0.0204354
	-0.5171992	-0.775737	0.1532048	-0.1011446	0.02551385	0.02041926	0.1505419	-0.09522687
	0.1505756	-0.09522772	0.02551404	0.02041921	0.153133	-0.1011763	-0.5173334	-0.7756623
	0.02550396	0.02043536	0.1505419	-0.09522683	-0.5173333	-0.7756623	0.1530417	-0.1010707
1.3e+08	0.1264553	-0.1137251	-0.6476018	-0.6750701	0.1235575	-0.1111073	0.02756128	0.01048846
	-0.6476018	-0.6750701	0.1264572	-0.1137252	0.02756173	0.01048476	0.1235798	-0.111107
	0.1235576	-0.1111072	0.02756159	0.01048474	0.1263377	-0.1136489	-0.6477304	-0.6749619
	0.02756198	0.01048845	0.1235797	-0.1111069	-0.6477305	-0.6749619	0.1263496	-0.1137235
1.4e+08	0.09735553	-0.1174041	-0.7601177	-0.552002	0.09287341	-0.1177001	0.02552297	0.001335086
	-0.7601176	-0.5520019	0.09734012	-0.1174205	0.02546448	0.001371975	0.09303191	-0.1177008
	0.09287356	-0.1177	0.02546437	0.001371952	0.09731331	-0.117127	-0.7602322	-0.5518584
	0.02552275	0.001335124	0.09303176	-0.1177008	-0.7602322	-0.5518585	0.09718155	-0.1175761
1.5e+08	0.06887077	-0.1116681	-0.8504096	-0.409069	0.06184736	-0.1140029	0.02018573	-0.005254526
	-0.8504095	-0.409069	0.06884412	-0.1116812	0.02017453	-0.005210671	0.06198662	-0.114011
	0.06184749	-0.1140029	0.02017448	-0.005210693	0.0688889	-0.1114574	-0.8505005	-0.4088923
	0.02018566	-0.005254535	0.06198649	-0.1140109	-0.8505006	-0.4088924	0.06866429	-0.1117404
1.6e+08	0.04417402	-0.09699391	-0.9142097	-0.2499455	0.03412169	-0.10017	0.0132946	-0.008106816
	-0.9142098	-0.2499455	0.04421173	-0.09698444	0.01328742	-0.008131789	0.03400596	-0.1001529
	0.03412151	-0.1001699	0.01328739	-0.008131817	0.04403748	-0.09698317	-0.9142679	-0.2497429
	0.01329457	-0.00810685	0.03400606	-0.100153	-0.9142678	-0.2497428	0.0442377	-0.09685564
1.7e+08	0.02627774	-0.075028	-0.9477559	-0.07963023	0.01313992	-0.07773035	0.00687563	-0.007099844
	-0.9477562	-0.07963031	0.02651754	-0.07502944	0.006854994	-0.007131258	0.0127231	-0.0776121
	0.01313949	-0.07773	0.006854987	-0.007131279	0.02609049	-0.07502433	-0.9477701	-0.07940766
	0.006875628	-0.007099873	0.01272345	-0.07761232	-0.9477698	-0.07940763	0.02664175	-0.0749053
1.8e+08	0.01759521	-0.04853724	-0.9483732	0.09559461	0.001573805	-0.049528	0.002756199	-0.003083683
	-0.9483734	0.0955947	0.01803889	-0.04872975	0.002822879	-0.003110401	0.001194024	-0.04928834
	0.001573585	-0.04952761	0.002822896	-0.003110416	0.01768169	-0.04853003	-0.9483461	0.09583007
	0.002756214	-0.003083707	0.001194303	-0.04928862	-0.9483459	0.09583003	0.0179337	-0.04860505
1.9e+08	0.01888402	-0.02136316	-0.9150918	0.2685336	0.001492203	-0.01905333	0.002040753	0.002266112
	-0.9150912	0.2685332	0.02022317	-0.02160756	0.002423145	0.002125633	0.0005023304	-0.01949726
	0.001492449	-0.01905457	0.00242312	0.002125601	0.01962943	-0.02157861	-0.9150142	0.2687715
	0.002040728	0.002266088	0.0005016205	-0.01949608	-0.9150148	0.2687719	0.01950185	-0.02127669
2e+08	0.03063476	0.003217858	-0.8489847	0.4317664	0.01197421	0.008320837	0.005167241	0.006951407
	-0.8489856	0.4317646	0.03164864	0.001827036	0.005369522	0.006392503	0.01127739	0.008563381
	0.01196701	0.00831438	0.00536792	0.006393735	0.03106319	0.002352918	-0.8488489	0.4319864
	0.005165769	0.006952731	0.0112639	0.00858259	-0.8488522	0.4319903	0.03126888	0.002753592
2.1e+08	0.0507673	0.0200321	-0.753096	0.5784509	0.03164362	0.02995953	0.01098866	0.008542026
	-0.7530942	0.5784493	0.05041877	0.01998975	0.01081064	0.008547893	0.03166432	0.02996657
	0.03164689	0.02995912	0.01081099	0.008547967	0.05057028	0.02002578	-0.7529253	0.5786569
	0.01098901	0.008542108	0.03166495	0.02996932	-0.7529271	0.5786585	0.05066205	0.02000896
2.2e+08	0.07471533	0.02881954	-0.6321924	0.7030309	0.05783944	0.04246857	0.01725782	0.006920153
	-0.6321931	0.7030319	0.07488872	0.02870731	0.01740293	0.006777487	0.0578482	0.04245913
	0.05783911	0.04246916	0.01740281	0.006777505	0.07484755	0.0286885	-0.6319833	0.7032073
	0.01725778	0.006920196	0.05784781	0.04245861	-0.6319857	0.7032099	0.07478186	0.02879822
2.3e+08	0.1001864	0.02801465	-0.4919218	0.8015911	0.08649994	0.04464442	0.02257888	0.001759777
	-0.4919221	0.8015916	0.1002266	0.02795151	0.02265125	0.001589743	0.08650729	0.04463459
	0.0864999	0.04464482	0.02265121	0.001589767	0.1001988	0.02789529	-0.4916812	0.8017364
	0.02257885	0.001759792	0.08650718	0.04463424	-0.4916809	0.8017358	0.1002076	0.02799325
2.4e+08	0.1234397	0.01826669	-0.3382195	0.8719052	0.1139377	0.03667486	0.02519108	-0.005940045
	-0.3382195	0.8719052	0.1234385	0.01826473	0.02519138	-0.005953464	0.1139379	0.03667463
	0.1139377	0.03667487	0.02519136	-0.005953454	0.1234128	0.01821136	-0.3379473	0.8720043
	0.02519106	-0.005940033	0.1139379	0.03667461	-0.3379473	0.8720043	0.1234153	0.01821506
2.5e+08	0.141778	0.001256789	-0.1767732	0.9131246	0.1369696	0.01993057	0.02417956	-0.01446552
	-0.1767732	0.9131245	0.1418077	0.001253719	0.02430288	-0.01438478	0.1369625	0.01993107
	0.1369696	0.01993057	0.02430288	-0.01438478	0.1417208	0.001225858	-0.1764776	0.9131744
	0.02417956	-0.01446551	0.1369625	0.01993108	-0.1764777	0.9131746	0.1417609	0.001170384
2.6e+08	0.1534462	-0.02070407	-0.01276948	0.9254399	0.1532215	-0.00341396	0.01980567	-0.02207904
	-0.01276951	0.9254404	0.1534353	-0.02083453	0.01980007	-0.02203204	0.1532162	-0.003408239
	0.1532215	-0.00341409	0.01980006	-0.02203202	0.1533874	-0.02079938	-0.01245802	0.9254449
	0.01980564	-0.02207904	0.1532163	-0.003408212	-0.01245799	0.9254445	0.1533496	-0.0208427
2.7e+08	0.1575019	-0.04519935	0.1491799	0.9097197	0.1611968	-0.03083389	0.01269017	-0.02742302
	0.1491798	0.9097172	0.1574873	-0.04535568	0.01265992	-0.02742742	0.1612874	-0.03062889
	0.1611963	-0.03083213	0.01265999	-0.02742723	0.1573903	-0.04530432	0.1494989	0.90967
	0.01269024	-0.02742283	0.1612861	-0.03062888	0.1494991	0.9096725	0.1573877	-0.04532949
2.8e+08	0.1537829	-0.06927881	0.304936	0.8672442	0.1605115	-0.05925597	0.004273832	-0.02970001
	0.3049378	0.8672375	0.1538904	-0.07027823	0.00397847	-0.02964906	0.1604144	-0.05941797
	0.1605214	-0.0592642	0.003975577	-0.02964618	0.1536845	-0.06977786	0.3052601	0.8671382
	0.00427077	-0.02969675	0.1603585	-0.05943671	0.3052567	0.8671406	0.1537328	-0.06981254
2.9e+08	0.1430879	-0.09116273	0.4507994	0.7996135	0.1510487	-0.08628124	-0.004164603	-0.02870491
	0.4508	0.7996124	0.1430515	-0.09286398	-0.004528422	-0.02844117	0.1509742	-0.08626999
	0.1510548	-0.08628508	-0.004528833	-0.02844021	0.1429076	-0.09197318	0.451115	0.7994546
	-0.004164992	-0.02870377	0.1509529	-0.08627014	0.4511144	0.7994557	0.1429477	-0.09203066
3e+08	0.1261455	-0.1082357	0.583217	0.708625	0.1339503	-0.1093266	-0.01109319	-0.02502917
	0.5832161	0.708623	0.1265063	-0.1118219	-0.01170777	-0.02414708	0.1338644	-0.1091437
	0.1339538	-0.1093299	-0.01170778	-0.02414628	0.1262103	-0.1099425	0.5835152	0.7084156
	-0.01109319	-0.02502822	0.1338483	-0.1091411	0.5835161	0.7084177	0.1261337	-0.1100368
3.1e+08	0.104791	-0.1222005	0.6988214	0.5964303	0.1107779	-0.1260382	-0.01583658	-0.01864807
	0.6988214	0.59643	0.1055413	-0.1224061	-0.01621844	-0.01874026	0.1106859	-0.1260574
	0.1107796	-0.126041	-0.01621819	-0.01873966	0.1049971	-0.122187	0.6990784	0.5961496
	-0.01583629	-0.01864742	0.1106739	-0.1260533	0.6990783	0.5961498	0.105054	-0.1222798
3.2e+08	0.0815237	-0.1277459	0.7942915	0.4655196	0.08364918	-0.1350939	-0.01773244	-0.01218434
	0.7942897	0.4655184	0.08159562	-0.127845	-0.01780934	-0.01218212	0.08362975	-0.1350966
	0.08364946	-0.1350942	-0.01780906	-0.01218186	0.08142365	-0.1276787	0.7944983	0.4651805
	-0.01773223	-0.01218412	0.08362456	-0.1350948	0.794504	0.4651841	0.08143802	-0.1277047
3.3e+08	0.0577025	-0.12608	0.866431	0.3189655	0.05523712	-0.135448	-0.01683086	-0.00638654
	0.8664338	0.3189665	0.05769528	-0.1259858	-0.01677485	-0.006401906	0.0552533	-0.1354447
	0.05523699	-0.1354475	-0.01677529	-0.006402148	0.0575954	-0.1259152	0.8665892	0.3185831
	-0.01683133	-0.006386795	0.05526038	-0.1354487	0.8665864	0.318582	0.05758765	-0.1258888
3.4e+08	0.03586984	-0.1173493	0.9122921	0.1605357	0.02840262	-0.1270267	-0.01394906	-0.002392903
	0.9122925	0.1605355	0.03594761	-0.117126	-0.01382519	-0.002456323	0.02844736	-0.1270089
	0.02840393	-0.1270237	-0.01382755	-0.002456789	0.0358352	-0.1171244	0.9123788	0.1601142
	-0.01395152	-0.002393411	0.02847616	-0.1270324	0.9123784	0.1601144	0.03582714	-0.1170494
3.5e+08	0.0183212	-0.1025213	0.9293622	-0.00521313	0.006005038	-0.1107166	-0.01028716	-0.0008191768
	0.9293722	-0.005213681	0.01852151	-0.1022666	-0.01013403	-0.0009343604	0.00607762	-0.1106692
	0.006007572	-0.1107135	-0.0101406	-0.0009339903	0.01837312	-0.1022889	0.9293744	-0.005659258
	-0.01029396	-0.0008188359	0.006151846	-0.1107362	0.9293691	-0.005658731	0.01838616	-0.1021776
3.6e+08	0.006941134	-0.08335907	0.9159394	-0.1729143	-0.009469838	-0.08839656	-0.007179427	-0.001617893
	0.915958	-0.1729185	0.0072372	-0.08315051	-0.00702058	-0.00178078	-0.009369975	-0.08829241
	-0.009466379	-0.08839411	-0.007036775	-0.001776661	0.007060491	-0.08315921	0.9158787	-0.1733719
	-0.007195876	-0.001613731	-0.00918502	-0.08846467	0.9158555	-0.1733669	0.007109292	-0.0830339
3.7e+08	0.002902767	-0.06226636	0.8714364	-0.3365545	-0.01629717	-0.06279062	-0.005752782	-0.004084863
	0.8714973	-0.3365779	0.00324044	-0.06214545	-0.005604699	-0.0042902	-0.01618726	-0.0625935
	-0.01629406	-0.06278957	-0.005650266	-0.004269414	0.003059193	-0.06211808	0.8713248	-0.3370188
	-0.005798826	-0.004063783	-0.01563068	-0.06312258	0.8712683	-0.3369971	0.003145311	-0.06200713
3.8e+08	0.006394399	-0.04199582	0.7970662	-0.4896849	-0.01387081	-0.03716599	-0.00661652	-0.007044305
	0.7968623	-0.4898936	0.006712829	-0.04194935	-0.006493732	-0.00728533	-0.01376217	-0.03682831
	-0.01386322	-0.0371552	-0.006324922	-0.007141407	0.006559539	-0.04190054	0.7966078	-0.4903064
	-0.006446464	-0.006900656	-0.01673124	-0.03860129	0.7968119	-0.4900978	0.006664396	-0.04181029
3.9e+08	0.01660404	-0.02514863	0.6945595	-0.6267674	-0.002821252	-0.01475768	-0.009701666	-0.00918233
	0.6945006	-0.626768	0.01687157	-0.02519183	-0.009618241	-0.009447138	-0.002636568	-0.01430458
	-0.002814662	-0.01475815	-0.009575625	-0.009448869	0.01675854	-0.02509839	0.6941666	-0.6271332
	-0.00965949	-0.00918425	-0.003308557	-0.01427401	0.6942255	-0.6271326	0.01686751	-0.0250761
4e+08	0.03169167	-0.01391082	0.5683683	-0.7418403	0.01511336	0.00185002	-0.01427578	-0.00941991
	0.5683445	-0.7418387	0.03187452	-0.01395596	-0.01424196	-0.009688118	0.01535751	0.001898358
	0.01511709	0.00184885	-0.01422341	-0.009691667	0.03182465	-0.01389558	0.5679419	-0.7421409
	-0.01425797	-0.009423342	0.01506242	0.001906149	0.5679657	-0.7421426	0.03189955	-0.01388128
4.1e+08	0.04920262	-0.009451995	0.4234736	-0.8309133	0.03738217	0.01033279	-0.01918331	-0.007214175
	0.4234606	-0.8309065	0.04933329	-0.009504857	-0.01919963	-0.007455445	0.03744014	0.01036443
	0.03738447	0.01033101	-0.01919072	-0.007459043	0.04930754	-0.009464565	0.4230026	-0.8311338
	-0.01917517	-0.00721734	0.03729565	0.0103711	0.4230138	-0.8311362	0.0493661	-0.009477016
4.2e+08	0.06652625	-0.01197779	0.2656093	-0.8911978	0.06070212	0.01013496	-0.02318268	-0.002671955
	0.2656049	-0.8911972	0.06660065	-0.01202137	-0.02323216	-0.002849376	0.06072129	0.01016229
	0.06070316	0.01013468	-0.02322823	-0.002852238	0.06659571	-0.01201228	0.2651074	-0.8913406
	-0.02317939	-0.002674177	0.06065507	0.01016848	0.26511	-0.8913368	0.06662248	-0.01203344
4.3e+08	0.0812605	-0.0207086	0.1007242	-0.9213587	0.08210994	0.001663657	-0.02528081	0.00352645
	0.1007227	-0.9213556	0.08128802	-0.02072992	-0.02532294	0.003445763	0.08211611	0.001675099
	0.08211026	0.001663244	-0.02532185	0.003444345	0.08128422	-0.02075806	0.1002	-0.9214053
	-0.02527995	0.003525488	0.082095	0.001679239	0.1002011	-0.9214038	0.08128876	-0.02076982
4.4e+08	0.09157059	-0.03412615	-0.06543345	-0.9213082	0.09905284	-0.0137264	-0.0249592	0.01035193
	-0.06543304	-0.9213103	0.09156323	-0.03411764	-0.02493889	0.01037637	0.09905086	-0.01373022
	0.09905271	-0.01372634	-0.02493906	0.01037686	0.09154001	-0.03417498	-0.06596406	-0.9212685
	-0.02495939	0.01035224	0.09905614	-0.01373177	-0.06596429	-0.9212711	0.09154061	-0.03417273
4.5e+08	0.09635742	-0.05028576	-0.2275543	-0.892012	0.1096842	-0.03399943	-0.02224494	0.01671156
	-0.2275542	-0.8920155	0.09633133	-0.05024571	-0.02212767	0.01681213	0.1096747	-0.03401395
	0.1096836	-0.03399907	-0.0221281	0.01681428	0.09627243	-0.05031576	-0.228077	-0.8918773
	-0.0222452	0.0167128	0.1096936	-0.03402194	-0.2280793	-0.8918828	0.09628171	-0.05030746
4.6e+08	0.09527752	-0.06712731	-0.3808712	-0.8351757	0.1129746	-0.05675489	-0.01763518	0.02170509
	-0.3808713	-0.8351776	0.09525069	-0.06706506	-0.01743711	0.02183221	0.1129604	-0.05677322
	0.1129746	-0.05675414	-0.01743744	0.02183506	0.09515101	-0.06712405	-0.3813761	-0.8349573
	-0.01763494	0.02170653	0.1129823	-0.05678592	-0.381376	-0.8349554	0.09516937	-0.06711986
4.7e+08	0.08866721	-0.08272188	-0.521166	-0.7530841	0.1087158	-0.07950538	-0.01192549	0.02479521
	-0.5211668	-0.7530863	0.08864978	-0.08265599	-0.01169468	0.02490717	0.1087013	-0.07952137
	0.108716	-0.07950469	-0.01169471	0.02490941	0.08851411	-0.08267975	-0.5216337	-0.752774
	-0.01192496	0.02479637	0.108719	-0.07953393	-0.5216329	-0.7527718	0.08853482	-0.08268553
4.8e+08	0.07740572	-0.09544819	-0.6447159	-0.6484505	0.09745362	-0.09990965	-0.005999732	0.02587256
	-0.6447156	-0.648451	0.07739448	-0.09539664	-0.005778877	0.02594943	0.09744553	-0.0999189
	0.09745363	-0.09990918	-0.005778853	0.02595058	0.07723971	-0.09536604	-0.6451322	-0.6480555
	-0.005999312	0.0258731	0.09745512	-0.09992567	-0.6451322	-0.6480553	0.07725536	-0.09538374
4.9e+08	0.06276675	-0.1041011	-0.7482437	-0.5243646	0.08038425	-0.1159606	-0.0006324572	0.02522026
	-0.7482445	-0.5243657	0.06274934	-0.1040731	-0.000446823	0.02526166	0.08038924	-0.1159618
	0.08038427	-0.1159607	-0.0004470767	0.02526194	0.06259814	-0.1039789	-0.7485958	-0.5238939
	-0.0006324955	0.0252203	0.08039047	-0.115959	-0.748595	-0.5238928	0.06260273	-0.1040072
5e+08	0.04626962	-0.1079521	-0.8288923	-0.3842875	0.05922378	-0.1261376	0.003658576	0.02340053
	-0.8288907	-0.3842871	0.04623397	-0.1079454	0.003798058	0.02341521	0.05924325	-0.1261305
	0.05922297	-0.1261375	0.003797485	0.0234151	0.04610883	-0.10779	-0.8291581	-0.3837464
	0.003658098	0.02340046	0.05924062	-0.1261205	-0.8291638	-0.3837488	0.04609875	-0.107824
5.1e+08	0.02953784	-0.1067767	-0.8842269	-0.2320676	0.03604844	-0.1295239	0.006691771	0.02109472
	-0.8842289	-0.2320684	0.02948104	-0.1067805	0.006784789	0.02109298	0.0360799	-0.1295116
	0.03604709	-0.1295242	0.006784136	0.02109293	0.02939792	-0.1065767	-0.884402	-0.2314748
	0.006691179	0.02109474	0.03607726	-0.1294991	-0.8844046	-0.2314748	0.02937373	-0.1066091
5.2e+08	0.01415924	-0.1008579	-0.9123312	-0.0719795	0.01310977	-0.1258931	0.00862459	0.01893286
	-0.9123333	-0.07197971	0.01409154	-0.1008605	0.008678093	0.01892401	0.01314786	-0.1258788
	0.01310782	-0.1258929	0.00867762	0.0189241	0.0140556	-0.1006252	-0.9123999	-0.07134872
	0.008624129	0.01893294	0.01314721	-0.1258692	-0.9123978	-0.07134805	0.01402328	-0.100649
5.3e+08	0.001543548	-0.09095798	-0.91189	0.0912934	-0.007379655	-0.1157395	0.009881252	0.01734691
	-0.9118913	0.09129337	0.001484204	-0.09095431	0.009905984	0.01733811	-0.007340575	-0.1157296
	-0.007380906	-0.1157382	0.009905731	0.01733824	0.001490821	-0.09070411	-0.9118467	0.09194259
	0.009880999	0.01734703	-0.007340105	-0.1157246	-0.9118453	0.09194261	0.001460531	-0.09071601
5.4e+08	-0.007221633	-0.07825607	-0.8823678	0.2527035	-0.02347314	-0.100254	0.01102077	0.01647626
