!
!4 port subset of full cascaded channels using these ports:3 1 4 2
# Hz S RI R 50
0	0.01875361	6.560198e-20	0.9812852	-2.436587e-21	0.004353949	1.147902e-20	-0.004426924	5.491561e-19
	0.9812754	-2.43628e-21	0.01875906	6.561792e-20	-0.004410294	5.471356e-19	0.00439532	1.123286e-20
	0.004353173	1.147973e-20	-0.004410878	5.472064e-19	0.01825659	6.559502e-20	0.9818055	-2.437647e-21
	-0.004426935	5.491568e-19	0.004395158	1.123361e-20	0.9818055	-2.437342e-21	0.01737037	6.562645e-20
1e+07	0.04689635	0.05735693	0.9180882	-0.3129612	0.0239681	0.05419969	-0.01139977	-0.007288375
	0.9180882	-0.3129612	0.04689635	0.05735693	-0.01139977	-0.007288374	0.0239681	0.05419969
	0.0239681	0.05419969	-0.01139977	-0.007288374	0.04688631	0.05731624	0.9180684	-0.3129948
	-0.01139977	-0.007288375	0.0239681	0.05419969	0.9180684	-0.3129948	0.04688629	0.05731624
2e+07	0.09765439	0.08164041	0.7638096	-0.5760128	0.07114849	0.08432814	-0.0235328	-0.002420255
	0.7638096	-0.5760128	0.09773908	0.08162012	-0.02353371	-0.002414854	0.07114268	0.08432848
	0.07114725	0.08432724	-0.02353413	-0.002406833	0.09770651	0.08158929	0.7637903	-0.5760482
	-0.02353322	-0.002412227	0.07114144	0.08432758	0.7637903	-0.5760482	0.09770893	0.08159568
3e+07	0.1511366	0.07234728	0.5440682	-0.7706429	0.1254586	0.08165383	-0.02830772	0.01336952
	0.5440682	-0.7706429	0.1511368	0.07244506	-0.02831458	0.01336887	0.1254595	0.08164626
	0.1254586	0.08165384	-0.02831426	0.01336907	0.1511101	0.07236115	0.5440339	-0.7706617
	-0.02830741	0.01336973	0.1254595	0.08164627	0.5440339	-0.7706617	0.1511096	0.07236358
4e+07	0.1892555	0.03593651	0.2853767	-0.8880419	0.1683374	0.05033535	-0.01956713	0.03029809
	0.2853767	-0.8880419	0.1890832	0.03583047	-0.01956426	0.03028214	0.1683532	0.05034578
	0.1683373	0.05033546	-0.01956454	0.03028201	0.1891197	0.03586066	0.2853334	-0.8880764
	-0.01956739	0.03029787	0.1683533	0.05034568	0.2853335	-0.8880764	0.1891043	0.03583885
5e+07	0.2020556	-0.01426594	0.00998438	-0.9267934	0.1881261	0.001792629	-0.0006112097	0.03797699
	0.009983739	-0.9267927	0.2019579	-0.01423783	-0.0006191094	0.03797403	0.1881398	0.001786311
	0.1881253	0.001794292	-0.0006194643	0.03797357	0.2019366	-0.01427485	0.009902205	-0.9268159
	-0.0006116085	0.03797644	0.1881407	0.001781282	0.009902848	-0.9268166	0.2019198	-0.01427284
6e+07	0.1876175	-0.06359452	-0.2635879	-0.8878979	0.1801205	-0.0499743	0.01920018	0.03182073
	-0.2635854	-0.8878898	0.1876551	-0.0636531	0.0192114	0.03182426	0.1801119	-0.04997251
	0.1801164	-0.04997388	0.01920959	0.03182384	0.1875416	-0.06361822	-0.2636996	-0.8878608
	0.01919834	0.03182006	0.1801131	-0.04997265	-0.2636994	-0.8878601	0.1875514	-0.06363077
7e+07	0.1500625	-0.0988609	-0.5175611	-0.7730795	0.1461129	-0.09042894	0.03012869	0.01505563
	-0.5175565	-0.7730726	0.1500608	-0.09893338	0.03014313	0.01505177	0.1461073	-0.09042335
	0.1461092	-0.09042882	0.03014045	0.01505223	0.1499832	-0.09885407	-0.5176284	-0.7729941
	0.03012622	0.01505582	0.146108	-0.09042398	-0.517628	-0.7729932	0.1499811	-0.0988761
8e+07	0.09912831	-0.1092985	-0.7320212	-0.5859853	0.09497712	-0.1065891	0.0274306	-0.002996525
	-0.7320218	-0.585986	0.09913928	-0.1092732	0.02744161	-0.00299086	0.09497171	-0.1065928
	0.0949741	-0.1065889	0.02744009	-0.002990408	0.09906374	-0.1092412	-0.7321186	-0.5858771
	0.02742823	-0.002995567	0.0949719	-0.106592	-0.7321179	-0.5858764	0.09907147	-0.1092347
9e+07	0.05050474	-0.08960918	-0.8837662	-0.3361392	0.04285702	-0.09100655	0.01483976	-0.01208542
	-0.883766	-0.3361391	0.05050289	-0.08961179	0.01484057	-0.01208466	0.04285831	-0.09100787
	0.04285722	-0.09100718	0.01484041	-0.01208476	0.05046652	-0.08955229	-0.8838181	-0.3359835
	0.01483872	-0.01208576	0.04285789	-0.09100787	-0.8838182	-0.3359836	0.05046685	-0.08955379
1e+08	0.02238248	-0.04514267	-0.9494866	-0.04429456	0.009660191	-0.04740213	0.003048689	-0.008409867
	-0.9494865	-0.04429457	0.02238226	-0.04514269	0.003048028	-0.008409746	0.009660293	-0.04740214
	0.009660348	-0.04740209	0.003048323	-0.008409631	0.02237506	-0.04509151	-0.9494837	-0.04411373
	0.003048983	-0.008409753	0.009660349	-0.04740208	-0.9494838	-0.04411372	0.02237535	-0.04509149
1.1e+08	0.02699051	0.00694518	-0.9148969	0.2559234	0.00978971	0.007225432	0.001721133	0.001498517
	-0.9148969	0.2559235	0.02699701	0.00694724	0.001739154	0.001520658	0.009790747	0.007214429
	0.00978974	0.007225479	0.001739256	0.001520739	0.0270093	0.0069973	-0.9148315	0.2561065
	0.001721258	0.001498543	0.009790808	0.007214436	-0.9148315	0.2561065	0.02700049	0.006947079
1.2e+08	0.0620164	0.04456213	-0.783786	0.5255305	0.04281486	0.04973651	0.01088495	0.005972561
	-0.783786	0.5255305	0.06200884	0.04456637	0.01084244	0.00597908	0.04281447	0.04973834
	0.04281487	0.0497365	0.01084238	0.005978705	0.06202148	0.04454858	-0.7836636	0.5256892
	0.01088488	0.005972543	0.04281447	0.04973831	-0.7836636	0.5256892	0.06203119	0.04455184
1.3e+08	0.1113735	0.05325306	-0.5775135	0.7335476	0.09362581	0.06371865	0.02094214	-0.001204622
	-0.5775135	0.7335476	0.11137	0.05325303	0.02092621	-0.001216176	0.09362687	0.06372304
	0.09362575	0.06371858	0.02092622	-0.001215909	0.1113549	0.05320342	-0.5773445	0.7336675
	0.02094195	-0.001206022	0.09362683	0.06372296	-0.5773445	0.7336676	0.1113748	0.05320175
1.4e+08	0.1554564	0.03239705	-0.324784	0.8640277	0.1421674	0.0463394	0.02194526	-0.01607483
	-0.3247839	0.8640277	0.1554749	0.03239603	0.02196415	-0.01599424	0.142188	0.04640654
	0.1421675	0.04633945	0.02196417	-0.01599403	0.1553377	0.03239553	-0.3245784	0.8640988
	0.02194546	-0.01607445	0.142188	0.0464065	-0.3245786	0.8640989	0.155502	0.03225984
1.5e+08	0.1803343	-0.008225127	-0.05219387	0.9133231	0.1728031	0.005933659	0.01119103	-0.02871857
	-0.05219392	0.913323	0.1803437	-0.008251238	0.01123146	-0.02869633	0.1728442	0.006020283
	0.1728031	0.005933706	0.01123147	-0.02869623	0.1801977	-0.008189564	-0.05196195	0.9133369
	0.01119106	-0.02871846	0.1728441	0.006020208	-0.05196199	0.913337	0.1803028	-0.008412532
1.6e+08	0.1802969	-0.05511857	0.2186972	0.883908	0.1776486	-0.04403334	-0.006052834	-0.031345
	0.2186973	0.8839081	0.1803059	-0.05507708	-0.006080804	-0.03134116	0.1775829	-0.04411945
	0.1776485	-0.04403346	-0.006080831	-0.03134111	0.1801913	-0.05524473	0.2189427	0.8838538
	-0.006052876	-0.03134496	0.177583	-0.04411942	0.2189428	0.8838537	0.1801885	-0.05503029
1.7e+08	0.1565146	-0.09517093	0.4697538	0.7803523	0.1560878	-0.08927591	-0.02092993	-0.02231508
	0.4697538	0.7803527	0.1566896	-0.09494161	-0.02097627	-0.02229291	0.1556954	-0.08957879
	0.1560872	-0.08927606	-0.02097631	-0.02229289	0.15634	-0.09534505	0.4699876	0.780212
	-0.02092999	-0.02231505	0.1556958	-0.08957867	0.4699875	0.7802116	0.1566176	-0.09477469
1.8e+08	0.1155958	-0.117359	0.6834888	0.6085112	0.1137935	-0.1169809	-0.0260665	-0.006642038
	0.6834891	0.6085114	0.1161825	-0.1171048	-0.02616099	-0.006707011	0.1132096	-0.117125
	0.113793	-0.1169808	-0.02616103	-0.006707013	0.1156003	-0.1172628	0.683693	0.6082945
	-0.02606656	-0.006642024	0.11321	-0.117125	0.6836927	0.6082942	0.1159289	-0.1171048
1.9e+08	0.06870256	-0.1151196	0.8411457	0.3774004	0.06286726	-0.1169743	-0.01976837	0.006847475
	0.8411444	0.3774	0.07045537	-0.1140483	-0.02033404	0.006502539	0.0621317	-0.1184211
	0.06286863	-0.1169753	-0.0203341	0.006502607	0.06965073	-0.1145739	0.8412811	0.377105
	-0.01976842	0.006847534	0.06212984	-0.1184205	0.8412823	0.3771055	0.06931245	-0.1144013
2e+08	0.03122934	-0.08628421	0.9231257	0.1028401	0.02019149	-0.08951922	-0.007996906	0.01025798
	0.9231248	0.1028414	0.03394403	-0.087237	-0.008930113	0.01075302	0.01900127	-0.08977268
	0.02018745	-0.08953429	-0.008927229	0.01075459	0.03259927	-0.08696024	0.923136	0.1024933
	-0.007994193	0.01025946	0.01896548	-0.08975892	0.9231461	0.1024931	0.03248923	-0.08634327
2.1e+08	0.01918537	-0.04280182	0.913585	-0.1892891	0.001323887	-0.04180604	-0.0009689892	0.004500539
	0.9135804	-0.1892881	0.01866542	-0.0431621	-0.0006736917	0.00466831	0.001354866	-0.04178205
	0.001329575	-0.04180381	-0.0006739489	0.004667744	0.01885306	-0.04292857	0.9134998	-0.1896412
	-0.0009692304	0.004499966	0.001353582	-0.04177747	0.9135043	-0.1896422	0.0190038	-0.04285829
2.2e+08	0.03413418	-0.0005958073	0.8085501	-0.4644792	0.01529535	0.006880629	-0.002804092	-0.003501856
	0.8085521	-0.4644806	0.0345257	-0.0006789799	-0.003172102	-0.003340643	0.01531655	0.006870352
	0.0152945	0.006881588	-0.00317193	-0.003340608	0.03445858	-0.000668525	0.8083525	-0.4647913
	-0.002803946	-0.003501835	0.01531605	0.006869094	0.8083586	-0.4647946	0.03426175	-0.0005273362
2.3e+08	0.07154896	0.02282968	0.6208279	-0.6886145	0.05517119	0.03660178	-0.01189443	-0.004563818
	0.6208287	-0.6886155	0.07166067	0.02272495	-0.01210142	-0.004260759	0.05518842	0.03658613
	0.05517093	0.03660252	-0.01210133	-0.004260786	0.07164728	0.02267249	0.6205441	-0.6888612
	-0.01189436	-0.00456383	0.05518836	0.03658542	0.6205433	-0.6888602	0.07161731	0.02286082
2.4e+08	0.1144265	0.01904253	0.3763506	-0.8382985	0.1039773	0.0367621	-0.01892639	0.004171547
	0.3763507	-0.8382985	0.1144247	0.01903848	-0.0189284	0.004197905	0.1039778	0.03676168
	0.1039773	0.03676212	-0.01892837	0.004197887	0.1144199	0.01898443	0.3759939	-0.8384399
	-0.01892636	0.004171528	0.1039778	0.03676166	0.3759939	-0.8384399	0.1144241	0.01899202
2.5e+08	0.1464751	-0.008248642	0.1045696	-0.9043066	0.1434357	0.009365469	-0.01669647	0.01698031
	0.1045696	-0.9043063	0.1465301	-0.00826227	-0.01694947	0.0168417	0.1434224	0.009367866
	0.1434357	0.009365461	-0.01694949	0.0168417	0.1464106	-0.008266441	0.1041758	-0.9043318
	-0.01669649	0.01698029	0.1434224	0.009367884	0.1041759	-0.9043321	0.1464831	-0.008377079
2.6e+08	0.1581223	-0.04797128	-0.1686131	-0.8878758	0.1612103	-0.03474299	-0.0056384	0.02548145
	-0.1686132	-0.8878767	0.1580543	-0.04821511	-0.005644973	0.02538635	0.161204	-0.03473082
	0.1612102	-0.03474324	-0.005644962	0.0253863	0.1580391	-0.04811165	-0.1690147	-0.8877939
	-0.005638356	0.02548143	0.1612042	-0.03473079	-0.1690146	-0.887793	0.1579506	-0.04817557
2.7e+08	0.1472168	-0.08758435	-0.4223892	-0.7953245	0.1528709	-0.08157072	0.008682128	0.024569
	-0.4223873	-0.7953199	0.1471002	-0.087846	0.008737894	0.02455152	0.1531501	-0.08126433
	0.1528709	-0.08156702	0.008737605	0.02455134	0.1470274	-0.08770207	-0.4227652	-0.7951208
	0.008681828	0.0245688	0.1531479	-0.08126391	-0.4227672	-0.7951253	0.1470009	-0.08774097
2.8e+08	0.1179166	-0.1151727	-0.6392097	-0.6350907	0.1218347	-0.1171582	0.0185568	0.01516618
	-0.639203	-0.6350798	0.1173823	-0.1168706	0.01899048	0.01476579	0.1215732	-0.1173514
	0.1218444	-0.1171785	0.01898984	0.01475902	0.117489	-0.1159306	-0.6395312	-0.6347686
	0.01855606	0.01515872	0.1214703	-0.1173405	-0.6395315	-0.6347732	0.1175009	-0.1160042
2.9e+08	0.07870484	-0.1240065	-0.8027686	-0.4175898	0.07629898	-0.1313112	0.01979544	0.002798581
	-0.8027676	-0.4175897	0.07718703	-0.1264194	0.0199698	0.00190682	0.07621768	-0.1312595
	0.07630408	-0.1313219	0.01996867	0.001905784	0.07782554	-0.125088	-0.803002	-0.4171731
	0.01979409	0.002797261	0.07618783	-0.1312412	-0.803003	-0.4171731	0.07780487	-0.1251166
3e+08	0.04117189	-0.1098489	-0.8968715	-0.1572352	0.0302586	-0.1189958	0.01335598	-0.004951865
	-0.896868	-0.1572355	0.03808624	-0.114571	0.01275077	-0.007150753	0.03033412	-0.1187739
	0.03025987	-0.119003	0.01274969	-0.007150779	0.03958136	-0.1121732	-0.8969887	-0.1567556
	0.0133547	-0.004952139	0.0303175	-0.1187555	-0.8969922	-0.1567552	0.03949166	-0.1119514
3.1e+08	0.01489317	-0.0801884	-0.9075316	0.1249014	-0.000794257	-0.08328596	0.004081633	-0.005874354
	-0.9075327	0.1249005	0.01543109	-0.08118271	0.00468099	-0.006400693	-0.0008858112	-0.08322733
	-0.0007956573	-0.08329004	0.004680368	-0.006400144	0.01519768	-0.08052002	-0.9074547	0.1254105
	0.004080875	-0.005873805	-0.0008925874	-0.08321186	-0.9074536	0.1254114	0.0150943	-0.08057105
3.2e+08	0.0135445	-0.04173748	-0.8275353	0.4002607	-0.005576359	-0.03684809	0.0009358136	-3.907857e-05
	-0.8275321	0.4002588	0.01350316	-0.04188844	0.00100421	-0.0001677388	-0.005591729	-0.03683555
	-0.005575575	-0.03684938	0.001004109	-0.000167357	0.01357281	-0.04169996	-0.8272795	0.4007282
	0.0009356696	-3.868595e-05	-0.005594313	-0.0368287	-0.827291	0.4007341	0.01355577	-0.04170814
3.3e+08	0.03489007	-0.01085872	-0.6623501	0.6365773	0.01772025	0.002478763	0.005302265	0.004960413
	-0.6623532	0.6365812	0.0349674	-0.01079781	0.005284773	0.005064304	0.01773148	0.002468684
	0.01772047	0.002479839	0.005284616	0.005063885	0.03498753	-0.01077931	-0.6619651	0.6369612
	0.005302158	0.004959952	0.01773139	0.002460564	-0.661962	0.6369573	0.03499908	-0.01077802
3.4e+08	0.06955685	0.0001513388	-0.4315093	0.8062055	0.05902992	0.01956093	0.01305838	0.003076806
	-0.4315052	0.8062018	0.0697419	0.0001858927	0.01308617	0.003325239	0.05905522	0.01953551
	0.059032	0.01955996	0.01308492	0.00332423	0.06969127	0.0001578581	-0.4310131	0.806447
	0.01305725	0.003075648	0.05904757	0.0195131	-0.4310174	0.8064506	0.06970481	0.0001510928
3.5e+08	0.1029343	-0.01178887	-0.1632782	0.8931446	0.1016527	0.009043097	0.01708178	-0.005685684
	-0.1632755	0.8931486	0.1031142	-0.01181857	0.01720997	-0.005357022	0.1016824	0.009016716
	0.1016543	0.009042222	0.01720719	-0.005357416	0.1030275	-0.01185427	-0.1627255	0.8932275
	0.01707927	-0.005686448	0.1016644	0.008980349	-0.1627299	0.8932324	0.1030155	-0.01186832
3.6e+08	0.1227055	-0.04051982	0.113271	0.8941382	0.1302166	-0.02368194	0.01330151	-0.0158489
	0.1132739	0.8941339	0.1228277	-0.04056271	0.01356142	-0.01550105	0.1302398	-0.02369531
	0.1302174	-0.02368247	0.01355907	-0.01550004	0.1227225	-0.04060588	0.1138322	0.8940573
	0.01329896	-0.01584823	0.1302229	-0.02373263	0.1138282	0.8940526	0.1226694	-0.04060322
3.7e+08	0.1231412	-0.07511463	0.3733526	0.8147286	0.1359676	-0.06659641	0.003313391	-0.02115896
	0.3733492	0.814734	0.1232189	-0.07512682	0.003711083	-0.02086174	0.1359569	-0.06657952
	0.1359676	-0.06659581	0.003715949	-0.02086266	0.123089	-0.07517523	0.3738697	0.8144868
	0.003317668	-0.02116069	0.1360315	-0.0665603	0.3738769	0.8144897	0.1230075	-0.07512566
3.8e+08	0.105199	-0.1045561	0.5970459	0.6649974	0.1179364	-0.1060254	-0.007459211	-0.01885475
	0.5971424	0.6650286	0.1052697	-0.1044927	-0.006953667	-0.0186747	0.1178486	-0.1059747
	0.1179377	-0.1060282	-0.007020186	-0.01870336	0.1051014	-0.104565	0.597589	0.6646372
	-0.007524105	-0.01888184	0.1180878	-0.1070851	0.5974924	0.6646061	0.1050342	-0.1044171
3.9e+08	0.07474305	-0.1204998	0.7683308	0.4575842	0.08188988	-0.1303291	-0.01361547	-0.01093322
	0.7683513	0.4575625	0.0748469	-0.1204593	-0.01306479	-0.01091449	0.08168111	-0.1301418
	0.08189002	-0.1303269	-0.01308331	-0.01090044	0.07462682	-0.1204446	0.7686751	0.4570385
	-0.01363393	-0.01092026	0.08152748	-0.1304869	0.7686547	0.4570602	0.07463751	-0.1202993
4e+08	0.04068798	-0.1185861	0.8728747	0.207537	0.03836738	-0.1321218	-0.01299615	-0.002489828
	0.8728871	0.2075218	0.04075965	-0.1185516	-0.01248255	-0.002638015	0.03841652	-0.1319324
	0.03836869	-0.1321207	-0.0124889	-0.002625253	0.04058328	-0.118464	0.8730447	0.206901
	-0.01300332	-0.002478344	0.0383064	-0.1321383	0.8730323	0.2069163	0.04062493	-0.118331
4.1e+08	0.01312783	-0.09944217	0.8990349	-0.06585553	0.001058256	-0.1106532	-0.007875088	0.001587937
	0.8990297	-0.06586622	0.01319942	-0.09940805	-0.007482127	0.001316639	0.001059378	-0.1105842
	0.001060444	-0.1106521	-0.007481562	0.001325894	0.01307048	-0.09926553	0.8989868	-0.06653027
	-0.007876009	0.001596119	0.0009741476	-0.1107049	0.8989831	-0.06651811	0.01316336	-0.09917702
4.2e+08	0.0008404942	-0.06930601	0.8398525	-0.3381895	-0.01796631	-0.07295211	-0.003372604	-0.0001136074
	0.8398541	-0.3381976	0.0008966561	-0.06928457	-0.003157245	-0.0004076208	-0.01797924	-0.07291083
	-0.01796631	-0.07295206	-0.003153748	-0.0004030493	0.0008586411	-0.06911466	0.8395978	-0.3388331
	-0.003370928	-0.000109429	-0.01803646	-0.07296845	0.8395874	-0.3388226	0.0009446716	-0.06909477
4.3e+08	0.007668691	-0.03895243	0.6970845	-0.5811204	-0.01229761	-0.03231224	-0.00374679	-0.004472685
	0.6970797	-0.5811198	0.007698321	-0.03894434	-0.003695096	-0.004645828	-0.01230229	-0.0322933
	-0.01229705	-0.0323123	-0.003692676	-0.00464504	0.007758648	-0.03880831	0.6966181	-0.5816485
	-0.00374548	-0.004471666	-0.01232836	-0.03230973	0.6966159	-0.5816434	0.007794234	-0.03882104
4.4e+08	0.03003082	-0.01972841	0.4840182	-0.7670458	0.01518401	-0.003703526	-0.009043702	-0.006233364
	0.4840211	-0.7670481	0.03001804	-0.01972796	-0.009039869	-0.006170173	0.01518494	-0.003710523
	0.01518391	-0.003703613	-0.009040719	-0.006169967	0.03013444	-0.01967711	0.4834082	-0.7674115
	-0.009044216	-0.006233445	0.01519317	-0.003707581	0.483411	-0.7674164	0.03012878	-0.01966963
4.5e+08	0.05803834	-0.01830228	0.2244124	-0.8756023	0.05310947	0.002748731	-0.01510049	-0.002283211
	0.2244163	-0.8756066	0.05797575	-0.0182835	-0.01499146	-0.00199657	0.05310636	0.002718429
	0.05310872	0.002748577	-0.0149947	-0.001994219	0.0580805	-0.01833231	0.2237135	-0.8757566
	-0.0151023	-0.002282387	0.05314171	0.002721848	0.2237144	-0.8757698	0.0580793	-0.0182908
4.6e+08	0.08025674	-0.03377281	-0.05291343	-0.8977116	0.08682457	-0.01412791	-0.01705212	0.005967009
	-0.05291127	-0.8977143	0.08017122	-0.03370979	-0.01677655	0.006341025	0.08681114	-0.01416834
	0.08682404	-0.01412663	-0.01677988	0.006345342	0.08020227	-0.03382038	-0.05363383	-0.8976646
	-0.01705342	0.005969144	0.08685714	-0.01417613	-0.05363603	-0.897662	0.08023153	-0.03377539
4.7e+08	0.08876268	-0.05901884	-0.3201106	-0.8352568	0.1045027	-0.04713042	-0.01304914	0.0140459
	-0.3201105	-0.835261	0.08869528	-0.05892232	-0.01266023	0.01436502	0.1044824	-0.04716606
	0.1045028	-0.04712901	-0.01266186	0.0143691	0.08862643	-0.05902646	-0.3207904	-0.8349904
	-0.0130492	0.01404819	0.1045207	-0.04718168	-0.3207906	-0.8349862	0.08867421	-0.05901088
4.8e+08	0.08144645	-0.08457531	-0.5538023	-0.6977523	0.1007897	-0.08449948	-0.005155044	0.01792175
	-0.5538015	-0.6977532	0.08140922	-0.08448504	-0.004743067	0.01811793	0.1007758	-0.08451889
	0.1007896	-0.0844986	-0.004743415	0.01812015	0.0812667	-0.08451195	-0.5543835	-0.6972895
	-0.005154489	0.0179229	0.1007957	-0.08452993	-0.5543837	-0.6972892	0.08130568	-0.08453632
4.9e+08	0.06143497	-0.1021813	-0.7356197	-0.4991547	0.07738184	-0.1141975	0.002587287	0.01653832
	-0.7356214	-0.4991569	0.06140281	-0.1021274	0.002949777	0.01661361	0.07739148	-0.1142
	0.07738186	-0.1141977	0.002949298	0.01661416	0.06124957	-0.1020394	-0.7360532	-0.4985306
	0.002587221	0.01653839	0.07739395	-0.1141946	-0.7360516	-0.4985285	0.06125681	-0.1020933
5e+08	0.03522106	-0.1068013	-0.8514319	-0.2562943	0.04171095	-0.1272007	0.006965986	0.01199029
	-0.8514289	-0.2562941	0.03516002	-0.10678	0.007238694	0.01198111	0.04175016	-0.1271929
	0.04170958	-0.1272003	0.0072376	0.01198124	0.03506562	-0.1065871	-0.8516554	-0.2555456
	0.006965089	0.01199036	0.04174761	-0.1271732	-0.8516669	-0.2555484	0.03503209	-0.1066475
5.1e+08	0.01066035	-0.09745633	-0.8908991	0.01122858	0.00467704	-0.1197006	0.0074588	0.007760816
	-0.8909034	0.01122775	0.0105614	-0.09743847	0.007632584	0.007710821	0.004739656	-0.1196944
	0.004674421	-0.1197005	0.007631531	0.007711338	0.01056926	-0.0971912	-0.8908947	0.01203183
	0.007457848	0.007761343	0.004740889	-0.1196705	-0.8908993	0.01203355	0.01050419	-0.09723388
5.2e+08	-0.005035364	-0.07737802	-0.8483547	0.2806762	-0.02234659	-0.09426373	0.0062412	0.006293661
	-0.8483591	0.2806773	-0.005145897	-0.07734028	0.006331143	0.006239309	-0.02227474	-0.09426637
	-0.02234995	-0.09426195	0.006330656	0.006239983	-0.005035891	-0.0771005	-0.8480971	0.2814617
	0.006240723	0.006294321	-0.02226911	-0.09425003	-0.8480924	0.2814615	-0.005108426	-0.0771129
5.3e+08	-0.007460617	-0.05332796	-0.7247656	0.5267289	-0.0310693	-0.05943416	0.006427972	0.007365385
	-0.7247681	0.5267303	-0.007543262	-0.05327658	0.006462112	0.007328027	-0.03100481	-0.05945182
	-0.0310702	-0.05943108	0.006462067	0.007328476	-0.007368585	-0.05309008	-0.7242702	0.5274157
	0.00642793	0.007365836	-0.03099991	-0.05944507	-0.7242677	0.5274143	-0.007422732	-0.05307887
