!
!4 port subset of full cascaded channels using these ports:3 1 4 2
# Hz S RI R 50
0	0.02298894	6.834463e-20	0.9770757	-5.22161e-21	0.006342927	2.020554e-20	-0.006460465	8.014301e-19
	0.977061	-5.22092e-21	0.022997	6.838132e-20	-0.00643425	7.982435e-19	0.00640608	1.966495e-20
	0.006341751	2.020677e-20	-0.00643514	7.983515e-19	0.02225	6.833042e-20	0.9778469	-5.225229e-21
	-0.00646047	8.014296e-19	0.006405853	1.966632e-20	0.9778469	-5.22455e-21	0.02092586	6.840072e-20
1e+07	0.07170826	0.07187181	0.8586451	-0.4285418	0.04319328	0.07049004	-0.01793855	-0.005420353
	0.8586451	-0.4285418	0.07170826	0.0718718	-0.01793855	-0.00542035	0.04319328	0.07049004
	0.04319328	0.07049004	-0.01793855	-0.00542035	0.07168615	0.07181402	0.8586123	-0.4285853
	-0.01793855	-0.005420353	0.04319328	0.07049004	0.8586123	-0.4285853	0.07168612	0.07181403
2e+07	0.1476932	0.07444214	0.5799256	-0.7399761	0.1181189	0.08406597	-0.02805273	0.01277426
	0.5799256	-0.7399761	0.1477998	0.07438535	-0.02804872	0.01278226	0.1181106	0.08406885
	0.118117	0.08406547	-0.02804706	0.01278991	0.1477452	0.07435658	0.579894	-0.7400109
	-0.02805106	0.01278192	0.1181088	0.08406835	0.579894	-0.7400109	0.147751	0.07436383
3e+07	0.1980992	0.02162308	0.2151807	-0.9005105	0.1759985	0.03914758	-0.01311828	0.03511348
	0.2151807	-0.9005105	0.1981445	0.02174007	-0.01312664	0.03512133	0.1759951	0.03913773
	0.1759985	0.03914763	-0.01312628	0.0351214	0.1980733	0.02165252	0.2151316	-0.9005167
	-0.01311794	0.03511357	0.1759951	0.0391378	0.2151316	-0.9005167	0.1980749	0.02165563
4e+07	0.1958916	-0.05017554	-0.1740987	-0.9050202	0.1845492	-0.03253028	0.01641642	0.03484847
	-0.1740987	-0.9050202	0.1956589	-0.05019206	0.0163969	0.03482988	0.1845713	-0.03253087
	0.1845493	-0.03253019	0.01639654	0.03482983	0.1957126	-0.05018416	-0.1741711	-0.905033
	0.01641604	0.0348483	0.1845714	-0.03253109	-0.1741711	-0.9050331	0.1956862	-0.05019482
5e+07	0.1434398	-0.1004666	-0.5371411	-0.75617	0.1392493	-0.08990371	0.03233038	0.01073354
	-0.5371407	-0.7561683	0.1433764	-0.1003891	0.03231931	0.01074434	0.1392552	-0.0899163
	0.1392494	-0.08990184	0.03231819	0.01074404	0.1433341	-0.1004068	-0.537246	-0.7561236
	0.03232913	0.01073317	0.139253	-0.08992111	-0.5372465	-0.7561253	0.1433241	-0.100397
6e+07	0.06911912	-0.09744943	-0.816806	-0.4628566	0.06425548	-0.09564185	0.02124719	-0.01168687
	-0.8167944	-0.4628498	0.06911204	-0.09750092	0.02125753	-0.01169508	0.06425257	-0.09563699
	0.06425384	-0.09563874	0.02125521	-0.01169356	0.06906662	-0.09741457	-0.8168657	-0.4627061
	0.02124478	-0.01168526	0.06425209	-0.09563806	-0.816865	-0.462706	0.06906415	-0.09742521
7e+07	0.02251065	-0.0376881	-0.9442894	-0.06278958	0.01116916	-0.03990135	0.002863658	-0.009700133
	-0.9442761	-0.06278856	0.02248748	-0.03771075	0.002869954	-0.009715482	0.01116963	-0.03989826
	0.01116901	-0.03989943	0.002868098	-0.009711581	0.02250807	-0.03766115	-0.9442264	-0.06266151
	0.002862082	-0.009696806	0.01116836	-0.03989804	-0.9442255	-0.06266142	0.02249951	-0.03766418
8e+07	0.04176104	0.03522485	-0.8727161	0.3555122	0.02398778	0.03593233	0.004967806	0.0032749
	-0.872717	0.3555126	0.0417643	0.03522275	0.004982645	0.003261975	0.02398742	0.03593229
	0.0239876	0.03593306	0.004982437	0.003264097	0.04177603	0.03522692	-0.8726485	0.3556696
	0.004967634	0.003278521	0.02398775	0.03593276	-0.8726475	0.3556692	0.0417744	0.03523049
9e+07	0.1092903	0.06300186	-0.6245481	0.6868994	0.09029954	0.07058945	0.01940722	-0.002054524
	-0.6245478	0.6868994	0.109292	0.06300081	0.0194091	-0.002055437	0.09029999	0.07059013
	0.09029982	0.0705898	0.01940897	-0.002055236	0.1092877	0.06296203	-0.6244026	0.6870124
	0.01940628	-0.002053226	0.09029997	0.07059018	-0.6244028	0.6870124	0.109288	0.06296282
1e+08	0.1711256	0.0304971	-0.2733038	0.8715211	0.1570057	0.04325522	0.01741917	-0.02286765
	-0.2733038	0.8715211	0.1711258	0.03049708	0.01741912	-0.02286676	0.1570056	0.04325532
	0.1570056	0.04325526	0.01741937	-0.0228671	0.1710762	0.03044206	-0.2731104	0.8715744
	0.01741942	-0.02286799	0.1570056	0.04325527	-0.2731104	0.8715744	0.171076	0.03044214
1.1e+08	0.1894863	-0.03455493	0.1097293	0.8983242	0.1823334	-0.02227361	-0.00535198	-0.03249568
	0.1097293	0.8983242	0.1894871	-0.03455196	-0.005324087	-0.03250278	0.1823609	-0.02226842
	0.1823333	-0.02227366	-0.005323953	-0.0325029	0.1893162	-0.03459686	0.1099495	0.8982972
	-0.00535192	-0.03249584	0.1823609	-0.02226839	0.1099495	0.8982972	0.1894506	-0.0346001
1.2e+08	0.1572971	-0.09287536	0.4703292	0.7745617	0.1541403	-0.0863775	-0.02661253	-0.01795304
	0.4703293	0.7745617	0.1573036	-0.0928827	-0.02661831	-0.01789868	0.1541073	-0.08637814
	0.1541402	-0.08637747	-0.02661884	-0.01789862	0.1572195	-0.09292652	0.4705403	0.7744378
	-0.02661255	-0.01795294	0.1541073	-0.08637807	0.4705403	0.7744378	0.15712	-0.09282483
1.3e+08	0.09277848	-0.1112317	0.7580013	0.5126171	0.08742133	-0.1113234	-0.02557168	0.006115303
	0.7580012	0.5126171	0.09278401	-0.1112325	-0.02558432	0.006132991	0.08744201	-0.1113276
	0.08742152	-0.1113232	-0.02558392	0.006132915	0.09267483	-0.1111365	0.7581531	0.5123913
	-0.0255737	0.006115703	0.08744207	-0.1113275	0.7581532	0.5123913	0.09266873	-0.1112066
1.4e+08	0.03523368	-0.07491859	0.9144394	0.1412517	0.02318772	-0.07713512	-0.007689875	0.01412332
	0.9144392	0.1412515	0.03520864	-0.0749217	-0.007614081	0.0140452	0.02329497	-0.07719107
	0.0231878	-0.07713507	-0.007613777	0.01404508	0.03528696	-0.07469455	0.9144735	0.140956
	-0.007689372	0.0141229	0.0232948	-0.07719101	0.9144737	0.1409562	0.0350609	-0.07497132
1.5e+08	0.02793822	-0.007043887	0.8877973	-0.2713369	0.01008387	-0.005054625	0.0005044212	0.002841576
	0.8877972	-0.2713368	0.02792831	-0.007037773	0.0004842321	0.002796443	0.01013149	-0.005098564
	0.01008394	-0.005054651	0.0004843659	0.002796358	0.02803409	-0.006963246	0.8876871	-0.2716313
	0.0005045483	0.00284145	0.01013145	-0.005098463	0.8876873	-0.2716313	0.02785999	-0.007012909
1.6e+08	0.07713401	0.0384644	0.6763281	-0.6245411	0.059039	0.04799692	-0.01023648	-0.002208671
	0.6763282	-0.6245413	0.07713449	0.0384647	-0.01021731	-0.002199232	0.05902989	0.0480042
	0.059039	0.04799696	-0.01021725	-0.002199233	0.07714127	0.0384455	0.6760979	-0.6247677
	-0.01023642	-0.002208659	0.05902993	0.04800416	0.6760977	-0.6247677	0.07717275	0.03844751
1.7e+08	0.1410901	0.02803751	0.341058	-0.8405235	0.1289117	0.04294615	-0.01709287	0.01188813
	0.3410585	-0.8405238	0.141072	0.02812776	-0.01706748	0.01191154	0.128894	0.04279344
	0.1289117	0.04294608	-0.01706744	0.0119116	0.1410913	0.02791902	0.3407425	-0.8406289
	-0.0170928	0.01188819	0.1288941	0.04279343	0.3407422	-0.8406285	0.141033	0.02810807
1.8e+08	0.1743885	-0.02509156	-0.03950224	-0.8951323	0.1703884	-0.01111633	-0.00369867	0.02663164
	-0.03950228	-0.8951327	0.1745312	-0.02473326	-0.003662599	0.02676861	0.1701847	-0.01143123
	0.1703882	-0.01111647	-0.00366255	0.02676867	0.1743203	-0.02509315	-0.03985034	-0.8951157
	-0.00369859	0.0266317	0.1701848	-0.01143109	-0.03985044	-0.8951152	0.1744211	-0.02486638
1.9e+08	0.1601075	-0.08546889	-0.4031439	-0.7962624	0.1603382	-0.07719124	0.01793054	0.02184536
	-0.4031432	-0.7962609	0.1606555	-0.08381371	0.01819779	0.0225552	0.1605825	-0.07858612
	0.1603395	-0.07719128	0.01819792	0.02255524	0.1603603	-0.08464897	-0.403481	-0.7960939
	0.01793064	0.0218454	0.1605812	-0.0785867	-0.4034817	-0.7960954	0.1601112	-0.08465617
2e+08	0.1071618	-0.1176613	-0.700206	-0.561018	0.1064975	-0.1177683	0.02523485	0.001498056
	-0.7002068	-0.5610176	0.1101126	-0.116915	0.02652679	0.001664078	0.1055226	-0.1186539
	0.1065016	-0.1177839	0.02652692	0.00166065	0.1086702	-0.1174199	-0.700439	-0.5606781
	0.02523534	0.001494929	0.1054835	-0.118661	-0.7004486	-0.560687	0.1083223	-0.1170205
2.1e+08	0.04898351	-0.1021879	-0.8804893	-0.2161195	0.0384505	-0.1058537	0.01361616	-0.01323167
	-0.880483	-0.2161177	0.04862154	-0.1028696	0.01337771	-0.01362441	0.03847793	-0.1058092
	0.03845543	-0.1058479	0.01337736	-0.01362377	0.04867247	-0.102498	-0.8805873	-0.2156899
	0.01361578	-0.01323103	0.03847433	-0.1058053	-0.8805936	-0.2156917	0.04876923	-0.1023284
2.2e+08	0.02081499	-0.04738413	-0.8948576	0.1848955	0.003801359	-0.04584137	-0.0009391129	-0.008764327
	-0.8948611	0.1848964	0.02135951	-0.04729651	-0.0003599759	-0.008795399	0.003831494	-0.04584432
	0.003799927	-0.0458403	-0.0003601404	-0.008795463	0.02124558	-0.04727578	-0.8947479	0.18534
	-0.0009392834	-0.008764552	0.003831317	-0.04584634	-0.8947578	0.185342	0.02092847	-0.04720778
2.3e+08	0.04752363	0.007479259	-0.7249285	0.5539516	0.02966182	0.01779531	0.002110334	0.001761398
	-0.72493	0.5539528	0.04772563	0.007368701	0.002499605	0.001382249	0.02968952	0.0177782
	0.0296612	0.01779625	0.002499474	0.001382258	0.04772043	0.007329696	-0.724637	0.5543179
	0.002110228	0.001761389	0.02968967	0.01777722	-0.7246355	0.5543166	0.04761316	0.007579839
2.4e+08	0.1056506	0.01876123	-0.4121304	0.803161	0.09435769	0.03574031	0.01272431	-0.003253827
	-0.4121306	0.803161	0.1056486	0.01875504	0.01272937	-0.003292525	0.0943584	0.03573974
	0.09435767	0.03574034	0.01272932	-0.003292503	0.1056641	0.01870438	-0.4116964	0.8033531
	0.01272426	-0.003253802	0.09435842	0.03573972	-0.4116963	0.803353	0.1056693	0.01871594
2.5e+08	0.1496876	-0.01786202	-0.03493627	0.8905017	0.1481514	-0.001529844	0.009089848	-0.01820765
	-0.03493624	0.8905012	0.1497623	-0.01789216	0.009476011	-0.01803377	0.148133	-0.001524431
	0.1481514	-0.00152985	0.009476039	-0.01803377	0.1496132	-0.01786965	-0.0344509	0.8904882
	0.009089878	-0.01820762	0.1481329	-0.001524405	-0.03445105	0.8904886	0.1497109	-0.0180345
2.6e+08	0.1526869	-0.07368837	0.3347042	0.8183114	0.157073	-0.06530907	-0.008369402	-0.02230552
	0.3347046	0.8183127	0.1525262	-0.07401402	-0.008331692	-0.02216619	0.1570692	-0.06529226
	0.1570727	-0.06530944	-0.008331693	-0.02216611	0.1525592	-0.07386136	0.3351673	0.8181096
	-0.008369461	-0.02230548	0.1570696	-0.06529225	0.3351669	0.8181083	0.1524183	-0.07392087
2.7e+08	0.1156092	-0.1150419	0.6429752	0.6071985	0.117701	-0.1164222	-0.02161405	-0.00869811
	0.6429703	0.607193	0.1153573	-0.1153213	-0.0216746	-0.008643341	0.1181832	-0.1161502
	0.1177028	-0.1164171	-0.02167416	-0.008643383	0.115348	-0.1151182	0.6433322	0.606803
	-0.02161359	-0.008698127	0.1181803	-0.1161491	0.6433373	0.6068084	0.1152947	-0.1151459
2.8e+08	0.0607087	-0.1173985	0.8437438	0.2858077	0.05378369	-0.124049	-0.01709285	0.008187466
	0.8437279	0.2858043	0.05924913	-0.1190708	-0.01731256	0.008994971	0.05339275	-0.1241502
	0.05378421	-0.1240767	-0.01730598	0.008999303	0.05988331	-0.1180875	0.8439167	0.2852674
	-0.01708577	0.008192477	0.05328334	-0.1240852	0.8439199	0.2852667	0.05984102	-0.1181148
2.9e+08	0.02152416	-0.07893841	0.8932405	-0.1004469	0.004596115	-0.08134076	-0.003079121	0.01104093
	0.8932421	-0.1004443	0.01871816	-0.08031895	-0.002430289	0.01212918	0.004519857	-0.08126777
	0.004594244	-0.08135331	-0.002429064	0.01212832	0.02006774	-0.07950856	0.8931774	-0.1010414
	-0.003077371	0.01104023	0.004503787	-0.08123432	0.8931758	-0.1010439	0.02012898	-0.07943777
3e+08	0.02704266	-0.0245521	0.7655509	-0.4773378	0.006216951	-0.01680027	0.0005207841	0.001170657
	0.7655499	-0.4773348	0.02217826	-0.02594117	0.003408592	0.002512729	0.006316096	-0.01668915
	0.006213943	-0.01680584	0.003408426	0.002511802	0.02443226	-0.02521441	0.7652537	-0.4778688
	0.000521108	0.00116981	0.006315183	-0.01666814	0.7652547	-0.4778718	0.02488226	-0.02506533
3.1e+08	0.06944167	0.003460362	0.4824008	-0.7570384	0.05722811	0.02073345	-0.006538983	-0.001931554
	0.4824034	-0.7570408	0.06915549	0.002747317	-0.006458218	-0.0008466506	0.05720452	0.02078802
	0.05722599	0.02073286	-0.006458838	-0.0008468553	0.06932881	0.003030091	0.4818695	-0.7573477
	-0.006539472	-0.001931907	0.05720798	0.02079627	0.4818669	-0.7573453	0.06938062	0.00315866
3.2e+08	0.1174209	-0.01449274	0.1130857	-0.8808862	0.1168399	0.004616852	-0.01068204	0.008850327
	0.1130853	-0.8808816	0.1173591	-0.01451809	-0.01059004	0.009025548	0.1168363	0.004620508
	0.1168385	0.004615213	-0.01059013	0.00902556	0.1173594	-0.01458205	0.1124655	-0.8809248
	-0.01068226	0.008850402	0.1168382	0.00462335	0.1124676	-0.8809426	0.1173874	-0.01457508
3.3e+08	0.1347205	-0.061456	-0.2633572	-0.8390528	0.1432399	-0.05009785	-0.0002034523	0.01817098
	-0.2633592	-0.839059	0.134732	-0.06145124	-0.0003186111	0.01807738	0.1432443	-0.05009629
	0.1432409	-0.0500976	-0.0003186944	0.0180773	0.1346264	-0.06151847	-0.2639579	-0.8388595
	-0.0002035153	0.01817099	0.1432448	-0.05009643	-0.2639559	-0.8388533	0.1345996	-0.06150532
3.4e+08	0.1129297	-0.105946	-0.5850939	-0.6518746	0.1217186	-0.1065879	0.01427664	0.0129414
	-0.5850887	-0.6518701	0.1129231	-0.1058721	0.01392317	0.01284065	0.1217335	-0.1065693
	0.1217175	-0.1065855	0.01392301	0.01284151	0.1127795	-0.1059249	-0.5855734	-0.6514331
	0.01427661	0.01294251	0.121754	-0.1065727	-0.5855785	-0.6514377	0.1127306	-0.1058457
3.5e+08	0.0662453	-0.1221606	-0.8054217	-0.3511128	0.06619085	-0.1308463	0.01714222	-0.001923265
	-0.80543	-0.3511187	0.06629459	-0.1219798	0.01661816	-0.00185384	0.06622831	-0.1307937
	0.06619192	-0.1308431	0.0166208	-0.001850741	0.06611787	-0.1220167	-0.8056921	-0.3504879
	0.01714552	-0.001919945	0.06630082	-0.1308219	-0.8056959	-0.3504874	0.06611657	-0.1218694
3.6e+08	0.0222023	-0.1002985	-0.8848824	0.02012834	0.01027899	-0.1073831	0.006876282	-0.01037564
	-0.884894	0.02012624	0.02237493	-0.1000873	0.006320407	-0.01003658	0.01035347	-0.1072733
	0.0102819	-0.1073805	0.006333557	-0.01003522	0.02217952	-0.1000793	-0.8848739	0.0208417
	0.006890076	-0.0103741	0.01054555	-0.1074054	-0.884849	0.02084348	0.02227409	-0.09993311
3.7e+08	0.009455573	-0.05380773	-0.7965384	0.3982563	-0.008908113	-0.05051361	-0.002129497	-0.005243188
	-0.7965893	0.3982867	0.009724538	-0.0536683	-0.002547751	-0.004630659	-0.00878673	-0.05033304
	-0.008904693	-0.05051243	-0.002513425	-0.004653598	0.009558238	-0.05360594	-0.7962336	0.3989373
	-0.002094258	-0.005267159	-0.00830666	-0.05087863	-0.7961946	0.3989129	0.009714471	-0.05355481
3.8e+08	0.0367791	-0.01628053	-0.5480539	0.7021756	0.02239603	-0.0009358485	0.001139769	0.001965239
	-0.5478265	0.7022142	0.03703397	-0.01623792	0.00100943	0.002754222	0.02257747	-0.0007067597
	0.02240911	-0.0009327568	0.0008467332	0.002750778	0.03695799	-0.01617743	-0.5472189	0.7026608
	0.0009748284	0.001964492	0.01974184	-0.001317834	-0.5474465	0.7026224	0.03704132	-0.01623163
3.9e+08	0.08129519	-0.01555307	-0.1931964	0.8633986	0.07917343	0.004915491	0.008377875	-0.00178549
	-0.1931785	0.8633613	0.08151558	-0.01558862	0.008604392	-0.001001246	0.07940985	0.005093244
	0.07917548	0.004910944	0.008596304	-0.0009793295	0.0814583	-0.01557682	-0.1924341	0.8635054
	0.008371326	-0.0017639	0.07906899	0.005320234	-0.1924519	0.8635428	0.08143663	-0.01565595
4e+08	0.1085706	-0.04908047	0.1879411	0.8562602	0.1190515	-0.03451055	0.005737744	-0.01149905
	0.1879414	0.8562565	0.1087246	-0.0491441	0.006259601	-0.01091532	0.1191179	-0.03454272
	0.1190522	-0.03451139	0.006260178	-0.01090922	0.1086273	-0.04918771	0.1886836	0.8560787
	0.005739508	-0.01149482	0.1190502	-0.0344911	0.1886832	0.8560825	0.1085327	-0.04917749
4.1e+08	0.1014822	-0.09119114	0.5247511	0.6951471	0.116141	-0.0902792	-0.005560832	-0.01334544
	0.5247457	0.6951391	0.1015635	-0.09126242	-0.004923244	-0.01308107	0.1161364	-0.09027275
	0.1161408	-0.0902788	-0.004923853	-0.01307891	0.1013945	-0.09127884	0.5253642	0.6946665
	-0.005561271	-0.01334582	0.1161326	-0.09029334	0.5253608	0.6946647	0.1013295	-0.09118085
4.2e+08	0.06640838	-0.1153811	0.7655018	0.4137668	0.07375135	-0.1268124	-0.01272099	-0.004265576
	0.7655099	0.4137683	0.06642961	-0.1154255	-0.0121992	-0.004295873	0.07373365	-0.1268053
	0.07375252	-0.1268139	-0.01219976	-0.004293216	0.06623536	-0.115342	0.7658932	0.4130638
	-0.01272263	-0.004265263	0.07373122	-0.1268417	0.7658744	0.4130548	0.06625213	-0.1152373
4.3e+08	0.02469962	-0.1077905	0.8720377	0.0561859	0.01800792	-0.1219315	-0.008557349	0.00530683
	0.8720333	0.05618393	0.02469783	-0.1077975	-0.008331276	0.005178868	0.01799526	-0.1219232
	0.01800823	-0.1219315	-0.008330568	0.005180692	0.02457962	-0.1076022	0.8720757	0.05535006
	-0.008557897	0.005307627	0.01798832	-0.1219447	0.8720671	0.05535104	0.02462211	-0.1075672
4.4e+08	0.001815275	-0.07316375	0.8188014	-0.3197023	-0.01606302	-0.07841429	-5.603921e-05	0.005108527
	0.8188062	-0.3197026	0.001812955	-0.07316723	-0.0001068494	0.005185554	-0.0160581	-0.07841947
	-0.0160629	-0.07841425	-0.0001076162	0.005185006	0.001848084	-0.07294866	0.8184749	-0.3205021
	-5.614036e-05	0.005108168	-0.01605324	-0.07841271	0.818483	-0.3205052	0.001831017	-0.07294849
4.5e+08	0.01250732	-0.03494883	0.605564	-0.6408523	-0.005764135	-0.02569488	0.0009579501	-0.001627147
	0.6055704	-0.640854	0.01246582	-0.03497291	0.0008909748	-0.001181002	-0.005750534	-0.02572876
	-0.005764118	-0.02569533	0.0008860197	-0.001181273	0.01262994	-0.03485962	0.6049004	-0.6414324
	0.0009562757	-0.001628136	-0.005716551	-0.02570616	0.6049124	-0.6414496	0.01257402	-0.03480613
4.6e+08	0.04710349	-0.02071864	0.2721954	-0.8364349	0.04000996	-0.001454005	-0.00565813	-0.002879751
	0.2721996	-0.8364355	0.04699413	-0.02071146	-0.005482091	-0.002216516	0.04001095	-0.001510291
	0.04000877	-0.00145277	-0.00548889	-0.002213722	0.047156	-0.02075996	0.2713447	-0.8366962
	-0.005660987	-0.002878854	0.04007091	-0.001498745	0.2713405	-0.8366956	0.04714936	-0.02066003
4.7e+08	0.07777752	-0.03892815	-0.1085829	-0.8671291	0.08621865	-0.02155633	-0.008704441	0.004347656
	-0.1085805	-0.8671342	0.07765691	-0.03884571	-0.008259925	0.004940177	0.08620143	-0.02161125
	0.0862182	-0.02155435	-0.008264178	0.004944834	0.07768834	-0.03898396	-0.1094674	-0.8669972
	-0.00870583	0.00435032	0.08625878	-0.0216204	-0.1094698	-0.8669921	0.07774783	-0.03892039
4.8e+08	0.0826586	-0.07356453	-0.4601778	-0.735954	0.1004685	-0.06944438	-0.002703892	0.0105552
	-0.4601762	-0.7359551	0.08258618	-0.07345111	-0.002136005	0.01090718	0.1004512	-0.06947438
	0.1004683	-0.06944315	-0.002137072	0.01091029	0.08247158	-0.07352922	-0.4609361	-0.7354617
	-0.002703465	0.01055691	0.1004815	-0.06948723	-0.4609366	-0.7354613	0.08253693	-0.07354774
4.9e+08	0.06018357	-0.1003712	-0.7228839	-0.474791	0.07455195	-0.1124588	0.005405814	0.008236943
	-0.7228864	-0.4747942	0.06013904	-0.1002934	0.005936542	0.008339084	0.07456591	-0.1124628
	0.07455197	-0.1124591	0.005935865	0.00833989	0.05998444	-0.1002107	-0.7233893	-0.4740195
	0.005405728	0.008237044	0.07456964	-0.112455	-0.7233868	-0.4740164	0.05999265	-0.1002877
5e+08	0.02529826	-0.1031541	-0.8558082	-0.1296461	0.02536038	-0.1237117	0.006882307	0.00115047
	-0.855804	-0.1296467	0.02522266	-0.1031149	0.007274959	0.00108194	0.02541768	-0.123709
	0.02535872	-0.1237108	0.007273521	0.001082559	0.02516761	-0.102892	-0.8559338	-0.1287041
	0.006881124	0.001150832	0.02541766	-0.1236804	-0.8559509	-0.1287055	0.02510138	-0.1029672
5.1e+08	-0.0008886643	-0.08086249	-0.8342021	0.2430118	-0.01656449	-0.0964421	0.002221194	-0.001756812
	-0.8342092	0.2430122	-0.00100765	-0.08081161	0.002447658	-0.001893817	-0.01648042	-0.09645663
	-0.01656801	-0.09644109	0.002446811	-0.001892508	-0.0008973412	-0.08056849	-0.8339201	0.2439489
	0.002220381	-0.001755626	-0.01647036	-0.09642524	-0.8339253	0.2439533	-0.001003189	-0.08059347
5.2e+08	-0.002600369	-0.04813813	-0.6548191	0.5759868	-0.02475691	-0.04861521	-0.0002867421	0.001816513
	-0.654825	0.5759912	-0.002711613	-0.04804986	-0.0001944608	0.001692903	-0.02467524	-0.04865148
	-0.02476014	-0.04861114	-0.0001943338	0.001693899	-0.002488687	-0.0479084	-0.6541423	0.5767301
	-0.000286612	0.001817497	-0.02466076	-0.04863524	-0.6541357	0.5767266	-0.002578594	-0.04788053
5.3e+08	0.01945059	-0.02734302	-0.3468486	0.8007229	0.004748009	-0.01295941	0.003832777	0.004735387
	-0.3468507	0.8007269	0.01939479	-0.0272531	0.003850387	0.004662615	0.004801214	-0.0130101
	0.004748925	-0.01295561	0.003850755	0.004662903	0.01960571	-0.02724854	-0.3459056	0.8011138
	0.003833151	0.004735674	0.004809552	-0.0130064	-0.3459035	0.8011098	0.01956248	-0.02720494
