!
!4 port subset of full cascaded channels using these ports:3 1 4 2
# Hz S RI R 50
0	0.01443109	1.009023e-20	0.9855832	-6.873512e-22	0.002333167	4.561429e-21	-0.002362342	2.927411e-19
	0.9855783	-6.872714e-22	0.01443385	1.009424e-20	-0.002354457	2.917836e-19	0.002353481	4.496048e-21
	0.002332783	4.561702e-21	-0.002354744	2.918184e-19	0.01417998	1.008822e-20	0.985847	-6.874509e-22
	-0.002362352	2.92742e-19	0.002353396	4.496329e-21	0.985847	-6.873709e-22	0.0137351	1.009643e-20
1e+07	0.0262179	0.03584862	0.9616003	-0.1876851	0.009425857	0.03260066	-0.005297195	-0.006046858
	0.9616003	-0.1876851	0.02621791	0.03584862	-0.005297196	-0.006046857	0.009425855	0.03260066
	0.009425857	0.03260066	-0.005297196	-0.006046857	0.02621565	0.03582727	0.9615909	-0.187707
	-0.005297195	-0.006046858	0.009425855	0.03260066	0.9615909	-0.187707	0.02621564	0.03582727
2e+07	0.04795298	0.06158024	0.9036844	-0.3616084	0.02796845	0.05965957	-0.01177411	-0.008876436
	0.9036844	-0.3616084	0.04799895	0.06158155	-0.01177605	-0.008874818	0.02796567	0.05965906
	0.02796796	0.05965861	-0.01177869	-0.008867051	0.04798748	0.06155972	0.9036768	-0.3616421
	-0.01177675	-0.008868665	0.02796519	0.0596581	0.9036768	-0.3616421	0.04798765	0.06156328
3e+07	0.07678682	0.07682256	0.8153723	-0.5180612	0.05480593	0.0777678	-0.01948047	-0.007185757
	0.8153723	-0.5180612	0.07676651	0.07687298	-0.01948189	-0.007188476	0.05480784	0.07776451
	0.0548059	0.07776777	-0.01948166	-0.007188158	0.07677031	0.07682261	0.815352	-0.5180856
	-0.01948025	-0.007185441	0.05480781	0.07776448	0.815352	-0.5180856	0.07676958	0.07682342
4e+07	0.1084353	0.08066927	0.7018838	-0.6524424	0.08596848	0.08505915	-0.02591296	-0.001108594
	0.7018838	-0.6524424	0.1083757	0.08056506	-0.02590648	-0.001109985	0.08597262	0.08506832
	0.0859684	0.08505919	-0.02590668	-0.001110162	0.1083838	0.0805886	0.7018626	-0.6524772
	-0.02591312	-0.001108801	0.08597268	0.0850683	0.7018626	-0.6524772	0.1083832	0.08057301
5e+07	0.1389769	0.07325708	0.5688472	-0.7618403	0.1174496	0.08131303	-0.02901808	0.008119175
	0.5688469	-0.7618404	0.1389153	0.07323552	-0.02901749	0.008116707	0.1174584	0.08131538
	0.1174486	0.08131367	-0.02901759	0.008116503	0.138915	0.07320718	0.5688076	-0.7618828
	-0.02901817	0.008118921	0.1174607	0.08131309	0.5688079	-0.7618828	0.1389057	0.07320108
6e+07	0.1649826	0.05644351	0.421514	-0.8446501	0.1457532	0.06752346	-0.02774377	0.0185173
	0.4215123	-0.844646	0.1650306	0.05642965	-0.02774304	0.01852391	0.1457481	0.06751921
	0.1457512	0.06752169	-0.0277435	0.0185231	0.1649537	0.05639287	0.4214447	-0.8446834
	-0.02774404	0.01851647	0.1457485	0.06752007	0.4214443	-0.8446832	0.1649647	0.05639223
7e+07	0.1841921	0.03248865	0.2647669	-0.9001878	0.1681058	0.04558918	-0.0220402	0.02795361
	0.264766	-0.9001836	0.1842352	0.03244756	-0.02203495	0.02796099	0.1680986	0.0455876
	0.1681042	0.04558683	-0.02203594	0.02796015	0.1841442	0.03243514	0.2646943	-0.9001959
	-0.02204087	0.02795279	0.1680992	0.04558832	0.2646938	-0.9001956	0.1841577	0.03242388
8e+07	0.1951389	0.003985269	0.1029687	-0.9283537	0.1825881	0.01793706	-0.01279046	0.03459193
	0.102969	-0.928354	0.1951243	0.004005801	-0.0127896	0.03459681	0.1825888	0.01793069
	0.1825865	0.0179351	-0.01279002	0.03459625	0.195058	0.003958958	0.102874	-0.9283764
	-0.01279132	0.03459114	0.1825885	0.01793142	0.1028737	-0.928376	0.1950563	0.003970885
9e+07	0.197067	-0.02625561	-0.05991667	-0.9294429	0.1880872	-0.01275356	-0.001551813	0.0371854
	-0.05991675	-0.9294428	0.197069	-0.02625947	-0.001551716	0.03718611	0.1880892	-0.01275284
	0.188088	-0.01275357	-0.001551697	0.03718608	0.1969831	-0.0262774	-0.0600282	-0.9294439
	-0.001551869	0.03718492	0.188089	-0.01275314	-0.06002811	-0.9294441	0.1969848	-0.02627758
1e+08	0.1901542	-0.05552683	-0.2202363	-0.9038798	0.1842253	-0.04371165	0.00974543	0.03531793
	-0.2202363	-0.9038798	0.1901542	-0.05552702	0.009745326	0.03531765	0.1842254	-0.0437115
	0.1842253	-0.04371148	0.009745295	0.03531779	0.1900589	-0.05553201	-0.2203613	-0.9038594
	0.009745398	0.03531807	0.1842253	-0.04371146	-0.2203613	-0.9038594	0.1900589	-0.05553171
1.1e+08	0.1750016	-0.08151176	-0.3743715	-0.8522717	0.1713181	-0.07216187	0.01930512	0.02937832
	-0.3743715	-0.8522717	0.1750063	-0.08150518	0.01928981	0.02937546	0.17135	-0.07216442
	0.171318	-0.07216188	0.01928978	0.0293755	0.1748207	-0.0814818	-0.3745043	-0.8522263
	0.01930512	0.02937837	0.17135	-0.07216437	-0.3745043	-0.8522262	0.1749631	-0.08152979
1.2e+08	0.1530574	-0.101761	-0.5186016	-0.7754017	0.150488	-0.09548941	0.02553487	0.02057187
	-0.5186016	-0.7754017	0.1530568	-0.1017655	0.02554475	0.02055569	0.1504542	-0.09548851
	0.1504879	-0.0954894	0.02554493	0.02055565	0.1529849	-0.1017972	-0.5187357	-0.7753269
	0.02553487	0.02057182	0.1504542	-0.09548847	-0.5187356	-0.7753269	0.1528938	-0.1016913
1.3e+08	0.1262485	-0.1144597	-0.6490253	-0.6744193	0.1234272	-0.1113445	0.02762955	0.01060955
	-0.6490253	-0.6744193	0.1262504	-0.1144599	0.02763	0.01060586	0.1234495	-0.1113443
	0.1234273	-0.1113444	0.02762986	0.01060584	0.1261309	-0.1143835	-0.6491538	-0.674311
	0.02763025	0.01060955	0.1234494	-0.1113442	-0.6491538	-0.674311	0.1261427	-0.1144582
1.4e+08	0.09707363	-0.1182729	-0.7614895	-0.5510249	0.09271567	-0.1178994	0.02562492	0.00142671
	-0.7614895	-0.5510248	0.09705816	-0.1182893	0.02556647	0.001463716	0.09287426	-0.1179003
	0.09271582	-0.1178994	0.02556636	0.001463694	0.09703175	-0.1179958	-0.7616039	-0.5508811
	0.0256247	0.001426749	0.0928741	-0.1179003	-0.7616039	-0.5508812	0.09689912	-0.1184449
1.5e+08	0.06847108	-0.1126669	-0.8516615	-0.4077702	0.06167992	-0.1141593	0.02030659	-0.005205285
	-0.8516615	-0.4077702	0.06844437	-0.11268	0.02029547	-0.005161388	0.06181926	-0.1141676
	0.06168005	-0.1141593	0.02029541	-0.00516141	0.06848942	-0.1124563	-0.8517523	-0.4075933
	0.02030652	-0.005205294	0.06181913	-0.1141676	-0.8517523	-0.4075934	0.06826414	-0.112739
1.6e+08	0.04360975	-0.09808491	-0.9152779	-0.2483379	0.03396071	-0.1002841	0.01341163	-0.008102628
	-0.9152779	-0.2483379	0.04364753	-0.09807551	0.01340439	-0.008127601	0.03384493	-0.1002668
	0.03396053	-0.100284	0.01340437	-0.008127629	0.0434729	-0.09807395	-0.9153358	-0.2481351
	0.0134116	-0.008102661	0.03384502	-0.1002668	-0.9153357	-0.2481351	0.04367352	-0.09794673
1.7e+08	0.0255205	-0.07614299	-0.9485759	-0.07773222	0.0130001	-0.07780486	0.006967128	-0.007128308
	-0.9485761	-0.07773229	0.0257605	-0.07614494	0.006946414	-0.0071597	0.0125832	-0.07768567
	0.01299967	-0.07780451	0.006946407	-0.007159721	0.02533284	-0.07613888	-0.9485897	-0.07750949
	0.006967125	-0.007128337	0.01258354	-0.07768589	-0.9485894	-0.07750946	0.02588477	-0.07602092
1.8e+08	0.01665192	-0.04959263	-0.9488745	0.09775599	0.001471376	-0.04956711	0.002812392	-0.003120379
	-0.9488747	0.09775608	0.01709553	-0.04978629	0.002879062	-0.003147265	0.001091817	-0.04932642
	0.001471157	-0.04956672	0.002879079	-0.003147279	0.01673821	-0.04958544	-0.9488469	0.09799159
	0.002812407	-0.003120403	0.001092096	-0.04932669	-0.9488467	0.09799155	0.01699026	-0.04966109
1.9e+08	0.01780192	-0.02228099	-0.915197	0.2709135	0.001447916	-0.01906785	0.002070091	0.002247315
	-0.9151964	0.2709132	0.0191416	-0.02252874	0.00245246	0.002105815	0.000456177	-0.01950979
	0.00144816	-0.01906909	0.002452435	0.002105783	0.01854722	-0.02249808	-0.9151188	0.2711516
	0.002070066	0.002247291	0.0004554694	-0.0195086	-0.9151194	0.271152	0.01842028	-0.02219561
2e+08	0.02949692	0.002485941	-0.8486165	0.434293	0.01200521	0.008310069	0.005194378	0.006964753
	-0.8486174	0.4342913	0.03050813	0.001091361	0.005395405	0.006404845	0.0113084	0.008554575
	0.01199798	0.008303624	0.005393787	0.006406079	0.02992345	0.001619542	-0.84848	0.434513
	0.00519289	0.006966079	0.01129494	0.008573834	-0.8484833	0.4345169	0.03013035	0.002020059
2.1e+08	0.0496675	0.01949115	-0.752191	0.5810211	0.03176182	0.02991934	0.01104191	0.008582516
	-0.7521893	0.5810195	0.04931854	0.01944971	0.01086375	0.008588878	0.03178256	0.02992634
	0.0317651	0.02991893	0.0108641	0.008588955	0.04947036	0.01948576	-0.7520196	0.5812269
	0.01104226	0.0085826	0.0317832	0.02992909	-0.7520214	0.5812285	0.04956216	0.01946867
2.2e+08	0.07374431	0.02843705	-0.6307165	0.7055163	0.05803864	0.0423569	0.01735934	0.006966118
	-0.6307172	0.7055172	0.07391752	0.0283242	0.01750417	0.006822895	0.05804738	0.04234742
	0.05803831	0.04235749	0.01750405	0.006822913	0.07387649	0.02830586	-0.6305067	0.7056922
	0.0173593	0.006966161	0.05804699	0.04234689	-0.6305091	0.7056947	0.07381106	0.02841587
2.3e+08	0.09940926	0.02772051	-0.48988	0.8038505	0.08675331	0.04442334	0.02273295	0.001777594
	-0.4898803	0.803851	0.09944929	0.02765719	0.02280486	0.001607181	0.08676064	0.04441348
	0.08675327	0.04442373	0.02280482	0.001607205	0.09942169	0.02760128	-0.4896387	0.8039952
	0.02273292	0.00177761	0.08676052	0.04441312	-0.4896384	0.8039946	0.09943072	0.0276993
2.4e+08	0.122887	0.01797396	-0.335658	0.8738014	0.1142015	0.03632074	0.02538213	-0.005981805
	-0.3356581	0.8738014	0.1228858	0.017972	0.02538239	-0.005995237	0.1142017	0.03632051
	0.1142015	0.03632075	0.02538237	-0.005995227	0.1228603	0.01791879	-0.3353853	0.8738996
	0.02538211	-0.005981793	0.1142017	0.03632049	-0.3353853	0.8738996	0.1228628	0.01792248
2.5e+08	0.1414448	0.0008763115	-0.173774	0.9145378	0.1371924	0.01944115	0.0243773	-0.01458622
	-0.1737739	0.9145377	0.1414745	0.0008731312	0.02450101	-0.01450584	0.1371853	0.01944167
	0.1371924	0.01944115	0.02450102	-0.01450583	0.1413879	0.0008455031	-0.173478	0.9145866
	0.02437731	-0.01458621	0.1371853	0.01944168	-0.1734781	0.9145867	0.1414279	0.0007898495
2.6e+08	0.153297	-0.0212514	-0.009440287	0.9262765	0.1533553	-0.004018756	0.0199735	-0.02228178
	-0.009440315	0.9262769	0.1532856	-0.02138194	0.01996807	-0.02223472	0.1533499	-0.004012994
	0.1533552	-0.004018886	0.01996806	-0.02223469	0.1532383	-0.0213468	-0.009128693	0.9262803
	0.01997348	-0.02228177	0.1533501	-0.004012967	-0.009128665	0.9262798	0.1532003	-0.02139002
2.7e+08	0.1574775	-0.04597424	0.1527158	0.9099154	0.1612058	-0.03151659	0.01279339	-0.02769306
	0.1527156	0.9099129	0.1574623	-0.0461307	0.0127631	-0.02769734	0.1612972	-0.03131174
	0.1612052	-0.03151483	0.01276317	-0.02769716	0.1573657	-0.04607925	0.1530346	0.9098646
	0.01279346	-0.02769287	0.161296	-0.03131173	0.1530349	0.909867	0.1573631	-0.04610449
2.8e+08	0.1538101	-0.07031835	0.3085485	0.8667641	0.1603795	-0.05997015	0.00428699	-0.03000952
	0.3085503	0.8667574	0.1539139	-0.07131893	0.003991594	-0.02995735	0.1602816	-0.06013181
	0.1603893	-0.05997842	0.003988665	-0.02995445	0.15371	-0.07081795	0.3088723	0.8666569
	0.004283893	-0.03000624	0.1602255	-0.06015034	0.3088689	0.8666594	0.1537582	-0.07085277
2.9e+08	0.1430843	-0.0924799	0.4543587	0.7984489	0.1507768	-0.08697856	-0.004252822	-0.02901672
	0.4543593	0.7984478	0.1430411	-0.09418236	-0.004615845	-0.02875128	0.1507022	-0.08696677
	0.1507829	-0.08698243	-0.004616263	-0.0287503	0.1429008	-0.09329092	0.4546738	0.7982889
	-0.004253217	-0.02901557	0.1506809	-0.08696683	0.4546732	0.79829	0.1429406	-0.09334856
3e+08	0.1260302	-0.1098154	0.5865974	0.7067904	0.1335566	-0.1099658	-0.01127865	-0.0253057
	0.5865965	0.7067884	0.1263765	-0.113406	-0.01189002	-0.02442032	0.1334711	-0.1097819
	0.1335601	-0.1099691	-0.01189003	-0.02441951	0.1260879	-0.1115245	0.586895	0.7065799
	-0.01127866	-0.02530474	0.133455	-0.1097792	0.5868959	0.706582	0.1260109	-0.1116185
3.1e+08	0.1044759	-0.1240055	0.7019046	0.5939597	0.1102923	-0.1265881	-0.01609597	-0.01885475
	0.7019047	0.5939594	0.105226	-0.1242144	-0.01647852	-0.01894538	0.1102	-0.1266069
	0.1102939	-0.1265909	-0.01647827	-0.01894478	0.1046819	-0.1239934	0.7021607	0.593678
	-0.01609567	-0.0188541	0.1101879	-0.1266027	0.7021607	0.5936783	0.1047385	-0.1240865
3.2e+08	0.08095244	-0.129714	0.7969674	0.4624637	0.08310595	-0.1355365	-0.01803604	-0.01229975
	0.7969657	0.4624625	0.08102399	-0.1298135	-0.01811299	-0.0122972	0.08308648	-0.1355391
	0.08310623	-0.1355368	-0.01811271	-0.01229693	0.080852	-0.1296467	0.7971731	0.4621237
	-0.01803583	-0.01229953	0.08308129	-0.1355373	0.7971788	0.4621272	0.08086628	-0.1296728
3.3e+08	0.05683203	-0.1281262	0.868598	0.3153888	0.05467225	-0.1357766	-0.01714035	-0.006404959
	0.8686008	0.3153898	0.05682522	-0.1280319	-0.01708436	-0.006420588	0.05468847	-0.1357734
	0.05467213	-0.1357761	-0.0170848	-0.006420834	0.05672483	-0.127961	0.868755	0.3150056
	-0.01714082	-0.006405219	0.05469554	-0.1357774	0.8687521	0.3150045	0.05671717	-0.1279346
3.4e+08	0.03468621	-0.1193752	0.9138563	0.1565157	0.02785039	-0.1272438	-0.01422791	-0.00232573
	0.9138567	0.1565156	0.03476505	-0.119152	-0.01410421	-0.002389771	0.02789524	-0.1272261
	0.02785172	-0.1272408	-0.01410661	-0.002390251	0.03465173	-0.1191498	0.9139415	0.1560936
	-0.0142304	-0.002326252	0.02792395	-0.1272498	0.9139411	0.1560937	0.03464397	-0.1190747
3.5e+08	0.01684528	-0.1044238	0.9302363	-0.009585091	0.005497514	-0.110832	-0.01050879	-0.0006929547
	0.9302463	-0.00958569	0.01704696	-0.1041697	-0.01035606	-0.0008089662	0.00557035	-0.1107849
	0.005500072	-0.1108289	-0.01036273	-0.0008086095	0.01689752	-0.1041911	0.9302468	-0.01003176
	-0.01051569	-0.0006926259	0.005644339	-0.1108523	0.9302414	-0.01003121	0.01691108	-0.1040797
3.6e+08	0.005231413	-0.08504373	0.9160429	-0.1775305	-0.009902478	-0.08842733	-0.007334055	-0.001467866
	0.9160615	-0.1775347	0.005528762	-0.08483637	-0.007175835	-0.001631688	-0.009802053	-0.08832357
	-0.009898977	-0.08842487	-0.007192279	-0.001627549	0.005351186	-0.08484358	0.9159801	-0.1779884
	-0.007350753	-0.001463683	-0.009617717	-0.08849688	0.9159569	-0.1779833	0.005400607	-0.08471836
3.7e+08	0.001052434	-0.06366241	0.8706988	-0.3412858	-0.01662734	-0.06276266	-0.005850192	-0.003945089
	0.8707596	-0.3413095	0.001391044	-0.06354303	-0.005702978	-0.004151389	-0.01651636	-0.06256588
	-0.01662413	-0.06276158	-0.005749294	-0.00413039	0.001209357	-0.06351386	0.870585	-0.3417503
	-0.005896985	-0.003923794	-0.01596173	-0.06309828	0.8705285	-0.3417283	0.001296084	-0.06340318
3.8e+08	0.004520923	-0.0430708	0.795436	-0.4943794	-0.01407704	-0.03711595	-0.006682981	-0.006936938
	0.7952307	-0.4945871	0.004840086	-0.04302597	-0.006561304	-0.007178874	-0.01396654	-0.03677844
	-0.0140695	-0.03710565	-0.006390099	-0.007032293	0.004686672	-0.04297523	0.7949739	-0.4949994
	-0.006510531	-0.006790638	-0.01694831	-0.0385385	0.7951793	-0.4947917	0.004792238	-0.04288548
3.9e+08	0.01483313	-0.02591647	0.6920101	-0.6312457	-0.00289387	-0.01473271	-0.009770901	-0.009110093
	0.6919512	-0.631246	0.01510074	-0.02596117	-0.009688803	-0.009375661	-0.002706534	-0.01428006
	-0.002887359	-0.01473325	-0.009645481	-0.009377339	0.0149884	-0.02586596	0.6916147	-0.6316101
	-0.009728022	-0.009111957	-0.003379239	-0.01424588	0.6916737	-0.6316099	0.0150976	-0.02584426
4e+08	0.03013585	-0.01443406	0.564918	-0.7459082	0.0151666	0.001796701	-0.01437685	-0.009364721
	0.5648943	-0.7459064	0.03031868	-0.01448027	-0.01434448	-0.009633441	0.01541131	0.00184373
	0.01517029	0.001795504	-0.01432561	-0.009637019	0.03026976	-0.01441866	0.5644893	-0.7462069
	-0.01435872	-0.009368178	0.01511587	0.001853174	0.5645131	-0.7462087	0.03034482	-0.01440477
4.1e+08	0.04794322	-0.009831663	0.4191894	-0.8343724	0.03752874	0.01014989	-0.01932951	-0.007143197
	0.4191764	-0.8343655	0.04807376	-0.009885345	-0.01934724	-0.007384665	0.03758696	0.01018123
	0.03753101	0.0101481	-0.01933818	-0.007388309	0.04804918	-0.009844257	0.4187163	-0.8345904
	-0.01932122	-0.007146403	0.03744231	0.01018875	0.4187276	-0.834593	0.04810773	-0.00985706
4.2e+08	0.0656006	-0.01233777	0.2606099	-0.8938634	0.0608895	0.009786767	-0.0233659	-0.002548637
	0.2606055	-0.8938629	0.06567485	-0.01238185	-0.02341649	-0.002725977	0.06090886	0.00981401
	0.06089054	0.00978649	-0.0234125	-0.002728879	0.0656711	-0.01237249	0.2601065	-0.8940034
	-0.02336254	-0.002550894	0.06084259	0.009820616	0.2601091	-0.8939996	0.06569778	-0.01239383
4.3e+08	0.08065796	-0.02117634	0.09517439	-0.9230769	0.08227283	0.001137572	-0.02547283	0.003730298
	0.09517284	-0.9230738	0.08068539	-0.02119786	-0.02551551	0.003649774	0.08227908	0.001148988
	0.08227315	0.00113716	-0.02551441	0.003648337	0.08068259	-0.02122621	0.09464929	-0.9231202
	-0.02547195	0.003729319	0.08225797	0.001153266	0.09465032	-0.9231188	0.08068707	-0.021238
4.4e+08	0.09123652	-0.03481513	-0.07133528	-0.921968	0.09912473	-0.01441562	-0.02511902	0.01064703
	-0.07133488	-0.9219701	0.09122921	-0.03480656	-0.02509854	0.01067137	0.09912274	-0.01441944
	0.09912461	-0.01441556	-0.02509872	0.01067186	0.09120668	-0.03486442	-0.07186615	-0.9219248
	-0.02511922	0.01064734	0.09912801	-0.01442102	-0.0718664	-0.9219274	0.0912073	-0.03486217
4.5e+08	0.09620273	-0.05128206	-0.233591	-0.8915514	0.1096094	-0.03481199	-0.02232921	0.01708734
	-0.2335909	-0.8915549	0.09617687	-0.05124178	-0.02221115	0.01718726	0.1095999	-0.03482646
	0.1096089	-0.03481163	-0.02221158	0.01718944	0.09611829	-0.0513125	-0.2341132	-0.8914131
	-0.02232947	0.0170886	0.1096188	-0.03483458	-0.2341156	-0.8914186	0.09612763	-0.05130425
4.6e+08	0.09519078	-0.06848137	-0.3868212	-0.833582	0.1127176	-0.05763345	-0.01760845	0.02213136
	-0.3868213	-0.8335839	0.09516433	-0.06841885	-0.01740932	0.02225731	0.1127032	-0.05765171
	0.1127176	-0.05763269	-0.01740964	0.02226019	0.09506465	-0.06847847	-0.387325	-0.8333602
	-0.01760821	0.02213283	0.112725	-0.05766457	-0.3873249	-0.8333582	0.09508304	-0.06847441
4.7e+08	0.0885275	-0.08444472	-0.5268151	-0.7503893	0.1082648	-0.08038517	-0.01176817	0.02522811
	-0.526816	-0.7503914	0.08851051	-0.08437862	-0.01153635	0.02533863	0.1082502	-0.08040109
	0.108265	-0.08038449	-0.01153637	0.0253409	0.08837457	-0.08440285	-0.5272811	-0.7500759
	-0.01176763	0.02522929	0.1082678	-0.08041379	-0.5272803	-0.7500738	0.08839525	-0.08440879
4.8e+08	0.07709494	-0.09751134	-0.6498654	-0.6447248	0.09682059	-0.1007284	-0.005712214	0.026263
	-0.6498652	-0.6447253	0.07708406	-0.09745965	-0.005490593	0.02633844	0.09681243	-0.1007376
	0.0968206	-0.1007279	-0.005490558	0.02633959	0.07692891	-0.09742929	-0.6502795	-0.6443268
	-0.005711788	0.02626355	0.09682198	-0.1007445	-0.6502794	-0.6443266	0.07694443	-0.09744712
4.9e+08	0.06218104	-0.1064395	-0.7527152	-0.5197095	0.07960024	-0.1166663	-0.0002352789	0.02552302
	-0.7527161	-0.5197106	0.06216382	-0.1064113	-4.915466e-05	0.02556317	0.07960523	-0.1166675
	0.07960026	-0.1166664	-4.941036e-05	0.02556345	0.06201224	-0.1063171	-0.7530646	-0.5192364
	-0.0002353205	0.02552306	0.07960647	-0.1166647	-0.7530638	-0.5192352	0.06201662	-0.1063455
5e+08	0.04532975	-0.1104693	-0.8325298	-0.3788297	0.05833282	-0.1266931	0.00412842	0.02358247
	-0.8325282	-0.3788294	0.04529411	-0.1104623	0.00426816	0.02359617	0.05835238	-0.1266861
	0.05833201	-0.1266929	0.004267572	0.02359606	0.04516867	-0.1103067	-0.8327924	-0.3782866
	0.004127929	0.0235824	0.05834982	-0.1266761	-0.8327981	-0.3782889	0.04515831	-0.1103407
5.1e+08	0.02819822	-0.1093532	-0.8868972	-0.2259539	0.03510134	-0.1299084	0.007187595	0.02114063
	-0.8868992	-0.2259547	0.02814132	-0.1093567	0.007280705	0.02113822	0.03513293	-0.1298963
	0.03509999	-0.1299087	0.007280034	0.02113816	0.02805805	-0.1091523	-0.8870687	-0.2253594
	0.007186987	0.02114065	0.03513038	-0.1298838	-0.8870713	-0.2253593	0.02803358	-0.1091846
5.2e+08	0.01241502	-0.1033618	-0.9139235	-0.06537369	0.01215882	-0.1261018	0.009098751	0.01884784
	-0.9139257	-0.06537389	0.01234722	-0.103364	0.009152251	0.01883859	0.01219708	-0.1260878
	0.01215687	-0.1261016	0.009151764	0.01883869	0.01231134	-0.103128	-0.9139884	-0.06474175
	0.009098277	0.01884793	0.0121965	-0.1260782	-0.9139863	-0.0647411	0.0122788	-0.1031515
5.3e+08	-0.0005653476	-0.09325871	-0.9123163	0.09821145	-0.008284301	-0.115782	0.01029425	0.01715464
	-0.9123176	0.09821143	-0.0006247491	-0.09325459	0.01031895	0.01714565	-0.008245085	-0.1157724
	-0.008285545	-0.1157807	0.01031869	0.01714578	-0.0006177619	-0.09300335	-0.9122687	0.09886127
	0.01029399	0.01715477	-0.008244579	-0.1157674	-0.9122673	0.09886128	-0.000648192	-0.09301504
