!
!4 port subset of full cascaded channels using these ports:3 1 4 2
# Hz S RI R 50
0	0.01406482	6.869866e-22	0.9859512	-6.888575e-22	0.002336186	4.297059e-21	-0.002365359	2.928465e-19
	0.9859463	-6.887776e-22	0.01406759	6.910004e-22	-0.002357471	2.918886e-19	0.002356508	4.231655e-21
	0.002335802	4.297316e-21	-0.002357758	2.919234e-19	0.01381337	6.849757e-22	0.9862156	-6.889577e-22
	-0.002365368	2.928474e-19	0.002356423	4.231919e-21	0.9862156	-6.888777e-22	0.01336833	6.931878e-22
1e+07	0.02548876	0.03591145	0.9631092	-0.1826772	0.009260108	0.03267201	-0.005270056	-0.006097474
	0.9631092	-0.1826772	0.02548876	0.03591145	-0.005270057	-0.006097474	0.009260106	0.03267201
	0.009260108	0.03267201	-0.005270057	-0.006097474	0.02548662	0.03589009	0.9630999	-0.1826992
	-0.005270056	-0.006097474	0.009260106	0.03267201	0.9630999	-0.1826992	0.02548661	0.0358901
2e+07	0.04667658	0.06209653	0.9080239	-0.3523876	0.02737048	0.05999546	-0.01170729	-0.009048043
	0.9080239	-0.3523876	0.04672256	0.06209832	-0.01170925	-0.009046444	0.02736771	0.05999492
	0.02737001	0.0599945	-0.01171197	-0.009038699	0.04671132	0.06207638	0.9080166	-0.3524214
	-0.01171001	-0.009040294	0.02736724	0.05999396	0.9080166	-0.3524214	0.04671146	0.06207994
3e+07	0.07498412	0.07816455	0.8239573	-0.5057	0.05364621	0.07867342	-0.0194328	-0.007544785
	0.8239573	-0.5057	0.07496301	0.07821469	-0.01943417	-0.007547527	0.05364818	0.07867015
	0.05364618	0.07867339	-0.01943395	-0.007547206	0.07496762	0.07816436	0.8239374	-0.5057248
	-0.01943258	-0.007544465	0.05364814	0.07867013	0.8239374	-0.5057248	0.07496688	0.07816515
4e+07	0.1062797	0.08314367	0.7157991	-0.638324	0.08427996	0.08688158	-0.0259881	-0.001678935
	0.7157991	-0.638324	0.1062222	0.08303817	-0.02598159	-0.001680194	0.0842839	0.08689085
	0.08427988	0.08688162	-0.02598178	-0.001680376	0.1062298	0.08306191	0.7157787	-0.6383592
	-0.02598826	-0.001679146	0.08428397	0.08689083	0.7157787	-0.6383592	0.1062296	0.0830463
5e+07	0.1367081	0.07716933	0.5887472	-0.7475785	0.1154321	0.0843561	-0.02936837	0.007380106
	0.588747	-0.7475786	0.136647	0.07714617	-0.02936772	0.007377652	0.1154409	0.08435869
	0.1154311	0.08435672	-0.02936782	0.007377446	0.1366475	0.07711783	0.5887087	-0.7476221
	-0.02936846	0.00737985	0.1154432	0.08435645	0.588709	-0.747622	0.1366384	0.07711149
6e+07	0.1629965	0.0618525	0.4477315	-0.8319739	0.1437304	0.0720135	-0.02846263	0.01773143
	0.4477297	-0.8319699	0.163045	0.06184012	-0.02846211	0.01773806	0.1437255	0.07200909
	0.1437285	0.07201167	-0.02846254	0.01773724	0.1629692	0.06180092	0.4476633	-0.8320093
	-0.02846288	0.01773059	0.1437258	0.07200997	0.4476629	-0.8320092	0.1629803	0.06180062
7e+07	0.1828918	0.03934834	0.2972053	-0.8908843	0.166492	0.05161282	-0.02316688	0.02729413
	0.2972043	-0.8908802	0.1829363	0.03930878	-0.02316189	0.0273017	0.1664849	0.05161099
	0.1664905	0.05161042	-0.02316285	0.02730082	0.1828458	0.03929303	0.2971331	-0.8908951
	-0.02316752	0.02729328	0.1664855	0.05161173	0.2971326	-0.8908948	0.1828597	0.03928225
8e+07	0.194881	0.01211113	0.1411193	-0.9242045	0.1818369	0.02541731	-0.0142823	0.03423709
	0.1411196	-0.9242049	0.1948656	0.01213107	-0.01428164	0.03424201	0.1818379	0.02541097
	0.1818353	0.02541529	-0.01428203	0.03424143	0.1948012	0.01208141	0.1410256	-0.9242312
	-0.01428312	0.03423626	0.1818375	0.02541168	0.1410252	-0.9242308	0.1947991	0.01209327
9e+07	0.1981764	-0.01716071	-0.01697531	-0.9321247	0.1886198	-0.004071604	-0.003287075	0.03730284
	-0.01697539	-0.9321245	0.1981785	-0.01716448	-0.003287011	0.03730354	0.1886218	-0.004070793
	0.1886206	-0.004071578	-0.003286991	0.03730351	0.1980935	-0.01718649	-0.01708674	-0.932131
	-0.003287109	0.03730235	0.1886216	-0.004071097	-0.01708665	-0.9321311	0.1980952	-0.01718659
1e+08	0.1928241	-0.04596906	-0.1737764	-0.9149203	0.1863774	-0.03422644	0.008003405	0.03599751
	-0.1737764	-0.9149203	0.1928241	-0.04596925	0.008003316	0.03599723	0.1863774	-0.03422628
	0.1863774	-0.03422627	0.008003278	0.03599737	0.192729	-0.04597926	-0.1739025	-0.9149064
	0.008003367	0.03599765	0.1863774	-0.03422625	-0.1739025	-0.9149064	0.192729	-0.04597896
1.1e+08	0.1792655	-0.07196017	-0.3260766	-0.8729739	0.1752797	-0.06242344	0.01777344	0.03060899
	-0.3260766	-0.872974	0.1792698	-0.07195333	0.0177583	0.03060527	0.1753116	-0.06242419
	0.1752796	-0.06242346	0.01775826	0.03060531	0.1790829	-0.07194056	-0.3262119	-0.8729361
	0.01777343	0.03060904	0.1753116	-0.06242414	-0.3262118	-0.8729361	0.1792279	-0.07198049
1.2e+08	0.1587832	-0.09274677	-0.4704917	-0.8067556	0.1562491	-0.086117	0.02443276	0.02222604
	-0.4704917	-0.8067556	0.1587829	-0.09275129	0.02444362	0.02221049	0.1562153	-0.08611818
	0.156249	-0.08611699	0.02444381	0.02221046	0.1587129	-0.09278753	-0.4706304	-0.8066892
	0.02443277	0.02222599	0.1562153	-0.08611814	-0.4706304	-0.8066892	0.1586153	-0.09268735
1.3e+08	0.1331033	-0.1064701	-0.6034362	-0.7170191	0.1307408	-0.1029734	0.02709625	0.01246438
	-0.6034362	-0.717019	0.1331053	-0.1064701	0.02709694	0.01246071	0.130763	-0.1029717
	0.1307409	-0.1029733	0.0270968	0.01246069	0.1329806	-0.1064018	-0.6035719	-0.7169195
	0.02709695	0.01246442	0.130763	-0.1029717	-0.603572	-0.7169195	0.1329974	-0.1064756
1.4e+08	0.1045351	-0.1116739	-0.7210106	-0.6049681	0.1010841	-0.1110796	0.02567504	0.003213625
	-0.7210106	-0.604968	0.1045208	-0.1116914	0.02561401	0.003246384	0.1012426	-0.1110692
	0.1010842	-0.1110796	0.0256139	0.003246353	0.1044732	-0.1114001	-0.7211353	-0.6048327
	0.02567482	0.003213648	0.1012424	-0.1110692	-0.7211354	-0.6048328	0.1043729	-0.1118581
1.5e+08	0.0758713	-0.1076292	-0.8190354	-0.4725591	0.07038165	-0.1092417	0.0208128	-0.003741514
	-0.8190354	-0.4725591	0.07584563	-0.1076443	0.02079832	-0.003698541	0.07052144	-0.1092393
	0.07038177	-0.1092417	0.02079827	-0.003698567	0.07587322	-0.1074173	-0.8191398	-0.4723894
	0.02081274	-0.003741528	0.07052131	-0.1092393	-0.8191398	-0.4723895	0.07566999	-0.1077169
1.6e+08	0.0502083	-0.09452019	-0.8932557	-0.3227993	0.04212753	-0.09732574	0.0141252	-0.007115379
	-0.8932558	-0.3227993	0.05024523	-0.09450773	0.01412003	-0.007140898	0.04201054	-0.09731799
	0.04212735	-0.09732568	0.01412001	-0.007140927	0.05007066	-0.0945202	-0.8933302	-0.3226016
	0.01412518	-0.007115414	0.04201063	-0.097318	-0.8933302	-0.3226015	0.05026049	-0.09437681
1.7e+08	0.03061096	-0.07366889	-0.9397313	-0.1599792	0.01974168	-0.07651428	0.007589257	-0.00661885
	-0.9397316	-0.1599793	0.03085059	-0.07365003	0.007571319	-0.006651974	0.01931532	-0.07643153
	0.01974122	-0.07651397	0.007571313	-0.006651994	0.03042334	-0.07368077	-0.9397644	-0.1597581
	0.007589257	-0.006618879	0.01931569	-0.07643172	-0.9397642	-0.159758	0.03096379	-0.07351516
1.8e+08	0.01968513	-0.04753912	-0.9553926	0.01029716	0.006026039	-0.0493086	0.003077908	-0.002925923
	-0.9553928	0.01029723	0.02014536	-0.04769154	0.003146876	-0.002946611	0.005625359	-0.04910339
	0.006025785	-0.04930823	0.003146894	-0.002946624	0.01977064	-0.04752369	-0.9553868	0.01053478
	0.003077925	-0.002925946	0.005625663	-0.04910364	-0.9553865	0.01053476	0.02002897	-0.047576
1.9e+08	0.01852798	-0.01980629	-0.9386713	0.1813945	0.00329599	-0.01886802	0.001834989	0.002413641
	-0.9386707	0.1813942	0.01988762	-0.01992349	0.002229906	0.002309626	0.002350096	-0.01940471
	0.003296352	-0.01886923	0.002229884	0.002309592	0.01929232	-0.01995021	-0.9386164	0.1816394
	0.001834966	0.002413614	0.002349275	-0.0194036	-0.938617	0.1816398	0.01913646	-0.01966098
2e+08	0.02796134	0.006387473	-0.8898929	0.346265	0.0111289	0.009507867	0.004488874	0.007469276
	-0.8898937	0.3462632	0.02911114	0.005100883	0.004746251	0.006931838	0.01040961	0.009680492
	0.01112236	0.009500712	0.004744506	0.00693292	0.02847505	0.00556776	-0.8897793	0.3464981
	0.00448725	0.007470464	0.01039424	0.009698315	-0.889783	0.3465016	0.02864042	0.005987952
2.1e+08	0.04646817	0.02574813	-0.8112865	0.4982207	0.0284555	0.03319089	0.01014963	0.009721821
	-0.8112845	0.4982193	0.04612505	0.02566954	0.009971512	0.009709105	0.02847541	0.03320008
	0.02845881	0.03319082	0.00997186	0.009709218	0.04627284	0.02572169	-0.8111377	0.4984439
	0.01014997	0.00972194	0.02847576	0.03320289	-0.8111397	0.4984453	0.04636609	0.02571449
2.2e+08	0.06958741	0.03758958	-0.7068205	0.6316316	0.0530519	0.04864157	0.01660759	0.008828396
	-0.7068214	0.6316325	0.06977246	0.03749666	0.01676779	0.008702055	0.05306165	0.04863311
	0.05305151	0.04864212	0.01676766	0.00870206	0.0697341	0.03747365	-0.7066314	0.6318302
	0.01660755	0.008828435	0.05306132	0.04863255	-0.7066341	0.6318325	0.06965665	0.03757582
2.3e+08	0.09526527	0.04012291	-0.5814214	0.7423392	0.08111781	0.05431006	0.02252317	0.004311425
	-0.5814218	0.7423397	0.0953125	0.04006461	0.02261465	0.004150316	0.08112625	0.0543011
	0.08111772	0.05431045	0.0226146	0.004150336	0.09529195	0.04000544	-0.5811984	0.7425113
	0.02252313	0.004311437	0.08112618	0.05430074	-0.581198	0.7425108	0.09528945	0.040104
2.4e+08	0.1197728	0.03358064	-0.4404128	0.8277497	0.1090984	0.05000973	0.02604899	-0.00303819
	-0.4404129	0.8277497	0.1197718	0.03357855	0.02605089	-0.003051513	0.1090987	0.05000953
	0.1090984	0.05000974	0.02605087	-0.003051505	0.1197532	0.03352209	-0.4401538	0.8278807
	0.02604898	-0.00303818	0.1090987	0.05000952	-0.4401537	0.8278807	0.1197552	0.03352606
2.5e+08	0.1402947	0.01930222	-0.2889766	0.8865721	0.1338094	0.0367239	0.02608799	-0.01163775
	-0.2889766	0.886572	0.1403246	0.01930284	0.02620068	-0.01154215	0.1338023	0.03672353
	0.1338094	0.03672389	0.02620069	-0.01154215	0.140242	0.01926384	-0.2886889	0.8866583
	0.02608799	-0.01163774	0.1338023	0.03672353	-0.2886889	0.8866584	0.1402889	0.01921363
2.6e+08	0.1548595	-0.0006643236	-0.1318888	0.9185085	0.1527569	0.01626952	0.02269407	-0.01974778
	-0.1318888	0.918509	0.1548655	-0.0007954475	0.02268245	-0.01970177	0.1527509	0.01627456
	0.1527569	0.01626938	0.02268244	-0.01970175	0.1548137	-0.0007673551	-0.1315799	0.9185537
	0.02269405	-0.01974778	0.152751	0.0162746	-0.1315798	0.9185532	0.1547817	-0.0008152948
2.7e+08	0.1622657	-0.02408767	0.02657319	0.9239076	0.164239	-0.009131079	0.01630855	-0.02596185
	0.02657337	0.9239051	0.162272	-0.02424506	0.01627909	-0.02597026	0.1643015	-0.008915226
	0.1642381	-0.009129408	0.01627913	-0.02597007	0.1621689	-0.0242077	0.02689659	0.9239012
	0.0163086	-0.02596165	0.1643003	-0.008915388	0.02689646	0.9239036	0.1621697	-0.02423316
2.8e+08	0.1619833	-0.04811936	0.1825434	0.9034951	0.1675346	-0.03660059	0.008245977	-0.02931686
	0.1825462	0.9034887	0.1622288	-0.04909684	0.007945644	-0.0293072	0.1674607	-0.03677468
	0.1675456	-0.03660738	0.007942333	-0.02930469	0.1619546	-0.04862943	0.1828799	0.9034351
	0.008242447	-0.02931399	0.1674077	-0.03680104	0.1828762	0.903437	0.1620075	-0.04865706
2.9e+08	0.1545627	-0.07094584	0.3325329	0.8582868	0.1622192	-0.0639125	-0.0002690231	-0.02944617
	0.3325337	0.8582858	0.154771	-0.07263941	-0.0006678871	-0.02923667	0.1621437	-0.06391161
	0.1622258	-0.06391543	-0.0006684363	-0.02923576	0.1544998	-0.0717768	0.332869	0.8581749
	-0.0002695761	-0.02944507	0.1621226	-0.06391481	0.3328682	0.8581759	0.1545478	-0.07182808
3e+08	0.1403369	-0.08992797	0.4731442	0.7894351	0.1490345	-0.08847937	-0.007651743	-0.02672375
	0.4731436	0.7894329	0.1412274	-0.09343111	-0.008392165	-0.02594022	0.1489224	-0.08830986
	0.1490385	-0.08848207	-0.008392289	-0.02593942	0.1406539	-0.09161166	0.4734713	0.7892721
	-0.007651886	-0.02672279	0.1489061	-0.08830969	0.4734719	0.7892743	0.140592	-0.09171661
3.1e+08	0.1213577	-0.106536	0.6010793	0.6983944	0.1291142	-0.1078555	-0.0132587	-0.02102317
	0.6010794	0.6983941	0.1221329	-0.1066246	-0.013623	-0.02117313	0.1290258	-0.1078885
	0.1291163	-0.107858	-0.01362284	-0.02117249	0.1215589	-0.1064912	0.6013775	0.6981559
	-0.0132585	-0.02102247	0.1290132	-0.1078863	0.6013774	0.6981561	0.1216297	-0.1065745
3.2e+08	0.0992641	-0.1151572	0.7129931	0.5868902	0.1042527	-0.1204991	-0.01605271	-0.01483649
	0.7129915	0.5868887	0.09935103	-0.1152439	-0.01612923	-0.01484647	0.1042339	-0.1205047
	0.104253	-0.1204993	-0.01612898	-0.01484616	0.09915329	-0.1151063	0.713252	0.5865872
	-0.01605253	-0.01483623	0.1042284	-0.1205038	0.7132571	0.5865916	0.09917166	-0.1151298
3.3e+08	0.07552864	-0.1167963	0.8055227	0.4571755	0.07681145	-0.1250048	-0.01597085	-0.008899721
	0.8055253	0.457177	0.07550611	-0.1167042	-0.0159129	-0.008905785	0.0768269	-0.1249988
	0.07681123	-0.1250042	-0.0159133	-0.008906098	0.07539473	-0.1166502	0.8057422	0.4568228
	-0.01597128	-0.008900054	0.07683457	-0.1250017	0.8057396	0.4568213	0.07538274	-0.1166253
3.4e+08	0.0526417	-0.111197	0.8753768	0.3121687	0.04947976	-0.1208437	-0.01364225	-0.00445833
	0.8753773	0.3121687	0.05268107	-0.110963	-0.01350906	-0.00450023	0.04952096	-0.1208186
	0.04948056	-0.1208406	-0.01351137	-0.004501086	0.05256882	-0.1109795	0.8755338	0.3117662
	-0.01364464	-0.004459244	0.0495534	-0.120837	0.8755334	0.3117663	0.05254822	-0.1109066
3.5e+08	0.03298688	-0.09892788	0.9194894	0.1555858	0.02511052	-0.1083823	-0.01015124	-0.002309862
	0.9194994	0.155587	0.03314079	-0.09864138	-0.009979962	-0.002397221	0.02517399	-0.1083228
	0.0251125	-0.1083787	-0.009986652	-0.002397949	0.03299756	-0.09868804	0.9195789	0.1551466
	-0.01015815	-0.002310657	0.02525895	-0.1083762	0.9195735	0.1551462	0.03299117	-0.09857574
3.6e+08	0.01868655	-0.08139085	0.9353718	-0.007961873	0.006379352	-0.08898094	-0.006821535	-0.00262667
	0.9353909	-0.007962648	0.01894188	-0.08113218	-0.006635693	-0.002759308	0.006459416	-0.08886029
	0.006382382	-0.08897791	-0.006652721	-0.002757932	0.01876891	-0.08117095	0.9353933	-0.008425012
	-0.006838823	-0.002625298	0.006672755	-0.08899755	0.9353695	-0.00842418	0.01879481	-0.08103846
3.7e+08	0.01128744	-0.06072714	0.9214279	-0.1730569	-0.004604859	-0.06492939	-0.004884371	-0.004904568
	0.9214923	-0.1730689	0.01159862	-0.06054611	-0.004700748	-0.005080173	-0.004532398	-0.06471476
	-0.004601856	-0.06492785	-0.004750297	-0.005067227	0.01141524	-0.06055101	0.9214025	-0.1735359
	-0.004934445	-0.004891418	-0.003886426	-0.06513536	0.9213427	-0.1735248	0.01147998	-0.06042572
3.8e+08	0.01144505	-0.03958621	0.877657	-0.3335376	-0.006692896	-0.0392286	-0.005145393	-0.008089308
	0.877495	-0.3337815	0.0117504	-0.0394809	-0.00497917	-0.008303962	-0.006649031	-0.03887526
	-0.006687996	-0.03921685	-0.004835042	-0.008128782	0.01159098	-0.03946031	0.8773211	-0.3342365
	-0.004999984	-0.007914162	-0.009245065	-0.04117994	0.8774833	-0.3339927	0.01167753	-0.03935185
3.9e+08	0.01882312	-0.02064349	0.8046342	-0.484038	9.123268e-05	-0.01506588	-0.007770799	-0.01087358
	0.8045763	-0.4840499	0.01909496	-0.02063467	-0.007637746	-0.01111842	0.0001861349	-0.01458403
	9.770142e-05	-0.01506502	-0.007594558	-0.01111234	0.01896698	-0.0205637	0.8043171	-0.484474
	-0.007728009	-0.01086776	-0.0004818501	-0.01468294	0.804375	-0.4844621	0.01907001	-0.02052082
4e+08	0.03201524	-0.006358296	0.705435	-0.6182355	0.01456035	0.00479695	-0.01223614	-0.01206215
	0.7054112	-0.6182386	0.0322041	-0.006366733	-0.01215005	-0.01231947	0.01479113	0.004892586
	0.01456422	0.00479657	-0.01213073	-0.01231954	0.03214459	-0.006317017	0.7050742	-0.6186153
	-0.01221758	-0.01206226	0.01449912	0.0048422	0.7050979	-0.6186122	0.03221548	-0.006288197
4.1e+08	0.04883912	0.001687503	0.5839306	-0.7315917	0.03472748	0.01767451	-0.01750718	-0.01090823
	0.5839165	-0.7315876	0.04897827	0.001661861	-0.01747456	-0.01114875	0.03477808	0.01771732
	0.03473008	0.01767325	-0.01746493	-0.01115064	0.04894625	0.001695842	0.5835118	-0.7319033
	-0.01749839	-0.01090985	0.03463466	0.01769476	0.5835233	-0.7319034	0.04900633	0.001695417
4.2e+08	0.06679002	0.002815473	0.4448847	-0.8205296	0.05757789	0.02243626	-0.02234778	-0.00728343
	0.4448803	-0.82053	0.06687211	0.002788011	-0.02235974	-0.007467915	0.05759107	0.02246707
	0.05757897	0.02243622	-0.02235525	-0.007469997	0.06686656	0.002794974	0.4444212	-0.8207734
	-0.02234403	-0.007285016	0.05752475	0.0224595	0.444423	-0.8207691	0.06689723	0.002779734
4.3e+08	0.08338533	-0.002663608	0.2934951	-0.8827664	0.08023796	0.01890774	-0.02565842	-0.001663748
	0.2934929	-0.8827637	0.08341684	-0.00267872	-0.02568271	-0.001751821	0.0802416	0.01892027
	0.08023837	0.0189074	-0.02568134	-0.001753012	0.08341983	-0.002708473	0.2929908	-0.8829228
	-0.02565736	-0.00166454	0.08022001	0.01891988	0.2929915	-0.8829212	0.08342678	-0.00271904
4.4e+08	0.09655368	-0.0136227	0.1349721	-0.9171813	0.1000435	0.007872255	-0.02673606	0.005047158
	0.1349729	-0.9171832	0.09654463	-0.01361594	-0.02672144	0.005075503	0.1000424	0.007868082
	0.1000434	0.007872285	-0.02672171	0.005075949	0.09653455	-0.01367872	0.1344436	-0.9172571
	-0.02673632	0.005047428	0.1000479	0.007867703	0.1344439	-0.9172597	0.09653464	-0.01367638
4.5e+08	0.1048518	-0.02838738	-0.02570567	-0.9236698	0.1148605	-0.009124205	-0.02539521	0.0117805
	-0.02570478	-0.9236731	0.1048175	-0.02835392	-0.02530261	0.01190488	0.1148544	-0.009140514
	0.1148599	-0.009123961	-0.0253035	0.01190692	0.104775	-0.02843712	-0.02624702	-0.9236535
	-0.02539573	0.01178169	0.1148747	-0.009144152	-0.0262481	-0.9236594	0.1047822	-0.02842693
4.6e+08	0.1075395	-0.04502907	-0.1839309	-0.9028621	0.1232403	-0.0300451	-0.02194301	0.01756393
	-0.1839305	-0.9028641	0.1074993	-0.04497424	-0.02177799	0.01773298	0.1232305	-0.03006626
	0.1232401	-0.03004436	-0.02177893	0.01773573	0.1074143	-0.04505588	-0.184474	-0.9027629
	-0.02194308	0.01756542	0.1232548	-0.03007373	-0.1844743	-0.9027609	0.1074313	-0.04504762
4.7e+08	0.1045526	-0.06161275	-0.3354867	-0.8559761	0.1244705	-0.0526144	-0.01704662	0.02171822
	-0.335487	-0.8559784	0.1045204	-0.06155239	-0.01684694	0.02188084	0.1244599	-0.05263339
	0.1244705	-0.05261368	-0.01684746	0.02188304	0.1043921	-0.06160798	-0.3360153	-0.8557814
	-0.01704635	0.02171949	0.1244801	-0.05264157	-0.3360151	-0.8557791	0.1044136	-0.06160884
4.8e+08	0.09640649	-0.07638916	-0.4765092	-0.7846688	0.1185566	-0.07453672	-0.01154414	0.02396101
	-0.4765088	-0.7846692	0.09638341	-0.07634151	-0.0113467	0.02408804	0.1185509	-0.07454766
	0.1185565	-0.07453626	-0.01134693	0.02408917	0.09622352	-0.07634866	-0.4770089	-0.7843816
	-0.01154384	0.02396165	0.1185618	-0.074552	-0.4770089	-0.7843814	0.09624294	-0.07636224
4.9e+08	0.08407757	-0.08792502	-0.6034364	-0.6909871	0.1061663	-0.09368326	-0.006247815	0.02441252
	-0.6034369	-0.6909884	0.08405388	-0.08790193	-0.006076795	0.02449749	0.1061714	-0.09368318
	0.1061663	-0.09368335	-0.006077111	0.02449771	0.08388206	-0.0878464	-0.6038933	-0.6906131
	-0.006247863	0.02441256	0.1061719	-0.09368017	-0.6038928	-0.6906118	0.08389332	-0.08787285
5e+08	0.06887653	-0.09518909	-0.7129731	-0.5773684	0.08854679	-0.1082526	-0.001779037	0.02351731
	-0.7129717	-0.5773676	0.06884015	-0.0951913	-0.001646809	0.02356579	0.08856402	-0.1082409
	0.08854596	-0.1082527	-0.001647356	0.02356555	0.06867849	-0.09506995	-0.7133653	-0.5769066
	-0.001779499	0.02351713	0.08855902	-0.1082319	-0.7133702	-0.5769103	0.068677	-0.09510553
5.1e+08	0.05232255	-0.09760753	-0.8020795	-0.4466678	0.06741135	-0.1169098	0.001542178	0.02190737
	-0.8020812	-0.4466691	0.05226824	-0.09762545	0.00163309	0.02192892	0.06743886	-0.11689
	0.06741011	-0.1169105	0.001632453	0.02192872	0.05213504	-0.09744665	-0.8023986	-0.4461346
	0.001541583	0.02190726	0.06743319	-0.1168785	-0.8024011	-0.4461353	0.0521196	-0.09748421
5.2e+08	0.03601391	-0.09509821	-0.8680455	-0.3022311	0.04479619	-0.1189077	0.003737488	0.02023885
	-0.8680475	-0.3022319	0.0359488	-0.09511798	0.003791722	0.02024387	0.04482957	-0.1188841
	0.04479424	-0.118908	0.003791229	0.02024386	0.03585308	-0.09489682	-0.8682734	-0.3016353
	0.003737009	0.02023883	0.0448265	-0.1188749	-0.8682716	-0.3016341	0.03582773	-0.09492814
5.3e+08	0.0214882	-0.08807742	-0.908567	-0.1479106	0.02287696	-0.1141668	0.005133571	0.01903438
	-0.9085683	-0.147911	0.02142965	-0.08808924	0.005159852	0.01903226	0.02291232	-0.1141471
	0.02287542	-0.1141659	0.005159571	0.01903233	0.02137095	-0.08784271	-0.9086936	-0.1472687
	0.00513329	0.01903445	0.02291149	-0.1141422	-0.9086923	-0.1472683	0.02134464	-0.0878621
5.4e+08	0.01007158	-0.0774353	-0.9219216	0.01191988	0.003758138	-0.1033123	0.006256412	0.01856144
