!
!4 port subset of full cascaded channels using these ports:3 1 4 2
# Hz S RI R 50
0	0.02590595	8.366572e-22	0.9741079	-8.393363e-22	0.002567481	8.672574e-21	-0.002596316	3.254904e-19
	0.974103	-8.392484e-22	0.02590868	8.411756e-22	-0.002588464	3.245448e-19	0.002587617	8.599834e-21
	0.0025671	8.673031e-21	-0.00258875	3.245793e-19	0.02566065	8.344692e-22	0.9743634	-8.394688e-22
	-0.002596328	3.254912e-19	0.002587531	8.600317e-21	0.9743634	-8.393796e-22	0.02522095	8.435636e-22
1e+07	0.04287425	0.0405058	0.9352036	-0.2434819	0.01406783	0.03827672	-0.007294699	-0.006196634
	0.9352036	-0.2434819	0.04287425	0.0405058	-0.0072947	-0.006196634	0.01406783	0.03827672
	0.01406783	0.03827672	-0.0072947	-0.006196634	0.04287203	0.04049193	0.9351944	-0.243499
	-0.007294699	-0.006196634	0.01406783	0.03827672	0.9351944	-0.243499	0.04287203	0.04049193
2e+07	0.07415862	0.06373416	0.8390611	-0.4609435	0.04176193	0.06571823	-0.01563269	-0.006655077
	0.8390611	-0.4609435	0.07420362	0.06372994	-0.01563418	-0.006653012	0.04175909	0.06571804
	0.04175614	0.06571013	-0.01563493	-0.006654598	0.07418109	0.06372341	0.8390521	-0.4609563
	-0.01563345	-0.006656659	0.0417533	0.06570994	0.8390521	-0.4609563	0.07418173	0.06372687
3e+07	0.1116687	0.06861914	0.6961786	-0.6431057	0.07857864	0.07702671	-0.02304784	-0.0004724139
	0.6961786	-0.6431057	0.111658	0.06867132	-0.02305017	-0.0004745	0.07857992	0.07702308
	0.07857823	0.07702656	-0.02305031	-0.0004744932	0.1116634	0.06863739	0.6961631	-0.6431156
	-0.02304799	-0.0004724069	0.07857951	0.07702292	0.6961631	-0.6431156	0.1116628	0.06863838
4e+07	0.1467388	0.0560871	0.5184484	-0.7822513	0.1163306	0.07083668	-0.02566336	0.01015393
	0.5184483	-0.7822513	0.1466583	0.05600158	-0.02565778	0.01014967	0.116337	0.07084461
	0.1163308	0.07083669	-0.02565766	0.01014949	0.1466869	0.05603585	0.5184342	-0.7822688
	-0.02566322	0.01015371	0.1163373	0.07084454	0.5184343	-0.7822688	0.1466825	0.05602111
5e+07	0.1727752	0.02985452	0.3178644	-0.8745475	0.1479158	0.04933855	-0.02181255	0.0213891
	0.3178641	-0.8745474	0.1727114	0.02985168	-0.02181353	0.02138623	0.1479249	0.04933808
	0.1479151	0.0493394	-0.02181359	0.02138596	0.1727198	0.02983601	0.3178358	-0.8745672
	-0.02181262	0.02138879	0.1479265	0.04933526	0.3178361	-0.8745673	0.1727093	0.02983307
6e+07	0.1858951	-0.004394683	0.1052257	-0.9185572	0.168224	0.01685178	-0.01240731	0.02943255
	0.1052254	-0.918553	0.1859348	-0.004423284	-0.01240374	0.02943806	0.168218	0.01684988
	0.1682215	0.0168509	-0.01240444	0.02943752	0.1858657	-0.004422607	0.1051776	-0.9185606
	-0.01240789	0.02943192	0.1682186	0.01685047	0.1051773	-0.9185603	0.1858756	-0.004427191
7e+07	0.1848844	-0.04080164	-0.109635	-0.914317	0.1743237	-0.02113463	-0.0001976157	0.03185096
	-0.1096342	-0.914313	0.1849076	-0.04085518	-0.0001896306	0.03185472	0.174317	-0.02113307
	0.1743213	-0.02113602	-0.0001908611	0.03185435	0.1848312	-0.04082244	-0.1096721	-0.9142995
	-0.0001985946	0.0318505	0.1743178	-0.02113274	-0.1096723	-0.9142989	0.1848387	-0.04083808
8e+07	0.170532	-0.07389234	-0.3174444	-0.8628859	0.1654929	-0.0587217	0.0113415	0.02818177
	-0.3174444	-0.8628865	0.1705285	-0.07386772	0.01134426	0.02818608	0.1654906	-0.05872754
	0.1654906	-0.05872273	0.01134356	0.02818577	0.1704522	-0.07386891	-0.3175042	-0.8628767
	0.01134031	0.02818146	0.1654906	-0.05872675	-0.3175043	-0.8628762	0.1704559	-0.07385792
9e+07	0.1454169	-0.09888391	-0.5090608	-0.7663456	0.1431379	-0.09021354	0.0191607	0.01991896
	-0.5090607	-0.7663455	0.1454167	-0.09888813	0.01916106	0.01991943	0.1431401	-0.09021396
	0.1431386	-0.09021396	0.01916101	0.01991934	0.1453315	-0.09884272	-0.509124	-0.7663139
	0.01916037	0.01991852	0.1431397	-0.09021412	-0.509124	-0.7663141	0.1453328	-0.09884373
1e+08	0.1136552	-0.1124658	-0.6751723	-0.6280979	0.1107485	-0.1107481	0.02161638	0.009910437
	-0.6751723	-0.6280978	0.1136551	-0.112466	0.02161612	0.009910254	0.1107486	-0.1107481
	0.1107486	-0.110748	0.02161617	0.00991039	0.113568	-0.1123883	-0.6752356	-0.6280444
	0.02161643	0.009910573	0.1107486	-0.110748	-0.6752356	-0.6280444	0.1135681	-0.1123881
1.1e+08	0.08027886	-0.1129813	-0.8064182	-0.453523	0.07359579	-0.117119	0.01896205	0.001335083
	-0.8064183	-0.453523	0.08028675	-0.112978	0.01894912	0.001347312	0.07362059	-0.1171411
	0.07359575	-0.117119	0.01894911	0.001347391	0.08016061	-0.1128077	-0.806473	-0.453446
	0.01896207	0.001335151	0.07362067	-0.1171411	-0.8064729	-0.4534459	0.0802459	-0.1129325
1.2e+08	0.05102617	-0.1010058	-0.8939008	-0.2506483	0.03811216	-0.1086546	0.01318393	-0.003341328
	-0.8939009	-0.2506483	0.05102082	-0.1010089	0.01317625	-0.003363251	0.03808738	-0.1086306
	0.03811215	-0.1086546	0.01317637	-0.003363364	0.05096557	-0.1009388	-0.8939371	-0.2505507
	0.01318391	-0.00334133	0.03808746	-0.1086307	-0.8939371	-0.2505507	0.05096635	-0.1007985
1.3e+08	0.03082818	-0.07970885	-0.930436	-0.03045388	0.01046046	-0.08754182	0.007268579	-0.003465853
	-0.9304359	-0.03045389	0.0308294	-0.07971078	0.007269515	-0.003469444	0.01047577	-0.08755756
	0.01046062	-0.08754187	0.007269429	-0.003469326	0.03082866	-0.07951989	-0.9304449	-0.0303406
	0.007269101	-0.003466309	0.0104758	-0.08755756	-0.9304449	-0.03034059	0.03078566	-0.07958175
1.4e+08	0.02269831	-0.05432835	-0.9119663	0.1935513	-0.004770456	-0.05879515	0.003889678	-0.0002866072
	-0.9119663	0.1935513	0.02268142	-0.05432991	0.003891592	-0.0002351692	-0.004671364	-0.05891104
	-0.004770283	-0.05879529	0.003891537	-0.0002350776	0.02292496	-0.05405833	-0.9119412	0.1936715
	0.003889597	-0.0002863959	-0.004671443	-0.05891096	-0.9119413	0.1936715	0.02250102	-0.05426496
1.5e+08	0.02667571	-0.03094407	-0.8387545	0.4066535	-0.005910157	-0.02905248	0.004196002	0.003797831
	-0.8387545	0.4066534	0.02665089	-0.03093739	0.004223817	0.003816707	-0.005833605	-0.02916129
	-0.005910091	-0.02905264	0.004223804	0.003816752	0.02691028	-0.03078426	-0.8386941	0.406769
	0.004195993	0.00379789	-0.005833641	-0.02916121	-0.8386942	0.406769	0.02654956	-0.03078467
1.6e+08	0.03981714	-0.01474647	-0.7156569	0.5948296	0.005307769	-0.004688187	0.007646316	0.006269996
	-0.7156569	0.5948297	0.03984782	-0.01476708	0.007627625	0.006270764	0.005256226	-0.004588759
	0.005307705	-0.004688047	0.007627631	0.006270771	0.03981518	-0.01459216	-0.7155666	0.5949297
	0.007646319	0.006269999	0.005256227	-0.004588903	-0.7155665	0.5949297	0.0400322	-0.01468172
1.7e+08	0.05719061	-0.008614197	-0.551345	0.7464628	0.02444644	0.009886838	0.01232908	0.005763857
	-0.5513451	0.746463	0.05732264	-0.008807312	0.01230853	0.005773682	0.0243256	0.01028682
	0.02444649	0.00988735	0.01230855	0.005773663	0.05716752	-0.008432156	-0.5512266	0.7465362
	0.01232909	0.005763831	0.02432553	0.01028638	-0.5512265	0.746536	0.05755539	-0.008827713
1.8e+08	0.07348864	-0.01265543	-0.3568845	0.8532818	0.04586889	0.01312251	0.01622081	0.002455222
	-0.3568845	0.853282	0.07353176	-0.01311981	0.01621929	0.00239422	0.04589053	0.01355673
	0.04586909	0.01312285	0.01621931	0.002394181	0.07359175	-0.01271355	-0.3567483	0.8533288
	0.01622082	0.002455178	0.04589035	0.01355636	-0.3567482	0.8533286	0.07365942	-0.01296845
1.9e+08	0.08397006	-0.02426443	-0.1443426	0.9104726	0.06487256	0.005752182	0.01805679	-0.002388646
	-0.1443427	0.9104721	0.08429545	-0.02549283	0.01802747	-0.002717514	0.06406542	0.006430817
	0.0648715	0.005751518	0.01802748	-0.002717539	0.08411314	-0.02497364	-0.1441935	0.9104855
	0.01805681	-0.002388668	0.06406616	0.006431867	-0.1441934	0.910486	0.08436815	-0.0247599
2e+08	0.08697153	-0.04005268	0.074202	0.9162127	0.07620566	-0.008979177	0.01778563	-0.007537775
	0.07420075	0.9162144	0.08613402	-0.04140877	0.01738998	-0.007810166	0.07615996	-0.008261793
	0.07619728	-0.008975016	0.01739078	-0.007809963	0.08641939	-0.04069335	0.07435289	0.9161816
	0.01778661	-0.007537681	0.07617197	-0.008243129	0.07435449	0.9161845	0.08683601	-0.04079565
2.1e+08	0.08043128	-0.05619424	0.2870888	0.8711143	0.07909284	-0.02680247	0.01553214	-0.01196488
	0.2870879	0.8711124	0.08029289	-0.05590759	0.01549776	-0.01182122	0.07910678	-0.02681877
	0.07909352	-0.02680525	0.01549766	-0.01182136	0.08039999	-0.05603559	0.2872382	0.8710582
	0.01553205	-0.01196502	0.07910942	-0.02681871	0.2872391	0.8710601	0.08040226	-0.05610707
2.2e+08	0.06718658	-0.06689884	0.4832477	0.7780244	0.0730756	-0.04407408	0.01284425	-0.01484992
	0.4832483	0.7780253	0.0671389	-0.06706703	0.01275788	-0.01500508	0.07306915	-0.04408467
	0.07307611	-0.04407346	0.01275787	-0.01500503	0.06712709	-0.06702602	0.4833861	0.7779339
	0.01284429	-0.01484994	0.07306849	-0.04408459	0.4833879	0.7779369	0.06720147	-0.06695867
2.3e+08	0.05001461	-0.0709271	0.6523109	0.6418302	0.05986839	-0.05680562	0.01020613	-0.01713018
	0.6523113	0.6418306	0.04998462	-0.07096666	0.01006983	-0.0172333	0.05986075	-0.05681489
	0.05986868	-0.05680554	0.01006984	-0.01723329	0.04993874	-0.07093283	0.6524345	0.6417089
	0.01020613	-0.01713017	0.05986045	-0.05681481	0.6524341	0.6417085	0.05001236	-0.07093211
2.4e+08	0.03266875	-0.06710984	0.7849389	0.4696125	0.04254835	-0.06266777	0.007623907	-0.01931812
	0.7849389	0.4696126	0.03266852	-0.06710923	0.007611252	-0.01932088	0.04254817	-0.06266805
	0.04254836	-0.06266777	0.007611251	-0.01932088	0.03263171	-0.06706151	0.7850305	0.469455
	0.007623906	-0.01931812	0.04254817	-0.06266804	0.7850305	0.469455	0.03263381	-0.06706307
2.5e+08	0.01883821	-0.05651499	0.8733403	0.27063	0.02473133	-0.0610272	0.004720602	-0.02170954
	0.8733402	0.27063	0.01883506	-0.05652327	0.004808455	-0.02182203	0.02473057	-0.06102088
	0.02473135	-0.0610272	0.004808447	-0.02182205	0.01882921	-0.0564031	0.8733909	0.2704444
	0.004720605	-0.02170955	0.02473056	-0.06102086	0.873391	0.2704445	0.01878267	-0.05646918
2.6e+08	0.01123283	-0.04183878	0.9120204	0.05608536	0.009703176	-0.05299454	0.0008612676	-0.02439013
	0.9120209	0.05608539	0.01109753	-0.04182988	0.0009138451	-0.02438543	0.009706585	-0.05298799
	0.009702989	-0.05299445	0.0009138711	-0.02438542	0.01117466	-0.04174382	0.9120305	0.05588397
	0.000861274	-0.02439011	0.009706675	-0.05298818	0.91203	0.05588394	0.01113648	-0.04171273
2.7e+08	0.01071459	-0.02667993	0.8984542	-0.1615289	-0.000456115	-0.04097425	-0.004472916	-0.02653231
	0.8984517	-0.1615285	0.01056131	-0.02667038	-0.004471371	-0.02651106	-0.0002564643	-0.04106612
	-0.0004541696	-0.04097402	-0.004471416	-0.02651107	0.01066739	-0.02654409	0.8984107	-0.1617345
	-0.00447295	-0.02653232	-0.000256631	-0.04106454	0.8984132	-0.1617349	0.01065003	-0.02654337
2.8e+08	0.01680596	-0.01457549	0.8334425	-0.3693871	-0.004864937	-0.02816911	-0.01128488	-0.02737022
	0.8334403	-0.3693858	0.01576414	-0.01460077	-0.01117896	-0.02715438	-0.005033408	-0.02805273
	-0.004873804	-0.02817832	-0.01117943	-0.02715511	0.01634307	-0.01443644	0.8333509	-0.3695849
	-0.01128506	-0.02737068	-0.005048158	-0.02799545	0.8333489	-0.3695843	0.0163449	-0.01447044
2.9e+08	0.02634105	-0.008297931	0.7210615	-0.5554012	-0.004801808	-0.01687986	-0.01891676	-0.02596466
	0.7210626	-0.5554018	0.02462634	-0.007979504	-0.0186035	-0.02578158	-0.004803498	-0.01678389
	-0.004806385	-0.01688525	-0.01860394	-0.02578161	0.02558108	-0.00798402	0.7209246	-0.5555791
	-0.01891702	-0.02596473	-0.004800739	-0.01676287	0.7209235	-0.5555786	0.0255729	-0.008052666
3e+08	0.03649591	-0.008439756	0.5681655	-0.7090462	-0.002239776	-0.008893425	-0.02661788	-0.0221527
	0.5681652	-0.7090456	0.03290364	-0.007905297	-0.02566847	-0.02202807	-0.002091493	-0.008785878
	-0.002243791	-0.008896316	-0.02566885	-0.02202791	0.03482573	-0.008037143	0.5679935	-0.7091939
	-0.02661812	-0.02215257	-0.002085562	-0.008770561	0.5679938	-0.7091945	0.03480561	-0.008105293
3.1e+08	0.04069775	-0.01326693	0.3837558	-0.8219509	0.000604898	-0.004353658	-0.0325787	-0.01628422
	0.3837563	-0.8219519	0.04024797	-0.0139075	-0.03252075	-0.01593485	0.0005918886	-0.004261478
	0.0006019453	-0.00435448	-0.03252102	-0.01593458	0.04061143	-0.01350663	0.3835427	-0.8220441
	-0.03257892	-0.016284	0.0005989054	-0.004251084	0.3835422	-0.8220431	0.04057157	-0.01355138
3.2e+08	0.04039188	-0.0216954	0.1782689	-0.8880655	0.001510203	-0.002116555	-0.037434	-0.008398813
	0.1782686	-0.888064	0.04026871	-0.02172164	-0.0374088	-0.00833625	0.001510747	-0.002095069
	0.001509239	-0.002116628	-0.03740877	-0.008336059	0.04045589	-0.02167499	0.1780334	-0.8881008
	-0.03743414	-0.008398688	0.001514745	-0.002090917	0.1780347	-0.8881068	0.04043689	-0.02168823
3.3e+08	0.03345434	-0.02886753	-0.03684584	-0.9038112	-0.0003958979	-0.0002249782	-0.04043764	0.0007336738
	-0.03684589	-0.9038134	0.0335444	-0.02890547	-0.04046691	0.0006915687	-0.0003981397	-0.0002440206
	-0.0003950121	-0.0002253328	-0.04046698	0.0006912831	0.03358849	-0.02888753	-0.03708908	-0.9038002
	-0.0404377	0.0007334203	-0.0004048483	-0.0002486447	-0.03708903	-0.903798	0.03361126	-0.02888161
3.4e+08	0.02106775	-0.03137281	-0.2495553	-0.8681977	-0.00476611	0.003553951	-0.04133957	0.01087524
	-0.2495541	-0.868195	0.02122452	-0.03155963	-0.04143262	0.01078872	-0.004772296	0.003500297
	-0.004764233	0.003551813	-0.04143349	0.01078763	0.02118905	-0.0314784	-0.2497942	-0.8681251
	-0.04134044	0.01087425	-0.004805295	0.00348499	-0.2497953	-0.8681278	0.02125809	-0.03148022
3.5e+08	0.006158932	-0.02658319	-0.4476769	-0.7829825	-0.009976788	0.01092592	-0.03973814	0.021748
	-0.4476762	-0.7829844	0.00625599	-0.02690152	-0.03989591	0.02165452	-0.009978712	0.01083417
	-0.009975401	0.01092205	-0.03989942	0.02165259	0.006210492	-0.0267415	-0.4478978	-0.7828538
	-0.03974178	0.02174633	-0.01007111	0.01080424	-0.4479007	-0.7828559	0.006310344	-0.02677655
3.6e+08	-0.00723319	-0.01358003	-0.6195293	-0.6529369	-0.0135619	0.02243036	-0.03506989	0.03280635
	-0.6195238	-0.6529382	-0.007261388	-0.01394913	-0.03528568	0.03273677	-0.01354097	0.02228906
	-0.01356226	0.02242548	-0.03529678	0.0327354	-0.00726504	-0.01373547	-0.6197175	-0.6527578
	-0.03508063	0.03280502	-0.01377762	0.02223178	-0.61972	-0.6527532	-0.007164121	-0.01381492
3.7e+08	-0.01494148	0.006410766	-0.7548138	-0.4858034	-0.01296733	0.03708997	-0.02686304	0.04302451
	-0.7548022	-0.485818	-0.01509849	0.006085381	-0.02712081	0.04300497	-0.01289065	0.03688921
	-0.01297052	0.03708564	-0.02715631	0.04301156	-0.01503386	0.006303754	-0.7549483	-0.4855885
	-0.02689817	0.04303144	-0.01361421	0.03676447	-0.7549637	-0.4855763	-0.01496511	0.006194201
3.8e+08	-0.01378601	0.03015544	-0.8454703	-0.2919372	-0.006428347	0.05253103	-0.0151525	0.05093932
	-0.8455729	-0.2919555	-0.01392605	0.02988367	-0.01542589	0.0509857	-0.006264677	0.05227262
	-0.00642381	0.05253236	-0.0153087	0.05111243	-0.01389779	0.03011575	-0.8456669	-0.291693
	-0.01503654	0.0510654	-0.005751325	0.05551178	-0.8455642	-0.2916746	-0.0137806	0.02994815
3.9e+08	-0.002512175	0.05315719	-0.8870622	-0.08337216	0.006361553	0.06565558	-0.0007977496	0.05504873
	-0.8870775	-0.08335818	-0.002763924	0.05301141	-0.001055245	0.05516302	0.00655831	0.06524455
	0.006359957	0.06565232	-0.001020221	0.05516182	-0.002603883	0.05317528	-0.887107	-0.0830748
	-0.0007625921	0.05504801	0.007009521	0.06568931	-0.8870917	-0.0830888	-0.002631101	0.0530312
4e+08	0.01783458	0.07076668	-0.8779987	0.1274271	0.02411254	0.07316751	0.01454268	0.05434313
	-0.878007	0.1274356	0.0176571	0.0707236	0.01433148	0.05451056	0.02397745	0.07297892
	0.02411022	0.07316597	0.01434657	0.05450597	0.0177855	0.07081376	-0.8779682	0.127723
	0.01455836	0.05433898	0.02418104	0.07316667	-0.8779598	0.1277145	0.01775871	0.07071068
4.1e+08	0.04420828	0.0792779	-0.8202581	0.3285161	0.04357872	0.07326145	0.02883161	0.04878656
	-0.8202576	0.32852	0.04408409	0.07927666	0.02868905	0.04897566	0.04355748	0.07320658
	0.04357656	0.07326086	0.02869543	0.04897136	0.04420138	0.07932049	-0.8201511	0.3287951
	0.0288387	0.04878229	0.04366296	0.07329155	-0.8201476	0.3287892	0.04414788	0.07924773
4.2e+08	0.07212184	0.07672462	-0.7182769	0.5093792	0.06145197	0.06546823	0.04030077	0.03938322
	-0.7182789	0.5093835	0.07205719	0.07674136	0.04023355	0.039548	0.06145434	0.06543947
	0.06145114	0.06546848	0.04023539	0.03954519	0.07213701	0.07673944	-0.7181099	0.5096303
	0.04030335	0.03938017	0.06150648	0.06547287	-0.7181041	0.5096238	0.07208681	0.07670993
4.3e+08	0.09667537	0.06328649	-0.578296	0.6612118	0.07418203	0.05095666	0.04801762	0.02783071
	-0.5782946	0.6612115	0.09665602	0.06329655	0.04800649	0.02791729	0.07418389	0.05094506
	0.07418161	0.05095683	0.0480066	0.02791631	0.09668277	0.06326905	-0.5780672	0.6614143
	0.04801803	0.02782941	0.07420225	0.05095346	-0.5780658	0.6614113	0.09665852	0.06326662
4.4e+08	0.1134285	0.0412157	-0.4077466	0.7768431	0.07900958	0.03242679	0.052123	0.01588552
	-0.4077477	0.7768441	0.1134331	0.04121212	0.0521188	0.01585524	0.07900906	0.03243067
	0.07900962	0.03242674	0.05211886	0.01585541	0.1134056	0.04118242	-0.407475	0.7769944
	0.05212312	0.01588592	0.07900414	0.03242926	-0.4074763	0.776997	0.1134122	0.04118085
4.5e+08	0.1191859	0.01451209	-0.2150269	0.8505846	0.07449179	0.0136557	0.05363405	0.004700188
	-0.2150283	0.8505855	0.1192	0.01450049	0.05358153	0.004560803	0.07449218	0.01367165
	0.07449188	0.01365549	0.05358253	0.004561323	0.1191246	0.01448743	-0.2147201	0.8506689
	0.05363475	0.004701482	0.07447307	0.01366943	-0.2147209	0.8506765	0.1191475	0.01446674
4.6e+08	0.1126439	-0.01163759	-0.009506181	0.8781035	0.0608846	-0.00104714	0.05386058	-0.005605044
	-0.009507591	0.878103	0.112662	-0.01165039	0.05373969	-0.005798833	0.0608889	-0.001026017
	0.06088489	-0.001047879	0.05374189	-0.00579852	0.1125522	-0.01163477	-0.009178464	0.8781236
	0.0538617	-0.005603736	0.06086438	-0.001024361	-0.009176986	0.8781242	0.1125699	-0.01167535
4.7e+08	0.09488621	-0.03167587	0.1982773	0.8566802	0.04039616	-0.007535729	0.05362463	-0.01592335
	0.198276	0.8566809	0.09490696	-0.03168495	0.05345587	-0.01610864	0.0404029	-0.007516919
	0.04039629	-0.007536569	0.0534581	-0.01610869	0.09477602	-0.03163363	0.1986108	0.856618
	0.05362597	-0.01592264	0.04038207	-0.007512162	0.1986121	0.8566174	0.09477522	-0.03167874
4.8e+08	0.06956081	-0.04078082	0.3965721	0.7858089	0.0171946	-0.002734741	0.05259426	-0.02759913
	0.3965708	0.7858087	0.06958622	-0.04078137	0.05241132	-0.02773844	0.01719872	-0.00272412
	0.01719465	-0.002735106	0.05241263	-0.0277387	0.06944851	-0.04069404	0.3968912	0.7856627
	0.05259504	-0.02759894	0.01718768	-0.002720929	0.3968922	0.7856632	0.06943021	-0.04072539
4.9e+08	0.04248949	-0.03616426	0.5728484	0.6681154	-0.003071534	0.0143127	0.04911645	-0.04143973
	0.572849	0.6681164	0.04252515	-0.03615344	0.04894854	-0.04152492	-0.003076208	0.01431206
	-0.003071527	0.01431254	0.04894867	-0.04152484	0.04239347	-0.03603262	0.5731313	0.6678898
	0.04911633	-0.04143948	-0.003076754	0.01430937	0.5731307	0.6678887	0.04236937	-0.03603966
5e+08	0.02048576	-0.01816788	0.7149816	0.5101401	-0.01444605	0.041612	0.04083754	-0.05672799
	0.7149809	0.5101388	0.02053757	-0.01814874	0.04070334	-0.05676786	-0.0144617	0.04160156
	-0.01444494	0.04161254	0.04070275	-0.05676699	0.02042494	-0.01799934	0.715198	0.5098395
	0.04083706	-0.05672733	-0.01445762	0.04159187	0.7152022	0.5098434	0.02040941	-0.01798318
5.1e+08	0.009531552	0.009437063	0.813035	0.3223601	-0.01237914	0.07416874	0.02599826	-0.07087474
	0.8130373	0.3223601	0.009599174	0.009455396	0.02590457	-0.07088388	-0.0124058	0.0741512
	-0.01237786	0.07416908	0.02590416	-0.07088262	0.009519017	0.009623862	0.8131724	0.3220123
	0.02599793	-0.07087382	-0.01240184	0.07413951	0.8131743	0.3220135	0.009520862	0.009652432
5.2e+08	0.01297779	0.04034809	0.8610234	0.1180783	0.004669162	0.1050822	0.004749967	-0.0801393
	0.8610255	0.1180778	0.01305028	0.04035647	0.004694289	-0.08013248	0.004634688	0.1050632
	0.004670634	0.105082	0.004694298	-0.08013156	0.01301569	0.0405284	0.8610682	0.1177073
	0.004749932	-0.08013837	0.004636159	0.105054	0.8610662	0.1177074	0.01303354	0.0405555
5.3e+08	0.03064078	0.06757385	0.8577034	-0.0886258	0.03458876	0.1274962	-0.02035641	-0.08116924
	0.8577045	-0.08862609	0.03070033	0.06757085	-0.02038242	-0.08115896	0.03455176	0.1274838
	0.03458967	0.127495	-0.02038221	-0.08115842	0.03071644	0.06772363	0.8576595	-0.08899262
