!
!4 port subset of full cascaded channels using these ports:3 1 4 2
# Hz S RI R 50
0	0.02375475	5.630765e-21	0.9763106	-5.700348e-21	0.006631194	2.048685e-20	-0.006748562	8.369706e-19
	0.976296	-5.699626e-21	0.02376279	5.669002e-21	-0.006722165	8.337858e-19	0.006694493	1.992233e-20
	0.006630017	2.048805e-20	-0.006723056	8.33894e-19	0.02301584	5.615801e-21	0.9770823	-5.704308e-21
	-0.006748564	8.369697e-19	0.006694268	1.992366e-20	0.9770823	-5.703597e-21	0.0216927	5.689518e-21
1e+07	0.07276329	0.07182435	0.8562877	-0.4316017	0.04433501	0.07128379	-0.01862714	-0.005684254
	0.8562877	-0.4316017	0.0727633	0.07182435	-0.01862715	-0.005684251	0.04433501	0.07128379
	0.04433501	0.07128379	-0.01862715	-0.005684251	0.0727433	0.0717732	0.8562568	-0.4316409
	-0.01862714	-0.005684254	0.04433501	0.07128379	0.8562568	-0.4316409	0.07274328	0.07177322
2e+07	0.1492901	0.07381213	0.5736658	-0.7436733	0.1202206	0.08386702	-0.02906982	0.01293457
	0.5736658	-0.7436733	0.1493961	0.07375462	-0.02906558	0.01294252	0.1202123	0.08386992
	0.1202147	0.08386338	-0.02906764	0.0129408	0.1493134	0.07374839	0.5736443	-0.7436952
	-0.02907188	0.01293285	0.1202065	0.08386628	0.5736443	-0.7436952	0.1493192	0.07375557
3e+07	0.1986857	0.01923457	0.2047904	-0.902226	0.1772818	0.03717782	-0.01373893	0.03542949
	0.2047905	-0.902226	0.1987322	0.01935098	-0.01374714	0.03543768	0.1772783	0.03716798
	0.1772816	0.03717781	-0.0137473	0.03543782	0.1986658	0.019271	0.2047565	-0.9022282
	-0.01373911	0.03542965	0.1772781	0.03716798	0.2047565	-0.9022282	0.1986675	0.01927407
4e+07	0.1944129	-0.05299708	-0.1878255	-0.9020621	0.1830176	-0.03514726	0.01559851	0.03470552
	-0.1878255	-0.902062	0.1941799	-0.05301014	0.01557814	0.03468736	0.1830396	-0.035148
	0.1830176	-0.03514712	0.01557794	0.03468699	0.1942317	-0.05299744	-0.1878782	-0.9020796
	0.01559828	0.03470502	0.1830397	-0.03514817	-0.1878782	-0.9020796	0.1942053	-0.05300766
5e+07	0.1397714	-0.1018203	-0.5520856	-0.7457525	0.1343354	-0.09026574	0.03024646	0.01085855
	-0.5520851	-0.7457508	0.1397096	-0.1017414	0.03023559	0.01086988	0.1343411	-0.09027832
	0.1343356	-0.09026382	0.03023444	0.0108695	0.1396556	-0.1017429	-0.5521725	-0.7457214
	0.03024517	0.01085811	0.1343388	-0.09028305	-0.552173	-0.7457231	0.1396457	-0.101733
6e+07	0.0650765	-0.09524113	-0.8282794	-0.4428193	0.05852869	-0.0906504	0.01845272	-0.009272697
	-0.8282676	-0.4428127	0.06506813	-0.09529255	0.01846271	-0.009281248	0.05852582	-0.0906455
	0.05852714	-0.09064728	0.01846046	-0.009279647	0.0650118	-0.09517101	-0.828327	-0.4426921
	0.01845042	-0.009271049	0.05852524	-0.09064653	-0.8283263	-0.4426921	0.06500911	-0.09518146
7e+07	0.02200213	-0.03253187	-0.9451795	-0.03500705	0.01002372	-0.03010212	0.002414456	-0.004721491
	-0.9451662	-0.03500642	0.02197818	-0.03255388	0.002420195	-0.004736973	0.01002421	-0.03009902
	0.01002363	-0.03010024	0.00241849	-0.004732995	0.02200002	-0.03245366	-0.9451139	-0.03490908
	0.002413018	-0.004718172	0.01002294	-0.03009868	-0.945113	-0.03490901	0.02199154	-0.03245638
8e+07	0.04634084	0.03854734	-0.8587344	0.3832975	0.03008586	0.0444776	0.008373232	0.007358794
	-0.8587353	0.3832979	0.04634381	0.03854506	0.008387566	0.007345404	0.03008551	0.04447757
	0.03008574	0.04447831	0.008387415	0.00734754	0.04637761	0.03860259	-0.8586733	0.3834218
	0.008373166	0.007362424	0.03008588	0.044478	-0.8586723	0.3834214	0.04637631	0.03860629
9e+07	0.1151257	0.06072864	-0.5981533	0.706623	0.09945218	0.0722535	0.02378683	-0.001310071
	-0.5981531	0.706623	0.1151274	0.06072753	0.02378866	-0.001311044	0.09945265	0.07225415
	0.09945248	0.0722538	0.02378852	-0.001310792	0.1151571	0.06072808	-0.5980318	0.7067012
	0.02378592	-0.001308697	0.09945265	0.07225417	-0.598032	0.7067012	0.1151575	0.06072886
1e+08	0.1734411	0.02377193	-0.2396172	0.8793584	0.1625648	0.03819942	0.02015041	-0.02366529
	-0.2396172	0.8793583	0.1734413	0.02377189	0.0201504	-0.0236644	0.1625647	0.03819953
	0.1625647	0.03819946	0.02015063	-0.02366474	0.17342	0.02373971	-0.2394678	0.8793879
	0.02015065	-0.02366563	0.1625647	0.03819948	-0.2394679	0.8793879	0.1734198	0.02373981
1.1e+08	0.1860562	-0.04192398	0.1465479	0.8925661	0.1801098	-0.02942218	-0.003206775	-0.03243118
	0.1465479	0.8925662	0.1860567	-0.04192097	-0.003178239	-0.03243963	0.1801375	-0.0294184
	0.1801097	-0.02942222	-0.003178083	-0.03243975	0.1859033	-0.04193863	0.1467139	0.892538
	-0.003206695	-0.03243134	0.1801375	-0.02941836	0.1467139	0.8925379	0.1860377	-0.04194768
1.2e+08	0.1488334	-0.09687274	0.5059071	0.7530197	0.1439958	-0.08910753	-0.02246259	-0.01782946
	0.5059071	0.7530197	0.1488391	-0.09688101	-0.02246611	-0.01777362	0.1439629	-0.08910631
	0.1439958	-0.08910749	-0.02246661	-0.01777356	0.1487559	-0.0968906	0.5060669	0.7529205
	-0.02246258	-0.01782939	0.143963	-0.08910625	0.5060668	0.7529205	0.1486614	-0.09678334
1.3e+08	0.08283047	-0.1084714	0.7848629	0.4736017	0.07448663	-0.103863	-0.01955972	0.002647513
	0.7848628	0.4736016	0.08283583	-0.108473	-0.01957202	0.002665617	0.07450682	-0.1038684
	0.07448687	-0.1038629	-0.01957163	0.002665478	0.0827263	-0.108315	0.7849781	0.4734207
	-0.01956172	0.002647977	0.07450693	-0.1038683	0.7849782	0.4734207	0.08271671	-0.1083846
1.4e+08	0.03037252	-0.06580584	0.9215962	0.08844278	0.01711264	-0.05962623	-0.004645421	0.005407725
	0.921596	0.08844259	0.03034817	-0.065807	-0.004577125	0.005326958	0.01721502	-0.05968714
	0.01711274	-0.05962625	-0.004576849	0.005326792	0.03044884	-0.06549818	0.9216123	0.08820367
	-0.004644965	0.005407242	0.01721486	-0.05968713	0.9216125	0.08820386	0.03020533	-0.06576435
1.5e+08	0.03224734	0.001153046	0.8676784	-0.3249985	0.01725205	0.01284782	-0.003580991	-0.006265706
	0.8676784	-0.3249984	0.03223804	0.001158607	-0.00360386	-0.006307611	0.01729669	0.01280214
	0.01725209	0.01284774	-0.003603762	-0.006307723	0.03239083	0.001321765	0.8675713	-0.3252284
	-0.0035809	-0.00626586	0.01729663	0.01280219	0.8675714	-0.3252284	0.03221306	0.001283268
1.6e+08	0.08569219	0.03797654	0.632817	-0.6638752	0.07414622	0.05502795	-0.01815681	-0.00589585
	0.632817	-0.6638754	0.08569293	0.03797732	-0.01813737	-0.005887929	0.07413759	0.05503562
	0.07414618	0.05502798	-0.01813735	-0.005887943	0.08576863	0.03803299	0.6326181	-0.6640356
	-0.01815678	-0.005895849	0.07413757	0.05503556	0.6326179	-0.6640356	0.0858	0.03803261
1.7e+08	0.1451995	0.01920195	0.2847773	-0.8580576	0.140183	0.03738735	-0.02323675	0.01249757
	0.2847778	-0.858058	0.1451867	0.01929408	-0.02320916	0.01251833	0.1401566	0.03723654
	0.1401829	0.03738729	-0.02320915	0.01251839	0.1452643	0.01912725	0.2845268	-0.8581113
	-0.02323671	0.01249765	0.1401566	0.03723655	0.2845266	-0.8581108	0.1452172	0.01931888
1.8e+08	0.1697297	-0.03620755	-0.09964482	-0.8894466	0.1697805	-0.0221124	-0.007861798	0.02722697
	-0.0996449	-0.8894471	0.1698952	-0.0358555	-0.007816	0.02736258	0.1695581	-0.02241336
	0.1697802	-0.02211252	-0.007815973	0.02736266	0.1697075	-0.03617925	-0.09990568	-0.8894127
	-0.007861739	0.02722705	0.1695582	-0.02241321	-0.09990574	-0.8894122	0.1698202	-0.03596179
1.9e+08	0.147374	-0.09238607	-0.4600223	-0.7664406	0.1469843	-0.08340714	0.0121049	0.02191685
	-0.4600215	-0.7664392	0.1480446	-0.0907648	0.01244166	0.02262031	0.1471347	-0.08481749
	0.1469856	-0.08340725	0.01244178	0.02262037	0.14771	-0.09154201	-0.4602711	-0.766297
	0.012105	0.02191692	0.1471333	-0.08481798	-0.4602719	-0.7662984	0.1474356	-0.09154903
2e+08	0.09107629	-0.1153042	-0.744269	-0.5062129	0.08685903	-0.1104525	0.01657137	0.005381097
	-0.7442695	-0.506213	0.09409685	-0.1148068	0.01790653	0.005413637	0.08582577	-0.1112741
	0.08686212	-0.1104684	0.01790621	0.005410366	0.09261973	-0.1151396	-0.7444306	-0.505935
	0.0165713	0.005378186	0.08578585	-0.1112781	-0.7444412	-0.5059426	0.09226544	-0.1146801
2.1e+08	0.03801974	-0.09014095	-0.8979097	-0.1407814	0.02528119	-0.08317335	0.007241098	-0.002072157
	-0.8979031	-0.1407803	0.0375885	-0.09078669	0.006956406	-0.002440176	0.0253084	-0.08313006
	0.02528671	-0.08316811	0.006956209	-0.00243951	0.03767771	-0.09031015	-0.8979652	-0.1404337
	0.007240877	-0.00207149	0.02530506	-0.0831257	-0.8979717	-0.1404349	0.03780169	-0.09015361
2.2e+08	0.02203117	-0.03337429	-0.8739992	0.2649238	0.008088451	-0.01843042	0.001869385	0.00559683
	-0.8740026	0.264925	0.02257596	-0.0333531	0.002440164	0.005501394	0.008119308	-0.01843809
	0.008087066	-0.01842933	0.002439986	0.005501257	0.02251699	-0.03319446	-0.873879	0.2652715
	0.001869241	0.005596744	0.008118965	-0.01844001	-0.8738887	0.2652743	0.0222124	-0.03308235
2.3e+08	0.05741276	0.01161554	-0.668003	0.6165517	0.048304	0.03335694	0.01285811	0.01034322
	-0.6680043	0.616553	0.05758627	0.01148505	0.01320222	0.0099311	0.04833079	0.03333647
	0.0483035	0.03335793	0.01320211	0.009931119	0.05767325	0.01155185	-0.6677413	0.616816
	0.01285802	0.01034322	0.04833077	0.03333547	-0.66774	0.6168147	0.05760588	0.01181135
2.4e+08	0.112158	0.01024592	-0.3340655	0.8345532	0.1118513	0.03305899	0.02340463	-0.002303586
	-0.3340657	0.8345532	0.1121547	0.01024097	0.02340605	-0.002342142	0.111852	0.03305833
	0.1118512	0.03305902	0.02340601	-0.002342125	0.1122702	0.01024929	-0.333711	0.8346577
	0.02340459	-0.002303566	0.111852	0.03305831	-0.3337109	0.8346576	0.112277	0.01025926
2.5e+08	0.1447362	-0.03152249	0.04924848	0.8880632	0.1512476	-0.01465401	0.01656221	-0.01958231
	0.04924846	0.8880628	0.1447956	-0.03156497	0.01696293	-0.01944802	0.1512286	-0.01464768
	0.1512476	-0.01465399	0.01696297	-0.01944804	0.1447271	-0.03150242	0.04961563	0.8880045
	0.01656224	-0.0195823	0.1512286	-0.01464765	0.04961552	0.8880049	0.1448208	-0.0316696
2.6e+08	0.1363295	-0.08303296	0.4140363	0.7826799	0.1426217	-0.07515576	-0.0006147419	-0.02335678
	0.4140369	0.7826811	0.1361344	-0.08334539	-0.0005613476	-0.02321769	0.142617	-0.0751374
	0.1426214	-0.07515613	-0.0005613421	-0.02321762	0.1362164	-0.0831705	0.4143712	0.78249
	-0.0006147974	-0.02335673	0.1426174	-0.07513739	0.4143706	0.7824888	0.1360733	-0.08321211
2.7e+08	0.09359095	-0.1132332	0.7058256	0.5390107	0.09263116	-0.1107947	-0.01086856	-0.01311381
	0.70582	0.5390058	0.09331588	-0.1134943	-0.01091784	-0.01305232	0.09313871	-0.1105722
	0.09263369	-0.1107899	-0.01091747	-0.01305245	0.09332676	-0.1132232	0.7060708	0.5386801
	-0.01086816	-0.01311392	0.09313568	-0.1105708	0.7060766	0.5386849	0.09327669	-0.1132483
2.8e+08	0.04295211	-0.1028134	0.8743288	0.1902997	0.03291827	-0.0986693	-0.007581168	-0.004622427
	0.8743134	0.1903005	0.04127895	-0.1043248	-0.007673478	-0.00380724	0.03249803	-0.09871562
	0.03291568	-0.0986971	-0.007666806	-0.003804981	0.04203867	-0.1033122	0.8744241	0.189865
	-0.007574057	-0.004619311	0.03239596	-0.09863802	0.8744262	0.1898614	0.04201583	-0.1033108
2.9e+08	0.01749253	-0.05904811	0.8764241	-0.2061177	0.002920124	-0.04570989	-0.003375149	-0.007785283
	0.8764269	-0.2061152	0.0145045	-0.06005527	-0.002582	-0.006837312	0.002837996	-0.04559917
	0.002916713	-0.04572204	-0.002581207	-0.006838398	0.01599981	-0.05927218	0.8763253	-0.2065841
	-0.00337381	-0.007786256	0.002826107	-0.04556407	0.8763226	-0.2065865	0.01610687	-0.05923693
3e+08	0.03597464	-0.0136233	0.6998494	-0.5659066	0.02498694	0.009233163	-0.0115929	-0.01329193
	0.6998491	-0.5659039	0.03101166	-0.01429014	-0.008604038	-0.01241349	0.02509235	0.009379149
	0.02498318	0.00922803	-0.008604472	-0.01241426	0.03344198	-0.01371824	0.6995688	-0.5662997
	-0.01159284	-0.01329268	0.02509412	0.009400019	0.699569	-0.5663024	0.03388776	-0.01374622
3.1e+08	0.07814306	-0.001258231	0.3842964	-0.8068871	0.0801584	0.02467105	-0.02228466	-0.006367896
	0.3842987	-0.80689	0.07775598	-0.00189027	-0.02207055	-0.005322471	0.08013711	0.02473124
	0.08015635	0.02467069	-0.02207119	-0.005322496	0.07809446	-0.001555041	0.38385	-0.8070672
	-0.02228518	-0.006368085	0.08014139	0.024739	0.3838477	-0.8070643	0.07818082	-0.001471748
3.2e+08	0.1133243	-0.02827728	0.004080308	-0.8855213	0.1252568	-0.007878626	-0.02314378	0.01050441
	0.004080418	-0.8855168	0.1132631	-0.02828762	-0.02303302	0.01066592	0.1252534	-0.007873836
	0.1252551	-0.007879645	-0.02303299	0.01066596	0.1133697	-0.02831921	0.003601958	-0.8854773
	-0.02314408	0.01050453	0.1252558	-0.007871684	0.003601879	-0.8854951	0.1133955	-0.02832289
3.3e+08	0.1157907	-0.07188782	-0.3667521	-0.8001052	0.1300432	-0.06262495	-0.01100343	0.02101203
	-0.3667548	-0.8001112	0.1157971	-0.07188665	-0.01112901	0.02093311	0.1300477	-0.06262404
	0.130044	-0.06262504	-0.01112909	0.02093303	0.1157531	-0.07192214	-0.3671887	-0.7998975
	-0.01100348	0.02101204	0.1300484	-0.06262404	-0.367186	-0.7998915	0.1157336	-0.07190372
3.4e+08	0.08570703	-0.1037086	-0.6684421	-0.5721656	0.09318259	-0.1033279	0.001536745	0.01887479
	-0.6684366	-0.5721614	0.08569728	-0.1036275	0.001171813	0.01882062	0.09320132	-0.1033106
	0.09318204	-0.1033254	0.001171873	0.01882126	0.08557733	-0.1036163	-0.6687647	-0.5717803
	0.001536966	0.01887565	0.09322105	-0.1033166	-0.6687702	-0.5717846	0.08555289	-0.1035383
3.5e+08	0.04194915	-0.1044868	-0.8513181	-0.2372832	0.03837314	-0.1045209	0.005071322	0.01248896
	-0.8513271	-0.2372862	0.04201924	-0.1042934	0.00456027	0.01263112	0.0384215	-0.1044734
	0.03837461	-0.1045178	0.004563104	0.01263265	0.04186361	-0.1042109	-0.851465	-0.2367714
	0.005074665	0.01249087	0.03849	-0.1045119	-0.8514687	-0.2367719	0.0418896	-0.1040873
3.6e+08	0.01210888	-0.07389677	-0.8757448	0.1501073	0.001154129	-0.0654381	0.004280951	0.01221894
	-0.8757534	0.1501109	0.01232916	-0.07369351	0.003780666	0.01263512	0.001249233	-0.06534251
	0.001157332	-0.06543554	0.003790966	0.01263279	0.01219824	-0.07352359	-0.8756605	0.1506671
	0.004291937	0.01221635	0.001420354	-0.06550307	-0.8756387	0.1506613	0.01229866	-0.07342018
3.7e+08	0.01571854	-0.03373584	-0.7268183	0.5140143	0.006704708	-0.01367061	0.009833909	0.01572509
	-0.726848	0.5140553	0.01603519	-0.03364538	0.009513547	0.01638993	0.006855958	-0.01351562
	0.006709101	-0.01366921	0.009532547	0.01636336	0.0159994	-0.03342436	-0.7264907	0.514518
	0.009853901	0.01569771	0.007244755	-0.01412825	-0.7264719	0.5144847	0.01612486	-0.03340986
3.8e+08	0.04709766	-0.01374591	-0.43284	0.7747326	0.04867405	0.01283453	0.02133643	0.01167354
	-0.4326553	0.7746876	0.04738484	-0.01373788	0.02132519	0.01246645	0.04887953	0.01302255
	0.0486845	0.01283058	0.02120592	0.01250936	0.04746255	-0.01361364	-0.4321295	0.7749553
	0.02121528	0.01171918	0.04600565	0.0128585	-0.4323141	0.7750005	0.04751522	-0.01362287
3.9e+08	0.07951184	-0.0263977	-0.05919821	0.8795683	0.09358812	-0.003364352	0.0271328	-0.002438166
	-0.05919494	0.8795327	0.07972548	-0.02650611	0.02746954	-0.00170104	0.09384553	-0.003225599
	0.09358859	-0.003368278	0.02746977	-0.00168283	0.0798045	-0.02644771	-0.05860703	0.8795476
	0.02713446	-0.002420513	0.0935451	-0.002952422	-0.05861029	0.8795832	0.07978115	-0.0264876
4e+08	0.08901318	-0.05890348	0.3172353	0.816933	0.1093336	-0.04765518	0.02113755	-0.01654176
	0.3172338	0.8169308	0.08912485	-0.05901079	0.02173863	-0.0160416	0.1093938	-0.0476977
	0.1093341	-0.04765609	0.02174057	-0.01603701	0.08912315	-0.0590275	0.3177768	0.8167024
	0.02114037	-0.01653919	0.1093346	-0.04763651	0.3177782	0.8167046	0.0890616	-0.05898341
4.1e+08	0.07058926	-0.08748508	0.6306159	0.605583	0.08648691	-0.08889975	0.009615561	-0.02208067
	0.6306088	0.6055756	0.07062696	-0.08755901	0.01029013	-0.02191515	0.0864838	-0.08889271
	0.08648691	-0.08889927	0.01029033	-0.02191288	0.07051692	-0.08752473	0.6310234	0.6051385
	0.009615279	-0.02208078	0.08647664	-0.08891264	0.6310201	0.6051376	0.07049936	-0.08742668
4.2e+08	0.03700125	-0.09388081	0.8286408	0.2829025	0.04074899	-0.1004154	0.001135646	-0.02111505
	0.8286482	0.2829023	0.03700486	-0.09390431	0.001651331	-0.02123097	0.04073297	-0.1004054
	0.04074936	-0.1004167	0.001652012	-0.02122832	0.03687166	-0.09372632	0.8288549	0.2823129
	0.001134622	-0.02111429	0.04072493	-0.1004416	0.8288355	0.2823075	0.03691509	-0.09364837
4.3e+08	0.009583301	-0.07471722	0.8731902	-0.09682392	0.001688961	-0.07549155	-0.003901528	-0.02060581
	0.873185	-0.09682489	0.009586538	-0.07471197	-0.003699296	-0.02077286	0.001678433	-0.07548162
	0.001689294	-0.07549152	-0.003697908	-0.02077163	0.009571473	-0.07440005	0.8731049	-0.09747379
	-0.003901625	-0.02060497	0.001667678	-0.07550182	0.873097	-0.09747148	0.009613189	-0.07438372
4.4e+08	0.00529747	-0.0437473	0.7490959	-0.462642	-0.005653638	-0.03184691	-0.01142083	-0.02148731
	0.7491006	-0.4626434	0.005289826	-0.0437512	-0.01145687	-0.02140226	-0.005649866	-0.03185263
	-0.005653611	-0.03184696	-0.01145768	-0.0214023	0.005474237	-0.0434382	0.7487315	-0.4632115
	-0.01142109	-0.0214877	-0.005643762	-0.03184682	0.7487388	-0.4632158	0.005462038	-0.04343453
4.5e+08	0.02414508	-0.02307435	0.477206	-0.7388971	0.02116185	-0.0003700759	-0.02287847	-0.01734589
	0.4772116	-0.738901	0.02408189	-0.02307557	-0.02286235	-0.01689749	0.02116936	-0.0004041376
	0.02116132	-0.000370373	-0.02286644	-0.01689598	0.0244061	-0.02291799	0.4766126	-0.7392423
	-0.02288017	-0.01734616	0.02120706	-0.0003883932	0.4766215	-0.7392605	0.02437732	-0.02287188
4.6e+08	0.04886253	-0.02575223	0.1143018	-0.8688056	0.05987201	-0.001876815	-0.03135313	-0.00459144
	0.1143043	-0.8688077	0.04875571	-0.02569017	-0.03106223	-0.00397559	0.05986474	-0.00193078
	0.0598711	-0.001875302	-0.03106719	-0.003971462	0.04905041	-0.02573229	0.1136159	-0.8688829
	-0.03135457	-0.004589893	0.05992525	-0.001930274	0.1136134	-0.8688809	0.04905978	-0.02566948
4.7e+08	0.05993919	-0.04620274	-0.2653257	-0.8311054	0.08173348	-0.03224544	-0.03034881	0.01151719
	-0.2653257	-0.8311103	0.05986323	-0.04607383	-0.02980753	0.01201975	0.08170857	-0.03229584
	0.08173342	-0.03224352	-0.02980992	0.01202439	0.05998753	-0.04620793	-0.2659797	-0.8308765
	-0.03034875	0.01151935	0.08176317	-0.03231489	-0.2659797	-0.8308717	0.06002693	-0.0461825
4.8e+08	0.05030851	-0.06735485	-0.5908634	-0.6384434	0.07236096	-0.0684241	-0.02125982	0.023364
	-0.5908625	-0.638444	0.05029291	-0.06723229	-0.02063446	0.02360894	0.07233958	-0.06845028
	0.07236102	-0.06842283	-0.02063476	0.02361156	0.0502492	-0.06728	-0.5913695	-0.6379563
	-0.02125892	0.02336494	0.07236714	-0.06846852	-0.5913695	-0.6379566	0.05027357	-0.06730766
4.9e+08	0.02763056	-0.07423701	-0.8052483	-0.3278649	0.03897739	-0.08590407	-0.009791649	0.0288594
	-0.8052516	-0.3278675	0.02762048	-0.0741747	-0.009245114	0.02885956	0.03899018	-0.08591009
	0.03897716	-0.08590429	-0.009245451	0.02886044	0.02754802	-0.07403062	-0.8055196	-0.327199
	-0.009791541	0.02885946	0.03899562	-0.08590313	-0.8055163	-0.3271964	0.02752255	-0.07408605
5e+08	0.007101574	-0.06294538	-0.8692238	0.04541032	0.003647113	-0.07401654	0.001309961	0.03057868
	-0.8692206	0.04540883	0.007033196	-0.06291536	0.001685635	0.03043227	0.00370345	-0.07402348
	0.003645741	-0.07401583	0.001685032	0.03043282	0.007095933	-0.0626245	-0.8691687	0.04615055
	0.001309464	0.03057937	0.003709196	-0.07399466	-0.869185	0.04615256	0.007018687	-0.06266543
5.1e+08	0.001112076	-0.04204272	-0.767593	0.412446	-0.01151712	-0.04190385	0.01330435	0.02960097
	-0.7676004	0.4124486	0.0009938482	-0.04198039	0.01350012	0.02941937	-0.01143697	-0.04193124
	-0.01152037	-0.04190203	0.01349993	0.02942002	0.001250708	-0.04169615	-0.7672249	0.4131131
	0.01330438	0.02960195	-0.01142043	-0.04190264	-0.7672284	0.4131177	0.001153422	-0.04169324
5.2e+08	0.01083554	-0.02609467	-0.5172271	0.7010344	0.0007975202	-0.01182491	0.02627755	0.02332192
	-0.5172317	0.7010406	0.01073525	-0.02598654	0.02634333	0.02318088	0.0008728429	-0.01187407
	0.0007956564	-0.01182022	0.02634362	0.02318131	0.0111025	-0.02584257	-0.5165914	0.7014835
	0.02627786	0.0233223	0.0008900171	-0.01186136	-0.5165858	0.7014781	0.01102755	-0.0258013
5.3e+08	0.02589687	-0.02451336	-0.1674326	0.8532996	0.02859104	-0.003002293	0.03607501	0.009938037
	-0.1674336	0.8533041	0.02585718	-0.02441183	0.03607754	0.009862141	0.02863503	-0.003061901
	0.0285929	-0.002998988	0.03607774	0.009862164	0.02618663	-0.02442566	-0.1666584	0.8534392
	0.03607522	0.009938059	0.02864375	-0.003059886	-0.1666573	0.8534347	0.02615373	-0.02437941
