!
!4 port subset of full cascaded channels using these ports:3 1 4 2
# Hz S RI R 50
0	0.01952105	2.741874e-21	0.9805185	-2.767875e-21	0.004644836	1.178883e-20	-0.00471763	5.850504e-19
	0.9805087	-2.767547e-21	0.01952649	2.758826e-21	-0.004700879	5.830312e-19	0.004686305	1.152655e-20
	0.00464406	1.178951e-20	-0.004701463	5.831021e-19	0.01902403	2.734404e-21	0.9810391	-2.769091e-21
	-0.00471764	5.850509e-19	0.004686146	1.152728e-20	0.9810391	-2.768765e-21	0.01813848	2.768029e-21
1e+07	0.04792114	0.05757419	0.9161309	-0.3164136	0.02497395	0.05528849	-0.01206542	-0.007738576
	0.9161309	-0.3164136	0.04792115	0.05757419	-0.01206542	-0.007738575	0.02497394	0.05528849
	0.02497395	0.05528849	-0.01206542	-0.007738575	0.04791267	0.05754066	0.9161124	-0.3164429
	-0.01206542	-0.007738576	0.02497394	0.05528849	0.9161124	-0.3164429	0.04791265	0.05754067
2e+07	0.09950336	0.08173581	0.7584506	-0.5814263	0.07349169	0.08525148	-0.0248109	-0.002711877
	0.7584506	-0.5814263	0.0995878	0.08171488	-0.02481164	-0.002706414	0.07348585	0.08525182
	0.07348533	0.08524538	-0.02481277	-0.002708308	0.09953458	0.08169974	0.7584375	-0.5814444
	-0.02481203	-0.002713764	0.07347949	0.08524572	0.7584375	-0.5814444	0.09953706	0.0817061
3e+07	0.1531481	0.07077002	0.534441	-0.776042	0.1284921	0.08117088	-0.02962015	0.01363524
	0.534441	-0.776042	0.1531494	0.07086767	-0.02962712	0.01363486	0.128493	0.08116326
	0.1284918	0.08117082	-0.02962729	0.0136349	0.1531315	0.07079593	0.5344179	-0.7760511
	-0.02962034	0.01363529	0.1284927	0.08116321	0.5344179	-0.7760511	0.1531311	0.07079839
4e+07	0.1903874	0.03287826	0.2715238	-0.8913515	0.1706447	0.04796595	-0.02054627	0.03077268
	0.2715238	-0.8913515	0.1902137	0.03277486	-0.02054402	0.03075638	0.1706606	0.0479763
	0.1706448	0.04796601	-0.02054398	0.03075606	0.1902605	0.03281242	0.2714994	-0.8913783
	-0.0205462	0.03077228	0.1706609	0.04797615	0.2714994	-0.8913783	0.1902447	0.03279093
5e+07	0.2014702	-0.01822391	-0.007508028	-0.9262156	0.1881731	-0.001891414	-0.001437211	0.03812512
	-0.00750866	-0.9262149	0.201373	-0.01819402	-0.001445441	0.03812242	0.1881867	-0.001897888
	0.1881723	-0.001889743	-0.001445756	0.03812187	0.2013557	-0.01822404	-0.007564539	-0.9262371
	-0.001437571	0.03812448	0.1881875	-0.001902947	-0.007563906	-0.9262378	0.201339	-0.01822172
6e+07	0.1847524	-0.06736932	-0.2837576	-0.8816249	0.1768297	-0.05344601	0.01779559	0.0315294
	-0.2837549	-0.8816168	0.1847888	-0.06742874	0.01780693	0.03153245	0.1768211	-0.05344406
	0.1768257	-0.05344546	0.01780515	0.03153213	0.1846717	-0.06738164	-0.2838399	-0.881597
	0.01779378	0.03152882	0.1768223	-0.05344425	-0.2838396	-0.8815963	0.1846812	-0.0673944
7e+07	0.1449626	-0.1010128	-0.5386882	-0.7591761	0.1394203	-0.09143995	0.02741095	0.01507608
	-0.5386833	-0.7591693	0.144959	-0.1010854	0.02742514	0.01507162	0.1394147	-0.09143424
	0.1394166	-0.09143971	0.02742249	0.01507218	0.1448702	-0.1009845	-0.5387278	-0.7591125
	0.02740852	0.01507635	0.1394153	-0.09143489	-0.5387274	-0.7591116	0.1448674	-0.1010064
8e+07	0.09288526	-0.1082974	-0.7510486	-0.5627869	0.08643147	-0.1027997	0.02354405	-0.001200964
	-0.7510493	-0.5627876	0.09289715	-0.1082725	0.02355534	-0.001195603	0.08642603	-0.1028033
	0.08642846	-0.1027994	0.02355381	-0.001195096	0.09280456	-0.1082017	-0.7511255	-0.5627084
	0.02354168	-0.001199924	0.08642626	-0.1028024	-0.7511248	-0.5627077	0.09281235	-0.1081954
9e+07	0.04549425	-0.08477181	-0.896092	-0.3034186	0.03579204	-0.08130924	0.01139031	-0.007368484
	-0.8960918	-0.3034186	0.04549232	-0.08477437	0.01139113	-0.007367744	0.03579327	-0.0813106
	0.03579225	-0.08130988	0.01139092	-0.007367835	0.0454452	-0.08465719	-0.8961311	-0.3032991
	0.0113892	-0.007368783	0.03579287	-0.0813106	-0.8961312	-0.3032992	0.04544546	-0.0846587
1e+08	0.0213994	-0.03785689	-0.9500343	-0.004709339	0.008009723	-0.03344824	0.002430207	-0.001372044
	-0.9500343	-0.00470935	0.02139918	-0.03785689	0.002429552	-0.001371892	0.008009824	-0.03344825
	0.008009891	-0.0334482	0.002429842	-0.001371788	0.02139708	-0.03773325	-0.9500268	-0.004569444
	0.002430496	-0.00137194	0.008009892	-0.03344819	-0.9500268	-0.004569433	0.02139736	-0.03773325
1.1e+08	0.03106157	0.0131912	-0.9005538	0.2967108	0.01554176	0.02097235	0.005111433	0.008302389
	-0.9005538	0.2967109	0.03106829	0.01319258	0.005130758	0.0083234	0.01554211	0.02096138
	0.01554179	0.02097236	0.005130867	0.008323495	0.03111012	0.01331801	-0.9004934	0.2968478
	0.005111563	0.008302426	0.01554216	0.02096134	-0.9004934	0.2968478	0.03109874	0.01326873
1.2e+08	0.0693238	0.04631114	-0.7550622	0.5611124	0.05425455	0.0583978	0.01697854	0.009979176
	-0.7550622	0.5611125	0.06931701	0.04631624	0.01693662	0.009987829	0.05425427	0.05839963
	0.05425453	0.05839776	0.01693655	0.009987483	0.06937608	0.04636874	-0.754959	0.5612221
	0.01697848	0.009979186	0.05425425	0.05839957	-0.754959	0.5612221	0.06938541	0.046371
1.3e+08	0.1183043	0.04932355	-0.5376366	0.7592793	0.1062979	0.06478588	0.02713314	-0.0004849554
	-0.5376366	0.7592792	0.118301	0.04932401	0.02711687	-0.0004955383	0.1062992	0.06479015
	0.1062978	0.06478581	0.02711693	-0.0004952552	0.1183431	0.04933186	-0.5375047	0.7593521
	0.0271329	-0.0004863201	0.1062991	0.06479007	-0.5375048	0.7593521	0.1183627	0.04932885
1.4e+08	0.1587778	0.0240869	-0.2775591	0.8775287	0.1512719	0.04049699	0.02654724	-0.0171057
	-0.2775589	0.8775287	0.1587967	0.02408308	0.02657205	-0.01702723	0.1512954	0.04056237
	0.151272	0.04049705	0.02657214	-0.01702702	0.1587191	0.02412828	-0.27741	0.8775629
	0.02654751	-0.01710534	0.1512954	0.04056234	-0.2774101	0.8775629	0.1588757	0.02398575
1.5e+08	0.178311	-0.01834457	-0.000849796	0.9133748	0.174885	-0.003791295	0.01447242	-0.02958489
	-0.0008498536	0.9133747	0.1783185	-0.01837186	0.01451501	-0.02956695	0.1749302	-0.003707473
	0.1748851	-0.003791227	0.01451506	-0.02956686	0.1782224	-0.01827808	-0.0006897961	0.913371
	0.01447251	-0.0295848	0.1749301	-0.003707525	-0.0006898306	0.9133711	0.178316	-0.01850609
1.6e+08	0.1726279	-0.06419996	0.2712725	0.8693393	0.1712331	-0.05334836	-0.002447073	-0.0313201
	0.2712726	0.8693393	0.1726394	-0.06415903	-0.002474406	-0.03131276	0.1711631	-0.05343027
	0.171233	-0.05334845	-0.002474401	-0.03131275	0.1725406	-0.06429931	0.2714395	0.8692934
	-0.002447083	-0.03132009	0.1711631	-0.05343022	0.2714396	0.8692933	0.1725496	-0.06408448
1.7e+08	0.1441183	-0.1004459	0.5200832	0.749705	0.1419815	-0.09346137	-0.01534338	-0.02248959
	0.5200833	0.7497054	0.1443054	-0.1002268	-0.01538519	-0.02246173	0.1415732	-0.09373938
	0.141981	-0.09346149	-0.01538523	-0.02246175	0.1439362	-0.1005776	0.5202426	0.7496001
	-0.01534343	-0.0224896	0.1415736	-0.09373928	0.5202424	0.7495997	0.1442469	-0.1000222
1.8e+08	0.1007987	-0.1164309	0.726514	0.5606568	0.0954105	-0.1118941	-0.01831446	-0.009483008
	0.7265143	0.560657	0.1014029	-0.1162137	-0.01841647	-0.009539698	0.09481973	-0.1120009
	0.09540999	-0.111894	-0.01841652	-0.009539735	0.1008023	-0.1162787	0.7266578	0.5604971
	-0.01831452	-0.009483029	0.09482021	-0.1120009	0.7266575	0.5604968	0.1011361	-0.1161378
1.9e+08	0.05541836	-0.106903	0.8698572	0.3131426	0.04620367	-0.1007332	-0.01205793	-0.0009470914
	0.8698559	0.3131423	0.05724655	-0.1059718	-0.01267099	-0.001228056	0.04536741	-0.1021303
	0.04620499	-0.1007344	-0.01267107	-0.001228012	0.05641461	-0.1063514	0.8699498	0.3129195
	-0.01205799	-0.0009470565	0.04536557	-0.1021296	0.8699511	0.3129198	0.05605566	-0.1061378
2e+08	0.02422943	-0.07263011	0.9298139	0.02696006	0.01203281	-0.06446201	-0.004336902	-0.002364635
	0.9298135	0.02696187	0.02684331	-0.07381321	-0.005209038	-0.001753873	0.01082361	-0.06463661
	0.0120275	-0.06447685	-0.005206124	-0.001752806	0.02554377	-0.07332795	0.9298009	0.02669862
	-0.004334136	-0.002363773	0.01078902	-0.06461977	0.9298106	0.02669713	0.02549118	-0.07265958
2.1e+08	0.02107935	-0.02914176	0.8930613	-0.2673733	0.006062252	-0.01487663	-0.004257739	-0.009360607
	0.8930569	-0.2673718	0.02052846	-0.02944649	-0.003945674	-0.009229936	0.006093007	-0.01485256
	0.00606803	-0.01487505	-0.003946032	-0.009230417	0.02078427	-0.02910305	0.8929739	-0.2676342
	-0.00425808	-0.009361095	0.006092168	-0.01484781	0.8929783	-0.2676357	0.02094332	-0.02905593
2.2e+08	0.04316921	0.006988732	0.7613254	-0.5333176	0.03149969	0.0269212	-0.01236647	-0.01390949
	0.7613272	-0.5333192	0.04354043	0.006864265	-0.01271007	-0.01371112	0.03151991	0.02690751
	0.03149886	0.02692218	-0.01270988	-0.01371105	0.04355878	0.006996929	0.7611516	-0.5335341
	-0.0123664	-0.01390954	0.03151933	0.02690633	0.7611574	-0.533538	0.04338557	0.007161032
2.3e+08	0.08198709	0.02089265	0.5528994	-0.7391009	0.07593967	0.0440774	-0.02379813	-0.008996925
	0.5529001	-0.739102	0.08207727	0.02078153	-0.02397141	-0.008679708	0.07595573	0.0440596
	0.07593949	0.04407815	-0.02397134	-0.008679736	0.08216496	0.02081901	0.55267	-0.7392558
	-0.02379808	-0.008996938	0.07595555	0.04405891	0.5526693	-0.7392548	0.08216285	0.02100524
2.4e+08	0.1200417	0.008840798	0.2957845	-0.8658778	0.1207611	0.03165055	-0.02933796	0.004446944
	0.2957846	-0.8658778	0.1200391	0.008837684	-0.02933754	0.00447307	0.1207616	0.03165007
	0.1207611	0.03165058	-0.02933752	0.00447306	0.1201359	0.00883917	0.2955158	-0.8659428
	-0.02933793	0.004446932	0.1207616	0.03165006	0.2955158	-0.8659427	0.1201411	0.008845566
2.5e+08	0.1435472	-0.0223474	0.01848679	-0.9077508	0.1497831	-0.00366919	-0.02457921	0.01889606
	0.01848678	-0.9077505	0.1435928	-0.02237114	-0.0248441	0.01878376	0.1497694	-0.00366612
	0.1497831	-0.003669181	-0.02484412	0.01878378	0.1435621	-0.02233612	0.01820834	-0.9077289
	-0.02457923	0.01889605	0.1497694	-0.003666101	0.01820844	-0.9077292	0.1436315	-0.02244756
2.6e+08	0.146001	-0.06088173	-0.2545401	-0.8669865	0.1543538	-0.04874539	-0.0126296	0.0270595
	-0.2545403	-0.8669875	0.1459086	-0.06112074	-0.01264576	0.02696246	0.154347	-0.04873198
	0.1543537	-0.04874565	-0.01264576	0.02696242	0.1459616	-0.06099913	-0.2548128	-0.866897
	-0.01262955	0.02705948	0.1543473	-0.04873194	-0.2548126	-0.8668961	0.1458683	-0.0610509
2.7e+08	0.1276394	-0.0948452	-0.5026952	-0.749747	0.1338536	-0.08925572	0.0002247967	0.0263133
	-0.5026928	-0.7497426	0.1275022	-0.09509808	0.0002754359	0.02628753	0.1341616	-0.08897834
	0.1338542	-0.08925192	0.0002751494	0.02628743	0.1274663	-0.09491774	-0.5029436	-0.7495776
	0.0002244977	0.02631318	0.1341593	-0.08897779	-0.5029461	-0.749582	0.1274391	-0.09495478
2.8e+08	0.09457468	-0.1135489	-0.7071514	-0.5647461	0.09536904	-0.1125374	0.00779568	0.01977695
	-0.7071425	-0.5647379	0.093852	-0.1152033	0.008157271	0.01931662	0.09507281	-0.112702
	0.09537664	-0.1125587	0.008155319	0.01931088	0.09407021	-0.1142252	-0.7073593	-0.5644976
	0.007793685	0.01977045	0.09497077	-0.1126801	-0.7073611	-0.5645003	0.09407011	-0.114275
2.9e+08	0.05679156	-0.1122507	-0.8496267	-0.3243895	0.05013691	-0.1113457	0.008744994	0.01324613
	-0.8496259	-0.3243904	0.0549705	-0.1145018	0.008763421	0.01234128	0.05003577	-0.1112765
	0.05014073	-0.1113571	0.008762234	0.01234068	0.05576469	-0.1131557	-0.8497729	-0.3240741
	0.008743551	0.01324527	0.05000805	-0.1112546	-0.8497738	-0.3240731	0.05576886	-0.11316
3e+08	0.02671481	-0.08999965	-0.9130472	-0.04741382	0.01347845	-0.08570613	0.00658831	0.01205606
	-0.9130442	-0.04741502	0.02298097	-0.09431653	0.005613754	0.009983582	0.01352764	-0.0854675
	0.01347884	-0.08571354	0.005612852	0.009983848	0.02478334	-0.09198121	-0.9131082	-0.04705452
	0.00658718	0.0120561	0.01351331	-0.08544702	-0.9131112	-0.04705332	0.02481348	-0.09176244
3.1e+08	0.01160707	-0.05780375	-0.88577	0.2396059	-0.001422541	-0.04447842	0.005805016	0.01470162
	-0.8857716	0.2396051	0.01199136	-0.05887745	0.006312419	0.01409349	-0.001518081	-0.04441377
	-0.001424461	-0.04448223	0.006312056	0.01409413	0.0119055	-0.0580469	-0.8856706	0.2399749
	0.005804516	0.01470228	-0.001522798	-0.04439759	-0.885669	0.2399757	0.01182279	-0.0580626
3.2e+08	0.02089318	-0.02516147	-0.7668878	0.5045027	0.01038455	-0.003725557	0.01222922	0.01801473
	-0.766885	0.5045004	0.020827	-0.02530512	0.01227788	0.01788041	0.01036891	-0.003710452
	0.01038488	-0.003727124	0.01227784	0.01788067	0.02102582	-0.02498992	-0.7666505	0.5048198
	0.01222925	0.01801518	0.01036754	-0.00370315	-0.7666609	0.5048272	0.02101425	-0.02499548
3.3e+08	0.04666744	-0.005912002	-0.569543	0.7162839	0.04316124	0.02072643	0.02258774	0.01567826
	-0.5695455	0.716288	0.04675503	-0.005864901	0.02258401	0.01578131	0.04317168	0.02071387
	0.04316181	0.02072745	0.02258376	0.01578101	0.04691512	-0.005739598	-0.569221	0.7165225
	0.02258753	0.0156779	0.04317032	0.0207059	-0.5692186	0.7165184	0.04692282	-0.005737408
3.4e+08	0.07721052	-0.00676746	-0.3180288	0.8527776	0.08274046	0.02040273	0.03094874	0.005825983
	-0.3180251	0.852773	0.07740045	-0.006768286	0.03100626	0.006065197	0.08276161	0.02037234
	0.08274218	0.0204016	0.03100494	0.006064713	0.07749526	-0.006719236	-0.3176435	0.852893
	0.03094753	0.005825335	0.08275133	0.02035121	-0.3176473	0.8528976	0.07750339	-0.006717971
3.5e+08	0.100075	-0.02553539	-0.04089322	0.9037532	0.1137033	-0.002875983	0.03230879	-0.00800752
	-0.04089034	0.903756	0.1002443	-0.02560398	0.03247564	-0.007700094	0.1137283	-0.002907455
	0.1137047	-0.00287705	0.03247312	-0.007699622	0.1002896	-0.02559446	-0.04049132	0.9037471
	0.03230664	-0.008007453	0.1137058	-0.002940969	-0.04049461	0.9037533	0.1002785	-0.02559214
3.6e+08	0.1073983	-0.05384604	0.2347959	0.869131	0.1254912	-0.03941072	0.02612605	-0.0200861
	0.2347977	0.8691257	0.1074991	-0.05391873	0.02642774	-0.01977558	0.1255119	-0.03942772
	0.1254919	-0.03941139	0.02642612	-0.0197739	0.1074945	-0.053936	0.2351819	0.8690112
	0.02612405	-0.0200847	0.1254902	-0.03946244	0.2351778	0.8690079	0.1074555	-0.05391309
3.7e+08	0.09755626	-0.08144247	0.4856396	0.7552935	0.1149615	-0.07631168	0.01590417	-0.02654349
	0.4856386	0.7552989	0.09761029	-0.08146991	0.01633895	-0.02630215	0.1149537	-0.0762935
	0.1149616	-0.0763111	0.01634256	-0.02630309	0.09754302	-0.08148889	0.4859776	0.7550697
	0.01590724	-0.02654519	0.1150302	-0.07628474	0.4859834	0.7550718	0.09749155	-0.08142469
3.8e+08	0.07431527	-0.09949268	0.6913772	0.5728544	0.0860977	-0.1016711	0.006240601	-0.02733613
	0.691464	0.5728491	0.07436227	-0.09943264	0.006769178	-0.02722865	0.0860164	-0.101605
	0.08609646	-0.1016733	0.006713397	-0.02723613	0.07423479	-0.09944619	0.6917411	0.5725284
	0.006186661	-0.02734241	0.08609533	-0.1027481	0.6916542	0.5725337	0.07420173	-0.09930225
3.9e+08	0.04516104	-0.1026296	0.8345585	0.3363234	0.04830339	-0.1077062	-0.0002286735	-0.02543973
	0.8345666	0.336298	0.04525645	-0.1025759	0.0003228979	-0.02550371	0.04812786	-0.1074874
	0.04830409	-0.1077035	0.00031269	-0.02548862	0.04507028	-0.1024698	0.8347457	0.3358918
	-0.0002390113	-0.02542575	0.04792075	-0.1078086	0.8347377	0.3359173	0.04511538	-0.1023422
4e+08	0.01928851	-0.09024047	0.9002016	0.06506631	0.01360952	-0.09264828	-0.004165727	-0.02425467
	0.900206	0.06505095	0.0193702	-0.09019157	-0.003677925	-0.02448392	0.01369214	-0.0924688
	0.0136112	-0.09264694	-0.003678968	-0.02447268	0.01924795	-0.08997763	0.9002546	0.06458764
	-0.004167815	-0.02424457	0.01354844	-0.09265619	0.9002501	0.06460305	0.01931069	-0.08987751
4.1e+08	0.004808899	-0.06698199	0.8788922	-0.2160299	-0.006379002	-0.06209157	-0.008536635	-0.02493591
	0.8788825	-0.216037	0.004901594	-0.06694141	-0.00819217	-0.02527073	-0.006363806	-0.06202603
	-0.006376383	-0.06209084	-0.008188848	-0.02526413	0.004869196	-0.06665968	0.8787766	-0.2165123
	-0.008534943	-0.02492984	-0.006469199	-0.06213093	0.8787777	-0.2165022	0.004960294	-0.06660383
4.2e+08	0.005747718	-0.04157139	0.7698138	-0.4781434	-0.005735826	-0.02735102	-0.01585242	-0.0254775
	0.7698134	-0.4781497	0.005825381	-0.04155531	-0.01569088	-0.02580472	-0.005740423	-0.02731028
	-0.005735339	-0.02735073	-0.0156867	-0.02580247	0.005926079	-0.04126179	0.7695515	-0.4785772
	-0.01585001	-0.02547504	-0.005807326	-0.02735716	0.7695437	-0.4785669	0.005996712	-0.04125901
4.3e+08	0.01997217	-0.02343386	0.5832183	-0.6927643	0.01377757	-0.001109076	-0.0257494	-0.02240728
	0.5832139	-0.6927621	0.02001136	-0.02343484	-0.02572902	-0.02258606	0.0137761	-0.00109074
	0.01377819	-0.001109286	-0.02572691	-0.02258631	0.02023483	-0.02321207	0.5828136	-0.6930806
	-0.02574812	-0.02240691	0.01374763	-0.001102175	0.5828121	-0.693076	0.02025976	-0.02322603
4.4e+08	0.04013575	-0.01850778	0.3394488	-0.837088	0.04326308	0.007718405	-0.03498127	-0.01375241
	0.3394511	-0.8370909	0.04012173	-0.01850221	-0.03496666	-0.01369136	0.04326289	0.007711676
	0.04326292	0.00771839	-0.03496718	-0.01369087	0.04040161	-0.01840653	0.3389658	-0.8372672
	-0.03498176	-0.01375238	0.04327149	0.007713059	0.3389679	-0.8372723	0.04039855	-0.01840131
4.5e+08	0.05726994	-0.02688962	0.06497249	-0.8978127	0.07076934	-0.002597315	-0.03978562	-0.0006806967
	0.06497455	-0.8978179	0.05721402	-0.02684456	-0.03962973	-0.0004193189	0.0707619	-0.002625543
	0.07076851	-0.002597028	-0.03963154	-0.0004164753	0.05746083	-0.02687991	0.06445695	-0.8978265
	-0.03978681	-0.0006796316	0.07079708	-0.002628598	0.06445633	-0.8978393	0.05746318	-0.02685504
4.6e+08	0.06472028	-0.04358253	-0.2124762	-0.8715438	0.0862166	-0.02676315	-0.0383998	0.01341832
	-0.2124758	-0.8715464	0.0646635	-0.04348768	-0.0380647	0.01373774	0.08619771	-0.02680004
	0.08621635	-0.02676181	-0.03806643	0.01374204	0.0648055	-0.04359749	-0.2129793	-0.871417
	-0.03839992	0.0134201	0.08624142	-0.02681562	-0.2129799	-0.8714144	0.06482401	-0.0435764
4.7e+08	0.06028416	-0.06126981	-0.4671421	-0.7631506	0.08467923	-0.05530016	-0.03174395	0.02523078
	-0.4671434	-0.7631539	0.06026054	-0.06115585	-0.031304	0.02547725	0.08465409	-0.05533145
	0.0846795	-0.05529886	-0.0313045	0.02548078	0.06027512	-0.06125097	-0.467587	-0.7628725
	-0.03174322	0.02523226	0.08468915	-0.05535355	-0.4675858	-0.7628692	0.06029761	-0.06125088
4.8e+08	0.04617699	-0.07327344	-0.676627	-0.5837379	0.0672845	-0.07818886	-0.02221325	0.03322243
	-0.6766266	-0.5837384	0.04618029	-0.07318486	-0.02176901	0.03334179	0.06726811	-0.07820538
	0.06728464	-0.07818798	-0.02176892	0.03334357	0.04610773	-0.0731816	-0.6769765	-0.5833325
	-0.02221248	0.03322297	0.06728572	-0.07821995	-0.6769764	-0.5833327	0.0461171	-0.07320537
4.9e+08	0.0276288	-0.07561226	-0.8223925	-0.3495105	0.0402039	-0.08802664	-0.01188164	0.03775173
	-0.8223947	-0.3495124	0.02762105	-0.0755687	-0.01150717	0.03775751	0.04021277	-0.08803054
	0.04020374	-0.0880268	-0.01150741	0.03775811	0.0275432	-0.07542749	-0.8226159	-0.3490089
	-0.01188157	0.03775178	0.04021642	-0.08802572	-0.8226137	-0.349007	0.02752646	-0.07546687
5e+08	0.01088511	-0.06796532	-0.8905428	-0.08131026	0.01237804	-0.08213408	-0.001452356	0.0399123
	-0.8905403	-0.08131088	0.01083242	-0.06794851	-0.001183503	0.0398495	0.01241766	-0.082133
	0.01237695	-0.08213366	-0.001184034	0.03984973	0.01083448	-0.06768967	-0.8905931	-0.0807462
	-0.001452814	0.03991273	0.01241898	-0.08211263	-0.8906045	-0.08074652	0.01078748	-0.0677286
5.1e+08	0.001063782	-0.05353947	-0.8733235	0.1960392	-0.007494956	-0.06322317	0.009489729	0.04015931
	-0.8733286	0.1960395	0.0009668489	-0.05351338	0.009651925	0.04007503	-0.007432629	-0.06322696
	-0.007497551	-0.06322251	0.009651503	0.04007538	0.001097194	-0.053204	-0.8732017	0.1966084
	0.009489442	0.04015999	-0.00742635	-0.06320371	-0.8732052	0.1966109	0.001029082	-0.05322534
5.2e+08	0.0003454238	-0.03778249	-0.7710317	0.4554628	-0.0139426	-0.03830886	0.02130887	0.03776235
	-0.7710361	0.4554652	0.0002400284	-0.03772847	0.02138723	0.03769045	-0.01387182	-0.03832292
	-0.01394532	-0.03830618	0.02138716	0.03769089	0.0004922738	-0.03744519	-0.7707293	0.4559782
	0.02130884	0.03776276	-0.01386296	-0.03830834	-0.7707245	0.4559765	0.000423624	-0.03744152
5.3e+08	0.007221192	-0.02617111	-0.5930336	0.6706981	-0.006563069	-0.01600954	0.03325184	0.03144454
	-0.5930358	0.6707002	0.007147599	-0.02610563	0.03327859	0.03140053	-0.006502124	-0.01603815
	-0.006563097	-0.0160063	0.03327867	0.03140072	0.007472208	-0.02590025	-0.5925797	0.6711039
	0.03325193	0.03144473	-0.006496035	-0.01603268	-0.5925775	0.6711018	0.007423768	-0.02588021
