!
!4 port subset of full cascaded channels using these ports:3 1 4 2
# Hz S RI R 50
0	0.01524206	8.640066e-22	0.9847718	-8.666318e-22	0.002624285	5.185494e-21	-0.00265328	3.289838e-19
	0.9847668	-8.66542e-22	0.01524482	8.685212e-22	-0.002645335	3.280271e-19	0.002644648	5.111983e-21
	0.002623901	5.185771e-21	-0.002645622	3.280619e-19	0.01499121	8.617467e-22	0.9850352	-8.667729e-22
	-0.00265329	3.289846e-19	0.002644563	5.112269e-21	0.9850352	-8.666827e-22	0.01454669	8.709994e-22
1e+07	0.02734613	0.03648121	0.9599372	-0.1914615	0.01020632	0.0339382	-0.005876636	-0.00667076
	0.9599372	-0.1914615	0.02734613	0.03648121	-0.005876637	-0.00667076	0.01020632	0.03393821
	0.01020632	0.0339382	-0.005876637	-0.00667076	0.02734473	0.03646741	0.9599288	-0.1914791
	-0.005876636	-0.00667076	0.01020632	0.03393821	0.9599288	-0.1914791	0.02734472	0.03646741
2e+07	0.04991637	0.06241354	0.8995222	-0.3684909	0.0299027	0.06173879	-0.01297704	-0.009764225
	0.8995222	-0.3684909	0.04996228	0.06241447	-0.01297892	-0.009762533	0.02989991	0.06173827
	0.02989719	0.06173017	-0.01297945	-0.009764108	0.0499407	0.06240603	0.8995144	-0.3685047
	-0.01297756	-0.009765796	0.0298944	0.06172965	0.8995144	-0.3685047	0.04994091	0.06240959
3e+07	0.0797291	0.07717222	0.8078349	-0.526944	0.05813259	0.07980847	-0.0212813	-0.007908612
	0.8078349	-0.526944	0.07970943	0.07722279	-0.02128286	-0.007911274	0.05813452	0.07980516
	0.05813218	0.07980827	-0.021283	-0.007911289	0.07972181	0.07719113	0.8078207	-0.5269564
	-0.02128144	-0.007908628	0.0581341	0.07980496	0.8078207	-0.5269564	0.07972108	0.07719195
4e+07	0.1120753	0.07988096	0.6903057	-0.6620015	0.09046684	0.08620961	-0.02808233	-0.001349396
	0.6903057	-0.6620015	0.1120142	0.07977789	-0.02807584	-0.001351197	0.09047102	0.08621884
	0.09046703	0.08620965	-0.02807569	-0.001351355	0.1120373	0.07982091	0.6902952	-0.6620212
	-0.02808214	-0.001349585	0.09047136	0.08621881	0.6902952	-0.6620212	0.1120365	0.07980532
5e+07	0.142673	0.0710258	0.5530404	-0.7708268	0.1225271	0.08093486	-0.03122876	0.008429524
	0.5530401	-0.7708268	0.1426111	0.07100542	-0.03122835	0.008426902	0.122536	0.08093714
	0.1225262	0.0809355	-0.03122836	0.00842666	0.1426289	0.07099608	0.5530178	-0.7708524
	-0.03122877	0.008429232	0.1225383	0.08093478	0.5530181	-0.7708523	0.1426195	0.07099015
6e+07	0.168073	0.05265858	0.4016247	-0.8519482	0.1505892	0.06530327	-0.02969394	0.01921484
	0.4016231	-0.8519441	0.1681206	0.05264375	-0.0296929	0.01922142	0.1505839	0.0652991
	0.1505871	0.06530159	-0.02969338	0.01922067	0.1680633	0.05262522	0.4015803	-0.8519646
	-0.02969424	0.01921407	0.1505843	0.06529997	0.4015799	-0.8519644	0.1680743	0.05262429
7e+07	0.1860285	0.02735258	0.2410654	-0.9048012	0.1717943	0.04155312	-0.02362014	0.02872612
	0.2410646	-0.9047971	0.1860704	0.02731057	-0.02361453	0.02873324	0.171787	0.04155171
	0.1717926	0.04155086	-0.02361554	0.02873246	0.1859987	0.02731406	0.2410264	-0.904796
	-0.02362082	0.02872535	0.1717876	0.04155241	0.2410259	-0.9047956	0.1860119	0.02730241
8e+07	0.1951588	-0.002075654	0.07581338	-0.9293591	0.1842557	0.01244926	-0.01412845	0.03510067
	0.07581372	-0.9293595	0.1951449	-0.002054687	-0.01412752	0.03510556	0.1842562	0.0124429
	0.184254	0.01244734	-0.01412796	0.03510498	0.1950929	-0.002088472	0.07575911	-0.9293741
	-0.01412933	0.03509987	0.1842559	0.01244362	0.07575879	-0.9293737	0.1950916	-0.00207658
9e+07	0.1949031	-0.03262867	-0.09008528	-0.9258959	0.1869794	-0.01901533	-0.002999659	0.03722815
	-0.09008535	-0.9258958	0.1949049	-0.03263258	-0.00299954	0.03722882	0.1869815	-0.01901468
	0.1869802	-0.01901538	-0.002999547	0.03722874	0.1948279	-0.03263719	-0.09015028	-0.9258978
	-0.002999755	0.03722762	0.1869813	-0.01901498	-0.09015021	-0.9258979	0.1948296	-0.03263743
1e+08	0.1855918	-0.06157944	-0.2527882	-0.8947949	0.1798136	-0.04976218	0.007749356	0.03491248
	-0.2527882	-0.8947948	0.1855919	-0.06157963	0.007749242	0.03491221	0.1798136	-0.04976203
	0.1798136	-0.049762	0.007749211	0.03491234	0.1854977	-0.06156836	-0.2528633	-0.8947857
	0.007749325	0.03491262	0.1798136	-0.04976199	-0.2528633	-0.8947857	0.1854977	-0.06156805
1.1e+08	0.1680816	-0.08635715	-0.408465	-0.8366055	0.1634068	-0.07679429	0.01626731	0.02884878
	-0.408465	-0.8366056	0.1680863	-0.08635084	0.01625112	0.02884736	0.1634386	-0.07679847
	0.1634067	-0.07679429	0.01625106	0.02884742	0.167905	-0.0862975	-0.4085476	-0.836581
	0.01626729	0.02884884	0.1634386	-0.07679842	-0.4085476	-0.8365809	0.1680457	-0.08635142
1.2e+08	0.1440292	-0.104591	-0.5530398	-0.7521207	0.1393269	-0.0973486	0.02115758	0.02051864
	-0.5530398	-0.7521207	0.1440283	-0.1045956	0.02116682	0.02050084	0.1392934	-0.09734583
	0.1393269	-0.09734859	0.02116698	0.02050083	0.1439551	-0.1045939	-0.5531255	-0.7520777
	0.02115756	0.02051863	0.1392935	-0.0973458	-0.5531255	-0.7520777	0.1438687	-0.1044834
1.3e+08	0.1156909	-0.1144465	-0.682168	-0.6426087	0.1098157	-0.1090886	0.02192733	0.01183794
	-0.682168	-0.6426086	0.1156929	-0.1144469	0.02192802	0.01183476	0.1098377	-0.1090896
	0.1098158	-0.1090885	0.02192787	0.0118348	0.1155719	-0.1143232	-0.6822525	-0.6425429
	0.02192803	0.01183795	0.1098377	-0.1090896	-0.6822525	-0.6425429	0.1155801	-0.1143986
1.4e+08	0.08597234	-0.114734	-0.7911896	-0.5100889	0.07804764	-0.1104399	0.01905473	0.004783694
	-0.7911895	-0.5100888	0.0859564	-0.1147495	0.01900244	0.004825337	0.07820406	-0.1104494
	0.07804784	-0.1104399	0.01900234	0.004825367	0.08593666	-0.1143974	-0.7912666	-0.5099974
	0.01905452	0.004783792	0.07820394	-0.1104494	-0.7912667	-0.5099975	0.08578026	-0.1148421
1.5e+08	0.0581975	-0.1052958	-0.8753081	-0.3577064	0.0478771	-0.100957	0.0138092	0.0009202498
	-0.875308	-0.3577064	0.05817107	-0.1053082	0.01380413	0.0009640388	0.04801412	-0.1009726
	0.04787725	-0.100957	0.01380409	0.0009640624	0.05822118	-0.1050127	-0.8753698	-0.3575896
	0.01380915	0.0009202864	0.04801402	-0.1009726	-0.8753699	-0.3575896	0.05797888	-0.105284
1.6e+08	0.03575844	-0.08719711	-0.930003	-0.1900192	0.0232438	-0.08163362	0.008284494	0.0009292128
	-0.930003	-0.1900192	0.03579615	-0.08718874	0.008273947	0.0009062102	0.02313025	-0.08161025
	0.02324363	-0.08163358	0.008273945	0.0009062167	0.03562111	-0.08708669	-0.9300413	-0.1898828
	0.008284493	0.0009292138	0.02313036	-0.08161033	-0.9300412	-0.1898828	0.0358301	-0.08697106
1.7e+08	0.02157634	-0.06282414	-0.9516405	-0.01308638	0.00748281	-0.05500243	0.004552514	0.00426359
	-0.9516407	-0.01308643	0.02181596	-0.06283659	0.004528071	0.004237379	0.007076141	-0.05486009
	0.007482392	-0.0550021	0.004528093	0.004237382	0.02140127	-0.06270088	-0.9516443	-0.01293542
	0.004552539	0.004263583	0.00707646	-0.0548604	-0.951644	-0.01293542	0.02196172	-0.06261584
1.8e+08	0.0175721	-0.0356426	-0.9381593	0.1657928	0.0026522	-0.02483997	0.004104242	0.009419819
	-0.9381595	0.1657929	0.0180024	-0.03586403	0.004166902	0.009386055	0.002289591	-0.02457749
	0.002651988	-0.0248396	0.004166947	0.009386052	0.01768878	-0.03552711	-0.9381317	0.1659523
	0.004104286	0.009419806	0.002289822	-0.02457783	-0.9381315	0.1659522	0.01793863	-0.03561401
1.9e+08	0.02364526	-0.009872456	-0.8896359	0.3387256	0.009786744	0.004737404	0.007365436	0.0143294
	-0.8896354	0.3387252	0.02494734	-0.01021426	0.007721788	0.01414364	0.008766407	0.004364512
	0.009786846	0.004736112	0.007721789	0.01414362	0.02441553	-0.01003384	-0.8895691	0.3388831
	0.007365437	0.01432939	0.008765775	0.004365724	-0.8895696	0.3388835	0.02431447	-0.009700726
2e+08	0.03932075	0.01121544	-0.8083924	0.4981152	0.02662749	0.02839341	0.01395501	0.0169913
	-0.8083938	0.4981137	0.04020421	0.009762636	0.01408341	0.016422	0.02594622	0.02868412
	0.02661972	0.02838758	0.01408212	0.01642337	0.03973305	0.01043917	-0.8082819	0.4982509
	0.0139539	0.01699281	0.02593445	0.02870428	-0.8082845	0.4982549	0.03999161	0.0108266
2.1e+08	0.06153087	0.02303482	-0.6986183	0.6374689	0.05074286	0.04401638	0.02198834	0.01549775
	-0.6986168	0.6374671	0.06118485	0.02302566	0.02181594	0.01552365	0.05076401	0.04402344
	0.05074598	0.04401568	0.0218163	0.01552365	0.06142958	0.02315293	-0.6984878	0.63759
	0.02198869	0.01549777	0.0507649	0.04402611	-0.6984894	0.6375918	0.06151585	0.02312445
2.2e+08	0.08545123	0.02631078	-0.5658668	0.7519642	0.07869021	0.049173	0.0290609	0.01051103
	-0.5658674	0.7519652	0.08560726	0.02618488	0.02918765	0.01035726	0.07869779	0.04916221
	0.07868987	0.04917362	0.02918753	0.01035727	0.08566889	0.02625741	-0.5657156	0.752058
	0.02906092	0.01051109	0.07869737	0.04916172	-0.5657178	0.7520607	0.08561912	0.02637132
2.3e+08	0.1087052	0.02030555	-0.4161396	0.8385074	0.1061745	0.0438141	0.03387897	0.002386562
	-0.4161398	0.838508	0.1087348	0.02024278	0.03393396	0.002213418	0.106181	0.04380333
	0.1061745	0.04381449	0.03393394	0.002213436	0.108812	0.02025772	-0.4159755	0.8385768
	0.03387895	0.002386571	0.1061808	0.04380301	-0.4159753	0.8385763	0.1088338	0.02035056
2.4e+08	0.1279373	0.006466002	-0.2553711	0.8955652	0.129722	0.02917469	0.03518441	-0.007365344
	-0.2553712	0.8955652	0.1279358	0.006464565	0.0351835	-0.007378582	0.1297222	0.02917443
	0.129722	0.02917471	0.0351835	-0.00737858	0.1280133	0.006462739	-0.2551946	0.8955997
	0.0351844	-0.007365341	0.1297222	0.02917442	-0.2551946	0.8955996	0.1280162	0.006465778
2.5e+08	0.1410319	-0.01304036	-0.08907029	0.9227361	0.1466719	0.007451551	0.03270482	-0.01688428
	-0.08907027	0.9227359	0.1410574	-0.0130494	0.03283521	-0.01681659	0.1466645	0.007452407
	0.1466719	0.007451556	0.03283522	-0.0168166	0.1410678	-0.0130372	-0.08888725	0.9227377
	0.03270483	-0.01688428	0.1466645	0.00745242	-0.08888732	0.9227378	0.1411061	-0.01309273
2.6e+08	0.1468508	-0.03568569	0.07776363	0.9204122	0.1553433	-0.01861343	0.02727466	-0.02464981
	0.07776365	0.9204127	0.1468275	-0.0358158	0.02727327	-0.02460105	0.1553377	-0.0186069
	0.1553433	-0.01861356	0.02727326	-0.02460104	0.1468684	-0.03575722	0.07794989	0.92039
	0.02727464	-0.02464981	0.1553378	-0.01860687	0.07794987	0.9203895	0.1468265	-0.03579488
2.7e+08	0.1450254	-0.05901793	0.2405885	0.8894932	0.1550019	-0.04615926	0.01988058	-0.02972383
	0.2405881	0.8894907	0.1449982	-0.0591729	0.01985066	-0.02972294	0.1551118	-0.04596443
	0.1550015	-0.04615736	0.01985076	-0.0297228	0.1449719	-0.05909847	0.2407742	0.8894406
	0.01988067	-0.02972368	0.1551106	-0.04596438	0.2407747	0.889443	0.144968	-0.05912404
2.8e+08	0.135956	-0.08017856	0.3951569	0.8312338	0.1461056	-0.07201155	0.01205583	-0.03188567
	0.3951569	0.8312271	0.1359642	-0.0811898	0.0117721	-0.03178688	0.1459858	-0.07216442
	0.1461145	-0.0720207	0.01177015	-0.03178383	0.1358621	-0.08065755	0.3953442	0.8311504
	0.01205369	-0.03188222	0.1459281	-0.07217744	0.3953422	0.8311529	0.1358952	-0.08069019
2.9e+08	0.1208624	-0.09759066	0.5374711	0.7472397	0.1293305	-0.09381498	0.004887967	-0.03144625
	0.5374712	0.7472389	0.120644	-0.09929718	0.004571328	-0.03111722	0.1292458	-0.09379856
	0.1293361	-0.09381946	0.004571171	-0.03111634	0.1206285	-0.09837285	0.5376544	0.7471294
	0.004887851	-0.03144518	0.1292245	-0.0937964	0.5376543	0.7471303	0.1206557	-0.09841759
3e+08	0.1009974	-0.1088673	0.6635235	0.6394996	0.1066621	-0.1093053	-0.0005531792	-0.02942609
	0.6635221	0.639498	0.1009389	-0.1125264	-0.001026162	-0.02841798	0.1065702	-0.1091234
	0.1066653	-0.1093089	-0.001026	-0.02841732	0.1008731	-0.1105828	0.6636993	0.6393629
	-0.000552997	-0.02942527	0.1065544	-0.109119	0.6637007	0.6393646	0.1007935	-0.1106239
3.1e+08	0.07821647	-0.1161686	0.7694224	0.5105921	0.08044169	-0.1166998	-0.004059612	-0.02587184
	0.7694223	0.5105921	0.07895187	-0.1164729	-0.004458873	-0.02590513	0.08034698	-0.1167156
	0.08044299	-0.1167028	-0.004458529	-0.0259047	0.07844167	-0.116133	0.7695685	0.5104077
	-0.004059216	-0.02587137	0.08033545	-0.1167101	0.7695686	0.5104077	0.07847411	-0.1162211
3.2e+08	0.05588948	-0.1147996	0.8513643	0.3637555	0.05342466	-0.1155294	-0.0058674	-0.02331082
	0.8513624	0.3637547	0.05594989	-0.11491	-0.00594304	-0.02329707	0.05340408	-0.1155308
	0.05342507	-0.1155297	-0.005942774	-0.02329688	0.05580379	-0.1146425	0.851476	0.3635326
	-0.005867141	-0.02331073	0.05339896	-0.1155283	0.8514822	0.3635352	0.05581328	-0.114667
3.3e+08	0.03534208	-0.1066447	0.9058889	0.2031275	0.02863377	-0.1058975	-0.006503433	-0.02198026
	0.9058919	0.203128	0.03534742	-0.1065479	-0.006451039	-0.02200348	0.02865157	-0.1058958
	0.02863364	-0.1058969	-0.006451458	-0.02200356	0.03526835	-0.10636	0.9059714	0.2028761
	-0.006503883	-0.02198036	0.02865818	-0.1059009	0.9059685	0.2028756	0.03526434	-0.1063355
3.4e+08	0.01900181	-0.09278826	0.9301786	0.033776	0.008836984	-0.0890638	-0.00708817	-0.02221092
	0.9301785	0.03377514	0.01911248	-0.09257251	-0.006977196	-0.02228976	0.008887771	-0.08905254
	0.008838717	-0.08906106	-0.00697922	-0.02228953	0.01902706	-0.09242937	0.9302095	0.03349908
	-0.007090294	-0.02221072	0.008913159	-0.08908004	0.9302096	0.03349999	0.0190277	-0.09236071
3.5e+08	0.008627589	-0.07511433	0.9223826	-0.1383887	-0.003762158	-0.0672391	-0.008691855	-0.02369689
	0.9223908	-0.1383922	0.008869141	-0.07488628	-0.008559365	-0.0238289	-0.003678187	-0.06720453
	-0.003759204	-0.06723619	-0.008564483	-0.02382683	0.008766657	-0.07474505	0.9223606	-0.1386806
	-0.008697201	-0.02369495	-0.00361421	-0.06728219	0.922357	-0.1386777	0.008790663	-0.07464571
3.6e+08	0.005129583	-0.05606855	0.8820283	-0.3068705	-0.007909425	-0.04333551	-0.0120488	-0.02559566
	0.8820413	-0.3068804	0.005463264	-0.05590559	-0.01191605	-0.0257744	-0.007790006	-0.04325099
	-0.007905527	-0.04333313	-0.01192758	-0.02576699	0.005361518	-0.05573663	0.8819546	-0.3071686
	-0.01206057	-0.02558807	-0.00763302	-0.0434502	0.8819373	-0.3071571	0.005419982	-0.05563022
3.7e+08	0.008396753	-0.03826835	0.8102009	-0.4650191	-0.003533147	-0.02053803	-0.01732924	-0.0267856
	0.8102408	-0.4650581	0.008757939	-0.03820836	-0.01721179	-0.02700547	-0.003389658	-0.02036421
	-0.003529203	-0.02053622	-0.01724095	-0.02697746	0.008688326	-0.03799913	0.8100892	-0.4653278
	-0.01735893	-0.02675741	-0.002923196	-0.02097408	0.8100533	-0.4652911	0.008776073	-0.03791559
3.8e+08	0.01729431	-0.02405264	0.7099108	-0.6065825	0.00820772	-0.001801184	-0.02408432	-0.02621301
	0.7096836	-0.6066738	0.01761807	-0.02401777	-0.02399662	-0.02646603	0.008369857	-0.001503539
	0.008220005	-0.001798063	-0.02383219	-0.02640383	0.0176132	-0.02385313	0.70948	-0.6069153
	-0.02391886	-0.02615099	0.00516644	-0.00277279	0.7097073	-0.6068241	0.01770749	-0.02373841
3.9e+08	0.02996338	-0.0150772	0.5845007	-0.7263526	0.02518512	0.01063173	-0.03139538	-0.02317548
	0.584455	-0.7263329	0.03024533	-0.01516645	-0.03135089	-0.02344771	0.02543529	0.01104192
	0.02519073	0.01062899	-0.03132013	-0.02346043	0.03028431	-0.0149442	0.5842039	-0.7265319
	-0.03136507	-0.02318825	0.02478173	0.01118013	0.5842496	-0.7265516	0.03039655	-0.01493126
4e+08	0.04405298	-0.01214488	0.4396786	-0.8198795	0.04476353	0.01576291	-0.03812561	-0.01754054
	0.4396617	-0.8198701	0.04423516	-0.01223143	-0.03813195	-0.01780947	0.04500924	0.01576764
	0.04476663	0.01576073	-0.03811944	-0.01781704	0.04435723	-0.01207087	0.4393742	-0.8200179
	-0.0381138	-0.01754784	0.04472188	0.01582296	0.4393911	-0.8200272	0.04442515	-0.01206146
4.1e+08	0.05723463	-0.01501519	0.2809696	-0.8844522	0.06413181	0.01300674	-0.04324733	-0.009705167
	0.2809615	-0.8844421	0.05735945	-0.01509965	-0.04330017	-0.009940001	0.06419197	0.01302628
	0.06413346	0.01300454	-0.04329471	-0.009945033	0.05750693	-0.01499177	0.2806491	-0.8845338
	-0.04324242	-0.009709619	0.06405195	0.01305612	0.2806562	-0.8845393	0.05755935	-0.01500183
4.2e+08	0.06758533	-0.02270855	0.1141932	-0.918516	0.08053743	0.00345888	-0.04606297	-0.0004534342
	0.1141906	-0.9185145	0.06765159	-0.02277283	-0.04613935	-0.0006201221	0.08055962	0.003481409
	0.08053839	0.003458226	-0.04613724	-0.0006233141	0.06781125	-0.02272467	0.1138657	-0.9185481
	-0.04606126	-0.0004558685	0.08049579	0.003498388	0.1138672	-0.918545	0.06783533	-0.02274026
4.3e+08	0.07374531	-0.03367894	-0.05493498	-0.9216771	0.09203597	-0.0112361	-0.04631435	0.009274953
	-0.05493543	-0.9216739	0.07376713	-0.03370871	-0.04636863	0.009202335	0.09204344	-0.01122616
	0.09203618	-0.01123657	-0.04636821	0.009200956	0.07391126	-0.0337195	-0.05526317	-0.9216449
	-0.04631397	0.009274055	0.09202346	-0.01121865	-0.05526246	-0.9216436	0.07391611	-0.03372749
4.4e+08	0.07505503	-0.04611119	-0.2209791	-0.894459	0.09739055	-0.02896649	-0.0441584	0.01861042
	-0.2209791	-0.8944611	0.07505037	-0.04610044	-0.04413447	0.01863124	0.0973881	-0.02896983
	0.09739045	-0.02896638	-0.04413442	0.01863167	0.07515392	-0.04615388	-0.2213002	-0.8943759
	-0.04415852	0.01861069	0.09739302	-0.02897226	-0.2213007	-0.8943785	0.07515355	-0.04615289
4.5e+08	0.07154125	-0.05818777	-0.3788502	-0.8381962	0.09617158	-0.04743717	-0.04004632	0.02691779
	-0.3788511	-0.8381993	0.07152971	-0.05814065	-0.03991384	0.02699764	0.09616041	-0.04744959
	0.09617125	-0.04743662	-0.03991359	0.02699944	0.07157563	-0.05821057	-0.379155	-0.8380556
	-0.04004627	0.02691873	0.09617763	-0.04746073	-0.3791579	-0.838061	0.07157814	-0.05820711
4.6e+08	0.06382493	-0.06830619	-0.52381	-0.7548733	0.08872091	-0.06443999	-0.03455448	0.03386899
	-0.5238109	-0.7548746	0.06382168	-0.06823908	-0.0343365	0.03396093	0.08870437	-0.06445546
	0.08872104	-0.06443926	-0.0343362	0.03396328	0.06380751	-0.06829349	-0.5240973	-0.7546865
	-0.03455388	0.03386986	0.08872385	-0.06447176	-0.5240965	-0.7546852	0.063813	-0.06829345
4.7e+08	0.05299017	-0.0752374	-0.6514895	-0.6471227	0.07605284	-0.07807621	-0.02822052	0.03942459
	-0.6514908	-0.6471241	0.05299818	-0.07517234	-0.02797151	0.03949477	0.07603629	-0.07808936
	0.07605312	-0.0780756	-0.02797115	0.03949652	0.05293486	-0.07518051	-0.6517441	-0.6468822
	-0.02821981	0.03942517	0.07605164	-0.07810492	-0.6517428	-0.6468808	0.05293987	-0.07518663
4.8e+08	0.04042094	-0.07823269	-0.7579126	-0.5182038	0.05970369	-0.08693534	-0.02142309	0.04374591
	-0.7579124	-0.518204	0.04043047	-0.07818629	-0.02118941	0.04378169	0.05969446	-0.08694297
	0.05970381	-0.08693489	-0.02118923	0.04378257	0.04034218	-0.07812598	-0.7581268	-0.5179152
	-0.02142264	0.04374611	0.05970269	-0.08695145	-0.7581267	-0.5179153	0.04034263	-0.07813968
4.9e+08	0.0276249	-0.07708022	-0.8395843	-0.3720214	0.04154103	-0.09022403	-0.01432846	0.04706799
	-0.8395854	-0.3720224	0.02762045	-0.07705739	-0.01413608	0.04707388	0.04154564	-0.09022592
	0.04154095	-0.09022412	-0.01413621	0.04707419	0.02753756	-0.07691942	-0.8397513	-0.3716918
	-0.01432842	0.04706802	0.04154748	-0.09022341	-0.8397502	-0.3716908	0.02752936	-0.07694038
5e+08	0.01604607	-0.07210748	-0.8936255	-0.2131185	0.023541	-0.08783405	-0.006912376	0.04957101
	-0.8936241	-0.2131185	0.01601614	-0.07210165	-0.006771093	0.04955858	0.02356126	-0.08783036
	0.02354036	-0.0878339	-0.006771405	0.0495586	0.01596779	-0.07189132	-0.8937276	-0.2127521
	-0.006912665	0.04957119	0.02356052	-0.08781982	-0.8937334	-0.2127531	0.01594807	-0.07191611
5.1e+08	0.006882183	-0.06412345	-0.9179258	-0.04661167	0.007548587	-0.08033094	0.0009585206	0.0512853
	-0.9179282	-0.04661215	0.006826891	-0.06412203	0.001050376	0.05126553	0.00758137	-0.08032379
	0.007547175	-0.08033095	0.001050043	0.05126558	0.006833411	-0.06385657	-0.9179646	-0.0462226
	0.0009582265	0.05128557	0.007581358	-0.08031097	-0.9179668	-0.04622196	0.006802949	-0.0638792
5.2e+08	0.0009267643	-0.05429727	-0.9113482	0.1219299	-0.004949191	-0.06886132	0.009414618	0.05205698
	-0.9113506	0.1219302	0.0008597723	-0.05429019	0.009465977	0.052038	-0.004909271	-0.06885327
	-0.004951088	-0.06886058	0.009465771	0.05203817	0.0009286842	-0.05399168	-0.9113132	0.1223303
	0.00941444	0.05205714	-0.004907853	-0.06884382	-0.9113107	0.1223305	0.00089328	-0.05400656
5.3e+08	-0.001534753	-0.04397956	-0.8738352	0.2866981	-0.0130001	-0.05497483	0.0184746	0.05158221
	-0.8738366	0.2866984	-0.001592588	-0.04396608	0.01849759	0.051569	-0.01295971	-0.05497169
	-0.01300103	-0.05497324	0.01849752	0.05156911	-0.001465299	-0.04365522	-0.8737262	0.2870953
	0.01847453	0.05158233	-0.01295819	-0.05496701	-0.8737248	0.2870949	-0.00149632	-0.04366063
