! Created Thu Mar  2 08:58:20 2023
# ghz S ma R 45
! 4 Port Network Data from SP1.SP block
! freq  magS11  angS11  magS12  angS12  magS13  angS13  magS14  angS14  
!       magS21  angS21  magS22  angS22  magS23  angS23  magS24  angS24  
!       magS31  angS31  magS32  angS32  magS33  angS33  magS34  angS34  
!       magS41  angS41  magS42  angS42  magS43  angS43  magS44  angS44  
!     
0      0.065955338    -3.1763921e-13     1.2461907e-05              -180      0.0040171775    -4.2586408e-12     5.4838825e-06               180
                  1.8230486e-05               180       0.068616455     2.3358003e-13     2.4925859e-05              -180      0.0036896244    -4.7063098e-12
                   0.0048639116     1.3050328e-11     1.1669521e-06               180       0.066528139    -3.1732169e-14     1.5446748e-05     4.2204072e-12
                  1.0496478e-06               180      0.0046528632    -4.5118732e-12     1.7130377e-05               180       0.067203997    -2.5364273e-13

0.025       0.14370635         5.2071934     1.8865364e-05         159.67966       0.083000763         24.875995     1.5439328e-05         139.64208
                  2.4876937e-05         154.00766        0.14431294         4.9240794     3.6277002e-05         153.37916       0.083909891         25.059519
                    0.083433709         24.410405     1.8864396e-05         -156.2303        0.14418586         5.4268744     1.9310196e-05        -133.61022
                  4.2244726e-06         167.06746       0.083389638         24.579568     2.7734293e-05         151.05745        0.14425884         4.8542135

0.05       0.13267421        -40.240071     3.6469046e-05         140.44701        0.07347469        -32.016098     1.7639362e-05         146.81638
                  4.1752853e-05           130.589        0.13225433        -40.370079     5.1669751e-05         115.34003        0.07404852        -32.135858
                     0.07416977        -32.448455     4.8799371e-05         152.07129        0.13357022         -40.35852     3.6976477e-05         168.72413
                  2.9384188e-05         173.75372       0.073112535        -32.294706     3.6386435e-05         122.44199        0.13179531        -40.623148

0.075      0.049349892        -4.1564049     7.3587295e-05           57.5125       0.037918958         37.807782     5.5963517e-05         49.605175
                  8.1491782e-05         52.697978       0.050065697         -2.126943     8.4181772e-05         53.208717       0.038782282         38.599774
                    0.037431673         37.137138      8.281382e-05         71.591828       0.049602813        -4.3353296     6.4396306e-05         80.879016
                  6.4899694e-05         55.169267        0.03923598         39.157873     7.2247522e-05         52.702302       0.049984048        -2.6410771

0.1       0.16524619          7.795777     6.5673411e-05         -35.91039        0.13797009         14.646699     6.9287933e-05        -70.284873
                  7.5847794e-05         -37.25014        0.16692656         7.4562568     9.1171921e-05        -18.407372        0.13892103         14.617147
                     0.13728643         14.483373     8.0066097e-05        -4.2854705         0.1659089         8.0845405     5.4115989e-05        -7.4367794
                  7.0824399e-05        -71.566466        0.13928811          14.28277     7.1552366e-05        -36.368843        0.16803474         7.3361385

0.125       0.18215948        -42.611181     3.9226162e-05        -37.636729        0.13655494         -41.46181     1.3540791e-05         123.64742
                  4.5616929e-05         -52.42257        0.18166454        -43.000243     8.7287618e-05        -64.561397        0.13592409        -41.611886
                     0.13603863        -41.784004     8.2221568e-05        -41.643915        0.18309075         -42.57688      5.634256e-05        -20.581108
                  2.0766292e-05         97.952694        0.13554377        -42.003248     4.1590946e-05        -56.977715        0.18215948        -43.294624

0.15      0.059057258        -75.833919     0.00012403661        -106.03054       0.028633404        -84.233636     8.5488938e-05        -115.65193
                  0.00012938089         -112.1749       0.055936819        -74.317654     0.00013722129        -119.60694       0.026171877        -81.682122
                     0.02804091        -85.956877     0.00014932011        -103.91109       0.058949631        -75.980815      0.0001275221        -99.273346
                  9.4273262e-05        -107.05666       0.024994463        -82.067863     0.00011483751        -112.79276       0.054976293        -74.496431

0.175       0.14337283        -2.6563687     0.00011530959         150.68166         0.1189062         3.1254763     0.00011841305         102.14068
                  0.00012530234          146.5989         0.1472536        -2.9432988     0.00014550865         161.19326        0.12143168         2.7833767
                     0.11873971         3.5870748     0.00015708416          172.3737        0.14470271        -2.5321898     0.00010088069         162.35169
                  0.00012066983         108.17852        0.12253748         2.8765542     0.00010840115         146.13927         0.1491862        -2.8546964

0.2        0.2269184        -50.929762     3.2413357e-05          119.7326        0.17383041        -52.111012     9.3616337e-05        -52.766637
                  3.7381691e-05         103.11265         0.2276485        -51.433114     0.00011291932          106.3795        0.17354199          -52.3159
                     0.17337105         -51.97062     0.00011910343         116.84849        0.22856852        -50.951289     5.0722635e-05         159.00876
                  9.3137783e-05        -49.425746        0.17425031        -52.508618     2.9958892e-05         119.23161        0.22977349        -51.656386

0.225       0.16428636        -99.912437     0.00013371584         97.405394        0.11865306        -107.44299     0.00010772745         134.45138
                  0.00013038112         92.605667        0.16050913        -100.23081     0.00014680481         66.786729        0.11475316        -107.46712
                     0.11780075        -107.44257     0.00016181124         76.915029        0.16466053        -99.761247     0.00016175147         100.36077
                  0.00011146478         138.22772        0.11467893        -107.92442     0.00012738975         95.160329        0.16115684        -100.54742

0.25      0.040351512         -56.73592     0.00018318921        0.51452542       0.015652398        -40.533252      0.0001174746        -25.759554
                  0.00018582467        -2.8240477       0.044177718        -49.898033     0.00020634219        -6.1863335       0.020726737        -31.101326
                    0.016156141        -36.546853     0.00023122296         1.8414166       0.042599743        -55.096934     0.00019494067         4.2107411
                  0.00011657346        -17.839117       0.020957867        -27.981585     0.00017002908        -1.7572046       0.045340262        -48.278459

0.275       0.17713091        -60.775666     0.00010429365        -64.504008        0.11433388        -64.038681     8.6961244e-05         142.69031
                  0.00010721522        -69.965001        0.18050694        -61.480228     0.00017528174        -75.556133        0.11646565         -64.75345
                     0.11526877        -63.661624     0.00020030364        -70.510568        0.18044002        -61.279796     0.00010631955        -53.071421
                    7.07914e-05         144.88034        0.11763589        -64.529927      8.877481e-05        -60.875602        0.18383041        -61.792741

0.3       0.21218862        -111.34066     0.00015639435        -88.844209        0.12748812        -120.32157     0.00017155036        -23.744117
                  0.00015252199        -91.943377        0.20986994        -111.99803     0.00017033395        -119.22733        0.12409026        -120.82117
                     0.12801752        -120.03368     0.00019208541        -118.09233        0.21385322        -111.64103     0.00018497967        -81.642887
                  0.00016397702        -26.100875        0.12520453        -120.92677      0.0001609899         -83.66661        0.21225813        -112.42088

0.325       0.12077773        -161.02971     0.00024758612        -165.59959       0.065249286        -176.96443     0.00021752873         -151.6031
                  0.00024689762        -167.24508        0.11375621        -160.78942      0.0002478107        -176.85557       0.057749789          -176.639
                    0.065142116        -176.45832     0.00026611754        -175.35369        0.11955109        -160.36569     0.00028278806        -161.68881
                  0.00021566147        -151.20822       0.058322725        -177.37093     0.00025371347         -164.0747        0.11345043        -160.86522

0.35      0.042839022        -86.551826     0.00022977093         118.03713       0.020623509        -81.000988     0.00011832589         91.699296
                  0.00023356836         116.55522       0.048908877        -84.455995     0.00027858112         109.64558       0.026598376        -80.164314
                    0.021572979        -81.406949     0.00030127013         111.95987       0.047881686        -87.337675     0.00025494605          120.5799
                  0.00011810352         97.737259       0.026548331        -78.341454     0.00022695809         118.66139       0.052308871        -84.449487

0.375       0.14112126        -118.79821     0.00022182842         68.786508        0.06340662        -133.55359     9.0472302e-05         128.85564
                  0.00022509562         66.553967        0.14073634        -119.74539     0.00025483555         48.892536       0.062268706        -135.11019
                    0.064699167        -133.64801     0.00028119081         49.496027        0.14413923        -120.18429     0.00023902153         72.503574
                  0.00010092573         120.50696       0.063065508        -134.45089     0.00021857641         73.054441        0.14391431        -120.71634

0.4       0.14213047        -173.15585     0.00028834873         8.5616858       0.051204209          165.7954     0.00024829015         28.487025
                  0.00029015492         6.8346892        0.13500883        -173.60796      0.0002941048        -4.0545057        0.04362639         163.50723
                    0.052481105         165.91684     0.00031500113         -5.599136        0.14105997        -173.86151     0.00031972565         13.203278
                   0.0002558274         25.448435       0.044883818         163.96938     0.00030179634          12.85326        0.13550372        -174.38195

0.425      0.054442804         136.43273     0.00029143508        -58.720225      0.0041381903         128.60027     0.00025058085        -74.476812
                  0.00029489313        -59.927096       0.046334198         139.29867     0.00036056396        -70.136714      0.0050550175        -91.934382
                   0.0050798555         128.11515     0.00037529213        -71.218647        0.05080101         139.23846     0.00033442327        -55.244018
                  0.00025568913        -75.591394      0.0035509152         -90.12363      0.0003125694        -56.019028       0.044523205         140.72962

0.45       0.04723569        -123.78514     0.00024841787        -112.66643       0.031121669        -138.13726      0.0001356587        -142.21046
                  0.00025417322         -114.3966       0.049563541        -124.62514     0.00037032728        -136.77479       0.033194629        -139.71485
                    0.030934153        -139.31256     0.00038442649        -137.30484       0.050989446        -127.51892     0.00028580652        -110.38554
                  0.00014186977        -141.06449       0.032333554        -138.61475     0.00026310584        -109.52694       0.052087282        -126.93564

0.475      0.077553829        -173.75076     0.00021150258        -179.60847       0.021509703         154.76534     0.00019189225        -177.91098
                  0.00021852621         177.73399       0.070982895        -172.66638     0.00037831276         165.13828       0.014921028         147.40184
                    0.022069145         152.78956     0.00039315854         164.12663       0.075730776        -176.02698     0.00023979663        -174.96715
                  0.00020425461        -179.59361       0.014739009         150.62999       0.000221036        -173.66055       0.070266891        -174.49185

0.5      0.030243978         154.95337     0.00021108523         90.880324       0.023618267        -79.047081     0.00020858116         93.557322
                  0.00022032746         89.032366         0.0246374         175.30064     0.00041624873         101.29308       0.034325678        -79.004845
                    0.022713873         -77.01724     0.00042822222         99.963993       0.025229681         162.06961     0.00024306885         97.214999
                  0.00022009718         91.523348       0.033393097        -80.216471     0.00022537002         96.118038       0.022585985        -178.79993

0.525      0.060586108        -142.54751     0.00021235558         29.663982       0.068536256        -145.98504     0.00010807084         30.315938
                  0.00022159849         28.384643       0.066634515        -143.00491     0.00041384569         33.410458       0.073653089        -146.16782
                    0.067371886         -145.6293     0.00042341255         32.357985       0.066477768        -142.76558     0.00024688735         34.182563
                  0.00011380097         27.799201         0.0721157        -146.46285     0.00022717763         33.431488       0.069264788        -143.31503

0.55      0.083135862         171.59202     0.00028256847        -24.803369       0.065494253         154.44839      0.0001762463        -4.7418675
                  0.00029492074        -26.124481       0.078021197         171.83431     0.00041464091        -25.228386       0.061145731         152.97589
                    0.064398679         154.40665     0.00042557782        -26.325757       0.081406079          170.8796     0.00031518395        -21.140994
                  0.00018545855        -6.6349704       0.059490623         153.33253     0.00029695433        -20.404385       0.076083991         170.53347

0.575      0.039632542        -176.01571     0.00032769803        -98.359167       0.014405714        -157.15681     0.00018140452        -96.819948
                  0.00034207715        -99.936274       0.042599035        -158.95702     0.00048220512        -90.168068       0.021533916        -127.49089
                    0.014341855        -153.38702     0.00049308277        -91.697066       0.039309975        -170.09967     0.00036275564        -93.686923
                  0.00019713036         -100.0417       0.023100643        -127.92605     0.00034867269        -93.619991       0.043049364        -156.28344

0.6       0.13233184        -152.14476      0.0002727175        -164.59147        0.09974201        -163.01522     1.8039721e-05         -133.6377
                  0.00028228745        -166.50654        0.14355432          -153.538     0.00048358357        -163.52735        0.10800597        -162.91827
                    0.099862787        -162.56315     0.00048994021         -165.1552        0.14190091        -151.61177     0.00031188098        -159.91256
                  2.0868558e-05         172.08938        0.10811164        -163.49025     0.00029658747         -160.7884        0.14937944        -153.67047

0.625       0.19151301          155.0969     0.00027796225         152.03193        0.13700242         140.86365     0.00023429342        -154.32152
                  0.00028540445         150.65015        0.19110866         153.63014     0.00038674968         137.80338        0.13560675         140.20526
                     0.13652398          141.1602     0.00038947337         136.69511        0.19392561         154.35969     0.00032159663         153.62453
                  0.00022832009        -153.32006        0.13456007         139.87912     0.00030035317         154.38611        0.19120278         152.77929

0.65       0.12294231         102.49668     0.00038932715          91.04942       0.090301761         88.834577     0.00032742663         100.44386
                   0.0004025579         89.863939        0.10972477         102.38532     0.00046863076         91.059495       0.078805289         88.175004
                    0.089279478         89.290829     0.00047836913         90.038195          0.114525         101.76613     0.00043548098          91.45059
                   0.0003373405         101.02033        0.07700052         88.299299     0.00041674095         93.341543        0.10227795          101.7653

0.675      0.082673034        -174.94115     0.00039783203         13.967609       0.058440787         158.78195     0.00013091757         9.2387299
                  0.00041239948         12.241908       0.098181031        -174.22808      0.0005784291         13.371471       0.068489795         163.71775
                    0.059419787          159.2086     0.00059273993         11.605417       0.095363269         -170.3375     0.00043222878         14.869612
                  0.00015336919         6.1106546       0.069662289         163.90116      0.0004218293         16.383228        0.10807286        -171.49698

0.7       0.24476623         143.21991     0.00031181023        -47.155147        0.15467454         125.34292     0.00024647508         26.379337
                  0.00031832182        -49.281366        0.24840017         141.32859     0.00043159377        -60.979655         0.1553272         124.44679
                      0.1557211         125.37028     0.00043997856        -64.028727          0.252572         142.33582     0.00034279882        -43.010473
                  0.00022434329         23.937258        0.15622141         124.14245     0.00033387085        -42.513832        0.25381232         140.35129

0.725       0.26063973         90.790641     0.00033806641        -91.791028        0.15364909         76.020533     0.00045171461        -68.029645
                  0.00034275775        -92.946281        0.25108612         88.906493     0.00035050958        -95.045664        0.14436871         74.617086
                     0.15409639         76.141018     0.00034181969        -97.665972        0.25797493          89.67363     0.00039628835        -90.008176
                  0.00043550735        -67.951883        0.14423867         74.326277     0.00038020796        -88.893087        0.24857431         87.750106

0.75       0.11615904         41.575724     0.00047303387        -156.56398       0.059431223         31.932011     0.00043238852        -164.28229
                  0.00048493378        -157.32425       0.097499572         42.262412     0.00059965056        -152.49071        0.04360855         35.062984
                    0.059416286         32.743595     0.00059653808        -153.60374        0.10456328         41.725056     0.00053576161        -158.44093
                  0.00043270938        -162.87928       0.042550576         35.152508     0.00051879128        -156.44016       0.088694849         42.772994

0.775       0.12934892          122.0393     0.00044484719          128.3938       0.098967672         110.73076      0.0002344592          145.0564
