! Created Thu Mar  2 08:56:54 2023
# ghz S ma R 45
! 4 Port Network Data from SP1.SP block
! freq  magS11  angS11  magS12  angS12  magS13  angS13  magS14  angS14  
!       magS21  angS21  magS22  angS22  magS23  angS23  magS24  angS24  
!       magS31  angS31  magS32  angS32  magS33  angS33  magS34  angS34  
!       magS41  angS41  magS42  angS42  magS43  angS43  magS44  angS44  
!     
0      0.065955338    -3.1763921e-13     2.4871809e-05    -1.9921722e-12      0.0040171775    -4.2586408e-12     2.1033255e-05               180
                  1.7838199e-05    -9.7538172e-12       0.069709232    -6.0954319e-13     1.6881518e-05     4.7938724e-13      0.0034700976     4.7314449e-12
                   0.0048639116     1.3050328e-11     2.0584886e-05              -180       0.066528139    -3.1732169e-14     3.2910041e-06    -4.3037865e-11
                  7.7942647e-05              -180      0.0038965691      8.700374e-12     1.3958076e-05      1.476767e-11       0.066417864    -6.5526269e-13

0.025       0.14370635         5.2071934     4.6237157e-05        -131.29962       0.083000763         24.875995      5.422262e-05        -173.81306
                   5.100571e-05        -154.08783        0.14371305         4.2783596     4.4827568e-05        -150.54915       0.083659809         24.952001
                    0.083433709         24.410405      4.397838e-05         166.95779        0.14418586         5.4268744     4.4322745e-05        -146.27003
                   0.0001134334         149.84004       0.083656124         24.699754     5.7600498e-05        -151.79948        0.14316654         4.8867279

0.05       0.13267421        -40.240071     0.00010178859         164.50778        0.07347469        -32.016098     0.00013121276         145.18899
                  9.2596455e-05         149.37545        0.13019082        -40.869417     8.6062767e-05         151.50753       0.073589392         -32.48809
                     0.07416977        -32.448455     7.6432994e-05         133.80093        0.13357022         -40.35852     0.00011845296         155.68418
                  0.00014453319         107.81144        0.07351284        -32.729712     0.00011668728         149.18398        0.12978366        -40.717418

0.075      0.049349892        -4.1564049     0.00016914808         82.265972       0.037918958         37.807782     0.00022835283         68.557023
                  0.00015875383         76.850895       0.050418645        -2.2634815     0.00014930409          75.56923       0.038810822         38.036992
                    0.037431673         37.137138     0.00014320017         62.490359       0.049602813        -4.3353296     0.00019908502         72.804537
                  0.00022178058         51.743926       0.038730958          38.03688     0.00019311918          74.78173       0.050497973        -2.6799509

0.1       0.16524619          7.795777     0.00016479485         4.7342005        0.13797009         14.646699     0.00022806812        -7.6286709
                  0.00017069649        0.60659879         0.1673084         6.3899718     0.00015809977        -3.4825422        0.13806698         13.746111
                     0.13728643         14.483373     0.00014927337        -17.903484         0.1659089         8.0845405     0.00019188519        -5.9238836
                  0.00025254149        -17.497399        0.13786169         13.616181     0.00020683424      -0.055705745        0.16877677         6.8123755

0.125       0.18215948        -42.611181     0.00018221673        -32.617182        0.13655494         -41.46181     0.00022623301        -45.694724
                  0.00018235479        -42.877352        0.17975193        -44.230768     0.00015890673          -46.4129        0.13472008        -42.711352
                     0.13603863        -41.784004     0.00012793233        -55.266489        0.18309075         -42.57688     0.00018594393        -42.881809
                  0.00025183966        -64.608748        0.13413832        -42.927124     0.00022072761        -45.818113        0.18103742        -43.919674

0.15      0.059057258        -75.833919     0.00032757786        -100.18859       0.028633404        -84.233636     0.00040499911        -106.27783
                  0.00030321248        -107.96934       0.054107296        -74.866068     0.00027570723        -109.80681       0.026357614        -83.226394
                     0.02804091        -85.956877     0.00024900293        -112.00916       0.058949631        -75.980815     0.00034390122        -104.17602
                  0.00038409419        -121.83702       0.025373055        -83.412129     0.00035573729        -109.03234       0.054786191        -73.698639

0.175       0.14337283        -2.6563687      0.0003232999         174.98768         0.1189062         3.1254763     0.00043367532         170.96397
                  0.00029396993         169.56867        0.14609736        -4.2511945     0.00028078686         164.62321        0.11842689         1.0998626
                     0.11873971         3.5870748     0.00026780511         159.36293        0.14470271        -2.5321898     0.00036794571         170.66652
                  0.00040372606         160.35984        0.11910607         1.2570995      0.0003660764         170.13836        0.14800154        -4.8115595

0.2        0.2269184        -50.929762     0.00023872407          126.7141        0.17383041        -52.111012     0.00032867618         115.27738
                  0.00021687331         124.42379        0.22468823        -53.154931     0.00019045599         112.09521        0.17011764        -54.303363
                     0.17337105         -51.97062     0.00016666646         102.69172        0.22856852        -50.951289     0.00026386404         113.49865
                  0.00031283207         107.93072        0.17025246        -54.346749     0.00028285432         116.90196        0.22691559        -53.537429

0.225       0.16428636        -99.912437      0.0003848424         81.935001        0.11865306        -107.44299     0.00045231836         73.881648
                  0.00036329691         79.363417        0.15889106        -102.45478     0.00029876558         74.656504        0.11414845        -110.05941
                     0.11780075        -107.44257     0.00025473931         73.447729        0.16466053        -99.761247       0.000362431          75.77028
                  0.00044154238          65.68014        0.11348132        -110.15599     0.00040532134         73.458642        0.16025241         -102.6697

0.25      0.040351512         -56.73592     0.00051613661         1.8978681       0.015652398        -40.533252     0.00062856319       -0.36683237
                  0.00048022216        -1.7853054       0.040082541        -56.014083     0.00042716524        -6.2399454        0.01575346        -42.303448
                    0.016156141        -36.546853     0.00038729582        -7.1876615       0.042599743        -55.096934      0.0005224047        0.63229682
                  0.00059788429        -9.3643172       0.016687681        -38.879439     0.00055270328        -3.0399502       0.041712072        -56.579348

0.275       0.17713091        -60.775666     0.00041153321        -68.315138        0.11433388        -64.038681     0.00054989485        -71.081493
                  0.00036424722        -70.759859        0.17308106         -63.50635     0.00032993949        -81.008458          0.109216         -67.59877
                     0.11526877        -63.661624     0.00029884912        -83.863481        0.18044002        -61.279796     0.00044937257        -71.973704
                  0.00049289084        -79.007172        0.11063605        -67.606857     0.00045968132         -74.31186        0.17514728        -64.513487

0.3       0.21218862        -111.34066     0.00042785055        -110.02522        0.12748812        -120.32157     0.00054163329        -118.37357
                  0.00039161442        -108.06016        0.20693424        -114.79725     0.00030426238        -117.52429        0.12182319        -124.54509
                     0.12801752        -120.03368      0.0002659277        -118.10176        0.21385322        -111.64103     0.00042710194        -117.34409
                  0.00048686146        -120.61784        0.12279292        -124.66705     0.00044355056        -117.72409        0.20809317        -115.72868

0.325       0.12077773        -161.02971     0.00062812426        -173.60928       0.065249286        -176.96443     0.00074444245        -178.04134
                  0.00060002116           -172.91        0.11984027        -165.84059     0.00049158579        -177.48357       0.064326992           178.003
                    0.065142116        -176.45832     0.00044579625        -177.19634        0.11955109        -160.36569      0.0006111201        -175.94585
                  0.00071409521         179.59964       0.064483183         177.86644     0.00064741741        -177.12087        0.11880697        -166.51962

0.35      0.042839022        -86.551826     0.00067911448         110.63694       0.020623509        -81.000988     0.00082675393         109.43489
                  0.00064559861          110.1726       0.035426572        -91.671401     0.00055593219         103.80952       0.015275598        -90.734022
                    0.021572979        -81.406949     0.00050681501         103.49904       0.047881686        -87.337675     0.00068804993         109.99747
                  0.00079479555         105.15354       0.016040024        -90.353297     0.00072681156         107.83542       0.038270888        -91.197438

0.375       0.14112126        -118.79821     0.00060321837         49.822074        0.06340662        -133.55359     0.00076664798          47.84619
                  0.00056361291         50.167662        0.13428183        -122.69845     0.00046667026         40.817211       0.058158814        -140.23115
                    0.064699167        -133.64801     0.00041930586         41.085704        0.14413923        -120.18429     0.00062245051         48.128666
                  0.00070712608         43.877848       0.059551037        -140.58302     0.00064542854         45.530306        0.13623154        -124.08622

0.4       0.14213047        -173.15585     0.00070009872        -4.1426866       0.051204209          165.7954     0.00086718189        -7.4651927
                   0.0006678828        -2.7484435        0.14233759         -178.8047     0.00053432807        -8.9082037       0.052117941         158.37986
                    0.052481105         165.91684     0.00048995785          -7.24371        0.14105997        -173.86151      0.0007129591         -5.485197
                  0.00080475529        -8.5606964       0.053661472         157.83259     0.00073060487        -7.1594893        0.14108458         179.84298

0.425      0.054442804         136.43273     0.00083928415        -72.129182      0.0041381903         128.60027       0.001023001        -73.971254
                   0.0008121697        -71.340633       0.061571441         125.80967     0.00067958799        -77.010005       0.010301844         108.04429
                   0.0050798555         128.11515     0.00063355337        -75.885829        0.05080101         139.23846     0.00086470709        -72.879365
                  0.00098082279        -74.931871       0.011548008         103.30518     0.00089412718        -74.148646       0.057499754         125.20015

0.45       0.04723569        -123.78514     0.00083596959        -140.44737       0.031121669        -138.13726      0.0010305908        -141.21277
                  0.00080807587        -140.16847        0.03947616        -127.06027     0.00068171837        -147.81226        0.02686381        -147.47222
                    0.030934153        -139.31256     0.00063391336         -147.0113       0.050989446        -127.51892       0.000864921        -141.46493
                  0.00099323831        -143.11129       0.026301419        -147.30395     0.00089942574        -143.07885       0.043412161        -128.73245

0.475      0.077553829        -173.75076      0.0008556274         160.16325       0.021509703         154.76534      0.0010627091         159.15669
                  0.00082567598         160.60179       0.077994072         178.83881     0.00068249925         153.14228       0.025695878         143.85105
                    0.022069145         152.78956     0.00063581782         154.46057       0.075730776        -176.02698     0.00088760428          159.5546
                   0.0010106772         157.52218       0.025984472         143.22149     0.00091485516         157.67477       0.078009295         176.97985

0.5      0.030243978         154.95337     0.00096966142         95.710175       0.023618267        -79.047081      0.0011969787         94.878114
                  0.00094123749         96.079955       0.035018773         136.05574     0.00079584638         88.719788       0.014874203        -78.909939
                    0.022713873         -77.01724     0.00074975628         90.020468       0.025229681         162.06961      0.0010211474         94.641276
                   0.0011452419          94.00199       0.014035932        -75.662194      0.0010489481         93.223849       0.031036076         136.67102

0.525      0.060586108        -142.54751     0.00095833796         27.869824       0.068536256        -145.98504      0.0011849253         27.594719
                  0.00092962014         27.789847       0.054933107        -150.43379     0.00078566505         18.330212       0.064323504        -153.85585
                    0.067371886         -145.6293     0.00074109437         19.375256       0.066477768        -142.76558      0.0010002161         25.788345
                   0.0011447371         26.499957       0.062789541        -153.18814      0.0010347771         24.371039       0.059193422        -149.85045

0.55      0.083135862         171.59202     0.00094248995         -30.16903       0.065494253         154.44839      0.0011722127        -30.472636
                  0.00090624858        -30.283178       0.085917994         162.09642     0.00073638211        -38.345333       0.071996603         144.69762
                    0.064398679         154.40665     0.00069533633        -36.890412       0.081406079          170.8796     0.00096870118        -30.466261
                   0.0011237219        -31.891937       0.070333312         145.29413     0.00099800694        -32.557022       0.086398009          160.6674

0.575      0.039632542        -176.01571      0.0011119872        -94.365372       0.014405714        -157.15681      0.0013708314        -94.632146
                   0.0010681926        -94.142726       0.038939073          161.6447     0.00090056384        -102.28298       0.013189764         147.85237
                    0.014341855        -153.38702      0.0008588942        -101.04455       0.039309975        -170.09967      0.0011618481         -95.43271
                   0.0013069601        -95.379963        0.01341315         154.35763      0.0011837951        -97.082311       0.037810746         164.03309

0.6       0.13233184        -152.14476      0.0011028754        -168.67073        0.09974201        -163.01522      0.0013528381        -168.24324
                   0.0010607418        -168.50675        0.13103659        -160.67083     0.00090829031         179.33399       0.096636989        -172.01184
                    0.099862787        -162.56315     0.00086714715         -179.9025        0.14190091        -151.61177      0.0011354957        -171.89873
                   0.0013007925        -168.49233       0.096877035        -172.15952      0.0011630442        -172.87498        0.13607431        -161.00803

0.625       0.19151301          155.0969     0.00087775087         133.57496        0.13700242         140.86365      0.0010867478         134.72088
                  0.00083659031         133.82023        0.19934314         145.53331     0.00063851457         120.21595        0.14410335         131.93768
                     0.13652398          141.1602     0.00060606413         121.17216        0.19392561         154.35969     0.00084618789         132.65115
                   0.0010534096         134.16408          0.143127         132.03665      0.0008795027         131.10812        0.19997637          144.4386

0.65       0.12294231         102.49668      0.0010674065         86.045537       0.090301761         88.834577      0.0013273714         86.600882
                   0.0010184109         87.061085         0.1329908         92.163936     0.00080413035         80.807843        0.10116384         80.103431
                    0.089279478         89.290829     0.00077244848         81.871679          0.114525         101.76613      0.0011035637         87.874419
                   0.0012730899         85.761559       0.099394748         80.829597      0.0011260886         85.622831        0.12692087         90.860351

0.675      0.082673034        -174.94115      0.0013136537         7.3727022       0.058440787         158.78195      0.0016118695         8.7111663
                   0.0012567201         8.5089362       0.083407743         175.67609      0.0010699643         -2.184427       0.058946748         146.83068
                    0.059419787          159.2086      0.0010252477        -1.8490982       0.095363269         -170.3375       0.001359865         6.0935622
                   0.0015334381          8.497563       0.060740247          146.9442      0.0013797499         4.5851824       0.091339745         178.64417

0.7       0.24476623         143.21991      0.0009455035        -66.355801        0.15467454         125.34292      0.0011758799          -63.3739
                  0.00090308291         -64.76881        0.25605492         133.07868      0.0007085588        -82.208836        0.16293918         115.66078
                      0.1557211         125.37028     0.00066445781        -81.875925          0.252572         142.33582     0.00090411943        -66.952584
                   0.0011179167         -62.47808        0.16406066         115.22061     0.00092514093        -68.162903        0.25997033          131.9356

0.725       0.26063973         90.790641     0.00080901089          -100.564        0.15364909         76.020533      0.0010438235        -99.173158
                  0.00078595013        -98.146305        0.27272721         81.057164     0.00053079311        -103.60373        0.16262875         67.520324
                     0.15409639         76.141018      0.0005103271        -100.94987        0.25797493          89.67363     0.00083391536        -94.189293
                   0.0010221111        -97.951081        0.16250711          67.33441     0.00084986749        -96.121211        0.26872089          79.65407

0.75       0.11615904         41.575724      0.0013796711        -159.01755       0.059431223         31.932011      0.0017017533        -158.49951
                    0.001354035        -157.31824        0.11752867         32.777264      0.0011075915        -162.32147       0.061281661         25.738043
                    0.059416286         32.743595      0.0010802108        -161.69276        0.10456328         41.725056      0.0014828152        -157.92235
                     0.00166443         -158.4019       0.060535718         26.729076      0.0014992423        -159.38253        0.10693439         32.386416

0.775       0.12934892          122.0393      0.0013042289         113.96144       0.098967672         110.73076      0.0016104508         117.36996
