! Created Thu Mar  2 08:55:11 2023
# ghz S ma R 45
! 4 Port Network Data from SP1.SP block
! freq  magS11  angS11  magS12  angS12  magS13  angS13  magS14  angS14  
!       magS21  angS21  magS22  angS22  magS23  angS23  magS24  angS24  
!       magS31  angS31  magS32  angS32  magS33  angS33  magS34  angS34  
!       magS41  angS41  magS42  angS42  magS43  angS43  magS44  angS44  
!     
0      0.065955338    -3.1763921e-13     3.9800178e-05              -180      0.0040171775    -4.2586408e-12     1.7289993e-05               180
                  3.2993667e-05               180        0.06828245       8.05091e-13     1.2273958e-05              -180      0.0041605715    -1.8174981e-12
                   0.0048639116     1.3050328e-11     1.1038535e-06    -2.8068694e-10       0.066528139    -3.1732169e-14     3.6681168e-06     -1.857434e-11
                  1.0741538e-05    -3.3188304e-11      0.0052319109     8.7785447e-12     3.1750395e-06              -180       0.066441577    -5.5174227e-13

0.025       0.14370635         5.2071934     3.6396922e-05         94.788272       0.083000763         24.875995     1.8938917e-05         88.705709
                  3.0029046e-05         90.782555        0.14466969         4.7542699     1.9138616e-05         59.961514       0.083524535         24.549671
                    0.083433709         24.410405     1.8436401e-05         1.4000891        0.14418586         5.4268744     1.3318469e-05         5.7121082
                  1.8365131e-05        -34.229577       0.084063005         23.971351      1.194178e-05         37.505916        0.14473873         4.9767958

0.05       0.13267421        -40.240071     4.2777618e-05         23.476867        0.07347469        -32.016098     2.9306167e-05         8.1650132
                  3.6439207e-05         19.607279        0.13104925        -40.792051     3.7955977e-05        -12.626329       0.072230399        -32.634503
                     0.07416977        -32.448455     2.6784006e-05        -47.634931        0.13357022         -40.35852     2.7854735e-05        -39.870304
                  1.8106414e-05          -87.2987       0.073082731        -33.166719     2.7178097e-05        -24.548933        0.13175214        -40.913599

0.075      0.049349892        -4.1564049     5.5096517e-05        -56.745101       0.037918958         37.807782     3.9402262e-05        -79.405917
                  4.9656227e-05        -60.408019       0.051124877      -0.021216089      5.961155e-05        -92.351791        0.04077384         39.963664
                    0.037431673         37.137138     4.6399736e-05        -105.14411       0.049602813        -4.3353296     4.6597026e-05        -111.75421
                  2.5518721e-05        -126.35836       0.040165113         39.245005     4.4134468e-05         -102.4828       0.051220806       -0.95182199

0.1       0.16524619          7.795777     5.5163517e-05        -133.65949        0.13797009         14.646699      3.618287e-05         -155.3665
                  5.1384153e-05        -137.93774        0.16837994          6.365624     6.2924694e-05        -166.03674        0.14025342         13.233887
                     0.13728643         14.483373     5.8053695e-05        -176.61377         0.1659089         8.0845405     4.8969693e-05         176.02796
                  3.4014548e-05         165.69455        0.13941276         13.023183     4.5245314e-05        -175.67454        0.16851454          6.647048

0.125       0.18215948        -42.611181     6.3876742e-05         170.36582        0.13655494         -41.46181     4.5513248e-05         161.86122
                  5.9528844e-05         166.69443        0.17943951        -44.202801     7.3951517e-05         147.28422        0.13415349        -43.276122
                     0.13603863        -41.784004     6.4032335e-05         131.48248        0.18309075         -42.57688     5.3913626e-05         134.63951
                  3.3893704e-05         115.23639        0.13352098        -43.681878     5.2502276e-05         142.99628        0.18036909        -44.129048

0.15      0.059057258        -75.833919     9.1299507e-05         98.660804       0.028633404        -84.233636     7.8577679e-05         87.550578
                   8.650483e-05         96.084456       0.052461054        -72.422026     0.00011950797         80.248738       0.022642687        -79.848474
                     0.02804091        -85.956877     9.5306379e-05          70.10236       0.058949631        -75.980815     9.2533791e-05         70.597278
                  5.2706959e-05         59.838504       0.021841293        -82.276486     9.0457349e-05         75.745466       0.053157867        -73.000989

0.175       0.14337283        -2.6563687     8.7107879e-05         20.118887         0.1189062         3.1254763     7.6661916e-05       -0.18732753
                  8.3809662e-05         17.702951        0.14889767        -4.9097005     0.00012446255       -0.62396718        0.12284354        0.73874632
                     0.11873971         3.5870748     9.9244369e-05        -6.8044855        0.14470271        -2.5321898      9.681785e-05        -12.746069
                  5.6387049e-05        -21.054944         0.1225972         1.2613855     9.2630874e-05        -8.1338662        0.14896962        -4.9128992

0.2        0.2269184        -50.929762     7.8303996e-05         -30.70701        0.17383041        -52.111012     5.3779283e-05        -53.662825
                  7.5442318e-05        -32.962451        0.22416301        -53.614808     0.00010172913        -56.262315        0.17148791        -54.913164
                     0.17337105         -51.97062     8.3535704e-05        -58.681511        0.22856852        -50.951289     7.0589962e-05        -67.912731
                  4.0129649e-05        -73.048977        0.17087889        -54.744038     6.8255036e-05        -61.973781        0.22533684        -53.606514

0.225       0.16428636        -99.912437     0.00011557492        -86.565137        0.11865306        -107.44299     8.4942556e-05        -94.874734
                  0.00011182441        -88.373032        0.15454608        -102.45405     0.00014158573        -103.20904        0.11091559        -110.82507
                     0.11780075        -107.44257     0.00012059315        -106.44696        0.16466053        -99.761247     0.00010263041        -106.88805
                  6.2457819e-05        -110.05988        0.10987367        -110.80936     0.00010226518         -103.0952        0.15616014        -102.29134

0.25      0.040351512         -56.73592     0.00014212758        -166.56028       0.015652398        -40.533252     0.00012307726        -177.11846
                  0.00013828526        -168.23287       0.044660899        -50.548886     0.00019197027        -179.22047       0.020266824        -30.870035
                    0.016156141        -36.546853     0.00015911464         176.65672       0.042599743        -55.096934     0.00014977284         175.34788
                  9.1718405e-05           168.671       0.021125548        -27.861251     0.00014636602          177.8654        0.04569648         -52.20569

0.275       0.17713091        -60.775666     0.00011258638         125.22244        0.11433388        -64.038681     9.9591113e-05          103.7826
                  0.00010935035         123.60117        0.17507796        -64.494906     0.00016619514         107.63312        0.11208825        -68.044715
                     0.11526877        -63.661624     0.00012816735         105.93836        0.18044002        -61.279796     0.00012582659         98.473517
                   6.728664e-05         90.650181         0.1130995        -67.601555     0.00012128769         101.45067        0.17655437        -65.041168

0.3       0.21218862        -111.34066     0.00012094076         82.018019        0.12748812        -120.32157     8.2083873e-05         60.118816
                  0.00011766168         81.060657        0.20258346        -115.52277     0.00015381367         59.541589        0.11976448        -125.29191
                     0.12801752        -120.03368     0.00012606702         65.577489        0.21385322        -111.64103     0.00010534124         53.905119
                  5.6285363e-05         62.797435        0.12028731        -124.91354     0.00010388327         57.501567        0.20477021        -115.80748

0.325       0.12077773        -161.02971      0.0001759834         16.391687       0.065249286        -176.96443     0.00012674598         5.1209409
                  0.00017246603         15.489896        0.11124247        -165.46249     0.00021383288         1.7819432       0.058288927         176.86993
                    0.065142116        -176.45832     0.00019069775         4.9569555        0.11955109        -160.36569     0.00015738464        0.39627085
                  0.00010279592         4.1891315       0.058115805         177.60164     0.00015582535         2.4139297        0.11289032        -165.09721

0.35      0.042839022        -86.551826     0.00018677408        -61.051604       0.020623509        -81.000988     0.00015037945        -73.283321
                  0.00018320098        -62.082269       0.041995246        -88.814655     0.00024414121        -72.525522       0.019469492        -84.514307
                    0.021572979        -81.406949     0.00021211789        -71.836944       0.047881686        -87.337675      0.0001879482         -75.36772
                  0.00011966567        -78.625723       0.020538799        -85.314854     0.00018333274        -73.913814       0.043957186        -91.761136

0.375       0.14112126        -118.79821     0.00015933346        -121.64147        0.06340662        -133.55359     0.00012781216        -140.60375
                  0.00015558845        -122.47773        0.13317587        -123.82414     0.00021797383        -137.18163       0.056485153        -140.43716
                    0.064699167        -133.64801     0.00017852425        -134.19117        0.14413923        -120.18429     0.00016485266        -141.59831
                  8.9742513e-05        -142.32783       0.057883226        -140.56235     0.00015971535         -139.6415        0.13522425        -125.25199

0.4       0.14213047        -173.15585     0.00018817749         -173.7367       0.051204209          165.7954      0.0001347449         168.30389
                  0.00018447955        -174.10836        0.13365529        -179.44279     0.00023422687         169.40035       0.045288304         156.84119
                    0.052481105         165.91684     0.00020521106         176.63126        0.14105997        -173.86151     0.00017382745         166.48011
                  0.00010516467          176.5548       0.046641716         157.10153     0.00017048092         168.55152        0.13493988         179.65904

0.425      0.054442804         136.43273     0.00023157989         116.60998      0.0041381903         128.60027     0.00016883699         102.20606
                  0.00022796406         116.22629       0.051361504         127.42442     0.00028317869         103.98689      0.0034212888         104.59433
                   0.0050798555         128.11515     0.00026002098         109.32253        0.05080101         139.23846     0.00021421773         101.79547
                  0.00014530295          106.9745      0.0044203801         109.17835     0.00021015859          103.1922       0.051401803         128.49384

0.45       0.04723569        -123.78514     0.00022632968         46.469836       0.031121669        -138.13726     0.00017074129         31.774713
                  0.00022273899         46.081615       0.043441912        -128.16772      0.0002877395         35.291307       0.027107518        -146.02371
                    0.030934153        -139.31256     0.00026144948         39.280619       0.050989446        -127.51892     0.00021961352         33.051323
                  0.00014381169         33.978016       0.026886662        -147.66844     0.00021392563         34.278987       0.044630762        -132.23591

0.475      0.077553829        -173.75076     0.00022784192         -12.11508       0.021509703         154.76534     0.00017118517        -27.986881
                  0.00022435889        -12.291911       0.072330786          179.1488     0.00028944864        -24.789005       0.017873311         142.32162
                    0.022069145         152.78956     0.00026158656        -19.576786       0.075730776        -176.02698     0.00022331887        -26.881155
                  0.00014097527          -22.7909       0.018502694         139.74397     0.00021769666        -25.409857       0.071805558         176.34843

0.5      0.030243978         154.95337     0.00026261525        -77.004509       0.023618267        -79.047081      0.0001965565        -93.125643
                  0.00025937569        -77.129661       0.026639502         149.17725     0.00032522092        -88.630803       0.025168803        -86.207147
                    0.022713873         -77.01724       0.000301096        -83.060943       0.025229681         162.06961     0.00025303786        -91.423642
                   0.0001706442        -86.692727       0.024263659        -84.082261     0.00024766121         -90.16288       0.024118981         148.70043

0.525      0.060586108        -142.54751     0.00025564782        -146.18228       0.068536256        -145.98504      0.0001892893        -162.99444
                  0.00025228737        -146.31048        0.06237607        -150.64457     0.00032242234        -156.47617       0.068988822        -155.18415
                    0.067371886         -145.6293     0.00030082273        -151.68544       0.066477768        -142.76558     0.00024749302        -159.63635
                  0.00016625461        -157.91239       0.067751933        -154.81058     0.00024135642         -158.5664       0.063658475        -150.73821

0.55      0.083135862         171.59202     0.00024768671         157.16626       0.065494253         154.44839     0.00018120539         140.88558
                  0.00024405788         157.24068       0.082365188         162.65606     0.00031377642         146.24821       0.065525765         144.54577
                    0.064398679         154.40665     0.00029122908         151.27141       0.081406079          170.8796     0.00024267829         143.70536
                  0.00015623388         146.95783       0.064331594         144.49541     0.00023648169         144.98175       0.081682656         159.83883

0.575      0.039632542        -176.01571     0.00029373921         92.195565       0.014405714        -157.15681     0.00022240789         75.167352
                  0.00029089649          92.42057        0.03811167        -179.90223     0.00036439282         81.377495       0.015633782        -159.84667
                    0.014341855        -153.38702     0.00034022824         86.924799       0.039309975        -170.09967     0.00028659204         77.991017
                  0.00019627835         82.706829        0.01574458        -156.05484     0.00028102214         79.168773       0.038034769         178.54942

0.6       0.13233184        -152.14476     0.00028252609         17.414598        0.09974201        -163.01522     0.00021086266        -3.5474622
                  0.00028049153         17.534786        0.13982601        -161.95565     0.00035410999         7.5810919        0.10544933        -173.55516
                    0.099862787        -162.56315     0.00033449086         13.198058        0.14190091        -151.61177     0.00027165283         2.5728935
                  0.00019061446         4.0407195        0.10562383        -173.10649     0.00026644561         3.4198832        0.14411319        -162.21086

0.625       0.19151301          155.0969     0.00022384996        -36.668944        0.13700242         140.86365     0.00014668171        -55.811533
                  0.00022172395        -36.563406        0.19773182         144.27148     0.00028217882        -47.656954        0.14170852         130.31431
                     0.13652398          141.1602     0.00027049921        -42.491622        0.19392561         154.35969     0.00020837354        -49.535922
                  0.00013641663        -48.842992           0.14124         130.62628     0.00020372624        -48.651983        0.19823018         143.42868

0.65       0.12294231         102.49668     0.00029252369        -86.177669       0.090301761         88.834577     0.00021225234        -98.714373
                   0.0002898622        -85.835557        0.12040623          91.67358     0.00035987751        -96.628998       0.088593354         78.795586
                    0.089279478         89.290829     0.00034063138        -92.334249          0.114525         101.76613     0.00028730398        -97.658089
                  0.00019225751        -93.204074       0.087572611         79.349046      0.0002822931        -96.782327        0.11570717         90.723381

0.675      0.082673034        -174.94115     0.00033309801        -166.65872       0.058440787         158.78195     0.00026190822         173.84752
                  0.00033099764         -166.1895       0.096995519         175.86455     0.00042115754         -176.6382       0.069152918         152.19506
                    0.059419787          159.2086     0.00038947561        -171.33988       0.095363269         -170.3375      0.0003365317          178.3356
                  0.00022733733        -179.07165       0.070243074         152.42552     0.00033063549         178.96983        0.10392332         178.25556

0.7       0.24476623         143.21991     0.00022874093         127.17763        0.15467454         125.34292      0.0001559483         97.284409
                  0.00022799683         127.64995        0.25748499         131.43396     0.00029097636         113.42012         0.1640266         114.31421
                      0.1557211         125.37028     0.00027141213         122.30241          0.252572         142.33582     0.00021138912         107.19133
                  0.00013390884         111.90712        0.16508465         114.30622     0.00020729707         107.79731        0.26198984         130.48238

0.725       0.26063973         90.790641     0.00024794278         93.508878        0.15364909         76.020533     0.00014179811         82.291575
                  0.00024758305          93.82763        0.26172881         79.383455      0.0002792504         81.530429         0.1534773         65.484442
                     0.15409639         76.141018     0.00028690637         88.427966        0.25797493          89.67363     0.00020822125         83.549574
                  0.00015363828         91.884735        0.15396159         65.600753     0.00020515751         84.056393        0.26100493         78.281878

0.75       0.11615904         41.575724     0.00039711897         24.625694       0.059431223         31.932011     0.00028872073           14.1951
                  0.00039542754         24.925215       0.097949458         34.037851     0.00046455393         17.157021       0.044494104         27.505773
                    0.059416286         32.743595     0.00045813797          20.89016        0.10456328         41.725056     0.00037759148         16.117534
                  0.00028024308         18.375483       0.044730375         28.637461      0.0003712929          16.25167       0.092944829          34.07706

0.775       0.12934892          122.0393      0.0003309348         -58.00777       0.098967672         110.73076     0.00024866508        -78.194994
