! Created Thu Mar  2 08:51:44 2023
# ghz S ma R 45
! 4 Port Network Data from SP1.SP block
! freq  magS11  angS11  magS12  angS12  magS13  angS13  magS14  angS14  
!       magS21  angS21  magS22  angS22  magS23  angS23  magS24  angS24  
!       magS31  angS31  magS32  angS32  magS33  angS33  magS34  angS34  
!       magS41  angS41  magS42  angS42  magS43  angS43  magS44  angS44  
!     
0      0.065955338    -3.1763921e-13          0.931617     1.2034513e-13      0.0040171775    -4.2586408e-12      0.0054735279               180
                     0.93161711     1.2034715e-13       0.067182812    -3.0975831e-13      0.0054982129               180      0.0041630893    -4.1086445e-12
                   0.0048639116     1.3050328e-11      0.0048916054              -180       0.066528139    -3.1732169e-14         0.9317772     4.0627612e-14
                    0.004867158              -180      0.0050101124      1.266158e-11        0.93177709     4.0627557e-14       0.065686561    -3.2655445e-14

0.025       0.14370635         5.2071934        0.91955364        -62.818315       0.083000763         24.875995       0.016907275         155.05797
                     0.91955363        -62.818317        0.14370468         5.2073709       0.016908084         155.06307       0.082999861         24.872483
                    0.083433709         24.410405       0.016382032         156.21539        0.14418586         5.4268744        0.91981257        -62.896393
                    0.016381561          156.2114       0.083432849         24.406654        0.91981258        -62.896392        0.14419042         5.4192928

0.05       0.13267421        -40.240071        0.91939624        -124.76686        0.07347469        -32.016098       0.013910281         100.92856
                     0.91939624        -124.76686        0.13267422        -40.240057       0.013910262         100.92842       0.073474697        -32.016043
                     0.07416977        -32.448455       0.013357795         102.65616        0.13357022         -40.35852        0.91976681        -124.90815
                    0.013357817         102.65631       0.074168825        -32.448312         0.9197668        -124.90815        0.13357076        -40.357998

0.075      0.049349892        -4.1564049        0.91964426         172.09346       0.037918958         37.807782       0.029994038         72.326398
                     0.91964426         172.09346       0.049349724         -4.156416       0.029994103           72.3263       0.037918753         37.808003
                    0.037431673         37.137138       0.029746415         73.741272       0.049602813        -4.3353296        0.92026671         171.87121
                    0.029746352         73.741375       0.037431493         37.137389         0.9202667         171.87121       0.049606967         -4.337399

0.1       0.16524619          7.795777        0.89555463         109.58658        0.13797009         14.646699        0.04709607        -12.851009
                     0.89555463         109.58658        0.16524602         7.7957024       0.047096451        -12.851287           0.13797          14.64684
                     0.13728643         14.483373       0.046565071        -12.092181         0.1659089         8.0845405        0.89600969         109.27227
                    0.046564696        -12.091895        0.13728634         14.483515        0.89600969         109.27227        0.16590894         8.0829397

0.125       0.18215948        -42.611181         0.8913725         48.709739        0.13655494         -41.46181       0.035515592        -88.354355
                     0.89137236         48.709728        0.18220033        -42.603408       0.035517399        -88.308591        0.13626542        -41.556597
                     0.13603863        -41.784004       0.034819909        -87.387407        0.18309075         -42.57688        0.89154998         48.335946
                    0.034817653        -87.434019        0.13575042        -41.879847        0.89155014         48.335955        0.18312197        -42.562314

0.15      0.059057258        -75.833919        0.90742821        -13.817704       0.028633404        -84.233636       0.036138459        -113.04561
                     0.90742807          -13.8177       0.059101313        -75.863649       0.036176468        -112.97915       0.028579654        -84.210264
                     0.02804091        -85.956877       0.036067822        -111.46661       0.058949631        -75.980815        0.90777082         -14.25598
                    0.036028725        -111.53167       0.027986822        -85.936447          0.907771        -14.255986       0.058984678        -75.966776

0.175       0.14337283        -2.6563687        0.88677786        -77.211619         0.1189062         3.1254763       0.064623441         173.82524
                     0.88677786        -77.211616        0.14336382        -2.6633523       0.064671388         173.88478        0.11882493         3.1634124
                     0.11873971         3.5870748       0.064493321         174.69189        0.14470271        -2.5321898         0.8870161        -77.741074
                    0.064444429         174.63279          0.118659         3.6255378        0.88701613        -77.741082        0.14470463        -2.5381521

0.2        0.2269184        -50.929762        0.86292664        -138.08538        0.17383041        -52.111012       0.062445242         90.022552
                     0.86292667        -138.08538        0.22693969        -50.938986       0.062469154         90.116133         0.1737893        -52.085155
                     0.17337105         -51.97062       0.061986121         90.816159        0.22856852        -50.951289        0.86274592        -138.68485
                    0.061960957         90.722109        0.17333013        -51.944656        0.86274594        -138.68485        0.22858309        -50.945241

0.225       0.16428636        -99.912437          0.877306         161.11229        0.11865306        -107.44299       0.039965503         34.581806
                     0.87730603         161.11228        0.16431734        -99.924969        0.04000808         34.765169        0.11864498        -107.42769
                     0.11780075        -107.44257       0.039653551         36.083803        0.16466053        -99.761247        0.87701492         160.45821
                    0.039608015         35.900229        0.11779269        -107.42715        0.87701493          160.4582        0.16470498        -99.740586

0.25      0.040351512         -56.73592        0.89055085         97.933321       0.015652398        -40.533252       0.054747525          1.561432
                     0.89055088         97.933315       0.040340808        -56.762576       0.054878958         1.6759366        0.01565371        -40.528481
                    0.016156141        -36.546853       0.055151189          2.644881       0.042599743        -55.096934        0.89021903         97.206888
                    0.055017885         2.5333031         0.0161575        -36.542621        0.89021904         97.206882       0.042629444        -55.165783

0.275       0.17713091        -60.775666        0.86724442         35.197959        0.11433388        -64.038681       0.073275394        -73.533661
                     0.86724443         35.197953        0.17714253        -60.785299       0.073395495        -73.413033         0.1143368        -64.036249
                     0.11526877        -63.661624       0.073517029        -72.764853        0.18044002        -61.279796        0.86663942         34.408053
                    0.073395177         -72.88418         0.1152717        -63.659198        0.86663943         34.408046        0.18044762        -61.269974

0.3       0.21218862        -111.34066        0.85448224        -25.647478        0.12748812        -120.32157       0.064393009        -144.80883
                     0.85448226        -25.647484        0.21222051        -111.35217       0.064494468        -144.62525        0.12749122        -120.32278
                     0.12801752        -120.03368        0.06443361          -143.934        0.21385322        -111.64103        0.85389052        -26.486661
                    0.064329672        -144.11663        0.12802064        -120.03488        0.85389054        -26.486668        0.21391253        -111.61497

0.325       0.12077773        -161.02971        0.86746777        -87.086668       0.065249286        -176.96443       0.056893649         168.02386
                      0.8674678        -87.086676        0.12080804        -161.04398       0.057077125          168.2411       0.065248878        -176.96995
                    0.065142116        -176.45832       0.057235116         169.06611        0.11955109        -160.36569        0.86698995        -88.001703
                     0.05704856         168.85217         0.0651417        -176.46386        0.86698998        -88.001712        0.11962044        -160.32836

0.35      0.042839022        -86.551826        0.87289921        -149.96252       0.020623509        -81.000988       0.072662757         115.41412
                     0.87289922        -149.96253       0.042839668        -86.576132       0.072924887         115.58374       0.020626925         -80.99179
                    0.021572979        -81.406949       0.073309858         116.17626       0.047881686        -87.337675        0.87201516        -150.95084
                    0.073045553         116.00968       0.021576346        -81.397952        0.87201517        -150.95085       0.047895244        -87.323808

0.375       0.14112126        -118.79821         0.8590052         147.66924        0.06340662        -133.55359       0.082059254         48.490223
                      0.8590052         147.66923        0.14115043        -118.81483       0.082343504         48.689831       0.063412803        -133.55982
                    0.064699167        -133.64801       0.082673015         49.159539        0.14413923        -120.18429        0.85801258         146.65141
                    0.082386485         48.962341       0.064705407        -133.65406        0.85801258          146.6514        0.14421553        -120.14211

0.4       0.14213047        -173.15585        0.85237153         86.187402       0.051204209          165.7954       0.081457587        -12.719497
                     0.85237156         86.187389        0.14217539        -173.17044       0.081805298        -12.467519       0.051206955         165.78236
                    0.052481105         165.91684       0.082073118         -12.01392        0.14105997        -173.86151        0.85196941         85.111408
                    0.081722599        -12.263182       0.052483897         165.90411        0.85196944         85.111394        0.14113616        -173.81737

0.425      0.054442804         136.43273        0.85626969         24.240214      0.0041381903         128.60027       0.089123131        -69.628583
                     0.85626974         24.240196       0.054471933         136.43787       0.089604061        -69.353572      0.0041323514          128.5568
                   0.0050798555         128.11515       0.089932974        -68.915227        0.05080101         139.23846        0.85586004           23.0593
                    0.089448749          -69.1869      0.0050740531         128.07853        0.85586009         23.059281       0.050788606         139.26305

0.45       0.04723569        -123.78514        0.85368382        -38.205197       0.031121669        -138.13726         0.1001857        -131.52283
                     0.85368388        -38.205224       0.047273211        -123.84703        0.10082585        -131.18832        0.03112963        -138.15301
                    0.030934153        -139.31256        0.10123075        -130.79139       0.050989446        -127.51892        0.85273559        -39.442773
                     0.10058652        -131.12205       0.030942326          -139.328        0.85273565        -39.442801       0.051056784        -127.39108

0.475      0.077553829        -173.75076        0.84681437        -100.29814       0.021509703         154.76534        0.10590239         166.29267
                     0.84681444        -100.29818       0.077634416        -173.78406         0.1068177         166.77231       0.021513427         154.72082
                    0.022069145         152.78956        0.10725777         167.13036       0.075730776        -176.02698        0.84621837        -101.57529
                     0.10633686         166.65576       0.022073517         152.74654        0.84621843        -101.57533       0.075787212        -175.93842

0.5      0.030243978         154.95337        0.84323533        -162.40063       0.023618267        -79.047081        0.11521058         105.50488
                     0.84323548        -162.40071       0.030347793         155.05282        0.11677715         106.29018       0.023629744        -79.026797
                    0.022713873         -77.01724        0.11726051         106.61822       0.025229681         162.06961        0.84289155        -163.77822
                     0.11568476         105.84061       0.022725607         -76.99702        0.84289171        -163.77829        0.02516839         162.02006

0.525      0.060586108        -142.54751        0.83540954         135.37172       0.068536256        -145.98504        0.12504048         41.472166
                     0.83541026          135.3715       0.061112883        -142.87576        0.12839197         43.741183       0.068559254        -145.99896
                    0.067371886         -145.6293        0.12896032         44.047347       0.066477768        -142.76558        0.83455042         133.92708
                     0.12558152           41.7965        0.06739481        -145.64353        0.83455121         133.92687       0.066034934        -142.40098

0.55      0.083135862         171.59202        0.83046864          73.53662       0.065494253         154.44839        0.12813642        -21.152624
                     0.83047432         73.536925       0.082976542         172.52607        0.11522228         -21.23523        0.06554183         154.42774
                    0.064398679         154.40665        0.11586823        -20.902679       0.081406079          170.8796        0.82997276         72.056024
                     0.12878336        -20.853491       0.064446336         154.38566         0.8299783         72.056341       0.081726026         169.99474

0.575      0.039632542        -176.01571        0.82744378         11.147239       0.014405714        -157.15681        0.14026938         -81.58823
                     0.82744582         11.147384       0.039525667         -175.6214         0.1351777        -82.120744       0.014382925         -157.1503
                    0.014341855        -153.38702        0.13592036        -81.881886       0.039309975        -170.09967        0.82695641         9.5469547
                     0.14101738        -81.360683       0.014319142        -153.37447        0.82695839         9.5471053       0.039449406        -170.52411

0.6       0.13233184        -152.14476        0.80886629        -51.411504        0.09974201        -163.01522        0.15597188        -149.69226
                     0.80886877        -51.411472         0.1325687        -151.89379        0.15155734        -149.38099       0.099758651        -163.00107
                    0.099862787        -162.56315        0.15229314        -149.17605        0.14190091        -151.61177        0.80719579        -53.087181
                     0.15670493        -149.49158       0.099879644        -162.54905        0.80719825        -53.087143        0.14173818        -151.81627

0.625       0.19151301          155.0969        0.79140657        -112.16652        0.13700242         140.86365        0.14312616         142.91921
                     0.79140731        -112.16659        0.19191941         155.12971        0.14213159         143.68799        0.13702174         140.85546
                     0.13652398          141.1602        0.14289222         143.91077        0.19392561         154.35969        0.79020105        -113.80072
                     0.14387938          143.1445        0.13654326         141.15194        0.79020183        -113.80079        0.19360446         154.36934

0.65       0.12294231         102.49668         0.8036587        -173.24223       0.090301761         88.834577        0.13442696         88.166792
                      0.8036587        -173.24226        0.12303949         102.49349         0.1344346         88.495022       0.090300718         88.823519
                    0.089279478         89.290829        0.13539424         88.631304          0.114525         101.76613        0.80400116        -175.00942
                     0.13538479         88.305432       0.089278313           89.2796         0.8040012        -175.00945        0.11445441         101.81253

0.675      0.082673034        -174.94115        0.80066925         122.97096       0.058440787         158.78195        0.16410018         27.522322
                     0.80066918         122.97095        0.08270567        -174.95212         0.1641538         27.629808       0.058448979         158.79314
                    0.059419787          159.2086        0.16507518         27.633524       0.095363269         -170.3375        0.79936022         121.02231
                     0.16502161         27.526651       0.059428078         159.21964        0.79936017         121.02229       0.095367766        -170.26957

0.7       0.24476623         143.21991        0.75832559         61.298009        0.15467454         125.34292        0.16869419        -45.556113
                     0.75832555         61.298006        0.24480313         143.21522         0.1686823        -45.511625        0.15469805         125.33916
                      0.1557211         125.37028        0.16938927        -45.502484          0.252572         142.33582        0.75574349          59.46035
                     0.16940125        -45.546789        0.15574469         125.36654        0.75574346         59.460345        0.25257758         142.38344

0.725       0.26063973         90.790641        0.75442071         2.5296389        0.15364909         76.020533        0.13777403        -109.15249
                     0.75442069         2.5296373        0.26065698         90.788758        0.13775882        -109.12517        0.15366139         76.013898
                     0.15409639         76.141018        0.13840586        -109.08166        0.25797493          89.67363        0.75424406        0.69356855
                      0.1384211        -109.10886        0.15410869         76.134376        0.75424404        0.69356669        0.25795792         89.704255

0.75       0.11615904         41.575724        0.78933832        -59.049628       0.059431223         31.932011        0.13562253        -156.21248
                     0.78933829        -59.049628        0.11615906         41.577696        0.13562692        -156.20299       0.059424406         31.926054
                    0.059416286         32.743595        0.13636965        -156.27717        0.10456328         41.725056         0.7898157        -61.134514
                      0.1363654        -156.28662       0.059409314         32.737693        0.78981569        -61.134515        0.10449242         41.691829

0.775       0.12934892          122.0393        0.77639687        -123.19381       0.098967672         110.73076        0.16852094         138.85699
