! Created Thu Mar  2 09:00:19 2023
# ghz S ma R 45
! 4 Port Network Data from SP1.SP block
! freq  magS11  angS11  magS12  angS12  magS13  angS13  magS14  angS14  
!       magS21  angS21  magS22  angS22  magS23  angS23  magS24  angS24  
!       magS31  angS31  magS32  angS32  magS33  angS33  magS34  angS34  
!       magS41  angS41  magS42  angS42  magS43  angS43  magS44  angS44  
!     
0      0.065955338    -3.1763921e-13     6.3449313e-08    -2.1377533e-12      0.0040171775    -4.2586408e-12     2.1932702e-07     1.3373978e-13
                  6.4952821e-08     1.4107475e-11       0.068316939     8.0449848e-13     1.4492359e-05              -180      0.0040865394    -1.8475052e-12
                   0.0048639116     1.3050328e-11     1.4491186e-05              -180       0.066528139    -3.1732169e-14      3.083759e-07     1.7193543e-13
                  2.2015005e-07     2.5629664e-14      0.0052070773     8.8246262e-12     3.1097071e-07      1.268706e-12       0.065952289    -5.5664576e-13

0.025       0.14370635         5.2071934     1.2304241e-05         26.512759       0.083000763         24.875995     8.3605806e-06         14.526869
                  1.2342234e-05         26.432357        0.14420306         5.0056071     2.5162934e-05         62.666624        0.08326587         24.851742
                    0.083433709         24.410405     2.5162087e-05         62.676995        0.14418586         5.4268744     1.3683968e-05         25.156732
                  8.3593948e-06         14.577732       0.083773957          24.25816     1.3726325e-05         25.053173        0.14443613         5.3347237

0.05       0.13267421        -40.240071     2.4015845e-05        -43.117571        0.07347469        -32.016098     1.6834716e-05        -34.852459
                   2.407383e-05        -43.299306        0.13202956        -40.320277     3.1856457e-05        -27.446623       0.072902735        -32.087397
                     0.07416977        -32.448455     3.1855782e-05        -27.406829        0.13357022         -40.35852     2.6757567e-05        -42.556633
                  1.6845327e-05        -34.789856       0.073739352        -32.609697      2.681553e-05        -42.754323        0.13286086        -40.458509

0.075      0.049349892        -4.1564049     3.4792348e-05        -98.063897       0.037918958         37.807782     3.0381331e-05        -107.35886
                   3.479177e-05        -98.222945       0.050089555        -1.7123294     4.4372168e-05        -66.607113       0.039479457         39.425733
                    0.037431673         37.137138     4.4405795e-05        -66.585535       0.049602813        -4.3353296       3.93433e-05        -98.453381
                  3.0395205e-05         -107.2964       0.038887583         38.655009       3.93386e-05        -98.614393       0.050155777        -2.5834135

0.1       0.16524619          7.795777     5.6689151e-05        -162.93684        0.13797009         14.646699      3.432752e-05          171.3412
                  5.6625363e-05        -163.04221        0.16744131         7.5271297     9.6105981e-05         -136.5851        0.13976818         14.370835
                     0.13728643         14.483373     9.6159704e-05         -136.5761         0.1659089         8.0845405     6.2399247e-05        -163.85469
                  3.4351094e-05         171.50877        0.13892684         14.159561     6.2320679e-05        -163.97998        0.16764265         7.8200519

0.125       0.18215948        -42.611181     6.5497054e-05          120.5728        0.13655494         -41.46181     2.9424549e-05         128.17722
                  6.5388482e-05          120.4461        0.18189121        -42.920925     0.00010923929         133.55823        0.13596648         -41.84169
                     0.13603863        -41.784004     0.00010930078          133.5868        0.18309075         -42.57688     7.1294765e-05         121.48458
                  2.9546867e-05         128.32192        0.13534105        -42.241679     7.1145311e-05         121.33469        0.18277439        -42.849048

0.15      0.059057258        -75.833919     6.1958006e-05         64.512782       0.028633404        -84.233636     5.4109888e-05         73.198833
                  6.1688056e-05         64.509609       0.055737467        -73.886606     7.6792091e-05         82.623211       0.025493512        -81.356361
                     0.02804091        -85.956877     7.6926834e-05         82.638991       0.058949631        -75.980815     7.0313761e-05         66.181618
                  5.4279302e-05         73.249334        0.02475151        -83.623592     6.9967573e-05         66.183563       0.056352667        -74.377878

0.175       0.14337283        -2.6563687     9.7233749e-05         4.2791008         0.1189062         3.1254763     6.4977516e-05        -16.256487
                  9.7052534e-05          4.422736        0.14801826        -2.9693524     0.00016207852         31.476679        0.12250465         2.6763104
                     0.11873971         3.5870748     0.00016221312         31.445138        0.14470271        -2.5321898     0.00010786305         4.0270679
                  6.5239971e-05        -16.160377        0.12225432         3.2032079     0.00010762717         4.1773682        0.14817384        -2.9477132

0.2        0.2269184        -50.929762     0.00011062914        -77.096669        0.17383041        -52.111012     3.6579672e-05        -85.570413
                  0.00011051973        -77.017255        0.22807765        -51.442057     0.00020995446        -58.994219        0.17444737        -52.564873
                     0.17337105         -51.97062     0.00021008041        -59.001098        0.22856852        -50.951289     0.00011915665        -76.025232
                  3.6863978e-05        -85.524973        0.17384199        -52.398669     0.00011900282        -75.941448        0.22923254        -51.449794

0.225       0.16428636        -99.912437      8.699903e-05        -145.83794        0.11865306        -107.44299     5.0165593e-05        -101.61244
                  8.6764559e-05        -145.69614        0.16028424        -100.21108      0.0001478969        -139.48695        0.11515797        -107.91467
                     0.11780075        -107.44257     0.00014808397         -139.4758        0.16466053        -99.761247     9.4849319e-05        -141.61501
                  5.0340151e-05        -101.84605         0.1141192        -107.90155     9.4579027e-05        -141.45395        0.16167447        -100.10054

0.25      0.040351512         -56.73592     0.00010349111         173.19552       0.015652398        -40.533252     8.6991304e-05         178.56254
                  0.00010368024         173.51385       0.044643884        -49.007698     0.00015552638        -163.29295        0.02036876        -29.656775
                    0.016156141        -36.546853     0.00015565666         -163.3803       0.042599743        -55.096934      0.0001188382         174.90116
                  8.7312105e-05         178.40924       0.021192178         -26.56339     0.00011904498           175.207       0.045734626        -50.310455

0.275       0.17713091        -60.775666     0.00014255613         92.676727        0.11433388        -64.038681     6.8594925e-05         90.369547
                  0.00014306244         92.849878        0.18106518        -61.467012     0.00027154704          115.3279        0.11676471        -64.656611
                     0.11526877        -63.661624     0.00027159521         115.27864        0.18044002        -61.279796     0.00015569663         94.045548
                  6.8922211e-05         90.067837        0.11777997        -64.231205     0.00015622943         94.217454         0.1825431        -62.023956

0.3       0.21218862        -111.34066     0.00011321897         12.468974        0.12748812        -120.32157     4.2643743e-05         64.462394
                  0.00011368508         12.550963        0.20945459        -111.99342     0.00024640031           23.7396        0.12455398        -121.01619
                     0.12801752        -120.03368     0.00024645512          23.70978        0.21385322        -111.64103      0.0001201742         17.069663
                  4.2486325e-05         64.034773         0.1250838        -120.65656     0.00012068019         17.147379        0.21131701        -112.32826

0.325       0.12077773        -161.02971     8.4416111e-05        -25.936013       0.065249286        -176.96443     9.0001205e-05         12.893172
                   8.476216e-05        -25.931008        0.11237547        -160.67885     0.00011935986        -30.302612       0.058136567        -177.61199
                    0.065142116        -176.45832     0.00011944716        -30.359602        0.11955109        -160.36569     0.00010021432        -19.349028
                  8.9867698e-05         12.775439       0.057976032        -176.87809     0.00010062422         -19.38451        0.11363431        -160.36036

0.35      0.042839022        -86.551826     0.00014511222        -85.030622       0.020623509        -81.000988     0.00010936489        -72.191252
                  0.00014578901        -85.071942       0.050070537        -83.427714     0.00022556872        -61.522515       0.025896005        -77.985066
                    0.021572979        -81.406949     0.00022546842        -61.580308       0.047881686        -87.337675     0.00016549024        -83.272126
                  0.00010929941        -72.386317       0.026961923        -78.680145     0.00016617575        -83.346734       0.052049754        -86.037225

0.375       0.14112126        -118.79821     0.00014672728        -169.22601        0.06340662        -133.55359     7.8373888e-05        -137.18528
                  0.00014752082        -169.42011        0.14089437        -119.58263     0.00027899386        -151.07115        0.06182064         -134.2315
                    0.064699167        -133.64801     0.00027879929        -151.10631        0.14413923        -120.18429     0.00015842836        -165.49747
                  7.7975913e-05        -137.39329       0.063216662         -134.3825     0.00015916589        -165.72301         0.1425685        -121.03033

0.4       0.14213047        -173.15585     0.00011138392         135.60618       0.051204209          165.7954      9.557923e-05        -176.69955
                  0.00011145055         135.14457        0.13351029        -173.37697     0.00016802659         131.30289       0.043459719         164.11319
                    0.052481105         165.91684     0.00016781739         131.30377        0.14105997        -173.86151     0.00012633033         143.16121
                   9.525515e-05        -176.53542       0.044818029         164.31583     0.00012625014         142.72782        0.13428037        -174.33773

0.425      0.054442804         136.43273     0.00018199806          85.47635      0.0041381903         128.60027     0.00013020807         109.28894
                  0.00018153602          85.35178       0.044105561         140.54872     0.00016948013         114.69511      0.0046366711         -86.97921
                   0.0050798555         128.11515     0.00016953017         114.73427        0.05080101         139.23846     0.00020752056         87.900851
                  0.00013018772         109.40423       0.003853694         -96.35906     0.00020697612         87.768433       0.044260866         141.90404

0.45       0.04723569        -123.78514     0.00026405439         12.477223       0.031121669        -138.13726     0.00012007963         32.566993
                  0.00026382474         12.408525       0.051128409        -124.27639     0.00027550708         39.663915       0.032585066        -138.01748
                    0.030934153        -139.31256     0.00027556811         39.667095       0.050989446        -127.51892     0.00028551587         13.755057
                  0.00012011826         32.607141        0.03233126        -139.38284     0.00028512879         13.677896       0.051972604        -128.00687

0.475      0.077553829        -173.75076     0.00028155066        -35.795489       0.021509703         154.76534     0.00012765833          -25.5756
                  0.00028097523        -35.855851       0.070604842         -172.0693     0.00025008409        -34.703923       0.014023541         152.81232
                    0.022069145         152.78956     0.00025020435         -34.67356       0.075730776        -176.02698     0.00030847103        -33.750747
                  0.00012776478        -25.470722       0.014589171          149.3429     0.00030775435        -33.788019       0.069430615        -174.95621

0.5      0.030243978         154.95337     0.00032418162        -83.139146       0.023618267        -79.047081     0.00017195845        -93.775563
                  0.00032344639        -83.060722       0.024307017        -179.13353      0.0002818171        -83.496898       0.034618834        -81.630081
                    0.022713873         -77.01724     0.00028222778        -83.461097       0.025229681         162.06961     0.00036139171        -83.297556
                  0.00017244475         -93.63047       0.033685834        -80.154691     0.00036062282        -83.214332       0.022187477        -176.67301

0.525      0.060586108        -142.54751     0.00030239308         -155.7565       0.068536256        -145.98504     0.00015284924        -165.68225
                  0.00030204343        -155.60516        0.06894033        -142.83292     0.00035903381        -155.82366       0.073447756        -146.99952
                    0.067371886         -145.6293      0.0003596132         -155.8081       0.066477768        -142.76558     0.00033199278        -156.17264
                  0.00015365968         -165.5869        0.07221837        -146.63064     0.00033159424        -156.02726       0.070163157        -143.52445

0.55      0.083135862         171.59202     0.00022565335         144.49471       0.065494253         154.44839     0.00013700405         149.16216
                  0.00022584592         144.69456       0.078553532          171.9429      0.0002990444         136.92053       0.060456123         153.09454
                    0.064398679         154.40665     0.00029968383         136.91059       0.081406079          170.8796     0.00025378082         146.38602
                  0.00013780524         149.03027       0.059246703         153.07003     0.00025397954         146.57961       0.076603512         169.92533

0.575      0.039632542        -176.01571      0.0002837296         87.467019       0.014405714        -157.15681     0.00019293658         80.228822
                  0.00028439257         87.548082       0.043275279        -156.17238     0.00037490979          85.60102       0.022856603        -129.20092
                    0.014341855        -153.38702     0.00037541259         85.534921       0.039309975        -170.09967     0.00032372141         87.704762
                  0.00019368719         80.035966        0.02336838        -126.94036     0.00032440596         87.778987        0.04294577        -156.97894

0.6       0.13233184        -152.14476     0.00030799948         1.0188178        0.09974201        -163.01522     0.00016587042        -8.7919492
                  0.00030851604         1.0783155        0.14560395        -153.40223     0.00051157277         5.6158594        0.10828726        -163.86345
                    0.099862787        -162.56315      0.0005120182         5.5759347        0.14190091        -151.61177     0.00034266108         1.3597199
                  0.00016658638        -9.0003845        0.10848257        -163.43367     0.00034317541         1.4118091        0.14954093        -153.51058

0.625       0.19151301          155.0969     0.00017081951        -73.110413        0.13700242         140.86365     7.6566981e-05        -42.731078
                  0.00017120546         -72.97132        0.19186136         153.69368     0.00037162831        -82.123178        0.13519598         139.60475
                     0.13652398          141.1602     0.00037217353        -82.139555        0.19392561         154.35969     0.00019140973         -68.36121
                  7.6718532e-05        -43.258856        0.13473061         139.93979     0.00019184122        -68.253838        0.19210178          152.8593

0.65       0.12294231         102.49668     0.00018344006        -87.195387       0.090301761         88.834577     0.00017686315        -80.183463
                  0.00018445276        -87.303766        0.10837303         102.44121     0.00020943912        -104.00813       0.078015465         87.706446
                    0.089279478         89.290829      0.0002098014        -104.22174          0.114525         101.76613     0.00022749356        -87.791852
                  0.00017666702        -80.511639        0.07700488         88.359445     0.00022841335        -87.900697         0.1034605         101.60468

0.675      0.082673034        -174.94115      0.0003075331        -178.74211       0.058440787         158.78195      0.0002047548        -179.82911
                  0.00030829734        -178.88285        0.10032026        -173.55962     0.00050347443         -174.6477       0.068936857         163.83995
                    0.059419787          159.2086     0.00050335615        -174.73796       0.095363269         -170.3375     0.00035334853        -179.46826
                  0.00020436514         179.84244       0.070032239         164.01888     0.00035394554        -179.59115        0.10719035        -171.44612

0.7       0.24476623         143.21991      0.0001887169         83.269197        0.15467454         125.34292     7.3290462e-05         109.00336
                  0.00018919996         83.023576        0.24954215         141.51297     0.00047469926         82.705949        0.15544238         124.20137
                      0.1557211         125.37028      0.0004746264         82.639415          0.252572         142.33582     0.00020642517         87.567543
                  7.2390044e-05         108.67298        0.15650498         124.19022     0.00020670313         87.340771        0.25372858          140.5312

0.725       0.26063973         90.790641     7.7526146e-05         103.26791        0.15364909         76.020533     0.00014170021         114.50417
                  7.7168792e-05         103.13493        0.25013023         89.030681     0.00015645646        -10.523874        0.14398195         74.250099
                     0.15409639         76.141018     0.00015666354        -10.599999        0.25797493          89.67363      0.0001133776         99.712728
                  0.00014149151         114.61823        0.14447593         74.378852     0.00011299096         99.625155        0.24924347          87.91375

0.75       0.11615904         41.575724     0.00029532945         33.836032       0.059431223         31.932011     0.00026587383         28.601681
                  0.00029508293         33.700814       0.094425082         42.666274     0.00029981821         37.368191       0.042363329         33.824929
                    0.059416286         32.743595     0.00029925998         37.308545        0.10456328         41.725056     0.00034608481         29.975817
                  0.00026524858         28.549173       0.042564269         35.021842     0.00034565621         29.878719       0.089567704         42.651352

0.775       0.12934892          122.0393      0.0002643815        -72.366272       0.098967672         110.73076     0.00018384206         -62.73627
