! Created Thu Mar  2 09:07:40 2023
# ghz S ma R 45
! 4 Port Network Data from SP1.SP block
! freq  magS11  angS11  magS12  angS12  magS13  angS13  magS14  angS14  
!       magS21  angS21  magS22  angS22  magS23  angS23  magS24  angS24  
!       magS31  angS31  magS32  angS32  magS33  angS33  magS34  angS34  
!       magS41  angS41  magS42  angS42  magS43  angS43  magS44  angS44  
!     
0      0.065955338    -3.1763921e-13     2.6162671e-06              -180      0.0040171775    -4.2586408e-12     3.4499519e-07     1.1836493e-14
                  2.6222481e-06              -180       0.067393821    -3.0728049e-13     1.5374608e-06              -180      0.0041385631    -4.1356069e-12
                   0.0048639116     1.3050328e-11     1.5576799e-06               180       0.066528139    -3.1732169e-14     3.4833955e-07              -180
                  3.6184955e-07     6.1040946e-13      0.0049002664     1.2950767e-11     3.4900333e-07               180       0.064808777    -3.3924221e-14

0.025       0.14370635         5.2071934     3.8102323e-06         78.480655       0.083000763         24.875995     1.1903061e-05         26.709969
                  3.8045082e-06          78.57638        0.14319934         5.4347646     5.7342372e-06         -176.0268       0.082833886         25.164286
                    0.083433709         24.410405     5.7269339e-06        -175.96814        0.14418586         5.4268744     1.3961545e-06         176.11635
                  1.1909062e-05         26.692739       0.083306582         24.719483     1.4000653e-06         176.37264        0.14397947         5.8525514

0.05       0.13267421        -40.240071     3.1142834e-06        -37.074104        0.07347469        -32.016098     2.2790173e-05        -39.670656
                  3.1005765e-06        -37.150167        0.13338739        -39.782989     1.1322721e-05         141.85541         0.0740989        -31.466868
                     0.07416977        -32.448455     1.1318012e-05          141.9208        0.13357022         -40.35852     2.6914502e-06         147.60389
                  2.2795301e-05        -39.709433       0.074817171         -31.90157      2.709066e-06         147.68538        0.13453838        -39.925913

0.075      0.049349892        -4.1564049     4.1489084e-06        -39.294585       0.037918958         37.807782     3.2267617e-05        -97.192034
                  4.1311214e-06         -39.03772         0.0485223        -5.5520655     1.8390787e-05         70.520207       0.036842038          37.24552
                    0.037431673         37.137138     1.8390214e-05         70.552708       0.049602813        -4.3353296     4.7474988e-06         68.219729
                  3.2261078e-05        -97.218165       0.036356581         36.540226     4.7683829e-06         68.293118       0.048661819        -5.6366514

0.1       0.16524619          7.795777     1.3137983e-05        -135.33949        0.13797009         14.646699     4.7621808e-05        -158.13539
                  1.3107073e-05        -135.28629        0.16444648         8.9920338     1.7381495e-05         3.4351339        0.13757362         15.795822
                     0.13728643         14.483373     1.7389471e-05          3.488488         0.1659089         8.0845405     3.3391943e-06        -5.0878037
                  4.7605563e-05        -158.15131        0.13688935         15.632309     3.3590582e-06        -4.7142481        0.16517712          9.299395

0.125       0.18215948        -42.611181     1.4336989e-05         107.74919        0.13655494         -41.46181     5.8036569e-05         132.77336
                  1.4299872e-05          107.6603        0.18431684         -41.29523     2.3143523e-05        -32.317368        0.13794743        -40.092959
                     0.13603863        -41.784004     2.3175257e-05        -32.292288        0.18309075         -42.57688     5.3508436e-06        -15.095733
                  5.8005573e-05         132.75351         0.1374326        -40.412059     5.4075231e-06        -15.212052        0.18512534        -41.249695

0.15      0.059057258        -75.833919     2.4901959e-06         12.772334       0.028633404        -84.233636     6.1491613e-05         73.580096
                  2.4613169e-06         11.709158        0.06218469        -76.412515     3.6914752e-05        -104.76564       0.031338093        -84.194914
                     0.02804091        -85.956877     3.6964989e-05        -104.80225       0.058949631        -75.980815     9.9476739e-06        -99.405068
                  6.1434867e-05         73.598775       0.030773943         -85.80123     1.0021873e-05        -99.524201       0.061867095        -76.453885

0.175       0.14337283        -2.6563687     1.8912883e-05         26.996075         0.1189062         3.1254763     8.0733155e-05         14.246655
                  1.8858912e-05         27.078716        0.14252443       -0.67980397     3.0313835e-05        -176.15077        0.11854301          5.127353
                     0.11873971         3.5870748     3.0325612e-05        -176.25653        0.14470271        -2.5321898      5.909585e-06        -171.84792
                  8.0724961e-05         14.286438        0.11837301         5.5917867     5.9630481e-06        -172.03437        0.14395377       -0.51480451

0.2        0.2269184        -50.929762     2.9159428e-05        -89.354717        0.17383041        -52.111012     9.1528175e-05        -55.671655
                  2.9101436e-05        -89.414116        0.23035752        -48.725943     3.5045594e-05         149.93462        0.17662446        -49.693626
                     0.17337105         -51.97062     3.5026424e-05         149.90777        0.22856852        -50.951289     9.5364752e-06         170.43316
                  9.1528725e-05        -55.657601        0.17616864        -49.555155     9.5864206e-06         170.19845        0.23187727        -48.731915

0.225       0.16428636        -99.912437     2.2148992e-05         155.11992        0.11865306        -107.44299     8.8218155e-05        -118.09141
                  2.2132039e-05         154.92299        0.16948888        -97.567517     5.6776548e-05         83.011994        0.12268099        -104.46694
                     0.11780075        -107.44257     5.6768855e-05         82.972663        0.16466053        -99.761247     1.6638069e-05         93.631806
                  8.8199782e-05        -118.06431        0.12183354        -104.46804     1.6727529e-05         93.428598        0.16954887        -97.420729

0.25      0.040351512         -56.73592     4.8580639e-06        -177.08174       0.015652398        -40.533252     0.00010170896        -172.18215
                  4.7795642e-06        -176.77391       0.040392702        -55.418099     5.7375519e-05         5.6732421       0.015897327        -39.727247
                    0.016156141        -36.546853      5.730542e-05         5.6139707       0.042599743        -55.096934     1.4935655e-05         10.507386
                  0.00010177542        -172.14583       0.016352284        -35.699454     1.5019946e-05         10.229074       0.042598619        -53.375227

0.275       0.17713091        -60.775666     3.0540405e-05         77.179272        0.11433388        -64.038681      0.0001184991         119.19926
                  3.0464445e-05         77.118401        0.18245833        -57.711056     5.4294606e-05        -42.171015        0.11889561        -60.590296
                     0.11526877        -63.661624     5.4208551e-05        -42.105719        0.18044002        -61.279796     1.5047709e-05        -26.238364
                  0.00011859145         119.18489        0.11983544        -60.227154     1.5070982e-05        -26.468406        0.18559246        -58.187974

0.3       0.21218862        -111.34066     3.7402577e-05        -39.834949        0.12748812        -120.32157     0.00011109761         54.483466
                  3.7387768e-05        -39.966164        0.21858591        -107.78507     7.7716374e-05        -102.43866        0.13225629        -116.04083
                     0.12801752        -120.03368     7.7714232e-05        -102.37746        0.21385322        -111.64103     2.3277404e-05        -93.878526
                   0.0001111189         54.448823        0.13279241        -115.76689     2.3344924e-05        -93.985446        0.21980339        -108.08054

0.325       0.12077773        -161.02971     2.2213012e-05        -159.05747       0.065249286        -176.96443     0.00011427869         1.6613899
                  2.2284472e-05        -159.23356        0.12225234        -156.42253     8.7657785e-05        -177.06538       0.065326384        -171.58192
                    0.065142116        -176.45832     8.7657428e-05        -177.03181        0.11955109        -160.36569      2.495119e-05        -172.43931
                   0.0001142754         1.6437573        0.06522708        -171.07839     2.5060802e-05        -172.56799        0.12069697        -155.74895

0.35      0.042839022        -86.551826     7.5357561e-06        -108.29176       0.020623509        -81.000988     0.00013838197        -60.557493
                  7.4325917e-06        -108.56508       0.050064876        -80.959492     7.9240165e-05         120.50946       0.026952674        -73.932488
                    0.021572979        -81.406949     7.9234166e-05         120.57772       0.047881686        -87.337675     2.0940767e-05         128.46503
                  0.00013839402        -60.592211       0.027902187        -74.333912     2.1013437e-05         128.21113       0.054946676        -81.865571

0.375       0.14112126        -118.79821     2.8561922e-05         129.72129        0.06340662        -133.55359     0.00013816915        -126.74557
                  2.8529759e-05         129.50599        0.14864185        -114.54208     9.3457151e-05         64.091653       0.069112867        -127.47836
                    0.064699167        -133.64801     9.3568303e-05         64.152323        0.14413923        -120.18429     2.6561685e-05         71.368993
                  0.00013807753        -126.79263       0.070405444        -127.59248     2.6609436e-05         71.231529        0.15111297        -115.87725

0.4       0.14213047        -173.15585     2.9363748e-05         6.9734761       0.051204209          165.7954     0.00013805993         176.87598
                  2.9437507e-05         6.8165319        0.14276454        -167.31492     0.00010541718        -5.4620419       0.049966179         172.96142
                    0.052481105         165.91684     0.00010557744        -5.4596813        0.14105997        -173.86151     2.8511513e-05       -0.53947601
                  0.00013789816         176.88035       0.051244871          173.0313     2.8602462e-05       -0.60672117        0.14125112        -168.00825

0.425      0.054442804         136.43273     1.1217887e-05        -120.95475      0.0041381903         128.60027      0.0001594913         116.75096
                  1.1324931e-05        -120.75798       0.048241666         148.80754     9.8693508e-05        -69.993158      0.0047149457        -95.592688
                   0.0050798555         128.11515     9.8795808e-05        -70.035873        0.05080101         139.23846     2.5752587e-05        -61.049415
                  0.00015940235         116.78508      0.0041352238        -105.17574     2.5874088e-05          -61.2027       0.045157724         152.47522

0.45       0.04723569        -123.78514     9.9969642e-06        -48.619929       0.031121669        -138.13726     0.00016753336         51.616289
                  9.9424915e-06        -49.279247       0.055225106        -119.80875     0.00010481135        -126.97183       0.037533616        -130.39033
                    0.030934153        -139.31256     0.00010488035        -127.01153       0.050989446        -127.51892     2.9156554e-05        -118.22713
                  0.00016747129         51.641298       0.037325031        -131.36648     2.9243061e-05        -118.44004       0.058360783         -123.0666

0.475      0.077553829        -173.75076     1.4862556e-05        -179.37703       0.021509703         154.76534     0.00017178078        -8.2495023
                  1.4945623e-05        -179.77734       0.077002501        -165.79333     0.00011389942         167.53562       0.018715931          165.5286
                    0.022069145         152.78956     0.00011396886          167.4727       0.075730776        -176.02698     2.9762997e-05         174.93671
                  0.00017172131        -8.2090291       0.019210569         163.11182     2.9839513e-05          174.7972       0.074575745        -167.99488

0.5      0.030243978         154.95337       1.32418e-06         52.888785       0.023618267        -79.047081     0.00018771944        -70.939574
                  1.4560618e-06         54.098586       0.027691743        -178.23162     0.00011044295         106.53756       0.033370193        -74.236351
                    0.022713873         -77.01724     0.00011040235         106.45267       0.025229681         162.06961     2.9534091e-05         120.63232
                  0.00018775246         -70.89125       0.032445816        -72.863814     2.9651906e-05         120.48751        0.02445617        -167.73039

0.525      0.060586108        -142.54751     1.7962303e-05          105.6082       0.068536256        -145.98504     0.00018551445        -135.13179
                  1.7933816e-05         105.14435       0.068609272         -135.4071     0.00012533419         48.195575       0.074664139        -137.77558
                    0.067371886         -145.6293     0.00012520384         48.162785       0.066477768        -142.76558     3.7129485e-05         57.839169
                  0.00018563146         -135.1036       0.073509448        -137.43389     3.7269314e-05         57.620951       0.073067831        -135.66262

0.55      0.083135862         171.59202     2.1794511e-05        -17.961655       0.065494253         154.44839      0.0001890434         167.23357
                   2.191596e-05        -18.266017        0.08083433        -178.75309     0.00013501776        -19.645852       0.061819978         163.12631
                    0.064398679         154.40665     0.00013489206        -19.649698       0.081406079          170.8796     3.6965123e-05        -16.712483
                  0.00018917357          167.2323       0.060710335         163.10745     3.7087634e-05        -16.954577       0.078534433         179.55664

0.575      0.039632542        -176.01571     6.6275144e-06        -33.037523       0.014405714        -157.15681     0.00020754345         103.25431
                  6.6057978e-06        -34.624922       0.043807204        -152.74066      0.0001289362        -79.780069       0.021476471        -121.74312
                    0.014341855        -153.38702     0.00012885305        -79.745634       0.039309975        -170.09967     3.5772609e-05        -68.649556
                  0.00020760782         103.23029       0.021865973         -119.4456     3.5850197e-05         -68.87871       0.044600588         -148.3662

0.6       0.13233184        -152.14476     4.3268843e-05        -95.816555        0.09974201        -163.01522     0.00019338825         38.052035
                  4.3223537e-05        -96.064713        0.13996586        -143.64585     0.00015203043        -138.26408        0.10496964        -153.10513
                    0.099862787        -162.56315     0.00015202103        -138.23059        0.14190091        -151.61177     4.7802886e-05        -134.53674
                    0.000193384         38.033012        0.10511562        -152.68349     4.7932026e-05        -134.72937        0.14841941        -143.47066

0.625       0.19151301          155.0969     6.2096879e-05         144.07147        0.13700242         140.86365     0.00018975986        -13.977317
                  6.2227471e-05         143.92413        0.18831783         164.51267     0.00016408577         149.54746        0.13209592         150.40235
                     0.13652398          141.1602     0.00016407449         149.57187        0.19392561         154.35969     4.4494542e-05         147.15707
                  0.00018976435        -13.991392        0.13162122         150.71656     4.4662239e-05         146.90805        0.18978365         163.76348

0.65       0.12294231         102.49668     4.3039271e-05         23.817861       0.090301761         88.834577     0.00022982432        -74.041255
                  4.3275586e-05          23.80448         0.1118627         113.53331     0.00014204516         84.370964        0.07899595         98.002968
                    0.089279478         89.290829     0.00014207784         84.432052          0.114525         101.76613     3.3412057e-05          89.74468
                  0.00022975695         -74.07179        0.07797846         98.549825     3.3490948e-05         89.303892        0.10354871         113.10751

0.675      0.082673034        -174.94115     2.5970596e-05         56.177872       0.058440787         158.78195     0.00022237145        -143.21581
                  2.5873539e-05         55.717113       0.088692337        -164.17458     0.00015988429         30.999764       0.060628535         172.72063
                    0.059419787          159.2086      0.0001600564         30.998889       0.095363269         -170.3375     4.6554528e-05         35.198575
                  0.00022220744        -143.21131       0.061639757         173.03786     4.6532258e-05         34.938389        0.10094847        -160.24221

0.7       0.24476623         143.21991     8.4396381e-05        -53.212857        0.15467454         125.34292     0.00020561949         164.09157
                  8.4429254e-05        -53.340168        0.23939213         153.39478     0.00017835187        -42.348667        0.14765944         135.63463
                      0.1557211         125.37028     0.00017847176        -42.393029          0.252572         142.33582     4.4962472e-05         -49.62272
                  0.00020558204         164.14216        0.14870763         135.65732     4.5008821e-05        -49.853694         0.2468894         152.54165

0.725       0.26063973         90.790641      9.663342e-05        -165.63284        0.15364909         76.020533     0.00025069491         107.58834
                  9.6793082e-05        -165.67701        0.24980872         100.79734     0.00014683206        -110.81658        0.14320452         85.159785
                     0.15409639         76.141018     0.00014686169        -110.84723        0.25797493          89.67363     2.7636171e-05        -109.89598
                  0.00025073447         107.60703        0.14365778         85.293637     2.7685648e-05        -110.28475        0.24738687         99.746989

0.75       0.11615904         41.575724     5.2317108e-05         80.607158       0.059431223         31.932011     0.00028097875         38.067223
                  5.2526019e-05         80.682812        0.11002246         51.309694     0.00013293258        -157.06634       0.053898915          39.71819
                    0.059416286         32.743595     0.00013305257        -157.10477        0.10456328         41.725056     3.2012313e-05        -138.18918
                  0.00028091688          38.08984       0.053872733         40.615189     3.1883735e-05        -138.54561       0.099090462         51.541306

0.775       0.12934892          122.0393     4.8948084e-05         97.565101       0.098967672         110.73076     0.00025381148        -22.419944
