! Created Thu Mar  2 10:03:29 2023
# ghz S ma R 45
! 4 Port Network Data from SP1.SP block
! freq  magS11  angS11  magS12  angS12  magS13  angS13  magS14  angS14  
!       magS21  angS21  magS22  angS22  magS23  angS23  magS24  angS24  
!       magS31  angS31  magS32  angS32  magS33  angS33  magS34  angS34  
!       magS41  angS41  magS42  angS42  magS43  angS43  magS44  angS44  
!     
0      0.065955338    -3.1763921e-13     6.2072909e-08               180      0.0040171775    -4.2586408e-12      2.201968e-07              -180
                  6.3901878e-08              -180       0.067092571     8.1837856e-13     1.4531412e-05      1.652821e-14      0.0039404884    -1.9133334e-12
                   0.0048639116     1.3050328e-11     1.4530978e-05     1.6753329e-14       0.066528139    -3.1732169e-14     3.0544532e-07              -180
                  2.2064096e-07               180      0.0050609893     9.0769656e-12     3.1119035e-07              -180       0.066790118    -5.4943829e-13

0.025       0.14370635         5.2071934     7.6942577e-06        -175.86716       0.083000763         24.875995     5.8534227e-06        -177.84012
                  7.6725436e-06        -175.78164         0.1442048         5.0054193     4.6612189e-05         29.295596       0.083266778         24.855237
                    0.083433709         24.410405     4.6616003e-05         29.307057        0.14418586         5.4268744     8.5736349e-06        -175.54083
                  5.8512216e-06        -178.01061       0.083774812         24.261893     8.5526804e-06        -175.49709        0.14443127         5.3421669

0.05       0.13267421        -40.240071     6.4601557e-06         12.054375        0.07347469        -32.016098     6.8297169e-06        -8.9893371
                  6.4029687e-06         11.837686        0.13202937         -40.32021      9.008537e-05         127.91645       0.072902757        -32.087435
                     0.07416977        -32.448455     9.0084049e-05         127.89342        0.13357022         -40.35852     7.3167047e-06         6.2303869
                  6.8741576e-06        -8.7960884       0.073740324        -32.609824     7.2678265e-06         6.0191843         0.1328606        -40.458636

0.075      0.049349892        -4.1564049     2.8407379e-05        -97.838877       0.037918958         37.807782     2.7258109e-05        -108.11797
                  2.8282783e-05        -97.881283       0.050091145        -1.7114559     0.00027600096         77.034954       0.039479529         39.425312
                    0.037431673         37.137138     0.00027597631         77.025602       0.049602813        -4.3353296     3.2820658e-05        -98.814609
                  2.7271563e-05        -108.00676       0.038887633         38.654553     3.2697483e-05        -98.842883       0.050155968         -2.582712

0.1       0.16524619          7.795777     4.9291598e-05         177.77157        0.13797009         14.646699     3.4578917e-05         168.25168
                  4.9118052e-05         177.85369         0.1674428         7.5267471     0.00019703476         28.830798        0.13976802         14.370765
                     0.13728643         14.483373     0.00019700251         28.826575         0.1659089         8.0845405     5.4148728e-05         178.17765
                  3.4551666e-05         168.33389        0.13892668         14.159489     5.3968942e-05         178.26043        0.16764328         7.8200667

0.125       0.18215948        -42.611181     2.7228514e-05         73.767875        0.13655494         -41.46181     1.4418483e-05         49.565399
                  2.7049034e-05         74.041222        0.18186509        -42.929579     0.00019188329         114.75676        0.13625767         -41.74711
                     0.13603863        -41.784004      0.0001918684         114.74692        0.18309075         -42.57688     2.7719746e-05         72.277524
                   1.439168e-05         49.337184        0.13563063        -42.145777     2.7527575e-05         72.541193        0.18275406        -42.860932

0.15      0.059057258        -75.833919     4.4048716e-05          -92.1272       0.028633404        -84.233636     4.5226609e-05         -106.8593
                  4.3802251e-05        -92.090801       0.055744577        -73.877622     0.00053304688         70.979095       0.025546438         -81.39434
                     0.02804091        -85.956877       0.000532926         70.975003       0.058949631        -75.980815     5.1282639e-05        -94.540271
                  4.5375237e-05        -106.82804       0.024805128        -83.657684      5.103581e-05        -94.500508       0.056354142        -74.380125

0.175       0.14337283        -2.6563687     9.6636548e-05         177.04404         0.1189062         3.1254763     6.8605759e-05         164.23167
                  9.6460191e-05         177.19333         0.1479874        -2.9728563     0.00037690445         21.962202        0.12258634         2.6410494
                     0.11873971         3.5870748      0.0003767587         21.972656        0.14470271        -2.5321898     0.00010661368         176.83296
                  6.8868319e-05         164.32635        0.12233536         3.1673461     0.00010646616         176.98911        0.14817028        -2.9486583

0.2        0.2269184        -50.929762     7.5268499e-05         81.597219        0.17383041        -52.111012      3.512982e-05         68.028511
                  7.5153167e-05         81.868243        0.22805731        -51.439741     0.00026663187         97.036496        0.17449027        -52.590467
                     0.17337105         -51.97062     0.00026671453         97.033048        0.22856852        -50.951289     7.8323734e-05         81.692304
                  3.5282797e-05         68.227512        0.17388466        -52.424388     7.8236265e-05         81.975812        0.22923924        -51.447404

0.225       0.16428636        -99.912437     5.1195776e-05           -73.008        0.11865306        -107.44299     4.6884518e-05         -95.77585
                  5.0838021e-05        -72.733288        0.16028774        -100.21116      0.0007566696         63.358484        0.11516664         -107.9315
                     0.11780075        -107.44257     0.00075658496         63.357698        0.16466053        -99.761247     5.7306229e-05        -77.484777
                  4.6882624e-05        -95.747628        0.11412787        -107.91853     5.6932359e-05        -77.248469        0.16167192        -100.09536

0.25      0.040351512         -56.73592     0.00013002585        -173.21055       0.015652398        -40.533252     0.00010082281         177.30122
                  0.00012991991        -173.04579        0.04462481        -49.030882     0.00059768576         11.115511       0.020365245        -29.650559
                    0.016156141        -36.546853     0.00059755253         11.133942       0.042599743        -55.096934     0.00014439435        -174.23727
                   0.0001010755         177.20949       0.021188784        -26.556918     0.00014432381        -174.09063       0.045760291         -50.28725

0.275       0.17713091        -60.775666     0.00013538181         97.422654        0.11433388        -64.038681     6.8880885e-05         91.489755
                  0.00013560253         97.550724        0.18103002        -61.469353     0.00029979038         86.067369        0.11676402        -64.657839
                     0.11526877        -63.661624     0.00029997388         86.037956        0.18044002        -61.279796     0.00014326769         97.215146
                  6.9229312e-05         91.174868        0.11777925         -64.23242     0.00014355023         97.321195        0.18257456        -62.020238

0.3       0.21218862        -111.34066     5.8558283e-05        -44.837423        0.12748812        -120.32157     3.5532452e-05        -94.396393
                  5.8567093e-05        -44.420513        0.20941904         -111.9988     0.00093862854         54.517784        0.12455307        -121.01607
                     0.12801752        -120.03368     0.00093862905         54.509016        0.21385322        -111.64103     6.0884233e-05        -49.816153
                  3.5787357e-05        -93.953538        0.12508288        -120.65644     6.0926139e-05        -49.415868        0.21133197        -112.31835

0.325       0.12077773        -161.02971     0.00015606463         -170.5904       0.065249286        -176.96443     0.00011907674        -179.27179
                  0.00015591319        -170.40978        0.11235406        -160.69099     0.00082087259         3.3873715       0.058137192         -177.6105
                    0.065142116        -176.45832     0.00082080746         3.3903408        0.11955109        -160.36569     0.00017207305        -171.62239
                  0.00011922296        -179.23424       0.057976677        -176.87658     0.00017196875        -171.46923          0.113635        -160.33659

0.35      0.042839022        -86.551826     0.00021359021         111.07852       0.020623509        -81.000988      0.0001312303          108.3478
                  0.00021386197         111.18189       0.050042538        -83.427996     0.00025432677         77.268621       0.025893212        -77.983226
                    0.021572979        -81.406949     0.00025447611         77.217056       0.047881686        -87.337675      0.0002286582         110.55537
                  0.00013127992         108.20904       0.026959102        -78.678462     0.00022891991         110.62829       0.052077418        -86.030473

0.375       0.14112126        -118.79821     9.0822346e-05         9.6401183        0.06340662        -133.55359     1.7522799e-05         5.4772884
                  9.1212565e-05         9.7272562        0.14083763        -119.58992       0.001122037         47.858641       0.061818059        -134.22669
                    0.064699167        -133.64801      0.0011218978         47.843026        0.14413923        -120.18429     9.0231206e-05           8.43808
                  1.7569114e-05         3.7551257       0.063214047        -134.37779     9.0584408e-05         8.4618575        0.14258971        -121.00799

0.4       0.14213047        -173.15585     0.00016901779        -172.54931       0.051204209          165.7954     0.00012471522         170.47741
                  0.00016898993        -172.39753        0.13346137        -173.39213      0.0010216998        -3.8686472       0.043458866         164.11964
                    0.052481105         165.91684      0.0010215005          -3.88051        0.14105997        -173.86151     0.00018494988        -174.17438
                  0.00012509697         170.57111       0.044817191         164.32213     0.00018500376        -174.05514        0.13428759         -174.3011

0.425      0.054442804         136.43273     0.00029190007         109.75563      0.0041381903         128.60027     0.00018157347          105.5047
                   0.0002921144         109.85492         0.0441156         140.49619     0.00020994901         48.598236      0.0046342099        -86.969581
                   0.0050798555         128.11515     0.00020993424         48.642577        0.05080101         139.23846     0.00031388767         109.23183
                  0.00018183317         105.53417      0.0038511153        -96.353831     0.00031411113         109.30441       0.044239036         141.96413

0.45       0.04723569        -123.78514     0.00018564931         26.216698       0.031121669        -138.13726     7.6104561e-05         35.331332
                  0.00018612914         26.290203       0.051045937        -124.29803      0.0012472161         41.667362       0.032582156        -138.00242
                    0.030934153        -139.31256      0.0012470621         41.664101       0.050989446        -127.51892     0.00019126429          26.28938
                  7.5985414e-05         35.231343       0.032328126        -139.36774      0.0001916635         26.334106       0.052014114        -127.90596

0.475      0.077553829        -173.75076     0.00013618673        -165.42542       0.021509703         154.76534      0.0001044358         158.21952
                  0.00013622597        -165.19245       0.070553679        -172.11192      0.0012430871        -10.888702       0.014021956         152.84972
                    0.022069145         152.78956      0.0012425455         -10.89429       0.075730776        -176.02698     0.00014915291        -169.74878
                   0.0001050762         158.34041       0.014587047         149.37858     0.00014923072        -169.57497       0.069443038        -174.83113

0.5      0.030243978         154.95337      0.0003435035         99.890074       0.023618267        -79.047081     0.00022155581         88.560706
                  0.00034380497         99.996042       0.024331755        -179.45318     0.00025593962         8.6789517       0.034616056        -81.631368
                    0.022713873         -77.01724     0.00025568307         8.7979389       0.025229681         162.06961     0.00037235237         98.851663
                  0.00022226631         88.642779       0.033682986        -80.155899     0.00037270178          98.93205       0.022172273         -176.2492

0.525      0.060586108        -142.54751     0.00029852543         19.126228       0.068536256        -145.98504     0.00014867966         18.710444
                  0.00029919617         19.201222       0.068643222        -142.97035      0.0013127857         31.929913        0.07344543        -146.99042
                    0.067371886         -145.6293      0.0013129766         31.936349       0.066477768        -142.76558     0.00031416829         18.955465
                  0.00014909403         18.734775       0.072216093        -146.62134     0.00031482597         19.007005       0.070410965        -143.30815

0.55      0.083135862         171.59202     0.00010206087        -140.69202       0.065494253         154.44839     6.1249132e-05         153.26706
                  0.00010239323        -140.36415        0.07825885         171.85063      0.0014311164        -18.363245       0.060461881         153.10982
                    0.064398679         154.40665      0.0014308531        -18.353966       0.081406079          170.8796     0.00010463601         -146.4095
                  6.1579029e-05           153.216       0.059252501         153.08567     0.00010494086        -146.12197       0.076843096         170.13621

0.575      0.039632542        -176.01571     0.00036408516         91.954166       0.014405714        -157.15681     0.00023799137         77.442033
                  0.00036458339         92.029458       0.043153308         -156.2263     0.00035907761        -25.053307       0.022848189         -129.1988
                    0.014341855        -153.38702     0.00035930833         -24.95842       0.039309975        -170.09967     0.00039325964         90.619818
                  0.00023872544         77.310722       0.023359928        -126.93755      0.0003937609         90.672201       0.043112402        -156.87321

0.6       0.13233184        -152.14476     0.00038534329         5.9119688        0.09974201        -163.01522     0.00019845578         1.4117716
                    0.000386198         5.9247993        0.14532249        -153.40199      0.0012937553         19.367185        0.10828369        -163.85478
                    0.099862787        -162.56315      0.0012940499         19.348518        0.14190091        -151.61177     0.00040859115         5.4218636
                  0.00019898496         1.1920651        0.10847909        -163.42496      0.0004094009         5.4138016        0.14978056        -153.46246

0.625       0.19151301          155.0969     0.00013040432        -116.44611        0.13700242         140.86365      2.139897e-05        -163.58949
                  0.00013125222        -116.33669        0.19163074         153.70533      0.0015135349         -26.60413        0.13520839         139.61042
                     0.13652398          141.1602       0.001513445        -26.606732        0.19392561         154.35969      0.0001306697        -116.49731
                  2.1886881e-05        -163.62843        0.13474315         139.94547     0.00013149629         -116.4435        0.19225074         152.90743

0.65       0.12294231         102.49668     0.00032692913         96.371215       0.090301761         88.834577     0.00020756927         82.871473
                  0.00032765597         96.443813        0.10828368         102.45596     0.00050350176        -55.320718         0.0780285         87.702512
                    0.089279478         89.290829     0.00050378617        -55.254487          0.114525         101.76613     0.00035334376         94.794407
                  0.00020795803         82.699279       0.077017916          88.35529     0.00035401144         94.842891        0.10349386         101.64373

0.675      0.082673034        -174.94115     0.00045397681         7.2952021       0.058440787         158.78195     0.00025788057         2.5319101
                  0.00045464383         7.2346202        0.10025358        -173.52132      0.0012311912         11.849304       0.068928914         163.85553
                    0.059419787          159.2086      0.0012309936         11.812747       0.095363269         -170.3375     0.00048834647         5.8443282
                  0.00025754594         2.2807637       0.070024305         164.03434     0.00048882819         5.7826263        0.10720638        -171.41308

0.7       0.24476623         143.21991     0.00017937417           -104.84        0.15467454         125.34292     4.1661283e-05        -86.709957
                  0.00017976762        -105.02626        0.24944327         141.54476      0.0015265721        -35.426241        0.15546198         124.20781
                      0.1557211         125.37028      0.0015261271        -35.436129          0.252572         142.33582     0.00018478639        -103.93079
                  4.1024989e-05        -87.562428        0.15652466         124.19664     0.00018497903        -104.12777        0.25373004         140.55612

0.725       0.26063973         90.790641     0.00024356993         95.041615        0.15364909         76.020533      0.0001285058         81.357284
                  0.00024416245         95.065762        0.25006043         89.051247     0.00071411696        -67.580833        0.14399993         74.248253
                     0.15409639         76.141018     0.00071405297        -67.572993        0.25797493          89.67363     0.00025817277         94.458331
                  0.00012872978         81.209936        0.14449396         74.376977     0.00025872793          94.44636         0.2492302          87.92822

0.75       0.11615904         41.575724     0.00045883678         20.570135       0.059431223         31.932011     0.00029289625         20.429924
                  0.00045936017         20.511999       0.094385434         42.622933      0.0010096059         10.904094       0.042354988         33.803378
                    0.059416286         32.743595      0.0010092509         10.874978        0.10456328         41.725056     0.00050081908         19.368508
                  0.00029240305          20.30986       0.042555507          35.00056     0.00050111871         19.314052       0.089546135         42.627253

0.775       0.12934892          122.0393     0.00029261761        -77.339306       0.098967672         110.73076     0.00014726591         -66.06196
