! Created Thu Mar  2 09:04:33 2023
# ghz S ma R 45
! 4 Port Network Data from SP1.SP block
! freq  magS11  angS11  magS12  angS12  magS13  angS13  magS14  angS14  
!       magS21  angS21  magS22  angS22  magS23  angS23  magS24  angS24  
!       magS31  angS31  magS32  angS32  magS33  angS33  magS34  angS34  
!       magS41  angS41  magS42  angS42  magS43  angS43  magS44  angS44  
!     
0      0.065955338    -3.1763921e-13     1.5035879e-06              -180      0.0040171775    -4.2586408e-12     1.1385146e-06              -180
                  1.5038097e-06               180       0.067907687     2.3682579e-13     2.5266047e-06               180      0.0036523486    -4.7568217e-12
                   0.0048639116     1.3050328e-11     2.5216748e-06               180       0.066528139    -3.1732169e-14     2.0371299e-06               180
                  1.1377394e-06              -180      0.0045856723    -4.5828801e-12     2.0353768e-06              -180        0.06700007    -2.5446317e-13

0.025       0.14370635         5.2071934     1.5622585e-05        -170.24232       0.083000763         24.875995     9.8656337e-06        -173.19213
                  1.5616746e-05        -170.23916        0.14396642         5.3157621     2.4796882e-05        -169.30327       0.083708183         25.357305
                    0.083433709         24.410405      2.479483e-05        -169.27134        0.14418586         5.4268744     1.8603286e-05        -170.06419
                  9.8625688e-06        -173.10627       0.083204692         24.883383     1.8607653e-05        -170.02363        0.14375697         5.1408143

0.05       0.13267421        -40.240071     3.1296369e-05         143.69365        0.07347469        -32.016098     1.9666345e-05         144.41106
                  3.1287173e-05         143.75549        0.13313906        -39.939147     4.9299956e-05         142.59058       0.074672785        -31.585719
                     0.07416977        -32.448455     4.9331255e-05         142.60394        0.13357022         -40.35852      3.720073e-05          143.1462
                  1.9698492e-05         144.45557       0.073746776        -31.746597     3.7240854e-05         143.10943        0.13255779        -40.174827

0.075      0.049349892        -4.1564049     5.5039785e-05         70.871755       0.037918958         37.807782     3.6121297e-05         68.742895
                  5.5060758e-05          70.92752       0.049045944         -3.371255     8.4147955e-05         71.911826       0.037650093         38.067091
                    0.037431673         37.137138     8.4175261e-05         71.907353       0.049602813        -4.3353296     6.4562446e-05         71.300114
                  3.6150779e-05         68.739187       0.038091009          38.66273     6.4563905e-05         71.245527       0.049053027        -3.9624952

0.1       0.16524619          7.795777     5.8207131e-05        -5.9338506        0.13797009         14.646699      3.678882e-05        -12.813834
                  5.8263399e-05        -5.8712051        0.16619553         8.6739648      9.199258e-05        -1.9440397        0.13848697          15.77357
                     0.13728643         14.483373     9.1979499e-05         -1.922964         0.1659089         8.0845405     6.9335267e-05        -4.1909608
                  3.6772675e-05        -12.756762        0.13885611         15.438077      6.926101e-05        -4.2147546        0.16725199         8.5389896

0.125       0.18215948        -42.611181     5.6749395e-05        -46.828298        0.13655494         -41.46181     3.2358887e-05        -47.985797
                  5.6824485e-05        -46.781329        0.18375663        -41.691069     9.4620717e-05        -46.737794        0.13762318        -40.142971
                     0.13603863        -41.784004     9.4714512e-05        -46.685764        0.18309075         -42.57688     6.9459537e-05         -46.91676
                   3.245105e-05        -47.811778        0.13724409        -40.530001     6.9467524e-05         -46.88608         0.1842616        -41.972395

0.15      0.059057258        -75.833919      0.0001009951        -106.54739       0.028633404        -84.233636     6.5573911e-05         -107.2078
                  0.00010113733        -106.50769       0.058830239        -75.075423     0.00015538993        -106.64087       0.028947198        -82.187336
                     0.02804091        -85.956877      0.0001555987        -106.66202       0.058949631        -75.980815     0.00011917965        -106.84641
                   6.580719e-05        -107.24277       0.027775527        -82.639732     0.00011923042        -106.89807       0.057980265        -75.288911

0.175       0.14337283        -2.6563687     0.00010751252         168.35056         0.1189062         3.1254763     6.9666673e-05         161.37536
                  0.00010772011         168.38391        0.14649834       -0.92485909     0.00016690709          172.4243        0.12107075         4.7639911
                     0.11873971         3.5870748     0.00016702262         172.37476        0.14470271        -2.5321898     0.00012723484         169.82584
                  6.9823372e-05         161.28123        0.12217978         4.8589159     0.00012714654         169.74882        0.14834677       -0.85971154

0.2        0.2269184        -50.929762     7.3098684e-05         112.75284        0.17383041        -52.111012     3.9549994e-05         103.85513
                  7.3278313e-05         112.73538        0.23101099        -49.208678     0.00012641364         116.69604        0.17634058        -49.913024
                     0.17337105         -51.97062     0.00012642032         116.68527        0.22856852        -50.951289      9.094698e-05          114.2721
                  3.9573127e-05         103.83109        0.17704967        -50.102823     9.0781005e-05         114.27582        0.23314016        -49.423945

0.225       0.16428636        -99.912437     0.00010731961          78.93588        0.11865306        -107.44299     6.4072957e-05         81.646393
                  0.00010746691         78.876558        0.16545648         -97.90074     0.00017465853         76.572656        0.11884893        -104.52238
                     0.11780075        -107.44257     0.00017485043         76.559184        0.16466053        -99.761247      0.0001300162         77.359134
                  6.4276803e-05         81.605232        0.11877354        -104.96482     0.00013003419         77.396087        0.16628737        -98.176716

0.25      0.040351512         -56.73592     0.00016046903        0.37536177       0.015652398        -40.533252     0.00010401243        -2.3775877
                  0.00016064372        0.33353416       0.044103359        -48.049346     0.00024716679         1.3227561        0.02077066        -29.861032
                    0.016156141        -36.546853     0.00024739346         1.2487362       0.042599743        -55.096934     0.00018943155        0.11951949
                  0.00010429252        -2.5443338       0.020967053        -26.714067      0.0001894915       0.081204058       0.045240748        -46.711576

0.275       0.17713091        -60.775666     0.00012794558        -75.530089        0.11433388        -64.038681     7.6976212e-05        -83.250251
                  0.00012808797        -75.587304        0.18574783        -58.382214     0.00020723971        -71.566757        0.12092843        -61.292122
                     0.11526877        -63.661624       0.000207183        -71.666972        0.18044002        -61.279796      0.0001538371        -74.378192
                  7.7002822e-05        -83.518004         0.1220988        -61.079337     0.00015370751        -74.448791        0.18905162        -58.693755

0.3       0.21218862        -111.34066     0.00011250028        -113.05085        0.12748812        -120.32157     6.2651819e-05        -112.35548
                   0.0001125324        -113.11444        0.21589229        -108.43834     0.00019126933        -113.91413        0.12884751        -116.53958
                     0.12801752        -120.03368     0.00019108195        -113.92545        0.21385322        -111.64103     0.00013892358        -113.92234
                  6.2486121e-05        -112.38453        0.12995455        -116.64488     0.00013873066        -113.89422         0.2185186        -108.81785

0.325       0.12077773        -161.02971     0.00018219695        -170.16819       0.065249286        -176.96443     0.00011577524        -170.18305
                   0.0001822104        -170.20635        0.11480514        -156.14492      0.0002857184        -171.46542       0.057863411        -171.16396
                    0.065142116        -176.45832     0.00028577071        -171.47158        0.11955109        -160.36569     0.00021711409        -171.58889
                  0.00011584242        -170.19969       0.058418139        -171.90447     0.00021713785        -171.56181        0.11486357        -156.16527

0.35      0.042839022        -86.551826     0.00020811148         111.72205       0.020623509        -81.000988     0.00013274628         107.67152
                  0.00020808314         111.69827       0.056147745        -79.350449     0.00032261279         113.16738       0.032853917        -73.955497
                    0.021572979        -81.406949     0.00032265441         113.11242       0.047881686        -87.337675     0.00024521591          111.4161
                  0.00013281898         107.54325       0.032828267         -72.48747      0.0002453158         111.37967       0.059507864        -79.520343

0.375       0.14112126        -118.79821     0.00017515119         49.686513        0.06340662        -133.55359     0.00010590305         46.046899
                  0.00017510284          49.70137        0.14777044        -115.48625     0.00028236636         51.523228       0.067867576         -129.0225
                    0.064699167        -133.64801     0.00028206344         51.473002        0.14413923        -120.18429     0.00020996551         50.043275
                  0.00010563102          45.92157       0.068671764        -128.43377     0.00020979653         49.966588        0.15123719        -116.36013

0.4       0.14213047        -173.15585     0.00020387456        0.19427572       0.051204209          165.7954     0.00012913701        -1.5101979
                  0.00020395705        0.22846253        0.13511097        -167.72857     0.00032378372       0.015424311       0.042337585         170.80543
                    0.052481105         165.91684     0.00032349869       0.045982094        0.14105997        -173.86151     0.00024518828       -0.62218597
                  0.00012890032        -1.4232879       0.043604872         171.23109     0.00024485839       -0.62331989        0.13604365        -168.42566

0.425      0.054442804         136.43273     0.00025663735        -68.215065      0.0041381903         128.60027     0.00016555063        -72.604902
                  0.00025674308        -68.194863       0.040662068         153.60237     0.00039705024        -67.235929       0.012896706        -78.587144
                   0.0050798555         128.11515     0.00039719035        -67.204725        0.05080101         139.23846     0.00030326423        -68.961651
                  0.00016570753        -72.522235       0.011418014        -77.021171     0.00030324378        -68.942132       0.039320221         155.68919

0.45       0.04723569        -123.78514     0.00025373336        -137.50337       0.031121669        -138.13726     0.00015970175        -142.73545
                  0.00025383333        -137.46572       0.056944651        -120.66717     0.00039606232        -135.26276       0.039424214        -132.17098
                    0.030934153        -139.31256     0.00039624707        -135.27741       0.050989446        -127.51892      0.0002993338        -137.32653
                  0.00015991815        -142.74921       0.038573177        -131.20803     0.00029939522        -137.36619       0.059767985        -122.52157

0.475      0.077553829        -173.75076     0.00026084964         164.30828       0.021509703         154.76534     0.00016764975         160.20973
                  0.00026114807         164.36958       0.069965016        -164.44664     0.00040897927         166.03232       0.012065176         158.46862
                    0.022069145         152.78956     0.00040886987         166.00705       0.075730776        -176.02698     0.00031170914         164.38335
                  0.00016762675          160.1702       0.011957551         162.56861     0.00031136128         164.30811       0.069738119         -166.1634

0.5      0.030243978         154.95337     0.00030076287         98.680291       0.023618267        -79.047081     0.00019791869         92.040265
                  0.00030130614         98.706659       0.026524804        -154.97375     0.00046446147         101.04561       0.043691745        -74.135493
                    0.022713873         -77.01724     0.00046432876         101.06469       0.025229681         162.06961     0.00035669484         98.339268
                   0.0001978919         92.091701       0.042767082        -75.124812     0.00035606632         98.335635       0.025741516        -149.11502

0.525      0.060586108        -142.54751     0.00028677709         30.140516       0.068536256        -145.98504     0.00018016667         21.497636
                  0.00028726403         30.131744       0.074435886        -136.50699     0.00045052504         33.759259       0.079941056        -138.42455
                    0.067371886         -145.6293     0.00045085452         33.788137       0.066477768        -142.76558     0.00033867498         30.523033
                  0.00018055623         21.586415       0.078386639        -138.67425     0.00033844921         30.567162       0.076719174        -136.45169

0.55      0.083135862         171.59202     0.00028129321        -24.637772       0.065494253         154.44839     0.00017397985         -30.37952
                   0.0002817309        -24.640039       0.075130549        -177.45725     0.00044826788        -21.849211       0.056806815          162.7757
                    0.064398679         154.40665     0.00044879692        -21.901934       0.081406079          170.8796     0.00033796347         -24.36118
                  0.00017462899        -30.492017       0.055166195         163.25421     0.00033801006        -24.400303       0.073825248        -179.50243

0.575      0.039632542        -176.01571     0.00034334907        -91.081574       0.014405714        -157.15681     0.00022660069        -98.306249
                  0.00034405611        -91.099374       0.049637483        -139.34532     0.00052795471        -87.967108        0.03095946        -108.66157
                    0.014341855        -153.38702     0.00052789169        -88.051267       0.039309975        -170.09967     0.00040632372        -91.283768
                  0.00022675937        -98.500046       0.032456576        -109.53602     0.00040572809        -91.353052       0.050749931        -138.30718

0.6       0.13233184        -152.14476     0.00032282306        -167.98849        0.09974201        -163.01522     0.00020826502         179.85204
                  0.00032352082         -168.0563        0.14984054        -145.14631     0.00050248116        -162.17604        0.11242321        -153.51846
                    0.099862787        -162.56315      0.0005022123        -162.20199        0.14190091        -151.61177     0.00037893841        -167.34261
                  0.00020819176         179.76896        0.11249012        -154.06516     0.00037813607         -167.3231        0.15557297        -145.53901

0.625       0.19151301          155.0969     0.00023238261         139.79762        0.13700242         140.86365     0.00012994958          129.8762
                  0.00023267281         139.68012        0.18661144         163.10226     0.00039225286         144.44409        0.12984669         149.67269
                     0.13652398          141.1602     0.00039253355         144.43516        0.19392561         154.35969     0.00028328437         141.30301
                  0.00013029976         129.84586        0.12878001           149.345      0.0002832294         141.38733        0.18695654            162.34

0.65       0.12294231         102.49668     0.00032392472         96.167672       0.090301761         88.834577     0.00020425596         92.422065
                   0.0003240943         96.087597       0.098648734         114.00868     0.00051572166         96.604031       0.067566242         97.680373
                    0.089279478         89.290829     0.00051596159         96.488619          0.114525         101.76613     0.00039269139         94.747083
                  0.00020454513         92.120294       0.065769383         97.865026       0.000392778         94.697363       0.091744784         113.86029

0.675      0.082673034        -174.94115     0.00039258279          12.44018       0.058440787         158.78195     0.00025694961         2.4253991
                  0.00039287141         12.361246         0.1033443        -163.89154     0.00060445697         16.491648       0.070541747         176.43751
                    0.059419787          159.2086      0.0006038562           16.3988       0.095363269         -170.3375     0.00046126165         11.837669
                  0.00025657391          2.179521       0.071711481         176.55662     0.00046067521         11.795367        0.11341185        -161.39968

0.7       0.24476623         143.21991     0.00025227049        -60.991477        0.15467454         125.34292     0.00014615735        -75.931116
                  0.00025230217        -61.120324        0.24242454            151.53      0.0004181067        -53.630873        0.14810942         134.74963
                      0.1557211         125.37028     0.00041722752        -53.663776          0.252572         142.33582     0.00029971279        -58.765309
                  0.00014545873        -76.109633        0.14900445          134.4267     0.00029902438        -58.734924        0.24841054         150.65722

0.725       0.26063973         90.790641     0.00023335973        -83.091021        0.15364909         76.020533     0.00013414062        -83.282851
                  0.00023310792        -83.150121        0.24019008          98.96788     0.00039690226        -84.287274        0.13401865          83.79837
                     0.15409639         76.141018     0.00039669667        -84.275642        0.25797493          89.67363      0.0002923791        -84.376038
                  0.00013397011        -83.270996        0.13389936         83.480231     0.00029238098        -84.313621        0.23821213         97.925623

0.75       0.11615904         41.575724     0.00043494092        -148.09744       0.059431223         31.932011     0.00028869503        -153.06827
                  0.00043466254        -148.12824       0.092368481         52.052335     0.00066196793        -147.73701       0.038836166         42.779099
                    0.059416286         32.743595     0.00066153396        -147.79696        0.10456328         41.725056     0.00051206311        -150.31443
                    0.000288262        -153.21046       0.037774219         42.811103      0.0005120316        -150.34636       0.083612452         52.661714

0.775       0.12934892          122.0393     0.00038970245         124.61328       0.098967672         110.73076     0.00024726625         113.89351
