! Created Thu Mar  2 09:47:07 2023
# ghz S ma R 45
! 4 Port Network Data from SP1.SP block
! freq  magS11  angS11  magS12  angS12  magS13  angS13  magS14  angS14  
!       magS21  angS21  magS22  angS22  magS23  angS23  magS24  angS24  
!       magS31  angS31  magS32  angS32  magS33  angS33  magS34  angS34  
!       magS41  angS41  magS42  angS42  magS43  angS43  magS44  angS44  
!     
0      0.065955338    -3.1763921e-13     1.9806846e-05     5.9412595e-12      0.0040171775    -4.2586408e-12     8.2117861e-06               180
                  4.9729492e-06    -6.0595614e-12       0.067391137      2.385809e-13     1.8987499e-05              -180      0.0035431495    -4.8977845e-12
                   0.0048639116     1.3050328e-11     5.2749252e-05     5.7232883e-12       0.066528139    -3.1732169e-14     4.0341421e-05              -180
                   3.937499e-05     9.0598757e-12      0.0045071994    -4.6651978e-12     2.5631127e-05              -180       0.068042137    -2.5055503e-13

0.025       0.14370635         5.2071934     1.9443221e-05        -88.993579       0.083000763         24.875995     7.8096051e-05         36.859879
                  1.5106538e-05        -136.62362         0.1443147          4.923944     1.5121982e-05         89.975003       0.083910809         25.063024
                    0.083433709         24.410405     4.6702805e-05        -57.330811        0.14418586         5.4268744     3.6132821e-05         78.474124
                  5.4029552e-05         2.1948381       0.083390511         24.583348      1.951318e-05         96.906399        0.14425431         4.8613858

0.05       0.13267421        -40.240071     5.2417669e-05          147.8884        0.07347469        -32.016098     9.1165634e-05         128.06703
                  6.1803402e-05         139.84979        0.13225419        -40.370364     3.6091088e-05         128.99952       0.074048504        -32.136003
                     0.07416977        -32.448455     4.4771859e-05         172.57788        0.13357022         -40.35852     1.3367868e-05         86.940026
                     0.00013277         137.91649       0.073113468        -32.294947     3.2449504e-05         127.44842        0.13179519        -40.622549

0.075      0.049349892        -4.1564049     0.00010512605          65.77073       0.037918958         37.807782     0.00034458269         76.961024
                   0.0001124241         66.292143       0.050063059        -2.1259197     9.6259684e-05          73.03684       0.038781867         38.600181
                    0.037431673         37.137138     0.00010523549         67.013278       0.049602813        -4.3353296     6.3326986e-05         77.028284
                  0.00038950367         74.121106       0.039235541          39.15825     8.7433057e-05         73.849972       0.049992299        -2.6418645

0.1       0.16524619          7.795777     7.7866454e-05        -10.996858        0.13797009         14.646699     0.00026922657         22.475033
                  7.6021062e-05        -4.7742729        0.16692625         7.4572738     8.4870126e-05         12.925827        0.13892075         14.617444
                     0.13728643         14.483373     0.00010401051        -16.956905         0.1659089         8.0845405     5.4749429e-05         27.382313
                  0.00029048057         13.789568        0.13928782         14.283065     6.8428884e-05         19.046672        0.16803758         7.3333896

0.125       0.18215948        -42.611181     2.1845883e-05        -168.39139        0.13655494         -41.46181     0.00019199524         115.57825
                  1.4855831e-05         121.10661         0.1816401        -43.010407     1.4881244e-05         53.368593        0.13621531        -41.517813
                     0.13603863        -41.784004     6.0630192e-05        -144.45836        0.18309075         -42.57688     3.4884188e-05         55.639755
                  0.00018463051         129.09318        0.13583341        -41.908096      2.838618e-05          41.19735        0.18212372        -43.303616

0.15      0.059057258        -75.833919     0.00013611441         70.662727       0.028633404        -84.233636     0.00066734992         69.654488
                  0.00014315013         63.153237       0.055931792        -74.316797     0.00014250986         60.207336       0.026224652        -81.721254
                     0.02804091        -85.956877     0.00016674969         86.471572       0.058949631        -75.980815     0.00012130114         50.419228
                  0.00069513494         72.363076        0.02504744        -82.107993     0.00011653698         53.300044       0.054956959        -74.446398

0.175       0.14337283        -2.6563687     0.00013353241        -10.565605         0.1189062         3.1254763     0.00052016391         11.444207
                   0.0001420838        -15.013873        0.14723777        -2.9422788     0.00016860706        -7.3354343        0.12151053         2.7485167
                     0.11873971         3.5870748     0.00018772611         4.1214426        0.14470271        -2.5321898     0.00010972713        -22.165108
                  0.00056071836          11.34019        0.12261625         2.8419666     0.00011020433        -15.780766        0.14920653         -2.865011

0.2        0.2269184        -50.929762     3.9542669e-05        -63.814513        0.17383041        -52.111012     0.00021696897         100.38297
                  4.2722637e-05        -65.749477        0.22764133        -51.431453     6.2997307e-05        -63.731509        0.17358344        -52.341471
                     0.17337105         -51.97062     7.7886978e-05        -72.149584        0.22856852        -50.951289     1.2387874e-05        -1.2236249
                  0.00017441571         102.88635        0.17429203        -52.534036     3.2175154e-05        -13.526283        0.22976065         -51.64907

0.225       0.16428636        -99.912437     8.6670736e-05         83.498101        0.11865306        -107.44299     0.00089524327          64.94513
                  8.2257973e-05         77.950303        0.16051053        -100.23383     0.00010721064         68.285234         0.1147623        -107.48598
                     0.11780075        -107.44257     0.00012985338         91.859948        0.16466053        -99.761247     0.00010898314         58.016291
                  0.00087436842         67.884637        0.11468838        -107.94325     8.1790981e-05         51.769979        0.16114131         -100.5125

0.25      0.040351512         -56.73592     0.00016969665        0.16323938       0.015652398        -40.533252     0.00086459655         5.7195547
                  0.00017032051         -4.959842       0.044164621        -49.898935      0.0002352566        -4.9669819       0.020717402        -31.087173
                    0.016156141        -36.546853     0.00027004785         10.125262       0.042599743        -55.096934      0.0001854142        -16.346517
                  0.00087296002         9.0644191        0.02094878        -27.966233     0.00015327653        -16.182878       0.045429329        -48.306512

0.275       0.17713091        -60.775666     6.5414465e-05        -58.413062        0.11433388        -64.038681     0.00014244868         79.183429
                  6.8668837e-05        -72.224902        0.18050322        -61.483676     0.00014421518        -76.612547        0.11646444        -64.753394
                     0.11526877        -63.661624     0.00017832593        -57.347032        0.18044002        -61.279796     5.6647484e-05        -102.04418
                  0.00014679988         62.589098        0.11763468        -64.529844     3.2009217e-05        -88.582447        0.18383868        -61.782584

0.3       0.21218862        -111.34066      4.651433e-05         56.658129        0.12748812        -120.32157      0.0010322626         57.703948
                   4.362205e-05         72.078785        0.20987156        -112.00694     7.0342398e-05         90.502362        0.12409328        -120.82389
                     0.12801752        -120.03368     3.4732551e-05         84.736966        0.21385322        -111.64103      9.051379e-05         66.293613
                  0.00099458288         57.655564        0.12520761        -120.92945     8.3741765e-05         50.425451        0.21225343        -112.37813

0.325       0.12077773        -161.02971     0.00016415177         7.6603608       0.065249286        -176.96443         0.0011464         3.1283423
                  0.00015980966         9.6065495         0.1137578        -160.80585     0.00026006572         4.6656427       0.057753993        -176.64786
                    0.065142116        -176.45832     0.00025419213         7.2184997        0.11955109        -160.36569      0.0002136409         0.7595865
                   0.0011142822         4.9438151       0.058327069        -177.37969     0.00018520889          -3.35547        0.11346761        -160.78325

0.35      0.042839022        -86.551826      0.0001193389        -52.575722       0.020623509        -81.000988     0.00016125552        -21.347878
                   0.0001149955        -53.771807       0.048905907        -84.467002     0.00025092926        -67.187465       0.026594933        -80.154585
                    0.021572979        -81.406949      0.0002710822        -59.892506       0.047881686        -87.337675     0.00014829261        -72.502167
                  0.00019582224        -5.8179344       0.026545031         -78.33134     0.00011048724        -72.383626       0.052328461         -84.42853

0.375       0.14112126        -118.79821      6.560739e-05        -3.2178562        0.06340662        -133.55359       0.001102953         50.733966
                   5.738027e-05         3.3976164        0.14074061        -119.76554     2.9097756e-05         168.11014       0.062275386        -135.11396
                    0.064699167        -133.64801     5.1009011e-05        -109.55422        0.14413923        -120.18429     4.8876945e-05         48.336754
                     0.00109488         47.805545       0.063072214        -134.45466     8.1426476e-05          34.36816        0.14392432          -120.634

0.4       0.14213047        -173.15585     0.00016390885        -20.081086       0.051204209          165.7954      0.0013432499        -3.3644527
                   0.0001600276         -15.28574        0.13501632        -173.62993     0.00026560334       -0.94760075       0.043636487         163.49175
                    0.052481105         165.91684     0.00022217363        -8.9241266        0.14105997        -173.86151     0.00021000365        -6.7517718
                   0.0013089247        -4.7234996       0.044893861         163.95415     0.00022179524        -14.321021        0.13551631         -174.2841

0.425      0.054442804         136.43273     0.00017107661        -67.764285      0.0041381903         128.60027     0.00039412807        -43.372557
                  0.00016776907        -63.302652       0.046343575         139.29638     0.00037019212        -66.969851      0.0050494053        -91.846576
                   0.0050798555         128.11515     0.00033605286        -70.064323        0.05080101         139.23846     0.00023844146        -65.634359
                  0.00035823103        -40.286359      0.0035455825        -89.994647     0.00022734938        -71.589568       0.044499881         140.77716

0.45       0.04723569        -123.78514     8.9056078e-05        -66.178741       0.031121669        -138.13726      0.0010359351         42.346926
                   9.425178e-05        -61.206694       0.049568508        -124.69258     0.00017598688        -129.00725       0.033204212         -139.7232
                    0.030934153        -139.31256     0.00016100554        -127.88212       0.050989446        -127.51892     0.00010074757        -95.926838
                   0.0010717677         40.464585       0.032343134        -138.62367     7.5658597e-05         -89.71201       0.052113311        -126.67619

0.475      0.077553829        -173.75076     0.00019215708        -56.220995       0.021509703         154.76534      0.0014757953        -11.562935
                  0.00019625792        -55.455967       0.070974456        -172.71554      0.0002020229        -20.209466        0.01494023         147.34539
                    0.022069145         152.78956     0.00019754256        -27.040207       0.075730776        -176.02698     0.00016610114        -45.140337
                   0.0014829275        -13.941131        0.01475741         150.56834     0.00019653943        -43.168814       0.070338213        -174.26468

0.5      0.030243978         154.95337     0.00024557561        -97.768958       0.023618267        -79.047081     0.00057927565        -57.288452
                   0.0002450196        -96.541619       0.024623325         175.31002     0.00046014496        -79.800077       0.034319889        -78.976463
                    0.022713873         -77.01724     0.00043288767        -84.388551       0.025229681         162.06961     0.00027626921        -85.449717
                  0.00054376355        -62.898952       0.033387045        -80.187369     0.00030217417        -89.054406       0.022641953        -178.69552

0.525      0.060586108        -142.54751     0.00014009846        -133.84519       0.068536256        -145.98504     0.00091808812         33.173572
                   0.0001374141        -129.69194        0.06665444        -143.03484     0.00036407776          -142.972       0.073665343        -146.16923
                    0.067371886         -145.6293     0.00032480961        -148.75895       0.066477768        -142.76558     0.00020233131        -126.35862
                  0.00095284285         35.831681       0.072128092        -146.46427      0.0002067826        -134.14462       0.069258049         -143.1245

0.55      0.083135862         171.59202     9.8933858e-05        -84.067062       0.065494253         154.44839       0.001504557         -18.00989
                  0.00011341185        -83.488896       0.078000522         171.79241     3.4666336e-05         -14.77877       0.061168533         152.95513
                    0.064398679         154.40665     7.8381075e-05        -8.4421585       0.081406079          170.8796     9.1867025e-05        -109.38892
                   0.0015486175         -18.06254       0.059513337         153.31092     6.9486269e-05        -104.31475        0.07614258            170.78

0.575      0.039632542        -176.01571     0.00024569218        -112.85579       0.014405714        -157.15681     0.00071867203        -67.745085
                  0.00025863358        -114.51108       0.042556193        -158.93019     0.00044243463        -91.202266       0.021509569        -127.46111
                    0.014341855        -153.38702     0.00046858037        -91.793232       0.039309975        -170.09967     0.00022913841        -109.58309
                  0.00073908084        -71.402434        0.02307623        -127.89828      0.0002411255        -105.25487       0.043191277        -156.28368

0.6       0.13233184        -152.14476     0.00024180462        -163.67377        0.09974201        -163.01522     0.00077350043         24.787081
                  0.00024563071        -165.12942        0.14351672        -153.55391     0.00052320864        -160.31313        0.10801797        -162.91457
                    0.099862787        -162.56315     0.00052813667           -162.81        0.14190091        -151.61177     0.00025224314        -155.31608
                  0.00076599673         29.510198        0.10812375        -163.48651     0.00027398947        -155.55589        0.14942657        -153.57807

0.625       0.19151301          155.0969     0.00011543081          146.0246        0.13700242         140.86365      0.0014294609        -22.853137
                  0.00011221029          146.9625        0.19105414         153.59845     0.00020277382         123.02414        0.13563788         140.19738
                     0.13652398          141.1602      0.0001972162         112.50276        0.19392561         154.35969     0.00014363474         162.93282
                   0.0014615217        -20.556145        0.13459137         139.87119     0.00016092996         155.77201        0.19123511         152.90544

0.65       0.12294231         102.49668     0.00015664799        -88.717607       0.090301761         88.834577     0.00089406929         -71.26179
                  0.00016497799        -92.226812        0.10970474         102.35292      0.0003350121        -82.261226       0.078823683         88.155237
                    0.089279478         89.290829     0.00037902737        -80.309062          0.114525         101.76613     0.00014299893        -102.26744
                  0.00095019908        -69.673524       0.077018739         88.278905     0.00012843891         -91.23933        0.10226115         101.88572

0.675      0.082673034        -174.94115     0.00031560696        -163.84449       0.058440787         158.78195     0.00057023028         17.303212
                   0.0003268552        -166.66856        0.09817562        -174.28122     0.00062478953        -164.63419       0.068493675         163.72896
                    0.059419787          159.2086     0.00066375095        -164.01642       0.095363269         -170.3375     0.00030394871        -168.55063
                  0.00052324128         16.405337       0.069666404         163.91228     0.00030417657        -163.51644        0.10806281        -171.34968

0.7       0.24476623         143.21991     0.00024215871         133.71748        0.15467454         125.34292       0.001323255        -27.701511
                  0.00024683632         130.72314        0.24837556         141.29052     0.00038062031         117.78235        0.15536708         124.44245
                      0.1557211         125.37028     0.00040527813         117.48747          0.252572         142.33582     0.00022069221         135.87011
                   0.0013063221        -26.105603        0.15626146         124.13813     0.00023411013         139.56224        0.25377106           140.465

0.725       0.26063973         90.790641      9.186489e-05        -13.154102        0.15364909         76.020533     0.00098157793         -70.59889
                  9.7079896e-05        -12.422488        0.25108833         88.883978     0.00018660678         -55.61412        0.14439668         74.606647
                     0.15409639         76.141018     0.00019760531        -50.632124        0.25797493          89.67363     7.2957767e-05         -36.36085
                    0.001004261        -67.898776        0.14426664         74.315831     6.6174593e-05        -20.325944         0.2484974         87.818996

0.75       0.11615904         41.575724     0.00038184577        -143.60504       0.059431223         31.932011      0.0003004745        -17.271467
                  0.00038536889        -144.09988       0.097553552         42.296849     0.00065136359        -152.76829       0.043602617         35.053922
                    0.059416286         32.743595     0.00066841853        -151.08062        0.10456328         41.725056     0.00040084445        -152.14024
                  0.00032762244        -28.942005       0.042544439         35.143329      0.0003864657        -148.70362        0.08854886         42.655317

0.775       0.12934892          122.0393     0.00037518189         140.53927       0.098967672         110.73076      0.0012025783         -30.67653
