! Created Thu Mar  2 12:27:09 2023
# ghz S ma R 45
! 4 Port Network Data from SP1.SP block
! freq  magS11  angS11  magS12  angS12  magS13  angS13  magS14  angS14  
!       magS21  angS21  magS22  angS22  magS23  angS23  magS24  angS24  
!       magS31  angS31  magS32  angS32  magS33  angS33  magS34  angS34  
!       magS41  angS41  magS42  angS42  magS43  angS43  magS44  angS44  
!     
0      0.065955338    -3.1763921e-13     2.6097498e-06      1.580078e-13      0.0040171775    -4.2586408e-12      3.493271e-07              -180
                  2.6353458e-06     1.0481225e-13       0.066168123    -3.1507834e-13      1.532471e-06     1.0881641e-13      0.0039925699    -4.2875931e-12
                   0.0048639116     1.3050328e-11     1.5693124e-06    -2.1102897e-14       0.066528139    -3.1732169e-14     3.4937487e-07     1.4443346e-13
                  3.4856774e-07              -180      0.0047538358     1.3357956e-11     3.5715206e-07    -2.2740556e-13       0.065647643    -3.2975168e-14

0.025       0.14370635         5.2071934      7.001375e-06         29.438771       0.083000763         24.875995     3.7670727e-06         63.698883
                  6.9952824e-06          29.43747        0.14320109         5.4345748     2.8856088e-06         1.1750003       0.082834787         25.167807
                    0.083433709         24.410405     2.8961015e-06         1.1457563        0.14418586         5.4268744     7.4027841e-07         22.487121
                   3.765907e-06         63.630788       0.083307442         24.723241     7.3372805e-07         22.067537        0.14397464         5.8600327

0.05       0.13267421        -40.240071     1.7300469e-05         129.85373        0.07347469        -32.016098     6.6410274e-06         110.80876
                  1.7307948e-05          129.9075        0.13338721        -39.782924     7.7403911e-06           138.518       0.074098922        -31.466905
                     0.07416977        -32.448455     7.7450643e-06         138.60005        0.13357022         -40.35852     2.0199223e-06         121.52154
                   6.639929e-06         110.92239       0.074818145        -31.901694     2.0275322e-06         122.11437        0.13453812         -39.92604

0.075      0.049349892        -4.1564049     4.5796598e-05         78.235098       0.037918958         37.807782     1.8166521e-05         81.670998
                  4.5798367e-05         78.255311       0.048523817        -5.5510005     1.8992019e-05         70.881186       0.036842128         37.245077
                    0.037431673         37.137138     1.9014669e-05         70.896355       0.049602813        -4.3353296      5.453413e-06         69.094312
                  1.8189677e-05         81.673729       0.036356649         36.539744     5.4568867e-06         69.266542       0.048661965        -5.6359121

0.1       0.16524619          7.795777     2.3311968e-05         38.234487        0.13797009         14.646699     1.3926283e-05         68.446806
                  2.3309169e-05         38.298055        0.16444798         8.9916374     7.5883415e-06         3.7977832        0.13757346          15.79575
                     0.13728643         14.483373     7.6111579e-06         3.6446623         0.1659089         8.0845405     2.8304292e-06         52.537798
                   1.391871e-05         68.319679        0.13688919         15.632235     2.8336173e-06         53.018831        0.16517776           9.29941

0.125       0.18215948        -42.611181     4.4728605e-05         122.42397        0.13655494         -41.46181     1.9828616e-05         92.065298
                   4.477131e-05          122.4079        0.18429063        -41.303972     1.7833987e-05         135.54619        0.13823767        -39.999088
                     0.13603863        -41.784004     1.7851121e-05         135.66361        0.18309075         -42.57688     4.2064479e-06         85.665931
                  1.9814375e-05         92.185768        0.13772154        -40.317143     4.2459908e-06         85.988311        0.18510497         -41.26159

0.15      0.059057258        -75.833919     8.8076023e-05         73.991869       0.028633404        -84.233636     3.3822348e-05         69.090814
                  8.8133585e-05         73.980652       0.062190679        -76.403722     3.5566619e-05          71.85477       0.031392465        -84.216679
                     0.02804091        -85.956877     3.5618007e-05         71.840114       0.058949631        -75.980815     9.4763413e-06         63.040172
                  3.3880125e-05         69.085034       0.030828679        -85.820426     9.5511925e-06         62.975617       0.061868984        -76.455878

0.175       0.14337283        -2.6563687     3.4054438e-05         37.068334         0.1189062         3.1254763     2.1095843e-05          61.21778
                  3.4108502e-05         37.018043        0.14249384       -0.68368074     9.0653285e-06        0.18664501        0.11862536         5.0910875
                     0.11873971         3.5870748     9.0751988e-06       -0.16978175        0.14470271        -2.5321898     4.6295993e-06         41.455053
                  2.1054659e-05         61.110706        0.11845479         5.5549917     4.6701557e-06         40.978282         0.1439498       -0.51580364

0.2        0.2269184        -50.929762     7.4174427e-05         113.55467        0.17383041        -52.111012      3.601985e-05         75.873377
                  7.4155625e-05         113.52615        0.23033634        -48.723753      2.772234e-05         129.47417        0.17666782        -49.718834
                     0.17337105         -51.97062     2.7774907e-05         129.54444        0.22856852        -50.951289     7.2087948e-06         50.652468
                  3.6019952e-05         75.970646         0.1762118        -49.580457     7.2355526e-06         50.440991          0.231884         -48.72947

0.225       0.16428636        -99.912437     0.00012170185         69.782588        0.11865306        -107.44299     4.6322024e-05         51.661143
                  0.00012170651         69.747862        0.16949088         -97.56746     4.5785029e-05         79.190607        0.12268995         -104.4827
                     0.11780075        -107.44257     4.5853729e-05         79.135053        0.16466053        -99.761247      8.826634e-06         57.363139
                  4.6408345e-05          51.65652         0.1218425        -104.48391     8.8630337e-06          56.89581        0.16954755        -97.415846

0.25      0.040351512         -56.73592     4.1972748e-05          28.27303       0.015652398        -40.533252     2.0893299e-05         25.959239
                  4.1965289e-05         28.120855         0.0403783        -55.446787     1.1665163e-05         23.718761       0.015893288        -39.723653
                    0.016156141        -36.546853      1.163679e-05         23.343245       0.042599743        -55.096934     6.5192471e-06         8.6957807
                  2.0866071e-05         25.735102       0.016348322        -35.694988     6.5490836e-06         7.5386758       0.042620774        -53.347525

0.275       0.17713091        -60.775666     0.00010912345         112.00152        0.11433388        -64.038681     4.4937187e-05          79.52354
                  0.00010904516         112.04815        0.18242259        -57.713675     4.3466819e-05         122.83675        0.11889472        -60.591584
                     0.11526877        -63.661624       4.35233e-05         122.84429        0.18044002        -61.279796     7.0626753e-06          57.07801
                  4.4968043e-05         79.572516        0.11983453         -60.22843      6.959968e-06         57.093771        0.18562475        -58.184084

0.3       0.21218862        -111.34066     0.00014912218          64.53977        0.12748812        -120.32157     5.6980184e-05         36.355541
                  0.00014906043         64.563285        0.21854731        -107.79019     5.4321725e-05         80.015264         0.1322555        -116.04071
                     0.12801752        -120.03368     5.4334343e-05         79.957339        0.21385322        -111.64103     6.6576122e-06         49.883621
                  5.7019829e-05          36.32753        0.13279161        -115.76677     6.5820179e-06          50.08901        0.21982145        -108.07115

0.325       0.12077773        -161.02971     4.5750763e-05         33.511956       0.065249286        -176.96443     2.2393286e-05        -14.384806
                  4.5682437e-05         33.539372        0.12222751        -156.43281     2.2339098e-05          70.11356       0.065327617         -171.5803
                    0.065142116        -176.45832     2.2256023e-05         70.102415        0.11955109        -160.36569     6.8043998e-06         26.292005
                  2.2393135e-05        -14.595878       0.065228328        -171.07677     6.7225569e-06         26.339197        0.12070048        -155.72744

0.35      0.042839022        -86.551826     0.00014574658         111.77156       0.020623509        -81.000988     4.6602803e-05         100.12847
                  0.00014579642         111.81498       0.050037914        -80.962284     6.0769643e-05         109.92094       0.026949251        -73.932677
                    0.021572979        -81.406949      6.084752e-05         109.95322       0.047881686        -87.337675     7.3679427e-06         72.293315
                  4.6670298e-05         100.19277       0.027898748        -74.334167     7.3444432e-06         73.323738       0.054974664        -81.858077

0.375       0.14112126        -118.79821     0.00018218332         59.184341        0.06340662        -133.55359     6.6197776e-05         36.044486
                  0.00018223697         59.236059         0.1485791        -114.54885      6.422849e-05         66.351173       0.069110093        -127.47429
                    0.064699167        -133.64801     6.4249204e-05         66.313328        0.14413923        -120.18429     8.0118219e-06         33.981083
                  6.6230307e-05         36.027453       0.070402634        -127.58847     7.9972667e-06         35.034285        0.15114037        -115.85677

0.4       0.14213047        -173.15585     4.2214339e-05         47.542173       0.051204209          165.7954     1.9420695e-05        -41.116765
                  4.2367404e-05         47.675607        0.14270635        -167.32738     2.9024405e-05         88.230506       0.049966267         172.96803
                    0.052481105         165.91684     2.8996132e-05         88.297583        0.14105997        -173.86151     5.2874003e-06         54.953855
                   1.940784e-05          -41.2171        0.05124496         173.03778     5.4294223e-06         56.114184        0.14126685        -167.97482

0.425      0.054442804         136.43273     0.00018170068         106.77011      0.0041381903         128.60027     5.4490648e-05         110.09888
                  0.00018174921         106.72741       0.048247564         148.76274     7.7794088e-05         96.850576       0.004711816        -95.623222
                   0.0050798555         128.11515     7.7879903e-05         96.861393        0.05080101         139.23846     1.0247086e-05         57.269028
                  5.4572591e-05         110.09354      0.0041325421        -105.21771      1.040998e-05         57.028648         0.0451414         152.53605

0.45       0.04723569        -123.78514     0.00020872244         54.673021       0.031121669        -138.13726     6.8884856e-05          41.78359
                  0.00020881224         54.657743       0.055132174        -119.82748     6.8967149e-05         51.993871       0.037529417        -130.37968
                    0.030934153        -139.31256     6.9027437e-05         51.916733       0.050989446        -127.51892     7.5463185e-06        0.12079243
                  6.8959647e-05         41.723707       0.037320683        -131.35584     7.6556621e-06        0.34628674       0.058411698        -122.98154

0.475      0.077553829        -173.75076     4.0064147e-05         70.651311       0.021509703         154.76534     5.3018872e-06        -28.898084
                  4.0144999e-05         70.460445       0.076932993        -165.82171     2.9456585e-05          113.1284       0.018716059         165.56114
                    0.022069145         152.78956      2.940684e-05         113.27924       0.075730776        -176.02698     5.4836679e-06         117.52353
                  5.2957613e-06        -29.731269       0.019210256         163.14366     5.4626602e-06         116.19265       0.074605702        -167.88828

0.5      0.030243978         154.95337     0.00022360416         100.64572       0.023618267        -79.047081     6.9638015e-05         97.010745
                  0.00022346139         100.60227       0.027727897        -178.47798     9.4843905e-05         93.332984       0.033363306        -74.246551
                    0.022713873         -77.01724     9.4943568e-05         93.334877       0.025229681         162.06961     1.3766874e-05         49.292166
                  6.9721466e-05         96.999288       0.032438734        -72.874041     1.3857876e-05         48.405006       0.024450732        -167.36681

0.525      0.060586108        -142.54751     0.00022345437         49.963592       0.068536256        -145.98504     6.8189693e-05         32.756567
                  0.00022331178         49.914785       0.068297314        -135.53191     6.8254989e-05          49.74026       0.074657255        -137.77037
                    0.067371886         -145.6293     6.8275342e-05         49.611275       0.066477768        -142.76558      7.053549e-06        -62.491699
                  6.8239765e-05          32.64379       0.073502564        -137.42854     7.3141315e-06        -62.868912       0.073333094        -135.47253

0.55      0.083135862         171.59202     5.3402598e-05          94.75737       0.065494253         154.44839     9.1773101e-06         155.80432
                  5.3223253e-05         94.869946       0.080518612        -178.81487     4.7010509e-05         116.21841       0.061826511         163.14166
                    0.064398679         154.40665     4.6996066e-05         116.42033       0.081406079          170.8796     1.2250178e-05          131.0632
                  9.2714853e-06         156.58019       0.060716899         163.12314     1.2169502e-05         132.03335       0.078797746         179.73541

0.575      0.039632542        -176.01571     0.00026402346         94.991147       0.014405714        -157.15681     8.1155578e-05         85.894478
                   0.0002639424         95.026677        0.04369837         -152.7884     0.00011393162         88.374676       0.021465814        -121.76036
                    0.014341855        -153.38702     0.00011405416         88.364817       0.039309975        -170.09967     1.6273545e-05         45.610272
                  8.1261529e-05         85.876581       0.021854993        -119.46153     1.6123697e-05         45.741779       0.044766077        -148.28046

0.6       0.13233184        -152.14476     0.00022753726         46.654013        0.09974201        -163.01522     6.6205377e-05         11.852496
                  0.00022739016         46.680586        0.13968821        -143.63908     6.7154735e-05         62.008048        0.10496144          -153.098
                    0.099862787        -162.56315     6.7051972e-05         61.924008        0.14190091        -151.61177     1.1196867e-05        -138.48427
                  6.6188124e-05         11.740491        0.10510745         -152.6763     1.1379394e-05         -138.8027         0.1486597        -143.43131

0.625       0.19151301          155.0969     8.5117412e-05         98.802005        0.13700242         140.86365     2.5400349e-05         -169.2696
                  8.5177272e-05         98.925826        0.18808484          164.5297     8.6110133e-05         99.088779        0.13210721         150.40816
                     0.13652398          141.1602     8.6178862e-05         99.211188        0.19392561         154.35969     2.3354567e-05         109.02991
                  2.5564653e-05         -169.4589        0.13163261         150.72239     2.3443015e-05          109.4721        0.18993791         163.80813

0.65       0.12294231         102.49668     0.00029317394         91.914769       0.090301761         88.834577     9.1201099e-05          100.9762
                   0.0002933424         91.956175        0.11176905         113.55223     0.00012651159         74.004963        0.07901067         98.000346
                    0.089279478         89.290829     0.00012668528         73.972194          0.114525         101.76613     1.7255764e-05         39.617206
                  9.1317319e-05         100.88705       0.077993229         98.547024     1.7179968e-05         40.509543        0.10358665         113.14884

0.675      0.082673034        -174.94115     0.00023966311         43.652579       0.058440787         158.78195     5.9668258e-05         14.291454
                  0.00023981753         43.699965       0.088629068        -164.13268     6.5257294e-05         50.730656       0.060618444         172.73558
                    0.059419787          159.2086     6.5153343e-05         50.719782       0.095363269         -170.3375     1.5712566e-05        -145.93581
                   5.959129e-05         14.223818       0.061629667         173.05271     1.5619778e-05        -146.68512        0.10096742        -160.21233

0.7       0.24476623         143.21991     0.00012207485         99.733407        0.15467454         125.34292     4.4839386e-05        -178.98071
                  0.00012220762         99.625765        0.23929505         153.42914      0.0001165072         90.243185        0.14767759         135.64174
                      0.1557211         125.37028     0.00011663822         90.220462          0.252572         142.33582     3.3180832e-05         96.887459
                  4.4780859e-05        -179.14603        0.14872586         135.66441     3.3368063e-05         96.554589        0.24689344         152.56687

0.725       0.26063973         90.790641     0.00030151345          87.95436        0.15364909         76.020533     0.00010256768         122.69986
                  0.00030156222         87.929969         0.2497371         100.82034     0.00013368473          56.30273        0.14322341         85.158524
                     0.15409639         76.141018     0.00013374531         56.241378        0.25797493          89.67363     1.5262102e-05         18.098946
                  0.00010245456         122.64456        0.14367674         85.292353        1.5419e-05         18.109761        0.24737374         99.762851

0.75       0.11615904         41.575724     0.00026317771         45.445178       0.059431223         31.932011      7.701279e-05         66.547592
                  0.00026339522          45.43782        0.10998617         51.277891     6.3017108e-05         22.351952       0.053894496         39.700578
                    0.059416286         32.743595     6.2886077e-05          22.25732        0.10456328         41.725056     1.4560566e-05        -144.98061
                  7.6864974e-05         66.558105       0.053868004         40.597551     1.4353552e-05        -145.06339       0.099071427         51.522995

0.775       0.12934892          122.0393     0.00014540034         109.40171       0.098967672         110.73076     7.0888747e-05         144.31465
