! Created Thu Mar  2 09:42:41 2023
# ghz S ma R 45
! 4 Port Network Data from SP1.SP block
! freq  magS11  angS11  magS12  angS12  magS13  angS13  magS14  angS14  
!       magS21  angS21  magS22  angS22  magS23  angS23  magS24  angS24  
!       magS31  angS31  magS32  angS32  magS33  angS33  magS34  angS34  
!       magS41  angS41  magS42  angS42  magS43  angS43  magS44  angS44  
!     
0      0.065955338    -3.1763921e-13      4.742048e-05     1.6214612e-12      0.0040171775    -4.2586408e-12     7.5408674e-05      -7.97518e-13
                  2.2011897e-05               180        0.06848614    -6.1988057e-13      4.306025e-05               180      0.0033234646      4.930562e-12
                   0.0048639116     1.3050328e-11     3.1299808e-05               180       0.066528139    -3.1732169e-14      7.243659e-05    -8.9946413e-13
                  5.7107022e-05              -180      0.0037500134     9.0291777e-12     1.3703476e-05     2.7860047e-11       0.067255268    -6.4705291e-13

0.025       0.14370635         5.2071934     8.5983514e-05        -9.4820547       0.083000763         24.875995     6.9987851e-05        -59.389604
                  5.6985653e-05         34.807625         0.1437148         4.2781794     5.1109322e-05         53.984716       0.083660745          24.95548
                    0.083433709         24.410405     3.6503389e-05         56.283789        0.14418586         5.4268744     6.8879766e-05        -73.316287
                  6.5978085e-05         62.534998        0.08365704         24.703484     2.6661131e-05        -28.166891         0.1431616         4.8942133

0.05       0.13267421        -40.240071     3.4875074e-05        -135.37471        0.07347469        -32.016098     0.00012049182         160.12617
                  2.9305765e-05         136.09318        0.13019063         -40.86935     2.9824255e-05         134.74313       0.073589414        -32.488128
                     0.07416977        -32.448455     4.7753469e-05         137.83834        0.13357022         -40.35852     0.00012384972          159.8434
                  3.9609848e-05         107.43646        0.07351381        -32.729844     7.4969815e-05         150.72622         0.1297834        -40.717547

0.075      0.049349892        -4.1564049     0.00015444754         72.523491       0.037918958         37.807782     0.00027941502         69.745107
                  0.00018023128         73.597002        0.05042023        -2.2626335     0.00016401139         76.031034       0.038810899         38.036565
                    0.037431673         37.137138     0.00018181017         74.272387       0.049602813        -4.3353296      0.0002581514           69.3362
                  0.00017965551         72.018123       0.038731009         38.036421     0.00020679905         69.541191       0.050498169        -2.6792627

0.1       0.16524619          7.795777     0.00015220076        -10.788448        0.13797009         14.646699     0.00025549819        -10.330364
                  0.00017021937         4.4976976         0.1673099         6.3895891     0.00016292935         8.1938429        0.13806682          13.74604
                     0.13728643         14.483373     0.00017072297         7.6022947         0.1659089         8.0845405     0.00024552653        -11.104349
                  0.00016676963          9.516707        0.13786153         13.616108     0.00020134334        -6.5359997         0.1687774         6.8123906

0.125       0.18215948        -42.611181     9.9277982e-05         -179.6887        0.13655494         -41.46181     0.00011115489        -151.54202
                  4.6196096e-05         146.04132         0.1797266        -44.239618     1.3432197e-05         126.06317        0.13501193        -42.616313
                     0.13603863        -41.784004     5.5030469e-06         108.30288        0.18309075         -42.57688     0.00010526283        -131.05923
                   5.325106e-05         103.96447        0.13442928        -42.831199     5.6087609e-05        -145.92976        0.18101767        -43.931741

0.15      0.059057258        -75.833919     0.00035562728         79.180513       0.028633404        -84.233636     0.00039840817         79.277022
                  0.00032935768         66.088805       0.054114082        -74.857126     0.00028342564         63.046126       0.026410857        -83.261757
                     0.02804091        -85.956877     0.00028076711         64.114659       0.058949631        -75.980815     0.00032113338         80.443316
                   0.0003469092         57.933488       0.025426435        -83.448478     0.00030285413           69.1635       0.054787337        -73.701203

0.175       0.14337283        -2.6563687     0.00032147054       -0.21410085         0.1189062         3.1254763     0.00043835418        -3.3051756
                  0.00031973499        -9.7433396        0.14606672        -4.2545846     0.00032189442         -11.90231        0.11850846         1.0634642
                     0.11873971         3.5870748     0.00032745198        -11.259452        0.14470271        -2.5321898      0.0004014036        -4.4377245
                  0.00035370506        -15.688393        0.11918746         1.2207963     0.00036957752        -11.051428        0.14799807        -4.8126769

0.2        0.2269184        -50.929762     4.0841397e-05        -166.98957        0.17383041        -52.111012     0.00015115378        -95.010072
                  6.0408974e-05        -143.21444        0.22466804         -53.15254     9.1729502e-05        -97.090669        0.17016045         -54.32959
                     0.17337105         -51.97062     9.4937815e-05        -91.267753        0.22856852        -50.951289      0.0001918645        -83.352692
                    7.57572e-05         -128.6296        0.17029534         -54.37294     0.00015877176         -93.51065        0.22692188        -53.535193

0.225       0.16428636        -99.912437     0.00041003074         73.642069        0.11865306        -107.44299     0.00033357919         86.252044
                  0.00037103177         73.032663        0.15889441        -102.45494     0.00027668328         72.591218         0.1141572        -110.07633
                     0.11780075        -107.44257     0.00025725812         72.108124        0.16466053        -99.761247     0.00022382859         93.544997
                  0.00037223526          68.48289        0.11349013          -110.173     0.00025681739          83.50241        0.16024957        -102.66441

0.25      0.040351512         -56.73592     0.00057294889        0.98366574       0.015652398        -40.533252     0.00056889062         4.6159476
                   0.0005118019         -3.720311       0.040064163        -56.040091     0.00048990587        -6.5471928       0.015749554        -42.298175
                    0.016156141        -36.546853     0.00047195853        -6.2512865       0.042599743        -55.096934     0.00049097375         4.1062228
                  0.00056582806        -9.5325627        0.01668386        -38.873673     0.00051132517        -2.8008164       0.041737358        -56.553338

0.275       0.17713091        -60.775666     0.00021034623        -77.994427        0.11433388        -64.038681     0.00027930661        -75.443901
                  0.00017265516        -98.604288        0.17304706        -63.508078     0.00025158078        -90.330374        0.10921514        -67.600015
                     0.11526877        -63.661624     0.00024135445        -90.283905        0.18044002        -61.279796     0.00030864074         -72.10726
                  0.00025896512        -102.17099        0.11063518         -67.60808     0.00030807892        -83.018004        0.17517764         -64.51027

0.3       0.21218862        -111.34066     0.00028892972         69.212584        0.12748812        -120.32157     0.00023197637         83.135176
                  0.00033537048         75.484669        0.20689942         -114.8027     0.00022767049         83.479581        0.12182214        -124.54473
                     0.12801752        -120.03368     0.00022662262         81.586708        0.21385322        -111.64103     0.00013150414         89.080431
                  0.00033142775         82.733403        0.12279187        -124.66669     0.00018167188         93.852673        0.20810706        -115.71856

0.325       0.12077773        -161.02971      0.0006067514        0.70197901       0.065249286        -176.96443     0.00059017419         7.2193535
                  0.00061420655         4.5142308        0.11981708         -165.8537     0.00057028132         3.2790267        0.06432766         178.00512
                    0.065142116        -176.45832     0.00056035007         2.5535258        0.11955109        -160.36569      0.0005241272         4.8500237
                  0.00066731911         3.7093147       0.064483866         177.86857     0.00057246666         5.3171655        0.11880761        -166.49539

0.35      0.042839022        -86.551826     0.00046463103        -74.552365       0.020623509        -81.000988     0.00048260926         -65.39521
                  0.00042482239        -71.614757       0.035400883        -91.665428     0.00049910047        -71.791559       0.015272873        -90.735906
                    0.021572979        -81.406949     0.00048372244        -72.085689       0.047881686        -87.337675     0.00051800446        -66.053319
                   0.0005241619        -74.756791       0.016037259        -90.354989     0.00055552102        -68.705727       0.038296685         -91.19671

0.375       0.14112126        -118.79821     0.00012728762          108.1058        0.06340662        -133.55359     8.0551709e-05         88.847967
                  0.00016522377         85.972381        0.13422806        -122.70601     8.8725218e-05         121.19221       0.058155962         -140.2262
                    0.064699167        -133.64801     9.2397593e-05         112.75668        0.14413923        -120.18429     1.7711462e-05        -177.46168
                  0.00017101975         110.86763       0.059548154        -140.57816     6.1065142e-05         161.77795        0.13625038        -124.06292

0.4       0.14213047        -173.15585     0.00051185823       0.088290832       0.051204209          165.7954     0.00057445356        -3.1986663
                  0.00058491819       -0.61106109        0.14228389        -178.82234     0.00056551812        -2.4230935       0.052117068         158.38675
                    0.052481105         165.91684     0.00057479567        -2.7621859        0.14105997        -173.86151     0.00055974093        -9.2152226
                  0.00065008612         3.0628037       0.053660585          157.8393     0.00057604699        -4.6584865        0.14109432         179.88106

0.425      0.054442804         136.43273     0.00057875156        -71.999198      0.0041381903         128.60027      0.0006903696        -69.978807
                  0.00064260006        -69.531824       0.061572434         125.76748     0.00073307036        -70.000559       0.010304608         108.05183
                   0.0050798555         128.11515     0.00073857873        -70.064054        0.05080101         139.23846     0.00077470085        -73.326196
                   0.0007745242        -67.386126       0.011550693         103.31283     0.00080582209        -70.754171       0.057484266         125.24938

0.45       0.04723569        -123.78514     0.00022160823        -161.77762       0.031121669        -138.13726     0.00024849804        -142.21316
                  0.00023806951        -148.44247       0.039404745         -127.0869     0.00032049326        -138.29541       0.026860243        -147.46139
                    0.030934153        -139.31256     0.00032376503        -138.38659       0.050989446        -127.51892     0.00033906734        -138.62479
                  0.00032052883         -143.1538       0.026297889        -147.29271     0.00037151086        -136.31161       0.043448029        -128.61505

0.475      0.077553829        -173.75076     0.00036006405        -2.4907134       0.021509703         154.76534     0.00044186433        -17.233406
                  0.00035495637        -10.712745       0.077930299         178.78335     0.00038666227         -19.22166       0.025694579         143.86884
                    0.022069145         152.78956      0.0003854204        -18.340683       0.075730776        -176.02698     0.00045730642        -23.731477
                  0.00040987949        -9.2871987       0.025983171          143.2391     0.00043411919        -23.141376       0.078028733         177.10645

0.5      0.030243978         154.95337     0.00067071052        -80.876629       0.023618267        -79.047081     0.00087579215        -86.324662
                  0.00071441105        -84.531231       0.035069486         135.90975     0.00086040797        -85.405974       0.014869035        -78.920404
                    0.022713873         -77.01724     0.00086471037        -84.470656       0.025229681         162.06961       0.001000034        -88.381445
                  0.00087911633        -81.137699       0.014030591        -75.671691     0.00098949432        -87.191718       0.030971051         136.88187

0.525      0.060586108        -142.54751     0.00050643428        -157.45776       0.068536256        -145.98504     0.00066856291        -158.71203
                  0.00058065141         -158.3461       0.054685296        -150.61517     0.00067055532        -152.93851       0.064318047        -153.85034
                    0.067371886         -145.6293     0.00068404862        -151.30866       0.066477768        -142.76558     0.00076968667        -157.02827
                  0.00070281351        -151.80616       0.062784218        -153.18237     0.00076886654        -154.79599       0.059394506        -149.59354

0.55      0.083135862         171.59202     0.00012735434          30.58523       0.065494253         154.44839     0.00015020907           23.0748
                  0.00010781563         67.941196       0.085603588         161.97477     7.2472814e-05        -3.5968435        0.07199963         144.70767
                    0.064398679         154.40665     4.5653898e-05        -1.6149464       0.081406079          170.8796     0.00014889072         7.4359397
                   7.324855e-05         46.945171       0.070336606         145.30437     0.00012139736        -1.9995462       0.086648171         160.88745

0.575      0.039632542        -176.01571     0.00066470294        -94.900752       0.014405714        -157.15681     0.00086238698        -96.827372
                  0.00060193137          -97.6761       0.038828989         161.57741     0.00080757991        -99.395578       0.013191298         147.80869
                    0.014341855        -153.38702     0.00078212496        -99.215581       0.039309975        -170.09967     0.00098403286         -96.59794
                  0.00078095844        -97.159786       0.013413401         154.31382     0.00096720235        -98.404803       0.037942095          164.1823

0.6       0.13233184        -152.14476     0.00083886823        -173.90286        0.09974201        -163.01522      0.0010599781        -175.66645
                  0.00082787336        -177.22658        0.13078724        -160.67609     0.00092642625        -173.51558       0.096631274        -172.00196
                    0.099862787        -162.56315     0.00090914005        -172.47797        0.14190091        -151.61177      0.0010988002        -172.65579
                  0.00099502724        -173.71844       0.096871367        -172.14959      0.0010849134        -173.67876        0.13628059        -160.95099

0.625       0.19151301          155.0969     0.00038366357          110.2504        0.13700242         140.86365     0.00049141589          99.81998
                  0.00042876615         105.96776        0.19910651         145.53942     0.00031594419         104.98631        0.14411586         131.94361
                     0.13652398          141.1602     0.00030628991         110.09782        0.19392561         154.35969     0.00038412484         97.622174
                   0.0004429043         107.14219        0.14313971          132.0426     0.00037203384         96.233255        0.20012433         144.48895

0.65       0.12294231         102.49668     0.00047287962         -88.58592       0.090301761         88.834577     0.00065138288        -80.056343
                  0.00042572395        -80.111325        0.13288294          92.17278     0.00063376374        -90.372704        0.10117804         80.101209
                    0.089279478         89.290829     0.00060314554        -92.257138          0.114525         101.76613     0.00079443812        -84.824494
                   0.0005806132        -85.322392       0.099408918         80.827092     0.00079460632         -86.65685        0.12696383         90.895816

0.675      0.082673034        -174.94115      0.0011261463        -179.40071       0.058440787         158.78195      0.0013125176        -175.98526
                   0.0010323233        -178.12018       0.083346615         175.71854      0.0011477945        -176.87427        0.05893495         146.84661
                    0.059419787          159.2086      0.0011131672         -177.7493       0.095363269         -170.3375      0.0013232036        -173.52984
                   0.0012330333        -177.95165         0.0607285         146.95996      0.0013163209        -175.06645       0.091345928         178.68078

0.7       0.24476623         143.21991      0.0007852188         104.54777        0.15467454         125.34292     0.00087480193           100.817
                  0.00072314465         103.62533         0.2559531         133.10833      0.0005933479         100.64998        0.16295953         115.66751
                      0.1557211         125.37028      0.0005622268          99.89499          0.252572         142.33582     0.00066453475         100.44918
                  0.00080745639         100.10836        0.16408111         115.22734     0.00066451432         97.717729        0.25996917         131.95994

0.725       0.26063973         90.790641     0.00020742439        -31.804653        0.15364909         76.020533     0.00041202297         -40.93754
                  0.00023936425        -37.906998         0.2726526         81.076092     0.00038989316        -72.689148        0.16264833         67.518784
                     0.15409639         76.141018     0.00039066287        -76.525041        0.25797493          89.67363     0.00050792725        -68.004085
                  0.00038000248        -47.824878        0.16252675         67.332817     0.00053240552        -67.738891        0.26870752         79.667928

0.75       0.11615904         41.575724      0.0011694354        -164.17518       0.059431223         31.932011      0.0013917511        -157.53018
                   0.0011753075        -161.06543        0.11749235         32.744877      0.0012992386         -160.8629       0.061275018         25.722952
                    0.059416286         32.743595       0.001290606        -162.15751        0.10456328         41.725056      0.0014579049        -158.11799
                   0.0013656267         -160.0009       0.060528512         26.713819      0.0014659065        -158.23568        0.10691651         32.367236

0.775       0.12934892          122.0393      0.0012761096         110.18009       0.098967672         110.73076      0.0013447426         113.01903
