! Created Thu Mar  2 10:09:31 2023
# ghz S ma R 45
! 4 Port Network Data from SP1.SP block
! freq  magS11  angS11  magS12  angS12  magS13  angS13  magS14  angS14  
!       magS21  angS21  magS22  angS22  magS23  angS23  magS24  angS24  
!       magS31  angS31  magS32  angS32  magS33  angS33  magS34  angS34  
!       magS41  angS41  magS42  angS42  magS43  angS43  magS44  angS44  
!     
0      0.065955338    -3.1763921e-13     1.5043727e-06     8.0883941e-14      0.0040171775    -4.2586408e-12      1.138183e-06     1.0988056e-13
                  1.5056988e-06    -5.7289841e-14       0.066680754     2.4194663e-13     2.5291046e-06     3.9296783e-15      0.0035058044    -4.9525413e-12
                   0.0048639116     1.3050328e-11     2.5238594e-06     -2.105902e-14       0.066528139    -3.1732169e-14     2.0370156e-06     6.4914207e-15
                  1.1372259e-06     1.2198095e-14      0.0044399351    -4.7409673e-12     2.0349014e-06     7.6483244e-14       0.067841113    -2.5134539e-13

0.025       0.14370635         5.2071934     1.1734846e-05         5.1309512       0.083000763         24.875995     7.3272682e-06       -0.71818414
                  1.1736188e-05         5.0578791        0.14396808         5.3155865     1.8065685e-05         7.2357189        0.08370911         25.360788
                    0.083433709         24.410405     1.8060295e-05         7.2152042        0.14418586         5.4268744     1.3569566e-05         5.0844198
                   7.323677e-06       -0.77996934       0.083205574         24.887141     1.3561603e-05         5.1229421        0.14375223         5.1483672

0.05       0.13267421        -40.240071     1.4927271e-05         155.57694        0.07347469        -32.016098     9.8033907e-06         160.73864
                  1.4952275e-05         155.75069        0.13313906         -39.93916     2.2970949e-05         151.60398       0.074672778        -31.585773
                     0.07416977        -32.448455     2.2999519e-05         151.62872        0.13357022         -40.35852      1.716332e-05          154.6502
                  9.8374867e-06         160.80759        0.07374772        -31.746744     1.7166281e-05         154.51626        0.13255725        -40.175354

0.075      0.049349892        -4.1564049     5.8771547e-05         71.755911       0.037918958         37.807782     3.6642842e-05         69.372016
                  5.8802749e-05         71.818842       0.049046113        -3.3712415     9.0487398e-05         72.672592       0.037650299         38.066872
                    0.037431673         37.137138     9.0519066e-05         72.674433       0.049602813        -4.3353296     6.7786861e-05         71.926087
                  3.6675313e-05         69.386967       0.038091187         38.662479     6.7778035e-05          71.87067       0.049048862        -3.9604312

0.1       0.16524619          7.795777     5.9797311e-05        -2.5294519        0.13797009         14.646699     3.6448806e-05        -10.775912
                  5.9843812e-05         -2.499598         0.1661957         8.6740399     9.2034512e-05         1.1054608        0.13848706         15.773431
                     0.13728643         14.483373     9.2020382e-05         1.1022356         0.1659089         8.0845405     6.9493067e-05        -1.6982385
                  3.6441587e-05        -10.770387         0.1388562         15.437936     6.9426807e-05         -1.728241        0.16725189         8.5405692

0.125       0.18215948        -42.611181      1.397949e-05        -142.68707        0.13655494         -41.46181     1.2269291e-05        -147.60012
                  1.4024688e-05        -142.74871        0.18371547        -41.698819     1.7354105e-05        -150.03315        0.13791377         -40.04965
                     0.13603863        -41.784004     1.7396749e-05        -150.26544        0.18309075         -42.57688     1.5480979e-05        -142.82637
                  1.2321135e-05        -147.87856        0.13753309        -40.435632     1.5465726e-05        -143.04377        0.18423071        -41.986975

0.15      0.059057258        -75.833919     9.7388749e-05         72.380712       0.028633404        -84.233636     6.1886652e-05         72.084402
                  9.7526122e-05          72.42474       0.058785672        -75.045972     0.00014937984         72.207194       0.029001023        -82.211559
                     0.02804091        -85.956877     0.00014956399         72.178637       0.058949631        -75.980815     0.00011241213         72.045292
                  6.2097571e-05         72.034075        0.02782951        -82.664045     0.00011245108          71.97816       0.057945232        -75.303655

0.175       0.14337283        -2.6563687     0.00011972157        -7.0438206         0.1189062         3.1254763     7.3374299e-05        -15.063485
                  0.00011993207        -7.0228122        0.14650688        -0.9180213     0.00018277299        -3.5487818        0.12115173         4.7266868
                     0.11873971         3.5870748     0.00018287595        -3.5953282        0.14470271        -2.5321898     0.00013910592        -6.3972772
                  7.3521945e-05         -15.15584        0.12226068         4.8218935     0.00013901278        -6.4624823        0.14834518       -0.85392094

0.2        0.2269184        -50.929762     4.4660551e-05        -86.919711        0.17383041        -52.111012     2.7808059e-05        -104.71783
                  4.4775252e-05        -86.930404        0.23098903        -49.199563     6.4063298e-05        -82.030864        0.17638125        -49.938523
                     0.17337105         -51.97062     6.4061473e-05        -82.110113        0.22856852        -50.951289      5.207062e-05        -85.859868
                  2.7853106e-05        -104.84799        0.17709059         -50.12818     5.1973646e-05        -85.930911        0.23312614        -49.429941

0.225       0.16428636        -99.912437     8.8718338e-05         82.200473        0.11865306        -107.44299     5.6844294e-05         86.202793
                  8.8789946e-05         82.192931        0.16542549        -97.888282     0.00013931607         79.314639        0.11885673         -104.5377
                     0.11780075        -107.44257      0.0001394956         79.292214        0.16466053        -99.761247     0.00010329336          80.96493
                  5.7020392e-05         86.153208        0.11878156        -104.98011     0.00010337595         80.949808        0.16624351        -98.197384

0.25      0.040351512         -56.73592     0.00018254167         1.1552248       0.015652398        -40.533252     0.00011298548        -1.9338765
                  0.00018271776         1.1192591        0.04411496        -48.027714     0.00027495899         2.2317461        0.02076916        -29.864355
                    0.016156141        -36.546853     0.00027517157         2.1658307       0.042599743        -55.096934     0.00021134678        0.73510228
                  0.00011325647        -2.0851186       0.020965508        -26.717202     0.00021140107        0.69949184       0.045217917         -46.64286

0.275       0.17713091        -60.775666     0.00010983459        -75.858351        0.11433388        -64.038681     6.3630533e-05        -87.718781
                  0.00011003739        -75.943411        0.18573464          -58.3728     0.00016317612         -72.39018        0.12092554        -61.294393
                     0.11526877        -63.661624     0.00016319893        -72.501756        0.18044002        -61.279796       0.000127804        -75.626169
                  6.3748409e-05        -87.986313        0.12209586         -61.08159     0.00012769953         -75.67792        0.18904483        -58.703584

0.3       0.21218862        -111.34066     5.6531434e-05         89.835627        0.12748812        -120.32157     4.1778997e-05          92.65977
                  5.6583643e-05         89.994977        0.21586041        -108.42691     8.8819096e-05         85.662471        0.12884469        -116.53833
                     0.12801752        -120.03368     8.8936065e-05         85.713478        0.21385322        -111.64103     6.6280155e-05         88.618374
                  4.1878157e-05         92.762171        0.12995171        -116.64364     6.6328949e-05         88.576443        0.21845924        -108.84359

0.325       0.12077773        -161.02971      0.0002038297         7.0141232       0.065249286        -176.96443     0.00012639848         6.8941464
                  0.00020385999         6.9999659        0.11477798        -156.13039     0.00030805155         6.7496218       0.057864233        -171.15758
                    0.065142116        -176.45832     0.00030815425         6.7434179        0.11955109        -160.36569     0.00023761398         6.0085168
                  0.00012648733         6.8818374       0.058418889         -171.8981     0.00023766724         6.0221427        0.11479136        -156.20243

0.35      0.042839022        -86.551826     0.00020629256        -65.216018       0.020623509        -81.000988     0.00012225063        -70.412232
                  0.00020629234        -65.286187       0.056143923        -79.330281     0.00030371668        -63.764304       0.032850285        -73.961374
                    0.021572979        -81.406949     0.00030374065        -63.821504       0.047881686        -87.337675     0.00023802655        -65.905352
                  0.00012230942        -70.561433       0.032824509        -72.493232     0.00023808854        -65.902551       0.059496906        -79.533655

0.375       0.14112126        -118.79821     2.5392855e-05        -167.15139        0.06340662        -133.55359     1.7411706e-05         144.05476
                  2.5565688e-05        -167.83973        0.14774108        -115.46958     3.3306086e-05        -165.23162       0.067861568        -129.01672
                    0.064699167        -133.64801     3.3366772e-05        -165.75575        0.14413923        -120.18429     2.7995572e-05        -170.36322
                  1.7701507e-05         143.56848        0.06866578        -128.42799     2.7940741e-05         -170.2756         0.1511597        -116.40138

0.4       0.14213047        -173.15585     0.00019654816        -1.5513374       0.051204209          165.7954      0.0001279005        -3.1184741
                  0.00019672722        -1.4718895         0.1350721        -167.71409     0.00029325959        -0.8005375       0.042334813         170.82139
                    0.052481105         165.91684     0.00029329657       -0.76139726        0.14105997        -173.86151     0.00023111106        -2.2118805
                  0.00012792235        -3.0195513       0.043602212         171.24668     0.00023095685        -2.2242302        0.13596019        -168.46906

0.425      0.054442804         136.43273     0.00028365916        -67.122498      0.0041381903         128.60027     0.00017274202        -71.753758
                  0.00028373378        -67.119864       0.040634873         153.58848     0.00041663238        -65.787012       0.012893839        -78.615101
                   0.0050798555         128.11515     0.00041666887        -65.753942        0.05080101         139.23846     0.00032890278        -67.905034
                  0.00017274054        -71.674028       0.011414914        -77.052392     0.00032884556        -67.865506       0.039328708         155.67155

0.45       0.04723569        -123.78514     0.00013269318        -131.41842       0.031121669        -138.13726       6.88193e-05        -141.79414
                  0.00013253906        -131.51431       0.056904862        -120.60796     0.00019502551        -129.25069       0.039416636        -132.15927
                    0.030934153        -139.31256     0.00019492161         -129.2229       0.050989446        -127.51892     0.00014948117        -131.95069
                  6.8668688e-05        -141.76551       0.038565703        -131.19579     0.00014955229        -131.83162       0.059699205        -122.63935

0.475      0.077553829        -173.75076     0.00014860672        -18.511199       0.021509703         154.76534     0.00010753379        -20.589706
                  0.00014902401        -18.379381       0.069901543        -164.41246     0.00021422478        -17.084518       0.012060022         158.54591
                    0.022069145         152.78956     0.00021436535         -17.09301       0.075730776        -176.02698     0.00017816092        -18.995772
                  0.00010774202        -20.582693       0.011953608          162.6485     0.00017787076         -19.10373       0.069658426        -166.24661

0.5      0.030243978         154.95337     0.00033721468        -81.388183       0.023618267        -79.047081     0.00021627561        -88.153497
                   0.0003377975        -81.359481       0.026378967        -154.97029     0.00048970398        -79.317851       0.043684078        -74.148385
                    0.022713873         -77.01724     0.00048967677        -79.298819       0.025229681         162.06961     0.00039389173        -81.964981
                  0.00021631777        -88.107022       0.042759502        -75.138149     0.00039331485        -81.966145        0.02584195        -149.11252

0.525      0.060586108        -142.54751       0.000251943        -146.29264       0.068536256        -145.98504     0.00014720731          -158.236
                  0.00025225194        -146.31701       0.073868525        -136.17524     0.00037370144        -143.28154       0.079927245        -138.41483
                    0.067371886         -145.6293     0.00037359186        -143.22215       0.066477768        -142.76558     0.00028959888         -146.5884
                  0.00014708136        -158.11649       0.078372726        -138.66434     0.00028920044        -146.50117       0.077200654        -136.82374

0.55      0.083135862         171.59202     4.8091188e-05        -17.071413       0.065494253         154.44839     5.2814746e-05        -11.732014
                  4.8330602e-05        -16.927052       0.075133463        -178.38615     5.7773639e-05        -20.918023       0.056768665          162.8013
                    0.064398679         154.40665      5.794122e-05         -21.53306       0.081406079          170.8796     6.3381506e-05        -20.601562
                   5.292846e-05         -12.36326       0.055128308         163.28098     6.3284651e-05        -21.180292       0.073665204        -178.62012

0.575      0.039632542        -176.01571     0.00033779144         -92.68878       0.014405714        -157.15681     0.00022553331        -99.074882
                  0.00033848172        -92.700367       0.049717138        -139.71801     0.00048161104        -90.639322       0.030968666        -108.68588
                    0.014341855        -153.38702     0.00048149587        -90.731104       0.039309975        -170.09967     0.00039516806         -92.90544
                  0.00022561695        -99.268622       0.032465892        -109.55908     0.00039449877        -92.985767       0.050631549        -137.90036

0.6       0.13233184        -152.14476     0.00035158043        -163.17805        0.09974201        -163.01522     0.00021556157        -176.41743
                  0.00035222042        -163.24714        0.14954866        -145.39161     0.00052253012         -159.3785        0.11240429        -153.52545
                    0.099862787        -162.56315     0.00052221083        -159.40065        0.14190091        -151.61177     0.00040540673        -162.91295
                   0.0002154168        -176.49729        0.11247126        -154.07219     0.00040460585         -162.8869        0.15578524        -145.33119

0.625       0.19151301          155.0969     9.4275418e-05         115.61387        0.13700242         140.86365     5.7669314e-05         78.287321
                  9.4497601e-05         115.45672        0.18621245         163.07663     0.00015475745         125.94454        0.12983089          149.6818
                     0.13652398          141.1602      0.0001544057         126.01858        0.19392561         154.35969     0.00010223537         115.55148
                  5.7387073e-05         78.169869        0.12876411         149.35418     0.00010172869         115.74268        0.18726459         162.32254

0.65       0.12294231         102.49668      0.0002772704        -83.900059       0.090301761         88.834577     0.00019283891        -86.633525
                  0.00027743974        -83.931504       0.098570706         114.01249     0.00038776596        -84.081073        0.06756792         97.694582
                    0.089279478         89.290829     0.00038777254        -84.243386          0.114525         101.76613     0.00033028019        -86.009789
                   0.0001929139        -86.944323       0.065771219         97.879662     0.00033016318        -86.133364       0.091789962         113.80605

0.675      0.082673034        -174.94115     0.00044152449        -164.90602       0.058440787         158.78195     0.00027831389        -175.63286
                  0.00044179073        -164.97906        0.10330592        -163.87971     0.00065121498         -162.4147       0.070531697         176.43016
                    0.059419787          159.2086     0.00065058706        -162.50143       0.095363269         -170.3375     0.00051111738        -165.81666
                   0.0002778899        -175.85743       0.071701254          176.5494     0.00051051146        -165.85556        0.11340918        -161.46078

0.7       0.24476623         143.21991     0.00020567621         117.22769        0.15467454         125.34292      0.0001153077         91.409886
                  0.00020574955           117.049        0.24238827         151.53502     0.00033565378         124.28338        0.14808757         134.75395
                      0.1557211         125.37028      0.0003349671         124.24567          0.252572         142.33582     0.00023314158         117.64946
                  0.00011484977         91.174972        0.14898252           134.431     0.00023256682         117.70675         0.2483996         150.60826

0.725       0.26063973         90.790641     0.00015810741         -69.32509        0.15364909         76.020533      0.0001239904        -71.837104
                  0.00015833563        -69.305852        0.24017449         98.969873     0.00020501319         -67.76598        0.13400746         83.805844
                     0.15409639         76.141018     0.00020499897        -67.850482        0.25797493          89.67363     0.00019163614        -72.228721
                  0.00012395642        -71.949663        0.13388816         83.487707     0.00019148603        -72.318058         0.2382254         97.893299

0.75       0.11615904         41.575724     0.00048623911         -150.2493       0.059431223         31.932011      0.0003139948        -155.05645
                  0.00048602486         -150.2737       0.092368737         52.049186     0.00070635541        -150.02373         0.0388441         42.786782
                    0.059416286         32.743595      0.0007059244        -150.08594        0.10456328         41.725056      0.0005649845        -152.16434
                  0.00031356788        -155.19253       0.037782256         42.818881     0.00056491065        -152.20513       0.083690941         52.704595

0.775       0.12934892          122.0393     0.00037237616         127.09978       0.098967672         110.73076     0.00021488099         110.96661
