! Created Thu Mar  2 09:39:11 2023
# ghz S ma R 45
! 4 Port Network Data from SP1.SP block
! freq  magS11  angS11  magS12  angS12  magS13  angS13  magS14  angS14  
!       magS21  angS21  magS22  angS22  magS23  angS23  magS24  angS24  
!       magS31  angS31  magS32  angS32  magS33  angS33  magS34  angS34  
!       magS41  angS41  magS42  angS42  magS43  angS43  magS44  angS44  
!     
0      0.065955338    -3.1763921e-13     1.5944551e-06               180      0.0040171775    -4.2586408e-12     1.9068111e-05               180
                   1.448521e-06              -180       0.067056307     8.1900918e-13     2.6164219e-05               180      0.0040146117     -1.880968e-12
                   0.0048639116     1.3050328e-11     3.0657171e-05    -2.4051156e-11       0.066528139    -3.1732169e-14     2.9628927e-05               180
                  3.1233591e-05    -7.2842416e-13      0.0050858932     9.0282085e-12     3.1815284e-05               180       0.067282374    -5.4462412e-13

0.025       0.14370635         5.2071934     3.1691693e-05        -168.21361       0.083000763         24.875995      2.093722e-05         141.89387
                  3.1656897e-05        -166.56668        0.14467135         4.7540944     3.2047094e-05         153.29511       0.083525443         24.553154
                    0.083433709         24.410405     3.6329012e-05        -119.69467        0.14418586         5.4268744     2.5518337e-05         122.99535
                  3.1138693e-05        -108.81899       0.084063862         23.975071     2.7659065e-05         124.14228        0.14473416         4.9843385

0.05       0.13267421        -40.240071       2.59864e-05         113.27515        0.07347469        -32.016098     1.2760222e-05         46.001307
                  2.6368936e-05         118.58922        0.13104925        -40.792064     1.5681355e-05         61.444273       0.072230391        -32.634558
                     0.07416977        -32.448455     2.0339513e-05         154.66325        0.13357022         -40.35852     1.7955177e-05        -7.5174106
                  2.1420092e-05         155.49146       0.073083674        -33.166866     1.7873622e-05       -0.46896235         0.1317516         -40.91413

0.075      0.049349892        -4.1564049     1.7523409e-05        -77.610022       0.037918958         37.807782     2.4191895e-05        -116.87533
                  1.4059504e-05        -78.487904       0.051125045      -0.021222036     3.7079962e-05        -115.75455       0.040774039         39.963442
                    0.037431673         37.137138     2.0823675e-05        -79.749599       0.049602813        -4.3353296     4.5444982e-05        -125.66119
                  1.0251109e-05         -13.07105       0.040165285         39.244757     4.3852746e-05        -124.79498       0.051216813       -0.94945284

0.1       0.16524619          7.795777     3.5512736e-05         177.91234        0.13797009         14.646699     3.7751491e-05          143.4468
                   3.241975e-05          176.7026        0.16838011         6.3656979     5.3981866e-05         153.20262         0.1402535         13.233749
                     0.13728643         14.483373     3.6790794e-05        -149.24451         0.1659089         8.0845405      5.219977e-05         141.91565
                  2.0188481e-05         -116.2739        0.13941285         13.023044      5.196214e-05         141.74355        0.16851449         6.6486039

0.125       0.18215948        -42.611181     2.1117655e-05         59.946424        0.13655494         -41.46181     3.6346647e-05         32.146117
                  1.8684597e-05         56.895802        0.17939837        -44.210498     4.3198085e-05         32.948498        0.13444405        -43.180544
                     0.13603863        -41.784004     1.5456499e-05        -149.07521        0.18309075         -42.57688     4.5136949e-05         17.104923
                  1.9236337e-05        -143.85249        0.13380992        -43.584951     4.6375913e-05         18.609083        0.18033756        -44.143683

0.15      0.059057258        -75.833919     5.6877571e-05        -90.295688       0.028633404        -84.233636     6.5655174e-05        -90.229748
                  5.4043296e-05        -92.911413       0.052420296        -72.384207     9.2140226e-05        -92.609019       0.022694595        -79.893728
                     0.02804091        -85.956877     6.3993498e-05        -127.92326       0.058949631        -75.980815     9.3333789e-05         -99.65953
                  3.6936738e-05        -142.48711       0.021893938        -82.317436     9.3032028e-05        -97.470888       0.053121636        -73.012608

0.175       0.14337283        -2.6563687     6.7004616e-05        -177.45644         0.1189062         3.1254763     7.3428847e-05         170.34406
                  6.3295802e-05        -179.38477        0.14890628        -4.9028113     9.9961415e-05           175.911        0.12292405        0.70187037
                     0.11873971         3.5870748     7.6625678e-05          162.9238        0.14470271        -2.5321898      0.0001004641         168.27317
                  4.2536613e-05         151.70277        0.12267707          1.223912     9.8878563e-05         170.48041        0.14896771        -4.9074404

0.2        0.2269184        -50.929762     1.6424495e-05         88.189904        0.17383041        -52.111012     3.9856284e-05         67.494488
                  1.3523833e-05         77.358334        0.22414195        -53.605448     4.0886765e-05         67.826624        0.17152856        -54.939433
                     0.17337105         -51.97062      1.458304e-05         71.375745        0.22856852        -50.951289     4.9651093e-05         61.200547
                  3.4977013e-06         63.431196        0.17091931        -54.770445     4.6851191e-05          63.12915        0.22532158        -53.612811

0.225       0.16428636        -99.912437     7.7104967e-05        -102.75342        0.11865306        -107.44299     6.9805069e-05        -81.333083
                  7.8791878e-05         -104.4835        0.15451577        -102.44094     0.00010454786        -91.867838        0.11092339        -110.84141
                     0.11780075        -107.44257     8.7153775e-05        -119.03955        0.16466053        -99.761247     9.8311032e-05        -87.041884
                  5.4870188e-05        -130.60851        0.10988144        -110.82586     9.7272646e-05        -87.708009        0.15611415        -102.31255

0.25      0.040351512         -56.73592     0.00013807437        -179.84778       0.015652398        -40.533252     0.00012946388        -175.47425
                  0.00013702902         179.20267       0.044673293        -50.526638     0.00018163171        -175.70376       0.020265462        -30.873044
                    0.016156141        -36.546853     0.00015480189          165.5138       0.042599743        -55.096934     0.00016775621        -175.98552
                  0.00010613754         156.20625       0.021124175        -27.863942     0.00016701661        -175.54499       0.045674803        -52.140294

0.275       0.17713091        -60.775666       7.32303e-05         106.10954        0.11433388        -64.038681     9.1098603e-05         102.20626
                  7.0360565e-05         104.65135        0.17506663        -64.485098     0.00010920638         106.05165         0.1120854        -68.047175
                     0.11526877        -63.661624     8.6654886e-05         79.490412        0.18044002        -61.279796     0.00011023175         102.61868
                   6.663143e-05         70.637209        0.11309663        -67.604005     0.00010916206         104.75996        0.17654473        -65.051778

0.3       0.21218862        -111.34066     5.2870703e-05        -113.30005        0.12748812        -120.32157     3.0564088e-05        -51.146496
                  5.6665415e-05        -113.98014         0.2025518        -115.51118     5.2667714e-05        -89.823955        0.11976127        -125.29054
                     0.12801752        -120.03368      7.990611e-05        -98.427986        0.21385322        -111.64103     4.4370333e-05        -61.441947
                  4.7067422e-05        -95.871944        0.12028408        -124.91217      3.937581e-05        -63.806377         0.2047091        -115.83416

0.325       0.12077773        -161.02971     0.00017159677         176.97615       0.065249286        -176.96443     0.00012245671        -171.09538
                  0.00017438341         176.62023        0.11121178        -165.44832     0.00019373159        -175.89383       0.058288939         176.87657
                    0.065142116        -176.45832     0.00020041028         177.66698        0.11955109        -160.36569     0.00015786551        -169.11799
                   0.0001310266         172.17503       0.058115865         177.60831     0.00015524466        -170.70406        0.11282336        -165.13455

0.35      0.042839022        -86.551826     0.00017510085         105.12422       0.020623509        -81.000988     0.00014941017         111.91578
                  0.00017564594         104.85324       0.041995213        -88.789128     0.00020706425         111.65642        0.01946632        -84.524135
                    0.021572979        -81.406949     0.00019446141         100.22166       0.047881686        -87.337675     0.00017888333          115.4052
                  0.00014148991         91.461514       0.020535685        -85.324441      0.0001771256         114.50503       0.043941896        -91.781663

0.375       0.14112126        -118.79821      3.377932e-05        0.35366899        0.06340662        -133.55359     5.1591534e-05         33.155487
                  3.2531371e-05        -2.1031015        0.13314615        -123.80789     4.9060605e-05         27.547273       0.056478947        -140.43007
                    0.064699167        -133.64801     5.7660903e-05        -30.118249        0.14413923        -120.18429      5.593367e-05         37.677651
                  5.6832848e-05        -27.614961       0.057876954        -140.55549     5.5383693e-05         38.278375        0.13514567         -125.2955

0.4       0.14213047        -173.15585     0.00015448937         173.55588       0.051204209          165.7954     8.5690285e-05         178.43442
                  0.00015674591          173.0461        0.13360859         -179.4296     0.00015290752         175.97796       0.045284563         156.85648
                    0.052481105         165.91684     0.00019784091        -178.04257        0.14105997        -173.86151     0.00010438861        -179.56934
                  0.00013104327        -176.05601       0.046637967         157.11641     0.00010241775         178.78019        0.13486833         179.61569

0.425      0.054442804         136.43273     0.00023689707         104.14142      0.0041381903         128.60027     0.00015766312         108.83057
                  0.00023908234         103.85274        0.05133312         127.41503     0.00024646976         108.24071       0.003425115         104.68571
                   0.0050798555         128.11515     0.00028081643         109.26514        0.05080101         139.23846     0.00018332123         112.79751
                   0.0001911909         106.32646      0.0044246212         109.24552     0.00018048021         111.29172       0.051421207         128.47507

0.45       0.04723569        -123.78514     0.00013558402         29.919728       0.031121669        -138.13726     8.9068281e-05         43.206736
                  0.00013699097         29.906749       0.043401258        -128.10623     0.00013734738         40.647938        0.02710027        -146.00617
                    0.030934153        -139.31256     0.00015402679          34.75756       0.050989446        -127.51892     0.00010183272         51.571333
                   0.0001066701         25.938805       0.026879136        -147.65129     9.8630558e-05         48.719533       0.044561204        -132.37297

0.475      0.077553829        -173.75076     9.2939656e-05          177.3627       0.021509703         154.76534      6.747351e-05         151.49722
                  9.2118873e-05         176.96499       0.072241372         179.17551     9.6629829e-05         160.79095       0.017867341         142.37642
                    0.022069145         152.78956     0.00011182906         178.28699       0.075730776        -176.02698     7.9587315e-05         144.97429
                  8.6693409e-05        -175.45706       0.018495895         139.79603     8.0147458e-05         148.15931        0.07176083         176.26548

0.5      0.030243978         154.95337     0.00025447116          98.67946       0.023618267        -79.047081     0.00017644016         89.735111
                  0.00025456382         98.319613       0.026531421         149.04812     0.00026632267         94.279746       0.025161348        -86.232753
                    0.022713873         -77.01724     0.00030102389         102.13983       0.025229681         162.06961     0.00020056969         89.495214
                  0.00021146644          103.4011       0.024255807          -84.1083      0.0002006106         90.099539       0.024187682         148.78879

0.525      0.060586108        -142.54751     0.00021720159         28.415221       0.068536256        -145.98504     0.00012372762          22.87996
                  0.00021817585         28.061061       0.061808939        -150.36261     0.00021171601            27.296       0.068977106        -155.17417
                    0.067371886         -145.6293     0.00025900389           34.8884       0.066477768        -142.76558     0.00014058198         25.496691
                   0.0001696777         35.112861       0.067740258         -154.8004     0.00013989506         25.062397       0.064142026        -151.07736

0.55      0.083135862         171.59202     2.9947872e-05        -117.54115       0.065494253         154.44839     5.4541554e-05         148.38232
                  3.0882344e-05        -114.43956       0.082695714         161.71074     3.4291773e-05         165.45204       0.065479117         144.56311
                    0.064398679         154.40665     1.3784865e-05        -41.655475       0.081406079          170.8796     6.3403046e-05         139.35088
                  9.9746308e-06         153.81844       0.064284878         144.51306     6.4287813e-05         143.21099       0.081191248         160.72486

0.575      0.039632542        -176.01571     0.00022619913         90.608225       0.014405714        -157.15681     0.00021357339         75.805629
                  0.00022444526         90.728125       0.038225265         179.68587     0.00027512433          81.22129        0.01564117        -159.85771
                    0.014341855        -153.38702     0.00024703513         85.638944       0.039309975        -170.09967     0.00024883272         73.949937
                  0.00018581144         85.239155       0.015751821        -156.06769      0.0002495105         75.479145       0.037861954         178.96388

0.6       0.13233184        -152.14476     0.00025980179          17.17139        0.09974201        -163.01522     0.00019654545        0.28159788
                    0.000258983         17.005801        0.13963523        -162.21231     0.00029501187         8.2997534        0.10543168        -173.56069
                    0.099862787        -162.56315     0.00029498686         15.935321        0.14190091        -151.61177     0.00023994238        0.21384471
                  0.00019368006         16.089987        0.10560607        -173.11197     0.00024002898         1.8975208        0.14422572        -161.99345

0.625       0.19151301          155.0969     8.0919143e-05        -56.904005        0.13700242         140.86365     4.3748626e-05        -130.19084
                  8.1316315e-05        -57.776727        0.19732686         144.23061     7.8663541e-05        -82.514279        0.14169065          130.3227
                     0.13652398          141.1602     9.5033769e-05        -49.528827        0.19392561         154.35969      5.579218e-05        -116.26093
                  3.7782482e-05        -34.138715        0.14122218         130.63475     5.2192222e-05        -113.05284        0.19855414         143.42821

0.65       0.12294231         102.49668     0.00018582084          91.22266       0.090301761         88.834577     0.00021244173         83.943527
                  0.00018474483         91.836374        0.12031477         91.675843     0.00025245917         87.260769       0.088593386         78.806508
                    0.089279478         89.290829     0.00019615374          83.07206          0.114525         101.76613     0.00024804634         83.032132
                  0.00015666633         76.078962       0.087572815         79.360146      0.0002469503         82.927383        0.11577915         90.682325

0.675      0.082673034        -174.94115     0.00031183463         9.9106802       0.058440787         158.78195     0.00028421965        -1.7018971
                  0.00031020284         10.362934       0.096958481         175.87216     0.00039362535         3.8118737       0.069143165         152.18705
                    0.059419787          159.2086     0.00034478213         3.3089254       0.095363269         -170.3375     0.00035457084        -1.1248181
                   0.0002357725        -2.2095393       0.070233233         152.41759     0.00035440167       -0.38553884        0.10392539          178.1903

0.7       0.24476623         143.21991     0.00014308778        -64.026798        0.15467454         125.34292     0.00011502283        -96.280104
                  0.00014209118         -63.83101        0.25744684         131.43794     0.00018951722        -79.222995         0.1640032         114.31825
                      0.1557211         125.37028     0.00016201724        -75.894703          0.252572         142.33582     0.00016476148        -86.980092
                  8.2220848e-05        -88.533888        0.16506117         114.31024     0.00016342102        -84.465879        0.26199041         130.43708

0.725       0.26063973         90.790641     0.00011226177         96.073004        0.15364909         76.020533     0.00013808527         101.63046
                  0.00011333817         96.029646        0.26171243         79.385174     0.00016161512         106.06293        0.15346621         65.491067
                     0.15409639         76.141018     0.00014226233          98.88575        0.25797493          89.67363     0.00015029947         106.83039
                    0.000112549         86.952008        0.15395052         65.607386     0.00014342309         105.50508         0.2610252         78.254143

0.75       0.11615904         41.575724     0.00036935822         17.539041       0.059431223         31.932011     0.00031956257         16.668438
                  0.00036914926         17.743264       0.097950046         34.034933     0.00045110731          18.44038        0.04450265         27.510673
                    0.059416286         32.743595     0.00041779903         15.613739        0.10456328         41.725056      0.0003960087         17.076708
                  0.00028173842         9.7141754       0.044739072         28.642117     0.00039106545          16.33444       0.093025694         34.119243

0.775       0.12934892          122.0393     0.00027288113        -66.646638       0.098967672         110.73076     0.00021356071        -78.578639
