!$
! Info: Touchstone file created by Circ.  Input file=Intel_C2M_200G_11p0in_202208016_staggered.circ
!$
# Hz S RI R 50
0	0.03089637	5.093699e-24	0.0001040519	1.593837e-22	0.0001464646	3.501511e-22	0.0001040454	1.591398e-22
	0.0001040519	1.593837e-22	0.03090911	5.51923e-24	0.0001040561	1.595173e-22	0.0001460669	3.471561e-22
	0.0001465208	3.502749e-22	0.0001040561	1.59519e-22	0.03089134	5.345862e-24	0.0001040476	1.59259e-22
	0.0001040454	1.591416e-22	0.0001461231	3.472802e-22	0.0001040476	1.59259e-22	0.0309071	5.218943e-24
1e+07	0.03766795	0.003304414	1.081117e-05	4.283187e-05	0.002860668	0.008054957	1.625774e-05	2.959407e-05
	1.081117e-05	4.283188e-05	0.03759641	0.004136948	9.250123e-06	5.234042e-05	0.00286729	0.008113362
	0.002860668	0.008054957	9.250124e-06	5.234042e-05	0.03757827	0.004196386	1.104297e-05	4.488471e-05
	1.625774e-05	2.959407e-05	0.00286729	0.008113362	1.104297e-05	4.488471e-05	0.03769633	0.00331191
2e+07	0.04383351	1.737293e-05	2.078607e-05	3.349926e-05	0.00686992	0.01438197	1.195173e-05	1.729678e-05
	2.078608e-05	3.349927e-05	0.04474448	0.001260567	4.00865e-05	4.984566e-05	0.006883764	0.01449645
	0.006869926	0.01438195	4.00865e-05	4.984566e-05	0.04474974	0.001376634	2.324792e-05	3.646888e-05
	1.195173e-05	1.729678e-05	0.00688377	0.01449644	2.324792e-05	3.646888e-05	0.04387466	1.810906e-05
3e+07	0.04704276	-0.006443967	3.38203e-05	2.545311e-05	0.012659	0.01921028	9.556909e-06	1.442283e-05
	3.38203e-05	2.545311e-05	0.04865224	-0.005364303	6.486531e-05	3.832671e-05	0.01268453	0.01937609
	0.01265899	0.01921033	6.486532e-05	3.832671e-05	0.04869056	-0.005192813	3.792356e-05	2.813522e-05
	9.556912e-06	1.442283e-05	0.01268452	0.01937613	3.792356e-05	2.813522e-05	0.04708382	-0.006450432
4e+07	0.0475827	-0.01383461	4.255938e-05	1.547194e-05	0.01969492	0.02190936	1.052282e-05	1.045349e-05
	4.255938e-05	1.547194e-05	0.04968507	-0.01312512	8.119508e-05	2.077344e-05	0.01973313	0.02211958
	0.01969492	0.02190939	8.119508e-05	2.077344e-05	0.04977323	-0.01291564	4.788442e-05	1.740604e-05
	1.052282e-05	1.045348e-05	0.01973314	0.0221196	4.788442e-05	1.740604e-05	0.04762022	-0.01385443
5e+07	0.04586726	-0.02110363	4.729939e-05	4.322228e-06	0.02727076	0.0222444	1.213258e-05	5.504212e-06
	4.729938e-05	4.322228e-06	0.04828025	-0.02087432	8.965308e-05	2.198782e-07	0.02731932	0.02249192
	0.02727077	0.02224441	8.965308e-05	2.198773e-07	0.04842461	-0.02064613	5.349451e-05	5.226869e-06
	1.213258e-05	5.504211e-06	0.02731933	0.02249193	5.349451e-05	5.226868e-06	0.0458935	-0.02113791
6e+07	0.04230573	-0.02760433	4.839323e-05	-7.031787e-06	0.03465209	0.02015692	1.202805e-05	9.182887e-07
	4.839323e-05	-7.031786e-06	0.04486066	-0.02790839	9.086495e-05	-2.099774e-05	0.03470541	0.02043584
	0.03465209	0.0201569	9.086494e-05	-2.099774e-05	0.04506091	-0.02768172	5.512384e-05	-7.340375e-06
	1.202805e-05	9.182906e-07	0.03470542	0.02043582	5.512384e-05	-7.340373e-06	0.04231385	-0.02765145
7e+07	0.03736841	-0.03288341	4.624138e-05	-1.776946e-05	0.04111486	0.01580783	1.049821e-05	-2.903969e-06
	4.624138e-05	-1.776946e-05	0.03990808	-0.03373329	8.570001e-05	-4.101597e-05	0.04116475	0.01611464
	0.04111486	0.01580783	8.570001e-05	-4.101596e-05	0.04015689	-0.0335279	5.317358e-05	-1.940297e-05
	1.049821e-05	-2.903969e-06	0.04116474	0.01611464	5.317358e-05	-1.940297e-05	0.03735255	-0.03294069
8e+07	0.03158168	-0.03668255	4.12845e-05	-2.723144e-05	0.04601362	0.009562767	7.910614e-06	-5.625076e-06
	4.12845e-05	-2.723144e-05	0.03395922	-0.03805956	7.509783e-05	-5.841541e-05	0.04605025	0.009897405
	0.04601362	0.00956277	7.509783e-05	-5.841541e-05	0.03424275	-0.03789228	4.807637e-05	-3.024176e-05
	7.910614e-06	-5.625077e-06	0.04605025	0.009897407	4.807637e-05	-3.024176e-05	0.03153702	-0.03674661
9e+07	0.02547583	-0.03893192	3.394052e-05	-3.4944e-05	0.0488368	0.001959001	4.700841e-06	-7.031351e-06
	3.394052e-05	-3.4944e-05	0.02754894	-0.04079449	5.995723e-05	-7.219871e-05	0.0488502	0.00232535
	0.04883681	0.001959001	5.995723e-05	-7.219872e-05	0.0278477	-0.04067676	4.022805e-05	-3.933625e-05
	4.70084e-06	-7.031352e-06	0.04885021	0.00232535	4.022805e-05	-3.933625e-05	0.025398	-0.03899857
1e+08	0.01959491	-0.039709	2.378688e-05	-4.080767e-05	0.04924834	-0.006343206	1.134926e-06	-6.988841e-06
	2.378688e-05	-4.080767e-05	0.02117208	-0.04201726	3.958953e-05	-8.20227e-05	0.04922993	-0.005937111
	0.04924834	-0.006343207	3.958953e-05	-8.20227e-05	0.02146292	-0.04195347	2.905119e-05	-4.660551e-05
	1.134926e-06	-6.988841e-06	0.04922993	-0.005937111	2.905119e-05	-4.660551e-05	0.01948005	-0.03977352
1.1e+08	0.01414748	-0.03958382	1.291858e-05	-3.975254e-05	0.04709573	-0.01461287	-1.221865e-06	-4.85767e-06
	1.291858e-05	-3.975254e-05	0.01509422	-0.04195147	1.853334e-05	-7.846723e-05	0.04703948	-0.01415615
	0.04709573	-0.01461287	1.853334e-05	-7.846723e-05	0.01533463	-0.0419917	1.662512e-05	-4.607083e-05
	-1.221864e-06	-4.85767e-06	0.04703948	-0.01415615	1.662512e-05	-4.607083e-05	0.01396889	-0.03969217
1.2e+08	0.00920644	-0.03844369	5.342704e-06	-3.675986e-05	0.04249182	-0.02204893	-2.12689e-06	-2.66816e-06
	5.342704e-06	-3.675986e-05	0.009678592	-0.04073288	3.992023e-06	-7.175488e-05	0.04239496	-0.02152767
	0.04249182	-0.02204893	3.992023e-06	-7.175488e-05	0.009832165	-0.04080432	7.764986e-06	-4.321595e-05
	-2.12689e-06	-2.66816e-06	0.04239496	-0.02152767	7.764986e-06	-4.321595e-05	0.008947086	-0.03852418
1.3e+08	0.005048997	-0.03656934	1.529747e-06	-3.277571e-05	0.03575145	-0.02797591	-2.436934e-06	-7.922018e-07
	1.529748e-06	-3.277571e-05	0.005137277	-0.03870683	8.92371e-07	-6.308275e-05	0.03561626	-0.02737468
	0.03575145	-0.02797591	8.923713e-07	-6.308275e-05	0.005211932	-0.03877142	3.579708e-06	-3.902232e-05
	-2.436934e-06	-7.92202e-07	0.03561626	-0.02737468	3.579708e-06	-3.902232e-05	0.00473384	-0.03659197
1.4e+08	0.001757045	-0.0342717	5.399985e-07	-2.860801e-05	0.02736904	-0.03182044	-2.268463e-06	8.186644e-07
	5.399987e-07	-2.860801e-05	0.001539856	-0.03621058	-1.593619e-06	-5.497766e-05	0.02720319	-0.03112408
	0.02736904	-0.03182043	-1.593619e-06	-5.497766e-05	0.001543587	-0.03625299	2.036859e-06	-3.460976e-05
	-2.268463e-06	8.186642e-07	0.02720319	-0.03112408	2.036859e-06	-3.460976e-05	0.001406571	-0.034234
1.5e+08	-0.0007004605	-0.03183885	-1.512664e-07	-2.496666e-05	0.01798467	-0.03316365	-1.512727e-06	2.155532e-06
	-1.512663e-07	-2.496666e-05	-0.001151626	-0.03355103	-3.158647e-06	-4.734101e-05	0.01780118	-0.03235906
	0.01798467	-0.03316365	-3.158647e-06	-4.734101e-05	-0.001217229	-0.0335596	9.531463e-07	-3.052869e-05
	-1.512727e-06	2.155532e-06	0.01780118	-0.03235906	9.531463e-07	-3.052869e-05	-0.001077811	-0.03174469
1.6e+08	-0.002441999	-0.02950649	-4.349327e-07	-2.165091e-05	0.00833731	-0.03177821	-3.902213e-07	3.059646e-06
	-4.349326e-07	-2.165091e-05	-0.003061779	-0.03097881	-3.778717e-06	-4.027897e-05	0.00815398	-0.03085613
	0.00833731	-0.03177821	-3.778717e-06	-4.027897e-05	-0.003196846	-0.03093871	1.912889e-07	-2.68584e-05
	-3.902213e-07	3.059646e-06	0.00815398	-0.03085613	1.91289e-07	-2.68584e-05	-0.002845569	-0.029357
1.7e+08	-0.003646706	-0.02743674	-3.490189e-07	-1.869875e-05	-0.0007909441	-0.0276502	8.286202e-07	3.491001e-06
	-3.490189e-07	-1.869875e-05	-0.00437618	-0.0286681	-3.545677e-06	-3.389998e-05	-0.0009527998	-0.02660684
	-0.0007909438	-0.0276502	-3.545677e-06	-3.389998e-05	-0.004576938	-0.02856045	-1.636694e-07	-2.350648e-05
	8.286202e-07	3.491001e-06	-0.0009527995	-0.02660684	-1.636694e-07	-2.350648e-05	-0.004077593	-0.02722721
1.8e+08	-0.004522928	-0.02570484	1.992495e-08	-1.612047e-05	-0.00863513	-0.02098508	2.507729e-06	3.375627e-06
	1.992495e-08	-1.612047e-05	-0.005310112	-0.02670385	-2.568908e-06	-2.829984e-05	-0.008752286	-0.01982341
	-0.00863513	-0.02098508	-2.568908e-06	-2.829984e-05	-0.005565826	-0.02650856	-1.836695e-07	-2.048414e-05
	2.507729e-06	3.375627e-06	-0.008752285	-0.01982341	-1.836696e-07	-2.048414e-05	-0.004979774	-0.02542566
1.9e+08	-0.005275742	-0.02429749	6.366647e-07	-1.396377e-05	-0.01450786	-0.01219724	4.095567e-06	2.797296e-06
	6.366646e-07	-1.396377e-05	-0.006075909	-0.02508031	-9.714356e-07	-2.357938e-05	-0.01455746	-0.01092764
	-0.01450786	-0.01219724	-9.714356e-07	-2.357938e-05	-0.006367941	-0.0247798	1.094427e-07	-1.784758e-05
	4.095567e-06	2.797296e-06	-0.01455746	-0.01092764	1.094427e-07	-1.784758e-05	-0.005751893	-0.02393638
2e+08	-0.006074324	-0.02312149	1.414791e-06	-1.224877e-05	-0.01785528	-0.001882107	5.438745e-06	1.8158e-06
	1.414791e-06	-1.224877e-05	-0.006850127	-0.02370997	1.057622e-06	-1.979511e-05	-0.01781713	-0.0005223953
	-0.01785528	-0.001882106	1.057622e-06	-1.979511e-05	-0.007153922	-0.02329304	6.392285e-07	-1.562758e-05
	5.438745e-06	1.8158e-06	-0.01781713	-0.0005223953	6.392284e-07	-1.562758e-05	-0.006557524	-0.02266675
2.1e+08	-0.00702517	-0.02202461	2.258947e-06	-1.096881e-05	-0.01830336	0.009225835	6.44593e-06	5.023388e-07
	2.258947e-06	-1.096881e-05	-0.007746675	-0.02244457	3.316943e-06	-1.695876e-05	-0.01816241	0.0106512
	-0.01830336	0.009225835	3.316943e-06	-1.695876e-05	-0.008033827	-0.02190791	1.316945e-06	-1.383116e-05
	6.44593e-06	5.023388e-07	-0.01816241	0.0106512	1.316944e-06	-1.383116e-05	-0.007497219	-0.02146698
2.2e+08	-0.008154352	-0.02082266	3.076276e-06	-1.009662e-05	-0.0156916	0.02030719	7.044433e-06	-1.048951e-06
	3.076276e-06	-1.009662e-05	-0.008798725	-0.02110251	5.605202e-06	-1.503865e-05	-0.01544006	0.02176873
	-0.0156916	0.02030719	5.605202e-06	-1.503865e-05	-0.009040499	-0.02045246	2.052618e-06	-1.24465e-05
	7.044433e-06	-1.048951e-06	-0.01544006	0.02176873	2.052618e-06	-1.24465e-05	-0.008592463	-0.02015839
2.3e+08	-0.009400457	-0.0193337	3.782756e-06	-9.584299e-06	-0.0100905	0.03051982	7.186728e-06	-2.726516e-06
	3.782756e-06	-9.584299e-06	-0.009951659	-0.01950323	7.733654e-06	-1.395961e-05	-0.00972945	0.03198524
	-0.0100905	0.03051982	7.733654e-06	-1.395961e-05	-0.01012272	-0.01875462	2.761153e-06	-1.144197e-05
	7.186728e-06	-2.726516e-06	-0.00972945	0.03198524	2.761153e-06	-1.144197e-05	-0.009779394	-0.01856551
2.4e+08	-0.01062024	-0.01741158	4.308807e-06	-9.366268e-06	-0.001800322	0.03906297	6.855014e-06	-4.408633e-06
	4.308807e-06	-9.366268e-06	-0.01106862	-0.01750097	9.537332e-06	-1.360741e-05	-0.001340523	0.04049998
	-0.001800322	0.03906297	9.537332e-06	-1.360741e-05	-0.01114887	-0.01667574	3.367673e-06	-1.076799e-05
	6.855014e-06	-4.408633e-06	-0.001340523	0.04049998	3.367673e-06	-1.076799e-05	-0.01091361	-0.01654989
2.5e+08	-0.01160586	-0.01497623	4.603666e-06	-9.363512e-06	0.008667576	0.04523981	6.063457e-06	-5.971892e-06
	4.603666e-06	-9.363512e-06	-0.01194778	-0.01501515	1.088433e-05	-1.383573e-05	0.009205691	0.04661902
	0.008667576	0.04523981	1.088433e-05	-1.383573e-05	-0.01192519	-0.01413983	3.812296e-06	-1.036012e-05
	6.063457e-06	-5.971892e-06	0.009205691	0.04661902	3.812296e-06	-1.036012e-05	-0.01178939	-0.01403941
2.6e+08	-0.012113	-0.01203574	4.638557e-06	-9.488983e-06	0.02062609	0.04851202	4.857967e-06	-7.300057e-06
	4.638557e-06	-9.488983e-06	-0.01235046	-0.01205259	1.168296e-05	-1.447546e-05	0.02121342	0.04980984
	0.02062609	0.04851202	1.168296e-05	-1.447546e-05	-0.01222102	-0.01115569	4.053606e-06	-1.014353e-05
	4.857967e-06	-7.300057e-06	0.02121342	0.04980984	4.053606e-06	-1.014353e-05	-0.01216605	-0.01104993
2.7e+08	-0.01189466	-0.008697928	4.407948e-06	-9.653492e-06	0.03326169	0.04854135	3.313219e-06	-8.292429e-06
	4.407948e-06	-9.653492e-06	-0.01203491	-0.008719017	1.188604e-05	-1.53453e-05	0.03386216	0.04974245
	0.03326169	0.04854135	1.188604e-05	-1.53453e-05	-0.01180303	-0.007828315	4.070767e-06	-1.003796e-05
	3.313219e-06	-8.292429e-06	0.03386216	0.04974245	4.070767e-06	-1.003796e-05	-0.0118031	-0.007696064
2.8e+08	-0.01073821	-0.005169797	3.929333e-06	-9.771892e-06	0.04569264	0.04521764	1.52757e-06	-8.87119e-06
	3.929333e-06	-9.771892e-06	-0.01079317	-0.005218591	1.149221e-05	-1.62631e-05	0.04626573	0.04631685
	0.04569264	0.04521764	1.149221e-05	-1.62631e-05	-0.01047104	-0.004358482	3.864175e-06	-9.963351e-06
	1.52757e-06	-8.87119e-06	0.04626573	0.04631685	3.864175e-06	-9.963351e-06	-0.01049663	-0.004189727
2.9e+08	-0.008500629	-0.001742983	3.241208e-06	-9.76893e-06	0.05703224	0.03866891	-3.840384e-07	-8.98688e-06
	3.241208e-06	-9.76893e-06	-0.008486359	-0.001839443	1.054429e-05	-1.705718e-05	0.05753581	0.03967236
	0.05703224	0.03866891	1.054429e-05	-1.705718e-05	-0.008091658	-0.001029369	3.454432e-06	-9.845224e-06
	-3.840384e-07	-8.98688e-06	0.05753581	0.03967236	3.454432e-06	-9.845224e-06	-0.008113344	-0.0008256242
3e+08	-0.00513754	0.001230917	2.399498e-06	-9.584106e-06	0.06645172	0.02925422	-2.298309e-06	-8.621517e-06
	2.399498e-06	-9.584106e-06	-0.005073487	0.001070988	9.124815e-06	-1.75765e-05	0.06684516	0.03017972
	0.06645172	0.02925422	9.124814e-06	-1.75765e-05	-0.004627793	0.001818199	2.880027e-06	-9.61954e-06
	-2.298309e-06	-8.621517e-06	0.06684516	0.03017972	2.880027e-06	-9.61954e-06	-0.004619926	0.002044619
3.1e+08	-0.0007230419	0.003374771	1.47284e-06	-9.175584e-06	0.07323934	0.01754134	-4.092273e-06	-7.789498e-06
	1.47284e-06	-9.175584e-06	-0.0006312493	0.00314017	7.349139e-06	-1.769941e-05	0.07348671	0.01841784
	0.07323934	0.01754134	7.349139e-06	-1.769941e-05	-0.0001576571	0.003818242	2.193674e-06	-9.236738e-06
	-4.092273e-06	-7.789498e-06	0.07348671	0.01841784	2.193674e-06	-9.236738e-06	-0.0001017379	0.004046091
3.2e+08	0.004542074	0.004324838	5.370837e-07	-8.522291e-06	0.07685068	0.004269439	-5.65167e-06	-6.535844e-06
	5.370837e-07	-8.522291e-06	0.004637802	0.004009308	5.356903e-06	-1.734014e-05	0.07692367	0.005135821
	0.07685068	0.004269439	5.356903e-06	-1.734014e-05	0.005116095	0.004619417	1.458018e-06	-8.664486e-06
	-5.65167e-06	-6.535844e-06	0.07692367	0.005135821	1.458018e-06	-8.664486e-06	0.005228779	0.004821354
3.3e+08	0.01033456	0.003772812	-3.303464e-07	-7.624604e-06	0.07694762	-0.009699183	-6.878313e-06	-4.932381e-06
	-3.303464e-07	-7.624604e-06	0.01040945	0.003375282	3.3022e-06	-1.645277e-05	0.07682815	-0.008796167
	0.07694762	-0.009699184	3.3022e-06	-1.645277e-05	0.010872	0.003924469	7.406559e-07	-7.889082e-06
	-6.878313e-06	-4.932381e-06	0.07682815	-0.008796167	7.406559e-07	-7.889082e-06	0.01103861	0.00407063
3.4e+08	0.01622572	0.001504695	-1.055979e-06	-6.503509e-06	0.07342491	-0.02343592	-7.696119e-06	-3.072334e-06
	-1.055979e-06	-6.503509e-06	0.01625491	0.001029488	1.343477e-06	-1.50331e-05	0.07310735	-0.02244428
	0.07342491	-0.02343592	1.343477e-06	-1.50331e-05	0.01668565	0.001530209	1.094131e-07	-6.91577e-06
	-7.696119e-06	-3.072334e-06	0.07310735	-0.02244428	1.094131e-07	-6.91577e-06	0.01689126	0.001592256
3.5e+08	0.02171114	-0.00256537	-1.575067e-06	-5.198345e-06	0.06642034	-0.03600708	-8.055053e-06	-1.06358e-06
	-1.575067e-06	-5.198345e-06	0.02167049	-0.003108418	-3.664978e-07	-1.311752e-05	0.06591288	-0.03487287
	0.06642034	-0.03600708	-3.664978e-07	-1.311752e-05	0.02205874	-0.0026411	-3.72196e-07	-5.767528e-06
	-8.055053e-06	-1.06358e-06	0.06591288	-0.03487287	-3.721961e-07	-5.767528e-06	0.022277	-0.002685769
3.6e+08	0.02624944	-0.008371119	-1.835496e-06	-3.763656e-06	0.05631062	-0.04653684	-7.933359e-06	9.784607e-07
	-1.835496e-06	-3.763656e-06	0.02611654	-0.008966504	-1.689998e-06	-1.078026e-05	0.055636	-0.04520784
	0.05631062	-0.04653684	-1.689998e-06	-1.078026e-05	0.02645768	-0.008515935	-6.48881e-07	-4.4834e-06
	-7.933359e-06	9.784607e-07	0.055636	-0.04520784	-6.48881e-07	-4.4834e-06	0.02665294	-0.008680189
3.7e+08	0.02930917	-0.01568102	-1.800545e-06	-2.265391e-06	0.04369018	-0.05426772	-7.337654e-06	2.938066e-06
	-1.800545e-06	-2.265391e-06	0.02906451	-0.01630741	-2.512534e-06	-8.128303e-06	0.04288534	-0.05269734
	0.04369018	-0.05426772	-2.512534e-06	-8.128303e-06	0.02935994	-0.01585828	-6.768256e-07	-3.115743e-06
	-7.337654e-06	2.938066e-06	0.04288534	-0.05269734	-6.768256e-07	-3.115743e-06	0.02949059	-0.01614194
3.8e+08	0.03041866	-0.02410053	-1.450584e-06	-7.769201e-07	0.02933572	-0.05861339	-6.301366e-06	4.705715e-06
	-1.450584e-06	-7.769201e-07	0.03004712	-0.02473093	-2.74969e-06	-5.295009e-06	0.02845045	-0.05676463
	0.02933572	-0.05861339	-2.74969e-06	-5.295009e-06	0.03030284	-0.02427139	-4.261365e-07	-1.727294e-06
	-6.301366e-06	4.705715e-06	0.02845045	-0.05676463	-4.261365e-07	-1.727294e-06	0.03032595	-0.024659
3.9e+08	0.02921586	-0.03308767	-7.839247e-07	6.24888e-07	0.01415783	-0.05920312	-4.881952e-06	6.18381e-06
	-7.839247e-07	6.24888e-07	0.02870847	-0.03368992	-2.352524e-06	-2.432622e-06	0.01325219	-0.05705213
	0.01415783	-0.05920312	-2.352524e-06	-2.432622e-06	0.02893433	-0.03321277	1.171572e-07	-3.880931e-07
	-4.881952e-06	6.18381e-06	0.01325219	-0.05705213	1.171572e-07	-3.880931e-07	0.02881099	-0.03367292
4e+08	0.02549475	-0.04198597	1.830171e-07	1.8634e-06	-0.0008591339	-0.05591062	-3.156907e-06	7.291267e-06
	1.830171e-07	1.8634e-06	0.02485067	-0.0425239	-1.31117e-06	2.965603e-07	-0.001718381	-0.05344972
	-0.0008591339	-0.05591062	-1.31117e-06	2.965603e-07	0.0250567	-0.04202827	9.49804e-07	8.28198e-07
	-3.156907e-06	7.291267e-06	-0.001718381	-0.05344972	9.49804e-07	8.28198e-07	0.02475772	-0.04251483
4.1e+08	0.01924077	-0.05007082	1.415871e-06	2.86597e-06	-0.01472209	-0.04886791	-1.219497e-06	7.96652e-06
	1.415871e-06	2.86597e-06	0.01846933	-0.05050587	3.427997e-07	2.731955e-06	-0.0154659	-0.04610735
	-0.01472209	-0.04886791	3.427997e-07	2.731955e-06	0.01866353	-0.04999616	2.049548e-06	1.850761e-06
	-1.219497e-06	7.96652e-06	-0.0154659	-0.04610735	2.049548e-06	1.850761e-06	0.01817448	-0.05045168
4.2e+08	0.01065199	-0.05660487	2.863487e-06	3.566884e-06	-0.02649797	-0.03846104	8.257383e-07	8.170986e-06
	2.863487e-06	3.566884e-06	0.009773834	-0.05689964	2.539133e-06	4.719114e-06	-0.02706008	-0.03542974
	-0.02649797	-0.03846104	2.539133e-06	4.719114e-06	0.009960185	-0.05638444	3.37858e-06	2.609541e-06
	8.257383e-07	8.170986e-06	-0.02706008	-0.03542974	3.37858e-06	2.609541e-06	0.00928573	-0.05674479
4.3e+08	0.0001443179	-0.06090447	4.45855e-06	3.911443e-06	-0.03537835	-0.02530667	2.868271e-06	7.890233e-06
	4.45855e-06	3.911443e-06	-0.0008084989	-0.06102608	5.168066e-06	6.119099e-06	-0.03570038	-0.02205131
	-0.03537835	-0.02530667	5.168066e-06	6.119099e-06	-0.0006323256	-0.06051625	4.879884e-06	3.039405e-06
	2.868271e-06	7.890233e-06	-0.03570038	-0.02205131	4.879884e-06	3.039405e-06	-0.001465606	-0.06071716
4.4e+08	-0.01166509	-0.06240388	6.119309e-06	3.859711e-06	-0.04073606	-0.01021317	4.796173e-06	7.134345e-06
	6.119309e-06	3.859711e-06	-0.01264977	-0.06232772	8.084294e-06	6.823136e-06	-0.04077243	-0.006795876
	-0.04073606	-0.01021317	8.084294e-06	6.823136e-06	-0.01249262	-0.06183286	6.477718e-06	3.090449e-06
	4.796173e-06	7.134345e-06	-0.04077243	-0.006795876	6.477718e-06	3.090449e-06	-0.01343643	-0.06181754
4.5e+08	-0.02399233	-0.06071482	7.752334e-06	3.390382e-06	-0.04217011	0.005873033	6.501164e-06	5.938453e-06
	7.752334e-06	3.390382e-06	-0.02495763	-0.06042815	1.111463e-05	6.759187e-06	-0.04189208	0.009378342
	-0.04217011	0.005873033	1.111463e-05	6.759187e-06	-0.02483447	-0.05995408	8.081369e-06	2.730677e-06
	6.501164e-06	5.938453e-06	-0.04189208	0.009378342	8.081369e-06	2.730677e-06	-0.02582128	-0.05968062
4.6e+08	-0.03594144	-0.05567582	9.256452e-06	2.504716e-06	-0.03953365	0.02193081	7.883902e-06	4.362186e-06
	9.256452e-06	2.504716e-06	-0.03683127	-0.0551808	1.406723e-05	5.899431e-06	-0.03893229	0.02544314
	-0.03953365	0.02193081	1.406723e-05	5.899431e-06	-0.0367618	-0.05472706	9.589278e-06	1.95088e-06
	7.883902e-06	4.362186e-06	-0.03893229	0.02544314	9.589278e-06	1.95088e-06	-0.03770988	-0.05417461
4.7e+08	-0.04657283	-0.04738452	1.052828e-05	1.229797e-06	-0.03294484	0.03693282	8.859633e-06	2.488079e-06
	1.052828e-05	1.229797e-06	-0.04733103	-0.04669986	1.674287e-05	4.265469e-06	-0.03203272	0.04036956
	-0.03294484	0.03693282	1.674287e-05	4.265469e-06	-0.04733571	-0.04625698	1.08949e-05	7.684386e-07
	8.859633e-06	2.488079e-06	-0.03203272	0.04036956	1.08949e-05	7.684386e-07	-0.04815608	-0.04543028
4.8e+08	-0.05497834	-0.03620476	1.146925e-05	-3.799874e-07	-0.022779	0.0499131	9.363844e-06	4.185738e-07
