!$
! Info: Touchstone file created by Circ.  Input file=Intel_C2M_200G_11p0in_202208016_staggered.circ
!$
# Hz S RI R 50
0	0.0314588	9.803806e-24	-0.0001255193	1.537168e-20	0.0003668791	1.172062e-21	-0.0001213109	1.485629e-20
	-0.0001255194	1.537169e-20	0.03090911	5.51923e-24	-0.0001325018	1.622679e-20	0.0001460669	3.471561e-22
	0.0003669438	1.172892e-21	-0.0001325018	1.62268e-20	0.03146003	1.005577e-23	-0.0001255444	1.537475e-20
	-0.0001213108	1.485629e-20	0.0001461231	3.472802e-22	-0.0001255443	1.537474e-20	0.0309071	5.218943e-24
1e+07	0.03918395	0.003146468	-0.0009160646	-4.014376e-05	0.002151892	0.008119499	-7.205823e-05	-0.0001018679
	-0.0009160646	-4.014376e-05	0.03759641	0.004136948	-0.0005995969	0.0003214228	0.00286729	0.008113362
	0.002151892	0.008119499	-0.0005995969	0.0003214228	0.03894894	0.003719861	-0.0007258381	1.118843e-05
	-7.205823e-05	-0.0001018679	0.00286729	0.008113362	-0.0007258381	1.118843e-05	0.03769633	0.00331191
2e+07	0.04564621	-0.0008535567	-0.0008595268	-0.0001544701	0.005398907	0.01506143	-0.0001044732	-0.0001313892
	-0.0008595267	-0.00015447	0.04474448	0.001260567	-0.0006991271	0.0003388663	0.006883764	0.01449645
	0.005398995	0.01506132	-0.0006991271	0.0003388663	0.0461152	5.080173e-05	-0.0006861307	-0.0002821266
	-0.0001044732	-0.0001313891	0.00688377	0.01449644	-0.0006861307	-0.0002821265	0.04387466	1.810906e-05
3e+07	0.04898347	-0.008170751	-0.0008745598	-0.000230268	0.01023412	0.02076247	-0.0001577947	-0.0001731311
	-0.0008745597	-0.000230268	0.04865224	-0.005364303	-0.0007558503	0.0004076984	0.01268453	0.01937609
	0.01023409	0.02076244	-0.0007558503	0.0004076984	0.04997993	-0.007378236	-0.0007026457	-0.0003850769
	-0.0001577947	-0.0001731311	0.01268452	0.01937613	-0.0007026458	-0.0003850769	0.04708382	-0.006450432
4e+07	0.04983046	-0.01642572	-0.0009193045	-0.0002492832	0.0161759	0.02493558	-0.0002284747	-0.0002001668
	-0.0009193045	-0.0002492832	0.04968507	-0.01312512	-0.0007880838	0.0004829179	0.01973313	0.02211958
	0.0161759	0.02493558	-0.0007880838	0.0004829179	0.05119402	-0.01592168	-0.0007538856	-0.0004292943
	-0.0002284747	-0.0002001668	0.01973314	0.0221196	-0.0007538856	-0.0004292943	0.04762022	-0.01385443
5e+07	0.0484035	-0.02478826	-0.0009782367	-0.0002288714	0.02277078	0.02734479	-0.0003073313	-0.0002077198
	-0.0009782367	-0.0002288714	0.04828025	-0.02087432	-0.0008048129	0.0005564297	0.02731932	0.02249192
	0.02277078	0.0273448	-0.0008048129	0.0005564297	0.04997614	-0.02466702	-0.0008219867	-0.0004321911
	-0.0003073312	-0.0002077198	0.02731933	0.02249193	-0.0008219867	-0.0004321911	0.0458935	-0.02113791
6e+07	0.04496396	-0.03255453	-0.00103964	-0.000176312	0.02949423	0.02792045	-0.0003903884	-0.0001954673
	-0.00103964	-0.000176312	0.04486066	-0.02790839	-0.0008151394	0.0006249874	0.03470541	0.02043584
	0.02949422	0.02792045	-0.0008151394	0.0006249874	0.04659016	-0.03285235	-0.0008938132	-0.0004020301
	-0.0003903884	-0.0001954673	0.03470542	0.02043582	-0.0008938131	-0.0004020301	0.04231385	-0.02765145
7e+07	0.03990776	-0.03919297	-0.001100785	-8.720485e-05	0.03583221	0.02674708	-0.0004739422	-0.0001632349
	-0.001100785	-8.720477e-05	0.03990808	-0.03373329	-0.0008279165	0.0006895741	0.04116475	0.01611464
	0.03583221	0.02674708	-0.0008279165	0.0006895741	0.04144046	-0.03989825	-0.0009597948	-0.0003459534
	-0.0004739422	-0.0001632349	0.04116474	0.01611464	-0.0009597948	-0.0003459534	0.03735255	-0.03294069
8e+07	0.03370755	-0.04434822	-0.001151045	3.666172e-05	0.04132299	0.02405034	-0.0005529359	-0.0001115097
	-0.001151045	3.666172e-05	0.03395922	-0.03805956	-0.0008495938	0.0007537433	0.04605025	0.009897405
	0.04132299	0.02405034	-0.0008495938	0.0007537433	0.03501509	-0.04540869	-0.001041669	-0.0002034047
	-0.0005529359	-0.0001115097	0.04605025	0.009897407	-0.001041669	-0.0002034047	0.03153702	-0.03674661
9e+07	0.02687668	-0.04782583	-0.001174631	0.000176301	0.04559642	0.02017479	-0.0006244462	-4.170503e-05
	-0.001174631	0.000176301	0.02754894	-0.04079449	-0.0008910981	0.0008253906	0.0488502	0.00232535
	0.04559642	0.02017479	-0.0008910981	0.0008253906	0.02784675	-0.0491541	-0.001097741	3.779455e-06
	-0.0006244462	-4.170504e-05	0.04885021	0.00232535	-0.001097741	3.779493e-06	0.025398	-0.03899857
1e+08	0.0200081	-0.04959044	-0.001157768	0.0003258805	0.04840682	0.01554522	-0.0006864616	4.471662e-05
	-0.001157768	0.0003258805	0.02117208	-0.04201726	-0.0009812711	0.0009158098	0.04922993	-0.005937111
	0.04840682	0.01554522	-0.0009812711	0.0009158098	0.02052284	-0.05106467	-0.001084755	0.0002260919
	-0.0006864616	4.471662e-05	0.04922993	-0.005937111	-0.001084755	0.0002260919	0.01948005	-0.03977352
1.1e+08	0.01331197	-0.05008523	-0.00112301	0.0004930861	0.04959675	0.01063672	-0.0007371098	0.000147252
	-0.00112301	0.0004930861	0.01509422	-0.04195147	-0.001069022	0.0009506389	0.04703948	-0.01415615
	0.04959675	0.01063672	-0.001069022	0.0009506389	0.01341798	-0.05141704	-0.001035801	0.0003775057
	-0.0007371098	0.000147252	0.04703948	-0.01415615	-0.001035801	0.0003775056	0.01396889	-0.03969217
1.2e+08	0.007043441	-0.04898643	-0.001085492	0.0006573493	0.04922382	0.00598069	-0.0007731258	0.0002665007
	-0.001085492	0.0006573493	0.009678592	-0.04073288	-0.001123154	0.001033132	0.04239496	-0.02152767
	0.04922382	0.00598069	-0.001123154	0.001033132	0.006869617	-0.05013276	-0.0009985171	0.0005188394
	-0.0007731258	0.0002665007	0.04239496	-0.02152767	-0.0009985171	0.0005188394	0.008947086	-0.03852418
1.3e+08	0.001727749	-0.04654601	-0.00103284	0.0008221052	0.04747843	0.002017358	-0.0007913329	0.000400828
	-0.00103284	0.0008221052	0.005137277	-0.03870683	-0.001158562	0.001158559	0.03561626	-0.02737468
	0.04747843	0.002017358	-0.001158562	0.001158559	0.001352163	-0.04747801	-0.0009570295	0.0006582373
	-0.0007913329	0.000400828	0.03561626	-0.02737468	-0.0009570296	0.0006582373	0.00473384	-0.03659197
1.4e+08	-0.002310158	-0.04312242	-0.0009612961	0.0009879595	0.04466129	-0.0008866929	-0.0007862591	0.0005474849
	-0.0009612961	0.0009879595	0.001539856	-0.03621058	-0.001166939	0.00132348	0.02720319	-0.03112408
	0.04466129	-0.0008866925	-0.001166939	0.00132348	-0.002820284	-0.04382261	-0.0009072794	0.0008001008
	-0.0007862591	0.0005474849	0.02720319	-0.03112408	-0.0009072794	0.0008001008	0.001406571	-0.034234
1.5e+08	-0.004881814	-0.03913423	-0.0008672233	0.001154349	0.04116145	-0.002471067	-0.0007540111	0.0007027874
	-0.0008672233	0.001154349	-0.001151626	-0.03355103	-0.001137289	0.001521344	0.01780118	-0.03235906
	0.04116145	-0.002471066	-0.001137289	0.001521344	-0.005464383	-0.03959632	-0.0008445933	0.0009475464
	-0.0007540111	0.0007027874	0.01780118	-0.03235906	-0.0008445933	0.0009475464	-0.001077811	-0.03174469
1.6e+08	-0.005932289	-0.03502014	-0.0007466372	0.001319098	0.03742224	-0.002600496	-0.0006912004	0.0008617927
	-0.0007466372	0.001319098	-0.003061779	-0.03097881	-0.001059507	0.001741888	0.00815398	-0.03085613
	0.03742224	-0.002600496	-0.001059507	0.001741888	-0.006529755	-0.0352486	-0.0007628884	0.001101737
	-0.0006912004	0.0008617927	0.00815398	-0.03085613	-0.0007628884	0.001101737	-0.002845569	-0.029357
1.7e+08	-0.005533213	-0.03120185	-0.0005955428	0.001478112	0.03390299	-0.001274968	-0.0005952652	0.001018408
	-0.0005955428	0.001478112	-0.00437618	-0.0286681	-0.0009263186	0.001971819	-0.0009527998	-0.02660684
	0.03390299	-0.001274968	-0.0009263186	0.001971819	-0.006092919	-0.03121157	-0.0006550278	0.001261036
	-0.0005952652	0.001018408	-0.0009527995	-0.02660684	-0.0006550278	0.001261036	-0.004077593	-0.02722721
1.8e+08	-0.003867321	-0.02805051	-0.0004107845	0.001625174	0.03104082	0.001373104	-0.0004649623	0.001165486
	-0.0004107845	0.001625174	-0.005310112	-0.02670385	-0.0007342248	0.002196077	-0.008752286	-0.01982341
	0.03104082	0.001373104	-0.0007342248	0.002196077	-0.00434357	-0.02786591	-0.0005139996	0.00142055
	-0.0004649623	0.001165486	-0.008752285	-0.01982341	-0.0005139996	0.00142055	-0.004979774	-0.02542566
1.9e+08	-0.00120697	-0.02586032	-0.0001908136	0.001752182	0.02921406	0.005091506	-0.0003007583	0.001295231
	-0.0001908136	0.001752182	-0.006075909	-0.02508031	-0.0004840985	0.002399127	-0.01455746	-0.01092764
	0.02921406	0.005091506	-0.0004840985	0.002399127	-0.001561712	-0.0255139	-0.0003340857	0.001571957
	-0.0003007583	0.001295231	-0.01455746	-0.01092764	-0.0003340857	0.001571957	-0.005751893	-0.02393638
2e+08	0.00211529	-0.024829	6.324218e-05	0.00184958	0.02871052	0.009529991	-0.0001051482	0.00139961
	6.324218e-05	0.00184958	-0.006850127	-0.02370997	-0.0001726934	0.002568234	-0.01781713	-0.0005223953
	0.02871052	0.009529991	-0.0001726934	0.002568234	0.001910155	-0.02435912	-0.0001122924	0.001704019
	-0.0001051482	0.00139961	-0.01781713	-0.0005223953	-0.0001122924	0.001704019	-0.006557524	-0.02266675
2.1e+08	0.005736356	-0.02504765	0.0003476142	0.001907644	0.02970473	0.014271	0.0001173106	0.001471075
	0.0003476142	0.001907644	-0.007746675	-0.02244457	0.0001831527	0.002686608	-0.01816241	0.0106512
	0.02970473	0.014271	0.0001831527	0.002686608	0.005699398	-0.02449707	0.0001504238	0.001804026
	0.0001173106	0.001471075	-0.01816241	0.0106512	0.0001504238	0.001804026	-0.007497219	-0.02146698
2.2e+08	0.009296879	-0.02650073	0.0006551343	0.001917213	0.03224288	0.01886499	0.0003600994	0.001503105
	0.0006551343	0.001917213	-0.008798725	-0.02110251	0.0005719784	0.002744835	-0.01544006	0.02176873
	0.03224288	0.01886499	0.0005719784	0.002744835	0.009435157	-0.02591352	0.0004487247	0.001858866
	0.0003600994	0.001503105	-0.01544006	0.02176873	0.0004487247	0.001858866	-0.008592463	-0.02015839
2.3e+08	0.01246956	-0.02907473	0.0009756356	0.001871007	0.03624004	0.02286843	0.0006150495	0.001490832
	0.0009756356	0.001871007	-0.009951659	-0.01950323	0.000980834	0.002736788	-0.00972945	0.03198524
	0.03624004	0.02286843	0.000980834	0.002736788	0.01277963	-0.028494	0.0007727199	0.001856889
	0.0006150495	0.001490832	-0.00972945	0.03198524	0.0007727199	0.001856889	-0.009779394	-0.01856551
2.4e+08	0.01498516	-0.03257491	0.001296861	0.001764562	0.04148817	0.0258818	0.000872879	0.001431437
	0.001296861	0.001764562	-0.01106862	-0.01750097	0.001396501	0.002659504	-0.001340523	0.04049998
	0.04148817	0.0258818	0.001396501	0.002659504	0.0154535	-0.03204029	0.001108667	0.001789467
	0.000872879	0.001431437	-0.001340523	0.04049998	0.001108667	0.001789467	-0.01091361	-0.01654989
2.5e+08	0.01665091	-0.03674835	0.001605247	0.001596967	0.04767416	0.0275823	0.001123858	0.001324354
	0.001605247	0.001596967	-0.01194778	-0.01501515	0.001806139	0.002512736	0.009205691	0.04661902
	0.04767416	0.0275823	0.001806139	0.002512736	0.0172552	-0.03629366	0.001440163	0.001652386
	0.001123858	0.001324354	0.009205691	0.04661902	0.001440163	0.001652386	-0.01178939	-0.01403941
2.6e+08	0.01736006	-0.04130982	0.001887307	0.001371	0.05440724	0.02775045	0.001358388	0.001171419
	0.001887307	0.001371	-0.01235046	-0.01205259	0.002197781	0.00229852	0.02121342	0.04980984
	0.05440724	0.02775045	0.002197781	0.00229852	0.018071	-0.0409614	0.001749824	0.001446504
	0.001358388	0.001171419	0.02121342	0.04980984	0.001749824	0.001446504	-0.01216605	-0.01104993
2.7e+08	0.01709489	-0.0459693	0.002130802	0.001092952	0.06125253	0.02628765	0.001567742	0.0009764756
	0.002130802	0.001092952	-0.01203491	-0.008719017	0.00256045	0.002020673	0.03386216	0.04974245
	0.06125253	0.02628765	0.00256045	0.002020673	0.01787849	-0.04574424	0.002021099	0.001177857
	0.001567742	0.0009764756	0.03386216	0.04974245	0.002021099	0.001177857	-0.0118031	-0.007696064
2.8e+08	0.0159202	-0.05045711	0.002325758	0.0007719597	0.06776766	0.02322192	0.001744442	0.0007452054
	0.002325758	0.0007719597	-0.01079317	-0.005218591	0.002884324	0.001684242	0.04626573	0.04631685
	0.06776766	0.02322192	0.002884324	0.001684242	0.0167402	-0.05036237	0.002239985	0.0008570901
	0.001744442	0.0007452054	0.04626573	0.04631685	0.002239985	0.0008570901	-0.01049663	-0.004189727
2.9e+08	0.01397063	-0.0545449	0.002465116	0.0004190612	0.07353904	0.01870439	0.001882729	0.0004844887
	0.002465116	0.0004190612	-0.008486359	-0.001839443	0.003160533	0.001295438	0.05753581	0.03967236
	0.07353904	0.01870439	0.003160533	0.001295438	0.01479136	-0.05457782	0.002396425	0.0004981386
	0.001882729	0.0004844887	0.05753581	0.03967236	0.002396425	0.0004981386	-0.008113344	-0.0008256242
3e+08	0.01143412	-0.05806285	0.002545056	4.603983e-05	0.07821531	0.01299378	0.001978674	0.0002018594
	0.002545056	4.603983e-05	-0.005073487	0.001070988	0.003381109	0.00086155	0.06684516	0.03017972
	0.07821531	0.01299378	0.003381109	0.00086155	0.01222293	-0.05821103	0.002485038	0.0001167337
	0.001978674	0.0002018594	0.06684516	0.03017972	0.002485038	0.0001167337	-0.004619926	0.002044619
3.1e+08	0.00853075	-0.06090918	0.002564839	-0.0003356155	0.08153497	0.006434626	0.002030075	-9.510713e-05
	0.002564839	-0.0003356155	-0.0006312493	0.00314017	0.003539039	0.0003908222	0.07348671	0.01841784
	0.08153497	0.006434626	0.003539039	0.0003908222	0.009260257	-0.06115215	0.002505324	-0.0002713223
	0.002030075	-9.510713e-05	0.07348671	0.01841784	0.002505324	-0.0002713223	-0.0001017379	0.004046091
3.2e+08	0.00549119	-0.06305434	0.002526207	-0.0007156433	0.0833452	-0.0005735033	0.002036252	-0.0003990852
	0.002526207	-0.0007156433	0.004637802	0.004009308	0.003628443	-0.0001072532	0.07692367	0.005135821
	0.0833452	-0.0005735034	0.003628443	-0.0001072532	0.006141453	-0.06336514	0.002461093	-0.0006519625
	0.002036252	-0.0003990852	0.07692367	0.005135821	0.002461093	-0.0006519625	0.005228779	0.004821354
3.3e+08	0.00253568	-0.06453826	0.002432624	-0.001085541	0.08361168	-0.007608398	0.001997657	-0.0007035233
	0.002432624	-0.001085541	0.01040945	0.003375282	0.003644775	-0.0006223528	0.07682815	-0.008796167
	0.08361168	-0.007608398	0.003644775	-0.0006223528	0.003095846	-0.06488572	0.002359406	-0.001014028
	0.001997657	-0.0007035233	0.07682815	-0.008796167	0.002359406	-0.001014028	0.01103861	0.00407063
3.4e+08	-0.0001448317	-0.06546261	0.002288385	-0.001438743	0.08242026	-0.01425957	0.001915477	-0.001002664
	0.002288385	-0.001438743	0.01625491	0.001029488	0.003585202	-0.001143096	0.07310735	-0.02244428
	0.08242026	-0.01425957	0.003585202	-0.001143096	0.0003237384	-0.06581385	0.002209108	-0.001350048
	0.001915477	-0.001002664	0.07310735	-0.02244428	0.002209108	-0.001350048	0.01689126	0.001592256
3.5e+08	-0.002404648	-0.06597781	0.002097736	-0.001770417	0.07996675	-0.02016171	0.001791155	-0.001291436
	0.002097736	-0.001770417	0.02167049	-0.003108418	0.003448865	-0.001657666	0.06591288	-0.03487287
	0.07996675	-0.02016171	0.003448865	-0.001657666	-0.002019005	-0.06630152	0.002019218	-0.001656278
	0.001791155	-0.001291436	0.06591288	-0.03487287	0.002019218	-0.001656278	0.022277	-0.002685769
3.6e+08	-0.004153781	-0.06626745	0.001864274	-0.002077012	0.07653995	-0.02502262	0.001626175	-0.001565299
	0.001864274	-0.002077012	0.02611654	-0.008966504	0.003236901	-0.002154248	0.055636	-0.04520784
	0.07653995	-0.02502262	0.003236901	-0.002154248	-0.003833381	-0.06653548	0.001797463	-0.001932298
	0.001626175	-0.001565299	0.055636	-0.04520784	0.001797463	-0.001932298	0.02665294	-0.008680189
3.7e+08	-0.005364081	-0.06652877	0.001590522	-0.002355475	0.07249682	-0.02864658	0.001421768	-0.001819921
	0.001590522	-0.002355475	0.02906451	-0.01630741	0.002952602	-0.002621416	0.04288534	-0.05269734
	0.07249682	-0.02864658	0.002952602	-0.002621416	-0.005083478	-0.06671987	0.001549032	-0.00217993
	0.001421768	-0.001819921	0.04288534	-0.05269734	0.001549032	-0.00217993	0.02949059	-0.01614194
3.8e+08	-0.006069164	-0.06695445	0.001278137	-0.002602414	0.06823218	-0.03094935	0.001179151	-0.002050648
	0.001278137	-0.002602414	0.03004712	-0.02473093	0.00260119	-0.003048654	0.02845045	-0.05676463
	0.06823218	-0.03094935	0.00260119	-0.003048654	-0.005796951	-0.06705596	0.001276161	-0.002401643
	0.001179151	-0.002050648	0.02845045	-0.05676463	0.001276161	-0.002401643	0.03032595	-0.024659
3.9e+08	-0.006359632	-0.06771515	0.0009282147	-0.002813488	0.06414592	-0.03196426	0.0008995836	-0.002252341
	0.0009282147	-0.002813488	0.02870847	-0.03368992	0.002189321	-0.003426896	0.01325219	-0.05705213
	0.06414592	-0.03196426	0.002189321	-0.003426896	-0.006061467	-0.0677235	0.0009780723	-0.002599151
	0.0008995836	-0.002252341	0.01325219	-0.05705213	0.0009780723	-0.002599151	0.02881099	-0.03367292
4e+08	-0.006372154	-0.06894294	0.0005420587	-0.002982941	0.06060868	-0.0318387	0.000584889	-0.002419096
	0.0005420587	-0.002982941	0.02485067	-0.0425239	0.001724515	-0.003748602	-0.001718381	-0.05344972
	0.06060868	-0.0318387	0.001724515	-0.003748602	-0.006013091	-0.06886578	0.0006516894	-0.002771893
	0.000584889	-0.002419096	-0.001718381	-0.05344972	0.0006516894	-0.002771893	0.02475772	-0.04251483
4.1e+08	-0.00627518	-0.07072071	0.0001225681	-0.003102406	0.05793055	-0.03082047	0.0002378558	-0.002544387
	0.0001225681	-0.003102406	0.01846933	-0.05050587	0.001180225	-0.004019362	-0.0154659	-0.04610735
	0.05793055	-0.03082047	0.001180225	-0.004019362	-0.005823229	-0.07057567	0.0002944791	-0.002915986
	0.0002378558	-0.002544387	-0.0154659	-0.04610735	0.0002944791	-0.002915986	0.01817448	-0.05045168
4.2e+08	-0.006252914	-0.0730758	-0.0003257316	-0.003164382	0.05633416	-0.02923773	-0.0001371492	-0.002621065
	-0.0003257316	-0.003164382	0.009773834	-0.05689964	0.0005798363	-0.004215522	-0.02706008	-0.03542974
	0.05633416	-0.02923773	0.0005798363	-0.004215522	-0.005681688	-0.07288997	-9.762797e-05	-0.003024603
	-0.0001371492	-0.002621065	-0.02706008	-0.03542974	-9.762797e-05	-0.003024603	0.00928573	-0.05674479
4.3e+08	-0.006486679	-0.0759788	-0.0007960373	-0.003160901	0.05593546	-0.02746778	-0.0005339032	-0.002641924
	-0.0007960373	-0.003160901	-0.0008084989	-0.06102608	-4.978492e-05	-0.004324812	-0.03570038	-0.02205131
	0.05593546	-0.02746778	-4.978492e-05	-0.004324812	-0.005778807	-0.07578675	-0.0005262529	-0.003086989
	-0.0005339032	-0.002641924	-0.03570038	-0.02205131	-0.0005262529	-0.003086989	-0.001465606	-0.06071716
4.4e+08	-0.007139022	-0.07934826	-0.001278325	-0.003084111	0.05673339	-0.02590557	-0.0009438705	-0.002600506
	-0.001278325	-0.003084111	-0.01264977	-0.06232772	-0.000697906	-0.004343725	-0.04077243	-0.006795876
	0.05673339	-0.02590557	-0.000697906	-0.004343725	-0.006287011	-0.07918912	-0.0009880999	-0.003089998
	-0.0009438705	-0.002600506	-0.04077243	-0.006795876	-0.0009880999	-0.003089998	-0.01343643	-0.06181754
4.5e+08	-0.008339261	-0.08305988	-0.001759669	-0.002928063	0.05861071	-0.02492794	-0.001356411	-0.002491798
	-0.001759669	-0.002928063	-0.02495763	-0.06042815	-0.001353674	-0.004269194	-0.04189208	0.009378342
	0.05861071	-0.02492794	-0.001353674	-0.004269194	-0.007347173	-0.08297414	-0.001474884	-0.003019975
	-0.001356411	-0.002491798	-0.04189208	0.009378342	-0.001474884	-0.003019975	-0.02582128	-0.05968062
4.6e+08	-0.01017309	-0.08695939	-0.002224689	-0.002689832	0.06134401	-0.02486056	-0.001759162	-0.002312914
	-0.002224689	-0.002689832	-0.03683127	-0.0551808	-0.002005439	-0.004098522	-0.03893229	0.02544314
	0.06134401	-0.02486056	-0.002005439	-0.004098522	-0.009056478	-0.08698556	-0.001973001	-0.002864682
	-0.001759162	-0.002312914	-0.03893229	0.02544314	-0.001973001	-0.002864682	-0.03770988	-0.05417461
4.7e+08	-0.01267662	-0.09087658	-0.002656767	-0.002370302	0.06462415	-0.02594875	-0.002138483	-0.002063847
	-0.002656767	-0.002370302	-0.04733103	-0.04669986	-0.002640494	-0.003829474	-0.03203272	0.04036956
	0.06462415	-0.02594875	-0.002640494	-0.003829474	-0.01146142	-0.09104817	-0.002463838	-0.002615716
	-0.002138483	-0.002063847	-0.03203272	0.04036956	-0.002463838	-0.002615716	-0.04815608	-0.04543028
4.8e+08	-0.0158353	-0.09464233	-0.003039132	-0.001974718	0.06808376	-0.02833746	-0.002480449	-0.001747754
	-0.003039132	-0.001974718	-0.05555383	-0.03536568	-0.003244617	-0.003460807	-0.02159025	0.05319576
	0.06808376	-0.02833746	-0.003244617	-0.003460807	-0.01455611	-0.0949844	-0.0029255	-0.002269928
	-0.002480449	-0.001747754	-0.02159025	0.05319576	-0.0029255	-0.002269928	-0.05625631	-0.03384782
4.9e+08	-0.01958801	-0.09810166	-0.003356262	-0.00151266	0.07132904	-0.03205882	-0.002771713	-0.001371181
