!$
! Info: Touchstone file created by Circ.  Input file=Intel_C2M_200G_11p0in_202208016_staggered.circ
!$
# Hz S RI R 50
0	0.03089631	5.360742e-24	0.0001043238	1.596648e-22	0.0001464428	3.499863e-22	0.0001042601	1.594133e-22
	0.0001043238	1.596648e-22	0.03090911	5.51923e-24	0.0001043078	1.59556e-22	0.0001460669	3.471561e-22
	0.000146499	3.5011e-22	0.0001043078	1.595577e-22	0.03089128	5.096998e-24	0.0001042736	1.593087e-22
	0.00010426	1.594151e-22	0.0001461231	3.472802e-22	0.0001042736	1.593087e-22	0.0309071	5.218943e-24
1e+07	0.03868452	0.003731089	9.461237e-05	-2.166362e-06	0.002407942	0.007947799	4.250588e-06	1.52533e-05
	9.461237e-05	-2.166362e-06	0.03759641	0.004136948	0.0001022998	3.034965e-05	0.00286729	0.008113362
	0.002407942	0.007947799	0.0001022998	3.034965e-05	0.03896717	0.003282657	4.042347e-05	1.228428e-05
	4.250588e-06	1.52533e-05	0.00286729	0.008113362	4.042347e-05	1.228428e-05	0.03769633	0.00331191
2e+07	0.04513633	0.0002767981	6.972583e-05	4.022389e-05	0.006380309	0.01439404	4.478377e-05	4.190704e-05
	6.972583e-05	4.022389e-05	0.04474448	0.001260567	9.002441e-05	-1.05143e-05	0.006883764	0.01449645
	0.006380315	0.01439402	9.002441e-05	-1.05143e-05	0.04482261	-0.0004622499	2.582248e-05	2.19874e-05
	4.478377e-05	4.190704e-05	0.00688377	0.01449644	2.582248e-05	2.19874e-05	0.04387466	1.810906e-05
3e+07	0.04851995	-0.006404982	5.848092e-05	5.51565e-05	0.01215803	0.01931254	7.438713e-05	3.76207e-05
	5.848092e-05	5.51565e-05	0.04865224	-0.005364303	8.32222e-05	-2.064133e-05	0.01268453	0.01937609
	0.01215802	0.01931258	8.32222e-05	-2.064133e-05	0.04777682	-0.007051735	1.85872e-05	3.234916e-05
	7.438713e-05	3.76207e-05	0.01268452	0.01937613	1.85872e-05	3.234916e-05	0.04708382	-0.006450432
4e+07	0.04914192	-0.0140531	4.980304e-05	6.071056e-05	0.01920699	0.02209916	9.598181e-05	2.324176e-05
	4.980304e-05	6.071056e-05	0.04968507	-0.01312512	8.038819e-05	-2.180929e-05	0.01973313	0.02211958
	0.019207	0.02209918	8.038819e-05	-2.180929e-05	0.04809919	-0.01448149	3.005959e-05	2.969774e-05
	9.598181e-05	2.324176e-05	0.01973314	0.0221196	3.005958e-05	2.969774e-05	0.04762022	-0.01385443
5e+07	0.04742532	-0.02159071	5.985522e-05	5.045261e-05	0.02681827	0.02251521	0.0001098533	3.053328e-06
	5.985522e-05	5.045261e-05	0.04828025	-0.02087432	7.771985e-05	-2.949719e-05	0.02731932	0.02249192
	0.02681828	0.02251521	7.771985e-05	-2.949719e-05	0.04619422	-0.02173609	4.134982e-05	1.989847e-05
	0.0001098533	3.053327e-06	0.02731933	0.02249193	4.134982e-05	1.989847e-05	0.0458935	-0.02113791
6e+07	0.04378802	-0.0283501	7.399991e-05	2.908658e-05	0.03425424	0.02049716	0.0001159683	-2.015918e-05
	7.399991e-05	2.908658e-05	0.04486066	-0.02790839	7.181342e-05	-3.763174e-05	0.03470541	0.02043584
	0.03425424	0.02049714	7.181341e-05	-3.763174e-05	0.04247032	-0.02818467	4.786453e-05	7.743784e-06
	0.0001159683	-2.015918e-05	0.03470542	0.02043582	4.786453e-05	7.743784e-06	0.04231385	-0.02765145
7e+07	0.0387101	-0.03386128	7.987591e-05	6.082197e-06	0.04078662	0.01620159	0.0001150029	-4.412613e-05
	7.987591e-05	6.082196e-06	0.03990808	-0.03373329	6.329385e-05	-4.459206e-05	0.04116475	0.01611464
	0.04078662	0.01620158	6.329385e-05	-4.459206e-05	0.03739794	-0.03338419	4.986552e-05	-5.179533e-06
	0.0001150029	-4.412613e-05	0.04116474	0.01611464	4.986552e-05	-5.179534e-06	0.03735255	-0.03294069
8e+07	0.03272849	-0.03785322	7.820488e-05	-1.642901e-05	0.04576512	0.009990974	0.0001074112	-6.718577e-05
	7.820488e-05	-1.642901e-05	0.03395922	-0.03805956	5.284872e-05	-4.933897e-05	0.04605025	0.009897405
	0.04576512	0.009990977	5.284872e-05	-4.933897e-05	0.03150443	-0.03708345	4.771408e-05	-1.769676e-05
	0.0001074112	-6.718577e-05	0.04605025	0.009897407	4.771408e-05	-1.769676e-05	0.03153702	-0.03674661
9e+07	0.02638274	-0.04024747	6.965116e-05	-3.689713e-05	0.04867283	0.002400885	9.359114e-05	-8.812121e-05
	6.965116e-05	-3.689713e-05	0.02754894	-0.04079449	4.142331e-05	-5.114445e-05	0.0488502	0.00232535
	0.04867284	0.002400885	4.142331e-05	-5.114445e-05	0.02532185	-0.03921739	4.179979e-05	-2.89364e-05
	9.359113e-05	-8.812121e-05	0.04885021	0.00232535	4.179979e-05	-2.89364e-05	0.025398	-0.03899857
1e+08	0.02020589	-0.04112044	5.266419e-05	-5.489433e-05	0.04917076	-0.005908509	7.191499e-05	-0.000106678
	5.266419e-05	-5.489433e-05	0.02117208	-0.04201726	3.018179e-05	-4.910917e-05	0.04922993	-0.005937111
	0.04917076	-0.005908509	3.018179e-05	-4.910917e-05	0.01940658	-0.0398616	3.147314e-05	-3.848719e-05
	7.191499e-05	-0.000106678	0.04922993	-0.005937111	3.147314e-05	-3.848719e-05	0.01948005	-0.03977352
1.1e+08	0.01445828	-0.04092598	3.244196e-05	-5.77395e-05	0.04709026	-0.01421727	4.580744e-05	-0.0001101305
	3.244196e-05	-5.77395e-05	0.01509422	-0.04195147	2.264736e-05	-4.506352e-05	0.04703948	-0.01415615
	0.04709025	-0.01421727	2.264736e-05	-4.506352e-05	0.01394968	-0.0397107	1.941407e-05	-3.968078e-05
	4.580744e-05	-0.0001101305	0.04703948	-0.01415615	1.941407e-05	-3.968078e-05	0.01396889	-0.03969217
1.2e+08	0.009304144	-0.03966879	1.802069e-05	-5.681127e-05	0.0425357	-0.02169981	2.855848e-05	-0.000107896
	1.802069e-05	-5.681127e-05	0.009678592	-0.04073288	1.639186e-05	-4.141383e-05	0.04239496	-0.02152767
	0.0425357	-0.02169981	1.639186e-05	-4.141383e-05	0.008967119	-0.03849793	1.038757e-05	-3.881815e-05
	2.855848e-05	-0.000107896	0.04239496	-0.02152767	1.038757e-05	-3.881815e-05	0.008947086	-0.03852418
1.3e+08	0.004991147	-0.03765595	5.706128e-06	-5.462031e-05	0.03582758	-0.02767564	2.073519e-05	-0.0001025189
	5.706128e-06	-5.462031e-05	0.005137277	-0.03870683	1.104672e-05	-3.775367e-05	0.03561626	-0.02737468
	0.03582758	-0.02767563	1.104672e-05	-3.775367e-05	0.004789204	-0.0365332	2.438128e-06	-3.691877e-05
	2.073519e-05	-0.0001025189	0.03561626	-0.02737468	2.438128e-06	-3.691876e-05	0.00473384	-0.03659197
1.4e+08	0.001592375	-0.03521234	-5.042194e-06	-5.124313e-05	0.02746276	-0.03156769	1.242951e-05	-9.713278e-05
	-5.042194e-06	-5.124313e-05	0.001539856	-0.03621058	6.377114e-06	-3.411551e-05	0.02720319	-0.03112408
	0.02746276	-0.03156769	6.377114e-06	-3.411551e-05	0.00149501	-0.0341517	-4.276693e-06	-3.394363e-05
	1.242951e-05	-9.713278e-05	0.02720319	-0.03112408	-4.276693e-06	-3.394363e-05	0.001406571	-0.034234
1.5e+08	-0.0009304306	-0.03263625	-1.424328e-05	-4.633422e-05	0.01808374	-0.03295416	3.750166e-06	-9.131616e-05
	-1.424328e-05	-4.633422e-05	-0.001151626	-0.03355103	2.003213e-06	-3.047535e-05	0.01780118	-0.03235906
	0.01808374	-0.03295416	2.003213e-06	-3.047535e-05	-0.0009580283	-0.03164615	-7.733294e-06	-3.033714e-05
	3.750166e-06	-9.131616e-05	0.01780118	-0.03235906	-7.733294e-06	-3.033714e-05	-0.001077811	-0.03174469
1.6e+08	-0.00270287	-0.0301709	-2.195984e-05	-4.020628e-05	0.008432164	-0.03160555	-4.902273e-06	-8.470026e-05
	-2.195984e-05	-4.020628e-05	-0.003061779	-0.03097881	-2.057851e-06	-2.669615e-05	0.00815398	-0.03085613
	0.008432164	-0.03160554	-2.057851e-06	-2.669615e-05	-0.002695935	-0.02924863	-1.029208e-05	-2.658093e-05
	-4.902273e-06	-8.470026e-05	0.00815398	-0.03085613	-1.029208e-05	-2.658093e-05	-0.002845569	-0.029357
1.7e+08	-0.003911335	-0.02798368	-2.671132e-05	-3.352533e-05	-0.0007070721	-0.0275065	-1.333102e-05	-7.699296e-05
	-2.671132e-05	-3.352533e-05	-0.00437618	-0.0286681	-6.350422e-06	-2.26352e-05	-0.0009527998	-0.02660684
	-0.0007070718	-0.0275065	-6.350422e-06	-2.26352e-05	-0.003899623	-0.02711506	-1.277043e-05	-2.26337e-05
	-1.333102e-05	-7.699296e-05	-0.0009527995	-0.02660684	-1.277043e-05	-2.26337e-05	-0.004077593	-0.02722721
1.8e+08	-0.004771408	-0.02615313	-2.933408e-05	-2.666785e-05	-0.008566118	-0.02086192	-2.11259e-05	-6.80109e-05
	-2.933408e-05	-2.666785e-05	-0.005310112	-0.02670385	-1.057172e-05	-1.784326e-05	-0.008752286	-0.01982341
	-0.008566118	-0.02086192	-1.057172e-05	-1.784326e-05	-0.004775302	-0.02531583	-1.510411e-05	-1.834761e-05
	-2.11259e-05	-6.80109e-05	-0.008752285	-0.01982341	-1.510411e-05	-1.834761e-05	-0.004979774	-0.02542566
1.9e+08	-0.005495063	-0.02466731	-3.133613e-05	-1.928054e-05	-0.01445486	-0.01208632	-2.77687e-05	-5.784585e-05
	-3.133613e-05	-1.928054e-05	-0.006075909	-0.02508031	-1.411404e-05	-1.231793e-05	-0.01455746	-0.01092764
	-0.01445486	-0.01208632	-1.411404e-05	-1.231793e-05	-0.005523544	-0.0238352	-1.699475e-05	-1.366613e-05
	-2.77687e-05	-5.784585e-05	-0.01455746	-0.01092764	-1.699475e-05	-1.366613e-05	-0.005751893	-0.02393638
2e+08	-0.006257808	-0.02343279	-3.247957e-05	-1.139544e-05	-0.01781699	-0.001775998	-3.290764e-05	-4.663404e-05
	-3.247957e-05	-1.139544e-05	-0.006850127	-0.02370997	-1.679864e-05	-6.149052e-06	-0.01781713	-0.0005223953
	-0.01781699	-0.001775997	-1.679864e-05	-6.149052e-06	-0.006309297	-0.02258074	-1.830753e-05	-8.629807e-06
	-3.290764e-05	-4.663404e-05	-0.01781713	-0.0005223953	-1.830753e-05	-8.629807e-06	-0.006557524	-0.02266675
2.1e+08	-0.007171717	-0.02229578	-3.252753e-05	-3.110759e-06	-0.01827654	0.009333127	-3.622015e-05	-3.461415e-05
	-3.252753e-05	-3.110759e-06	-0.007746675	-0.02244457	-1.845697e-05	5.315883e-07	-0.01816241	0.0106512
	-0.01827654	0.009333127	-1.845697e-05	5.315883e-07	-0.007234971	-0.02140243	-1.891623e-05	-3.314433e-06
	-3.622015e-05	-3.461415e-05	-0.01816241	0.0106512	-1.891623e-05	-3.314433e-06	-0.007497219	-0.02146698
2.2e+08	-0.00826736	-0.02106938	-3.126545e-05	5.390646e-06	-0.01567164	0.02041982	-3.744044e-05	-2.212121e-05
	-3.126545e-05	5.390646e-06	-0.008798725	-0.02110251	-1.89436e-05	7.542603e-06	-0.01544006	0.02176873
	-0.01567164	0.02041982	-1.89436e-05	7.542603e-06	-0.008324263	-0.02012064	-1.870859e-05	2.170172e-06
	-3.744044e-05	-2.212121e-05	-0.01544006	0.02176873	-1.870859e-05	2.170172e-06	-0.008592463	-0.02015839
2.3e+08	-0.009486697	-0.0195682	-2.852298e-05	1.385421e-05	-0.01007207	0.03063985	-3.638291e-05	-9.56805e-06
	-2.852298e-05	1.385421e-05	-0.009951659	-0.01950323	-1.814664e-05	1.466482e-05	-0.00972945	0.03198524
	-0.01007207	0.03063985	-1.814664e-05	1.466482e-05	-0.009515581	-0.01855804	-1.759241e-05	7.680852e-06
	-3.638291e-05	-9.56805e-06	-0.00972945	0.03198524	-1.759241e-05	7.680852e-06	-0.009779394	-0.01856551
2.4e+08	-0.01068859	-0.01764219	-2.419203e-05	2.196546e-05	-0.001778127	0.03919046	-3.296216e-05	2.572876e-06
	-2.419203e-05	2.196546e-05	-0.01106862	-0.01750097	-1.59979e-05	2.164337e-05	-0.001340523	0.04049998
	-0.001778127	0.03919046	-1.59979e-05	2.164337e-05	-0.01066641	-0.01657331	-1.550302e-05	1.304544e-05
	-3.296216e-05	2.572876e-06	-0.001340523	0.04049998	-1.550302e-05	1.304544e-05	-0.01091361	-0.01654989
2.5e+08	-0.01166605	-0.01520725	-1.824206e-05	2.93664e-05	0.00869827	0.04537288	-2.720516e-05	1.37985e-05
	-1.824206e-05	2.93664e-05	-0.01194778	-0.01501515	-1.24796e-05	2.819906e-05	0.009205691	0.04661902
	0.00869827	0.04537288	-1.24796e-05	2.819906e-05	-0.0115721	-0.01409051	-1.241095e-05	1.80641e-05
	-2.720516e-05	1.37985e-05	0.009205691	0.04661902	-1.241095e-05	1.80641e-05	-0.01178939	-0.01403941
2.6e+08	-0.01217441	-0.01226768	-1.072998e-05	3.56736e-05	0.02066886	0.04864731	-1.925732e-05	2.360102e-05
	-1.072998e-05	3.56736e-05	-0.01235046	-0.01205259	-7.632293e-06	3.403576e-05	0.02121342	0.04980984
	0.02066886	0.04864731	-7.632293e-06	3.403576e-05	-0.01199182	-0.01112107	-8.329433e-06	2.251735e-05
	-1.925732e-05	2.360102e-05	0.02121342	0.04980984	-8.329433e-06	2.251735e-05	-0.01216605	-0.01104993
2.7e+08	-0.01196537	-0.008927931	-1.806533e-06	4.049874e-05	0.03331866	0.04867445	-9.381748e-06	3.14954e-05
	-1.806533e-06	4.049874e-05	-0.01203491	-0.008719017	-1.559977e-06	3.88513e-05	0.03386216	0.04974245
	0.03331866	0.04867445	-1.559977e-06	3.88513e-05	-0.01168345	-0.007774907	-3.321634e-06	2.617355e-05
	-9.381748e-06	3.14954e-05	0.03386216	0.04974245	-3.321634e-06	2.617355e-05	-0.0118031	-0.007696064
2.8e+08	-0.01082405	-0.005392402	8.277912e-06	4.346699e-05	0.04576421	0.04534362	2.043875e-06	3.704322e-05
	8.277912e-06	4.346699e-05	-0.01079317	-0.005218591	5.56428e-06	4.23496e-05	0.04626573	0.04631685
	0.04576421	0.04534362	5.56428e-06	4.23496e-05	-0.01043987	-0.004259589	2.490388e-06	2.879886e-05
	2.043875e-06	3.704322e-05	0.04626573	0.04631685	2.490388e-06	2.879886e-05	-0.01049663	-0.004189727
2.9e+08	-0.008604634	-0.001950997	1.917408e-05	4.424005e-05	0.05711711	0.03878291	1.453568e-05	3.987825e-05
	1.917408e-05	4.424005e-05	-0.008486359	-0.001839443	1.349187e-05	4.425519e-05	0.05753581	0.03967236
	0.05711711	0.03878291	1.349187e-05	4.425519e-05	-0.008122965	-0.0008662887	8.923196e-06	3.017254e-05
	1.453568e-05	3.987825e-05	0.05753581	0.03967236	8.923196e-06	3.017254e-05	-0.008113344	-0.0008256242
3e+08	-0.005259638	0.00104544	3.04365e-05	4.253888e-05	0.066547	0.02935192	2.751662e-05	3.972925e-05
	3.04365e-05	4.253888e-05	-0.005073487	0.001070988	2.189843e-05	4.433332e-05	0.06684516	0.03017972
	0.066547	0.02935192	2.189843e-05	4.433332e-05	-0.004693364	0.00205556	1.572987e-05	3.01028e-05
	2.751662e-05	3.972925e-05	0.06684516	0.03017972	1.572987e-05	3.01028e-05	-0.004619926	0.002044619
3.1e+08	-0.0008599754	0.003219459	4.152294e-05	3.817114e-05	0.07334079	0.01761943	4.033098e-05	3.644429e-05
	4.152294e-05	3.817114e-05	-0.0006312493	0.00314017	3.039041e-05	4.240874e-05	0.07348671	0.01841784
	0.07334079	0.01761943	3.039041e-05	4.240874e-05	-0.0002294309	0.004131468	2.260233e-05	2.84454e-05
	4.033098e-05	3.644429e-05	0.07348671	0.01841784	2.260233e-05	2.84454e-05	-0.0001017379	0.004046091
3.2e+08	0.004396446	0.004206003	5.181477e-05	3.105828e-05	0.07695308	0.004325972	5.226548e-05	3.001365e-05
	5.181477e-05	3.105828e-05	0.004637802	0.004009308	3.850855e-05	3.839113e-05	0.07692367	0.005135821
	0.07695308	0.004325972	3.850855e-05	3.839113e-05	0.005063808	0.005002325	2.918219e-05	2.512051e-05
	5.226548e-05	3.001365e-05	0.07692367	0.005135821	2.918219e-05	2.512051e-05	0.005228779	0.004821354
3.3e+08	0.01018873	0.00369457	6.063232e-05	2.126843e-05	0.0770452	-0.009664548	6.257995e-05	2.059032e-05
	6.063232e-05	2.126843e-05	0.01040945	0.003375282	4.575113e-05	3.229263e-05	0.07682815	-0.008796167
	0.0770452	-0.009664548	4.575113e-05	3.229263e-05	0.01086061	0.00436438	3.507086e-05	2.013232e-05
	6.257995e-05	2.059032e-05	0.07682815	-0.008796167	3.507086e-05	2.013232e-05	0.01103861	0.00407063
3.4e+08	0.01608973	0.001468255	6.7271e-05	9.04263e-06	0.07351183	-0.02342187	7.054155e-05	8.510105e-06
	6.7271e-05	9.04263e-06	0.01625491	0.001029488	5.15928e-05	2.424856e-05	0.07310735	-0.02244428
	0.07351183	-0.02342187	5.15928e-05	2.424856e-05	0.01673092	0.002009665	3.98516e-05	1.358064e-05
	7.054155e-05	8.510105e-06	0.07310735	-0.02244428	3.98516e-05	1.358064e-05	0.01689126	0.001592256
3.5e+08	0.02159558	-0.00256214	7.10468e-05	-5.179858e-06	0.06649116	-0.03601061	7.547421e-05	-5.706789e-06
	7.10468e-05	-5.179858e-06	0.02167049	-0.003108418	5.551722e-05	1.453174e-05	0.06591288	-0.03487287
	0.06649116	-0.03601061	5.551722e-05	1.453174e-05	0.02216988	-0.002142388	4.311162e-05	5.673423e-06
	7.547421e-05	-5.706789e-06	0.06591288	-0.03487287	4.311162e-05	5.673423e-06	0.022277	-0.002685769
3.6e+08	0.02616435	-0.008333834	7.135274e-05	-2.07617e-05	0.05636075	-0.04655339	7.68065e-05	-2.135024e-05
	7.135274e-05	-2.07617e-05	0.02611654	-0.008966504	5.705304e-05	3.551027e-06	0.055636	-0.04520784
	0.05636075	-0.04655339	5.705304e-05	3.551027e-06	0.02663717	-0.008019001	4.447047e-05	-3.268464e-06
	7.68065e-05	-2.135024e-05	0.055636	-0.04520784	4.447047e-05	-3.268464e-06	0.02665294	-0.008680189
3.7e+08	0.02926289	-0.01561849	6.772675e-05	-3.686556e-05	0.04371637	-0.05429148	7.413029e-05	-3.754373e-05
	6.772675e-05	-3.686556e-05	0.02906451	-0.01630741	5.581271e-05	-8.14267e-06	0.04288534	-0.05269734
	0.04371637	-0.05429148	5.581271e-05	-8.14267e-06	0.02960384	-0.01538296	4.361025e-05	-1.281839e-05
	7.413029e-05	-3.754373e-05	0.04288534	-0.05269734	4.361025e-05	-1.281839e-05	0.02949059	-0.01614194
3.8e+08	0.03041686	-0.02402424	5.991056e-05	-5.249828e-05	0.02933634	-0.05863767	6.725395e-05	-5.328154e-05
	5.991056e-05	-5.249828e-05	0.03004712	-0.02473093	5.153209e-05	-1.988285e-05	0.02845045	-0.05676463
	0.02933634	-0.05863767	5.153209e-05	-1.988285e-05	0.0306017	-0.02383454	4.030882e-05	-2.244642e-05
	6.725395e-05	-5.328154e-05	0.02845045	-0.05676463	4.030882e-05	-2.244642e-05	0.03032595	-0.024659
3.9e+08	0.02926065	-0.0330108	4.791339e-05	-6.655765e-05	0.01413311	-0.05922078	5.624327e-05	-6.748727e-05
	4.791339e-05	-6.655765e-05	0.02870847	-0.03368992	4.41082e-05	-3.090869e-05	0.01325219	-0.05705213
	0.01413311	-0.05922078	4.41082e-05	-3.090869e-05	0.02927452	-0.03282693	3.446663e-05	-3.15483e-05
	5.624327e-05	-6.748727e-05	0.01325219	-0.05705213	3.446663e-05	-3.15483e-05	0.02881099	-0.03367292
4e+08	0.02558428	-0.04192228	3.205125e-05	-7.791129e-05	-0.0009069592	-0.05591472	4.145779e-05	-7.907877e-05
	3.205125e-05	-7.791129e-05	0.02485067	-0.0425239	3.363274e-05	-4.040382e-05	-0.001718381	-0.05344972
	-0.0009069592	-0.05591472	3.363274e-05	-4.040382e-05	0.02542204	-0.04170081	2.614085e-05	-3.946599e-05
	4.145779e-05	-7.907877e-05	-0.001718381	-0.05344972	2.614085e-05	-3.946599e-05	0.02475772	-0.04251483
4.1e+08	0.01936928	-0.05003314	1.295901e-05	-8.549053e-05	-0.01478886	-0.04885211	2.354543e-05	-8.706029e-05
	1.295901e-05	-8.549053e-05	0.01846933	-0.05050587	2.041306e-05	-4.755421e-05	-0.0154659	-0.04610735
	-0.01478886	-0.04885211	2.041306e-05	-4.755421e-05	0.01903675	-0.04972914	1.555788e-05	-4.553521e-05
	2.354543e-05	-8.706029e-05	-0.0154659	-0.04610735	1.555788e-05	-4.553521e-05	0.01817448	-0.05045168
4.2e+08	0.01081008	-0.05660429	-8.41772e-06	-8.838804e-05	-0.02657786	-0.03842026	3.434256e-06	-9.060311e-05
	-8.41772e-06	-8.838804e-05	0.009773834	-0.05689964	4.979368e-06	-5.159692e-05	-0.02706008	-0.03542974
	-0.02657786	-0.03842026	4.979368e-06	-5.159692e-05	0.01032485	-0.05617438	3.131134e-06	-4.912624e-05
	3.434256e-06	-9.060311e-05	-0.02706008	-0.03542974	3.131134e-06	-4.912624e-05	0.00928573	-0.05674479
4.3e+08	0.0003192243	-0.06094928	-3.087436e-05	-8.595148e-05	-0.03546413	-0.02523751	-1.772499e-05	-8.912738e-05
	-3.087436e-05	-8.595148e-05	-0.0008084989	-0.06102608	-1.191598e-05	-5.188403e-05	-0.03570038	-0.02205131
	-0.03546413	-0.02523751	-1.191598e-05	-5.188403e-05	-0.0002899027	-0.06035472	-1.054516e-05	-4.970211e-05
	-1.772499e-05	-8.912738e-05	-0.03570038	-0.02205131	-1.054516e-05	-4.970211e-05	-0.001465606	-0.06071716
4.4e+08	-0.01148831	-0.06249851	-5.302207e-05	-7.785959e-05	-0.04081971	-0.01011428	-3.863323e-05	-8.236494e-05
	-5.302207e-05	-7.785959e-05	-0.01264977	-0.06232772	-2.932916e-05	-4.796147e-05	-0.04077243	-0.006795876
	-0.04081971	-0.01011428	-2.932916e-05	-4.796147e-05	-0.01218231	-0.06170793	-2.471451e-05	-4.687179e-05
	-3.863323e-05	-8.236494e-05	-0.04077243	-0.006795876	-2.471451e-05	-4.687179e-05	-0.01343643	-0.06181754
4.5e+08	-0.02382956	-0.06085927	-7.338925e-05	-6.416671e-05	-0.04224331	0.006000786	-5.792433e-05	-7.039911e-05
	-7.338925e-05	-6.416671e-05	-0.02495763	-0.06042815	-4.61738e-05	-3.962287e-05	-0.04189208	0.009378342
	-0.04224331	0.006000786	-4.61738e-05	-3.962287e-05	-0.02456158	-0.05985182	-3.850116e-05	-4.044022e-05
	-5.792433e-05	-7.039911e-05	-0.04189208	0.009378342	-3.850116e-05	-4.044022e-05	-0.02582128	-0.05968062
4.6e+08	-0.03580819	-0.05586556	-9.052785e-05	-4.532409e-05	-0.03958845	0.02208422	-7.427294e-05	-5.367235e-05
	-9.052785e-05	-4.532409e-05	-0.03683127	-0.0551808	-6.129393e-05	-2.694927e-05	-0.03893229	0.02544314
	-0.03958845	0.02208422	-6.129393e-05	-2.694927e-05	-0.03652675	-0.05463304	-5.09581e-05	-3.045165e-05
	-7.427294e-05	-5.367235e-05	-0.03893229	0.02544314	-5.09581e-05	-3.045165e-05	-0.03770988	-0.05417461
4.7e+08	-0.04648296	-0.04761076	-0.0001031264	-2.215965e-05	-0.03297434	0.03710659	-8.649373e-05	-3.296261e-05
	-0.0001031264	-2.215965e-05	-0.04733103	-0.04669986	-7.35382e-05	-1.034207e-05	-0.03203272	0.04036956
	-0.03297434	0.03710659	-7.35382e-05	-1.034207e-05	-0.04713418	-0.04615788	-6.113907e-05	-1.720881e-05
	-8.649373e-05	-3.296261e-05	-0.03203272	0.04036956	-6.113907e-05	-1.720881e-05	-0.04815608	-0.04543028
