!$
! Info: Touchstone file created by Circ.  Input file=Intel_C2M_200G_11p0in_202208016_staggered.circ
!$
# Hz S RI R 50
0	0.03090911	5.51923e-24	0.9688932	-9.362223e-24	0.0001460669	3.471561e-22	-0.0002754298	3.373042e-20
	0.9688932	-9.358443e-24	0.0314588	9.804605e-24	-0.0002754857	3.373727e-20	0.0003668773	1.172068e-21
	0.0001461231	3.472802e-22	-0.0002756202	3.375373e-20	0.0309071	5.218943e-24	0.9688934	-9.57471e-24
	-0.0002755642	3.374688e-20	0.0003669421	1.172899e-21	0.9688934	-9.578502e-24	0.03146022	1.005312e-23
1e+07	0.03759641	0.004136948	0.9509245	-0.1516985	0.00286729	0.008113362	-0.001579838	-0.0005483247
	0.9509245	-0.1516985	0.03787391	0.004149662	-0.001581968	-0.0005484683	0.002605312	0.008200442
	0.00286729	0.008113362	-0.001581968	-0.0005484683	0.03769633	0.00331191	0.9508554	-0.1508562
	-0.001579838	-0.0005483247	0.002605312	0.008200442	0.9508554	-0.1508562	0.03791636	0.003309322
2e+07	0.04474448	0.001260567	0.9100278	-0.2925928	0.006883764	0.01449645	-0.001897977	-0.0002568703
	0.9100278	-0.2925928	0.04584167	0.0009668701	-0.001902338	-0.0002511635	0.005872018	0.01500085
	0.00688377	0.01449644	-0.001902352	-0.0002512715	0.04387466	1.810906e-05	0.9110062	-0.2913836
	-0.001897989	-0.0002569722	0.005872106	0.01500074	0.9110062	-0.2913836	0.04478922	-0.0001587028
3e+07	0.04865224	-0.005364303	0.8512497	-0.4226506	0.01268453	0.01937609	-0.002016801	6.502874e-05
	0.8512497	-0.4226506	0.05027429	-0.006561211	-0.002018188	7.881278e-05	0.01069858	0.02059651
	0.01268452	0.01937613	-0.002018229	7.882358e-05	0.04708382	-0.006450432	0.8529855	-0.4216877
	-0.002016815	6.502707e-05	0.01069856	0.02059648	0.8529855	-0.4216877	0.04848313	-0.007323552
4e+07	0.04968507	-0.01312512	0.7753884	-0.5413289	0.01973313	0.02211958	-0.001962598	0.0003529317
	0.7753884	-0.5413289	0.0518767	-0.01540816	-0.001954869	0.0003730068	0.01660371	0.02467283
	0.01973314	0.0221196	-0.001954873	0.0003730124	0.04762022	-0.01385443	0.777661	-0.5408561
	-0.001962596	0.0003529451	0.01660371	0.02467283	0.777661	-0.5408561	0.04963545	-0.01556184
5e+07	0.04828025	-0.02087432	0.6840286	-0.646765	0.02731932	0.02249192	-0.001793253	0.0005350592
	0.6840286	-0.646765	0.05086897	-0.0245557	-0.001772014	0.0005559157	0.02313702	0.02699832
	0.02731933	0.02249193	-0.001772012	0.0005559142	0.0458935	-0.02113791	0.6866282	-0.6469263
	-0.00179325	0.0005350573	0.02313702	0.02699833	0.6866282	-0.6469263	0.04845722	-0.02399422
6e+07	0.04486066	-0.02790839	0.5791705	-0.737128	0.03470541	0.02043584	-0.001588442	0.0005687295
	0.5791705	-0.737128	0.04752332	-0.03317238	-0.001552617	0.0005826868	0.02977861	0.02750899
	0.03470542	0.02043582	-0.001552615	0.0005826847	0.04231385	-0.02765145	0.581887	-0.7380042
	-0.00158844	0.000568728	0.02977861	0.02750899	0.581887	-0.7380042	0.0452027	-0.03188667
7e+07	0.03990808	-0.03373329	0.463104	-0.8108261	0.04116475	0.01611464	-0.001437213	0.0004547032
	0.463104	-0.8108261	0.04226126	-0.04062492	-0.001389855	0.0004535979	0.03602043	0.02629397
	0.04116474	0.01611464	-0.001389836	0.0004535317	0.03735255	-0.03294069	0.4657246	-0.8124468
	-0.001437211	0.0004547004	0.03602043	0.02629397	0.4657246	-0.8124468	0.04026332	-0.03868264
8e+07	0.03395922	-0.03805956	0.3383332	-0.8665848	0.04605025	0.009897405	-0.001416306	0.0002351853
	0.3383332	-0.8665848	0.03559449	-0.04647502	-0.001364721	0.0002126994	0.04140739	0.02358208
	0.04605025	0.009897407	-0.00136472	0.0002127019	0.03153702	-0.03674661	0.3406433	-0.8689345
	-0.001416306	0.000235188	0.04140739	0.02358208	0.3406433	-0.8689345	0.03411159	-0.04400412
9e+07	0.02754894	-0.04079449	0.2075089	-0.9034867	0.0488502	0.00232535	-0.001575131	-1.661653e-05
	0.2075089	-0.9034867	0.02808082	-0.0504609	-0.001529863	-6.319257e-05	0.04557625	0.01971935
	0.04885021	0.00232535	-0.001529857	-6.318595e-05	0.025398	-0.03899857	0.2092831	-0.9065019
	-0.001575127	-1.660832e-05	0.04557625	0.01971935	0.2092831	-0.9065019	0.0272645	-0.04763455
1e+08	0.02117208	-0.04201726	0.07333656	-0.9209899	0.04922993	-0.005937111	-0.001926953	-0.0002102722
	0.07333656	-0.9209899	0.02030284	-0.05247402	-0.001901709	-0.0002785141	0.04828561	0.01513253
	0.04922993	-0.005937111	-0.001901709	-0.000278515	0.01948005	-0.03977352	0.0742692	-0.9245624
	-0.001926954	-0.000210273	0.04828561	0.01513253	0.0742692	-0.9245624	0.02031252	-0.04951472
1.1e+08	0.01509422	-0.04195147	-0.06131495	-0.9187663	0.04703948	-0.01415615	-0.002434686	-0.0002610051
	-0.06131495	-0.9187663	0.01284406	-0.05266571	-0.002434946	-0.0003357987	0.0494069	0.01030139
	0.04703948	-0.01415615	-0.002434947	-0.0003357999	0.01396889	-0.03969217	-0.06131951	-0.9223462
	-0.002434687	-0.0002610062	0.0494069	0.01030139	-0.06131951	-0.9223462	0.01353793	-0.05001815
1.2e+08	0.009678592	-0.04073288	-0.1935753	-0.8972127	0.04239496	-0.02152767	-0.00305249	-0.0001111
	-0.1935753	-0.8972127	0.006079423	-0.05119217	-0.003077837	-0.0001833916	0.04899574	0.005724197
	0.04239496	-0.02152767	-0.003077838	-0.0001833925	0.008947086	-0.03852418	-0.1943373	-0.9006347
	-0.003052491	-0.0001111009	0.04899574	0.005724197	-0.1943373	-0.9006347	0.007217584	-0.04892551
1.3e+08	0.005137277	-0.03870683	-0.3207964	-0.8569652	0.03561626	-0.02737468	-0.003700263	0.0002906199
	-0.3207964	-0.8569652	0.0004331928	-0.04834034	-0.003747848	0.0002292303	0.04723538	0.001837095
	0.03561626	-0.02737468	-0.003747849	0.0002292297	0.00473384	-0.03659197	-0.3222143	-0.8601091
	-0.003700264	0.0002906193	0.04723538	0.001837095	-0.3222143	-0.8601091	0.001856999	-0.04648208
1.4e+08	0.001539856	-0.03621058	-0.4404176	-0.7990074	0.02720319	-0.03112408	-0.004283245	0.0009567964
	-0.4404176	-0.7990074	-0.003799225	-0.04450077	-0.004347238	0.0009128156	0.04442247	-0.0009978191
	0.02720319	-0.03112408	-0.004347239	0.0009128153	0.001406571	-0.034234	-0.4423934	-0.8017734
	-0.004283246	0.0009567962	0.04442247	-0.0009978186	-0.4423934	-0.8017734	-0.002220062	-0.04304294
1.5e+08	-0.001151626	-0.03355103	-0.5500383	-0.724659	0.01780118	-0.03235906	-0.004707949	0.001863449
	-0.5500383	-0.724659	-0.006452196	-0.04011736	-0.004781415	0.001840192	0.04094187	-0.002523604
	0.01780118	-0.03235906	-0.004781416	0.001840192	-0.001077811	-0.03174469	-0.5524715	-0.7269695
	-0.00470795	0.001863449	0.04094187	-0.002523603	-0.5524715	-0.7269695	-0.004822402	-0.03902629
1.6e+08	-0.003061779	-0.03097881	-0.6474597	-0.6355568	0.00815398	-0.03085613	-0.004896181	0.002954465
	-0.6474597	-0.6355568	-0.007492622	-0.03564768	-0.004972087	0.002952642	0.03723243	-0.00260719
	0.00815398	-0.03085613	-0.004972087	0.002952642	-0.002845569	-0.029357	-0.6502478	-0.6373531
	-0.004896181	0.002954465	0.03723243	-0.002607189	-0.6502478	-0.6373531	-0.005891705	-0.03487235
1.7e+08	-0.00437618	-0.0286681	-0.7307345	-0.533631	-0.0009527998	-0.02660684	-0.004795241	0.004151004
	-0.7307345	-0.533631	-0.007013782	-0.03152617	-0.004867274	0.00416918	0.033749	-0.001249498
	-0.0009527995	-0.02660684	-0.004867274	0.00416918	-0.004077593	-0.02722721	-0.7337711	-0.5348732
	-0.004795241	0.004151004	0.033749	-0.001249498	-0.7337711	-0.5348732	-0.005496191	-0.03100624
1.8e+08	-0.005310112	-0.02670385	-0.7982039	-0.4210704	-0.008752286	-0.01982341	-0.004383131	0.005363581
	-0.7982039	-0.4210704	-0.00521944	-0.02813103	-0.004446404	0.005398685	0.03092447	0.001417271
	-0.008752285	-0.01982341	-0.004446405	0.005398685	-0.004979774	-0.02542566	-0.8013818	-0.4217372
	-0.004383131	0.005363581	0.03092447	0.001417271	-0.8013818	-0.4217372	-0.003817013	-0.02780369
1.9e+08	-0.006075909	-0.02508031	-0.8485353	-0.3002842	-0.01455746	-0.01092764	-0.003668101	0.006504425
	-0.8485353	-0.3002842	-0.00240158	-0.02575847	-0.003719278	0.006552521	0.02913349	0.005142243
	-0.01455746	-0.01092764	-0.003719279	0.006552522	-0.005751893	-0.02393638	-0.8517505	-0.3003744
	-0.003668101	0.006504425	0.02913349	0.005142243	-0.8517505	-0.3003744	-0.001125571	-0.025564
2e+08	-0.006850127	-0.02370997	-0.8807595	-0.1738533	-0.01781713	-0.0005223953	-0.00268414	0.007497786
	-0.8807595	-0.1738533	0.001089808	-0.02460372	-0.002721599	0.007554666	0.0286609	0.009577286
	-0.01781713	-0.0005223953	-0.002721599	0.007554666	-0.006557524	-0.02266675	-0.8839104	-0.1733792
	-0.00268414	0.007497786	0.0286609	0.009577286	-0.8839104	-0.1733792	0.002244031	-0.02448972
2.1e+08	-0.007746675	-0.02244457	-0.8942969	-0.04447405	-0.01816241	0.0106512	-0.001482978	0.00828705
	-0.8942969	-0.04447405	0.004876937	-0.02475209	-0.001506046	0.008348811	0.02967922	0.01430755
	-0.01816241	0.0106512	-0.001506046	0.008348811	-0.007497219	-0.02146698	-0.8972897	-0.04346666
	-0.001482978	0.00828705	0.02967922	0.01430755	-0.8972897	-0.04346666	0.005927089	-0.02467686
2.2e+08	-0.008798725	-0.02110251	-0.8889723	0.08510185	-0.01544006	0.02176873	-0.0001238208	0.008837073
	-0.8889723	0.08510185	0.008588978	-0.02617963	-0.0001331038	0.008900357	0.03223355	0.01888644
	-0.01544006	0.02176873	-0.0001331038	0.008900357	-0.008592463	-0.02015839	-0.8917219	0.08659884
	-0.0001238209	0.008837073	0.03223355	0.01888644	-0.8917219	0.08659884	0.009559908	-0.02611343
2.3e+08	-0.009951659	-0.01950323	-0.8650219	0.2121308	-0.00972945	0.03198524	0.001334238	0.009132891
	-0.8650219	0.2121308	0.01189059	-0.02876285	0.001337925	0.009195059	0.03623886	0.02287332
	-0.00972945	0.03198524	0.001337925	0.009195059	-0.009779394	-0.01856551	-0.8674537	0.2140629
	0.001334237	0.009132891	0.03623886	0.02287332	-0.8674537	0.2140629	0.0128108	-0.02868847
2.4e+08	-0.01106862	-0.01750097	-0.8230885	0.3339499	-0.001340523	0.04049998	0.002840224	0.00917473
	-0.8230885	0.3339499	0.01450791	-0.0322965	0.002855458	0.009233793	0.04148784	0.0258713
	-0.001340523	0.04049998	0.002855458	0.009233793	-0.01091361	-0.01654989	-0.8251402	0.336251
	0.002840224	0.00917473	0.04148784	0.0258713	-0.8251402	0.336251	0.01540538	-0.03220836
2.5e+08	-0.01194778	-0.01501515	-0.7641998	0.4480333	0.009205691	0.04661902	0.004353069	0.008971525
	-0.7641998	0.4480333	0.01624667	-0.03651745	0.004378589	0.009025911	0.04766881	0.02755966
	0.009205691	0.04661902	0.004378589	0.009025911	-0.01178939	-0.01403941	-0.7658189	0.4506307
	0.004353069	0.008971525	0.04766881	0.02755966	-0.7658189	0.4506307	0.01714556	-0.03641966
2.6e+08	-0.01235046	-0.01205259	-0.6897339	0.5520556	0.02121342	0.04980984	0.005841792	0.008534835
	-0.6897339	0.5520556	0.01700129	-0.04113123	0.005876671	0.008583123	0.05439288	0.02772034
	0.02121342	0.04980984	0.005876671	0.008583123	-0.01216605	-0.01104993	-0.6908838	0.5548688
	0.005841792	0.008534835	0.05439288	0.02772034	-0.6908838	0.5548688	0.01791965	-0.04103539
2.7e+08	-0.01203491	-0.008719017	-0.6013817	0.6439367	0.03386216	0.04974245	0.00728259	0.007873509
	-0.6013817	0.6439367	0.01675735	-0.04584021	0.007325581	0.007914621	0.06122726	0.02625543
	0.03386216	0.04974245	0.007325581	0.007914621	-0.0118031	-0.007696064	-0.6020388	0.6468845
	0.00728259	0.007873509	0.06122726	0.02625543	-0.6020388	0.6468845	0.01770583	-0.045762
2.8e+08	-0.01079317	-0.005218591	-0.5010997	0.7218848	0.04626573	0.04631685	0.008653663	0.006991924
	-0.5010997	0.7218848	0.01558444	-0.05036889	0.008703783	0.007024414	0.06773166	0.02319295
	0.04626573	0.04631685	0.008703782	0.007024414	-0.01049663	-0.004189727	-0.5012535	0.7248835
	0.008653663	0.006991924	0.06773166	0.02319295	-0.5012535	0.7248835	0.01656587	-0.05032513
2.9e+08	-0.008486359	-0.001839443	-0.3910574	0.7844227	0.05753581	0.03967236	0.009930946	0.005890022
	-0.3910574	0.7844227	0.01362273	-0.05448524	0.009986763	0.00591279	0.07349436	0.01868334
	0.05753581	0.03967236	0.009986763	0.00591279	-0.008113344	-0.0008256242	-0.3907113	0.7873887
	0.009930946	0.005890022	0.07349436	0.01868334	-0.3907113	0.7873887	0.01463299	-0.05449166
3e+08	-0.005073487	0.001070988	-0.2735847	0.8304055	0.06684516	0.03017972	0.0110838	0.004567639
	-0.2735847	0.8304055	0.01106594	-0.05801761	0.01114359	0.004579457	0.07816541	0.01298413
	0.06684516	0.03017972	0.01114359	0.004579457	-0.004619926	0.002044619	-0.2727544	0.8332575
	0.0110838	0.004567639	0.07816541	0.01298413	-0.2727544	0.8332575	0.01209513	-0.05808611
3.1e+08	-0.0006312493	0.00314017	-0.1511232	0.8590332	0.07348671	0.01841784	0.0120742	0.003028115
	-0.1511232	0.8590332	0.00813955	-0.06086429	0.01213558	0.003027764	0.0814843	0.006438341
	0.07348671	0.01841784	0.01213558	0.003027764	-0.0001017379	0.004046091	-0.1498389	0.8616929
	0.0120742	0.003028115	0.0814843	0.006438341	-0.1498389	0.8616929	0.009173859	-0.06100174
3.2e+08	0.004637802	0.004009308	-0.02618233	0.8698492	0.07692367	0.005135821	0.01285766	0.001283357
	-0.02618233	0.8698492	0.005078854	-0.0629971	0.01291797	0.001270427	0.08329854	-0.000556145
	0.07692367	0.005135821	0.01291797	0.001270427	0.005228779	0.004821354	-0.02448287	0.8722482
	0.01285766	0.001283357	0.08329854	-0.000556145	-0.02448287	0.8722482	0.006103005	-0.06320447
3.3e+08	0.01040945	0.003375282	0.09871088	0.8627422	0.07682815	-0.008796167	0.01338676	-0.0006425056
	0.09871088	0.8627422	0.002107677	-0.06445856	0.01344323	-0.0006671101	0.08357361	-0.007578825
	0.07682815	-0.008796167	0.01344323	-0.00066711	0.01103861	0.00407063	0.1007728	0.8648181
	0.01338676	-0.0006425055	0.08357361	-0.007578825	0.1007728	0.8648181	0.003107336	-0.06473083
3.4e+08	0.01625491	0.001029488	0.2210432	0.837942	0.07310735	-0.02244428	0.01361651	-0.002710144
	0.2210432	0.837942	-0.0005806373	-0.06535341	0.01366621	-0.002745661	0.08239466	-0.01422065
	0.07310735	-0.02244428	0.01366621	-0.002745661	0.01689126	0.001592256	0.2234102	0.8396432
	0.01361651	-0.002710144	0.08239466	-0.01422065	0.2234102	0.8396432	0.0003826773	-0.06568042
3.5e+08	0.02167049	-0.003108418	0.3383644	0.7960124	0.06591288	-0.03487287	0.01350983	-0.004867363
	0.3383644	0.7960124	-0.00283921	-0.06583549	0.01355035	-0.004911656	0.07995634	-0.02011748
	0.06591288	-0.03487287	0.01355035	-0.004911656	0.022277	-0.002685769	0.340966	0.7972952
	0.01350983	-0.004867363	0.07995634	-0.02011748	0.340966	0.7972952	-0.00191934	-0.06620372
3.6e+08	0.02611654	-0.008966504	0.4483156	0.7378426	0.055636	-0.04520784	0.01304247	-0.007051091
	0.4483156	0.7378426	-0.004578018	-0.0660916	0.01307251	-0.007101222	0.07654602	-0.02497781
	0.055636	-0.04520784	0.01307251	-0.007101222	0.02665294	-0.008680189	0.4510799	0.7386776
	0.01304247	-0.007051091	0.07654602	-0.02497781	0.4510799	0.7386776	-0.003703245	-0.06648503
3.7e+08	0.02906451	-0.01630741	0.5486758	0.6646375	0.04288534	-0.05269734	0.01220655	-0.009192412
	0.5486758	0.6646375	-0.005769759	-0.06632184	0.01222539	-0.009245541	0.0725191	-0.02860615
	0.04288534	-0.05269734	0.01222539	-0.009245541	0.02949059	-0.01614194	0.5515283	0.6650073
	0.01220655	-0.009192412	0.0725191	-0.02860615	0.5515283	0.6650073	-0.004935974	-0.06672515
3.8e+08	0.03004712	-0.02473093	0.6374009	0.577905	0.02845045	-0.05676463	0.01101039	-0.01122332
	0.6374009	0.577905	-0.006449642	-0.06672107	0.01101908	-0.01127612	0.06826883	-0.03091794
	0.02845045	-0.05676463	0.01101908	-0.01127612	0.03032595	-0.024659	0.6402623	0.5778039
	0.01101039	-0.01122332	0.06826883	-0.03091794	0.6402623	0.5778039	-0.005647002	-0.06712142
3.9e+08	0.02870847	-0.03368992	0.7126635	0.4794378	0.01325219	-0.05705213	0.00947873	-0.01308055
	0.7126635	0.4794378	-0.006710263	-0.06746143	0.009477986	-0.01313116	0.06419373	-0.03194578
	0.01325219	-0.05705213	0.009477986	-0.01313116	0.02881099	-0.03367292	0.7154598	0.4788753
	0.00947873	-0.01308055	0.06419373	-0.03194578	0.7154598	0.4788753	-0.005924665	-0.06784937
4e+08	0.02485067	-0.0425239	0.7729018	0.3712868	-0.001718381	-0.05344972	0.007646257	-0.01471153
	0.7729018	0.3712868	-0.006690485	-0.06867562	0.007638666	-0.01475838	0.06066339	-0.03183583
	-0.001718381	-0.05344972	0.007638666	-0.01475838	0.02475772	-0.04251483	0.7755584	0.3702799
	0.007646257	-0.01471152	0.06066339	-0.03183583	0.7755584	0.3702799	-0.00590456	-0.06904799
4.1e+08	0.01846933	-0.05050587	0.8168598	0.255718	-0.0154659	-0.04610735	0.005554388	-0.01607488
	0.8168598	0.255718	-0.006560657	-0.07044638	0.005542327	-0.01611774	0.05798722	-0.03083449
	-0.0154659	-0.04610735	0.005542327	-0.01611774	0.01817448	-0.05045168	0.8193086	0.2542975
	0.005554388	-0.01607488	0.05798722	-0.03083449	0.8193086	0.2542975	-0.005756704	-0.07080632
4.2e+08	0.009773834	-0.05689964	0.8436244	0.1351812	-0.02706008	-0.03542974	0.003246381	-0.01714026
	0.8436244	0.1351812	-0.006506813	-0.07280057	0.00323135	-0.01717997	0.05638773	-0.02926829
	-0.02706008	-0.03542974	0.00323135	-0.01717997	0.00928573	-0.05674479	0.845802	0.1333892
	0.003246381	-0.01714026	0.05638773	-0.02926829	0.845802	0.1333892	-0.005668194	-0.07315754
4.3e+08	-0.0008084989	-0.06102608	0.8526574	0.01224221	-0.03570038	-0.02205131	0.0007617527	-0.01788512
	0.8526574	0.01224221	-0.006711789	-0.07570773	0.0007449536	-0.01792343	0.05598122	-0.027513
	-0.03570038	-0.02205131	0.0007449536	-0.01792342	-0.001465606	-0.06071716	0.8545091	0.01012846
	0.0007617527	-0.01788512	0.05598122	-0.027513	0.8545091	0.01012846	-0.005825747	-0.07607708
4.4e+08	-0.01264977	-0.06232772	0.8438156	-0.1104729	-0.04077243	-0.006795876	-0.001863093	-0.01829021
	0.8438156	-0.1104729	-0.007339034	-0.07908505	-0.001882164	-0.01832874	0.05676747	-0.02596222
	-0.04077243	-0.006795876	-0.001882164	-0.01832874	-0.01343643	-0.06181754	0.8452956	-0.1128495
	-0.001863093	-0.01829021	0.05676747	-0.02596222	0.8452956	-0.1128495	-0.006397636	-0.07948657
4.5e+08	-0.02495763	-0.06042815	0.8173593	-0.2303424	-0.04189208	0.009378342	-0.004594733	-0.01833513
	0.8173593	-0.2303424	-0.008518239	-0.08280673	-0.004617615	-0.01837543	0.05863044	-0.02499172
	-0.04189208	0.009378342	-0.004617615	-0.01837543	-0.02582128	-0.05968062	0.8184323	-0.2329176
	-0.004594733	-0.01833513	0.05863044	-0.02499172	0.8184323	-0.2329176	-0.007520379	-0.08326283
4.6e+08	-0.03683127	-0.0551808	0.7739463	-0.3448228	-0.03893229	0.02544314	-0.007398974	-0.0179949
	0.7739463	-0.3448228	-0.01033486	-0.08671714	-0.007427918	-0.01803775	0.06134826	-0.02492662
	-0.03893229	0.02544314	-0.007427918	-0.01803775	-0.03770988	-0.05417461	0.7745866	-0.3475286
	-0.007398974	-0.0179949	0.06134826	-0.02492662	0.7745866	-0.3475286	-0.009286883	-0.08725057
4.7e+08	-0.04733103	-0.04669986	0.7146119	-0.4515177	-0.03203272	0.04036956	-0.01023414	-0.01724022
	0.7146119	-0.4515177	-0.01282449	-0.09064495	-0.01027246	-0.01728461	0.06461333	-0.02601211
	-0.03203272	0.04036956	-0.01027246	-0.01728461	-0.04815608	-0.04543028	0.7148056	-0.4542801
	-0.01023414	-0.01724022	0.06461333	-0.02601211	0.7148056	-0.4542801	-0.01173982	-0.09127668
4.8e+08	-0.05555383	-0.03536568	0.6407292	-0.5482245	-0.02159025	0.05319576	-0.01304773	-0.01603869
	0.6407292	-0.5482245	-0.01597168	-0.0944203	-0.01309798	-0.01608244	0.06805987	-0.02839362
	-0.02159025	0.05319576	-0.01309798	-0.01608244	-0.05625631	-0.03384782	0.6404778	-0.5509725
	-0.01304773	-0.01603869	0.06805987	-0.02839362	0.6404778	-0.5509725	-0.01487029	-0.09516674
4.9e+08	-0.06071026	-0.02181344	0.5539801	-0.6329937	-0.008232721	0.06309124	-0.01576977	-0.014362
	0.5539801	-0.6329937	-0.01971429	-0.0978879	-0.01583435	-0.01440075	0.07129539	-0.03210417
	-0.008232721	0.06309124	-0.01583435	-0.01440075	-0.06122588	-0.02008047	0.5532915	-0.6356569
	-0.01576977	-0.014362	0.07129539	-0.03210417	0.5532915	-0.6356569	-0.01862104	-0.09875965
5e+08	-0.06219767	-0.006894361	0.4562873	-0.7041717	0.007223104	0.06940942	-0.01831339	-0.01219154
	0.4562873	-0.7041717	-0.02395054	-0.1009208	-0.01839271	-0.01222055	0.07393487	-0.03706241
	0.007223104	0.06940942	-0.01839271	-0.01222055	-0.06247113	-0.004996963	0.4551855	-0.7066789
	-0.01831339	-0.01219154	0.07393487	-0.03706241	0.4551855	-0.7066789	-0.02289308	-0.1019209
5.1e+08	-0.05965457	0.008380588	0.3497732	-0.7604118	0.02382352	0.07172917	-0.02057586	-0.00952969
	0.3497732	-0.7604118	-0.0285498	-0.1034294	-0.02066841	-0.00954318	0.07563249	-0.04308119
	0.02382352	0.07172917	-0.02066841	-0.00954318	-0.05964568	0.01037736	0.3482908	-0.7627022
	-0.02057586	-0.009529689	0.07563249	-0.04308119	0.3482908	-0.7627022	-0.0275562	-0.1045527
5.2e+08	-0.0530039	0.02291047	0.2367019	-0.8007047	0.04054077	0.06988157	-0.02244526	-0.006404546
