# GHz S RI R 45
0.000     0.022415403964    0.001224411917    0.000000286654    0.000000350284    0.000747565238    0.001233959084    0.000000419348    0.000000561831
            0.000000286632    0.000000350284    0.022251066279    0.001692863753    0.000000417011    0.000000545906    0.000782597386    0.001647796440
            0.000747565100    0.001233959051    0.000000417025    0.000000545906    0.022420761685    0.001237042005    0.000000591260    0.000000823359
            0.000000419397    0.000000561831    0.000782597559    0.001647796358    0.000000591254    0.000000823359    0.022180474359    0.001704856308
0.025     0.027332517033    0.008463039194    0.000000495937    0.000000766625    0.002603133246    0.010475755426    0.000000725903    0.000001230501
            0.000000495938    0.000000766628    0.027080620012    0.009216677612    0.000000724102    0.000001200242    0.002617283191    0.011119703372
            0.002599885259    0.010476010759    0.000000724097    0.000001200242    0.027270463996    0.008507615032    0.000001021168    0.000001807860
            0.000000725904    0.000001230500    0.002617537943    0.011119129741    0.000001021167    0.000001807860    0.026995086488    0.009179483562
0.050     0.032597823528    0.011488891230    0.000000852985    0.000001277502    0.007753069920    0.019222551286    0.000001248696    0.000002088546
            0.000000852985    0.000001277502    0.032297800473    0.013020218039    0.000001246605    0.000002026274    0.007730367187    0.020567898861
            0.007753114958    0.019222507242    0.000001246605    0.000002026274    0.032515306473    0.011604326144    0.000001754785    0.000003093178
            0.000001248696    0.000002088546    0.007730463904    0.020567893491    0.000001754785    0.000003093178    0.032125233861    0.012981842429
0.075     0.037311181029    0.011711503229    0.000001229403    0.000001665234    0.014889543987    0.025062972580    0.000001806929    0.000002779037
            0.000001229403    0.000001665234    0.036969188348    0.014232087268    0.000001801258    0.000002678917    0.014869084963    0.027282317947
            0.014889548214    0.025062967742    0.000001801258    0.000002678917    0.037230324282    0.011919501563    0.000002542090    0.000004151850
            0.000001806929    0.000002779037    0.014869080677    0.027282320283    0.000002542090    0.000004151850    0.036702542966    0.014258942101
0.100     0.040356317742    0.009625231355    0.000001620854    0.000001976441    0.022457379740    0.027637575053    0.000002403779    0.000003367780
            0.000001620854    0.000001976441    0.040161183001    0.013406847064    0.000002386582    0.000003224816    0.022613080802    0.030918533168
            0.022457379740    0.027637575053    0.000002386582    0.000003224816    0.040305694543    0.009940741851    0.000003394696    0.000005074423
            0.000002403779    0.000003367780    0.022613055573    0.030918541709    0.000003394696    0.000005074423    0.039822901460    0.013562744929
0.125     0.040629955763    0.006312932449    0.000002024467    0.000002236170    0.028997062850    0.027290629453    0.000003040438    0.000003884060
            0.000002024467    0.000002236170    0.040908959835    0.011549861972    0.000003000286    0.000003696223    0.029641537079    0.031768604612
            0.028997062850    0.027290629453    0.000003000286    0.000003696223    0.040648891266    0.006733230205    0.000004316737    0.000005895875
            0.000003040438    0.000003884060    0.029641537079    0.031768604612    0.000004316737    0.000005895875    0.040563249554    0.011886755268
0.150     0.037858799629    0.003296204903    0.000002447167    0.000002475090    0.033308936783    0.024949397582    0.000003727229    0.000004363994
            0.000002447167    0.000002475090    0.039229111935    0.010049111933    0.000003651377    0.000004133189    0.034835512178    0.030629106253
            0.033308936783    0.024949397582    0.000003651377    0.000004133189    0.037993850743    0.003810640176    0.000005323026    0.000006659499
            0.000003727229    0.000004363994    0.034835512178    0.030629106253    0.000005323026    0.000006659499    0.038948772417    0.010579250812
0.175     0.032272140467    0.002138843801    0.000002917755    0.000002706597    0.034776930899    0.022018161125    0.000004501836    0.000004819861
            0.000002917755    0.000002706597    0.035330705642    0.010183381643    0.000004377254    0.000004552753    0.037620187044    0.028746358417
            0.034776930899    0.022018161125    0.000004377254    0.000004552753    0.032565929331    0.002701712745    0.000006459493    0.000007377195
            0.000004501836    0.000004819861    0.037620187044    0.028746358417    0.000006459493    0.000007377195    0.035201899918    0.010878163097
0.200     0.024854474623    0.004270936282    0.000003473354    0.000002925228    0.033513716472    0.020051895915    0.000005410839    0.000005240001
            0.000003473354    0.000002925228    0.030109580975    0.013127692445    0.000005226282    0.000004948137    0.038071678715    0.027492755752
            0.033513716472    0.020051895915    0.000005226282    0.000004948137    0.025324014446    0.004813783306    0.000007782007    0.000008032765
            0.000005410839    0.000005240001    0.038071678715    0.027492755752    0.000007782007    0.000008032765    0.030199895390    0.013914579985
0.225     0.017259588647    0.010584427973    0.000004149543    0.000003097412    0.030368414093    0.020396765666    0.000006496851    0.000005575952
            0.000004149543    0.000003097412    0.025027973315    0.019557810952    0.000006244965    0.000005275318    0.036912924386    0.028047759356
            0.030368414093    0.020396765666    0.000006244965    0.000005275318    0.017887588268    0.011032151895    0.000009341136    0.000008564262
            0.000006496851    0.000005575952    0.036912924386    0.028047759356    0.000009341136    0.000008564262    0.025363349363    0.020334631293
0.250     0.011504537798    0.021149425104    0.000004964505    0.000003164884    0.026768118872    0.023865342774    0.000007778033    0.000005749611
            0.000004964505    0.000003164884    0.021817995526    0.029419775464    0.000007457649    0.000005458913    0.035369634837    0.031121181981
            0.026768118872    0.023865342774    0.000007457649    0.000005458913    0.012237831626    0.021438183497    0.000011157183    0.000008874732
            0.000007778033    0.000005749611    0.035369634837    0.031121181981    0.000011157183    0.000008874732    0.022370394686    0.030079243913
0.275     0.009547914787    0.035063416421    0.000005902618    0.000003051482    0.024406077569    0.030496455108    0.000009227983    0.000005662173
            0.000005902618    0.000003051482    0.022101639657    0.041822735338    0.000008845598    0.000005399844    0.034892377759    0.036745438777
            0.024406077569    0.030496455108    0.000008845598    0.000005399844    0.010304789784    0.035157438268    0.000013196241    0.000008842104
            0.000009227983    0.000005662173    0.034892377759    0.036745438777    0.000013196241    0.000008842104    0.022791612781    0.042280114829
0.300     0.012819075352    0.050562763164    0.000006903963    0.000002686934    0.024843364002    0.039507586638    0.000010764929    0.000005225943
            0.000006903963    0.000002686934    0.026993041830    0.055170394583    0.000010334417    0.000005006197    0.036810910402    0.044244527140
            0.024843364002    0.039507586638    0.000010334417    0.000005006197    0.013505091004    0.050466849724    0.000015357375    0.000008358344
            0.000010764929    0.000005225943    0.036810910402    0.044244527140    0.000015357375    0.000008358344    0.027705990392    0.055387927585
0.325     0.021845621151    0.065329873578    0.000007868089    0.000002032366    0.029121409900    0.049440101660    0.000012258029    0.000004394347
            0.000007868089    0.000002032366    0.036797603936    0.067446652443    0.000011797778    0.000004223504    0.041998905316    0.052362830662
            0.029121409900    0.049440101660    0.000011797778    0.000004223504    0.022372523748    0.065093069033    0.000017480814    0.000007364250
            0.000012258029    0.000004394347    0.041998905316    0.052362830662    0.000017480814    0.000007364250    0.037410472050    0.067446607783
0.350     0.036075292602    0.076984501839    0.000008677393    0.000001104962    0.037507764878    0.058492790942    0.000013558077    0.000003191512
            0.000008677393    0.000001104962    0.050894357596    0.076652911699    0.000013086563    0.000003066457    0.050662982014    0.059560229614
            0.037507764878    0.058492790942    0.000013086563    0.000003066457    0.036382591472    0.076694090356    0.000019383811    0.000005885407
            0.000013558077    0.000003191512    0.050662982014    0.059560229614    0.000019383811    0.000005885407    0.051305374447    0.076515091057
0.375     0.053956195487    0.083573959015    0.000009230841    -0.000000018996    0.049430831586    0.064913133093    0.000014536966    0.000001713224
            0.000009230841    -0.000000018996    0.067835914763    0.081217418113    0.000014068076    0.000001622603    0.062288277133    0.064346111420
            0.049430831586    0.064913133093    0.000014068076    0.000001622603    0.054026576459    0.083340475991    0.000020907177    0.000004032923
            0.000014536966    0.000001713224    0.062288277133    0.064346111420    0.000020907177    0.000004032923    0.067989833262    0.081064115119
0.400     0.073242792632    0.083979398537    0.000009476689    -0.000001220262    0.063617222640    0.067367672082    0.000015128006    0.000000108125
            0.000009476689    -0.000001220262    0.085637305554    0.080327564910    0.000014667267    0.000000035845    0.075764781332    0.065599613988
            0.063617222640    0.067367672082    0.000014667267    0.000000035845    0.073108571291    0.083915596583    0.000021963046    0.000001982917
            0.000015128006    0.000000108125    0.075764781332    0.065599613988    0.000021963046    0.000001982917    0.085541025926    0.080297532650
0.425     0.091425045926    0.078105567831    0.000009426543    -0.000002370679    0.078349737110    0.065173338076    0.000015340657    -0.000001463994
            0.000009426543    -0.000002370679    0.102158112607    0.074059858176    0.000014884929    -0.000001534125    0.089608692647    0.062763710013
            0.078349737110    0.065173338076    0.000014884929    -0.000001534125    0.091166316803    0.078304816241    0.000022553427    -0.000000071885
            0.000015340657    -0.000001463994    0.089608692647    0.062763710013    0.000022553427    -0.000000071885    0.101881918070    0.074278718342
0.450     0.106179966909    0.066877638907    0.000009150274    -0.000003366074    0.091783325502    0.058403453795    0.000015256664    -0.000002869849
            0.000009150274    -0.000003366074    0.115492441815    0.063346667367    0.000014795314    -0.000002950430    0.102242187171    0.055935814421
            0.091783325502    0.058403453795    0.000014795314    -0.000002950430    0.105912894623    0.067395104141    0.000022768035    -0.000001966638
            0.000015256664    -0.000002869849    0.102242187171    0.055935814421    0.000022768035    -0.000001966638    0.115157272826    0.063901096211
0.475     0.115740529787    0.052055477778    0.000008752885    -0.000004149400    0.102235374290    0.047854214325    0.000015003017    -0.000004031567
            0.000008752885    -0.000004149400    0.124269272845    0.049784442609    0.000014519995    -0.000004129425    0.112242585607    0.045831233310
            0.102235374290    0.047854214325    0.000014519995    -0.000004129425    0.115600056050    0.052896464204    0.000022753592    -0.000003599913
            0.000015003017    -0.000004031567    0.112242585607    0.045831233310    0.000022753592    -0.000003599913    0.124026764785    0.050704612586
0.500     0.119164252204    0.035955476977    0.000008347901    -0.000004717893    0.108446133759    0.034939007325    0.000014722744    -0.000004936485
            0.000008347901    -0.000004717893    0.127862044789    0.035370977326    0.000014199537    -0.000005052508    0.118574984026    0.033684786162
            0.108446133759    0.034939007325    0.000014199537    -0.000005052508    0.119282315452    0.037069157037    0.000022680782    -0.000004947407
            0.000014722744    -0.000004936485    0.118574984026    0.033684786162    0.000022680782    -0.000004947407    0.127868942907    0.036623762070
0.525     0.116472012151    0.021105020551    0.000008034234    -0.000005117620    0.109779937660    0.021499344596    0.000014546012    -0.000005635012
            0.000008034234    -0.000005117620    0.126468393816    0.022191890186    0.000013963721    -0.000005763246    0.120760495336    0.021070602291
            0.109779937660    0.021499344596    0.000013963721    -0.000005763246    0.116955196236    0.022388609327    0.000022709629    -0.000006062199
            0.000014546012    -0.000005635012    0.120760495336    0.021070602291    0.000022709629    -0.000006062199    0.126869816137    0.023686322080
0.550     0.108688961142    0.009880428660    0.000007881770    -0.000005429780    0.106387006485    0.009562720144    0.000014571863    -0.000006227221
            0.000007881770    -0.000005429780    0.121103109982    0.012111122350    0.000013912393    -0.000006354634    0.119006142412    0.009664067712
            0.106387006485    0.009562720144    0.000013912393    -0.000006354634    0.109596878752    0.011190145074    0.000022965139    -0.000007060760
            0.000014571863    -0.000006227221    0.119006142412    0.009664067712    0.000022965139    -0.000007060760    0.122022077777    0.013684563247
0.575     0.097753335248    0.004123101750    0.000007923439    -0.000005757443    0.099269639947    0.001012666033    0.000014852402    -0.000006849127
            0.000007923439    -0.000005757443    0.113471753104    0.006464225342    0.000014100068    -0.000006954836    0.114187870119    0.000952176552
            0.099269639947    0.001012666033    0.000014100068    -0.000006954836    0.099082762720    0.005294893013    0.000023515348    -0.000008107316
            0.000014852402    -0.000006849127    0.114187870119    0.000952176552    0.000023515348    -0.000008107316    0.114941192875    0.007872978781
0.600     0.086295119464    0.004775888185    0.000008149630    -0.000006216871    0.090228732407    -0.002782111143    0.000015382255    -0.000007660321
            0.000008149630    -0.000006216871    0.105749018746    0.005790585600    0.000014526849    -0.000007715509    0.107790933871    -0.004008456266
            0.090228732407    -0.002782111143    0.000014526849    -0.000007715509    0.087973346848    0.005652559253    0.000024358033    -0.000009397256
            0.000015382255    -0.000007660321    0.107790933871    -0.004008456266    0.000024358033    -0.000009397256    0.107665057353    0.006806601585
0.625     0.077230855769    0.011590735360    0.000008499267    -0.000006924702    0.081601787308    -0.001344148762    0.000016080801    -0.000008824435
            0.000008499267    -0.000006924702    0.100216389840    0.009651304340    0.000015122643    -0.000008793245    0.101713176454    -0.004904860003
            0.081601787308    -0.001344148762    0.000015122643    -0.000008793245    0.079121620634    0.012052688026    0.000025396818    -0.000011132695
            0.000016080801    -0.000008824435    0.101713176454    -0.004904860003    0.000025396818    -0.000011132695    0.102392024119    0.010122968540
0.650     0.073215690188    0.023023473171    0.000008851578    -0.000007976380    0.075818561364    0.004683721906    0.000016784030    -0.000010474262
            0.000008851578    -0.000007976380    0.098824128466    0.016612888149    0.000015738214    -0.000010318534    0.097874466228    -0.002343562009
            0.075818561364    0.004683721906    0.000015738214    -0.000010318534    0.075139600236    0.023017211251    0.000026432753    -0.000013477508
            0.000016784030    -0.000010474262    0.097874466228    -0.002343562009    0.000026432753    -0.000013477508    0.101026703488    0.016476893104
0.675     0.076026941461    0.036414683271    0.000009028931    -0.000009409788    0.074819465952    0.013552725974    0.000017251089    -0.000012661761
            0.000009028931    -0.000009409788    0.102730616051    0.024450889510    0.000016149470    -0.000012349290    0.097740128512    0.002209449128
            0.074819465952    0.013552725974    0.000016149470    -0.000012349290    0.077794315167    0.035969145926    0.000027173887    -0.000016497417
            0.000017251089    -0.000012661761    0.097740128512    0.002209449128    0.000027173887    -0.000016497417    0.104715327536    0.023745305807
0.700     0.086089504985    0.048494435581    0.000008828169    -0.000011167469    0.079553339124    0.022758623029    0.000017212359    -0.000015312487
            0.000008828169    -0.000011167469    0.111986504793    0.030583209810    0.000016099322    -0.000014825605    0.101955675037    0.006733428065
            0.079553339124    0.022758623029    0.000016099322    -0.000014825605    0.087538071421    0.047719627948    0.000027294183    -0.000020107622
            0.000017212359    -0.000015312487    0.101955675037    0.006733428065    0.000027294183    -0.000020107622    0.113541454641    0.029448119218
0.725     0.102303049128    0.056096334476    0.000008079832    -0.000013081211    0.089708331821    0.029615683053    0.000016442788    -0.000018209734
            0.000008079832    -0.000013081211    0.125459389187    0.032634594154    0.000015366497    -0.000017550358    0.110155661036    0.009116151079
            0.089708331821    0.029615683053    0.000015366497    -0.000017550358    0.103333693724    0.055162838011    0.000026517896    -0.000024054447
            0.000016442788    -0.000018209734    0.110155661036    0.009116151079    0.000026517896    -0.000024054447    0.126448681385    0.031289439758
0.750     0.122282955008    0.056861569781    0.000006713785    -0.000014900243    0.103816267991    0.031885778696    0.000014844512    -0.000021033919
            0.000006713785    -0.000014900243    0.141073556735    0.028963176736    0.000013846668    -0.000020222925    0.121072243675    0.007639413126
            0.103816267991    0.031885778696    0.000013846668    -0.000020222925    0.122878200167    0.055967016879    0.000024716921    -0.000027961130
            0.000014844512    -0.000021033919    0.121072243675    0.007639413126    0.000024716921    -0.000027961130    0.141465519395    0.027667796229
0.775     0.142895232387    0.049707109534    0.000004795735    -0.000016358792    0.119625200478    0.028220634178    0.000012486924    -0.000023444855
            0.000004795735    -0.000016358792    0.156256904302    0.018992751726    0.000011595009    -0.000022515457    0.132829318368    0.001325322953
            0.119625200478    0.028220634178    0.000011595009    -0.000022515457    0.143122592953    0.049037426350    0.000021956513    -0.000031420889
            0.000012486924    -0.000023444855    0.132829318368    0.001325322953    0.000021956513    -0.000031420889    0.156131225998    0.017997993952
0.800     0.160916284995    0.034949202478    0.000002515473    -0.000017253968    0.134613013854    0.018342205315    0.000009593775    -0.000025176119
            0.000002515473    -0.000017253968    0.168473079071    0.003270472659    0.000008818630    -0.000024165110    0.143362355887    -0.009926593578
