# GHz S RI R 45
0.000     0.021358594685    0.001404599396    -0.000000331333    -0.000000215952    0.000693283734    0.001209407356    -0.000000084248    0.000000303770
            -0.000000331332    -0.000000215952    0.022251066279    0.001692863753    -0.000000667256    -0.000000896298    0.000782597386    0.001647796440
            0.000693283713    0.001209407368    -0.000000667256    -0.000000896298    0.021292479724    0.001396417786    -0.000000330923    -0.000000194572
            -0.000000084329    0.000000303771    0.000782597559    0.001647796358    -0.000000330928    -0.000000194572    0.022180474359    0.001704856308
0.025     0.027404785657    0.007544227601    -0.000000590870    -0.000000382579    0.003353894406    0.009238378210    0.000000041424    0.000000697289
            -0.000000590870    -0.000000382579    0.027080620012    0.009216677612    -0.000001440929    -0.000001787771    0.002617283191    0.011119703372
            0.003353735510    0.009238442702    -0.000001440920    -0.000001787769    0.027322199248    0.007441023659    -0.000000578542    -0.000000331002
            0.000000041423    0.000000697290    0.002617537943    0.011119129741    -0.000000578552    -0.000000331005    0.026995086488    0.009179483562
0.050     0.035684959152    0.008308181424    -0.000000999154    -0.000000402683    0.010636599248    0.015727799752    0.000000436944    0.000001309869
            -0.000000999154    -0.000000402683    0.032297800473    0.013020218039    -0.000002883210    -0.000002622965    0.007730367187    0.020567898861
            0.010636573137    0.015727813789    -0.000002883213    -0.000002622965    0.035561022283    0.008133648190    -0.000000951624    -0.000000305929
            0.000000436944    0.000001309869    0.007730463904    0.020567893491    -0.000000951620    -0.000000305930    0.032125233861    0.012981842429
0.075     0.044378592607    0.003926827570    -0.000001352116    -0.000000217687    0.020511305810    0.017528254446    0.000001072416    0.000001774255
            -0.000001352116    -0.000000217687    0.036969188348    0.014232087268    -0.000004501595    -0.000002796387    0.014869084963    0.027282317947
            0.020511299701    0.017528258516    -0.000004501596    -0.000002796387    0.044212206908    0.003706095163    -0.000001246155    -0.000000090994
            0.000001072416    0.000001774255    0.014869080677    0.027282320283    -0.000001246154    -0.000000090994    0.036702542966    0.014258942101
0.100     0.051104709577    -0.005651279068    -0.000001628450    0.000000116834    0.030445736208    0.013904396907    0.000001895936    0.000002018026
            -0.000001628450    0.000000116834    0.040161183001    0.013406847064    -0.000006173471    -0.000002360511    0.022613080802    0.030918533168
            0.030445737118    0.013904397322    -0.000006173472    -0.000002360510    0.050908985694    -0.005893586056    -0.000001443969    0.000000246249
            0.000001895936    0.000002018026    0.022613055573    0.030918541709    -0.000001443968    0.000000246249    0.039822901460    0.013562744929
0.125     0.053331118726    -0.019406249114    -0.000001788128    0.000000570656    0.037833721358    0.005297682757    0.000002841816    0.000001992746
            -0.000001788128    0.000000570656    0.040908959835    0.011549861972    -0.000007737901    -0.000001330937    0.029641537079    0.031768604612
            0.037833722339    0.005297682962    -0.000007737902    -0.000001330936    0.053126214739    -0.019657422919    -0.000001519285    0.000000661350
            0.000002841816    0.000001992745    0.029641537079    0.031768604612    -0.000001519284    0.000000661348    0.040563249554    0.011886755268
0.150     0.049272004354    -0.034921310343    -0.000001803180    0.000001096584    0.040496295890    -0.006791990066    0.000003836365    0.000001663483
            -0.000001803181    0.000001096585    0.039229111935    0.010049111933    -0.000009058554    0.000000224533    0.034835512178    0.030629106253
            0.040496295890    -0.006791990066    -0.000009058553    0.000000224533    0.049096838718    -0.035176238221    -0.000001467841    0.000001104655
            0.000003836365    0.000001663484    0.034835512178    0.030629106253    -0.000001467842    0.000001104655    0.038948772417    0.010579250812
0.175     0.038163474767    -0.049338200790    -0.000001656900    0.000001653518    0.037063894903    -0.019976175923    0.000004800219    0.000001013768
            -0.000001656899    0.000001653517    0.035330705642    0.010183381643    -0.000010017979    0.000002250193    0.037620187044    0.028746358417
            0.037063894903    -0.019976175923    -0.000010017979    0.000002250193    0.038050306906    -0.049621745375    -0.000001298318    0.000001548292
            0.000004800220    0.000001013767    0.037620187044    0.028746358417    -0.000001298318    0.000001548291    0.035201899918    0.010878163097
0.200     0.020560763150    -0.059519474590    -0.000001340238    0.000002198499    0.027314294638    -0.031418383910    0.000005648450    0.000000041653
            -0.000001340238    0.000002198499    0.030109580975    0.013127692445    -0.000010500758    0.000004680495    0.038071678715    0.027492755752
            0.027314294638    -0.031418383910    -0.000010500757    0.000004680494    0.020524751581    -0.059875880788    -0.000001014992    0.000001977750
            0.000005648450    0.000000041654    0.038071678715    0.027492755752    -0.000001014992    0.000001977751    0.030199895390    0.013914579985
0.225     -0.001607270441    -0.062669192637    -0.000000848513    0.000002685976    0.012285378424    -0.038345602117    0.000006293434    -0.000001236999
            -0.000000848513    0.000002685976    0.025027973315    0.019557810952    -0.000010371829    0.000007430945    0.036912924386    0.028047759356
            0.012285378424    -0.038345602117    -0.000010371829    0.000007430945    -0.001577030606    -0.063151685181    -0.000000606675    0.000002382596
            0.000006293434    -0.000001236999    0.036912924386    0.028047759356    -0.000000606675    0.000002382597    0.025363349363    0.020334631293
0.250     -0.025240138698    -0.056949801288    -0.000000186460    0.000003062628    -0.005823028523    -0.038595220951    0.000006642183    -0.000002785462
            -0.000000186460    0.000003062628    0.021817995526    0.029419775464    -0.000009489764    0.000010363433    0.035369634837    0.031121181981
            -0.005823028523    -0.038595220951    -0.000009489764    0.000010363433    -0.025183971940    -0.057605818802    -0.000000048082    0.000002734151
            0.000006642184    -0.000002785462    0.035369634837    0.031121181981    -0.000000048082    0.000002734151    0.022370394686    0.030079243913
0.275     -0.046562186091    -0.041939439222    0.000000625562    0.000003267557    -0.023982821715    -0.031080991254    0.000006604327    -0.000004540863
            0.000000625562    0.000003267557    0.022101639657    0.041822735338    -0.000007730668    0.000013262814    0.034892377759    0.036745438777
            -0.023982821715    -0.031080991254    -0.000007730668    0.000013262814    -0.046546213310    -0.042795605277    0.000000682472    0.000002973557
            0.000006604327    -0.000004540863    0.034892377759    0.036745438777    0.000000682472    0.000002973557    0.022791612781    0.042280114829
0.300     -0.061782666612    -0.018867988630    0.000001540026    0.000003239100    -0.038867513050    -0.016095382044    0.000006096266    -0.000006406683
            0.000001540026    0.000003239100    0.026993041830    0.055170394583    -0.000005046894    0.000015838915    0.036810910402    0.044244527140
            -0.038867513050    -0.016095382044    -0.000005046894    0.000015838915    -0.061888062476    -0.019917169484    0.000001574778    0.000003010044
            0.000006096266    -0.000006406683    0.036810910402    0.044244527140    0.000001574778    0.000003010044    0.027705990392    0.055387927585
0.325     -0.067816186337    0.009489909049    0.000002479638    0.000002931176    -0.047473382078    0.004660929306    0.000005059548    -0.000008253037
            0.000002479638    0.000002931176    0.036797603936    0.067446652443    -0.000001510023    0.000017761785    0.041998905316    0.052362830662
            -0.047473382078    0.004660929306    -0.000001510024    0.000017761785    -0.068121365021    0.008295468872    0.000002563968    0.000002748217
            0.000005059548    -0.000008253037    0.041998905316    0.052362830662    0.000002563968    0.000002748217    0.037410472050    0.067446607783
0.350     -0.062910993442    0.039220415737    0.000003345018    0.000002331736    -0.047710949690    0.028330355789    0.000003475832    -0.000009918479
            0.000003345019    0.000002331736    0.050894357596    0.076652911699    0.000002666194    0.000018734690    0.050662982014    0.059560229614
            -0.047710949690    0.028330355789    0.000002666194    0.000018734690    -0.063472167409    0.037966879001    0.000003526460    0.000002122754
            0.000003475832    -0.000009918479    0.050662982014    0.059560229614    0.000003526460    0.000002122754    0.051305374447    0.076515091057
0.375     -0.047018845390    0.065926654315    0.000004036912    0.000001472835    -0.038808272999    0.051385728337    0.000001385830    -0.000011232558
            0.000004036912    0.000001472835    0.067835914763    0.081217418113    0.000007155850    0.000018558589    0.062288277133    0.064346111420
            -0.038808272999    0.051385728337    0.000007155850    0.000018558589    -0.047853092337    0.064727184104    0.000004306733    0.000001135587
            0.000001385830    -0.000011232558    0.062288277133    0.064346111420    0.000004306733    0.000001135587    0.067989833262    0.081064115119
0.400     -0.021859748309    0.085474869098    0.000004479348    0.000000424634    -0.021468540721    0.070239373509    -0.000001106715    -0.000012038198
            0.000004479348    0.000000424634    0.085637305554    0.080327564910    0.000011582622    0.000017181446    0.075764781332    0.065599613988
            -0.021468540721    0.070239373509    0.000011582622    0.000017181446    -0.022933506912    0.084451736753    0.000004756011    -0.000000134670
            -0.000001106715    -0.000012038198    0.075764781332    0.065599613988    0.000004756011    -0.000000134670    0.085541025926    0.080297532650
0.425     0.009344640926    0.094671628642    0.000004635109    -0.000000724931    0.002251753948    0.081823907280    -0.000003847050    -0.000012225929
            0.000004635109    -0.000000724930    0.102158112607    0.074059858176    0.000015592221    0.000014692521    0.089608692647    0.062763710013
            0.002251753948    0.081823907280    0.000015592221    0.000014692521    0.008118215233    0.093935439928    0.000004776722    -0.000001545185
            -0.000003847050    -0.000012225928    0.089608692647    0.062763710013    0.000004776722    -0.000001545185    0.101881918070    0.074278718342
0.450     0.042362066928    0.091765260144    0.000004500181    -0.000001892221    0.029264033502    0.084063522166    -0.000006656451    -0.000011744281
            0.000004500181    -0.000001892221    0.115492441815    0.063346667367    0.000018909769    0.000011291962    0.102242187171    0.055935814421
            0.029264033502    0.084063522166    0.000018909769    0.000011291962    0.041118619226    0.091393217869    0.000004340213    -0.000002923647
            -0.000006656451    -0.000011744281    0.102242187171    0.055935814421    0.000004340213    -0.000002923648    0.115157272826    0.063901096211
0.475     0.072565362774    0.076692009061    0.000004082559    -0.000003017118    0.055891025200    0.076155058849    -0.000009371826    -0.000010609530
            0.000004082559    -0.000003017118    0.124269272845    0.049784442609    0.000021354618    0.000007223609    0.112242585607    0.045831233310
            0.055891025200    0.076155058849    0.000021354617    0.000007223609    0.071478910277    0.076710602004    0.000003487153    -0.000004110410
            -0.000009371826    -0.000010609530    0.112242585607    0.045831233310    0.000003487153    -0.000004110410    0.124026764785    0.050704612586
0.500     0.095564734481    0.051102659145    0.000003400633    -0.000004068294    0.078356334158    0.058695109438    -0.000011849383    -0.000008890060
            0.000003400633    -0.000004068294    0.127862044789    0.035370977326    0.000022858427    0.000002720613    0.118574984026    0.033684786162
            0.078356334158    0.058695109438    0.000022858427    0.000002720613    0.094836253769    0.051465417435    0.000002322869    -0.000004998506
            -0.000011849383    -0.000008890060    0.118574984026    0.033684786162    0.000002322869    -0.000004998506    0.127868942907    0.036623762070
0.525     0.107799048961    0.018190740783    0.000002469145    -0.000004995075    0.093270750289    0.033645587313    -0.000013981044    -0.000006656301
            0.000002469145    -0.000004995075    0.126468393816    0.022191890186    0.000023425364    -0.000002000755    0.120760495336    0.021070602291
            0.093270750289    0.033645587313    0.000023425364    -0.000002000755    0.107625463251    0.018738791025    0.000000991447    -0.000005522475
            -0.000013981043    -0.000006656300    0.120760495336    0.021070602291    0.000000991447    -0.000005522475    0.126869816137    0.023686322080
0.550     0.107109117089    -0.017681545936    0.000001290742    -0.000005735111    0.098143897388    0.004138711302    -0.000015696859    -0.000003975627
            0.000001290742    -0.000005735111    0.121103109982    0.012111122350    0.000023079538    -0.000006774614    0.119006142412    0.009664067712
            0.098143897388    0.004138711302    0.000023079538    -0.000006774614    0.107565960813    -0.017236079053    -0.000000379565    -0.000005678493
            -0.000015696859    -0.000003975627    0.119006142412    0.009664067712    -0.000000379565    -0.000005678493    0.122022077777    0.013684563247
0.575     0.093047345851    -0.051672499454    -0.000000116935    -0.000006225874    0.091727064007    -0.025960500268    -0.000016940147    -0.000000906021
            -0.000000116936    -0.000006225874    0.113471753104    0.006464225342    0.000021841369    -0.000011481408    0.114187870119    0.000952176552
            0.091727064007    -0.025960500268    0.000021841369    -0.000011481408    0.094019074303    -0.051565010952    -0.000001688782    -0.000005518267
            -0.000016940147    -0.000000906018    0.114187870119    0.000952176552    -0.000001688782    -0.000005518267    0.114941192875    0.007872978781
0.600     0.066820178178    -0.078950479951    -0.000001729948    -0.000006381451    0.074172375324    -0.052415308162    -0.000017640041    0.000002510210
            -0.000001729948    -0.000006381451    0.105749018746    0.005790585600    0.000019704747    -0.000016017099    0.107790933871    -0.004008456266
            0.074172375324    -0.052415308162    0.000019704747    -0.000016017099    0.068191442823    -0.079305612161    -0.000002887287    -0.000005117294
            -0.000017640041    0.000002510210    0.107790933871    -0.004008456266    -0.000002887286    -0.000005117294    0.107665057353    0.006806601585
0.625     0.031455680284    -0.095195992156    -0.000003471301    -0.000006095621    0.047297458103    -0.071103002799    -0.000017696230    0.000006222771
            -0.000003471301    -0.000006095621    0.100216389840    0.009651304340    0.000016631450    -0.000020249390    0.101713176454    -0.004904860003
            0.047297458103    -0.071103002799    0.000016631450    -0.000020249390    0.033114947232    -0.096153528759    -0.000003980362    -0.000004544795
            -0.000017696230    0.000006222771    0.101713176454    -0.004904860003    -0.000003980363    -0.000004544795    0.102392024119    0.010122968540
0.650     -0.008411760671    -0.097460769376    -0.000005199625    -0.000005285505    0.014511761659    -0.078795497172    -0.000016978879    0.000010139437
            -0.000005199625    -0.000005285505    0.098824128466    0.016612888149    0.000012583110    -0.000023982686    0.097874466228    -0.002343562009
            0.014511761659    -0.078795497172    0.000012583110    -0.000023982686    -0.006645791574    -0.099147761690    -0.000005009282    -0.000003820142
            -0.000016978879    0.000010139437    0.097874466228    -0.002343562009    -0.000005009282    -0.000003820142    0.101026703488    0.016476893104
0.675     -0.047213148682    -0.084778899809    -0.000006726161    -0.000003928609    -0.019651151386    -0.073787077428    -0.000015355778    0.000014104982
            -0.000006726161    -0.000003928609    0.102730616051    0.024450889510    0.000007574701    -0.000026937554    0.097740128512    0.002209449128
            -0.019651151386    -0.073787077428    0.000007574701    -0.000026937554    -0.045586576428    -0.087250440895    -0.000006006315    -0.000002900979
            -0.000015355778    0.000014104982    0.097740128512    0.002209449128    -0.000006006315    -0.000002900979    0.104715327536    0.023745305807
0.700     -0.079326753288    -0.058446972975    -0.000007844016    -0.000002085997    -0.050248774704    -0.056293793895    -0.000012724178    0.000017882155
            -0.000007844016    -0.000002085997    0.111986504793    0.030583209810    0.000001742903    -0.000028790248    0.101955675037    0.006733428065
            -0.050248774704    -0.056293793895    0.000001742903    -0.000028790248    -0.078108769025    -0.061653901586    -0.000006941516    -0.000001698302
            -0.000012724178    0.000017882155    0.101955675037    0.006733428065    -0.000006941516    -0.000001698302    0.113541454641    0.029448119218
0.725     -0.100023685545    -0.021893997648    -0.000008375068    0.000000085075    -0.072767969983    -0.028481683920    -0.000009063349    0.000021166117
            -0.000008375068    0.000000085075    0.125459389187    0.032634594154    -0.000004621300    -0.000029243095    0.110155661036    0.009116151079
            -0.072767969983    -0.028481683920    -0.000004621300    -0.000029243095    -0.099457789518    -0.025677757465    -0.000007701228    -0.000000138429
            -0.000009063349    0.000021166117    0.110155661036    0.009116151079    -0.000007701227    -0.000000138429    0.126448681385    0.031289439758
0.750     -0.106288666222    0.019868189826    -0.000008219148    0.000002351550    -0.083917124288    0.005887087538    -0.000004474726    0.000023616678
            -0.000008219148    0.000002351550    0.141073556735    0.028963176736    -0.000011096119    -0.000028121745    0.121072243675    0.007639413126
            -0.083917124288    0.005887087538    -0.000011096119    -0.000028121745    -0.106545500202    0.015756395809    -0.000008105008    0.000001779789
            -0.000004474727    0.000023616679    0.121072243675    0.007639413126    -0.000008105008    0.000001779789    0.141465519395    0.027667796229
0.775     -0.097294720137    0.061100324267    -0.000007393786    0.000004452249    -0.082137117637    0.042126701646    0.000000798273    0.000024932074
            -0.000007393786    0.000004452249    0.156256904302    0.018992751726    -0.000017206765    -0.000025426356    0.132829318368    0.001325322953
            -0.082137117637    0.042126701646    -0.000017206765    -0.000025426356    -0.098440864265    0.056963332710    -0.000007971540    0.000003948485
            0.000000798273    0.000024932074    0.132829318368    0.001325322953    -0.000007971541    0.000003948485    0.156131225998    0.017997993952
