# GHz S RI R 45
0.000     0.021138466999    0.001730115341    -0.000001729710    -0.000003734496    0.000683744093    0.001459745246    -0.000001572019    -0.000003438265
            -0.000001729710    -0.000003734496    0.022251066279    0.001692863753    -0.000001927879    -0.000004110569    0.000782597386    0.001647796440
            0.000683744289    0.001459745265    -0.000001927879    -0.000004110569    0.021098332721    0.001743137657    -0.000001732110    -0.000003748233
            -0.000001572021    -0.000003438264    0.000782597559    0.001647796358    -0.000001732113    -0.000003748233    0.022180474359    0.001704856308
0.025     0.027468727585    0.007674419159    -0.000004453235    -0.000007749436    0.003525343624    0.009414265124    -0.000004082701    -0.000007138505
            -0.000004453232    -0.000007749433    0.027080620012    0.009216677612    -0.000004919478    -0.000008534200    0.002617283191    0.011119703372
            0.003523585826    0.009413133625    -0.000004919484    -0.000008534209    0.027409995860    0.007631137895    -0.000004463361    -0.000007784527
            -0.000004082707    -0.000007138516    0.002617537943    0.011119129741    -0.000004463364    -0.000007784530    0.026995086488    0.009179483562
0.050     0.036212890761    0.008292346542    -0.000010194741    -0.000012487154    0.011240588443    0.015884255043    -0.000009382506    -0.000011496438
            -0.000010194741    -0.000012487154    0.032297800473    0.013020218039    -0.000011225859    -0.000013760350    0.007730367187    0.020567898861
            0.011240549233    0.015884217861    -0.000011225859    -0.000013760350    0.036167894224    0.008212201876    -0.000010230936    -0.000012543897
            -0.000009382507    -0.000011496439    0.007730463904    0.020567893491    -0.000010230936    -0.000012543897    0.032125233861    0.012981842429
0.075     0.045473739155    0.003502404849    -0.000017496492    -0.000014598503    0.021685011021    0.017403642572    -0.000016115689    -0.000013418525
            -0.000017496492    -0.000014598503    0.036969188348    0.014232087268    -0.000019241976    -0.000016110205    0.014869084963    0.027282317947
            0.021685005208    0.017403646619    -0.000019241977    -0.000016110206    0.045458853156    0.003377335944    -0.000017554542    -0.000014657283
            -0.000016115689    -0.000013418525    0.014869080677    0.027282320283    -0.000017554542    -0.000014657283    0.036702542966    0.014258942101
0.100     0.052773224606    -0.006784120344    -0.000025629331    -0.000013929953    0.032211113977    0.013187601780    -0.000023594673    -0.000012771528
            -0.000025629331    -0.000013929953    0.040161183001    0.013406847064    -0.000028177864    -0.000015421836    0.022613080802    0.030918533168
            0.032211112821    0.013187601964    -0.000028177864    -0.000015421836    0.052800913675    -0.006972152186    -0.000025692564    -0.000013986589
            -0.000023594673    -0.000012771528    0.022613055573    0.030918541709    -0.000025692564    -0.000013986589    0.039822901460    0.013562744929
0.125     0.055421500351    -0.021498152362    -0.000033817449    -0.000010389671    0.040071736276    0.003671477961    -0.000031103552    -0.000009487155
            -0.000033817449    -0.000010389671    0.040908959835    0.011549861972    -0.000037191153    -0.000011592307    0.029641537079    0.031768604612
            0.040071732514    0.003671464216    -0.000037191153    -0.000011592307    0.055498083147    -0.021777669813    -0.000033873217    -0.000010458445
            -0.000031103552    -0.000009487155    0.029641537079    0.031768604612    -0.000033873217    -0.000010458445    0.040563249554    0.011886755268
0.150     0.051589231433    -0.038277535754    -0.000041331389    -0.000004051988    0.042953369516    -0.009584636773    -0.000037977279    -0.000003649879
            -0.000041331389    -0.000004051988    0.039229111935    0.010049111933    -0.000045489747    -0.000004698717    0.034835512178    0.030629106253
            0.042953369516    -0.009584636773    -0.000045489747    -0.000004698717    0.051700411206    -0.038673232321    -0.000041382300    -0.000004162638
            -0.000037977279    -0.000003649879    0.034835512178    0.030629106253    -0.000041382300    -0.000004162638    0.038948772417    0.010579250812
0.175     0.040333652227    -0.054116925851    -0.000047491096    0.000004958918    0.039382081007    -0.024089604729    -0.000043610490    0.000004621559
            -0.000047491096    0.000004958918    0.035330705642    0.010183381643    -0.000052333631    0.000005130988    0.037620187044    0.028746358417
            0.039382081007    -0.024089604729    -0.000052333631    0.000005130988    0.040457818940    -0.054657462900    -0.000047569572    0.000004775814
            -0.000043610490    0.000004621559    0.037620187044    0.028746358417    -0.000047569572    0.000004775814    0.035201899918    0.010878163097
0.200     0.022163664159    -0.065717772305    -0.000051575232    0.000016445703    0.029072117015    -0.036867153452    -0.000047356683    0.000015157490
            -0.000051575232    0.000016445703    0.030109580975    0.013127692445    -0.000056936621    0.000017691527    0.038071678715    0.027492755752
            0.029072117015    -0.036867153452    -0.000056936621    0.000017691527    0.022262015362    -0.066429342583    -0.000051739669    0.000016186496
            -0.000047356683    0.000015157490    0.038071678715    0.027492755752    -0.000051739669    0.000016186496    0.030199895390    0.013914579985
0.225     -0.000986259543    -0.070135038807    -0.000052737445    0.000030054783    0.013049539940    -0.044983274797    -0.000048441770    0.000027654178
            -0.000052737445    0.000030054783    0.025027973315    0.019557810952    -0.000058371989    0.000032610689    0.036912924386    0.028047759356
            0.013049539940    -0.044983274797    -0.000058371989    0.000032610689    -0.000971314052    -0.071028807984    -0.000053054088    0.000029753502
            -0.000048441770    0.000027654178    0.036912924386    0.028047759356    -0.000053054088    0.000029753502    0.025363349363    0.020334631293
0.250     -0.025971981645    -0.065385724964    -0.000050081505    0.000045090424    -0.006440489043    -0.046110631870    -0.000046028228    0.000041492715
            -0.000050081505    0.000045090424    0.021817995526    0.029419775464    -0.000055652082    0.000049145986    0.035369634837    0.031121181981
            -0.006440489043    -0.046110631870    -0.000055652082    0.000049145986    -0.026108759416    -0.066446448353    -0.000050597585    0.000044825357
            -0.000046028228    0.000041492715    0.035369634837    0.031121181981    -0.000050597585    0.000044825357    0.022370394686    0.030079243913
0.275     -0.048926070584    -0.050905492699    -0.000042836692    0.000060403965    -0.026265678050    -0.039009794396    -0.000039377452    0.000055625967
            -0.000042836692    0.000060403965    0.022101639657    0.041822735338    -0.000047916881    0.000066057579    0.034892377759    0.036745438777
            -0.026265678050    -0.039009794396    -0.000047916881    0.000066057579    -0.049281650451    -0.052086088922    -0.000043550927    0.000060283245
            -0.000039377452    0.000055625967    0.034892377759    0.036745438777    -0.000043550927    0.000060283245    0.022791612781    0.042280114829
0.300     -0.065908272767    -0.027803690502    -0.000030659702    0.000074422437    -0.042935223229    -0.023852319197    -0.000028145547    0.000068590197
            -0.000030659702    0.000074422437    0.026993041830    0.055170394583    -0.000034763111    0.000081636441    0.036810910402    0.044244527140
            -0.042935223229    -0.023852319197    -0.000034763111    0.000081636441    -0.066533935846    -0.029023595937    -0.000031510272    0.000074550392
            -0.000028145547    0.000068590197    0.036810910402    0.044244527140    -0.000031510272    0.000074550392    0.027705990392    0.055387927585
0.325     -0.073625909769    0.001216801083    -0.000013871665    0.000085365769    -0.053226493296    -0.002274367834    -0.000012609536    0.000078714673
            -0.000013871665    0.000085365769    0.036797603936    0.067446652443    -0.000016505578    0.000093934771    0.041998905316    0.052362830662
            -0.053226493296    -0.002274367834    -0.000016505578    0.000093934771    -0.074540531148    0.000064437441    -0.000014745784    0.000085806936
            -0.000012609536    0.000078714673    0.041998905316    0.052362830662    -0.000014745784    0.000085806936    0.037410472050    0.067446607783
0.350     -0.070079301969    0.032230551056    0.000006436279    0.000091625800    -0.054796196353    0.022844404763    0.000006217341    0.000084476569
            0.000006436279    0.000091625800    0.050894357596    0.076652911699    0.000005697639    0.000101174686    0.050662982014    0.059560229614
            -0.054796196353    0.022844404763    0.000005697639    0.000101174686    -0.071258227737    0.031265995335    0.000005678344    0.000092380644
            0.000006217341    0.000084476569    0.050662982014    0.059560229614    0.000005678344    0.000092380644    0.051305374447    0.076515091057
0.375     -0.054970192352    0.060723681626    0.000028564800    0.000092134362    -0.046621097087    0.047848270135    0.000026738951    0.000084859487
            0.000028564800    0.000092134362    0.067835914763    0.081217418113    0.000030015645    0.000102152925    0.062288277133    0.064346111420
            -0.046621097087    0.047848270135    0.000030015645    0.000102152925    -0.056338311225    0.060061583634    0.000028043392    0.000093133077
            0.000026738951    0.000084859487    0.062288277133    0.064346111420    0.000028043392    0.000093133077    0.067989833262    0.081064115119
0.400     -0.029818834446    0.082337115016    0.000050542341    0.000086612265    -0.029208495264    0.068914245866    0.000047085660    0.000079597663
            0.000050542341    0.000086612265    0.085637305554    0.080327564910    0.000054299873    0.000096518377    0.075764781332    0.065599613988
            -0.029208495264    0.068914245866    0.000054299873    0.000096518377    -0.031253385375    0.082066347661    0.000050325423    0.000087735956
            0.000047085660    0.000079597663    0.075764781332    0.065599613988    0.000050325423    0.000087735956    0.085541025926    0.080297532650
0.425     0.002253162493    0.093574268129    0.000070533477    0.000075560924    -0.004520907634    0.082663311688    0.000065515776    0.000069177521
            0.000070533477    0.000075560924    0.102158112607    0.074059858176    0.000076532261    0.000084777764    0.089608692647    0.062763710013
            -0.004520907634    0.082663311688    0.000076532261    0.000084777764    0.000912717423    0.093739273647    0.000070617853    0.000076683491
            0.000065515776    0.000069177521    0.089608692647    0.062763710013    0.000070617853    0.000076683491    0.101881918070    0.074278718342
0.450     0.036984693835    0.092352539507    0.000087173507    0.000060072182    0.024315209217    0.086683761159    0.000080741838    0.000054651890
            0.000087173507    0.000060072182    0.115492441815    0.063346667367    0.000095194093    0.000068093810    0.102242187171    0.055935814421
            0.024315209217    0.086683761159    0.000095194093    0.000068093810    0.035920504037    0.092940442784    0.000087490525    0.000061101179
            0.000080741838    0.000054651890    0.102242187171    0.055935814421    0.000087490525    0.000061101179    0.115157272826    0.063901096211
0.475     0.069593394816    0.078309934014    0.000099717035    0.000041485862    0.053457298071    0.079872202624    0.000092071198    0.000037318826
            0.000099717035    0.000041485862    0.124269272845    0.049784442609    0.000109440849    0.000047915959    0.112242585607    0.045831233310
            0.053457298071    0.079872202624    0.000109440849    0.000047915959    0.068991238845    0.079243322075    0.000100171599    0.000042390843
            0.000092071198    0.000037318826    0.112242585607    0.045831233310    0.000100171599    0.000042390843    0.124026764785    0.050704612586
0.500     0.095437324831    0.052878082174    0.000108019456    0.000021058175    0.078867199192    0.062607762126    0.000099404401    0.000018392959
            0.000108019456    0.000021058175    0.127862044789    0.035370977326    0.000119093846    0.000025615176    0.118574984026    0.033684786162
            0.078867199192    0.062607762126    0.000119093846    0.000025615176    0.095472608666    0.054007044202    0.000108535763    0.000021884641
            0.000099404401    0.000018392959    0.118574984026    0.033684786162    0.000108535763    0.000021884641    0.127868942907    0.036623762070
0.525     0.110648663684    0.019134424087    0.000112331976    -0.000000265714    0.096841425765    0.036739745410    0.000103031917    -0.000001218347
            0.000112331976    -0.000000265714    0.126468393816    0.022191890186    0.000124409996    0.000002206415    0.120760495336    0.021070602291
            0.096841425765    0.036739745410    0.000124409996    0.000002206415    0.111459571781    0.020207776511    0.000112897823    0.000000551536
            0.000103031917    -0.000001218347    0.120760495336    0.021070602291    0.000112897823    0.000000551536    0.126869816137    0.023686322080
0.550     0.112755406322    -0.018569398433    0.000113055981    -0.000021978971    0.104568387296    0.005392728655    0.000103392768    -0.000021054391
            0.000113055981    -0.000021978971    0.121103109982    0.012111122350    0.000125773322    -0.000021784281    0.119006142412    0.009664067712
            0.104568387296    0.005392728655    0.000125773322    -0.000021784281    0.114325940989    -0.017916107799    0.000113696085    -0.000021123791
            0.000103392768    -0.000021054391    0.119006142412    0.009664067712    0.000113696085    -0.000021123791    0.122022077777    0.013684563247
0.575     0.101022746557    -0.055331140220    0.000110407546    -0.000044033459    0.100498857035    -0.027498040457    0.000100741699    -0.000041095836
            0.000110407546    -0.000044033459    0.113471753104    0.006464225342    0.000123352257    -0.000046248784    0.114187870119    0.000952176552
            0.100498857035    -0.027498040457    0.000123352257    -0.000046248784    0.103107095301    -0.055374124613    0.000111162260    -0.000043082208
            0.000100741699    -0.000041095836    0.114187870119    0.000952176552    0.000111162260    -0.000043082208    0.114941192875    0.007872978781
0.600     0.076368057915    -0.086207366464    0.000104077058    -0.000066505248    0.084494416326    -0.057564168607    0.000094837214    -0.000061475727
            0.000104077058    -0.000066505248    0.105749018746    0.005790585600    0.000116866096    -0.000071216021    0.107790933871    -0.004008456266
            0.084494416326    -0.057564168607    0.000116866096    -0.000071216021    0.078711462381    -0.087049509471    0.000105096824    -0.000065428470
            0.000094837214    -0.000061475727    0.107790933871    -0.004008456266    0.000105096824    -0.000065428470    0.107665057353    0.006806601585
0.625     0.041525312311    -0.106674990580    0.000093298127    -0.000089128970    0.058086698104    -0.080464972182    0.000084970394    -0.000082031478
            0.000093298127    -0.000089128970    0.100216389840    0.009651304340    0.000105515061    -0.000096453401    0.101713176454    -0.004904860003
            0.058086698104    -0.080464972182    0.000105515061    -0.000096453401    0.043899439191    -0.108381908735    0.000094769218    -0.000088052805
            0.000084970394    -0.000082031478    0.101713176454    -0.004904860003    0.000094769218    -0.000088052805    0.102392024119    0.010122968540
0.650     0.000868492357    -0.113463476164    0.000077119718    -0.000111019855    0.024435262117    -0.092641898704    0.000070216548    -0.000102013102
            0.000077119718    -0.000111019855    0.098824128466    0.016612888149    0.000088225323    -0.000121045992    0.097874466228    -0.002343562009
            0.024435262117    -0.092641898704    0.000088225323    -0.000121045992    0.003010082556    -0.116051309533    0.000079142405    -0.000110202322
            0.000070216548    -0.000102013102    0.097874466228    -0.002343562009    0.000079142405    -0.000110202322    0.101026703488    0.016476893104
0.675     -0.040205227898    -0.105151098807    0.000054846735    -0.000130502802    -0.012088019343    -0.091928200237    0.000049854783    -0.000119897515
            0.000054846735    -0.000130502802    0.102730616051    0.024450889510    0.000064163152    -0.000143183844    0.097740128512    0.002209449128
            -0.012088019343    -0.091928200237    0.000064163152    -0.000143183844    -0.038579871557    -0.108540071108    0.000057352998    -0.000130254649
            0.000049854783    -0.000119897515    0.097740128512    0.002209449128    0.000057352998    -0.000130254649    0.104715327536    0.023745305807
0.700     -0.076070045106    -0.082464441587    0.000026574697    -0.000145295980    -0.046525434648    -0.077969400744    0.000023898662    -0.000133549845
            0.000026574697    -0.000145295980    0.111986504793    0.030583209810    0.000033344833    -0.000160354727    0.101955675037    0.006733428065
            -0.046525434648    -0.077969400744    0.000033344833    -0.000160354727    -0.075216812779    -0.086463965852    0.000029326862    -0.000145876967
            0.000023898662    -0.000133549845    0.101955675037    0.006733428065    0.000029326862    -0.000145876967    0.113541454641    0.029448119218
0.725     -0.101736609603    -0.048233283023    -0.000006442234    -0.000153021781    -0.074093757879    -0.052333562487    -0.000006539444    -0.000140707941
            -0.000006442234    -0.000153021781    0.125459389187    0.032634594154    -0.000002941453    -0.000169893138    0.110155661036    0.009116151079
            -0.074093757879    -0.052333562487    -0.000002941453    -0.000169893138    -0.101835584234    -0.052555997538    -0.000003810274    -0.000154547207
            -0.000006539444    -0.000140707941    0.110155661036    0.009116151079    -0.000003810274    -0.000154547207    0.126448681385    0.031289439758
0.750     -0.113649865142    -0.006984114731    -0.000041824983    -0.000151903669    -0.090954157434    -0.018300921741    -0.000039251150    -0.000139650986
            -0.000041824983    -0.000151903669    0.141073556735    0.028963176736    -0.000042144183    -0.000169750581    0.121072243675    0.007639413126
            -0.090954157434    -0.018300921741    -0.000042144183    -0.000169750581    -0.114766550430    -0.011281494162    -0.000039710633    -0.000154294052
            -0.000039251150    -0.000139650986    0.121072243675    0.007639413126    -0.000039710633    -0.000154294052    0.141465519395    0.027667796229
0.775     -0.110235038570    0.035769745785    -0.000076509205    -0.000141307583    -0.094792067950    0.019664900245    -0.000071356683    -0.000129734242
            -0.000076509205    -0.000141307583    0.156256904302    0.018992751726    -0.000080911605    -0.000159106697    0.132829318368    0.001325322953
            -0.094792067950    0.019664900245    -0.000080911605    -0.000159106697    -0.112300730261    0.031858172594    -0.000075233809    -0.000144298351
            -0.000071356683    -0.000129734242    0.132829318368    0.001325322953    -0.000075233809    -0.000144298351    0.156131225998    0.017997993952
