# GHz S RI R 45
0.000     0.021547791515    0.001888379339    -0.000004844688    -0.000010685603    0.000755245962    0.001616819462    -0.000004191695    -0.000009117780
            -0.000004844940    -0.000010685602    0.022251066279    0.001692863753    -0.000005478176    -0.000012877799    0.000782597386    0.001647796440
            0.000755245849    0.001616819515    -0.000005478260    -0.000012877798    0.021510070395    0.001896991176    -0.000004417466    -0.000010797579
            -0.000004191693    -0.000009117779    0.000782597559    0.001647796358    -0.000004417494    -0.000010797579    0.022180474359    0.001704856308
0.025     0.028040336060    0.008323878947    -0.000012465803    -0.000022642157    0.003788292816    0.010073911247    -0.000010730606    -0.000019034637
            -0.000012465809    -0.000022642158    0.027080620012    0.009216677612    -0.000014564065    -0.000026979383    0.002617283191    0.011119703372
            0.003787052945    0.010073831500    -0.000014564071    -0.000026979383    0.027978176145    0.008293766498    -0.000011727933    -0.000021175432
            -0.000010730631    -0.000019034682    0.002617537943    0.011119129741    -0.000011727925    -0.000021175428    0.026995086488    0.009179483562
0.050     0.037239055081    0.009248077814    -0.000029301789    -0.000037196321    0.012003018299    0.016949995294    -0.000025005456    -0.000031029187
            -0.000029301790    -0.000037196323    0.032297800473    0.013020218039    -0.000034457120    -0.000044260558    0.007730367187    0.020567898861
            0.012003014439    0.016949999252    -0.000034457121    -0.000044260559    0.037204630417    0.009211604954    -0.000027624694    -0.000034379245
            -0.000025005462    -0.000031029184    0.007730463904    0.020567893491    -0.000027624693    -0.000034379244    0.032125233861    0.012981842429
0.075     0.046923053533    0.004381794290    -0.000051344438    -0.000043856757    0.023044846675    0.018464267864    -0.000043511672    -0.000036254784
            -0.000051344439    -0.000043856757    0.036969188348    0.014232087268    -0.000060438423    -0.000052302761    0.014869084963    0.027282317947
            0.023044798259    0.018464251525    -0.000060438423    -0.000052302762    0.046938102157    0.004318320152    -0.000048075476    -0.000040033445
            -0.000043511673    -0.000036254785    0.014869080677    0.027282320283    -0.000048075476    -0.000040033445    0.036702542966    0.014258942101
0.100     0.054374019814    -0.006317689929    -0.000076140530    -0.000041909503    0.033993108165    0.013815053654    -0.000064088377    -0.000034237128
            -0.000076140530    -0.000041909503    0.040161183001    0.013406847064    -0.000089690803    -0.000050294491    0.022613080802    0.030918533168
            0.033993107923    0.013815054247    -0.000089690803    -0.000050294491    0.054459315263    -0.006429711286    -0.000070690263    -0.000037712445
            -0.000064088378    -0.000034237129    0.022613055573    0.030918541709    -0.000070690264    -0.000037712446    0.039822901460    0.013562744929
0.125     0.056716335499    -0.021634787426    -0.000101172616    -0.000030983655    0.041851841255    0.003569795244    -0.000084646380    -0.000024840465
            -0.000101172616    -0.000030983655    0.040908959835    0.011549861972    -0.000119303869    -0.000037798761    0.029641537079    0.031768604612
            0.041851841255    0.003569795244    -0.000119303869    -0.000037798761    0.056885950304    -0.021841027121    -0.000093187452    -0.000027343268
            -0.000084646380    -0.000024840465    0.029641537079    0.031768604612    -0.000093187452    -0.000027343268    0.040563249554    0.011886755268
0.150     0.051969724034    -0.038853243140    -0.000124053336    -0.000011284106    0.044150411048    -0.010459309562    -0.000103327343    -0.000008369210
            -0.000124053336    -0.000011284106    0.039229111935    0.010049111933    -0.000146532179    -0.000015039838    0.034835512178    0.030629106253
            0.044150411048    -0.010459309562    -0.000146532179    -0.000015039838    0.052225176545    -0.039185007482    -0.000113587604    -0.000009324510
            -0.000103327343    -0.000008369210    0.034835512178    0.030629106253    -0.000113587604    -0.000009324510    0.038948772417    0.010579250812
0.175     0.039315442571    -0.054690809844    -0.000142553231    0.000016771582    0.039394960955    -0.025458311904    -0.000118482609    0.000014844905
            -0.000142553231    0.000016771582    0.035330705642    0.010183381643    -0.000168805578    0.000017532920    0.037620187044    0.028746358417
            0.039394960955    -0.025458311904    -0.000168805578    0.000017532920    0.039638527985    -0.055195784868    -0.000130174467    0.000015955787
            -0.000118482609    0.000014844905    0.037620187044    0.028746358417    -0.000130174467    0.000015955787    0.035201899918    0.010878163097
0.200     0.019467565439    -0.065590430915    -0.000154318505    0.000052481924    0.027447763669    -0.038128962895    -0.000128298149    0.000044396074
            -0.000154318505    0.000052481924    0.030109580975    0.013127692445    -0.000183416160    0.000059158422    0.038071678715    0.027492755752
            0.027447763669    -0.038128962895    -0.000183416160    0.000059158422    0.019815463475    -0.066314607534    -0.000141064943    0.000048096835
            -0.000128298149    0.000044396074    0.038071678715    0.027492755752    -0.000141064943    0.000048096835    0.030199895390    0.013914579985
0.225     -0.005292469279    -0.068434776982    -0.000156653856    0.000094577416    0.009645596681    -0.045297220515    -0.000130498492    0.000079494644
            -0.000156653856    0.000094577416    0.025027973315    0.019557810952    -0.000187240004    0.000108457604    0.036912924386    0.028047759356
            0.009645596681    -0.045297220515    -0.000187240004    0.000108457604    -0.004986968000    -0.069409172701    -0.000143835025    0.000086339236
            -0.000130498492    0.000079494644    0.036912924386    0.028047759356    -0.000143835025    0.000086339236    0.025363349363    0.020334631293
0.250     -0.031374145662    -0.061250762817    -0.000146783607    0.000140678757    -0.011337687821    -0.044560487052    -0.000122527929    0.000118363609
            -0.000146783607    0.000140678757    0.021817995526    0.029419775464    -0.000177008999    0.000162797655    0.035369634837    0.031121181981
            -0.011337687821    -0.044560487052    -0.000177008999    0.000162797655    -0.031196244932    -0.062478015233    -0.000135679258    0.000128892550
            -0.000122527929    0.000118363609    0.035369634837    0.031121181981    -0.000135679258    0.000128892550    0.022370394686    0.030079243913
0.275     -0.054470981731    -0.043719241686    -0.000122443628    0.000186972851    -0.031910874705    -0.034825902334    -0.000102119037    0.000157812497
            -0.000122443628    0.000186972851    0.022101639657    0.041822735338    -0.000149961870    0.000217887948    0.034892377759    0.036745438777
            -0.031910874705    -0.034825902334    -0.000149961870    0.000217887948    -0.054510680527    -0.045164476227    -0.000114002519    0.000172406076
            -0.000102119037    0.000157812497    0.034892377759    0.036745438777    -0.000114002519    0.000172406076    0.022791612781    0.042280114829
0.300     -0.070340217456    -0.017418831340    -0.000082839829    0.000228375620    -0.048215670467    -0.016642265670    -0.000068267142    0.000193311704
            -0.000082839829    0.000228375620    0.026993041830    0.055170394583    -0.000104953646    0.000267909372    0.036810910402    0.044244527140
            -0.048215670467    -0.016642265670    -0.000104953646    0.000267909372    -0.070675433276    -0.019005872806    -0.000077511771    0.000211984420
            -0.000068267142    0.000193311704    0.036810910402    0.044244527140    -0.000077511771    0.000211984420    0.027705990392    0.055387927585
0.325     -0.075635190148    0.014340478987    -0.000029363918    0.000259297964    -0.056867996205    0.007809209924    -0.000022029443    0.000219676995
            -0.000029363922    0.000259297964    0.036797603936    0.067446652443    -0.000043312731    0.000306336784    0.041998905316    0.052362830662
            -0.056867996205    0.007809209924    -0.000043312731    0.000306336784    -0.076312176018    0.012723005042    -0.000027148155    0.000241891310
            -0.000022029443    0.000219676995    0.041998905316    0.052362830662    -0.000027148155    0.000241891310    0.037410472050    0.067446607783
0.350     -0.068608357235    0.047030487683    0.000034178601    0.000274889457    -0.055642820492    0.035058561527    0.000033161535    0.000232317791
            0.000034178601    0.000274889457    0.050894357596    0.076652911699    0.000030828438    0.000327358285    0.050662982014    0.059560229614
            -0.055642820492    0.035058561527    0.000030828438    0.000327358285    -0.069625579828    0.045515013157    0.000033499441    0.000256917218
            0.000033161535    0.000232317791    0.050662982014    0.059560229614    0.000033499441    0.000256917218    0.051305374447    0.076515091057
0.375     -0.049486996675    0.075693729422    0.000102180104    0.000272179536    -0.043906174573    0.060959720578    0.000092031323    0.000228419147
            0.000102180104    0.000272179536    0.067835914763    0.081217418113    0.000111138344    0.000327196838    0.062288277133    0.064346111420
            -0.043906174573    0.060959720578    0.000111138344    0.000327196838    -0.050786678628    0.074412315696    0.000098705770    0.000253715724
            0.000092031323    0.000228419147    0.062288277133    0.064346111420    0.000098705770    0.000253715724    0.067989833262    0.081064115119
0.400     -0.020482736291    0.095806992956    0.000168396177    0.000250765760    -0.022743262061    0.081420231812    0.000148626455    0.000207705179
            0.000168396177    0.000250765760    0.085637305554    0.080327564910    0.000190389898    0.000304985887    0.075764781332    0.065599613988
            -0.022743262061    0.081420231812    0.000190389898    0.000304985887    -0.021951906939    0.094866950937    0.000161836674    0.000231724856
            0.000148626455    0.000207705179    0.075764781332    0.065599613988    0.000161836674    0.000231724856    0.085541025926    0.080297532650
0.425     0.014577823093    0.104027782015    0.000227230983    0.000212644483    0.005243704950    0.093063459541    0.000197632086    0.000172339027
            0.000227230983    0.000212644483    0.102158112607    0.074059858176    0.000261909787    0.000262682139    0.089608692647    0.062763710013
            0.005243704950    0.093063459541    0.000261909787    0.000262682139    0.013096406821    0.103489508250    0.000216834762    0.000193151176
            0.000197632086    0.000172339027    0.089608692647    0.062763710013    0.000216834762    0.000193151176    0.101881918070    0.074278718342
0.450     0.050856692302    0.098710825729    0.000274700566    0.000161508925    0.036351841729    0.093738592257    0.000235435146    0.000126209809
            0.000274700566    0.000161508925    0.115492441815    0.063346667367    0.000320773642    0.000204326156    0.102242187171    0.055935814421
            0.036351841729    0.093738592257    0.000320773642    0.000204326156    0.049547014537    0.098569993678    0.000259448480    0.000142251151
            0.000235435146    0.000126209809    0.102242187171    0.055935814421    0.000259448480    0.000142251151    0.115157272826    0.063901096211
0.475     0.083219486116    0.080120013489    0.000308797416    0.000101637270    0.066314538235    0.082793034062    0.000260538675    0.000073788541
            0.000308797416    0.000101637270    0.124269272845    0.049784442609    0.000364307968    0.000134812305    0.112242585607    0.045831233310
            0.066314538235    0.082793034062    0.000364307968    0.000134812305    0.082271676010    0.080296608892    0.000287800591    0.000084081187
            0.000260538675    0.000073788541    0.112242585607    0.045831233310    0.000287800591    0.000084081187    0.124026764785    0.050704612586
0.500     0.106939508553    0.050389261296    0.000329285786    0.000036939800    0.090875161065    0.061159500306    0.000273403176    0.000019028280
            0.000329285786    0.000036939800    0.127862044789    0.035370977326    0.000391996288    0.000058718186    0.118574984026    0.033684786162
            0.090875161065    0.061159500306    0.000391996288    0.000058718186    0.106543883754    0.050712465945    0.000302339455    0.000023200609
            0.000273403176    0.000019028280    0.118574984026    0.033684786162    0.000302339455    0.000023200609    0.127868942907    0.036623762070
0.525     0.118312460901    0.013254732152    0.000337022198    -0.000029769977    0.106412504928    0.031207871138    0.000275696645    -0.000035466063
            0.000337022198    -0.000029769977    0.126468393816    0.022191890186    0.000405049559    -0.000020767111    0.120760495336    0.021070602291
            0.106412504928    0.031207871138    0.000405049559    -0.000020767111    0.118815654614    0.013388561523    0.000305291946    -0.000037456693
            0.000275696645    -0.000035466063    0.120760495336    0.021070602291    0.000305291946    -0.000037456693    0.126869816137    0.023686322080
0.550     0.115162122423    -0.026374597793    0.000333073099    -0.000096997698    0.109857520326    -0.002051837159    0.000269288843    -0.000088746260
            0.000333073099    -0.000096997698    0.121103109982    0.012111122350    0.000403576975    -0.000097599057    0.119006142412    0.009664067712
            0.109857520326    -0.002051837159    0.000403576975    -0.000097599057    0.116014611568    -0.024853458700    0.000298118818    -0.000093183328
            0.000269288843    -0.000088746260    0.119006142412    0.009664067712    0.000298118818    -0.000093183328    0.122022077777    0.013684563247
0.575     0.097169428323    -0.062972899648    0.000317829181    -0.000164214813    0.100018304799    -0.036637056437    0.000255182965    -0.000141144575
            0.000317829181    -0.000164214813    0.113471753104    0.006464225342    0.000388322283    -0.000179589913    0.114187870119    0.000952176552
            0.100018304799    -0.036637056437    0.000388322283    -0.000179589913    0.098413486399    -0.062675359442    0.000282279007    -0.000151451995
            0.000255182965    -0.000141144575    0.114187870119    0.000952176552    0.000282279007    -0.000151451995    0.114941192875    0.007872978781
0.600     0.066080035443    -0.090901608249    0.000290224450    -0.000230746283    0.077844059862    -0.065599372450    0.000232669180    -0.000193178277
            0.000290224450    -0.000230746283    0.105749018746    0.005790585600    0.000359826486    -0.000260495094    0.107790933871    -0.004008456266
            0.077844059862    -0.065599372450    0.000359826486    -0.000260495094    0.067973296770    -0.091631391495    0.000258810767    -0.000208443766
            0.000232669180    -0.000193178277    0.107790933871    -0.004008456266    0.000258810767    -0.000208443766    0.107665057353    0.006806601585
0.625     0.026493842720    -0.105824827972    0.000249868437    -0.000295082006    0.046040335246    -0.084854331567    0.000200882229    -0.000244624064
            0.000249868437    -0.000295082006    0.100216389840    0.009651304340    0.000315022552    -0.000340204070    0.101713176454    -0.004904860003
            0.046040335246    -0.084854331567    0.000315022552    -0.000340204070    0.028118018663    -0.107726193345    0.000224834398    -0.000265475638
            0.000200882229    -0.000244624064    0.101713176454    -0.004904860003    0.000224834398    -0.000265475638    0.102392024119    0.010122968540
0.650     -0.017118860687    -0.105524805888    0.000193171664    -0.000355967611    0.008207738991    -0.091361230198    0.000155814149    -0.000294928246
            0.000193171664    -0.000355967611    0.098824128466    0.016612888149    0.000250893057    -0.000415527386    0.097874466228    -0.002343562009
            0.008207738991    -0.091361230198    0.000250893057    -0.000415527386    -0.015817206920    -0.108097130112    0.000176854890    -0.000320924688
            0.000155814149    -0.000294928246    0.097874466228    -0.002343562009    0.000176854890    -0.000320924688    0.101026703488    0.016476893104
0.675     -0.058431697153    -0.088835045521    0.000118464794    -0.000406802948    -0.030230948749    -0.083221915636    0.000094870628    -0.000338425223
            0.000118464794    -0.000406802948    0.102730616051    0.024450889510    0.000165425224    -0.000480374364    0.097740128512    0.002209449128
            -0.030230948749    -0.083221915636    0.000165425224    -0.000480374364    -0.057602915687    -0.092086985992    0.000111856373    -0.000370001057
            0.000094870628    -0.000338425223    0.097740128512    0.002209449128    0.000111856373    -0.000370001057    0.104715327536    0.023745305807
0.700     -0.091234973396    -0.057777635369    0.000027421340    -0.000440648186    -0.063575515505    -0.061181218297    0.000018562912    -0.000368401265
            0.000027421340    -0.000440648186    0.111986504793    0.030583209810    0.000059577163    -0.000526636168    0.101955675037    0.006733428065
            -0.063575515505    -0.061181218297    0.000059577163    -0.000526636168    -0.091126118228    -0.061556929142    0.000029504004    -0.000405413169
            0.000018562912    -0.000368401265    0.101955675037    0.006733428065    0.000029504004    -0.000405413169    0.113541454641    0.029448119218
0.725     -0.110669503586    -0.016629388924    -0.000074953114    -0.000450907413    -0.086896519343    -0.028153576853    -0.000069047650    -0.000378029374
            -0.000074953114    -0.000450907413    0.125459389187    0.032634594154    -0.000061498087    -0.000546133722    0.110155661036    0.009116151079
            -0.086896519343    -0.028153576853    -0.000061498087    -0.000546133722    -0.111453857094    -0.020661218226    -0.000066431607    -0.000419293505
            -0.000069047650    -0.000378029374    0.110155661036    0.009116151079    -0.000066431607    -0.000419293505    0.126448681385    0.031289439758
0.750     -0.113973754239    0.028801571047    -0.000180547061    -0.000433399765    -0.096844242488    0.011275700610    -0.000160511485    -0.000362637245
            -0.000180547061    -0.000433399765    0.141073556735    0.028963176736    -0.000188818336    -0.000533162468    0.121072243675    0.007639413126
            -0.096844242488    0.011275700610    -0.000188818336    -0.000533162468    -0.115702052935    0.024854011761    -0.000168126500    -0.000405824959
            -0.000160511485    -0.000362637245    0.121072243675    0.007639413126    -0.000168126500    -0.000405824959    0.141465519395    0.027667796229
0.775     -0.100882236956    0.072189013554    -0.000279868982    -0.000387759266    -0.092131442598    0.051684523476    -0.000246575700    -0.000321350212
            -0.000279868982    -0.000387759266    0.156256904302    0.018992751726    -0.000311318537    -0.000486258424    0.132829318368    0.001325322953
            -0.092131442598    0.051684523476    -0.000311318537    -0.000486258424    -0.103468464555    0.068664945457    -0.000265370263    -0.000363235600
            -0.000246575700    -0.000321350212    0.132829318368    0.001325322953    -0.000265370263    -0.000363235600    0.156131225998    0.017997993952
