# GHz S RI R 45
0.000     0.021968201949    0.001403397199    -0.000008442919    -0.000021257395    0.000721852982    0.001210353830    -0.000008498082    -0.000022421113
            -0.000008442898    -0.000021257395    0.022251066279    0.001692863753    -0.000007774700    -0.000019016229    0.000782597386    0.001647796440
            0.000721852982    0.001210353830    -0.000007774705    -0.000019016229    0.021786947259    0.001398752201    -0.000008765421    -0.000021799327
            -0.000008498153    -0.000022421112    0.000782597559    0.001647796358    -0.000008765382    -0.000021799328    0.022180474359    0.001704856308
0.025     0.028148447480    0.007864855625    -0.000024917156    -0.000048266390    0.003481684607    0.009783074535    -0.000025197201    -0.000049531916
            -0.000024917153    -0.000048266385    0.027080620012    0.009216677612    -0.000022894719    -0.000044672430    0.002617283191    0.011119703372
            0.003481490095    0.009783381518    -0.000022894760    -0.000044672471    0.028085807442    0.007835138086    -0.000025665187    -0.000049811322
            -0.000025197201    -0.000049531917    0.002617537943    0.011119129741    -0.000025665181    -0.000049811310    0.026995086488    0.009179483562
0.050     0.036552639326    0.008699605246    -0.000060999922    -0.000078811499    0.011003183258    0.016653471263    -0.000062124756    -0.000081133448
            -0.000060999919    -0.000078811496    0.032297800473    0.013020218039    -0.000056339036    -0.000073144551    0.007730367187    0.020567898861
            0.011003173345    0.016653479011    -0.000056339038    -0.000073144553    0.036491886814    0.008667743254    -0.000062730591    -0.000081519211
            -0.000062124756    -0.000081133448    0.007730463904    0.020567893491    -0.000062730652    -0.000081519290    0.032125233861    0.012981842429
0.075     0.045176553073    0.004223183496    -0.000107737638    -0.000092334333    0.021096484881    0.018605282042    -0.000110162632    -0.000095366784
            -0.000107737638    -0.000092334333    0.036969188348    0.014232087268    -0.000099785881    -0.000085721222    0.014869084963    0.027282317947
            0.021096478511    0.018605286242    -0.000099785881    -0.000085721222    0.045137227433    0.004192541609    -0.000110900373    -0.000095876029
            -0.000110162639    -0.000095366791    0.014869080677    0.027282320283    -0.000110900373    -0.000095876029    0.036702542966    0.014258942101
0.100     0.051517845075    -0.005507983870    -0.000159825608    -0.000087595782    0.031057259997    0.014935917391    -0.000163932548    -0.000090834626
            -0.000159825608    -0.000087595782    0.040161183001    0.013406847064    -0.000148178295    -0.000081251378    0.022613080802    0.030918533168
            0.031057259997    0.014935917391    -0.000148178295    -0.000081251378    0.051526820359    -0.005540325506    -0.000164873671    -0.000091479089
            -0.000163932548    -0.000090834626    0.022613055573    0.030918541709    -0.000164873671    -0.000091479089    0.039822901460    0.013562744929
0.125     0.052954532680    -0.019253705797    -0.000211967625    -0.000064161050    0.038142436799    0.006225334195    -0.000217964063    -0.000066934465
            -0.000211967625    -0.000064161050    0.040908959835    0.011549861972    -0.000196574039    -0.000059409179    0.029641537079    0.031768604612
            0.038142437655    0.006225335155    -0.000196574039    -0.000059409179    0.053039388047    -0.019296605916    -0.000219210994    -0.000067660598
            -0.000217964063    -0.000066934465    0.029641537079    0.031768604612    -0.000219210994    -0.000067660598    0.040563249554    0.011886755268
0.150     0.047773875435    -0.034409874970    -0.000259465534    -0.000022721740    0.040120217557    -0.005811829914    -0.000267310494    -0.000024244888
            -0.000259465544    -0.000022721741    0.039229111935    0.010049111933    -0.000240577998    -0.000020837793    0.034835512178    0.030629106253
            0.040120220749    -0.005811828804    -0.000240577998    -0.000020837793    0.047963458604    -0.034502222552    -0.000268938006    -0.000024938730
            -0.000267310494    -0.000024244888    0.034835512178    0.030629106253    -0.000268938006    -0.000024938730    0.038948772417    0.010579250812
0.175     0.035347196910    -0.047858683302    -0.000297986828    0.000035917422    0.035692356226    -0.018544690212    -0.000307324611    0.000036416581
            -0.000297986828    0.000035917422    0.035330705642    0.010183381643    -0.000276186350    0.000033654026    0.037620187044    0.028746358417
            0.035692370686    -0.018544681902    -0.000276186350    0.000033654026    0.035653897208    -0.048055645334    -0.000309330291    0.000035903391
            -0.000307324611    0.000036416581    0.037620187044    0.028746358417    -0.000309330291    0.000035903391    0.035201899918    0.010878163097
0.200     0.016536487549    -0.056294650607    -0.000322821043    0.000110606863    0.024843455564    -0.028930182840    -0.000332993777    0.000113766399
            -0.000322821043    0.000110606863    0.030109580975    0.013127692445    -0.000299061023    0.000102995753    0.038071678715    0.027492755752
            0.024843455564    -0.028930182840    -0.000299061023    0.000102995753    0.016946166063    -0.056660794154    -0.000335301037    0.000113540561
            -0.000332993777    0.000113766399    0.038071678715    0.027492755752    -0.000335301037    0.000113540561    0.030199895390    0.013914579985
0.225     -0.006321376579    -0.056916878404    -0.000328228504    0.000199150040    0.008936126503    -0.034097244231    -0.000338348259    0.000205338681
            -0.000328228504    0.000199150040    0.025027973315    0.019557810952    -0.000303895235    0.000185155137    0.036912924386    0.028047759356
            0.008936126503    -0.034097244231    -0.000303895235    0.000185155137    -0.005855640101    -0.057513561773    -0.000340868982    0.000205413675
            -0.000338348259    0.000205338681    0.036912924386    0.028047759356    -0.000340868982    0.000205413675    0.025363349363    0.020334631293
0.250     -0.029703939280    -0.048096297197    -0.000307922701    0.000296888300    -0.009444399840    -0.031958917378    -0.000317002469    0.000306136953
            -0.000307922701    0.000296888300    0.021817995526    0.029419775464    -0.000284842455    0.000275828691    0.035369634837    0.031121181981
            -0.009444399840    -0.031958917378    -0.000284842455    0.000275828691    -0.029260170061    -0.048965012328    -0.000319708242    0.000306468915
            -0.000317002469    0.000306136953    0.035369634837    0.031121181981    -0.000319708242    0.000306468915    0.022370394686    0.030079243913
0.275     -0.049508916200    -0.029842781627    -0.000256450695    0.000395761899    -0.026919638812    -0.021714158034    -0.000263555431    0.000407753638
            -0.000256450695    0.000395761899    0.022101639657    0.041822735338    -0.000236817504    0.000367516306    0.034892377759    0.036745438777
            -0.026919638812    -0.021714158034    -0.000236817504    0.000367516306    -0.049186559070    -0.030989813459    -0.000266545108    0.000408297169
            -0.000263555431    0.000407753638    0.034892377759    0.036745438777    -0.000266545108    0.000408297169    0.022791612781    0.042280114829
0.300     -0.061837406405    -0.003991161756    -0.000171569667    0.000484504780    -0.039965429408    -0.004127543868    -0.000175938428    0.000498648462
            -0.000171569667    0.000484504780    0.026993041830    0.055170394583    -0.000157712791    0.000449717067    0.036810910402    0.044244527140
            -0.039965429408    -0.004127543868    -0.000157712791    0.000449717067    -0.061740415613    -0.005377254018    -0.000179392549    0.000499488999
            -0.000175938428    0.000498648462    0.036810910402    0.044244527140    -0.000179392549    0.000499488999    0.027705990392    0.055387927585
0.325     -0.063803134540    0.026026263065    -0.000056079216    0.000550434069    -0.045631701101    0.018532832721    -0.000057194536    0.000565977339
            -0.000056079216    0.000550434069    0.036797603936    0.067446652443    -0.000050148331    0.000510585926    0.041998905316    0.052362830662
            -0.045631701101    0.018532832721    -0.000050148331    0.000510585926    -0.064017219132    0.024486787989    -0.000061299017    0.000567388079
            -0.000057194536    0.000565977339    0.041998905316    0.052362830662    -0.000061299018    0.000567388089    0.037410472050    0.067446607783
0.350     -0.054176418850    0.055751976135    0.000081523204    0.000582426415    -0.042169347488    0.042890601570    0.000083932566    0.000598569028
            0.000081523204    0.000582426415    0.050894357596    0.076652911699    0.000077898240    0.000539733191    0.050662982014    0.059560229614
            -0.042169347488    0.042890601570    0.000077898240    0.000539733191    -0.054748543526    0.054181792771    0.000079153407    0.000601018574
            0.000083932566    0.000598569028    0.050662982014    0.059560229614    0.000079153407    0.000601018574    0.051305374447    0.076515091057
0.375     -0.033673174501    0.080519116745    0.000228403304    0.000573720252    -0.029383338656    0.065094298430    0.000234444209    0.000589685388
            0.000228403304    0.000573720252    0.067835914763    0.081217418113    0.000214396963    0.000530877469    0.062288277133    0.064346111420
            -0.029383338656    0.065094298430    0.000214396963    0.000530877469    -0.034596282799    0.079058232874    0.000229233080    0.000593732271
            0.000234444209    0.000589685388    0.062288277133    0.064346111420    0.000229233080    0.000593732271    0.067989833262    0.081064115119
0.400     -0.004861601787    0.096293430368    0.000370196491    0.000523629130    -0.008665532015    0.081522743444    0.000379850580    0.000538675969
            0.000370196491    0.000523629130    0.085637305554    0.080327564910    0.000345909103    0.000483435280    0.075764781332    0.065599613988
            -0.008665532015    0.081522743444    0.000345909103    0.000483435280    -0.006069280792    0.095075500338    0.000374804221    0.000544786153
            0.000379850580    0.000538675969    0.075764781332    0.065599613988    0.000374804221    0.000544786153    0.085541025926    0.080297532650
0.425     0.028285880596    0.100350835086    0.000494160801    0.000437189657    0.017274968665    0.089380376159    0.000507331228    0.000450581331
            0.000494160801    0.000437189657    0.102158112607    0.074059858176    0.000460503911    0.000402200746    0.089608692647    0.062763710013
            0.017274968665    0.089380376159    0.000460503911    0.000402200746    0.026914163662    0.099477946736    0.000503316194    0.000458939216
            0.000507331228    0.000450581331    0.089608692647    0.062763710013    0.000503316194    0.000458939216    0.101881918070    0.074278718342
0.450     0.061034555289    0.091692332966    0.000591522467    0.000323422123    0.044858485367    0.087110333317    0.000608011977    0.000334391000
            0.000591522467    0.000323422123    0.115492441815    0.063346667367    0.000550021328    0.000295679503    0.102242187171    0.055935814421
            0.044858485367    0.087110333317    0.000550021328    0.000295679503    0.059658596131    0.091214147906    0.000605997768    0.000344759973
            0.000608011977    0.000334391000    0.102242187171    0.055935814421    0.000605997768    0.000344759973    0.115157272826    0.063901096211
0.475     0.088588122375    0.071158185833    0.000658378415    0.000192645268    0.070149520589    0.074581887108    0.000677856791    0.000200345698
            0.000658378418    0.000192645257    0.124269272845    0.049784442609    0.000610860950    0.000173582176    0.112242585607    0.045831233310
            0.070149520589    0.074581887108    0.000610860950    0.000173582176    0.087384432994    0.071058314415    0.000678704888    0.000212028101
            0.000677856791    0.000200345698    0.112242585607    0.045831233310    0.000678704888    0.000212028101    0.124026764785    0.050704612586
0.500     0.106742153627    0.041310238455    0.000695217546    0.000054000288    0.089371096491    0.053116964300    0.000717117466    0.000057539667
            0.000695217546    0.000054000287    0.127862044789    0.035370977326    0.000643549299    0.000044518811    0.118574984026    0.033684786162
            0.089371096491    0.053116964300    0.000643549310    0.000044518801    0.105879468569    0.041500817442    0.000721341971    0.000069497636
            0.000717117466    0.000057539667    0.118574984026    0.033684786162    0.000721341971    0.000069497636    0.127868942907    0.036623762070
0.525     0.112436052662    0.006124815854    0.000705171671    -0.000086383773    0.099375705982    0.025369900982    0.000728607958    -0.000087836209
            0.000705171671    -0.000086383773    0.126468393816    0.022191890186    0.000651105288    -0.000085665838    0.120760495336    0.021070602291
            0.099375705982    0.025369900982    0.000651105278    -0.000085665839    0.112047814124    0.006450752063    0.000736254382    -0.000076802437
            0.000728607958    -0.000087836209    0.120760495336    0.021070602291    0.000736254382    -0.000076802439    0.126869816137    0.023686322080
0.550     0.104202768866    -0.029454124755    0.000691748815    -0.000225915331    0.098103035911    -0.004911432450    0.000715467768    -0.000233052208
            0.000691748815    -0.000225915331    0.121103109982    0.012111122350    0.000636965298    -0.000214515847    0.119006142412    0.009664067712
            0.098103035911    -0.004911432450    0.000636965298    -0.000214515847    0.104360374817    -0.029200290488    0.000726081718    -0.000224008737
            0.000715467768    -0.000233052208    0.119006142412    0.009664067712    0.000726081718    -0.000224008737    0.122022077777    0.013684563247
0.575     0.082481931528    -0.060096732171    0.000656447952    -0.000364743444    0.084971688561    -0.033276577431    0.000678858525    -0.000377840343
            0.000656447952    -0.000364743444    0.113471753104    0.006464225342    0.000602716630    -0.000342137452    0.114187870119    0.000952176552
            0.084971688561    -0.033276577431    0.000602716630    -0.000342137452    0.083172544179    -0.060149143821    0.000691608994    -0.000371494337
            0.000678858525    -0.000377840343    0.114187870119    0.000952176552    0.000691608994    -0.000371494337    0.114941192875    0.007872978781
0.600     0.049758714456    -0.080808724577    0.000597289443    -0.000503649427    0.061178112381    -0.055151062258    0.000616668664    -0.000522442654
            0.000597289443    -0.000503649427    0.105749018746    0.005790585600    0.000546712893    -0.000469318493    0.107790933871    -0.004008456266
            0.061178112381    -0.055151062258    0.000546712893    -0.000469318493    0.050871439161    -0.081393225482    0.000630617457    -0.000518962678
            0.000616668664    -0.000522442654    0.107790933871    -0.004008456266    0.000630617457    -0.000518962678    0.107665057353    0.006806601585
0.625     0.010421471868    -0.087742565271    0.000508683745    -0.000640916168    0.029749038146    -0.066572178041    0.000523416536    -0.000664550180
            0.000508683745    -0.000640916168    0.100216389840    0.009651304340    0.000463924200    -0.000594625438    0.101713176454    -0.004904860003
            0.029749038146    -0.066572178041    0.000463924200    -0.000594625438    0.011749127836    -0.089037318654    0.000537818776    -0.000663702492
            0.000523416536    -0.000664550180    0.101713176454    -0.004904860003    0.000537818776    -0.000663702492    0.102392024119    0.010122968540
0.650     -0.029752463053    -0.078993810165    0.000383748535    -0.000769522670    -0.004752639625    -0.065000362931    0.000392544522    -0.000796615989
            0.000383748531    -0.000769522661    0.098824128466    0.016612888149    0.000348016261    -0.000711784264    0.097874466228    -0.002343562009
            -0.004752639625    -0.065000362931    0.000348016261    -0.000711784264    -0.028489421952    -0.081088373950    0.000407079261    -0.000797996941
            0.000392544522    -0.000796615989    0.097874466228    -0.002343562009    0.000407079261    -0.000797996941    0.101026703488    0.016476893104
0.675     -0.064495106607    -0.055149546834    0.000218454350    -0.000876166221    -0.036933882362    -0.049958779032    0.000220534030    -0.000904976453
            0.000218454350    -0.000876166221    0.102730616051    0.024450889510    0.000195258117    -0.000808642800    0.097740128512    0.002209449128
            -0.036933882362    -0.049958779032    0.000195258117    -0.000808642800    -0.063606853731    -0.058015804785    0.000235305443    -0.000908377878
            0.000220534030    -0.000904976453    0.097740128512    0.002209449128    0.000235305443    -0.000908377878    0.104715327536    0.023745305807
0.700     -0.088201700791    -0.019371519757    0.000016037720    -0.000943627323    -0.061585605113    -0.023288594536    0.000011264258    -0.000972293353
            0.000016037720    -0.000943627323    0.111986504793    0.030583209810    0.000008561527    -0.000869394145    0.101955675037    0.006733428065
            -0.061585605113    -0.023288594536    0.000008561527    -0.000869394145    -0.087973796544    -0.022855080776    0.000026566246    -0.000977973186
            0.000011264258    -0.000972293353    0.101955675037    0.006733428065    0.000026566246    -0.000977973186    0.113541454641    0.029448119218
0.725     -0.097030576348    0.023113187922    -0.000210862265    -0.000955729084    -0.074715435337    0.011158137839    -0.000222052607    -0.000982558126
            -0.000210862265    -0.000955729084    0.125459389187    0.032634594154    -0.000200416587    -0.000879141383    0.110155661036    0.009116151079
            -0.074715435337    0.011158137839    -0.000200416587    -0.000879141383    -0.097670777924    0.019275143304    -0.000206154634    -0.000991281954
            -0.000222052607    -0.000982558126    0.110155661036    0.009116151079    -0.000206154634    -0.000991281954    0.126448681385    0.031289439758
0.750     -0.089631194270    0.066014084178    -0.000441871477    -0.000903025636    -0.074304933856    0.048299207709    -0.000458652738    -0.000926650511
            -0.000441871477    -0.000903025636    0.141073556735    0.028963176736    -0.000412892563    -0.000829221020    0.121072243675    0.007639413126
            -0.074304933856    0.048299207709    -0.000412892563    -0.000829221020    -0.091228695799    0.062150346820    -0.000442662440    -0.000939527146
            -0.000458652738    -0.000926650511    0.121072243675    0.007639413126    -0.000442662440    -0.000939527146    0.141465519395    0.027667796229
0.775     -0.067276495142    0.103169263221    -0.000653603988    -0.000786175875    -0.060541295155    0.082828184677    -0.000674920881    -0.000805638099
            -0.000653603988    -0.000786175875    0.156256904302    0.018992751726    -0.000607316266    -0.000720304205    0.132829318368    0.001325322953
            -0.060541295155    0.082828184677    -0.000607316266    -0.000720304205    -0.069786524560    0.099620628167    -0.000660167563    -0.000823636349
            -0.000674920881    -0.000805638099    0.132829318368    0.001325322953    -0.000660167563    -0.000823636349    0.156131225998    0.017997993952
