# GHz S RI R 45
0.000     0.021927460171    0.001723136344    -0.000014630857    -0.000038685886    0.000759213074    0.001452944888    -0.000011303004    -0.000029051546
            -0.000014630896    -0.000038685887    0.022251066279    0.001692863753    -0.000020611824    -0.000053856506    0.000782597386    0.001647796440
            0.000759213720    0.001452944889    -0.000020611877    -0.000053856504    0.021842052806    0.001737569594    -0.000014898486    -0.000039094634
            -0.000011303010    -0.000029051545    0.000782597559    0.001647796358    -0.000014898384    -0.000039094635    0.022180474359    0.001704856308
0.025     0.028277155368    0.008110147540    -0.000041993683    -0.000081660276    0.003688198331    0.009980813891    -0.000032469173    -0.000061909809
            -0.000041993675    -0.000081660296    0.027080620012    0.009216677612    -0.000058461212    -0.000113352331    0.002617283191    0.011119703372
            0.003685665044    0.009979577129    -0.000058461231    -0.000113352367    0.028216851362    0.008132990274    -0.000042748271    -0.000082349534
            -0.000032469734    -0.000061909643    0.002617537943    0.011119129741    -0.000042748327    -0.000082349608    0.026995086488    0.009179483562
0.050     0.037097568253    0.008933791354    -0.000102619222    -0.000133979786    0.011599447218    0.016882581484    -0.000078945322    -0.000100915516
            -0.000102619228    -0.000133979794    0.032297800473    0.013020218039    -0.000141866230    -0.000185974560    0.007730367187    0.020567898861
            0.011599426596    0.016882579880    -0.000141866230    -0.000185974560    0.037098986645    0.008983001968    -0.000104200120    -0.000134452031
            -0.000078945322    -0.000100915516    0.007730463904    0.020567893491    -0.000104200691    -0.000134452816    0.032125233861    0.012981842429
0.075     0.046258325490    0.004196475827    -0.000181858009    -0.000157879631    0.022231569728    0.018603425084    -0.000139143191    -0.000117776481
            -0.000181858017    -0.000157879638    0.036969188348    0.014232087268    -0.000250493903    -0.000219936568    0.014869084963    0.027282317947
            0.022231562557    0.018603428979    -0.000250493903    -0.000219936568    0.046345591524    0.004244673915    -0.000183672782    -0.000157376630
            -0.000139143191    -0.000117776481    0.014869080677    0.027282320283    -0.000183672782    -0.000157376630    0.036702542966    0.014258942101
0.100     0.053134586066    -0.006102573014    -0.000270939366    -0.000150848444    0.032741792098    0.014390138433    -0.000205948026    -0.000110961099
            -0.000270939366    -0.000150848444    0.040161183001    0.013406847064    -0.000372784450    -0.000212127046    0.022613080802    0.030918533168
            0.032741793013    0.014390138836    -0.000372784459    -0.000212127051    0.053332462000    -0.006095739902    -0.000271857121    -0.000149325853
            -0.000205948026    -0.000110961099    0.022613055573    0.030918541709    -0.000271857130    -0.000149325857    0.039822901460    0.013562744929
0.125     0.054964244912    -0.020695309949    -0.000360815738    -0.000111524287    0.040239882300    0.004820336137    -0.000272440426    -0.000080099468
            -0.000360815757    -0.000111524293    0.040908959835    0.011549861972    -0.000496784649    -0.000160718318    0.029641537079    0.031768604612
            0.040239882300    0.004820336137    -0.000496784649    -0.000160718318    0.055280555565    -0.020770074598    -0.000359803045    -0.000109967330
            -0.000272440436    -0.000080099471    0.029641537079    0.031768604612    -0.000359803045    -0.000109967330    0.040563249554    0.011886755268
0.150     0.049907676507    -0.036975387447    -0.000442970579    -0.000040577835    0.042354575405    -0.008324231886    -0.000332593132    -0.000026243927
            -0.000442970579    -0.000040577835    0.039229111935    0.010049111933    -0.000611323395    -0.000066470349    0.034835512178    0.030629106253
            0.042354575405    -0.008324231886    -0.000611323395    -0.000066470349    0.050333326279    -0.037197597994    -0.000439908520    -0.000040782905
            -0.000332593132    -0.000026243927    0.034835512178    0.030629106253    -0.000439908520    -0.000040782905    0.038948772417    0.010579250812
0.175     0.037207434660    -0.051677453373    -0.000509207833    0.000060562345    0.037681909774    -0.022299216808    -0.000380924560    0.000049399842
            -0.000509207833    0.000060562345    0.035330705642    0.010183381643    -0.000705639469    0.000069028158    0.037620187044    0.028746358417
            0.037681909774    -0.022299216808    -0.000705639469    0.000069028158    0.037706838380    -0.052105782638    -0.000505406079    0.000056770586
            -0.000380924560    0.000049399842    0.037620187044    0.028746358417    -0.000505406079    0.000056770586    0.035201899918    0.010878163097
0.200     0.017683025334    -0.061332190574    -0.000550879538    0.000189296922    0.026145732605    -0.033907862936    -0.000411533175    0.000145285817
            -0.000550879538    0.000189296922    0.030109580975    0.013127692445    -0.000768263929    0.000242881185    0.038071678715    0.027492755752
            0.026145732605    -0.033907862936    -0.000768263929    0.000242881185    0.018194220062    -0.062011622904    -0.000548964849    0.000181116541
            -0.000411533175    0.000145285817    0.038071678715    0.027492755752    -0.000548964849    0.000181116541    0.030199895390    0.013914579985
0.225     -0.006319129987    -0.062971691822    -0.000558162780    0.000340839484    0.009108417810    -0.040101103983    -0.000417145067    0.000258613182
            -0.000558162780    0.000340839484    0.025027973315    0.019557810952    -0.000785887614    0.000449459699    0.036912924386    0.028047759356
            0.009108417810    -0.040101103983    -0.000785887614    0.000449459699    -0.005881223591    -0.063922845047    -0.000561224544    0.000329335112
            -0.000417145067    0.000258613182    0.036912924386    0.028047759356    -0.000561224553    0.000329335117    0.025363349363    0.020334631293
0.250     -0.031210640318    -0.054801142357    -0.000521064085    0.000506330620    -0.010775059231    -0.038614535931    -0.000389719527    0.000383417519
            -0.000521064085    0.000506330620    0.021817995526    0.029419775464    -0.000744529545    0.000677795968    0.035369634837    0.031121181981
            -0.010775059231    -0.038614535931    -0.000744529545    0.000677795968    -0.030943217788    -0.056008295840    -0.000531373371    0.000494561415
            -0.000389719527    0.000383417519    0.035369634837    0.031121181981    -0.000531373371    0.000494561415    0.022370394686    0.030079243913
0.275     -0.052758371623    -0.036681968034    -0.000431622820    0.000671710563    -0.029986018632    -0.028494316430    -0.000322245067    0.000509287555
            -0.000431622820    0.000671710563    0.022101639657    0.041822735338    -0.000632336526    0.000909809638    0.034892377759    0.036745438777
            -0.029986018632    -0.028494316430    -0.000632336526    0.000909809638    -0.052755048412    -0.038086911785    -0.000449349199    0.000664012468
            -0.000322245067    0.000509287555    0.034892377759    0.036745438777    -0.000449349199    0.000664012468    0.022791612781    0.042280114829
0.300     -0.066869315167    -0.010347734250    -0.000287369070    0.000818449404    -0.044797838639    -0.010406776214    -0.000211882949    0.000621613189
            -0.000287369070    0.000818449404    0.026993041830    0.055170394583    -0.000444325869    0.001120864797    0.036810910402    0.044244527140
            -0.044797838639    -0.010406776214    -0.000444325869    0.001120864797    -0.067200455936    -0.011850547490    -0.000310028693    0.000818927484
            -0.000211882949    0.000621613189    0.036810910402    0.044244527140    -0.000310028693    0.000818927484    0.027705990392    0.055387927585
0.325     -0.070416321242    0.020793511320    -0.000093895196    0.000926406481    -0.052015531884    0.013397818320    -0.000062425049    0.000703914409
            -0.000093895196    0.000926406481    0.036797603936    0.067446652443    -0.000186048327    0.001283348717    0.041998905316    0.052362830662
            -0.052015531884    0.013397818320    -0.000186048327    0.001283348717    -0.071109908672    0.019323852913    -0.000116764528    0.000937299724
            -0.000062425049    0.000703914409    0.041998905316    0.052362830662    -0.000116764528    0.000937299724    0.037410472050    0.067446607783
0.350     -0.061918137564    0.052209157681    0.000134576120    0.000978460117    -0.049638334801    0.039461105474    0.000114823292    0.000741826987
            0.000134576120    0.000978460117    0.050894357596    0.076652911699    0.000125080463    0.001372644182    0.050662982014    0.059560229614
            -0.049638334801    0.039461105474    0.000125080463    0.001372644182    -0.062946410951    0.050915524232    0.000116972861    0.000999003262
            0.000114823292    0.000741826987    0.050662982014    0.059560229614    0.000116972861    0.000999003262    0.051305374447    0.076515091057
0.375     -0.041871281685    0.079053829036    0.000377547049    0.000964520654    -0.037254825821    0.063747659048    0.000302893724    0.000726823448
            0.000377547049    0.000964520654    0.067835914763    0.081217418113    0.000462328374    0.001372788661    0.062288277133    0.064346111420
            -0.037254825821    0.063747659048    0.000462328374    0.001372788661    -0.043146803904    0.078066465452    0.000369510004    0.000990913879
            0.000302893724    0.000726823448    0.062288277133    0.064346111420    0.000369510004    0.000990913879    0.067989833262    0.081064115119
0.400     -0.012702357065    0.097030467806    0.000612562216    0.000883862004    -0.016120722818    0.082370335241    0.000482973453    0.000658460709
            0.000612562216    0.000883862004    0.085637305554    0.080327564910    0.000795117211    0.001280179763    0.075764781332    0.065599613988
            -0.016120722818    0.082370335241    0.000795117211    0.001280179763    -0.014085243602    0.096441810337    0.000615594409    0.000910415143
            0.000482973453    0.000658460709    0.075764781332    0.065599613988    0.000615594409    0.000910415143    0.085541025926    0.080297532650
0.425     0.021649785501    0.103105947390    0.000819874956    0.000744284285    0.011083164119    0.092223584035    0.000638493342    0.000543856898
            0.000819874956    0.000744284285    0.102158112607    0.074059858176    0.001095299410    0.001103205243    0.089608692647    0.062763710013
            0.011083164119    0.092223584035    0.001095299410    0.001103205243    0.020335429262    0.102950475758    0.000831995546    0.000765371209
            0.000638493342    0.000543856898    0.089608692647    0.062763710013    0.000831995546    0.000765371209    0.101881918070    0.074278718342
0.450     0.056366110725    0.095973462469    0.000985841222    0.000559343144    0.040687776607    0.091445069066    0.000758352875    0.000395279578
            0.000985841222    0.000559343144    0.115492441815    0.063346667367    0.001342232943    0.000859072076    0.102242187171    0.055935814421
            0.040687776607    0.091445069066    0.001342232943    0.000859072076    0.055307863101    0.096215203595    0.001002104778    0.000571524783
            0.000758352875    0.000395279578    0.102242187171    0.055935814421    0.001002104778    0.000571524783    0.115157272826    0.063901096211
0.475     0.086459883729    0.076209964244    0.001103846711    0.000344329780    0.068564125171    0.079643356959    0.000837951367    0.000226548746
            0.001103846711    0.000344329780    0.124269272845    0.049784442609    0.001524845795    0.000568555962    0.112242585607    0.045831233310
            0.068564125171    0.079643356959    0.001524845795    0.000568555962    0.085830084591    0.076739159999    0.001118173916    0.000347737067
            0.000837951367    0.000226548746    0.112242585607    0.045831233310    0.001118173916    0.000347737067    0.124026764785    0.050704612586
0.500     0.107456450769    0.046189561706    0.001173454063    0.000112857162    0.090662851730    0.057957042525    0.000878525606    0.000049767959
            0.001173454063    0.000112857162    0.127862044789    0.035370977326    0.001641150864    0.000251032628    0.118574984026    0.033684786162
            0.090662851730    0.057957042525    0.001641150864    0.000251032628    0.107384800784    0.046829873891    0.001180954416    0.000111412910
            0.000878525606    0.000049767959    0.118574984026    0.033684786162    0.001180954416    0.000111412910    0.127868942907    0.036623762070
0.525     0.115973344430    0.009792175731    0.001197773098    -0.000125478347    0.103514288450    0.028947599068    0.000884801865    -0.000126993192
            0.001197773098    -0.000125478347    0.126468393816    0.022191890186    0.001694948479    -0.000079309990    0.120760495336    0.021070602291
            0.103514288450    0.028947599068    0.001694948479    -0.000079309990    0.116522726623    0.010317317396    0.001196973622    -0.000125299067
            0.000884801865    -0.000126993192    0.120760495336    0.021070602291    0.001196973622    -0.000125299067    0.126869816137    0.023686322080
0.550     0.110195686734    -0.028035595673    0.001180368862    -0.000365708436    0.104711336710    -0.003630925294    0.000861989992    -0.000300495113
            0.001180368862    -0.000365708436    0.121103109982    0.012111122350    0.001691568631    -0.000415003635    0.119006142412    0.009664067712
            0.104711336710    -0.003630925294    0.001691568631    -0.000415003635    0.111342759236    -0.027875783567    0.001174338764    -0.000357233786
            0.000861989992    -0.000300495113    0.119006142412    0.009664067712    0.001174338764    -0.000357233786    0.122022077777    0.013684563247
0.575     0.090209404993    -0.061857094607    0.001122138873    -0.000606057462    0.093320450351    -0.035218466998    0.000812738052    -0.000471167418
            0.001122138873    -0.000606057462    0.113471753104    0.006464225342    0.001633066322    -0.000753820883    0.114187870119    0.000952176552
            0.093320450351    -0.035218466998    0.001633066322    -0.000753820883    0.091832977526    -0.062301650708    0.001118137311    -0.000585232867
            0.000812738052    -0.000471167418    0.114187870119    0.000952176552    0.001118137311    -0.000585232867    0.114941192875    0.007872978781
0.600     0.058163138830    -0.086454296736    0.001019689566    -0.000845033146    0.070203232881    -0.061014889489    0.000735279350    -0.000640535145
            0.001019689566    -0.000845033146    0.105749018746    0.005790585600    0.001515204701    -0.001095074407    0.107790933871    -0.004008456266
            0.070203232881    -0.061014889489    0.001515204701    -0.001095074407    0.060044749944    -0.087692429833    0.001027199942    -0.000812817379
            0.000735279350    -0.000640535145    0.107790933871    -0.004008456266    0.001027199942    -0.000812817379    0.107665057353    0.006806601585
0.625     0.018161507218    -0.097624087072    0.000865461677    -0.001077242295    0.038105565835    -0.076700557515    0.000623007814    -0.000807361317
            0.000865461677    -0.001077242295    0.100216389840    0.009651304340    0.001326951211    -0.001433585636    0.101713176454    -0.004904860003
            0.038105565835    -0.076700557515    0.001326951211    -0.001433585636    0.020004957454    -0.099757056137    0.000892738299    -0.001040794286
            0.000623007814    -0.000807361317    0.101713176454    -0.004904860003    0.000892738299    -0.001040794286    0.102392024119    0.010122968540
0.650     -0.024185677823    -0.092972971091    0.000651120717    -0.001289982768    0.001425372964    -0.079247316381    0.000467136141    -0.000963789034
            0.000651120717    -0.001289982768    0.098824128466    0.016612888149    0.001054617197    -0.001754199356    0.097874466228    -0.002343562009
            0.001425372964    -0.079247316381    0.001054617197    -0.001754199356    -0.022715492519    -0.095982545695    0.000701434618    -0.001261330012
            0.000467136141    -0.000963789034    0.097874466228    -0.002343562009    0.000701434618    -0.001261330012    0.101026703488    0.016476893104
0.675     -0.062583844513    -0.072501574607    0.000373295753    -0.001462259869    -0.034416286769    -0.067592538509    0.000262001764    -0.001093814740
            0.000373295753    -0.001462259869    0.102730616051    0.024450889510    0.000689518162    -0.002029403552    0.097740128512    0.002209449128
            -0.034416286769    -0.067592538509    0.000689518162    -0.002029403552    -0.061807908504    -0.076235690826    0.000442364946    -0.001454774286
            0.000262001764    -0.001093814740    0.097740128512    0.002209449128    0.000442364946    -0.001454774286    0.104715327536    0.023745305807
0.700     -0.091143097864    -0.038781758893    0.000039321709    -0.001568568809    -0.063924515443    -0.042989201333    0.000010837796    -0.001176040663
            0.000039321709    -0.001568568809    0.111986504793    0.030583209810    0.000236648938    -0.002223162295    0.101955675037    0.006733428065
            -0.063924515443    -0.042989201333    0.000236648938    -0.002223162295    -0.091309030685    -0.042965191718    0.000115454115    -0.001592220419
            0.000010837796    -0.001176040663    0.101955675037    0.006733428065    0.000115454115    -0.001592220419    0.113541454641    0.029448119218
0.725     -0.105473193253    0.003417655646    -0.000329982027    -0.001585807014    -0.082559271347    -0.008831333476    -0.000271187737    -0.001189832171
            -0.000329982027    -0.001585807014    0.125459389187    0.032634594154    -0.000280429653    -0.002299868377    0.110155661036    0.009116151079
            -0.082559271347    -0.008831333476    -0.000280429653    -0.002299868377    -0.106706879701    -0.000853121508    -0.000263227017    -0.001643216261
            -0.000271187737    -0.001189832171    0.110155661036    0.009116151079    -0.000263227017    -0.001643216261    0.126448681385    0.031289439758
0.750     -0.103492076003    0.047999755886    -0.000703270480    -0.001501355137    -0.087572828348    0.029993946393    -0.000558655030    -0.001122804046
            -0.000703270480    -0.001501355137    0.141073556735    0.028963176736    -0.000821375532    -0.002235556060    0.121072243675    0.007639413126
            -0.087572828348    0.029993946393    -0.000821375532    -0.002235556060    -0.105769188582    0.044032813675    -0.000662148677    -0.001586003254
            -0.000558655030    -0.001122804046    0.121072243675    0.007639413126    -0.000662148677    -0.001586003254    0.141465519395    0.027667796229
0.775     -0.085707698882    0.088665112709    -0.001045489060    -0.001317465500    -0.078387536152    0.068047552795    -0.000821974639    -0.000975398028
            -0.001045489060    -0.001317465500    0.156256904302    0.018992751726    -0.001337376171    -0.002025458611    0.132829318368    0.001325322953
            -0.078387536152    0.068047552795    -0.001337376171    -0.002025458611    -0.088853729307    0.085359526099    -0.001041112050    -0.001414998134
            -0.000821974639    -0.000975398028    0.132829318368    0.001325322953    -0.001041112050    -0.001414998134    0.156131225998    0.017997993952
