# GHz S RI R 45
0.000     0.023138909390    0.001214167780    -0.000000008640    -0.000000083823    0.000860373207    0.001228223966    0.000000010065    -0.000000052085
            -0.000000008640    -0.000000083823    0.022251066279    0.001692863753    -0.000000006033    -0.000000083117    0.000782597386    0.001647796440
            0.000860373228    0.001228223951    -0.000000006033    -0.000000083117    0.023154700189    0.001226194286    0.000000014736    -0.000000048996
            0.000000010064    -0.000000052085    0.000782597559    0.001647796358    0.000000014736    -0.000000048996    0.022180474359    0.001704856308
0.025     0.028317588944    0.008687840906    -0.000000028429    -0.000000191525    0.002895096571    0.010902161789    0.000000005775    -0.000000121998
            -0.000000028430    -0.000000191525    0.027080620012    0.009216677612    -0.000000024545    -0.000000189633    0.002617283191    0.011119703372
            0.002895052482    0.010900478720    -0.000000024545    -0.000000189633    0.028229217298    0.008645456291    0.000000012952    -0.000000114652
            0.000000005775    -0.000000121998    0.002617537943    0.011119129741    0.000000012952    -0.000000114652    0.026995086488    0.009179483562
0.050     0.034015107839    0.011660098529    -0.000000073478    -0.000000359207    0.008622270562    0.019829152034    -0.000000014530    -0.000000238650
            -0.000000073478    -0.000000359207    0.032297800473    0.013020218039    -0.000000068079    -0.000000356908    0.007730367187    0.020567898861
            0.008622326394    0.019829115762    -0.000000068079    -0.000000356908    0.033846048628    0.011641216062    -0.000000003937    -0.000000226962
            -0.000000014530    -0.000000238650    0.007730463904    0.020567893491    -0.000000003937    -0.000000226962    0.032125233861    0.012981842429
0.075     0.039200562600    0.011439266175    -0.000000128405    -0.000000514186    0.016467599765    0.025367296449    -0.000000042276    -0.000000348743
            -0.000000128406    -0.000000514186    0.036969188348    0.014232087268    -0.000000121609    -0.000000511703    0.014869084963    0.027282317947
            0.016467607220    0.025367301148    -0.000000121609    -0.000000511703    0.038944771525    0.011490937368    -0.000000028192    -0.000000333362
            -0.000000042276    -0.000000348743    0.014869080677    0.027282320283    -0.000000028192    -0.000000333362    0.036702542966    0.014258942101
0.100     0.042479197348    0.008517106160    -0.000000190745    -0.000000661657    0.024552907555    0.027126111724    -0.000000073887    -0.000000454788
            -0.000000190744    -0.000000661657    0.040161183001    0.013406847064    -0.000000182267    -0.000000659050    0.022613080802    0.030918533168
            0.024552907082    0.027126112153    -0.000000182267    -0.000000659050    0.042160070239    0.008699967341    -0.000000055736    -0.000000436046
            -0.000000073887    -0.000000454788    0.022613055573    0.030918541709    -0.000000055736    -0.000000436046    0.039822901460    0.013562744929
0.125     0.042508201466    0.004152751083    -0.000000259492    -0.000000806690    0.031117796911    0.025604970249    -0.000000107321    -0.000000560786
            -0.000000259492    -0.000000806690    0.040908959835    0.011549861972    -0.000000248963    -0.000000804126    0.029641537079    0.031768604612
            0.031117795692    0.025604970157    -0.000000248963    -0.000000804126    0.042184759956    0.004506617099    -0.000000084245    -0.000000539248
            -0.000000107321    -0.000000560786    0.029641537079    0.031768604612    -0.000000084245    -0.000000539248    0.040563249554    0.011886755268
0.150     0.038878725134    0.000146460582    -0.000000336001    -0.000000954048    0.034778271527    0.022037282270    -0.000000143276    -0.000000671498
            -0.000000336001    -0.000000954048    0.039229111935    0.010049111933    -0.000000322709    -0.000000951983    0.034835512178    0.030629106253
            0.034778271527    0.022037282270    -0.000000322709    -0.000000951983    0.038626705374    0.000691190600    -0.000000114309    -0.000000647801
            -0.000000143276    -0.000000671498    0.034835512178    0.030629106253    -0.000000114309    -0.000000647801    0.038948772417    0.010579250812
0.175     0.031872627235    -0.001577243987    -0.000000425553    -0.000001108494    0.034913431196    0.018209344068    -0.000000185400    -0.000000791835
            -0.000000425553    -0.000001108494    0.035330705642    0.010183381643    -0.000000408902    -0.000001107673    0.037620187044    0.028746358417
            0.034913431196    0.018209344068    -0.000000408902    -0.000001107673    0.031776356532    -0.000873824481    -0.000000149533    -0.000000767028
            -0.000000185400    -0.000000791835    0.037620187044    0.028746358417    -0.000000149533    -0.000000767028    0.035201899918    0.010878163097
0.200     0.022719159205    0.000715210211    -0.000000536625    -0.000001271514    0.031836923622    0.016037241702    -0.000000240422    -0.000000924532
            -0.000000536625    -0.000001271514    0.030109580975    0.013127692445    -0.000000516221    -0.000001272958    0.038071678715    0.027492755752
            0.031836923622    0.016037241702    -0.000000516221    -0.000001272958    0.022839565900    0.001501151207    -0.000000196849    -0.000000900039
            -0.000000240422    -0.000000924532    0.038071678715    0.027492755752    -0.000000196849    -0.000000900039    0.030199895390    0.013914579985
0.225     0.013470029190    0.008070167595    -0.000000679518    -0.000001439628    0.026780621190    0.017100618696    -0.000000317452    -0.000001069147
            -0.000000679518    -0.000001439628    0.025027973315    0.019557810952    -0.000000655280    -0.000001444634    0.036912924386    0.028047759356
            0.026780621190    0.017100618696    -0.000000655280    -0.000001444634    0.013824147974    0.008836286362    -0.000000265720    -0.000001046779
            -0.000000317452    -0.000001069147    0.036912924386    0.028047759356    -0.000000265720    -0.000001046779    0.025363349363    0.020334631293
0.250     0.006603902767    0.020488717370    -0.000000863184    -0.000001603003    0.021657808320    0.022228325627    -0.000000425890    -0.000001219708
            -0.000000863184    -0.000001603003    0.021817995526    0.029419775464    -0.000000835507    -0.000001613017    0.035369634837    0.031121181981
            0.021657808320    0.022228325627    -0.000000835507    -0.000001613017    0.007154542470    0.021132515306    -0.000000366111    -0.000001201474
            -0.000000425890    -0.000001219708    0.035369634837    0.031121181981    -0.000000366111    -0.000001201474    0.022370394686    0.030079243913
0.275     0.004477727438    0.036754875076    -0.000001092077    -0.000001746330    0.018625393123    0.031217035561    -0.000000572815    -0.000001365076
            -0.000001092077    -0.000001746330    0.022101639657    0.041822735338    -0.000001061933    -0.000001762741    0.034892377759    0.036745438777
            0.018625393123    0.031217035561    -0.000001061933    -0.000001762741    0.005138092164    0.037201922884    -0.000000505759    -0.000001352965
            -0.000000572815    -0.000001365076    0.034892377759    0.036745438777    -0.000000505759    -0.000001352965    0.022791612781    0.042280114829
0.300     0.008725216089    0.054602340533    -0.000001362199    -0.000001851156    0.019546921965    0.042818541830    -0.000000758992    -0.000001489408
            -0.000001362199    -0.000001851156    0.026993041830    0.055170394583    -0.000001331102    -0.000001874966    0.036810910402    0.044244527140
            0.019546921965    0.042818541830    -0.000001331102    -0.000001874966    0.009378780642    0.054829606859    -0.000000686071    -0.000001485031
            -0.000000758992    -0.000001489408    0.036810910402    0.044244527140    -0.000000686071    -0.000001485031    0.027705990392    0.055387927585
0.325     0.019800116562    0.071146539075    -0.000001660150    -0.000001901229    0.025502417387    0.054995177473    -0.000000977034    -0.000001576904
            -0.000001660150    -0.000001901229    0.036797603936    0.067446652443    -0.000001629960    -0.000001932844    0.041998905316    0.052362830662
            0.025502417387    0.054995177473    -0.000001629960    -0.000001932844    0.020329276292    0.071192490462    -0.000000900064    -0.000001581264
            -0.000000977034    -0.000001576904    0.041998905316    0.052362830662    -0.000000900064    -0.000001581264    0.037410472050    0.067446607783
0.350     0.036799492406    0.083532979826    -0.000001964134    -0.000001887650    0.036509871561    0.065405645127    -0.000001210798    -0.000001615981
            -0.000001964134    -0.000001887650    0.050894357596    0.076652911699    -0.000001936704    -0.000001926717    0.050662982014    0.059560229614
            0.036509871561    0.065405645127    -0.000001936704    -0.000001926717    0.037116341614    0.083492006327    -0.000001131671    -0.000001629308
            -0.000001210798    -0.000001615981    0.050662982014    0.059560229614    -0.000001131671    -0.000001629308    0.051305374447    0.076515091057
0.375     0.057630448112    0.089554295558    -0.000002249700    -0.000001813222    0.051520828512    0.071931761905    -0.000001439847    -0.000001604705
            -0.000002249700    -0.000001813222    0.067835914763    0.081217418113    -0.000002226539    -0.000001858741    0.062288277133    0.064346111420
            0.051520828512    0.071931761905    -0.000002226539    -0.000001858741    0.057700707519    0.089555809174    -0.000001360156    -0.000001626569
            -0.000001439847    -0.000001604705    0.062288277133    0.064346111420    -0.000001360156    -0.000001626569    0.067989833262    0.081064115119
0.400     0.079449917671    0.088112715741    -0.000002495429    -0.000001692448    0.068672567159    0.073125935561    -0.000001644040    -0.000001551479
            -0.000002495429    -0.000001692448    0.085637305554    0.080327564910    -0.000002477414    -0.000001743012    0.075764781332    0.065599613988
            0.068672567159    0.073125935561    -0.000002477414    -0.000001743012    0.079303948095    0.088293425005    -0.000001564826    -0.000001581027
            -0.000001644040    -0.000001551479    0.075764781332    0.065599613988    -0.000001564826    -0.000001581027    0.085541025926    0.080297532650
0.425     0.099225384452    0.079390131455    -0.000002689591    -0.000001548564    0.085669163576    0.068451531473    -0.000001810366    -0.000001473920
            -0.000002689591    -0.000001548564    0.102158112607    0.074059858176    -0.000002676912    -0.000001602735    0.089608692647    0.062763710013
            0.085669163576    0.068451531473    -0.000002676912    -0.000001602735    0.098954625766    0.079862755027    -0.000001732005    -0.000001510216
            -0.000001810366    -0.000001473920    0.089608692647    0.062763710013    -0.000001732005    -0.000001510216    0.101881918070    0.074278718342
0.450     0.114275944607    0.064774579275    -0.000002831877    -0.000001407633    0.100194018788    0.058348601610    -0.000001934908    -0.000001393550
            -0.000002831877    -0.000001407633    0.115492441815    0.063346667367    -0.000002824094    -0.000001464233    0.102242187171    0.055935814421
            0.100194018788    0.058348601610    -0.000002824094    -0.000001464233    0.114016645748    0.065604352646    -0.000001857206    -0.000001435882
            -0.000001934908    -0.000001393550    0.102242187171    0.055935814421    -0.000001857206    -0.000001435882    0.115157272826    0.063901096211
0.475     0.122685914873    0.046591246734    -0.000002934066    -0.000001292928    0.110264107912    0.044142306546    -0.000002024617    -0.000001331246
            -0.000002934066    -0.000001292928    0.124269272845    0.049784442609    -0.000002930356    -0.000001351271    0.112242585607    0.045831233310
            0.110264107912    0.044142306546    -0.000002930356    -0.000001351271    0.122593745100    0.047781950616    -0.000001947005    -0.000001379387
            -0.000002024617    -0.000001331246    0.112242585607    0.045831233310    -0.000001947005    -0.000001379387    0.124026764785    0.050704612586
0.500     0.123585427931    0.027748426582    -0.000003016522    -0.000001220611    0.114535954075    0.027876957340    -0.000002094179    -0.000001302760
            -0.000003016522    -0.000001220611    0.127862044789    0.035370977326    -0.000003015899    -0.000001280608    0.118574984026    0.033684786162
            0.114535954075    0.027876957340    -0.000003015899    -0.000001280608    0.123809703567    0.029243285238    -0.000002015944    -0.000001357027
            -0.000002094179    -0.000001302760    0.118574984026    0.033684786162    -0.000002015944    -0.000001357027    0.127868942907    0.036623762070
0.525     0.117291691779    0.011324986380    -0.000003105294    -0.000001197566    0.112551864820    0.012055503658    -0.000002164243    -0.000001317149
            -0.000003105294    -0.000001197566    0.126468393816    0.022191890186    -0.000003106924    -0.000001259681    0.120760495336    0.021070602291
            0.112551864820    0.012055503658    -0.000003106924    -0.000001259681    0.117966715286    0.013017631385    -0.000002084836    -0.000001378452
            -0.000002164243    -0.000001317149    0.120760495336    0.021070602291    -0.000002084836    -0.000001378452    0.126869816137    0.023686322080
0.550     0.105346996228    0.000132854008    -0.000003227685    -0.000001220094    0.104932623222    -0.000723873754    -0.000002257326    -0.000001375126
            -0.000003227685    -0.000001220094    0.121103109982    0.012111122350    -0.000003230926    -0.000001285166    0.119006142412    0.009664067712
            0.104932623222    -0.000723873754    -0.000003230926    -0.000001285166    0.106594239710    0.001841198390    -0.000002176493    -0.000001444751
            -0.000002257326    -0.000001375126    0.119006142412    0.009664067712    -0.000002176493    -0.000001444751    0.122022077777    0.013684563247
0.575     0.090404295225    -0.003764775803    -0.000003410221    -0.000001273699    0.093373055471    -0.008229188909    -0.000002397247    -0.000001469298
            -0.000003410221    -0.000001273699    0.113471753104    0.006464225342    -0.000003414722    -0.000001343157    0.114187870119    0.000952176552
            0.093373055471    -0.008229188909    -0.000003414722    -0.000001343157    0.092233940823    -0.002327813760    -0.000002315123    -0.000001549057
            -0.000002397247    -0.000001469298    0.114187870119    0.000952176552    -0.000002315123    -0.000001549057    0.114941192875    0.007872978781
0.600     0.075924867079    0.000465488558    -0.000003674743    -0.000001332548    0.080529459607    -0.009019988538    -0.000002606463    -0.000001582693
            -0.000003674743    -0.000001332548    0.105749018746    0.005790585600    -0.000003680894    -0.000001408387    0.107790933871    -0.004008456266
            0.080529459607    -0.009019988538    -0.000003680894    -0.000001408387    0.078167949677    0.001385924919    -0.000002523902    -0.000001674794
            -0.000002606463    -0.000001582693    0.107790933871    -0.004008456266    -0.000002523902    -0.000001674794    0.107665057353    0.006806601585
0.625     0.065604885467    0.012052191786    -0.000004033861    -0.000001358930    0.069662313805    -0.002986040330    -0.000002903213    -0.000001686582
            -0.000004033861    -0.000001358930    0.100216389840    0.009651304340    -0.000004043254    -0.000001443175    0.101713176454    -0.004904860003
            0.069662313805    -0.002986040330    -0.000004043254    -0.000001443175    0.068011021901    0.012335356060    -0.000002822215    -0.000001793239
            -0.000002903213    -0.000001686582    0.101713176454    -0.004904860003    -0.000002822215    -0.000001793239    0.102392024119    0.010122968540
0.650     0.062587274708    0.028540228998    -0.000004482672    -0.000001306470    0.063889012136    0.008377810801    -0.000003292894    -0.000001740639
            -0.000004482671    -0.000001306470    0.098824128466    0.016612888149    -0.000004497987    -0.000001400603    0.097874466228    -0.002343562009
            0.063889012136    0.008377810801    -0.000004497987    -0.000001400603    0.064884760266    0.028183516248    -0.000003216506    -0.000001863527
            -0.000003292894    -0.000001740639    0.097874466228    -0.002343562009    -0.000003216506    -0.000001863527    0.101026703488    0.016476893104
0.675     0.068627577492    0.046159851687    -0.000004993202    -0.000001128689    0.065331534701    0.022176341588    -0.000003761270    -0.000001698974
            -0.000004993202    -0.000001128689    0.102730616051    0.024450889510    -0.000005018034    -0.000001233151    0.097740128512    0.002209449128
            0.065331534701    0.022176341588    -0.000005018034    -0.000001233151    0.070566791318    0.045276097059    -0.000003693419    -0.000001838745
            -0.000003761270    -0.000001698974    0.097740128512    0.002209449128    -0.000003693419    -0.000001838745    0.104715327536    0.023745305807
0.700     0.083551453224    0.060650254918    -0.000005512328    -0.000000792928    0.074509071418    0.034792416858    -0.000004268394    -0.000001522258
            -0.000005512328    -0.000000792928    0.111986504793    0.030583209810    -0.000005550598    -0.000000906678    0.101955675037    0.006733428065
            0.074509071418    0.034792416858    -0.000005550598    -0.000000906678    0.084952425883    0.059451192477    -0.000004213329    -0.000001678104
            -0.000004268394    -0.000001522258    0.101955675037    0.006733428065    -0.000004213329    -0.000001678104    0.113541454641    0.029448119218
0.725     0.105233782952    0.068284134011    -0.000005971590    -0.000000294729    0.090187672487    0.042792454845    -0.000004754891    -0.000001193235
            -0.000005971590    -0.000000294729    0.125459389187    0.032634594154    -0.000006026885    -0.000000415052    0.110155661036    0.009116151079
            0.090187672487    0.042792454845    -0.000006026885    -0.000000415052    0.106026270298    0.067039005312    -0.000004716569    -0.000001362790
            -0.000004754891    -0.000001193235    0.110155661036    0.009116151079    -0.000004716569    -0.000001362790    0.126448681385    0.031289439758
0.750     0.130150883435    0.066720488455    -0.000006303619    0.000000334907    0.109772284858    0.043738730105    -0.000005155170    -0.000000727158
            -0.000006303619    0.000000334907    0.141073556735    0.028963176736    -0.000006378338    0.000000212016    0.121072243675    0.007639413126
            0.109772284858    0.043738730105    -0.000006378338    0.000000212016    0.130386500574    0.065702248453    -0.000005136463    -0.000000906783
            -0.000005155170    -0.000000727158    0.121072243675    0.007639413126    -0.000005136463    -0.000000906783    0.141465519395    0.027667796229
0.775     0.154228721951    0.055404371868    -0.000006462877    0.000001034745    0.129985987754    0.036606613748    -0.000005418458    -0.000000170690
            -0.000006462877    0.000001034744    0.156256904302    0.018992751726    -0.000006557791    0.000000913995    0.132829318368    0.001325322953
            0.129985987754    0.036606613748    -0.000006557791    0.000000913995    0.154068340370    0.054837484275    -0.000005420764    -0.000000356066
