# GHz S RI R 45
0.000     0.021878163651    0.001547772972    -0.000003962869    -0.000008767657    0.000752992098    0.001374564244    -0.000002595864    -0.000006277141
            -0.000003962864    -0.000008767658    0.022251066279    0.001692863753    -0.000026067572    -0.000011645238    0.000782597386    0.001647796440
            0.000752992626    0.001374564297    -0.000026067573    -0.000011645239    0.021761456956    0.001538189345    -0.000004018160    -0.000008851602
            -0.000002595850    -0.000006277141    0.000782597559    0.001647796358    -0.000004018181    -0.000008851603    0.022180474359    0.001704856308
0.025     0.028095537518    0.007883212317    -0.000011787127    -0.000019423018    0.003613372243    0.009853850445    -0.000007288368    -0.000013234721
            -0.000011787032    -0.000019422815    0.027080620012    0.009216677612    -0.000038347873    -0.000025650007    0.002617283191    0.011119703372
            0.003614808837    0.009853474786    -0.000038348043    -0.000025649800    0.028022338923    0.007850391946    -0.000011354955    -0.000019914049
            -0.000007288371    -0.000013234728    0.002617537943    0.011119129741    -0.000011354951    -0.000019914068    0.026995086488    0.009179483562
0.050     0.036721310333    0.008691690200    -0.000028781052    -0.000029194843    0.011424668059    0.016694589133    -0.000017445373    -0.000021201223
            -0.000028781061    -0.000029194843    0.032297800473    0.013020218039    -0.000067940259    -0.000037508798    0.007730367187    0.020567898861
            0.011424660523    0.016694611255    -0.000067940260    -0.000037508798    0.036633809448    0.008662537719    -0.000027526881    -0.000031457138
            -0.000017445374    -0.000021201224    0.007730463904    0.020567893491    -0.000027526883    -0.000031457140    0.032125233861    0.012981842429
0.075     0.045728546713    0.004035319643    -0.000048170706    -0.000028908259    0.021930061166    0.018419373767    -0.000030241495    -0.000024295622
            -0.000048170710    -0.000028908262    0.036969188348    0.014232087268    -0.000097858803    -0.000028710291    0.014869084963    0.027282317947
            0.021930055456    0.018419377456    -0.000097858803    -0.000028710291    0.045632813953    0.004022373153    -0.000047363902    -0.000034480670
            -0.000030241495    -0.000024295622    0.014869080677    0.027282320283    -0.000047363902    -0.000034480670    0.036702542966    0.014258942101
0.100     0.052506741570    -0.006106483398    -0.000065420426    -0.000019892260    0.032317869517    0.014272983897    -0.000044202611    -0.000022359050
            -0.000065420426    -0.000019892260    0.040161183001    0.013406847064    -0.000119212717    -0.000006515595    0.022613080802    0.030918533168
            0.032317869268    0.014272984461    -0.000119212717    -0.000006515595    0.052426877064    -0.006088990322    -0.000067745854    -0.000029172750
            -0.000044202611    -0.000022359050    0.022613055573    0.030918541709    -0.000067745854    -0.000029172750    0.039822901460    0.013562744929
0.125     0.054320747391    -0.020473468912    -0.000077313445    -0.000005668645    0.039721724677    0.004831985110    -0.000057880418    -0.000015409918
            -0.000077313444    -0.000005668645    0.040908959835    0.011549861972    -0.000130053032    0.000021048784    0.029641537079    0.031768604612
            0.039721721919    0.004831982945    -0.000130053032    0.000021048784    0.054291526724    -0.020436409761    -0.000085867698    -0.000017050049
            -0.000057880418    -0.000015409918    0.029641537079    0.031768604612    -0.000085867699    -0.000017050049    0.040563249554    0.011886755268
0.150     0.049353279109    -0.036522840784    -0.000083605803    0.000010472917    0.041794876321    -0.008133344575    -0.000070061586    -0.000003753158
            -0.000083605803    0.000010472917    0.039229111935    0.010049111933    -0.000130899533    0.000048793686    0.034835512178    0.030629106253
            0.041794876321    -0.008133344575    -0.000130899533    0.000048793686    0.049414417492    -0.036479291911    -0.000100381587    0.000000841010
            -0.000070061586    -0.000003753158    0.034835512178    0.030629106253    -0.000100381587    0.000000841010    0.038948772417    0.010579250812
0.175     0.036853249045    -0.051018982793    -0.000085964697    0.000025918439    0.037155494636    -0.021896444229    -0.000079654286    0.000012320088
            -0.000085964697    0.000025918439    0.035330705642    0.010183381643    -0.000125477058    0.000072840091    0.037620187044    0.028746358417
            0.037155494636    -0.021896444229    -0.000125477058    0.000072840091    0.037032631899    -0.051014237391    -0.000110400237    0.000023148163
            -0.000079654287    0.000012320089    0.037620187044    0.028746358417    -0.000110400237    0.000023148163    0.035201899918    0.010878163097
0.200     0.017633612059    -0.060532099186    -0.000087076656    0.000040224644    0.025744973341    -0.033288757894    -0.000085488138    0.000032468519
            -0.000087076656    0.000040224644    0.030109580975    0.013127692445    -0.000118534074    0.000093010923    0.038071678715    0.027492755752
            0.025744973341    -0.033288757894    -0.000118534074    0.000093010923    0.017934719052    -0.060630919386    -0.000115451086    0.000048918138
            -0.000085488138    0.000032468519    0.038071678715    0.027492755752    -0.000115451086    0.000048918138    0.030199895390    0.013914579985
0.225     -0.005980067289    -0.062135404963    -0.000088838207    0.000055284459    0.008932852432    -0.039299215631    -0.000086103921    0.000056121853
            -0.000088838207    0.000055284459    0.025027973315    0.019557810952    -0.000113137049    0.000112635111    0.036912924386    0.028047759356
            0.008932852432    -0.039299215631    -0.000113137049    0.000112635111    -0.005587689560    -0.062407720799    -0.000114872287    0.000077593613
            -0.000086103921    0.000056121853    0.036912924386    0.028047759356    -0.000114872287    0.000077593613    0.025363349363    0.020334631293
0.250     -0.030436345811    -0.054069108498    -0.000090909596    0.000074210370    -0.010635270707    -0.037705845369    -0.000079847729    0.000082091447
            -0.000090909596    0.000074210370    0.021817995526    0.029419775464    -0.000108723945    0.000136614584    0.035369634837    0.031121181981
            -0.010635270707    -0.037705845369    -0.000108723945    0.000136614584    -0.030018952748    -0.054572320864    -0.000107512097    0.000108533931
            -0.000079847729    0.000082091447    0.035369634837    0.031121181981    -0.000107512097    0.000108533931    0.022370394686    0.030079243913
0.275     -0.051554135674    -0.036217114672    -0.000090202430    0.000099467418    -0.029468734933    -0.027594680085    -0.000065211281    0.000108251559
            -0.000090202430    0.000099467418    0.022101639657    0.041822735338    -0.000100623544    0.000168589237    0.034892377759    0.036745438777
            -0.029468734933    -0.027594680085    -0.000100623544    0.000168589237    -0.051207164839    -0.036977944131    -0.000091796732    0.000140371902
            -0.000065211281    0.000108251559    0.034892377759    0.036745438777    -0.000091796732    0.000140371902    0.022791612781    0.042280114829
0.300     -0.065302083653    -0.010315193152    -0.000081868020    0.000130998158    -0.043886209433    -0.009659480391    -0.000041507673    0.000131528403
            -0.000081868020    0.000130998158    0.026993041830    0.055170394583    -0.000081682912    0.000208294307    0.036810910402    0.044244527140
            -0.043886209433    -0.009659480391    -0.000081682912    0.000208294307    -0.065135043121    -0.011315165145    -0.000066429206    0.000170581938
            -0.000041507673    0.000131528403    0.036810910402    0.044244527140    -0.000066429206    0.000170581938    0.027705990392    0.055387927585
0.325     -0.068616308606    0.020251445735    -0.000061279300    0.000165347833    -0.050748367267    0.013841711647    -0.000009478697    0.000148339931
            -0.000061279300    0.000165347833    0.036797603936    0.067446652443    -0.000045199943    0.000250448958    0.041998905316    0.052362830662
            -0.050748367267    0.013841711647    -0.000045199943    0.000250448958    -0.068730255740    0.019080986341    -0.000031263382    0.000195609279
            -0.000009478697    0.000148339931    0.041998905316    0.052362830662    -0.000031263382    0.000195609279    0.037410472050    0.067446607783
0.350     -0.060068141556    0.050996576717    -0.000026347560    0.000196313446    -0.048111312594    0.039464362606    0.000028426179    0.000155507805
            -0.000026347560    0.000196313446    0.050894357596    0.076652911699    0.000011884389    0.000285779475    0.050662982014    0.059560229614
            -0.048111312594    0.039464362606    0.000011884389    0.000285779475    -0.060532253733    0.049769437488    0.000011910932    0.000211698639
            0.000028426179    0.000155507805    0.050662982014    0.059560229614    0.000011910932    0.000211698639    0.051305374447    0.076515091057
0.375     -0.040188081047    0.077139434114    0.000020987650    0.000216834459    -0.035612733687    0.063207269690    0.000068434937    0.000151162620
            0.000020987650    0.000216834459    0.067835914763    0.081217418113    0.000087083984    0.000303761933    0.062288277133    0.064346111420
            -0.035612733687    0.063207269690    0.000087083984    0.000303761933    -0.041020590201    0.075998749058    0.000059261153    0.000216009557
            0.000068434937    0.000151162620    0.062288277133    0.064346111420    0.000059261153    0.000216009557    0.067989833262    0.081064115119
0.400     -0.011413347323    0.094457343231    0.000074383491    0.000221313259    -0.014543913088    0.081232325953    0.000106332000    0.000135352392
            0.000074383491    0.000221313259    0.085637305554    0.080327564910    0.000172472583    0.000296044115    0.075764781332    0.065599613988
            -0.014543913088    0.081232325953    0.000172472583    0.000296044115    -0.012569903438    0.093550987954    0.000105171724    0.000207518013
            0.000106332000    0.000135352392    0.075764781332    0.065599613988    0.000105171724    0.000207518013    0.085541025926    0.080297532650
0.425     0.022331205262    0.099992264196    0.000123373094    0.000206627734    0.012394513919    0.090492671066    0.000138523981    0.000109956548
            0.000123373094    0.000206627734    0.102158112607    0.074059858176    0.000256656876    0.000259091758    0.089608692647    0.062763710013
            0.012394513919    0.090492671066    0.000256656876    0.000259091758    0.020957724870    0.099446955411    0.000142160893    0.000186480200
            0.000138523981    0.000109956548    0.089608692647    0.062763710013    0.000142160893    0.000186480200    0.101881918070    0.074278718342
0.450     0.056263247124    0.092507390594    0.000154897613    0.000167455867    0.041531540896    0.089190500363    0.000162651290    0.000078187965
            0.000154897613    0.000167455867    0.115492441815    0.063346667367    0.000327686830    0.000195401845    0.102242187171    0.055935814421
            0.041531540896    0.089190500363    0.000327686830    0.000195401845    0.054833275018    0.092401426571    0.000161087276    0.000148250360
            0.000162651290    0.000078187965    0.102242187171    0.055935814421    0.000161087276    0.000148250360    0.115157272826    0.063901096211
0.475     0.085453406814    0.072638947335    0.000176421658    0.000090892447    0.068757767513    0.077000204406    0.000177135959    0.000043227241
            0.000176421658    0.000090892447    0.124269272845    0.049784442609    0.000375329958    0.000112306167    0.112242585607    0.045831233310
            0.068757767513    0.077000204406    0.000375329958    0.000112306167    0.084165320718    0.072980247029    0.000174846950    0.000076755440
            0.000177135959    0.000043227241    0.112242585607    0.045831233310    0.000174846950    0.000076755440    0.124026764785    0.050704612586
0.500     0.105504307746    0.042805781373    0.000209327199    0.000012085217    0.090076751993    0.055114464730    0.000182240472    0.000006053683
            0.000209327199    0.000012085217    0.127862044789    0.035370977326    0.000395024334    0.000018899736    0.118574984026    0.033684786162
            0.090076751993    0.055114464730    0.000395024334    0.000018899736    0.104584496910    0.043503652989    0.000208689436    0.000006686580
            0.000182240472    0.000006053683    0.118574984026    0.033684786162    0.000208689436    0.000006686580    0.127868942907    0.036623762070
0.525     0.113128199755    0.006910678367    0.000223313498    -0.000047468798    0.102191525045    0.026069224302    0.000181385035    -0.000032508971
            0.000223313498    -0.000047468798    0.126468393816    0.022191890186    0.000388481154    -0.000073572046    0.120760495336    0.021070602291
            0.102191525045    0.026069224302    0.000388481154    -0.000073572046    0.112959677903    0.007681708090    0.000229567801    -0.000045991819
            0.000181385035    -0.000032508971    0.120760495336    0.021070602291    0.000229567801    -0.000045991819    0.126869816137    0.023686322080
0.550     0.106614266332    -0.030107320914    0.000215624855    -0.000097087698    0.102567460082    -0.005115955013    0.000175816125    -0.000069206653
            0.000215624855    -0.000097087698    0.121103109982    0.012111122350    0.000359663657    -0.000152841202    0.119006142412    0.009664067712
            0.102567460082    -0.005115955013    0.000359663657    -0.000152841202    0.106952289027    -0.027763590911    0.000232489724    -0.000093267564
            0.000175816125    -0.000069206653    0.119006142412    0.009664067712    0.000232489724    -0.000093267564    0.122022077777    0.013684563247
0.575     0.086128267066    -0.062840235522    0.000195048463    -0.000137762856    0.090195396215    -0.036331741212    0.000164369237    -0.000104682172
            0.000195048463    -0.000137762856    0.113471753104    0.006464225342    0.000316067441    -0.000220728597    0.114187870119    0.000952176552
            0.090195396215    -0.036331741212    0.000316067441    -0.000220728597    0.086895103856    -0.061335882181    0.000221667176    -0.000142641153
            0.000164369237    -0.000104682172    0.114187870119    0.000952176552    0.000221667176    -0.000142641153    0.114941192875    0.007872978781
0.600     0.053900871585    -0.085946096976    0.000168485575    -0.000169793182    0.066611094131    -0.061000880928    0.000146500319    -0.000139337833
            0.000168485575    -0.000169793182    0.105749018746    0.005790585600    0.000266572389    -0.000273038972    0.107790933871    -0.004008456266
            0.066611094131    -0.061000880928    0.000266572389    -0.000273038972    0.055446801760    -0.085203027419    0.000200145663    -0.000190347352
            0.000146500319    -0.000139337833    0.107790933871    -0.004008456266    0.000200145663    -0.000190347352    0.107665057353    0.006806601585
0.625     0.014828951990    -0.095622528955    0.000141467612    -0.000195928738    0.034846907573    -0.075398630573    0.000122068332    -0.000172698092
            0.000141467612    -0.000195928738    0.100216389840    0.009651304340    0.000215691202    -0.000314650051    0.101713176454    -0.004904860003
            0.034846907573    -0.075398630573    0.000215691202    -0.000314650051    0.016365213271    -0.095787771884    0.000167636206    -0.000235798311
            0.000122068332    -0.000172698092    0.101713176454    -0.004904860003    0.000167636206    -0.000235798311    0.102392024119    0.010122968540
0.650     -0.026393023470    -0.090133870191    0.000113299335    -0.000221378331    -0.001222519955    -0.076937645845    0.000088442258    -0.000204295164
            0.000113299339    -0.000221378329    0.098824128466    0.016612888149    0.000164084793    -0.000351122678    0.097874466228    -0.002343562009
            -0.001222519955    -0.076937645845    0.000164084793    -0.000351122678    -0.024833169763    -0.090875849692    0.000123383529    -0.000277005246
            0.000088442258    -0.000204295164    0.097874466228    -0.002343562009    0.000123383529    -0.000277005246    0.101026703488    0.016476893104
0.675     -0.063407983799    -0.069115503881    0.000081054540    -0.000247545939    -0.036086948794    -0.064434639019    0.000044374515    -0.000229907019
            0.000081054540    -0.000247545939    0.102730616051    0.024450889510    0.000108116955    -0.000386098437    0.097740128512    0.002209449128
            -0.036086948794    -0.064434639019    0.000108116955    -0.000386098437    -0.061988669837    -0.070567003058    0.000066827673    -0.000310471636
            0.000044374515    -0.000229907019    0.097740128512    0.002209449128    0.000066827673    -0.000310471636    0.104715327536    0.023745305807
0.700     -0.090373478028    -0.035347016785    0.000040575915    -0.000273743434    -0.064298960141    -0.039358534445    -0.000009182877    -0.000245017570
            0.000040575915    -0.000273743434    0.111986504793    0.030583209810    0.000042051772    -0.000418951641    0.101955675037    0.006733428065
            -0.064298960141    -0.039358534445    0.000042051772    -0.000418951641    -0.089383415993    -0.037465454091    -0.000001074983    -0.000331493377
            -0.000009182877    -0.000245017570    0.101955675037    0.006733428065    -0.000001074983    -0.000331493377    0.113541454641    0.029448119218
0.725     -0.103112852276    0.006309470191    -0.000011577974    -0.000295736560    -0.081494210619    -0.005226918427    -0.000068872206    -0.000245240831
            -0.000011577974    -0.000295736560    0.125459389187    0.032634594154    -0.000038644954    -0.000444218502    0.110155661036    0.009116151079
            -0.081494210619    -0.005226918427    -0.000038644954    -0.000444218502    -0.102803065880    0.003708388302    -0.000076901405    -0.000335228714
            -0.000068872206    -0.000245240831    0.110155661036    0.009116151079    -0.000076901405    -0.000335228714    0.126448681385    0.031289439758
0.750     -0.099777971780    0.049781777592    -0.000075811705    -0.000307032717    -0.085129785856    0.033047977457    -0.000129067993    -0.000227935559
            -0.000075811705    -0.000307032717    0.141073556735    0.028963176736    -0.000134421871    -0.000453349939    0.121072243675    0.007639413126
            -0.085129785856    0.033047977457    -0.000134421871    -0.000453349939    -0.100305626783    0.046976875974    -0.000154734908    -0.000318396909
            -0.000129067993    -0.000227935559    0.121072243675    0.007639413126    -0.000154734908    -0.000318396909    0.141465519395    0.027667796229
0.775     -0.081075240456    0.088889955571    -0.000148640257    -0.000301163203    -0.074815069905    0.070085148394    -0.000183135597    -0.000193365977
            -0.000148640257    -0.000301163203    0.156256904302    0.018992751726    -0.000240431403    -0.000437728300    0.132829318368    0.001325322953
            -0.074815069905    0.070085148394    -0.000240431403    -0.000437728300    -0.082476514022    0.086204811247    -0.000227332439    -0.000280593570
            -0.000183135597    -0.000193365977    0.132829318368    0.001325322953    -0.000227332439    -0.000280593570    0.156131225998    0.017997993952
