# GHz S RI R 45
0.000     0.021021572774    0.001545246728    0.000000323749    0.000001210251    0.000677635907    0.001374394315    0.000000372767    0.000001290813
            0.000000323749    0.000001210251    0.022251066279    0.001692863753    0.000000280746    0.000001128793    0.000782597386    0.001647796440
            0.000677635671    0.001374394320    0.000000280746    0.000001128793    0.020989324149    0.001529321297    0.000000347835    0.000001240252
            0.000000372767    0.000001290813    0.000782597559    0.001647796358    0.000000347835    0.000001240252    0.022180474359    0.001704856308
0.025     0.027252558221    0.007381824216    0.000001149286    0.000002590224    0.003461030283    0.009283238543    0.000001265987    0.000002755269
            0.000001149296    0.000002590217    0.027080620012    0.009216677612    0.000001036886    0.000002425658    0.002617283191    0.011119703372
            0.003461251950    0.009282451189    0.000001036890    0.000002425662    0.027185712391    0.007329378565    0.000001195720    0.000002653941
            0.000001265992    0.000002755272    0.002617537943    0.011119129741    0.000001195717    0.000002653942    0.026995086488    0.009179483562
0.050     0.035726411464    0.007911981523    0.000002988320    0.000004290377    0.011048478873    0.015692671802    0.000003233648    0.000004539242
            0.000002988322    0.000004290376    0.032297800473    0.013020218039    0.000002749928    0.000004044630    0.007730367187    0.020567898861
            0.011048503333    0.015692658250    0.000002749928    0.000004044630    0.035634821651    0.007863544354    0.000003083391    0.000004391799
            0.000003233649    0.000004539241    0.007730463904    0.020567893491    0.000003083390    0.000004391799    0.032125233861    0.012981842429
0.075     0.044718893560    0.003185165765    0.000005400331    0.000005174274    0.021350344706    0.017225805481    0.000005794319    0.000005447967
            0.000005400331    0.000005174273    0.036969188348    0.014232087268    0.000005016361    0.000004901544    0.014869084963    0.027282317947
            0.021350342354    0.017225811581    0.000005016361    0.000004901544    0.044618913239    0.003152502848    0.000005553533    0.000005289539
            0.000005794319    0.000005447966    0.014869080677    0.027282320283    0.000005553533    0.000005289539    0.036702542966    0.014258942101
0.100     0.051786331895    -0.006909738357    0.000008157764    0.000005157436    0.031739639582    0.013095606919    0.000008707178    0.000005399568
            0.000008157768    0.000005157436    0.040161183001    0.013406847064    0.000007618351    0.000004911379    0.022613080802    0.030918533168
            0.031739639354    0.013095607473    0.000007618351    0.000004911379    0.051707276882    -0.006909206201    0.000008372241    0.000005264527
            0.000008707181    0.000005399568    0.022613055573    0.030918541709    0.000008372241    0.000005264527    0.039822901460    0.013562744929
0.125     0.054298701719    -0.021326048017    0.000011009081    0.000004187275    0.039499315821    0.003733862907    0.000011704091    0.000004343407
            0.000011009075    0.000004187284    0.040908959835    0.011549861972    0.000010318496    0.000004021764    0.029641537079    0.031768604612
            0.039499315802    0.003733863114    0.000010318496    0.000004021764    0.054286068578    -0.021279917614    0.000011280737    0.000004264885
            0.000011704087    0.000004343415    0.029641537079    0.031768604612    0.000011280737    0.000004264885    0.040563249554    0.011886755268
0.150     0.050447222098    -0.037736417565    0.000013716575    0.000002262395    0.042341044299    -0.009314794586    0.000014535344    0.000002286638
            0.000013716576    0.000002262396    0.039229111935    0.010049111933    0.000012891151    0.000002227689    0.034835512178    0.030629106253
            0.042341044299    -0.009314794586    0.000012891151    0.000002227689    0.050544922330    -0.037673356677    0.000014036217    0.000002294081
            0.000014535344    0.000002286638    0.034835512178    0.030629106253    0.000014036217    0.000002294081    0.038948772417    0.010579250812
0.175     0.039321581101    -0.053185222632    0.000016049269    -0.000000602311    0.038812843011    -0.023581444698    0.000016960703    -0.000000748706
            0.000016049269    -0.000000602312    0.035330705642    0.010183381643    0.000015116782    -0.000000458866    0.037620187044    0.028746358417
            0.038812843011    -0.023581444698    0.000015116782    -0.000000458866    0.039570489519    -0.053153225825    0.000016404430    -0.000000628090
            0.000016960703    -0.000000748707    0.037620187044    0.028746358417    0.000016404430    -0.000000628090    0.035201899918    0.010878163097
0.200     0.021437625596    -0.064432097844    0.000017754319    -0.000004367745    0.028643959427    -0.036121302922    0.000018721282    -0.000004716283
            0.000017754318    -0.000004367744    0.030109580975    0.013127692445    0.000016754616    -0.000004002864    0.038071678715    0.027492755752
            0.028643959427    -0.036121302922    0.000016754616    -0.000004002864    0.021857538214    -0.064502267041    0.000018133133    -0.000004457422
            0.000018721283    -0.000004716283    0.038071678715    0.027492755752    0.000018133133    -0.000004457422    0.030199895390    0.013914579985
0.225     -0.001283845909    -0.068590578843    0.000018532149    -0.000008939127    0.012863964823    -0.044038854280    0.000019511187    -0.000009515872
            0.000018532150    -0.000008939127    0.025027973315    0.019557810952    0.000017519231    -0.000008315562    0.036912924386    0.028047759356
            0.012863964823    -0.044038854280    0.000017519231    -0.000008315562    -0.000708339170    -0.068846357154    0.000018925325    -0.000009096775
            0.000019511187    -0.000009515872    0.036912924386    0.028047759356    0.000018925325    -0.000009096775    0.025363349363    0.020334631293
0.250     -0.025733255760    -0.063730789636    0.000018056477    -0.000014105666    -0.006293669884    -0.045047877215    0.000018996337    -0.000014931088
            0.000018056477    -0.000014105666    0.021817995526    0.029419775464    0.000017100021    -0.000013197823    0.035369634837    0.031121181981
            -0.006293669884    -0.045047877215    0.000017100021    -0.000013197823    -0.025057671497    -0.064249391679    0.000018457826    -0.000014336773
            0.000018996336    -0.000014931087    0.035369634837    0.031121181981    0.000018457826    -0.000014336773    0.022370394686    0.030079243913
0.275     -0.048097422272    -0.049329476357    0.000016034774    -0.000019499064    -0.025724925227    -0.037946560465    0.000016873776    -0.000020585494
            0.000016034774    -0.000019499064    0.022101639657    0.041822735338    0.000015219008    -0.000018300937    0.034892377759    0.036745438777
            -0.025724925227    -0.037946560465    0.000015219008    -0.000018300937    -0.047413559685    -0.050163103220    0.000016437865    -0.000019814093
            0.000016873776    -0.000020585494    0.034892377759    0.036745438777    0.000016437865    -0.000019814093    0.022791612781    0.042280114829
0.300     -0.064506156183    -0.026516396410    0.000012308124    -0.000024597134    -0.041983536892    -0.022932837709    0.000012973431    -0.000025942287
            0.000012308124    -0.000024597134    0.026993041830    0.055170394583    0.000011724869    -0.000023130132    0.036810910402    0.044244527140
            -0.041983536892    -0.022932837709    0.000011724869    -0.000023130132    -0.063929945387    -0.027675728511    0.000012700981    -0.000025011779
            0.000012973431    -0.000025942287    0.036810910402    0.044244527140    0.000012700981    -0.000025011779    0.027705990392    0.055387927585
0.325     -0.071743745057    0.002011427936    0.000006936976    -0.000028792933    -0.051901511152    -0.001651790125    0.000007348302    -0.000030372963
            0.000006936975    -0.000028792933    0.036797603936    0.067446652443    0.000006674663    -0.000027111179    0.041998905316    0.052362830662
            -0.051901511152    -0.001651790125    0.000006674663    -0.000027111179    -0.071394681478    0.000567386027    0.000007296502    -0.000029324808
            0.000007348302    -0.000030372963    0.041998905316    0.052362830662    0.000007296502    -0.000029324808    0.037410472050    0.067446607783
0.350     -0.067884596800    0.032363847776    0.000000241635    -0.000031517302    -0.053192978187    0.023029834788    0.000000319308    -0.000033280834
            0.000000241636    -0.000031517303    0.050894357596    0.076652911699    0.000000371208    -0.000029705585    0.050662982014    0.059560229614
            -0.053192978187    0.023029834788    0.000000371208    -0.000029705585    -0.067862904464    0.030727227513    0.000000531024    -0.000032178327
            0.000000319309    -0.000033280834    0.050662982014    0.059560229614    0.000000531024    -0.000032178327    0.051305374447    0.076515091057
0.375     -0.052690056438    0.060088285051    -0.000007239869    -0.000032366464    -0.044886606515    0.047490174889    -0.000007563374    -0.000034233102
            -0.000007239869    -0.000032366464    0.067835914763    0.081217418113    -0.000006676855    -0.000030532074    0.062288277133    0.064346111420
            -0.044886606515    0.047490174889    -0.000006676855    -0.000030532074    -0.053054501143    0.058392353684    -0.000007069006    -0.000033154245
            -0.000007563374    -0.000034233102    0.062288277133    0.064346111420    -0.000007069006    -0.000033154245    0.067989833262    0.081064115119
0.400     -0.027716759689    0.080908501305    -0.000014857985    -0.000031190794    -0.027527773292    0.067958790546    -0.000015626158    -0.000033055973
            -0.000014857985    -0.000031190794    0.085637305554    0.080327564910    -0.000013856016    -0.000029450176    0.075764781332    0.065599613988
            -0.027527773292    0.067958790546    -0.000013856016    -0.000029450176    -0.028468821027    0.079307640720    -0.000014858090    -0.000032081870
            -0.000015626158    -0.000033055974    0.075764781332    0.065599613988    -0.000014858090    -0.000032081870    0.085541025926    0.080297532650
0.425     0.003907090218    0.091421820518    -0.000021989657    -0.000028106589    -0.003098862213    0.081121345797    -0.000023213182    -0.000029851114
            -0.000021989657    -0.000028106589    0.102158112607    0.074059858176    -0.000020578785    -0.000026570415    0.089608692647    0.062763710013
            -0.003098862213    0.081121345797    -0.000020578785    -0.000026570415    0.002829913228    0.090067073940    -0.000022206557    -0.000029054113
            -0.000023213182    -0.000029851114    0.089608692647    0.062763710013    -0.000022206557    -0.000029054113    0.101881918070    0.074278718342
0.450     0.037947760922    0.089641884128    -0.000028157371    -0.000023435253    0.025276511577    0.084637862416    -0.000029809169    -0.000024938056
            -0.000028157370    -0.000023435253    0.115492441815    0.063346667367    -0.000026396547    -0.000022197093    0.102242187171    0.055935814421
            0.025276511577    0.084637862416    -0.000026396547    -0.000022197093    0.036667517977    0.088654344380    -0.000028618544    -0.000024373150
            -0.000029809168    -0.000024938056    0.102242187171    0.055935814421    -0.000028618544    -0.000024373150    0.115157272826    0.063901096211
0.475     0.069686290019    0.075293817776    -0.000033098054    -0.000017600926    0.053784859177    0.077476367763    -0.000035114195    -0.000018751321
            -0.000033098054    -0.000017600926    0.124269272845    0.049784442609    -0.000031064185    -0.000016731656    0.112242585607    0.045831233310
            0.053784859177    0.077476367763    -0.000031064185    -0.000016731656    0.068370965794    0.074742806795    -0.000033802715    -0.000018451665
            -0.000035114195    -0.000018751321    0.112242585607    0.045831233310    -0.000033802715    -0.000018451665    0.124026764785    0.050704612586
0.500     0.094582874079    0.049868257356    -0.000036735201    -0.000011017224    0.078446163124    0.060074616135    -0.000039024180    -0.000011724670
            -0.000036735201    -0.000011017224    0.127862044789    0.035370977326    -0.000034512901    -0.000010564577    0.118574984026    0.033684786162
            0.078446163124    0.060074616135    -0.000034512901    -0.000010564577    0.093425232536    0.049754478130    -0.000037655811    -0.000011703221
            -0.000039024180    -0.000011724670    0.118574984026    0.033684786162    -0.000037655811    -0.000011703221    0.127868942907    0.036623762070
0.525     0.108893555573    0.016435225754    -0.000039130426    -0.000003958247    0.095635298798    0.034303143550    -0.000041581652    -0.000004163309
            -0.000039130426    -0.000003958247    0.126468393816    0.022191890186    -0.000036802770    -0.000003951371    0.120760495336    0.021070602291
            0.095635298798    0.034303143550    -0.000036802770    -0.000003951371    0.108084065283    0.016684347400    -0.000040212827    -0.000004419519
            -0.000041581652    -0.000004163309    0.120760495336    0.021070602291    -0.000040212827    -0.000004419519    0.126869816137    0.023686322080
0.550     0.110190665641    -0.020728147372    -0.000040389854    0.000003454984    0.102579964381    0.003274987396    -0.000042881527    0.000003779326
            -0.000040389854    0.000003454984    0.121103109982    0.012111122350    -0.000038038087    0.000002999715    0.119006142412    0.009664067712
            0.102579964381    0.003274987396    -0.000038038087    0.000002999715    0.109888306730    -0.020262494011    -0.000041560566    0.000003252474
            -0.000042881527    0.000003779326    0.119006142412    0.009664067712    -0.000041560566    0.000003252474    0.122022077777    0.013684563247
0.575     0.097726874039    -0.056661948671    -0.000040534179    0.000011231387    0.097762730558    -0.029004401771    -0.000042944821    0.000012077569
            -0.000040534179    0.000011231387    0.113471753104    0.006464225342    -0.000038239004    0.000010302269    0.114187870119    0.000952176552
            0.097762730558    -0.029004401771    -0.000038239004    0.000010302269    0.098030187595    -0.056183575726    -0.000041714486    0.000011285946
            -0.000042944821    0.000012077569    0.114187870119    0.000952176552    -0.000041714486    0.000011285946    0.114941192875    0.007872978781
0.600     0.072619581456    -0.086360172843    -0.000039418135    0.000019419932    0.081220811714    -0.058125030468    -0.000041640752    0.000020750770
            -0.000039418135    0.000019419932    0.105749018746    0.005790585600    -0.000037264706    0.000018009320    0.107790933871    -0.004008456266
            0.081220811714    -0.058125030468    -0.000037264706    0.000018009320    0.073542763964    -0.086105775640    -0.000040543722    0.000019697390
            -0.000041640752    0.000020750770    0.107790933871    -0.004008456266    -0.000040543722    0.000019697390    0.107665057353    0.006806601585
0.625     0.037799246778    -0.105455988173    -0.000036709922    0.000027967552    0.054647444946    -0.079861571327    -0.000038658455    0.000029729131
            -0.000036709922    0.000027967552    0.100216389840    0.009651304340    -0.000034795616    0.000026077523    0.101713176454    -0.004904860003
            0.054647444946    -0.079861571327    -0.000034795616    0.000026077523    0.039259428105    -0.105664214846    -0.000037745954    0.000028418371
            -0.000038658456    0.000029729132    0.101713176454    -0.004904860003    -0.000037745954    0.000028418371    0.102392024119    0.010122968540
0.650     -0.002299939008    -0.110893982219    -0.000031977322    0.000036574735    0.021273955691    -0.090820286403    -0.000033583982    0.000038706206
            -0.000031977322    0.000036574735    0.098824128466    0.016612888149    -0.000030414432    0.000034227928    0.097874466228    -0.002343562009
            0.021273955691    -0.090820286403    -0.000030414432    0.000034227928    -0.000478754968    -0.111766314623    -0.000032920953    0.000037153569
            -0.000033583982    0.000038706206    0.097874466228    -0.002343562009    -0.000032920953    0.000037153569    0.101026703488    0.016476893104
0.675     -0.042309496964    -0.101459661227    -0.000024866838    0.000044622333    -0.014521503617    -0.089008993068    -0.000026077056    0.000047062790
            -0.000024866838    0.000044622333    0.102730616051    0.024450889510    -0.000023778706    0.000041875193    0.097740128512    0.002209449128
            -0.014521503617    -0.089008993068    -0.000023778706    0.000041875193    -0.040377426884    -0.103123913196    -0.000025739189    0.000045307031
            -0.000026077056    0.000047062790    0.097740128512    0.002209449128    -0.000025739189    0.000045307031    0.104715327536    0.023745305807
0.700     -0.076705970577    -0.078063539325    -0.000015316781    0.000051231203    -0.047840412259    -0.074240760406    -0.000016080720    0.000053920391
            -0.000015316781    0.000051231203    0.111986504793    0.030583209810    -0.000014822513    0.000048183906    0.101955675037    0.006733428065
            -0.047840412259    -0.074240760406    -0.000014822513    0.000048183906    -0.074953416472    -0.080545655444    -0.000016142387    0.000052033219
            -0.000016080720    0.000053920391    0.101955675037    0.006733428065    -0.000016142387    0.000052033219    0.113541454641    0.029448119218
0.725     -0.100667907729    -0.043673642391    -0.000003705479    0.000055454359    -0.074020934155    -0.048221154152    -0.000003971760    0.000058327550
            -0.000003705479    0.000055454359    0.125459389187    0.032634594154    -0.000003899299    0.000052251950    0.110155661036    0.009116151079
            -0.074020934155    -0.048221154152    -0.000003899299    0.000052251950    -0.099381659598    -0.046885704422    -0.000004487963    0.000056414464
            -0.000003971760    0.000058327550    0.110155661036    0.009116151079    -0.000004487963    0.000056414464    0.126448681385    0.031289439758
0.750     -0.110852373164    -0.002883894994    0.000009145800    0.000056536279    -0.089391799652    -0.014313045847    0.000009429619    0.000059515085
            0.000009145800    0.000056536279    0.141073556735    0.028963176736    0.000008215526    0.000053357551    0.121072243675    0.007639413126
            -0.089391799652    -0.014313045847    0.000008215526    0.000053357551    -0.110270029664    -0.006632754214    0.000008441055    0.000057705934
            0.000009429619    0.000059515085    0.121072243675    0.007639413126    0.000008441055    0.000057705934    0.141465519395    0.027667796229
0.775     -0.105910542551    0.038807165694    0.000022123451    0.000054130530    -0.091826723773    0.023005382517    0.000023004498    0.000057115397
            0.000022123451    0.000054130530    0.156256904302    0.018992751726    0.000020466726    0.000051167599    0.132829318368    0.001325322953
            -0.091826723773    0.023005382517    0.000020466726    0.000051167599    -0.106183114999    0.034794134089    0.000021573035    0.000055545653
            0.000023004498    0.000057115397    0.132829318368    0.001325322953    0.000021573035    0.000055545653    0.156131225998    0.017997993952
