# GHz S RI R 45
0.000     0.023297606807    0.001550377050    0.000000199987    0.000000403408    0.000835083620    0.001477523721    0.000000214391    0.000000421543
            0.000000199987    0.000000403408    0.022251066279    0.001692863753    0.000000208637    0.000000417736    0.000782597386    0.001647796440
            0.000835083772    0.001477523749    0.000000208637    0.000000417736    0.023244131822    0.001539425250    0.000000223787    0.000000437211
            0.000000214391    0.000000421543    0.000782597559    0.001647796358    0.000000223787    0.000000437211    0.022180474359    0.001704856308
0.025     0.029017747161    0.009761745803    0.000000368126    0.000000887125    0.003153002433    0.011810007126    0.000000390207    0.000000926877
            0.000000368126    0.000000887124    0.027080620012    0.009216677612    0.000000382320    0.000000919640    0.002617283191    0.011119703372
            0.003151625445    0.011810014487    0.000000382321    0.000000919639    0.028932722880    0.009709068581    0.000000405628    0.000000962501
            0.000000390208    0.000000926877    0.002617537943    0.011119129741    0.000000405628    0.000000962503    0.026995086488    0.009179483562
0.050     0.035438798029    0.013134801312    0.000000673130    0.000001580195    0.009486880408    0.021280621899    0.000000708774    0.000001651756
            0.000000673130    0.000001580195    0.032297800473    0.013020218039    0.000000697887    0.000001639247    0.007730367187    0.020567898861
            0.009486887469    0.021280527877    0.000000697887    0.000001639247    0.035280899204    0.013066962012    0.000000735605    0.000001716585
            0.000000708774    0.000001651756    0.007730463904    0.020567893491    0.000000735605    0.000001716585    0.032125233861    0.012981842429
0.075     0.041218944923    0.012894166769    0.000001025577    0.000002176036    0.018010473854    0.026968084756    0.000001077891    0.000002275545
            0.000001025577    0.000002176036    0.036969188348    0.014232087268    0.000001063091    0.000002258640    0.014869084963    0.027282317947
            0.018010478391    0.026968079320    0.000001063091    0.000002258640    0.040987330015    0.012870690739    0.000001118551    0.000002366442
            0.000001077891    0.000002275546    0.014869080677    0.027282320283    0.000001118551    0.000002366442    0.036702542966    0.014258942101
0.100     0.044784433266    0.009683847473    0.000001409821    0.000002709287    0.026614222801    0.028518722041    0.000001481580    0.000002834112
            0.000001409821    0.000002709287    0.040161183001    0.013406847064    0.000001462341    0.000002813509    0.022613080802    0.030918533168
            0.026614245054    0.028518714952    0.000001462341    0.000002813509    0.044510136187    0.009759845508    0.000001538610    0.000002949039
            0.000001481580    0.000002834112    0.022613055573    0.030918541709    0.000001538610    0.000002949039    0.039822901460    0.013562744929
0.125     0.044608016735    0.004988659778    0.000001821754    0.000003208081    0.033353824928    0.026595022820    0.000001915869    0.000003356072
            0.000001821754    0.000003208081    0.040908959835    0.011549861972    0.000001891623    0.000003332140    0.029641537079    0.031768604612
            0.033353824464    0.026595023402    0.000001891623    0.000003332140    0.044358905838    0.005195854304    0.000001991949    0.000003493091
            0.000001915869    0.000003356072    0.029641537079    0.031768604612    0.000001991949    0.000003493091    0.040563249554    0.011886755268
0.150     0.040449972173    0.000945885765    0.000002273019    0.000003700604    0.036768175957    0.022680448719    0.000002392654    0.000003869868
            0.000002273019    0.000003700604    0.039229111935    0.010049111933    0.000002362614    0.000003842806    0.034835512178    0.030629106253
            0.036768175957    0.022680448719    0.000002362614    0.000003842806    0.040300285215    0.001267067073    0.000002490514    0.000004027088
            0.000002392654    0.000003869868    0.034835512178    0.030629106253    0.000002490514    0.000004027088    0.038948772417    0.010579250812
0.175     0.032701792361    -0.000321327114    0.000002795600    0.000004202464    0.036314458529    0.018835368841    0.000002944629    0.000004391087
            0.000002795600    0.000004202464    0.035330705642    0.010183381643    0.000002907572    0.000004361068    0.037620187044    0.028746358417
            0.036314458529    0.018835368841    0.000002907572    0.000004361068    0.032721854982    0.000064219312    0.000003067200    0.000004566479
            0.000002944629    0.000004391087    0.037620187044    0.028746358417    0.000003067200    0.000004566479    0.035201899918    0.010878163097
0.200     0.022890232382    0.003075881260    0.000003433849    0.000004708565    0.032537724178    0.017187302470    0.000003616975    0.000004914006
            0.000003433849    0.000004708565    0.030109580975    0.013127692445    0.000003571136    0.000004881579    0.038071678715    0.027492755752
            0.032537724178    0.017187302470    0.000003571136    0.000004881579    0.023121730992    0.003437490353    0.000003767495    0.000005105233
            0.000003616975    0.000004914006    0.038071678715    0.027492755752    0.000003767495    0.000005105233    0.030199895390    0.013914579985
0.225     0.013462969646    0.012158315199    0.000004232398    0.000005181524    0.027012992703    0.019381134807    0.000004454922    0.000005399712
            0.000004232398    0.000005181524    0.025027973315    0.019557810952    0.000004398179    0.000005366247    0.036912924386    0.028047759356
            0.027012992703    0.019381134807    0.000004398179    0.000005366247    0.013898829784    0.012386017617    0.000004636728    0.000005603717
            0.000004454922    0.000005399712    0.036912924386    0.028047759356    0.000004636728    0.000005603717    0.025363349363    0.020334631293
0.250     0.007272840748    0.026672455379    0.000005217314    0.000005553943    0.022018882478    0.026107386094    0.000005484282    0.000005778896
            0.000005217314    0.000005553943    0.021817995526    0.029419775464    0.000005414719    0.000005746855    0.035369634837    0.031121181981
            0.022018882478    0.026107386094    0.000005414719    0.000005746855    0.007848066884    0.026662052284    0.000005700594    0.000005991772
            0.000005484282    0.000005778896    0.035369634837    0.031121181981    0.000005700594    0.000005991772    0.022370394686    0.030079243913
0.275     0.006890330425    0.044942518816    0.000006376170    0.000005736531    0.019977244156    0.036819600607    0.000006691350    0.000005960259
            0.000006376170    0.000005736531    0.022101639657    0.041822735338    0.000006607832    0.000005933092    0.034892377759    0.036745438777
            0.019977244156    0.036819600607    0.000006607832    0.000005933092    0.007488835401    0.044626476217    0.000006944828    0.000006177173
            0.000006691350    0.000005960259    0.034892377759    0.036745438777    0.000006944828    0.000006177173    0.022791612781    0.042280114829
0.300     0.013895535729    0.064147635682    0.000007645703    0.000005645206    0.022803287388    0.049799908887    0.000008010654    0.000005858355
            0.000007645703    0.000005645206    0.026993041830    0.055170394583    0.000007913342    0.000005840087    0.036810910402    0.044244527140
            0.022803287388    0.049799908887    0.000007913342    0.000005840087    0.014373529406    0.063519155913    0.000008303023    0.000006073693
            0.000008010654    0.000005858355    0.036810910402    0.044244527140    0.000008303023    0.000006073693    0.027705990392    0.055387927585
0.325     0.028391139618    0.080916291816    0.000008915789    0.000005230440    0.031366244661    0.062553297378    0.000009329336    0.000005423284
            0.000008915789    0.000005230440    0.036797603936    0.067446652443    0.000009219898    0.000005417842    0.041998905316    0.052362830662
            0.031366244661    0.062553297378    0.000009219898    0.000005417842    0.028609494798    0.080038214888    0.000009661092    0.000005631034
            0.000009329336    0.000005423284    0.041998905316    0.052362830662    0.000009661092    0.000005631034    0.037410472050    0.067446607783
0.350     0.048901768440    0.092133273971    0.000010056260    0.000004504945    0.045256099202    0.072439017503    0.000010514508    0.000004668579
            0.000010056260    0.000004504945    0.050894357596    0.076652911699    0.000010395974    0.000004679095    0.050662982014    0.059560229614
            0.045256099202    0.072439017503    0.000010395974    0.000004679095    0.048760141160    0.091129698646    0.000010884829    0.000004862739
            0.000010514508    0.000004668579    0.050662982014    0.059560229614    0.000010884829    0.000004862739    0.051305374447    0.076515091057
0.375     0.072691221958    0.095640107505    0.000010953449    0.000003546691    0.062896667353    0.077284289725    0.000011450458    0.000003673905
            0.000010953449    0.000003546691    0.067835914763    0.081217418113    0.000011326610    0.000003702180    0.062288277133    0.064346111420
            0.062896667353    0.077284289725    0.000011326610    0.000003702180    0.072152282682    0.094671868758    0.000011857305    0.000003848973
            0.000011450458    0.000003673905    0.062288277133    0.064346111420    0.000011857305    0.000003848973    0.067989833262    0.081064115119
0.400     0.096367713863    0.090683501903    0.000011546154    0.000002481671    0.081936293577    0.075836927793    0.000012074500    0.000002567682
            0.000011546154    0.000002481671    0.085637305554    0.080327564910    0.000011949599    0.000002614069    0.075764781332    0.065599613988
            0.081936293577    0.075836927793    0.000011949599    0.000002614069    0.095468907919    0.089916425417    0.000012514798    0.000002718921
            0.000012074500    0.000002567682    0.075764781332    0.065599613988    0.000012514798    0.000002718921    0.085541025926    0.080297532650
0.425     0.116561185621    0.077991503072    0.000011839924    0.000001448160    0.099727140111    0.067942623941    0.000012392066    0.000001490905
            0.000011839924    0.000001448160    0.102158112607    0.074059858176    0.000012269810    0.000001554108    0.089608692647    0.062763710013
            0.099727140111    0.067942623941    0.000012269810    0.000001554108    0.115408829075    0.077563967803    0.000012862073    0.000001614642
            0.000012392066    0.000001490905    0.089608692647    0.062763710013    0.000012862073    0.000001614642    0.101881918070    0.074278718342
0.450     0.130513695454    0.059583103151    0.000011903861    0.000000562981    0.113788148159    0.054527964936    0.000012472888    0.000000562962
            0.000011903861    0.000000562981    0.115492441815    0.063346667367    0.000012356131    0.000000640421    0.102242187171    0.055935814421
            0.113788148159    0.054527964936    0.000012356131    0.000000640421    0.129265940214    0.059579525014    0.000012968779    0.000000656771
            0.000012472888    0.000000562962    0.102242187171    0.055935814421    0.000012968779    0.000000656771    0.115157272826    0.063901096211
0.475     0.136485207167    0.038390385066    0.000011848020    -0.000000103560    0.122166331911    0.037433276810    0.000012429183    -0.000000143726
            0.000011848020    -0.000000103560    0.124269272845    0.049784442609    0.000012318943    -0.000000055485    0.112242585607    0.045831233310
            0.122166331911    0.037433276810    0.000012318943    -0.000000055485    0.135326794796    0.038828096591    0.000012947293    -0.000000081206
            0.000012429183    -0.000000143726    0.112242585607    0.045831233310    0.000012947293    -0.000000081206    0.124026764785    0.050704612586
0.500     0.134002104738    0.017818175722    0.000011799767    -0.000000536504    0.123739350763    0.019183923656    0.000012391007    -0.000000613270
            0.000011799767    -0.000000536504    0.127862044789    0.035370977326    0.000012286681    -0.000000517876    0.118574984026    0.033684786162
            0.123739350763    0.019183923656    0.000012286681    -0.000000517876    0.133118288888    0.018651789581    0.000012928578    -0.000000582665
            0.000012391007    -0.000000613270    0.118574984026    0.033684786162    0.000012928578    -0.000000582665    0.127868942907    0.036623762070
0.525     0.123948328761    0.001177319316    0.000011877009    -0.000000773646    0.118442334979    0.002623648850    0.000012479417    -0.000000884056
            0.000011877009    -0.000000773646    0.126468393816    0.022191890186    0.000012379651    -0.000000785059    0.120760495336    0.021070602291
            0.118442334979    0.002623648850    0.000012379651    -0.000000785059    0.123513311594    0.002406850730    0.000013036114    -0.000000886632
            0.000012479417    -0.000000884056    0.120760495336    0.021070602291    0.000013036114    -0.000000886632    0.126869816137    0.023686322080
0.550     0.109494143247    -0.007991935880    0.000012181524    -0.000000923354    0.108002661806    -0.009059606172    0.000012798836    -0.000001068210
            0.000012181524    -0.000000923354    0.121103109982    0.012111122350    0.000012697393    -0.000000950753    0.119006142412    0.009664067712
            0.108002661806    -0.009059606172    0.000012697393    -0.000000950753    0.108731824286    -0.007060501581    0.000013371748    -0.000001089857
            0.000012798836    -0.000001068210    0.119006142412    0.009664067712    0.000013371748    -0.000001089857    0.122022077777    0.013684563247
0.575     0.092122632559    -0.008628750729    0.000012775249    -0.000001062291    0.093760352028    -0.013988890011    0.000013412035    -0.000001243761
            0.000012775249    -0.000001062291    0.113471753104    0.006464225342    0.000013302923    -0.000001122629    0.114187870119    0.000952176552
            0.093760352028    -0.013988890011    0.000013302923    -0.000001122629    0.092176101280    -0.007869780091    0.000013999124    -0.000001302732
            0.000013412035    -0.000001243761    0.114187870119    0.000952176552    0.000013999124    -0.000001302732    0.114941192875    0.007872978781
0.600     0.077554264224    -0.000344868109    0.000013658805    -0.000001373862    0.080130564357    -0.011100743719    0.000014318294    -0.000001599612
            0.000013658805    -0.000001373862    0.105749018746    0.005790585600    0.000014202956    -0.000001466396    0.107790933871    -0.004008456266
            0.080130564357    -0.011100743719    0.000014202956    -0.000001466396    0.078050176608    0.000212174810    0.000014923674    -0.000001695301
            0.000014318294    -0.000001599612    0.107790933871    -0.004008456266    0.000014923674    -0.000001695301    0.107665057353    0.006806601585
0.625     0.069558009887    0.015132548846    0.000014774543    -0.000002012670    0.070672179794    -0.001381689959    0.000015456566    -0.000002293755
            0.000014774543    -0.000002012670    0.100216389840    0.009651304340    0.000015330894    -0.000002139431    0.101713176454    -0.004904860003
            0.070672179794    -0.001381689959    0.000015330894    -0.000002139431    0.070328424454    0.015019286622    0.000016075186    -0.000002428138
            0.000015456566    -0.000002293755    0.101713176454    -0.004904860003    0.000016075186    -0.000002428138    0.102392024119    0.010122968540
0.650     0.071073756853    0.034109941181    0.000015987144    -0.000003118647    0.068283208830    0.012799950561    0.000016686353    -0.000003467099
            0.000015987144    -0.000003118647    0.098824128466    0.016612888149    0.000016558969    -0.000003280249    0.097874466228    -0.002343562009
            0.068283208830    0.012799950561    0.000016558969    -0.000003280249    0.071561623805    0.033430216699    0.000017320921    -0.000003640500
            0.000016686353    -0.000003467099    0.097874466228    -0.002343562009    0.000017320921    -0.000003640500    0.101026703488    0.016476893104
0.675     0.082987417576    0.051745214796    0.000017076463    -0.000004766021    0.074623193472    0.027472251964    0.000017781797    -0.000005192089
            0.000017076463    -0.000004766021    0.102730616051    0.024450889510    0.000017663408    -0.000004969133    0.097740128512    0.002209449128
            0.074623193472    0.027472251964    0.000017663408    -0.000004969133    0.083005936738    0.050721374134    0.000018431930    -0.000005410923
            0.000017781797    -0.000005192089    0.097740128512    0.002209449128    0.000018431930    -0.000005410923    0.104715327536    0.023745305807
0.700     0.103764818016    0.063287926418    0.000017787625    -0.000006909960    0.089047346675    0.038394962719    0.000018484661    -0.000007419354
            0.000017787625    -0.000006909960    0.111986504793    0.030583209810    0.000018386493    -0.000007161198    0.101955675037    0.006733428065
            0.089047346675    0.038394962719    0.000018386493    -0.000007161198    0.103200244148    0.062160056192    0.000019146910    -0.000007690047
            0.000018484661    -0.000007419354    0.101955675037    0.006733428065    0.000019146910    -0.000007690047    0.113541454641    0.029448119218
0.725     0.129844337259    0.065292618013    0.000017901094    -0.000009372851    0.109027139978    0.042234136063    0.000018574170    -0.000009966358
            0.000017901094    -0.000009372851    0.125459389187    0.032634594154    0.000018506036    -0.000009678324    0.110155661036    0.009116151079
            0.109027139978    0.042234136063    0.000018506036    -0.000009678324    0.128691843759    0.064329629586    0.000019242744    -0.000010294793
            0.000018574170    -0.000009966358    0.110155661036    0.009116151079    0.000019242744    -0.000010294793    0.126448681385    0.031289439758
0.750     0.156623270082    0.056359279248    0.000017306627    -0.000011880624    0.130946029357    0.037261673663    0.000017941392    -0.000012554514
            0.000017306627    -0.000011880624    0.141073556735    0.028963176736    0.000017909625    -0.000012244916    0.121072243675    0.007639413126
            0.130946029357    0.037261673663    0.000017909625    -0.000012244916    0.154994281666    0.055806273488    0.000018608357    -0.000012945360
            0.000017941392    -0.000012554514    0.121072243675    0.007639413126    0.000018608357    -0.000012945360    0.141465519395    0.027667796229
0.775     0.179550914305    0.037207545387    0.000016039375    -0.000014133904    0.151003509601    0.023489074310    0.000016623267    -0.000014881343
            0.000016039375    -0.000014133904    0.156256904302    0.018992751726    0.000016630527    -0.000014559225    0.132829318368    0.001325322953
            0.151003509601    0.023489074310    0.000016630527    -0.000014559225    0.177650172601    0.037237874479    0.000017278907    -0.000015336902
            0.000016623267    -0.000014881343    0.132829318368    0.001325322953    0.000017278907    -0.000015336902    0.156131225998    0.017997993952
0.800     0.194974905121    0.010239996284    0.000014268980    -0.000015888296    0.165935575432    0.002372833437    0.000014792001    -0.000016700127
            0.000014268980    -0.000015888296    0.168473079071    0.003270472659    0.000014837792    -0.000016373853    0.143362355887    -0.009926593578
