# GHz S RI R 45
0.000     0.022046290449    0.001888362919    0.977609789400    -0.008219197199    0.000784285636    0.001618413190    -0.000772457249    -0.000573632827
            0.977609789400    -0.008219197199    0.022251066279    0.001692863753    -0.000772239148    -0.000573537990    0.000782597386    0.001647796440
            0.000784285820    0.001618413212    -0.000772239172    -0.000573538008    0.022020818122    0.001899010678    0.977659424931    -0.008221126770
            -0.000772457390    -0.000573632722    0.000782597559    0.001647796358    0.977659424931    -0.008221126770    0.022180474359    0.001704856308
0.025     0.028819461814    0.008718631137    0.950067347279    -0.214681134559    0.003926769788    0.010610946660    -0.001364241145    -0.001910421015
            0.950067339785    -0.214681167722    0.027080620012    0.009216677612    -0.001361628073    -0.001909933230    0.002617283191    0.011119703372
            0.003925989979    0.010611072073    -0.001361773007    -0.001910350250    0.028755625442    0.008666304007    0.950220189641    -0.214392920173
            -0.001364059084    -0.001910019446    0.002617537943    0.011119129741    0.950220167190    -0.214393019680    0.026995086488    0.009179483562
0.050     0.038199596589    0.009747288759    0.878176748676    -0.413950116850    0.012392274928    0.017838071243    -0.002951500303    -0.003154400627
            0.878176748676    -0.413950116850    0.032297800473    0.013020218039    -0.002951025777    -0.003152072408    0.007730367187    0.020567898861
            0.012392262321    0.017838069042    -0.002950990427    -0.003152084270    0.038139719970    0.009641608647    0.878527452230    -0.413359309733
            -0.002951415660    -0.003154402860    0.007730463904    0.020567893491    0.878527459444    -0.413359294400    0.032125233861    0.012981842429
0.075     0.047889002362    0.004776576096    0.765971509235    -0.591991330567    0.023650579822    0.019449987739    -0.004943268630    -0.003485474976
            0.765971509235    -0.591991330567    0.036969188348    0.014232087268    -0.004939973092    -0.003480828324    0.014869084963    0.027282317947
            0.023650573524    0.019449992247    -0.004939966528    -0.003480827569    0.047841027631    0.004620860630    0.766647570172    -0.591229100097
            -0.004943261983    -0.003485474164    0.014869080677    0.027282320283    0.766647570172    -0.591229100097    0.036702542966    0.014258942101
0.100     0.055010577795    -0.006127701016    0.618897476702    -0.740977466373    0.034584868836    0.014687163236    -0.006936783956    -0.003013923782
            0.618897476702    -0.740977466373    0.040161183001    0.013406847064    -0.006926868614    -0.003008990564    0.022613080802    0.030918533168
            0.034584868580    0.014687163840    -0.006926866305    -0.003008993872    0.054984487412    -0.006343611991    0.619975109847    -0.740167426392
            -0.006936783478    -0.003013927892    0.022613055573    0.030918541709    0.619975109847    -0.740167426392    0.039822901460    0.013562744929
0.125     0.056579758382    -0.021545850887    0.443912937680    -0.854410276230    0.042047691487    0.004280839282    -0.008749933731    -0.001961117955
            0.443912937680    -0.854410276230    0.040908959835    0.011549861972    -0.008724324065    -0.001970980768    0.029641537079    0.031768604612
            0.042047691479    0.004280839356    -0.008724324794    -0.001970982534    0.056574095420    -0.021840618392    0.445429356681    -0.853697076245
            -0.008749933536    -0.001961117911    0.029641537079    0.031768604612    0.445429356681    -0.853697076245    0.040563249554    0.011886755268
0.150     0.050660453031    -0.038467997823    0.249444635039    -0.927387614284    0.043516509327    -0.009708021339    -0.010372915575    -0.000431990085
            0.249444635039    -0.927387614284    0.039229111935    0.010049111933    -0.010336519764    -0.000468463881    0.034835512178    0.030629106253
            0.043516509327    -0.009708021339    -0.010336519764    -0.000468463881    0.050679606595    -0.038860343270    0.251393601763    -0.926926188758
            -0.010372915575    -0.000431990085    0.034835512178    0.030629106253    0.251393601763    -0.926926188758    0.038948772417    0.010579250812
0.175     0.036608458648    -0.053348396550    0.044501037414    -0.956890969393    0.037590961186    -0.024187199783    -0.011842430638    0.001581569178
            0.044501037414    -0.956890969393    0.035330705642    0.010183381643    -0.011807236245    0.001508045023    0.037620187044    0.028746358417
            0.037590961186    -0.024187199783    -0.011807236245    0.001508045023    0.036635593853    -0.053869018843    0.046831596796    -0.956836167628
            -0.011842430914    0.001581567111    0.037620187044    0.028746358417    0.046831596796    -0.956836167628    0.035201899918    0.010878163097
0.200     0.015473668336    -0.062450770688    -0.161473096626    -0.941740899730    0.024383557215    -0.035627893362    -0.013115336495    0.004235650393
            -0.161473096626    -0.941740899730    0.030109580975    0.013127692445    -0.013099656513    0.004120600324    0.038071678715    0.027492755752
            0.024383557215    -0.035627893362    -0.013099656513    0.004120600324    0.015471588014    -0.063126245920    -0.158856579929    -0.942236458974
            -0.013115336495    0.004235650393    0.038071678715    0.027492755752    -0.158856579929    -0.942236458974    0.030199895390    0.013914579985
0.225     -0.010013408979    -0.062650179293    -0.358873901688    -0.882721685214    0.005615456550    -0.040756988705    -0.013934793248    0.007730735990
            -0.358873901688    -0.882721685214    0.025027973315    0.019557810952    -0.013958959419    0.007579254304    0.036912924386    0.028047759356
            0.005615456550    -0.040756988705    -0.013958959419    0.007579254304    -0.010100417236    -0.063491784971    -0.356114232326    -0.883886616696
            -0.013934793248    0.007730735990    0.036912924386    0.028047759356    -0.356114232326    -0.883886616696    0.025363349363    0.020334631293
0.250     -0.035792870828    -0.052205553834    -0.538347836324    -0.782707900060    -0.015590877814    -0.037281336402    -0.013807823428    0.012119397574
            -0.538347836324    -0.782707900060    0.021817995526    0.029419775464    -0.013888410175    0.011945786595    0.035369634837    0.031121181981
            -0.015590877814    -0.037281336402    -0.013888410175    0.011945786595    -0.036031673240    -0.053198536532    -0.535628616936    -0.784625486498
            -0.013807823428    0.012119397574    0.035369634837    0.031121181981    -0.535628616936    -0.784625486498    0.022370394686    0.030079243913
0.275     -0.057198504392    -0.031286272793    -0.691309238780    -0.646686752248    -0.035248594469    -0.024464869032    -0.012126711595    0.017121288298
            -0.691309238780    -0.646686752248    0.022101639657    0.041822735338    -0.012271588646    0.016945267411    0.034892377759    0.036745438777
            -0.035248594469    -0.024464869032    -0.012271588646    0.016945267411    -0.057654127447    -0.032382030548    -0.688841900833    -0.649388996125
            -0.012126711595    0.017121288298    0.034892377759    0.036745438777    -0.688841900833    -0.649388996125    0.022791612781    0.042280114829
0.300     -0.069883080782    -0.002153604717    -0.810532345889    -0.481581923169    -0.049297372303    -0.003425731854    -0.008415555451    0.022054248780
            -0.810532345889    -0.481581923169    0.026993041830    0.055170394583    -0.008623614093    0.021893922202    0.036810910402    0.044244527140
            -0.049297372303    -0.003425731854    -0.008623614093    0.021893922202    -0.070602553329    -0.003269723821    -0.808546294576    -0.485033231416
            -0.008415555451    0.022054248780    0.036810910402    0.044244527140    -0.808546294576    -0.485033231416    0.027705990392    0.055387927585
0.325     -0.070751917136    0.031150265170    -0.890690720406    -0.295834168773    -0.054457866809    0.022990004823    -0.002591352829    0.025942920371
            -0.890690720406    -0.295834168773    0.036797603936    0.067446652443    -0.002856727804    0.025809010670    0.041998905316    0.052362830662
            -0.054457866809    0.022990004823    -0.002856727804    0.025809010670    -0.071746598030    0.030122294111    -0.889406216542    -0.299929623180
            -0.002591352829    0.025942920371    0.041998905316    0.052362830662    -0.889406216542    -0.299929623180    0.037410472050    0.067446607783
0.350     -0.058674503866    0.063515941133    -0.928720865563    -0.098767529659    -0.048946571715    0.050730539783    0.004881785214    0.027793611109
            -0.928720865563    -0.098767529659    0.050894357596    0.076652911699    0.004562507438    0.027687998246    0.050662982014    0.059560229614
            -0.048946571715    0.050730539783    0.004562507438    0.027687998246    -0.059907003768    0.062693392088    -0.928323892044    -0.103341442640
            0.004881785214    0.027793611109    0.050662982014    0.059560229614    -0.928323892044    -0.103341442640    0.051305374447    0.076515091057
0.375     -0.034750885972    0.089734692040    -0.923877367149    0.100110693630    -0.032831342312    0.075319728606    0.013039708147    0.026921447753
            -0.923877367149    0.100110693630    0.067835914763    0.081217418113    0.012658246624    0.026840333439    0.062288277133    0.064346111420
            -0.032831342312    0.075319728606    0.012658246624    0.026840333439    -0.036132186761    0.089222022771    -0.924506333293    0.095273438687
            0.013039708147    0.026921447753    0.062288277133    0.064346111420    -0.924506333293    0.095273438687    0.067989833262    0.081064115119
0.400     -0.002128623279    0.105456089137    -0.877551257179    0.291740782419    -0.008000897300    0.092686316939    0.020659714829    0.023200756164
            -0.877551257179    0.291740782419    0.085637305554    0.080327564910    0.020190522456    0.023144188682    0.075764781332    0.065599613988
            -0.008000897300    0.092686316939    0.020190522456    0.023144188682    -0.003524006594    0.105323051579    -0.879284392114    0.286886478008
            0.020659714829    0.023200756164    0.075764781332    0.065599613988    -0.879284392114    0.286886478008    0.085541025926    0.080297532650
0.425     0.034571957497    0.107913402364    -0.792887737696    0.467955544751    0.022211450306    0.099824050279    0.026606440294    0.017125004623
            -0.792887737696    0.467955544751    0.102158112607    0.074059858176    0.026004170968    0.017109556047    0.089608692647    0.062763710013
            0.022211450306    0.099824050279    0.026004170968    0.017109556047    0.033328698944    0.108177458138    -0.795739687791    0.463344469941
            0.026606440294    0.017125004623    0.089608692647    0.062763710013    -0.795739687791    0.463344469941    0.101881918070    0.074278718342
0.450     0.070017643850    0.096324068454    -0.674359387706    0.621706959784    0.053578968413    0.095219202290    0.030155280453    0.009660028468
            -0.674359387706    0.621706959784    0.115492441815    0.063346667367    0.029359547270    0.009735025275    0.102242187171    0.055935814421
            0.053578968413    0.095219202290    0.029359547270    0.009735025275    0.069104399310    0.096939260396    -0.678288815253    0.617591464837
            0.030155280453    0.009660028468    0.102242187171    0.055935814421    -0.678288815253    0.617591464837    0.115157272826    0.063901096211
0.475     0.098943809116    0.071950029549    -0.527423443487    0.747091958022    0.081578992084    0.079012710419    0.031170992481    0.001934851880
            -0.527423443487    0.747091958022    0.124269272845    0.049784442609    0.030120817543    0.002204487439    0.112242585607    0.045831233310
            0.081578992084    0.079012710419    0.030120817543    0.002204487439    0.098531189467    0.072802603287    -0.532339965807    0.743715690246
            0.031170992481    0.001934851880    0.112242585607    0.045831233310    -0.532339965807    0.743715690246    0.124026764785    0.050704612586
0.500     0.116859091753    0.037924813380    -0.358291443710    0.839328208756    0.101971199168    0.052998594181    0.030069686241    -0.005123984210
            -0.358291443710    0.839328208756    0.127862044789    0.035370977326    0.028755773718    -0.004470442230    0.118574984026    0.033684786162
            0.101971199168    0.052998594181    0.028755773718    -0.004470442230    0.117091898679    0.038824631814    -0.364053837143    0.836914965631
            0.030069686241    -0.005123984210    0.118574984026    0.033684786162    -0.364053837143    0.836914965631    0.127868942907    0.036623762070
0.525     0.120646208625    -0.001095253281    -0.173831852909    0.894704201474    0.111334753157    0.020473542092    0.027510185882    -0.011030208819
            -0.173831852909    0.894704201474    0.126468393816    0.022191890186    0.026140986698    -0.009750924099    0.120760495336    0.021070602291
            0.111334753157    0.020473542092    0.026140986698    -0.009750924099    0.121601698109    -0.000438852038    -0.180260470188    0.893454690260
            0.027510185882    -0.011030208819    0.120760495336    0.021070602291    -0.180260470188    0.893454690260    0.126869816137    0.023686322080
0.550     0.109122241788    -0.039487451205    0.018454824310    0.910635597645    0.107631110929    -0.014088576142    0.024117733961    -0.015523615073
            0.018454824310    0.910635597645    0.121103109982    0.012111122350    0.023237880775    -0.013712784022    0.119006142412    0.009664067712
            0.107631110929    -0.014088576142    0.023237880775    -0.013712784022    0.110680494378    -0.039437176947    0.011577252911    0.910723827117
            0.024117733961    -0.015523615073    0.119006142412    0.009664067712    0.011577252911    0.910723827117    0.122022077777    0.013684563247
0.575     0.083249468696    -0.071521476516    0.210426234345    0.885834402083    0.090560369559    -0.045619785061    0.020901648113    -0.018646424886
            0.210426234345    0.885834402083    0.113471753104    0.006464225342    0.020724057152    -0.016954191340    0.114187870119    0.000952176552
            0.090560369559    -0.045619785061    0.020724057152    -0.016954191340    0.085083824844    -0.072276071069    0.203365674176    0.887420300866
            0.020901648113    -0.018646424886    0.114187870119    0.000952176552    0.203365674176    0.887420300866    0.114941192875    0.007872978781
0.600     0.046009561668    -0.091948662225    0.393441170025    0.820639571492    0.061751595293    -0.068994419113    0.018478854572    -0.021546130294
            0.393441170025    0.820639571492    0.105749018746    0.005790585600    0.018693086035    -0.020312221451    0.107790933871    -0.004008456266
            0.061751595293    -0.068994419113    0.018693086035    -0.020312221451    0.047839674986    -0.093533093615    0.386533032239    0.823833194896
            0.018478854572    -0.021546130294    0.107790933871    -0.004008456266    0.386533032239    0.823833194896    0.107665057353    0.006806601585
0.625     0.002481881730    -0.096761008589    0.558690176654    0.717361500862    0.024963041492    -0.079829793489    0.016161851671    -0.025281312162
            0.558690176654    0.717361500862    0.100216389840    0.009651304340    0.016550220669    -0.024465821722    0.101713176454    -0.004904860003
            0.024963041492    -0.079829793489    0.016550221096    -0.024465821433    0.004057471994    -0.099172223235    0.552326097050    0.722181436919
            0.016161851671    -0.025281312162    0.101713176454    -0.004904860003    0.552326097050    0.722181436919    0.102392024119    0.010122968540
0.650     -0.040746616043    -0.084268529673    0.697780464731    0.580522922144    -0.014317628309    -0.075553648191    0.012758711145    -0.030016693957
            0.697780464731    0.580522922144    0.098824128466    0.016612888149    0.013234851745    -0.029536975226    0.097874466228    -0.002343562009
            -0.014317628309    -0.075553648191    0.013234852669    -0.029536975908    -0.039699907658    -0.087433211253    0.692374109732    0.586882722456
            0.012758711145    -0.030016693957    0.097874466228    -0.002343562009    0.692374109732    0.586882722456    0.101026703488    0.016476893104
0.675     -0.076754777739    -0.055676298023    0.803495376576    0.416851882340    -0.049831892845    -0.056100816025    0.007192054037    -0.035059492829
            0.803495376576    0.416851882340    0.102730616051    0.024450889510    0.007695238276    -0.034864133379    0.097740128512    0.002209449128
            -0.049831892845    -0.056100816025    0.007695238276    -0.034864133379    -0.076493898299    -0.059406631025    0.799447660246    0.424542713723
            0.007192054037    -0.035059492829    0.097740128512    0.002209449128    0.799447660246    0.424542713723    0.104715327536    0.023745305807
0.700     -0.099645785099    -0.015030269278    0.870589779324    0.234870271918    -0.075789198616    -0.024083991789    -0.001041118701    -0.039063428512
            0.870589779324    0.234870271918    0.111986504793    0.030583209810    -0.000577877405    -0.039110708040    0.101955675037    0.006733428065
            -0.075789198616    -0.024083991789    -0.000577877405    -0.039110708040    -0.100347816504    -0.019032485620    0.868246142988    0.243566496810
            -0.001041118701    -0.039063428512    0.101955675037    0.006733428065    0.868246142988    0.243566496810    0.113541454641    0.029448119218
0.725     -0.105741207077    0.031518763680    0.896324861290    0.044121857457    -0.088034718216    0.015711572467    -0.011549022000    -0.040466882707
            0.896324861290    0.044121857457    0.125459389187    0.032634594154    -0.011191641504    -0.040702077555    0.110155661036    0.009116151079
            -0.088034718216    0.015711572467    -0.011191641504    -0.040702077555    -0.107456698472    0.027601246158    0.895931422566    0.053400574145
            -0.011549022000    -0.040466882707    0.110155661036    0.009116151079    0.895931422566    0.053400574145    0.126448681385    0.031289439758
0.750     -0.094259638412    0.076955652145    0.880590802062    -0.145771979844    -0.084814396561    0.057338730552    -0.023048569443    -0.038068702018
            0.880590802062    -0.145771979844    0.141073556735    0.028963176736    -0.022844202036    -0.038417424931    0.121072243675    0.007639413126
            -0.084814396561    0.057338730552    -0.022844202036    -0.038417424931    -0.096894297405    0.073480080495    0.882271839578    -0.136382795851
            -0.023048569443    -0.038068702018    0.121072243675    0.007639413126    0.882271839578    -0.136382795851    0.141465519395    0.027667796229
0.775     -0.067278008449    0.114755861851    0.825596931086    -0.325934914211    -0.066882412055    0.094873334041    -0.033710425604    -0.031491472024
            0.825596931086    -0.325934914211    0.156256904302    0.018992751726    -0.033672063698    -0.031869406450    0.132829318368    0.001325322953
            -0.066882412055    0.094873334041    -0.033672063698    -0.031869406450    -0.070605305734    0.112020222892    0.829347791046    -0.316921349399
            -0.033710425604    -0.031491472024    0.132829318368    0.001325322953    0.829347791046    -0.316921349399    0.156131225998    0.017997993952
