# GHz S RI R 45
0.000     0.022634643910    0.001691804589    0.000001847528    0.000003710252    0.000817856433    0.001649932626    0.000002009715    0.000004342631
            0.000001847376    0.000003710254    0.022251066279    0.001692863753    0.000002224326    0.000004361866    0.000782597386    0.001647796440
            0.000817856215    0.001649932622    0.000002224334    0.000004361866    0.022592388912    0.001679631632    0.000002428799    0.000005177047
            0.000002010053    0.000004342625    0.000782597559    0.001647796358    0.000002428720    0.000005177049    0.022180474359    0.001704856308
0.025     0.027860865987    0.009535663327    0.000003509885    0.000008639074    0.002847003058    0.011483546637    0.000003711743    0.000009734771
            0.000003509902    0.000008639067    0.027080620012    0.009216677612    0.000004464143    0.000010613584    0.002617283191    0.011119703372
            0.002839088226    0.011481360831    0.000004464146    0.000010613599    0.027789404002    0.009474037792    0.000004529104    0.000011789144
            0.000003711762    0.000009734782    0.002617537943    0.011119129741    0.000004529097    0.000011789134    0.026995086488    0.009179483562
0.050     0.033559165012    0.013299144781    0.000006795049    0.000015458643    0.008407206127    0.021060587423    0.000007018775    0.000017658319
            0.000006795049    0.000015458643    0.032297800473    0.013020218039    0.000008840800    0.000018726217    0.007730367187    0.020567898861
            0.008407266282    0.021060520340    0.000008840800    0.000018726217    0.033434226426    0.013238224411    0.000008642672    0.000021328845
            0.000007018776    0.000017658319    0.007730463904    0.020567893491    0.000008642672    0.000021328845    0.032125233861    0.012981842429
0.075     0.038692235577    0.014075010452    0.000010795686    0.000021023902    0.016081940210    0.027533652748    0.000011117425    0.000024542456
            0.000010795686    0.000021023902    0.036969188348    0.014232087268    0.000014095736    0.000024980630    0.014869084963    0.027282317947
            0.016081938878    0.027533705640    0.000014095737    0.000024980631    0.038516785923    0.014036840062    0.000013731765    0.000029503333
            0.000011117425    0.000024542456    0.014869080677    0.027282320283    0.000013731764    0.000029503333    0.036702542966    0.014258942101
0.100     0.042076576837    0.012459927513    0.000015095911    0.000025581064    0.024199544929    0.030558523536    0.000015785331    0.000030652252
            0.000015095911    0.000025581064    0.040161183001    0.013406847064    0.000019514394    0.000029666122    0.022613080802    0.030918533168
            0.024199544929    0.030558523536    0.000019514394    0.000029666122    0.041870853141    0.012481814550    0.000019463700    0.000036610891
            0.000015785331    0.000030652252    0.022613055573    0.030918541709    0.000019463700    0.000036610891    0.039822901460    0.013562744929
0.125     0.042590874195    0.009698099656    0.000019430608    0.000029459187    0.031220406331    0.030552572768    0.000020933990    0.000036210470
            0.000019430608    0.000029459187    0.040908959835    0.011549861972    0.000024566345    0.000033295160    0.029641537079    0.031768604612
            0.031220406331    0.030552572768    0.000024566345    0.000033295160    0.042405093858    0.009793320754    0.000025648108    0.000042934915
            0.000020933990    0.000036210470    0.029641537079    0.031768604612    0.000025648108    0.000042934915    0.040563249554    0.011886755268
0.150     0.040046523452    0.007362101458    0.000023742365    0.000033112745    0.035923761528    0.028562099648    0.000026609574    0.000041485421
            0.000023742365    0.000033112745    0.039229111935    0.010049111933    0.000029051105    0.000036639757    0.034835512178    0.030629106253
            0.035923761528    0.028562099648    0.000029051105    0.000036639757    0.039923997215    0.007528789147    0.000032268455    0.000048860140
            0.000026609574    0.000041485421    0.034835512178    0.030629106253    0.000032268455    0.000048860140    0.038948772417    0.010579250812
0.175     0.034796736909    0.007114750156    0.000028288597    0.000036923072    0.037752229781    0.026102724438    0.000033078304    0.000046619770
            0.000028288597    0.000036923072    0.035330705642    0.010183381643    0.000033271530    0.000040440317    0.037620187044    0.028746358417
            0.037752229781    0.026102724438    0.000033271530    0.000040440317    0.034786149609    0.007321917516    0.000039604056    0.000054655951
            0.000033078304    0.000046619770    0.037620187044    0.028746358417    0.000039604056    0.000054655951    0.035201899918    0.010878163097
0.200     0.028012046030    0.010394344164    0.000033563587    0.000041083246    0.036949397782    0.024797044033    0.000040727140    0.000051573336
            0.000033563587    0.000041083246    0.030109580975    0.013127692445    0.000037959744    0.000045198973    0.038071678715    0.027492755752
            0.036949397782    0.024797044033    0.000037959744    0.000045198973    0.028145191912    0.010581756419    0.000048127830    0.000060391635
            0.000040727140    0.000051573336    0.038071678715    0.027492755752    0.000048127830    0.000060391635    0.030199895390    0.013914579985
0.225     0.021544693292    0.017979690178    0.000040187045    0.000045433734    0.034536519180    0.025970032951    0.000049959170    0.000056006731
            0.000040187045    0.000045433734    0.025027973315    0.019557810952    0.000044124959    0.000050911598    0.036912924386    0.028047759356
            0.034536519180    0.025970032951    0.000044124959    0.000050911598    0.021821080093    0.018069692559    0.000058388560    0.000065771984
            0.000049959170    0.000056006731    0.036912924386    0.028047759356    0.000058388560    0.000065771984    0.025363349363    0.020334631293
0.250     0.017552089256    0.029707363885    0.000048703402    0.000049422250    0.032101242615    0.030304554607    0.000061024098    0.000059299153
            0.000048703402    0.000049422250    0.021817995526    0.029419775464    0.000052763334    0.000056966350    0.035369634837    0.031121181981
            0.032101242615    0.030304554607    0.000052763334    0.000056966350    0.017930480072    0.029623357138    0.000070802989    0.000070134674
            0.000061024098    0.000059299153    0.035369634837    0.031121181981    0.000070802989    0.000070134674    0.022370394686    0.030079243913
0.275     0.018003625255    0.044353821993    0.000059332733    0.000052128957    0.031417708724    0.037611272841    0.000073827958    0.000060604293
            0.000059332733    0.000052128957    0.022101639657    0.041822735338    0.000064491144    0.000062147450    0.034892377759    0.036745438777
            0.031417708724    0.037611272841    0.000064491144    0.000062147450    0.018405454865    0.044041292729    0.000085414324    0.000072493202
            0.000073827958    0.000060604293    0.034892377759    0.036745438777    0.000085414324    0.000072493202    0.022791612781    0.042280114829
0.300     0.024165050419    0.059829063178    0.000071772063    0.000052503669    0.033996065572    0.046836244883    0.000087810629    0.000059090569
            0.000071772063    0.000052503669    0.026993041830    0.055170394583    0.000079231180    0.000064922645    0.036810910402    0.044244527140
            0.033996065572    0.046836244883    0.000079231180    0.000064922645    0.024488394474    0.059273642662    0.000101720320    0.000071805191
            0.000087810629    0.000059090569    0.036810910402    0.044244527140    0.000101720320    0.000071805191    0.027705990392    0.055387927585
0.325     0.036229472664    0.073581046871    0.000085130939    0.000049673171    0.040677448442    0.056285773994    0.000101947509    0.000054205439
            0.000085130939    0.000049673171    0.036797603936    0.067446652443    0.000096066456    0.000063848493    0.041998905316    0.052362830662
            0.040677448442    0.056285773994    0.000096066456    0.000063848493    0.036369199234    0.072816478312    0.000118642730    0.000067284561
            0.000101947509    0.000054205439    0.041998905316    0.052362830662    0.000118642730    0.000067284561    0.037410472050    0.067446607783
0.350     0.053206476969    0.083177096205    0.000098117714    0.000043289038    0.051419044167    0.064042166467    0.000114975726    0.000045953345
            0.000098117714    0.000043289038    0.050894357596    0.076652911699    0.000113408188    0.000058053964    0.050662982014    0.059560229614
            0.051419044167    0.064042166467    0.000113408188    0.000058053964    0.053079171269    0.082283379331    0.000134753555    0.000058741333
            0.000114975726    0.000045953345    0.050662982014    0.059560229614    0.000134753555    0.000058741333    0.051305374447    0.076515091057
0.375     0.073107307410    0.086829830413    0.000109365308    0.000033676397    0.065302458206    0.068397819435    0.000125711559    0.000034962337
            0.000109365308    0.000033676397    0.067835914763    0.081217418113    0.000129364135    0.000047510610    0.062288277133    0.064346111420
            0.065302458206    0.068397819435    0.000129364135    0.000047510610    0.072669752235    0.085919037489    0.000148627174    0.000046697690
            0.000125711559    0.000034962337    0.062288277133    0.064346111420    0.000148627174    0.000046697690    0.067989833262    0.081064115119
0.400     0.093361586852    0.083779088379    0.000117832084    0.000021780504    0.080760034396    0.068221814489    0.000133413687    0.000022369150
            0.000117832084    0.000021780504    0.085637305554    0.080327564910    0.000142247120    0.000033070713    0.075764781332    0.065599613988
            0.080760034396    0.068221814489    0.000142247120    0.000033070713    0.092622262869    0.082974275018    0.000159252914    0.000032297793
            0.000133413687    0.000022369150    0.075764781332    0.065599613988    0.000159252914    0.000032297793    0.085541025926    0.080297532650
0.425     0.111322970889    0.074402909189    0.000123035914    0.000008885274    0.095893659867    0.063144317379    0.000137949739    0.000009503586
            0.000123035914    0.000008885274    0.102158112607    0.074059858176    0.000150928713    0.000016214612    0.089608692647    0.062763710013
            0.095893659867    0.063144317379    0.000150928713    0.000016214612    0.110341930518    0.073815290290    0.000166259317    0.000016987791
            0.000137949739    0.000009503586    0.089608692647    0.062763710013    0.000166259317    0.000016987791    0.101881918070    0.074278718342
0.450     0.124749138628    0.060118281032    0.000125130180    -0.000003711459    0.108824658744    0.053600410909    0.000139817291    -0.000002436535
            0.000125130180    -0.000003711459    0.115492441815    0.063346667367    0.000155042912    -0.000001298617    0.102242187171    0.055935814421
            0.108824658744    0.053600410909    0.000155042912    -0.000001298617    0.123628366754    0.059827018700    0.000169974063    0.000002163408
            0.000139817291    -0.000002436535    0.102242187171    0.055935814421    0.000169974063    0.000002163408    0.115157272826    0.063901096211
0.475     0.132151626280    0.043103442827    0.000124761274    -0.000014975594    0.117980954613    0.040735805936    0.000139950758    -0.000012651055
            0.000124761274    -0.000014975594    0.124269272845    0.049784442609    0.000154948739    -0.000017782902    0.112242585607    0.045831233310
            0.117980954613    0.040735805936    0.000154948739    -0.000017782902    0.131019211350    0.043143100182    0.000171245208    -0.000011131988
            0.000139950758    -0.000012651055    0.112242585607    0.045831233310    0.000171245208    -0.000011131988    0.124026764785    0.050704612586
0.500     0.133018964593    0.025945214513    0.000122893688    -0.000024280992    0.122347748914    0.026250205497    0.000139500446    -0.000020854664
            0.000122893688    -0.000024280992    0.127862044789    0.035370977326    0.000151612954    -0.000031872749    0.118574984026    0.033684786162
            0.122347748914    0.026250205497    0.000151612954    -0.000031872749    0.132010875017    0.026306679981    0.000171239955    -0.000022356638
            0.000139500446    -0.000020854664    0.118574984026    0.033684786162    0.000171239955    -0.000022356638    0.127868942907    0.036623762070
0.525     0.127887445632    0.011185776697    0.000120573041    -0.000031451679    0.121637465113    0.012126308697    0.000139561671    -0.000027274902
            0.000120573041    -0.000031451679    0.126468393816    0.022191890186    0.000146415433    -0.000042680865    0.120760495336    0.021070602291
            0.121637465113    0.012126308697    0.000146415433    -0.000042680865    0.127135621957    0.011886338893    0.000171177063    -0.000031503108
            0.000139561671    -0.000027274902    0.120760495336    0.021070602291    0.000171177063    -0.000031503108    0.126869816137    0.023686322080
0.550     0.118915484060    0.001513875094    0.000119075476    -0.000036755353    0.116806307241    0.000689117077    0.000141146451    -0.000032739637
            0.000119075476    -0.000036755353    0.121103109982    0.012111122350    0.000141021672    -0.000049965056    0.119006142412    0.009664067712
            0.116806307241    0.000689117077    0.000141021672    -0.000049965056    0.117938617584    0.002065893632    0.000172193084    -0.000039135560
            0.000141146451    -0.000032739637    0.119006142412    0.009664067712    0.000172193084    -0.000039135560    0.122022077777    0.013684563247
0.575     0.107231744251    -0.002183370270    0.000118918249    -0.000040616219    0.108508590034    -0.006659258746    0.000144727376    -0.000037926737
            0.000118918249    -0.000040616219    0.113471753104    0.006464225342    0.000137168702    -0.000053985039    0.114187870119    0.000952176552
            0.108508590034    -0.006659258746    0.000137168702    -0.000053985039    0.106817618662    -0.001656359600    0.000175132532    -0.000046050383
            0.000144727376    -0.000037926737    0.114187870119    0.000952176552    0.000175132532    -0.000046050383    0.114941192875    0.007872978781
0.600     0.096822625486    0.000597973281    0.000121051191    -0.000044254406    0.099626713075    -0.008851124641    0.000150488322    -0.000044337427
            0.000121051191    -0.000044254406    0.105749018746    0.005790585600    0.000136413579    -0.000055982665    0.107790933871    -0.004008456266
            0.099626713075    -0.008851124641    0.000136413579    -0.000055982665    0.096741596480    0.001058673095    0.000180440927    -0.000053629528
            0.000150488322    -0.000044337427    0.107790933871    -0.004008456266    0.000180440927    -0.000053629528    0.107665057353    0.006806601585
0.625     0.090423653804    0.008870161066    0.000125658794    -0.000048980187    0.092539464253    -0.006171484258    0.000158028818    -0.000053270017
            0.000125658794    -0.000048980187    0.100216389840    0.009651304340    0.000139714753    -0.000057871957    0.101713176454    -0.004904860003
            0.092539464253    -0.006171484258    0.000139714753    -0.000057871957    0.090599456969    0.008924542865    0.000187947031    -0.000063372998
            0.000158028818    -0.000053270017    0.101713176454    -0.004904860003    0.000187947031    -0.000063372998    0.102392024119    0.010122968540
0.650     0.090323324731    0.020279664392    0.000132326910    -0.000056360877    0.089371625579    0.000208161554    0.000166344301    -0.000065962715
            0.000132326910    -0.000056360877    0.098824128466    0.016612888149    0.000147156732    -0.000062021302    0.097874466228    -0.002343562009
            0.089371625579    0.000208161538    0.000147156732    -0.000062021302    0.090384306143    0.019946268927    0.000196886394    -0.000076811905
            0.000166344300    -0.000065962718    0.097874466228    -0.002343562009    0.000196886394    -0.000076811905    0.101026703488    0.016476893104
0.675     0.097528665416    0.031555996529    0.000139709802    -0.000067788698    0.091679267237    0.007922389355    0.000173682412    -0.000083215362
            0.000139709802    -0.000067788698    0.102730616051    0.024450889510    0.000157459222    -0.000070884456    0.097740128512    0.002209449128
            0.091679267237    0.007922389355    0.000157459222    -0.000070884456    0.097331211634    0.030946252473    0.000205489982    -0.000095181325
            0.000173682412    -0.000083215362    0.097740128512    0.002209449128    0.000205489982    -0.000095181325    0.104715327536    0.023745305807
0.700     0.111428277342    0.039247258725    0.000145724599    -0.000083886316    0.099598961851    0.014137809203    0.000177874276    -0.000104916939
            0.000145724599    -0.000083886316    0.111986504793    0.030583209810    0.000168091445    -0.000086067910    0.101955675037    0.006733428065
            0.099598961851    0.014137809203    0.000168091445    -0.000086067910    0.110861990279    0.038494016655    0.000211369252    -0.000118729879
            0.000177874276    -0.000104916939    0.101955675037    0.006733428065    0.000211369252    -0.000118729879    0.113541454641    0.029448119218
0.725     0.129876356778    0.040535712094    0.000148032879    -0.000104092347    0.111928950758    0.016307472215    0.000176837596    -0.000129820709
            0.000148032879    -0.000104092347    0.125459389187    0.032634594154    0.000175851889    -0.000107708432    0.110155661036    0.009116151079
            0.111928950758    0.016307472215    0.000175851889    -0.000107708432    0.128891496465    0.039810604356    0.000212061218    -0.000146430201
            0.000176837596    -0.000129820709    0.110155661036    0.009116151079    0.000212061218    -0.000146430201    0.126448681385    0.031289439758
0.750     0.149710925874    0.033874920874    0.000144793265    -0.000126664295    0.126487513013    0.012740605192    0.000169251269    -0.000155704225
            0.000144793265    -0.000126664295    0.141073556735    0.028963176736    0.000177797996    -0.000134315185    0.121072243675    0.007639413126
            0.126487513013    0.012740605192    0.000177797996    -0.000134315185    0.148336684407    0.033357474536    0.000205800898    -0.000176071824
            0.000169251269    -0.000155704225    0.121072243675    0.007639413126    0.000205800898    -0.000176071824    0.141465519395    0.027667796229
0.775     0.167473717678    0.019254835793    0.000135233788    -0.000149105958    0.140643524002    0.002888378036    0.000154979529    -0.000179870419
            0.000135233788    -0.000149105958    0.156256904302    0.018992751726    0.000172044727    -0.000163139159    0.132829318368    0.001325322953
            0.140643524002    0.002888378036    0.000172044727    -0.000163139159    0.165813618250    0.019095685962    0.000192054773    -0.000204765712
            0.000154979529    -0.000179870419    0.132829318368    0.001325322953    0.000192054773    -0.000204765712    0.156131225998    0.017997993952
0.800     0.180107206133    -0.001924708518    0.000119878786    -0.000168900312    0.151874114202    -0.012678523612    0.000135164999    -0.000199868137
            0.000119878786    -0.000168900312    0.168473079071    0.003270472659    0.000158207057    -0.000190960031    0.143362355887    -0.009926593578
