# GHz S RI R 45
0.000     0.023345365201    0.001675731812    0.000000430006    0.000000916652    0.000929907103    0.001643798895    0.000000444692    0.000000991774
            0.000000430098    0.000000916650    0.022251066279    0.001692863753    0.000000471161    0.000000994842    0.000782597386    0.001647796440
            0.000929906439    0.001643798926    0.000000471004    0.000000994845    0.023284435129    0.001662238526    0.000000476677    0.000001080371
            0.000000444780    0.000000991772    0.000782597559    0.001647796358    0.000000476608    0.000001080372    0.022180474359    0.001704856308
0.025     0.028808838488    0.009638125067    0.000000799944    0.000002059978    0.003136229251    0.011909500303    0.000000828822    0.000002205114
            0.000000799947    0.000002059974    0.027080620012    0.009216677612    0.000000886052    0.000002265501    0.002617283191    0.011119703372
            0.003136795947    0.011908504122    0.000000886045    0.000002265507    0.028745881275    0.009607158026    0.000000890543    0.000002401378
            0.000000828820    0.000002205110    0.002617537943    0.011119129741    0.000000890550    0.000002401394    0.026995086488    0.009179483562
0.050     0.034896744927    0.013247690142    0.000001528185    0.000003725464    0.009291208930    0.021658763777    0.000001574636    0.000004004950
            0.000001528185    0.000003725464    0.032297800473    0.013020218039    0.000001704649    0.000004085025    0.007730367187    0.020567898861
            0.009291272789    0.021658785348    0.000001704650    0.000004085025    0.034773329003    0.013208570056    0.000001694215    0.000004369444
            0.000001574636    0.000004004950    0.007730463904    0.020567893491    0.000001694215    0.000004369444    0.032125233861    0.012981842429
0.075     0.040394771673    0.013488767389    0.000002430027    0.000005142699    0.017674358764    0.027801476038    0.000002506339    0.000005572418
            0.000002430027    0.000005142699    0.036969188348    0.014232087268    0.000002718616    0.000005614378    0.014869084963    0.027282317947
            0.017674364741    0.027801475793    0.000002718616    0.000005614378    0.040229992338    0.013488536518    0.000002701536    0.000006092431
            0.000002506339    0.000005572418    0.014869080677    0.027282320283    0.000002701536    0.000006092431    0.036702542966    0.014258942101
0.100     0.043859782130    0.010985824334    0.000003433910    0.000006368967    0.026279931999    0.029974871257    0.000003568624    0.000006966549
            0.000003433910    0.000006368967    0.040161183001    0.013406847064    0.000003836765    0.000006911733    0.022613080802    0.030918533168
            0.026279930953    0.029974872174    0.000003836766    0.000006911733    0.043685704531    0.011061205359    0.000003858413    0.000007632627
            0.000003568625    0.000006966549    0.022613055573    0.030918541709    0.000003858413    0.000007632627    0.039822901460    0.013562744929
0.125     0.043949018201    0.007170812499    0.000004504483    0.000007469444    0.033260386211    0.028775315374    0.000004742050    0.000008243548
            0.000004504483    0.000007469444    0.040908959835    0.011549861972    0.000005005703    0.000008052622    0.029641537079    0.031768604612
            0.033260386211    0.028775315374    0.000005005703    0.000008052622    0.043815310394    0.007337446189    0.000005147163    0.000009046458
            0.000004742050    0.000008243548    0.029641537079    0.031768604612    0.000005147163    0.000009046458    0.040563249554    0.011886755268
0.150     0.040344726688    0.003940852484    0.000005650190    0.000008526234    0.037219465387    0.025583346070    0.000006045137    0.000009468648
            0.000005650190    0.000008526234    0.039229111935    0.010049111933    0.000006223550    0.000009138657    0.034835512178    0.030629106253
            0.037219465387    0.025583346070    0.000006223550    0.000009138657    0.040327692734    0.004180356031    0.000006587410    0.000010395698
            0.000006045137    0.000009468648    0.034835512178    0.030629106253    0.000006587410    0.000010395698    0.038948772417    0.010579250812
0.175     0.033510433271    0.003325970088    0.000006941308    0.000009592795    0.037623761422    0.022319212444    0.000007549736    0.000010673221
            0.000006941308    0.000009592795    0.035330705642    0.010183381643    0.000007562607    0.000010245849    0.037620187044    0.028746358417
            0.037623761422    0.022319212444    0.000007562607    0.000010245849    0.033668238284    0.003573231571    0.000008251352    0.000011709237
            0.000007549736    0.000010673221    0.037620187044    0.028746358417    0.000008251352    0.000011709237    0.035201899918    0.010878163097
0.200     0.024916885005    0.007048288725    0.000008487567    0.000010673436    0.034961629571    0.020969911622    0.000009356629    0.000011839161
            0.000008487567    0.000010673436    0.030109580975    0.013127692445    0.000009147708    0.000011398180    0.038071678715    0.027492755752
            0.034961629571    0.020969911622    0.000009147708    0.000011398180    0.025269011280    0.007205492260    0.000010240381    0.000012965621
            0.000009356629    0.000011839161    0.038071678715    0.027492755752    0.000010240381    0.000012965621    0.030199895390    0.013914579985
0.225     0.016859583151    0.015992493351    0.000010408936    0.000011690905    0.030685362126    0.023069234813    0.000011566236    0.000012870601
            0.000010408935    0.000011690905    0.025027973315    0.019557810952    0.000011124022    0.000012527138    0.036912924386    0.028047759356
            0.030685361724    0.023069235349    0.000011124022    0.000012527138    0.017371662793    0.015951733221    0.000012654438    0.000014063473
            0.000011566236    0.000012870601    0.036912924386    0.028047759356    0.000012654438    0.000014063473    0.025363349363    0.020334631293
0.250     0.011975323433    0.029851341003    0.000012787997    0.000012486522    0.026900731611    0.029259625422    0.000014233349    0.000013600351
            0.000012787997    0.000012486522    0.021817995526    0.029419775464    0.000013602575    0.000013468269    0.035369634837    0.031121181981
            0.026900731611    0.029259625422    0.000013602575    0.000013468269    0.012557384488    0.029524114446    0.000015545422    0.000014829339
            0.000014233349    0.000013600351    0.035369634837    0.031121181981    0.000015545422    0.000014829339    0.022370394686    0.030079243913
0.275     0.012606335159    0.047003525329    0.000015615393    0.000012836545    0.025841433671    0.039032904583    0.000017317810    0.000013809354
            0.000015615393    0.000012836545    0.022101639657    0.041822735338    0.000016598411    0.000013976765    0.034892377759    0.036745438777
            0.025841433671    0.039032904583    0.000016598411    0.000013976765    0.013125472551    0.046349235244    0.000018867860    0.000015038131
            0.000017317810    0.000013809354    0.034892377759    0.036745438777    0.000018867860    0.000015038131    0.022791612781    0.042280114829
0.300     0.020147856440    0.064790033153    0.000018754985    0.000012517398    0.029267165648    0.050798047152    0.000020657235    0.000013293194
            0.000018754985    0.000012517398    0.026993041830    0.055170394583    0.000019987622    0.000013795895    0.036810910402    0.044244527140
            0.029267165648    0.050798047152    0.000019987622    0.000013795895    0.020456243360    0.063834314723    0.000022450933    0.000014480971
            0.000020657235    0.000013293194    0.036810910402    0.044244527140    0.000022450933    0.000014480971    0.027705990392    0.055387927585
0.325     0.034610713752    0.080074085261    0.000021945357    0.000011379726    0.037965208798    0.062247897709    0.000023975273    0.000011931951
            0.000021945357    0.000011379726    0.036797603936    0.067446652443    0.000023503771    0.000012738407    0.041998905316    0.052362830662
            0.037965208798    0.062247897709    0.000023503771    0.000012738407    0.034579764398    0.078912131446    0.000026007753    0.000013036674
            0.000023975273    0.000011931951    0.041998905316    0.052362830662    0.000026007753    0.000013036674    0.037410472050    0.067446607783
0.350     0.054546471964    0.089994849232    0.000024861546    0.000009421823    0.051539295861    0.070946954405    0.000026947503    0.000009756913
            0.000024861546    0.000009421823    0.050894357596    0.076652911699    0.000026799256    0.000010768639    0.050662982014    0.059560229614
            0.051539295861    0.070946954405    0.000026799256    0.000010768639    0.054098892174    0.088775194333    0.000029203176    0.000010739897
            0.000026947503    0.000009756913    0.050662982014    0.059560229614    0.000029203176    0.000010739897    0.051305374447    0.076515091057
0.375     0.077353727332    0.092608266668    0.000027202374    0.000006805381    0.068513451229    0.074897550122    0.000029287466    0.000006958325
            0.000027202374    0.000006805381    0.067835914763    0.081217418113    0.000029535469    0.000008026527    0.062288277133    0.064346111420
            0.068513451229    0.074897550122    0.000029535469    0.000008026527    0.076484184908    0.091505259232    0.000031742031    0.000007788527
            0.000029287466    0.000006958325    0.062288277133    0.064346111420    0.000031742031    0.000007788527    0.067989833262    0.081064115119
0.400     0.099853882244    0.087297496118    0.000028782737    0.000003820897    0.086697596121    0.072962015547    0.000030835338    0.000003845487
            0.000028782737    0.000003820897    0.085637305554    0.080327564910    0.000031482401    0.000004798683    0.075764781332    0.065599613988
            0.086697596121    0.072962015547    0.000031482401    0.000004798683    0.098633750830    0.086475878453    0.000033460283    0.000004502318
            0.000030835338    0.000003845487    0.075764781332    0.065599613988    0.000033460283    0.000004502318    0.085541025926    0.080297532650
0.425     0.118926025667    0.074829377277    0.000029574583    0.000000804755    0.103634079118    0.065026799534    0.000031593228    0.000000761309
            0.000029574583    0.000000804755    0.102158112607    0.074059858176    0.000032567733    0.000001437097    0.089608692647    0.062763710013
            0.103634079118    0.065026799534    0.000032567733    0.000001437097    0.117492440244    0.074411868767    0.000034360942    0.000001235128
            0.000031593228    0.000000761309    0.089608692647    0.062763710013    0.000034360942    0.000001235128    0.101881918070    0.074278718342
0.450     0.132058982506    0.057162149938    0.000029707432    -0.000001943685    0.117035161425    0.051986445224    0.000031720929    -0.000002000480
            0.000029707432    -0.000001943685    0.115492441815    0.063346667367    0.000032886408    -0.000001724832    0.102242187171    0.055935814421
            0.117035161425    0.051986445224    0.000032886408    -0.000001724832    0.130593159982    0.057205180860    0.000034609383    -0.000001711173
            0.000031720929    -0.000002000480    0.102242187171    0.055935814421    0.000034609383    -0.000001711173    0.115157272826    0.063901096211
0.475     0.137727445152    0.037077892722    0.000029417001    -0.000004225449    0.125123518894    0.035580183726    0.000031481596    -0.000004258513
            0.000029417001    -0.000004225449    0.124269272845    0.049784442609    0.000032655976    -0.000004442221    0.112242585607    0.045831233310
            0.125123518894    0.035580183726    0.000032655976    -0.000004442221    0.136423957325    0.037558534288    0.000034476930    -0.000004150927
            0.000031481596    -0.000004258513    0.112242585607    0.045831233310    0.000034476930    -0.000004150927    0.124026764785    0.050704612586
0.500     0.135616215237    0.017761564941    0.000028992902    -0.000005968815    0.126919621873    0.018170514024    0.000031185018    -0.000005969168
            0.000028992902    -0.000005968815    0.127862044789    0.035370977326    0.000032168372    -0.000006591879    0.118574984026    0.033684786162
            0.126919621873    0.018170514024    0.000032168372    -0.000006591879    0.134649361385    0.018574618715    0.000034281899    -0.000006041121
            0.000031185018    -0.000005969168    0.118574984026    0.033684786162    0.000034281899    -0.000006041121    0.127868942907    0.036623762070
0.525     0.126695480189    0.002337960718    0.000028715872    -0.000007227862    0.122449909523    0.002430068450    0.000031121453    -0.000007225066
            0.000028715872    -0.000007227862    0.126468393816    0.022191890186    0.000031728904    -0.000008181154    0.120760495336    0.021070602291
            0.122449909523    0.002430068450    0.000031728904    -0.000008181154    0.126186364087    0.003307367642    0.000034321795    -0.000007479012
            0.000031121453    -0.000007225066    0.120760495336    0.021070602291    0.000034321795    -0.000007479012    0.126869816137    0.023686322080
0.550     0.113186029276    -0.006609226045    0.000028824491    -0.000008166996    0.112900287161    -0.009059045586    0.000031521334    -0.000008235507
            0.000028824491    -0.000008166996    0.121103109982    0.012111122350    0.000031619363    -0.000009340923    0.119006142412    0.009664067712
            0.112900287161    -0.009059045586    0.000031619363    -0.000009340923    0.113170347523    -0.005705538346    0.000034831133    -0.000008681582
            0.000031521334    -0.000008235507    0.119006142412    0.009664067712    0.000034831133    -0.000008681582    0.122022077777    0.013684563247
0.575     0.098334421011    -0.007554333908    0.000029478072    -0.000009039275    0.100587155800    -0.014333051676    0.000032512896    -0.000009295988
            0.000029478072    -0.000009039275    0.113471753104    0.006464225342    0.000032054889    -0.000010311870    0.114187870119    0.000952176552
            0.100587155800    -0.014333051676    0.000032054889    -0.000010311870    0.098743936149    -0.006946272733    0.000035938028    -0.000009953522
            0.000032512896    -0.000009295988    0.114187870119    0.000952176552    0.000035938028    -0.000009953522    0.114941192875    0.007872978781
0.600     0.085955753932    -0.000502031924    0.000030732921    -0.000010169938    0.088680882381    -0.012604701528    0.000034101120    -0.000010758800
            0.000030732921    -0.000010169938    0.105749018746    0.005790585600    0.000033150009    -0.000011433278    0.107790933871    -0.004008456266
            0.088680882381    -0.012604701528    0.000033150009    -0.000011433278    0.086617201811    -0.000378089666    0.000037643870    -0.000011655943
            0.000034101120    -0.000010758800    0.107790933871    -0.004008456266    0.000037643870    -0.000011655943    0.107665057353    0.006806601585
0.625     0.079674885130    0.012741765055    0.000032494290    -0.000011922617    0.080562099295    -0.004694690714    0.000036125447    -0.000012989569
            0.000032494290    -0.000011922617    0.100216389840    0.009651304340    0.000034857940    -0.000013109194    0.101713176454    -0.004904860003
            0.080562099287    -0.004694690854    0.000034857940    -0.000013109194    0.080335732632    0.012283649272    0.000039781200    -0.000014163241
            0.000036125447    -0.000012989569    0.101713176454    -0.004904860003    0.000039781200    -0.000014163241    0.102392024119    0.010122968540
0.650     0.082013238724    0.028728966433    0.000034484195    -0.000014633770    0.078956932858    0.006943479988    0.000038243921    -0.000016292000
            0.000034484195    -0.000014633770    0.098824128466    0.016612888149    0.000036926944    -0.000015736386    0.097874466228    -0.002343562009
            0.078956932858    0.006943479988    0.000036926944    -0.000015736386    0.082391676100    0.027716546358    0.000041995980    -0.000017786448
            0.000038243921    -0.000016292000    0.097874466228    -0.002343562009    0.000041995980    -0.000017786448    0.101026703488    0.016476893104
0.675     0.093592559434    0.043069778852    0.000036235522    -0.000018500552    0.085092942683    0.018726397638    0.000039946871    -0.000020800685
            0.000036235522    -0.000018500552    0.102730616051    0.024450889510    0.000038885879    -0.000019581105    0.097740128512    0.002209449128
            0.085092942683    0.018726397638    0.000038885879    -0.000019581105    0.093443071627    0.041660380191    0.000043761329    -0.000022662744
            0.000039946871    -0.000020800685    0.097740128512    0.002209449128    0.000043761329    -0.000022662744    0.104715327536    0.023745305807
0.700     0.112859578603    0.051527472572    0.000037179562    -0.000023471859    0.098308556167    0.026887901862    0.000040658901    -0.000026388226
            0.000037179562    -0.000023471859    0.111986504793    0.030583209810    0.000040130150    -0.000024654427    0.101955675037    0.006733428065
            0.098308556167    0.026887901862    0.000040130150    -0.000024654427    0.112031103993    0.049977403188    0.000044482648    -0.000028659243
            0.000040658901    -0.000026388226    0.101955675037    0.006733428065    0.000044482648    -0.000028659243    0.113541454641    0.029448119218
0.725     0.136463625871    0.051099204807    0.000036794536    -0.000029192970    0.116250744256    0.028469335361    0.000039887154    -0.000032632197
            0.000036794536    -0.000029192970    0.125459389187    0.032634594154    0.000040075327    -0.000030643271    0.110155661036    0.009116151079
            0.116250744753    0.028469333332    0.000040075327    -0.000030643271    0.134934755448    0.049706261231    0.000043648770    -0.000035338453
            0.000039887154    -0.000032632197    0.110155661036    0.009116151079    0.000043648770    -0.000035338453    0.126448681385    0.031289439758
0.750     0.160155335462    0.040664856199    0.000034781397    -0.000035070785    0.135589797746    0.021971834747    0.000037385828    -0.000038895655
            0.000034781397    -0.000035070785    0.141073556735    0.028963176736    0.000038346271    -0.000036964551    0.121072243675    0.007639413126
            0.135589797746    0.021971834747    0.000038346271    -0.000036964551    0.158034071460    0.039705214722    0.000041003968    -0.000042039702
            0.000037385828    -0.000038895655    0.121072243675    0.007639413126    0.000041003968    -0.000042039702    0.141465519395    0.027667796229
0.775     0.179776363732    0.021047421251    0.000031158973    -0.000040421712    0.152831642322    0.007492494636    0.000033233675    -0.000044479572
            0.000031158973    -0.000040421712    0.156256904302    0.018992751726    0.000034886860    -0.000042910933    0.132829318368    0.001325322953
            0.152831642322    0.007492494636    0.000034886860    -0.000042910933    0.177273655064    0.020723193732    0.000036628050    -0.000048036534
            0.000033233675    -0.000044479572    0.132829318368    0.001325322953    0.000036628050    -0.000048036534    0.156131225998    0.017997993952
0.800     0.192036600522    -0.005390081208    0.000026261764    -0.000044656627    0.164987852587    -0.013533989969    0.000027819892    -0.000048802098
            0.000026261764    -0.000044656627    0.168473079071    0.003270472659    0.000029971957    -0.000047839190    0.143362355887    -0.009926593578
