# GHz S RI R 45
0.000     0.016910431000    0.000000000000    -0.000000034757    -0.000000000000    0.000514524540    -0.000000000000    -0.000002387012    0.000000000000
            -0.000000034749    -0.000000000000    0.015992386000    0.000000000000    -0.000002318685    0.000000000000    0.000517232650    -0.000000000000
            0.000514520990    -0.000000000000    -0.000002318677    0.000000000000    0.016870794000    0.000000000000    0.000000204193    -0.000000000000
            -0.000002386997    0.000000000000    0.000517234710    -0.000000000000    0.000000204184    -0.000000000000    0.015922368000    0.000000000000
0.025     0.022673928316    0.010741391453    -0.000001497271    -0.000002543377    0.003114403427    0.010889294221    -0.000000651298    -0.000001185956
            -0.000001497263    -0.000002543379    0.020962309391    0.009025724455    -0.000001837267    -0.000001986216    0.002567401628    0.009030997905
            0.003114378780    0.010889343913    -0.000001837268    -0.000001986216    0.022613514539    0.010723577105    -0.000001673086    -0.000003706141
            -0.000000651288    -0.000001185959    0.002567381802    0.009031045022    -0.000001673100    -0.000003706138    0.020889378719    0.008950214621
0.050     0.031011857578    0.016039661147    -0.000003704823    -0.000003643041    0.010055397539    0.019580858931    -0.000002287741    -0.000004332430
            -0.000003704813    -0.000003643047    0.028100951921    0.013440323836    -0.000004040110    -0.000004707835    0.008244460743    0.016450859660
            0.010055382962    0.019580870914    -0.000004040108    -0.000004707837    0.030959450796    0.016031231191    -0.000004900670    -0.000005527811
            -0.000002287737    -0.000004332432    0.008244450603    0.016450868098    -0.000004900682    -0.000005527803    0.028009180746    0.013305161262
0.075     0.041368484852    0.017144836041    -0.000006464963    -0.000003635548    0.020134384979    0.024578771875    -0.000006037945    -0.000005443104
            -0.000006464962    -0.000003635550    0.037081543927    0.014454527009    -0.000008076537    -0.000005382054    0.016663159134    0.020993899026
            0.020134376419    0.024578776302    -0.000008076534    -0.000005382056    0.041344376184    0.017138602936    -0.000009001756    -0.000005695847
            -0.000006037939    -0.000005443110    0.016663152983    0.020993898801    -0.000009001760    -0.000005695843    0.036967806673    0.014271833565
0.100     0.052165671849    0.013252230955    -0.000009354090    -0.000002235787    0.031679848160    0.024897302622    -0.000010247694    -0.000004256836
            -0.000009354089    -0.000002235790    0.046733755346    0.011360920536    -0.000012469597    -0.000003716341    0.026579754809    0.021834590854
            0.031679847208    0.024897305452    -0.000012469598    -0.000003716342    0.052187308247    0.013239717254    -0.000013334590    -0.000003775257
            -0.000010247689    -0.000004256844    0.026579755571    0.021834589926    -0.000013334595    -0.000003775243    0.046603207084    0.011145997601
0.125     0.061278606519    0.004249973117    -0.000011761062    0.000000595907    0.042772253317    0.020235636985    -0.000013828170    -0.000000923358
            -0.000011761060    0.000000595895    0.055412658817    0.003907111225    -0.000016130710    0.000000203253    0.036557781815    0.018623197509
            0.042772254065    0.020235640080    -0.000016130710    0.000000203253    0.061362795323    0.004205302644    -0.000016972460    0.000000253037
            -0.000013828168    -0.000000923370    0.036557782140    0.018623196871    -0.000016972463    0.000000253046    0.055272684186    0.003671830957
0.150     0.066891725658    -0.009024870550    -0.000013095252    0.000004616815    0.051503987856    0.010955662173    -0.000015940223    0.000004102562
            -0.000013095254    0.000004616813    0.061671142101    -0.007377586954    -0.000018162766    0.000005897638    0.045128594727    0.011462516006
            0.051503989430    0.010955664387    -0.000018162766    0.000005897638    0.067056184426    -0.009113556189    -0.000019060723    0.000006031936
            -0.000015940224    0.000004102550    0.045128593189    0.011462513938    -0.000019060723    0.000006031936    0.061548582532    -0.007619695307
0.175     0.067306004319    -0.025180677207    -0.000012893620    0.000009381816    0.056189054344    -0.001894937489    -0.000015991443    0.000010110097
            -0.000012893623    0.000009381811    0.064056673378    -0.021611518775    -0.000017918265    0.000012616379    0.050919516982    0.000967464207
            0.056189056409    -0.001894935595    -0.000017918268    0.000012616371    0.067561381884    -0.025345366393    -0.000018942638    0.000012898043
            -0.000015991448    0.000010110085    0.050919515999    0.000967463299    -0.000018942635    0.000012898055    0.063979855779    -0.021865538491
0.200     0.061449115673    -0.042236036433    -0.000010879379    0.000014290294    0.055584689086    -0.016719227123    -0.000013692877    0.000016265907
            -0.000010879385    0.000014290297    0.061520837721    -0.037411298916    -0.000015081024    0.000019448927    0.052820786910    -0.011817536283
            0.055584691585    -0.016719225759    -0.000015081028    0.000019448925    0.061794522176    -0.042519171812    -0.000016235252    0.000019993068
            -0.000013692880    0.000016265904    0.052820785728    -0.011817536986    -0.000016235243    0.000019993079    0.061515604889    -0.037696695966
0.225     0.048985498502    -0.057881487844    -0.000006996665    0.000018660998    0.049044605975    -0.031534183172    -0.000009063351    0.000021681901
            -0.000006996668    0.000018660995    0.053509450603    -0.053078277503    -0.000009664068    0.000025416835    0.050099563964    -0.025516628422
            0.049044608758    -0.031534182541    -0.000009664068    0.000025416835    0.049403941633    -0.058331073902    -0.000010874915    0.000026355336
            -0.000009063358    0.000021681895    0.050099562628    -0.025516628843    -0.000010874914    0.000026355335    0.053594441852    -0.053427631886
0.250     0.030417157406    -0.069738783631    -0.000001437381    0.000021803485    0.036637100224    -0.044181646062    -0.000002418568    0.000025530399
            -0.000001437389    0.000021803481    0.040057765595    -0.066766248320    -0.000002019109    0.000029602673    0.042495682924    -0.038553075788
            0.036637101634    -0.044181646192    -0.000002019109    0.000029602675    0.030872459438    -0.070401773031    -0.000003134907    0.000031028785
            -0.000002418644    0.000025530343    0.042495682183    -0.038553075116    -0.000003134903    0.000031028784    0.040239398608    -0.067222139243
0.275     0.007071667116    -0.075638608175    0.000005360638    0.000023101318    0.019190137579    -0.052566482075    0.000005647815    0.000027113448
            0.000005360636    0.000023101321    0.021802364409    -0.076670034151    0.000007193609    0.000031225840    0.030269449950    -0.049297506802
            0.019190144687    -0.052566481609    0.000007193609    0.000031225841    0.007507737955    -0.076553463203    0.000006382190    0.000033167221
            0.000005647814    0.000027113450    0.030269448566    -0.049297506478    0.000006382193    0.000033167219    0.022070592104    -0.077280485527
0.300     -0.018971150986    -0.073918657776    0.000012735849    0.000022103698    -0.001738686695    -0.054931178353    0.000014321641    0.000025960382
            0.000012735851    0.000022103703    -0.000033636830    -0.081225956035    0.000017063378    0.000029762888    0.014209531934    -0.056241055855
            -0.001738684841    -0.054931180413    0.000017063381    0.000029762885    -0.018629524337    -0.075107221616    0.000016782306    0.000032150383
            0.000014321637    0.000025960385    0.014209521873    -0.056241057366    0.000016782306    0.000032150383    0.000291706580    -0.082038637388
0.325     -0.045075172451    -0.063671585970    0.000019865420    0.000018606803    -0.023992185229    -0.050106049398    0.000022634504    0.000021896106
            0.000019865421    0.000018606808    -0.023737864043    -0.079286596432    0.000026505410    0.000025015197    -0.004415587803    -0.058158546905
            -0.023992186093    -0.050106051202    0.000026505410    0.000025015197    -0.044916199958    -0.065130675740    0.000026961272    0.000027682834
            0.000022634502    0.000021896110    -0.004415588743    -0.058158545830    0.000026961273    0.000027682832    -0.023404286135    -0.080341197281
0.350     -0.068335985616    -0.044949995046    0.000025864527    0.000012719256    -0.045050283655    -0.037728938395    0.000029584567    0.000015095519
            0.000025864527    0.000012719260    -0.047252613236    -0.070285251193    0.000034397258    0.000017177952    -0.023963859846    -0.054267661078
            -0.045050284422    -0.037728939037    0.000034397254    0.000017177950    -0.068452544472    -0.046644740443    0.000035729745    0.000019874238
            0.000029584567    0.000015095519    -0.023963859442    -0.054267660164    0.000035729745    0.000019874238    -0.046977166433    -0.071606178800
0.375     -0.085938943023    -0.018827849142    0.000029910784    0.000004876560    -0.062337389582    -0.018348463870    0.000034259737    0.000006090848
            0.000029910785    0.000004876563    -0.068372738272    -0.054325563557    0.000039711637    0.000006841712    -0.042571490511    -0.044336597857
            -0.062337391501    -0.018348464435    0.000039711639    0.000006841713    -0.086416467862    -0.020688957661    0.000041967077    0.000009258673
            0.000034259739    0.000006090850    -0.042571489819    -0.044336597136    0.000041967076    0.000009258671    -0.068234398441    -0.055915404865
0.400     -0.095546959893    0.012665324587    0.000031376661    -0.000004196717    -0.073581866213    0.006593492413    0.000035980804    -0.000004281953
            0.000031376665    -0.000004196713    -0.084978077427    -0.032221146773    0.000041677886    -0.000005061304    -0.058353087208    -0.028747328832
            -0.073581867209    0.006593492502    0.000041677887    -0.000005061300    -0.096450227631    0.010740462609    0.000044787316    -0.000003246900
            0.000035980806    -0.000004281949    -0.058353091328    -0.028747318206    0.000044787311    -0.000003246905    -0.085060790746    -0.034055870557
0.425     -0.095619551906    0.046776918735    0.000029929477    -0.000013584947    -0.077119044915    0.034932710843    0.000034399536    -0.000014987260
            0.000029929480    -0.000013584944    -0.095258707321    -0.005437286645    0.000039886058    -0.000017371739    -0.069598971813    -0.008475120683
            -0.077119029781    0.034932671544    0.000039886057    -0.000017371739    -0.096980730113    0.044917892676    0.000043667410    -0.000016457703
            0.000034399536    -0.000014987259    -0.069598970820    -0.008475120562    0.000043667408    -0.000016457705    -0.095643562407    -0.007464479697
0.450     -0.085633294163    0.080372556596    0.000025584590    -0.000022316617    -0.072120894482    0.064064820569    0.000029551533    -0.000024941083
            0.000025584594    -0.000022316619    -0.097924237495    0.024035809860    0.000034353134    -0.000028866517    -0.074973609316    0.014996310730
            -0.072120895978    0.064064821898    0.000034353134    -0.000028866521    -0.087441302075    0.078726975358    0.000038524751    -0.000029082932
            0.000029551512    -0.000024940993    -0.074973608336    0.014996310534    0.000038524750    -0.000029082934    -0.098681203335    0.021896792788
0.475     -0.066125994831    0.110324120580    0.000018697545    -0.000029501256    -0.058663081287    0.091279514173    0.000021842137    -0.000033155401
            0.000018697593    -0.000029501259    -0.092341064911    0.053874354352    0.000025511919    -0.000038415455    -0.073652070451    0.039822462719
            -0.058663081287    0.091279514173    0.000025511921    -0.000038415455    -0.068319316561    0.109050431060    0.000029718613    -0.000039898217
            0.000021842139    -0.000033155402    -0.073652062621    0.039822475098    0.000029718608    -0.000039898218    -0.093522294127    0.051731824985
0.500     -0.038601715156    0.133876014056    0.000009890868    -0.000034418079    -0.037668903547    0.114097467420    0.000011964736    -0.000038840870
            0.000009890875    -0.000034418086    -0.078610802196    0.081644092777    0.000014125165    -0.000045093131    -0.065413407639    0.063983576826
            -0.037668906682    0.114097476916    0.000014125160    -0.000045093125    -0.041056422148    0.133159467616    0.000017972028    -0.000047869446
            0.000011964759    -0.000038840782    -0.065413406924    0.063983576127    0.000017972029    -0.000047869449    -0.080240052011    0.079639410628
0.525     -0.005305945687    0.148910359760    -0.000000065486    -0.000036609648    -0.010697805295    0.130630099617    0.000000769343    -0.000041491753
            -0.000000065486    -0.000036609652    -0.057580635052    0.105026481496    0.000001130320    -0.000048330808    -0.050660863282    0.085476491030
            -0.010697808391    0.130630109397    0.000001130320    -0.000048330807    -0.007803211948    0.149210758681    0.000004210624    -0.000052313472
            0.000000769345    -0.000041491754    -0.050660847853    0.085476499012    0.000004210624    -0.000052313470    -0.059613880812    0.103341266057
0.550     0.031059583476    0.154159162726    -0.000010338247    -0.000035921775    0.018765585379    0.138714037165    -0.000010833214    -0.000040914132
            -0.000010338237    -0.000035921788    -0.030795773634    0.122108430508    -0.000011964494    -0.000047754471    -0.030387856972    0.102552323737
            0.018765585379    0.138714037165    -0.000011964494    -0.000047754471    0.026602929220    0.154108119251    -0.000009982210    -0.000052686347
            -0.000010833153    -0.000040914073    -0.030387856972    0.102552323737    -0.000009982210    -0.000052686347    -0.033044326162    0.120891672960
0.575     0.067544976349    0.149046684370    -0.000020126046    -0.000032407377    0.051381809031    0.138270418294    -0.000021927824    -0.000037137103
            -0.000020126005    -0.000032407362    -0.000172196896    0.131611837351    -0.000025041397    -0.000043463479    -0.005958262795    0.113876041362
            0.051381809031    0.138270418294    -0.000025041399    -0.000043463482    0.064257631895    0.149666973260    -0.000024508407    -0.000048979346
            -0.000021927819    -0.000037137109    -0.005958262795    0.113876041362    -0.000024508405    -0.000048979342    -0.002415128841    0.130831120385
0.600     0.101145872621    0.133810514825    -0.000028690456    -0.000026273282    0.082359350877    0.129135022923    -0.000031673363    -0.000030409657
            -0.000028690459    -0.000026273284    0.032217320087    0.132703829806    -0.000036540953    -0.000035850146    0.021008530357    0.118458386929
            0.082359348623    0.129135024360    -0.000036540954    -0.000035850147    0.098422027726    0.135432992408    -0.000037591263    -0.000041534707
            -0.000031673363    -0.000030409657    0.021008534492    0.118458386195    -0.000037591344    -0.000041534737    0.030068697350    0.132293657557
0.625     0.128953605060    0.110378020984    -0.000035397508    -0.000018087657    0.109711426915    0.112142423870    -0.000039366932    -0.000021373539
            -0.000035397513    -0.000018087660    0.064039751066    0.125083760003    -0.000045735521    -0.000025303269    0.048613859677    0.115754713309
            0.109711426915    0.112142423870    -0.000045735524    -0.000025303260    0.127300212389    0.112283766048    -0.000048414809    -0.000030706958
            -0.000039366890    -0.000021373534    0.048613859677    0.115754713309    -0.000048414809    -0.000030706958    0.062058385565    0.125042969249
0.650     0.149805819388    0.079964183791    -0.000039912643    -0.000008175003    0.131887888928    0.088002366954    -0.000044657416    -0.000010394711
            -0.000039912650    -0.000008175004    0.092946085845    0.109144575783    -0.000051939531    -0.000012482743    0.074876995578    0.105775996053
            0.131887888928    0.088002366954    -0.000051939528    -0.000012482742    0.148700408056    0.081938488060    -0.000056174831    -0.000017139962
            -0.000044657418    -0.000010394711    0.074876995578    0.105775996053    -0.000056174831    -0.000017139962    0.091238139758    0.109467360536
0.675     0.161367577745    0.044555846607    -0.000041690273    0.000002869521    0.146685955670    0.058246912513    -0.000046943826    0.000001893214
            -0.000041690276    0.000002869521    0.116790416719    0.085896474966    -0.000054628387    0.000001821660    0.097890099113    0.089045026606
            0.146685955670    0.058246912513    -0.000054628392    0.000001821660    0.160893087210    0.046612226614    -0.000060214341    -0.000001637145
            -0.000046943827    0.000001893214    0.097890099113    0.089045026606    -0.000060214337    -0.000001637145    0.115476099792    0.086536965444
0.700     0.162487121500    0.006944418147    -0.000040458443    0.000014320745    0.152681701669    0.025042939980    -0.000045914395    0.000014705760
            -0.000040458453    0.000014320740    0.133766731063    0.056871002563    -0.000053444575    0.000016707824    0.115937180539    0.066557909281
            0.152681701669    0.025042939980    -0.000053444572    0.000016707823    0.162716567153    0.008915292741    -0.000060042382    0.000014846555
            -0.000045914399    0.000014705761    0.115937180539    0.066557909281    -0.000060042382    0.000014846555    0.132959192756    0.057739639484
0.725     0.152748995766    -0.029920710670    -0.000036088206    0.000025394262    0.148987762516    -0.009115527863    -0.000041408501    0.000027192501
            -0.000036088208    0.000025394263    0.142508594371    0.024022959634    -0.000048223531    0.000031169665    0.127581445590    0.039728934095
            0.148987762516    -0.009115527863    -0.000048223532    0.000031169666    0.153682641817    -0.028249370069    -0.000055371733    0.000031212083
            -0.000041408501    0.000027192501    0.127581445590    0.039728934095    -0.000055371726    0.000031212092    0.142299566633    0.024990180145
0.750     0.132516421387    -0.062983671607    -0.000028632637    0.000035232854    0.135385549978    -0.041453711080    -0.000033456626    0.000038418718
            -0.000028632637    0.000035232854    0.142184863933    -0.010383036487    -0.000039041229    0.000044119919    0.131774126137    0.010325786640
            0.135385559540    -0.041453714008    -0.000039041232    0.000044119923    0.134081234236    -0.061832817664    -0.000046180432    0.000046239259
            -0.000033456626    0.000038418718    0.131774126119    0.010325786870    -0.000046180429    0.000046239256    0.142631339006    -0.009477945989
0.775     0.103013311203    -0.089257777793    -0.000018382350    0.000042936228    0.112458379576    -0.069066916692    -0.000022341482    0.000047392650
            -0.000018382352    0.000042936233    0.132567122424    -0.043899258631    -0.000026268483    0.000054433663    0.127933127153    -0.019617832574
            0.112458384231    -0.069066870895    -0.000026268486    0.000054433668    0.105063931412    -0.088830907481    -0.000032778111    0.000058635777
