# GHz S RI R 45
0.000     0.016910431000    0.000000000000    -0.000001933161    0.000000000000    0.000514524540    -0.000000000000    -0.000002027038    0.000000000000
            -0.000001933177    0.000000000000    0.017754233000    0.000000000000    0.000033539482    -0.000000000000    0.000479767300    0.000000000000
            0.000514520990    -0.000000000000    0.000033539384    -0.000000000000    0.016870794000    0.000000000000    -0.000002986297    0.000000000000
            -0.000002027039    0.000000000000    0.000479685530    0.000000000000    -0.000002986306    0.000000000000    0.017693600000    0.000000000000
0.025     0.022673928316    0.010741391453    0.000001654672    -0.000000183298    0.003114403427    0.010889294221    0.000000243007    -0.000001218843
            0.000001654662    -0.000000183293    0.022398963701    0.010641021830    -0.000010769689    -0.000027586867    0.002271389483    0.010979164017
            0.003114378780    0.010889343913    -0.000010769708    -0.000027586860    0.022613514539    0.010723577105    0.000003095871    0.000001525520
            0.000000243008    -0.000001218842    0.002271183214    0.010979002453    0.000003095861    0.000001525525    0.022340674472    0.010681446596
0.050     0.031011857578    0.016039661147    0.000001027147    -0.000004373023    0.010055397539    0.019580858931    -0.000000764716    -0.000004927238
            0.000001027131    -0.000004373019    0.027916919234    0.016700708472    -0.000025503806    -0.000009441037    0.006993583196    0.020553424203
            0.010055382962    0.019580870914    -0.000025503806    -0.000009441037    0.030959450796    0.016031231191    0.000003690148    -0.000003463979
            -0.000000764709    -0.000004927241    0.006993531913    0.020553420526    0.000003690139    -0.000003463975    0.027884491215    0.016797502308
0.075     0.041368484852    0.017144836041    -0.000001738804    -0.000006984919    0.020134384979    0.024578771875    -0.000003746990    -0.000007295513
            -0.000001738819    -0.000006984912    0.034060266232    0.020373379251    -0.000025335533    0.000002671510    0.013870750281    0.027904028831
            0.020134376419    0.024578776302    -0.000025335533    0.000002671510    0.041344376184    0.017138602936    0.000001391290    -0.000006837053
            -0.000003746990    -0.000007295514    0.013870675757    0.027904040191    0.000001391282    -0.000006837048    0.034082454686    0.020511082981
0.100     0.052165671849    0.013252230955    -0.000005401351    -0.000008032068    0.031679848160    0.024897302622    -0.000007548387    -0.000008147152
            -0.000005401363    -0.000008032061    0.040099549415    0.021508005137    -0.000021399296    0.000010066282    0.021903290597    0.032514330355
            0.031679847208    0.024897305452    -0.000021399296    0.000010066282    0.052187308247    0.013239717254    -0.000002021685    -0.000008676607
            -0.000007548389    -0.000008147150    0.021903211989    0.032514345932    -0.000002021683    -0.000008676607    0.040194803830    0.021661604865
0.125     0.061278606519    0.004249973117    -0.000009241618    -0.000007594752    0.042772253317    0.020235636985    -0.000011529128    -0.000007524868
            -0.000009241626    -0.000007594745    0.044967163858    0.020322786309    -0.000016512006    0.000013974572    0.030013082786    0.034292922682
            0.042772254065    0.020235640080    -0.000016512007    0.000013974572    0.061362795323    0.004205302644    -0.000005801386    -0.000009113275
            -0.000011529130    -0.000007524866    0.030013006406    0.034292941689    -0.000005801392    -0.000009113268    0.045136782273    0.020461696371
0.150     0.066891725658    -0.009024870550    -0.000012836891    -0.000005825639    0.051503987856    0.010955662173    -0.000015273335    -0.000005562113
            -0.000012836902    -0.000005825625    0.047932466293    0.017558084140    -0.000011875986    0.000015475285    0.037135872237    0.033500278703
            0.051503989430    0.010955664387    -0.000011876045    0.000015475363    0.067056184426    -0.009113556189    -0.000009588917    -0.000008271325
            -0.000015273336    -0.000005562110    0.037135787213    0.033500304279    -0.000009588922    -0.000008271318    0.048181234202    0.017652998436
0.175     0.067306004319    -0.025180677207    -0.000015844068    -0.000002951755    0.056189054344    -0.001894937489    -0.000018449620    -0.000002457077
            -0.000015844077    -0.000002951743    0.048422547459    0.014116410761    -0.000008208495    0.000015357014    0.042397103589    0.030804771981
            0.056189056409    -0.001894935595    -0.000008208541    0.000015357100    0.067561381884    -0.025345366393    -0.000013070066    -0.000006307544
            -0.000018449621    -0.000002457078    0.042397029820    0.030804798656    -0.000013070069    -0.000006307537    0.048739963077    0.014132874897
0.200     0.061449115673    -0.042236036433    -0.000018061450    0.000000815788    0.055584689086    -0.016719227123    -0.000020848000    0.000001601538
            -0.000018061458    0.000000815804    0.046235459764    0.011128316027    -0.000005733106    0.000014434239    0.045236438636    0.027162843756
            0.055584691585    -0.016719225759    -0.000005733137    0.000014434332    0.061794522176    -0.042519171812    -0.000016045140    -0.000003332802
            -0.000020847998    0.000001601542    0.045236365631    0.027162874038    -0.000016045143    -0.000003332791    0.046596514299    0.011034648130
0.225     0.048985498502    -0.057881487844    -0.000019321998    0.000005256870    0.049044605975    -0.031534183172    -0.000022282094    0.000006420098
            -0.000019322001    0.000005256886    0.041639859109    0.009769135443    -0.000004495101    0.000013412491    0.045494584652    0.023685103137
            0.049044608758    -0.031534182541    -0.000004495110    0.000013412540    0.049403941633    -0.058331073902    -0.000018310198    0.000000524032
            -0.000022282093    0.000006420102    0.045494513140    0.023685136554    -0.000018310199    0.000000524035    0.042006520708    0.009541759203
0.250     0.030417157406    -0.069738783631    -0.000019493243    0.000010188581    0.036637100224    -0.044181646062    -0.000022586371    0.000011828025
            -0.000019493244    0.000010188582    0.035367477704    0.011088952335    -0.000004169271    0.000012844403    0.043454921594    0.021489030221
            0.036637101634    -0.044181646192    -0.000004169269    0.000012844498    0.030872459438    -0.070401773031    -0.000019660077    0.000005159507
            -0.000022586369    0.000011828029    0.043454843624    0.021489072839    -0.000019660076    0.000005159503    0.035691432577    0.010717567832
0.275     0.007071667116    -0.075638608175    -0.000018428406    0.000015386747    0.019190137579    -0.052566482075    -0.000021572339    0.000017602411
            -0.000018428408    0.000015386743    0.028555459974    0.015816704117    -0.000004348275    0.000013149947    0.039829441811    0.021526008044
            0.019190144687    -0.052566481609    -0.000004348267    0.000013149994    0.007507737955    -0.076553463203    -0.000019854894    0.000010398635
            -0.000021572336    0.000017602415    0.039829374311    0.021526048809    -0.000019854892    0.000010398647    0.028782863319    0.015308588310
0.300     -0.018971150986    -0.073918657776    -0.000015984130    0.000020588580    -0.001738686695    -0.054931178353    -0.000019055855    0.000023461348
            -0.000015984105    0.000020588674    0.022607967715    0.024225461117    -0.000004457504    0.000014419279    0.035684659665    0.024425392969
            -0.001738684841    -0.054931180413    -0.000004457477    0.000014419371    -0.018629524337    -0.075107221616    -0.000018641959    0.000015993799
            -0.000019055855    0.000023461348    0.035684593557    0.024425436437    -0.000018641959    0.000015993799    0.022686154862    0.023608221636
0.325     -0.045075172451    -0.063671585970    -0.000012060409    0.000025421648    -0.023992185229    -0.050106049398    -0.000014901742    0.000028998355
            -0.000012060407    0.000025421644    0.019010874684    0.036023573733    -0.000003933565    0.000016581764    0.032297461798    0.030356923376
            -0.023992186093    -0.050106051202    -0.000003933544    0.000016581805    -0.044916199958    -0.065130675740    -0.000015816421    0.000021551971
            -0.000014901740    0.000028998351    0.032297398614    0.030356970157    -0.000015816421    0.000021551971    0.018895993876    0.035344749317
0.350     -0.068335985616    -0.044949995046    -0.000006661292    0.000029436883    -0.045050283655    -0.037728938395    -0.000009094450    0.000033717087
            -0.000006661296    0.000029436877    0.019104391470    0.050350345385    -0.000002350265    0.000019222571    0.030964342167    0.038969736745
            -0.045050284422    -0.037728939037    -0.000002350264    0.000019222563    -0.068452544472    -0.046644740443    -0.000011287466    0.000026568586
            -0.000009094449    0.000033717085    0.030964280895    0.038969786707    -0.000011287466    0.000026568587    0.018769378065    0.049674539021
0.375     -0.085938943023    -0.018827849142    0.000000028453    0.000032130012    -0.062337389582    -0.018348463870    -0.000001815106    0.000037061368
            0.000000028481    0.000032130044    0.023856485125    0.065843755398    0.000000560307    0.000021830463    0.032779443350    0.049403192936
            -0.062337391501    -0.018348464435    0.000000560306    0.000021830458    -0.086416467862    -0.020688957661    -0.000005171288    0.000030459532
            -0.000001815105    0.000037061363    0.032779370592    0.049403259213    -0.000005171287    0.000030459534    0.023298101504    0.065245850933
0.400     -0.095546959893    0.012665324587    0.000007623115    0.000033053322    -0.073581866213    0.006593492413    0.000006534668    0.000038533505
            0.000007623113    0.000033053326    0.033682752411    0.080825187164    0.000004726804    0.000023782981    0.038444407221    0.060410917988
            -0.073581867209    0.006593492502    0.000004726808    0.000023782977    -0.096450227631    0.010740462609    0.000002185148    0.000032678740
            0.000006534671    0.000038533503    0.038444338900    0.060410987543    0.000002185149    0.000032678738    0.032924464210    0.080381329717
0.425     -0.095619551906    0.046776918735    0.000015545011    0.000031906941    -0.077119044915    0.034932710843    0.000015348363    0.000037792438
            0.000015545005    0.000031906941    0.048349000930    0.093530632246    0.000009874590    0.000024568917    0.048135940901    0.070542580580
            -0.077119029781    0.034932671544    0.000009874630    0.000024568938    -0.096980730113    0.044917892676    0.000010208664    0.000032827741
            0.000015348364    0.000037792436    0.048135875631    0.070542654173    0.000010208664    0.000032827740    0.047441317965    0.093307973677
0.450     -0.085633294163    0.080372556596    0.000023119477    0.000028628791    -0.072120894482    0.064064820569    0.000023911691    0.000034748432
            0.000023119562    0.000028628830    0.066993911352    0.102379650472    0.000015477829    0.000023856575    0.061481142592    0.078377765244
            -0.072120895978    0.064064821898    0.000015477914    0.000023856609    -0.087441302075    0.078726975358    0.000018198175    0.000030752910
            0.000023911691    0.000034748430    0.061481081684    0.078377839712    0.000018198184    0.000030752912    0.066010112754    0.102425803734
0.475     -0.066125994831    0.110324120580    0.000029682560    0.000023397945    -0.058663081287    0.091279514173    0.000031519361    0.000029564350
            0.000029682559    0.000023397947    0.088248380750    0.106187996545    0.000020984406    0.000021539667    0.077619014175    0.082723407822
            -0.058663081287    0.091279514173    0.000020984403    0.000021539665    -0.068319316561    0.109050431060    0.000025439488    0.000026558477
            0.000031519362    0.000029564350    0.077618986366    0.082723447628    0.000025439491    0.000026558476    0.087275801621    0.106525313045
0.500     -0.038601715156    0.133876014056    0.000034741120    0.000016619939    -0.037668903547    0.114097467420    0.000037641276    0.000022642706
            0.000034741121    0.000016619940    0.110434888641    0.104320372475    0.000025900136    0.000017758526    0.095345053852    0.082770213882
            -0.037668906682    0.114097476916    0.000025900137    0.000017758526    -0.041056422148    0.133159467616    0.000031388709    0.000020597088
            0.000037641277    0.000022642706    0.095345009725    0.082770295220    0.000031388709    0.000020597088    0.109566276802    0.104939299195
0.525     -0.005305945687    0.148910359760    0.000037971055    0.000008866910    -0.010697805295    0.130630099617    0.000041919713    0.000014560996
            0.000037971053    0.000008866918    0.131783432412    0.096730217772    0.000029902517    0.000012821637    0.113272985877    0.078156280883
            -0.010697808391    0.130630109397    0.000029902560    0.000012821632    -0.007803211948    0.149210758681    0.000035712310    0.000013408094
            0.000041919712    0.000014560995    0.113272931313    0.078156359963    0.000035712308    0.000013408093    0.131105992190    0.097590762952
0.550     0.031059583476    0.154159162726    0.000039272530    0.000000710223    0.018765585379    0.138714037165    0.000044227516    0.000005899876
            0.000039272531    0.000000710225    0.150639209904    0.083931475403    0.000032504307    0.000007525272    0.130004211301    0.068976993572
            0.018765585379    0.138714037165    0.000032504397    0.000007525252    0.026602929220    0.154108119251    0.000037888391    0.000005994183
            0.000044227517    0.000005899876    0.130004166757    0.068977077525    0.000037888392    0.000005994183    0.150225334673    0.084963831473
0.575     0.067544976349    0.149046684370    0.000038704947    -0.000007315196    0.051381809031    0.138270418294    0.000044594880    -0.000002798628
            0.000038704992    -0.000007315211    0.165611278366    0.066898785628    0.000033953577    0.000001313731    0.144250279139    0.055733154563
            0.051381809031    0.138270418294    0.000033953663    0.000001313709    0.064257631895    0.149666973260    0.000038407037    -0.000002111711
            0.000044594878    -0.000002798631    0.144250233820    0.055733244112    0.000038407080    -0.000002111738    0.165512045595    0.068009957802
0.600     0.101145872621    0.133810514825    0.000036477189    -0.000014795368    0.082359350877    0.129135022923    0.000043210000    -0.000011104870
            0.000036477189    -0.000014795368    0.175683212751    0.046949704993    0.000034265405    -0.000004806977    0.154937425973    0.039270730497
            0.082359348623    0.129135024360    0.000034265405    -0.000004806970    0.098422027726    0.135432992408    0.000037307928    -0.000009700641
            0.000043210000    -0.000011104870    0.154937383282    0.039270817525    0.000037307925    -0.000009700644    0.175920783154    0.048032988791
0.625     0.128953605060    0.110378020984    0.000032982036    -0.000021367974    0.109711426915    0.112142423870    0.000040463171    -0.000018654491
            0.000032982036    -0.000021367974    0.180262041562    0.025618517428    0.000033524982    -0.000010768850    0.161262987754    0.020700518254
            0.109711426915    0.112142423870    0.000033524984    -0.000010768843    0.127300212389    0.112283766048    0.000034826415    -0.000016635745
            0.000040463171    -0.000018654494    0.161262946148    0.020700606752    0.000034826409    -0.000016635746    0.180826022749    0.026561234064
0.650     0.149805819388    0.079964183791    0.000028523923    -0.000027042583    0.131887888928    0.088002366954    0.000036608038    -0.000025461250
            0.000028523925    -0.000027042585    0.179212052467    0.004538048116    0.000031893837    -0.000016454161    0.162757214683    0.001332596789
            0.131887888928    0.088002366954    0.000031893910    -0.000016454218    0.148700408056    0.081938488060    0.000031269669    -0.000022757944
            0.000036608039    -0.000025461252    0.162757214679    0.001332597215    0.000031269660    -0.000022757954    0.180054743516    0.005232937806
0.675     0.161367577745    0.044555846607    0.000023334331    -0.000031715548    0.146685955670    0.058246912513    0.000031850712    -0.000031389544
            0.000023334335    -0.000031715546    0.172851018369    -0.014666824602    0.000029504938    -0.000021833418    0.159318281898    -0.017403511703
            0.146685955670    0.058246912513    0.000029504938    -0.000021833416    0.160893087210    0.046612226614    0.000026919224    -0.000028022939
            0.000031850712    -0.000031389544    0.159318276696    -0.017403467239    0.000026919246    -0.000028022973    0.173889079531    -0.014312579564
0.700     0.162487121500    0.006944418147    0.000017660456    -0.000035425879    0.152681701669    0.025042939980    0.000026416134    -0.000036457632
            0.000017660457    -0.000035425879    0.161957482532    -0.030487963269    0.000026438332    -0.000026926198    0.151269242110    -0.034041577899
            0.152681701669    0.025042939980    0.000026438337    -0.000026926201    0.162716567153    0.008915292741    0.000021988656    -0.000032474921
            0.000026416128    -0.000036457632    0.151269212342    -0.034041482437    0.000021988646    -0.000032474919    0.163074531246    -0.030541809566
0.725     0.152748995766    -0.029920710670    0.000011650736    -0.000038274644    0.148987762516    -0.009115527863    0.000020426257    -0.000040737835
            0.000011650760    -0.000038274695    0.147747300879    -0.041649671115    0.000022690192    -0.000031779439    0.139383005903    -0.047196912419
            0.148987762516    -0.009115527863    0.000022690207    -0.000031779482    0.153682641817    -0.028249370069    0.000016602069    -0.000036209249
            0.000020426261    -0.000040737836    0.139382985728    -0.047196816104    0.000016602064    -0.000036209245    0.148801463010    -0.042142392303
0.750     0.132516421387    -0.062983671607    0.000005347195    -0.000040369369    0.135385549978    -0.041453711080    0.000013904230    -0.000044301686
            0.000005347211    -0.000040369461    0.131842068390    -0.047245847266    0.000018170652    -0.000036419264    0.124904384054    -0.055711347820
            0.135385559540    -0.041453714008    0.000018170673    -0.000036419357    0.134081234236    -0.061832817664    0.000010772323    -0.000039327389
            0.000013904227    -0.000044301683    0.124904384054    -0.055711347820    0.000010772318    -0.000039327379    0.132677502102    -0.048160313083
0.775     0.103013311203    -0.089257777793    -0.000001307515    -0.000041769181    0.112458379576    -0.069066916692    0.000006778697    -0.000047165395
            -0.000001307512    -0.000041769187    0.116176640558    -0.046889554848    0.000012697618    -0.000040796121    0.109494595653    -0.058839166506
            0.112458384231    -0.069066870895    0.000012697618    -0.000040796166    0.105063931412    -0.088830907481    0.000004406574    -0.000041875819
            0.000006778695    -0.000047165399    0.109494596520    -0.058839122641    0.000004406573    -0.000041875811    0.116639492072    -0.048154514611
