# GHz S RI R 45
0.000     0.016910431000    0.000000000000    0.000006799657    -0.000000000000    0.000514524540    -0.000000000000    0.000000767560    -0.000000000000
            0.000006799701    -0.000000000000    0.015931626000    0.000000000000    0.000003537054    -0.000000000000    0.000470486690    -0.000000000000
            0.000514520990    -0.000000000000    0.000003536995    -0.000000000000    0.016870794000    0.000000000000    0.000003254892    -0.000000000000
            0.000000767566    -0.000000000000    0.000470404520    -0.000000000000    0.000003254855    -0.000000000000    0.015892153000    0.000000000000
0.025     0.022673928316    0.010741391453    -0.000001639234    -0.000002207845    0.003114403427    0.010889294221    -0.000000266140    0.000001861884
            -0.000001639200    -0.000002207863    0.021250632636    0.009786716794    0.000001664193    0.000001239160    0.002827464285    0.009898980484
            0.003114378780    0.010889343913    0.000001664141    0.000001239178    0.022613514539    0.010723577105    0.000004590149    0.000002361669
            -0.000000266184    0.000001861895    0.002827359727    0.009899048828    0.000004590126    0.000002361676    0.021182523799    0.009728651963
0.050     0.031011857578    0.016039661147    -0.000001241126    0.000003988363    0.010055397539    0.019580858931    0.000001576023    0.000004952323
            -0.000001241089    0.000003988339    0.029019660849    0.014633768467    0.000003327465    0.000004650987    0.009214610758    0.017910237589
            0.010055382962    0.019580870914    0.000003327414    0.000004651017    0.030959450796    0.016031231191    0.000006959855    0.000003452420
            0.000001575989    0.000004952343    0.009214526312    0.017910285533    0.000006959829    0.000003452438    0.028939356681    0.014530829048
0.075     0.041368484852    0.017144836041    0.000002954577    0.000007063099    0.020134384979    0.024578771875    0.000005255065    0.000006250708
            0.000002954605    0.000007063064    0.038852416560    0.015761746601    0.000007334877    0.000005820789    0.018638154161    0.022668596479
            0.020134376419    0.024578776302    0.000007334838    0.000005820830    0.041344376184    0.017138602936    0.000009990499    0.000003253812
            0.000005255039    0.000006250737    0.018638087453    0.022668650031    0.000009990477    0.000003253840    0.038758446826    0.015625927129
0.100     0.052165671849    0.013252230955    0.000008147483    0.000006990526    0.031679848160    0.024897302622    0.000009431257    0.000005493044
            0.000008147495    0.000006990494    0.049446327656    0.012355742581    0.000011743776    0.000004555151    0.029691456062    0.023237038597
            0.031679847208    0.024897305452    0.000011743744    0.000004555204    0.052187308247    0.013239717254    0.000013185838    0.000001529065
            0.000009431240    0.000005493078    0.029691406894    0.023237107912    0.000013185826    0.000001529097    0.049347743559    0.012202376749
0.125     0.061278606519    0.004249973117    0.000012742783    0.000004235739    0.042772253317    0.020235636985    0.000013177087    0.000002771304
            0.000012742786    0.000004235700    0.058962536302    0.004148789144    0.000015415939    0.000001084710    0.040731777027    0.019227679366
            0.042772254065    0.020235640080    0.000015415925    0.000001084765    0.061362795323    0.004205302644    0.000015898412    -0.000001770664
            0.000013177080    0.000002771338    0.040731747319    0.019227754013    0.000015898413    -0.000001770639    0.058879729979    0.003978493852
0.150     0.066891725658    -0.009024870550    0.000015805144    -0.000000511247    0.051503987856    0.010955662173    0.000015774073    -0.000001557559
            0.000015805136    -0.000000511284    0.065776048137    -0.008295271152    0.000017542594    -0.000004016948    0.050085960545    0.010790139465
            0.051503989430    0.010955664387    0.000017542594    -0.000004016888    0.067056184426    -0.009113556189    0.000017517008    -0.000006382287
            0.000015774075    -0.000001557525    0.050085949802    0.010790213074    0.000017517017    -0.000006382265    0.065736247231    -0.008470936203
0.175     0.067306004319    -0.025180677207    0.000016752801    -0.000006361645    0.056189054344    -0.001894937489    0.000016701388    -0.000006937965
            0.000016752782    -0.000006361678    0.068279386699    -0.023965590487    0.000017622154    -0.000009990195    0.056203214970    -0.001345949575
            0.056189056409    -0.001894935595    0.000017622168    -0.000009990141    0.067561381884    -0.025345366393    0.000017572209    -0.000011888929
            0.000016701399    -0.000006937929    0.056203221859    -0.001345870730    0.000017572225    -0.000011888910    0.068313401070    -0.024157001046
0.200     0.061449115673    -0.042236036433    0.000015410318    -0.000012441677    0.055584689086    -0.016719227123    0.000015680314    -0.000012727717
            0.000015410295    -0.000012441698    0.065324748303    -0.041304476780    0.000015491515    -0.000016034544    0.057843329435    -0.015963411668
            0.055584691585    -0.016719225759    0.000015491544    -0.000016034491    0.061794522176    -0.042519171812    0.000015764907    -0.000017719288
            0.000015680332    -0.000012727689    0.057843357508    -0.015963332500    0.000015764927    -0.000017719275    0.065460732919    -0.041538695545
0.225     0.048985498502    -0.057881487844    0.000011895701    -0.000017907289    0.049044605975    -0.031534183172    0.000012649526    -0.000018238453
            0.000011895663    -0.000017907311    0.056324553529    -0.058411913744    0.000011252521    -0.000021371502    0.054206672735    -0.031473323486
            0.049044608758    -0.031534182541    0.000011252565    -0.000021371462    0.049403941633    -0.058331073902    0.000011979210    -0.000023252454
            0.000012649551    -0.000018238432    0.054206715429    -0.031473255928    0.000011979232    -0.000023252449    0.056581190592    -0.058730937499
0.250     0.030417157406    -0.069738783631    0.000006561161    -0.000022085529    0.036637100224    -0.044181646062    0.000007755984    -0.000022819094
            0.000006561131    -0.000022085533    0.041353311511    -0.073235983201    0.000005230397    -0.000025345865    0.045041885240    -0.046068530893
            0.036637101634    -0.044181646192    0.000005230452    -0.000025345837    0.030872459438    -0.070401773031    0.000006302454    -0.000027828595
            0.000007756014    -0.000022819081    0.045041939111    -0.046068478222    0.000006302475    -0.000027828594    0.041734327926    -0.073692557438
0.275     0.007071667116    -0.075638608175    -0.000000060993    -0.000024447525    0.019190137579    -0.052566482075    0.000001341775    -0.000025879968
            -0.000000061027    -0.000024447521    0.021157871366    -0.083783474769    -0.000002072935    -0.000027429188    0.030696621588    -0.057895391052
            0.019190144687    -0.052566481609    -0.000002072884    -0.000027429175    0.007507737955    -0.076553463203    -0.000000982630    -0.000030830258
            0.000001341806    -0.000025879965    0.030696693946    -0.057895349291    -0.000000982605    -0.000030830264    0.021647212392    -0.084435788160
0.300     -0.018971150986    -0.073918657776    -0.000007341207    -0.000024675337    -0.001738686695    -0.054931178353    -0.000006085958    -0.000026957279
            -0.000007341246    -0.000024675324    -0.002864311897    -0.088346855968    -0.000010036688    -0.000027276334    0.012123004803    -0.065255737257
            -0.001738684841    -0.054931180413    -0.000010036593    -0.000027276325    -0.018629524337    -0.075107221616    -0.000009385058    -0.000031719709
            -0.000006085929    -0.000026957284    0.012123092952    -0.065255710710    -0.000009385051    -0.000031719728    -0.002305602275    -0.089250739811
0.325     -0.045075172451    -0.063671585970    -0.000014573438    -0.000022651541    -0.023992185229    -0.050106049398    -0.000013876336    -0.000025755203
            -0.000014573463    -0.000022651520    -0.028778293920    -0.085697629509    -0.000017949319    -0.000024736636    -0.009184066039    -0.066792918254
            -0.023992186093    -0.050106051202    -0.000017949274    -0.000024736647    -0.044916199958    -0.065130675740    -0.000018246027    -0.000030123702
            -0.000013876307    -0.000025755212    -0.009183972794    -0.066792913915    -0.000018246024    -0.000030123721    -0.028211999822    -0.086898095536
0.350     -0.068335985616    -0.044949995046    -0.000021067643    -0.000018480134    -0.045050283655    -0.037728938395    -0.000021300686    -0.000022195332
            -0.000021067666    -0.000018480102    -0.054280821160    -0.075269884465    -0.000025085118    -0.000019882034    -0.031315698573    -0.061675621816
            -0.045050284422    -0.037728939037    -0.000025085123    -0.000019882045    -0.068452544472    -0.046644740443    -0.000026772936    -0.000025888128
            -0.000021300655    -0.000022195354    -0.031315611451    -0.061675636892    -0.000026772850    -0.000025888180    -0.053787904035    -0.076792068121
0.375     -0.085938943023    -0.018827849142    -0.000026190509    -0.000012483042    -0.062337389582    -0.018348463870    -0.000027622474    -0.000016447780
            -0.000026190499    -0.000012483026    -0.076927053506    -0.057254990458    -0.000030761021    -0.000013015727    -0.052130509474    -0.049715506476
            -0.062337391501    -0.018348464435    -0.000030760988    -0.000013015758    -0.086416467862    -0.020688957661    -0.000034141623    -0.000019131086
            -0.000027622428    -0.000016447825    -0.052130470417    -0.049715521349    -0.000034141600    -0.000019131128    -0.076601195253    -0.059096230614
0.400     -0.095546959893    0.012665324587    -0.000029456633    -0.000005160148    -0.073581866213    0.006593492413    -0.000032194531    -0.000008921085
            -0.000029456616    -0.000005160140    -0.094397663701    -0.032636541326    -0.000034426529    -0.000004644628    -0.069490981789    -0.031431838241
            -0.073581867209    0.006593492502    -0.000034426605    -0.000004644693    -0.096450227631    0.010740462609    -0.000039584308    -0.000010250400
            -0.000032194475    -0.000008921160    -0.069490909695    -0.031431893290    -0.000039584261    -0.000010250477    -0.094335483180    -0.034761331330
0.425     -0.095619551906    0.046776918735    -0.000030579571    0.000002851811    -0.077119044915    0.034932710843    -0.000034548825    -0.000000224665
            -0.000030579572    0.000002851865    -0.104751914697    -0.003112989981    -0.000035735764    0.000004560044    -0.081491442451    -0.008015694474
            -0.077119029781    0.034932671544    -0.000035735750    0.000004559998    -0.096980730113    0.044917892676    -0.000042513998    0.000000112593
            -0.000034548833    -0.000000224666    -0.081491384297    -0.008015774918    -0.000042514019    0.000000112585    -0.105041954163    -0.005449939688
0.450     -0.085633294163    0.080372556596    -0.000029501839    0.000010853341    -0.072120894482    0.064064820569    -0.000034451896    0.000008902899
            -0.000029501812    0.000010853343    -0.106659400770    0.029060051762    -0.000034580187    0.000013818628    -0.086684400491    0.018781996017
            -0.072120895978    0.064064821898    -0.000034580179    0.000013818541    -0.087441302075    0.078726975358    -0.000042585381    0.000011127209
            -0.000034451884    0.000008902813    -0.086684359851    0.018781923853    -0.000042585401    0.000011127214    -0.107369705788    0.026617657775
0.475     -0.066125994831    0.110324120580    -0.000026304892    0.000018154648    -0.058663081287    0.091279514173    -0.000031866110    0.000017685768
            -0.000026304866    0.000018154692    -0.099540809005    0.061300293547    -0.000030952575    0.000022338166    -0.084224479917    0.046837106652
            -0.058663081287    0.091279514173    -0.000030952581    0.000022338080    -0.068319316561    0.109050431060    -0.000039647122    0.000021886550
            -0.000031866120    0.000017685773    -0.084224460178    0.046837018692    -0.000039647146    0.000021886554    -0.100708949663    0.058896089402
0.500     -0.038601715156    0.133876014056    -0.000021231746    0.000024366853    -0.037668903547    0.114097467420    -0.000026957286    0.000025558860
            -0.000021231726    0.000024366838    -0.083632832697    0.090963754772    -0.000025061751    0.000029748106    -0.073955544281    0.073890131293
            -0.037668906682    0.114097476916    -0.000025061762    0.000029748119    -0.041056422148    0.133159467616    -0.000033800989    0.000031739698
            -0.000026957294    0.000025558867    -0.073955540525    0.073890050163    -0.000033801010    0.000031739707    -0.085258078668    0.088801999847
0.525     -0.005305945687    0.148910359760    -0.000014826012    0.000029156361    -0.010697805295    0.130630099617    -0.000020191852    0.000032073291
            -0.000014825996    0.000029156342    -0.059942016857    0.115598340667    -0.000017567494    0.000035667395    -0.056406018850    0.097895243258
            -0.010697808391    0.130630109397    -0.000017567518    0.000035667365    -0.007803211948    0.149210758681    -0.000025568746    0.000040142854
            -0.000020191904    0.000032073223    -0.056406057239    0.097895151892    -0.000025568763    0.000040142881    -0.062048219323    0.114192942671
0.550     0.031059583476    0.154159162726    -0.000007550042    0.000032288155    0.018765585379    0.138714037165    -0.000012326407    0.000036553193
            -0.000007550042    0.000032288130    -0.030140448971    0.133190170740    -0.000009252732    0.000039427650    -0.033729390669    0.115661458864
            0.018765585379    0.138714037165    -0.000009252727    0.000039427659    0.026602929220    0.154108119251    -0.000016111136    0.000045797625
            -0.000012326410    0.000036553202    -0.033729434431    0.115661383602    -0.000016111199    0.000045797577    -0.034046007617    0.130509826322
0.575     0.067544976349    0.149046684370    0.000000168779    0.000033640621    0.051381809031    0.138270418294    -0.000003158017    0.000039180463
            0.000000168819    0.000033640620    0.003640990569    0.142190851376    0.000000102660    0.000041289285    -0.004971908189    0.127497484244
            0.051381809031    0.138270418294    0.000000102624    0.000041289273    0.064257631895    0.149666973260    -0.000004411602    0.000049422105
            -0.000003158015    0.000039180475    -0.004971938173    0.127497453051    -0.000004411628    0.000049422167    0.000433100072    0.140450122235
0.600     0.101145872621    0.133810514825    0.000007934982    0.000033183888    0.082359350877    0.129135022923    0.000006287334    0.000039649710
            0.000007934976    0.000033183858    0.038852710546    0.141598811823    0.000009486065    0.000041023842    0.025704441830    0.131379044050
            0.082359348623    0.129135024360    0.000009485987    0.000041023820    0.098422027726    0.135432992408    0.000007660767    0.000050342149
            0.000006287339    0.000039649723    0.025704368771    0.131378987017    0.000007660689    0.000050342145    0.035589679991    0.140908607901
0.625     0.128953605060    0.110378020984    0.000015277552    0.000031245296    0.109711426915    0.112142423870    0.000015604840    0.000038093994
            0.000015277583    0.000031245278    0.072324091533    0.131958093862    0.000018525460    0.000038833725    0.056358268778    0.127266845728
            0.109711426915    0.112142423870    0.000018525471    0.000038833736    0.127300212389    0.112283766048    0.000019832235    0.000048465269
            0.000015604803    0.000038094000    0.056358186732    0.127266816441    0.000019832206    0.000048465284    0.069741765090    0.131922655168
0.650     0.149805819388    0.079964183791    0.000022337930    0.000027846302    0.131887888928    0.088002366954    0.000024670228    0.000034517637
            0.000022337909    0.000027846285    0.102782158816    0.113829320558    0.000027141803    0.000034777786    0.085512360193    0.115169108440
            0.131887888928    0.088002366954    0.000027141722    0.000034777802    0.148700408056    0.081938488060    0.000031559689    0.000043807979
            0.000024670240    0.000034517643    0.085512272163    0.115169099071    0.000031559708    0.000043808000    0.100477834241    0.114083448276
0.675     0.161367577745    0.044555846607    0.000028720770    0.000022931356    0.146685955670    0.058246912513    0.000033015126    0.000028885955
            0.000028720743    0.000022931342    0.127544073678    0.087912991730    0.000034926844    0.000028864460    0.110777677266    0.095523445565
            0.146685955670    0.058246912513    0.000034926821    0.000028864477    0.160893087210    0.046612226614    0.000042308997    0.000036446898
            0.000033015098    0.000028885972    0.110777634540    0.095523449175    0.000042308980    0.000036446925    0.125583963118    0.088562268550
0.700     0.162487121500    0.006944418147    0.000034166757    0.000016612001    0.152681701669    0.025042939980    0.000040236774    0.000021300402
            0.000034166735    0.000016611996    0.144669674823    0.056060435568    0.000041547846    0.000021217690    0.130248839331    0.069589464682
            0.152681701669    0.025042939980    0.000041547855    0.000021217692    0.162716567153    0.008915292741    0.000051518442    0.000026513685
            0.000040236794    0.000021300406    0.130248746012    0.069589490800    0.000051518476    0.000026513690    0.143204060198    0.057045190153
0.725     0.152748995766    -0.029920710670    0.000038407912    0.000008969490    0.148987762516    -0.009115527863    0.000045910063    0.000011884303
            0.000038407884    0.000008969493    0.152800230288    0.020456268962    0.000046658023    0.000011961055    0.142383778520    0.039016061502
            0.148987762516    -0.009115527863    0.000046657975    0.000011961117    0.153682641817    -0.028249370069    0.000058598512    0.000014227635
            0.000045910073    0.000011884300    0.142383693304    0.039016107614    0.000058598538    0.000014227633    0.151950252018    0.021644130307
0.750     0.132516421387    -0.062983671607    0.000041103948    0.000000122117    0.135385549978    -0.041453711080    0.000049545364    0.000000845354
            0.000041103963    0.000000122052    0.151159566001    -0.016435478440    0.000049843801    0.000001275667    0.146080148169    0.005819248313
            0.135385559540    -0.041453714008    0.000049843813    0.000001275658    0.134081234236    -0.061832817664    0.000062919691    -0.000000059999
            0.000049545374    0.000000845346    0.146080085565    0.005819312469    0.000062919717    -0.000000060010    0.151003255661    -0.015217920315
0.775     0.103013311203    -0.089257777793    0.000041858886    -0.000009716594    0.112458379576    -0.069066916692    0.000050616104    -0.000011464669
            0.000041858866    -0.000009716574    0.139616855429    -0.051990235031    0.000050646710    -0.000010543101    0.140758173897    -0.027708772948
            0.112458384231    -0.069066870895    0.000050646719    -0.000010543112    0.105063931412    -0.088830907481    0.000063850663    -0.000015815421
            0.000050616113    -0.000011464679    0.140758127600    -0.027708697485    0.000063850684    -0.000015815442    0.140180854093    -0.050941551770
