# GHz S RI R 45
0.000     0.016910431000    0.000000000000    0.000001460302    -0.000000000000    0.000514524540    -0.000000000000    -0.000003118024    0.000000000000
            0.000001460197    -0.000000000000    0.017552872000    0.000000000000    -0.000003241873    0.000000000000    0.000582250430    0.000000000000
            0.000514520990    -0.000000000000    -0.000003241915    0.000000000000    0.016870794000    0.000000000000    0.000028213345    -0.000000000000
            -0.000003118043    0.000000000000    0.000582361860    0.000000000000    0.000028213456    -0.000000000000    0.017566748000    0.000000000000
0.025     0.022673928316    0.010741391453    0.000001254385    -0.000006278675    0.003114403427    0.010889294221    -0.000000278636    -0.000006036556
            0.000001254278    -0.000006278656    0.022088970039    0.010343943234    0.000001561288    -0.000003231613    0.002207300831    0.010630697980
            0.003114378780    0.010889343913    0.000001561255    -0.000003231624    0.022613514539    0.010723577105    -0.000012990993    -0.000030906345
            -0.000000278663    -0.000006036556    0.002207293359    0.010630525905    -0.000012990892    -0.000030906360    0.021999146116    0.010291625470
0.050     0.031011857578    0.016039661147    -0.000002626048    -0.000012730814    0.010055397539    0.019580858931    -0.000003910711    -0.000015708936
            -0.000002626149    -0.000012730779    0.027315504041    0.016393828709    -0.000000760273    -0.000011759932    0.006627738317    0.020043801846
            0.010055382962    0.019580870914    -0.000000760298    -0.000011759928    0.030959450796    0.016031231191    -0.000030346226    -0.000019510911
            -0.000003910739    -0.000015708932    0.006627880186    0.020043780213    -0.000030346125    -0.000019510943    0.027166328670    0.016315496095
0.075     0.041368484852    0.017144836041    -0.000008925010    -0.000017143755    0.020134384979    0.024578771875    -0.000012252946    -0.000022342660
            -0.000008925095    -0.000017143707    0.033203526783    0.020215476294    -0.000007271969    -0.000017474752    0.013145340723    0.027407243882
            0.020134376419    0.024578776302    -0.000007271995    -0.000017474745    0.041344376184    0.017138602936    -0.000035773694    -0.000011898140
            -0.000012252965    -0.000022342658    0.013145457223    0.027407227932    -0.000035773599    -0.000011898191    0.032973314398    0.020149518902
0.100     0.052165671849    0.013252230955    -0.000016654281    -0.000019080422    0.031679848160    0.024897302622    -0.000022864282    -0.000025331106
            -0.000016654364    -0.000019080356    0.039071695041    0.021638690657    -0.000015655464    -0.000020070791    0.020836057030    0.032222362159
            0.031679847208    0.024897305452    -0.000015655491    -0.000020070782    0.052187308247    0.013239717254    -0.000039021821    -0.000006461882
            -0.000022864301    -0.000025331101    0.020836167568    0.032222340697    -0.000039021736    -0.000006461945    0.038759019490    0.021631104293
0.125     0.061278606519    0.004249973117    -0.000024923167    -0.000018467120    0.042772253317    0.020235636985    -0.000034342674    -0.000024579977
            -0.000024923236    -0.000018467042    0.043913329572    0.020848633747    -0.000024642419    -0.000019622737    0.028709167208    0.034380486430
            0.042772254065    0.020235640080    -0.000024642446    -0.000019622723    0.061362795323    0.004205302644    -0.000041917048    -0.000001947701
            -0.000034342701    -0.000024579961    0.028709276022    0.034380459403    -0.000041916976    -0.000001947779    0.043540269961    0.020949050321
0.150     0.066891725658    -0.009024870550    -0.000033087363    -0.000015408331    0.051503987856    0.010955662173    -0.000045684236    -0.000020239364
            -0.000033087419    -0.000015408245    0.047045903519    0.018500075065    -0.000033431461    -0.000016364520    0.035775842295    0.034087627067
            0.051503989430    0.010955664387    -0.000033431485    -0.000016364503    0.067056184426    -0.009113556189    -0.000044951740    0.000002582424
            -0.000045684322    -0.000020239096    0.035775954489    0.034087593396    -0.000044951621    0.000002582204    0.046650288596    0.018741658986
0.175     0.067306004319    -0.025180677207    -0.000040643117    -0.000010115574    0.056189054344    -0.001894937489    -0.000056046116    -0.000012612562
            -0.000040643155    -0.000010115479    0.047902977168    0.015418307441    -0.000041401811    -0.000010626997    0.041211084659    0.031929463888
            0.056189056409    -0.001894935595    -0.000041401823    -0.000010627000    0.067561381884    -0.025345366393    -0.000048303164    0.000007745656
            -0.000056046122    -0.000012612573    0.041211190602    0.031929425112    -0.000048303121    0.000007745553    0.047541810310    0.015817221092
0.200     0.061449115673    -0.042236036433    -0.000047241007    -0.000002747319    0.055584689086    -0.016719227123    -0.000064821465    -0.000002014108
            -0.000047241031    -0.000002747213    0.046260957521    0.012648873405    -0.000048160670    -0.000002680163    0.044468960059    0.028761720099
            0.055584691585    -0.016719225759    -0.000048160712    -0.000002680089    0.061794522176    -0.042519171812    -0.000051781235    0.000014079510
            -0.000064821505    -0.000002014030    0.044469067347    0.028761673906    -0.000051781211    0.000014079407    0.045998569328    0.013195711075
0.225     0.048985498502    -0.057881487844    -0.000052527262    0.000006584525    0.049044605975    -0.031534183172    -0.000071424578    0.000011235308
            -0.000052527267    0.000006584628    0.042332358884    0.011289341930    -0.000053332714    0.000007246944    0.045362862378    0.025589809612
            0.049044608758    -0.031534182541    -0.000053332747    0.000007247024    0.049403941633    -0.058331073902    -0.000055038445    0.000022130189
            -0.000071424599    0.000011235349    0.045362961487    0.025589760110    -0.000055038447    0.000022130134    0.042228032408    0.011946710600
0.250     0.030417157406    -0.069738783631    -0.000056072491    0.000017822223    0.036637100224    -0.044181646062    -0.000075276723    0.000026839008
            -0.000056072480    0.000017822316    0.036760770152    0.012334031528    -0.000056512035    0.000019000516    0.044105471337    0.023438073271
            0.036637101634    -0.044181646192    -0.000056512048    0.000019000509    0.030872459438    -0.070401773031    -0.000057398088    0.000032210502
            -0.000075276738    0.000026839103    0.044105563805    0.023438020731    -0.000057398095    0.000032210401    0.036856446067    0.013040188165
0.275     0.007071667116    -0.075638608175    -0.000057284006    0.000030812722    0.019190137579    -0.052566482075    -0.000075681334    0.000044361431
            -0.000057283974    0.000030812821    0.030570990508    0.016491750549    -0.000057152492    0.000032334205    0.041298832384    0.023194851682
            0.019190144687    -0.052566481609    -0.000057152499    0.000032334248    0.007507737955    -0.076553463203    -0.000057970090    0.000044488911
            -0.000075681344    0.000044361436    0.041298926364    0.023194792581    -0.000057970122    0.000044488807    0.030881620066    0.017168796122
0.300     -0.018971150986    -0.073918657776    -0.000055438558    0.000045199812    -0.001738686695    -0.054931178353    -0.000071894837    0.000063162958
            -0.000055438512    0.000045199904    0.025044377588    0.024062123951    -0.000054605542    0.000046830275    0.037873221145    0.025473592962
            -0.001738684841    -0.054931180413    -0.000054605531    0.000046830365    -0.018629524337    -0.075107221616    -0.000055709083    0.000058645464
            -0.000071894857    0.000063162954    0.037873306977    0.025473531646    -0.000055709132    0.000058645372    0.025552954548    0.024628456067
0.325     -0.045075172451    -0.063671585970    -0.000049792311    0.000060257033    -0.023992185229    -0.050106049398    -0.000063222997    0.000082217215
            -0.000049792253    0.000060257113    0.021554901643    0.034832751372    -0.000048221776    0.000061721103    0.034964121834    0.030487409916
            -0.023992186093    -0.050106051202    -0.000048221795    0.000061721105    -0.044916199958    -0.065130675740    -0.000049574599    0.000073956833
            -0.000063222986    0.000082217261    0.034964205860    0.030487342461    -0.000049574658    0.000073956753    0.022211449605    0.035215876481
0.350     -0.068335985616    -0.044949995046    -0.000039790040    0.000074866836    -0.045050283655    -0.037728938395    -0.000049241621    0.000100144846
            -0.000039789974    0.000074866900    0.021365143907    0.048070267103    -0.000037547748    0.000075890680    0.033748559806    0.037988837570
            -0.045050284422    -0.037728939037    -0.000037547766    0.000075890682    -0.068452544472    -0.046644740443    -0.000038825169    0.000089136788
            -0.000049241630    0.000100144864    0.033748645339    0.037988764259    -0.000038825247    0.000089136712    0.022092570795    0.048220339909
0.375     -0.085938943023    -0.018827849142    -0.000025302857    0.000087568917    -0.062337389582    -0.018348463870    -0.000030023746    0.000115257659
            -0.000025302775    0.000087568978    0.025422376608    0.062570896071    -0.000022554010    0.000087914621    0.035250565789    0.047268599409
            -0.062337391501    -0.018348464435    -0.000022553965    0.000087914700    -0.086416467862    -0.020688957661    -0.000023193731    0.000102574727
            -0.000030023769    0.000115257663    0.035250638640    0.047268530111    -0.000023193796    0.000102574681    0.026126701873    0.062470315719
0.400     -0.095546959893    0.012665324587    -0.000006804350    0.000096807127    -0.073581866213    0.006593492413    -0.000006294039    0.000125852081
            -0.000006804265    0.000096807169    0.034189312420    0.076817585295    -0.000003788585    0.000096310968    0.040169806695    0.057253351935
            -0.073581867209    0.006593492502    -0.000003788526    0.000096311044    -0.096450227631    0.010740462609    -0.000003143274    0.000112521315
            -0.000006294057    0.000125852091    0.040169868304    0.057253286722    -0.000003143356    0.000112521273    0.034774297585    0.076486312598
0.425     -0.095619551906    0.046776918735    0.000014583002    0.000101215354    -0.077119044915    0.034932710843    0.000020544794    0.000130488268
            0.000014583084    0.000101215383    0.047545279049    0.089179823868    0.000017583063    0.000099809634    0.048752890188    0.066654657184
            -0.077119029781    0.034932671544    0.000017583135    0.000099809703    -0.096980730113    0.044917892676    0.000020199734    0.000117470227
            0.000020544827    0.000130488313    0.048752949935    0.066654589943    0.000020199646    0.000117470202    0.047927218356    0.088673165413
0.450     -0.085633294163    0.080372556596    0.000037228299    0.000099933873    -0.072120894482    0.064064820569    0.000048591067    0.000128321923
            0.000037228388    0.000099933882    0.064789031429    0.098154557164    0.000039931736    0.000097654604    0.060756136386    0.074172433515
            -0.072120895978    0.064064821898    0.000039931732    0.000097654628    -0.087441302075    0.078726975358    0.000045126077    0.000116446010
            0.000048591149    0.000128321977    0.060756193564    0.074172365997    0.000045125983    0.000116445992    0.064909733896    0.097555328881
0.475     -0.066125994831    0.110324120580    0.000059266417    0.000092746224    -0.058663081287    0.091279514173    0.000075736565    0.000119213838
            0.000059266500    0.000092746218    0.084728766445    0.102566321166    0.000061432149    0.000089719576    0.075480989034    0.078672325257
            -0.058663081287    0.091279514173    0.000061432143    0.000089719604    -0.068319316561    0.109050431060    0.000069719441    0.000109146147
            0.000075736533    0.000119213906    0.075481038350    0.078672250226    0.000069719366    0.000109146160    0.084563080857    0.101971627811
0.500     -0.038601715156    0.133876014056    0.000078997135    0.000080151473    -0.037668903547    0.114097467420    0.000100101235    0.000103795810
            0.000078997206    0.000080151459    0.105851887596    0.101719732007    0.000080477903    0.000076570679    0.091887086265    0.079339369280
            -0.037668906682    0.114097476916    0.000080477906    0.000076570704    -0.041056422148    0.133159467616    0.000092237385    0.000096014382
            0.000100101326    0.000103795847    0.091887143039    0.079339303527    0.000092237310    0.000096014398    0.105405388721    0.101226490502
0.525     -0.005305945687    0.148910359760    0.000095032663    0.000063252606    -0.010697805295    0.130630099617    0.000120166604    0.000083333623
            0.000095032738    0.000063252584    0.126515901241    0.095456041726    0.000095916197    0.000059360171    0.108728508068    0.075756883210
            -0.010697808391    0.130630109397    0.000095916253    0.000059360194    -0.007803211948    0.149210758681    0.000111435990    0.000078128848
            0.000120166711    0.000083333645    0.108728577873    0.075756765531    0.000111435911    0.000078128874    0.125812650403    0.095160314519
0.550     0.031059583476    0.154159162726    0.000106537590    0.000043429195    0.018765585379    0.138714037165    0.000135039584    0.000059363293
            0.000106537667    0.000043429163    0.145145186884    0.084140960958    0.000105816037    0.000040324464    0.124725834776    0.067944149493
            0.018765585379    0.138714037165    0.000105816071    0.000040324572    0.026602929220    0.154108119251    0.000124882397    0.000057887069
            0.000135039597    0.000059363312    0.124725886248    0.067944075910    0.000124882316    0.000057887103    0.144238566523    0.084165621418
0.575     0.067544976349    0.149046684370    0.000113111374    0.000022137821    0.051381809031    0.138270418294    0.000144271089    0.000033465148
            0.000113111433    0.000022137777    0.160371650396    0.068587995960    0.000111726296    0.000018686382    0.138709867019    0.056277179724
            0.051381809031    0.138270418294    0.000111726400    0.000018686365    0.064257631895    0.149666973260    0.000134566788    0.000033893433
            0.000144271105    0.000033465165    0.138709934663    0.056277066196    0.000134566806    0.000033893445    0.159409909062    0.069043397514
0.600     0.101145872621    0.133810514825    0.000114863340    0.000000728502    0.082359350877    0.129135022923    0.000147933361    0.000007081113
            0.000114863400    0.000000728448    0.171153723621    0.049966855750    0.000113002871    -0.000002421374    0.149652965403    0.041420829495
            0.082359348623    0.129135024360    0.000113002980    -0.000002421409    0.098422027726    0.135432992408    0.000139377152    0.000009766588
            0.000147933381    0.000007081123    0.149653007089    0.041420753860    0.000139377171    0.000009766601    0.170318059150    0.050857901677
0.625     0.128953605060    0.110378020984    0.000112596666    -0.000019427731    0.109711426915    0.112142423870    0.000146846098    -0.000018233973
            0.000112596680    -0.000019427767    0.176837086112    0.029682563783    0.000110224782    -0.000022415154    0.156730150060    0.024329923798
            0.109711426915    0.112142423870    0.000110224813    -0.000022415148    0.127300212389    0.112283766048    0.000139752970    -0.000014032704
            0.000146846119    -0.000018233967    0.156730193420    0.024329840045    0.000139753000    -0.000014032699    0.176269906406    0.030947061528
0.650     0.149805819388    0.079964183791    0.000107082711    -0.000038098168    0.131887888928    0.088002366954    0.000141834953    -0.000042299697
            0.000107082722    -0.000038098107    0.177191382306    0.009258456253    0.000104193770    -0.000040623369    0.159425591603    0.006175921990
            0.131887888928    0.088002366954    0.000104193792    -0.000040623368    0.148700408056    0.081938488060    0.000136340744    -0.000036802136
            0.000141835031    -0.000042299682    0.159425625008    0.006175834668    0.000136340767    -0.000036802129    0.177003711307    0.010802629577
0.675     0.161367577745    0.044555846607    0.000098960970    -0.000054688522    0.146685955670    0.058246912513    0.000133429517    -0.000064451699
            0.000098960947    -0.000054688523    0.172412034704    -0.009767718333    0.000095759610    -0.000056725680    0.157559520046    -0.011746763512
            0.146685955670    0.058246912513    0.000095759640    -0.000056725687    0.160893087210    0.046612226614    0.000129819042    -0.000058176970
            0.000133429537    -0.000064451704    0.157559559882    -0.011746901701    0.000129819063    -0.000058176971    0.172687521315    -0.008066114779
0.700     0.162487121500    0.006944418147    0.000089119842    -0.000069120349    0.152681701669    0.025042939980    0.000122464944    -0.000084534267
            0.000089119730    -0.000069120380    0.163128777982    -0.025945900028    0.000085704878    -0.000070733220    0.151335238816    -0.028096368614
            0.152681701669    0.025042939980    0.000085704906    -0.000070733233    0.162716567153    0.008915292741    0.000120787355    -0.000078075316
            0.000122464962    -0.000084534276    0.151335261962    -0.028096463078    0.000120787369    -0.000078075313    0.163915329331    -0.024233870986
0.725     0.152748995766    -0.029920710670    0.000078236072    -0.000081677607    0.148987762516    -0.009115527863    0.000109538610    -0.000102732389
            0.000078236055    -0.000081677595    0.150384257787    -0.038020491485    0.000074623757    -0.000082942180    0.141357075179    -0.041584758388
            0.148987762516    -0.009115527863    0.000074623776    -0.000082942190    0.153682641817    -0.028249370069    0.000109646277    -0.000096653103
            0.000109538634    -0.000102732393    0.141357106044    -0.041584901501    0.000109646290    -0.000096653118    0.151684353141    -0.036461257212
0.750     0.132516421387    -0.062983671607    0.000066681992    -0.000092896017    0.135385549978    -0.041453711080    0.000094938055    -0.000119436479
            0.000066681969    -0.000092895996    0.135606135190    -0.045052761907    0.000062812673    -0.000093855297    0.128654229455    -0.051099663718
            0.135385559540    -0.041453714008    0.000062812694    -0.000093855319    0.134081234236    -0.061832817664    0.000096520230    -0.000114205537
            0.000094938086    -0.000119436531    0.128654250668    -0.051099854121    0.000096520273    -0.000114205552    0.137371009551    -0.043811050536
0.775     0.103013311203    -0.089257777793    0.000054397417    -0.000103398758    0.112458379576    -0.069066916692    0.000078539820    -0.000135063920
            0.000054397412    -0.000103399201    0.120530505102    -0.046552365063    0.000050161468    -0.000104023138    0.114638662078    -0.055862332851
            0.112458384231    -0.069066870895    0.000050161491    -0.000104023149    0.105063931412    -0.088830907481    0.000081159184    -0.000131006676
            0.000078539841    -0.000135063966    0.114638678966    -0.055862435165    0.000081159207    -0.000131006238    0.122655769482    -0.045777932309
