# GHz S RI R 45
0.000     0.016910431000    0.000000000000    0.000001605462    0.000000000000    0.000514524540    -0.000000000000    -0.000019868796    0.000000000000
            0.000001605658    0.000000000000    0.016823658000    0.000000000000    0.000012608281    0.000000000000    0.000464517390    0.000000000000
            0.000514520990    -0.000000000000    0.000012610279    0.000000000000    0.016870794000    0.000000000000    -0.000006029296    0.000000000000
            -0.000019868653    0.000000000000    0.000464517340    0.000000000000    -0.000006029279    0.000000000000    0.016815384000    0.000000000000
0.025     0.022673928316    0.010741391453    -0.000020102183    -0.000064082331    0.003114403427    0.010889294221    -0.000037184438    -0.000063962218
            -0.000020102190    -0.000064082314    0.021127336235    0.010087383235    -0.000024733401    -0.000074829300    0.001954004346    0.010200607832
            0.003114378780    0.010889343913    -0.000024733416    -0.000074829304    0.022613514539    0.010723577105    -0.000020151565    -0.000066986057
            -0.000037184431    -0.000063962205    0.001953881227    0.010200442034    -0.000020151573    -0.000066986042    0.021050042128    0.010107495806
0.050     0.031011857578    0.016039661147    -0.000059257741    -0.000109900410    0.010055397539    0.019580858931    -0.000083293149    -0.000115164176
            -0.000059257746    -0.000109900419    0.025959517631    0.016078301428    -0.000069013682    -0.000115148889    0.005899505811    0.019316891845
            0.010055382962    0.019580870914    -0.000069013682    -0.000115148889    0.030959450796    0.016031231191    -0.000061906473    -0.000123960306
            -0.000083293155    -0.000115164184    0.005899535907    0.019316880562    -0.000061906473    -0.000123960306    0.025862051733    0.016137513130
0.075     0.041368484852    0.017144836041    -0.000113155819    -0.000140650821    0.020134384979    0.024578771875    -0.000146826105    -0.000141541851
            -0.000113155819    -0.000140650821    0.031326937892    0.020123767449    -0.000122333375    -0.000143469490    0.011733688507    0.026714087112
            0.020134376419    0.024578776302    -0.000122333375    -0.000143469490    0.041344376184    0.017138602936    -0.000124556472    -0.000161082158
            -0.000146826034    -0.000141541882    0.011733693973    0.026714086895    -0.000124556465    -0.000161082150    0.031210621918    0.020240689730
0.100     0.052165671849    0.013252230955    -0.000177482962    -0.000152377516    0.031679848160    0.024897302622    -0.000216846095    -0.000142423329
            -0.000177482969    -0.000152377523    0.036713286165    0.022117393824    -0.000185439677    -0.000155401108    0.018721266752    0.031971890422
            0.031679847208    0.024897305452    -0.000185439782    -0.000155401030    0.052187308247    0.013239717254    -0.000199152343    -0.000174221327
            -0.000216846012    -0.000142423382    0.018721267257    0.031971891285    -0.000199152419    -0.000174221270    0.036588436314    0.022311520037
0.125     0.061278606519    0.004249973117    -0.000245959159    -0.000143929647    0.042772253317    0.020235636985    -0.000285914273    -0.000120207904
            -0.000245959159    -0.000143929647    0.041293597931    0.022210188242    -0.000254006239    -0.000148384424    0.026073736228    0.034972433352
            0.042772254065    0.020235640080    -0.000254006239    -0.000148384424    0.061362795323    0.004205302644    -0.000277084810    -0.000162923407
            -0.000285914273    -0.000120207904    0.026073736228    0.034972433352    -0.000277084810    -0.000162923407    0.041175930347    0.022499131804
0.150     0.066891725658    -0.009024870550    -0.000313423095    -0.000115283025    0.051503987856    0.010955662173    -0.000347303960    -0.000077396945
            -0.000313423143    -0.000115282981    0.044541191289    0.020964821713    -0.000323105453    -0.000121805327    0.032984890814    0.035824381554
            0.051503989430    0.010955664387    -0.000323105453    -0.000121805327    0.067056184426    -0.009113556189    -0.000351737549    -0.000128571710
            -0.000347303894    -0.000077397058    0.032984890814    0.035824381554    -0.000351737549    -0.000128571710    0.044467094226    0.021360860506
0.175     0.067306004319    -0.025180677207    -0.000375391043    -0.000067887239    0.056189054344    -0.001894937489    -0.000396917051    -0.000018794020
            -0.000375391043    -0.000067887239    0.045993977901    0.019023291426    -0.000388584950    -0.000076097891    0.038761296164    0.034945129875
            0.056189056409    -0.001894935595    -0.000388584950    -0.000076097891    0.067561381884    -0.025345366393    -0.000418083768    -0.000074334449
            -0.000396917051    -0.000018794020    0.038761296164    0.034945129875    -0.000418083801    -0.000074334380    0.046004875643    0.019521885573
0.200     0.061449115673    -0.042236036433    -0.000428468408    -0.000003584377    0.055584689086    -0.016719227123    -0.000433309879    0.000051034703
            -0.000428468408    -0.000003584377    0.045448508945    0.017216639310    -0.000446827141    -0.000012146666    0.042913645190    0.032974290508
            0.055584691585    -0.016719225759    -0.000446827141    -0.000012146666    0.061794522176    -0.042519171812    -0.000473193502    -0.000003597844
            -0.000433309899    0.000051034706    0.042913645190    0.032974290508    -0.000473193512    -0.000003597844    0.045584158484    0.017795913759
0.225     0.048985498502    -0.057881487844    -0.000469769183    0.000075954246    0.049044605975    -0.031534183172    -0.000456577444    0.000128858833
            -0.000469769193    0.000075954248    0.043046191862    0.016426354195    -0.000494398931    0.000069286144    0.045221537187    0.030683212693
            0.049044608758    -0.031534182541    -0.000494398931    0.000069286144    0.049403941633    -0.058331073902    -0.000515347105    0.000080963853
            -0.000456577368    0.000128858295    0.045221537187    0.030683212693    -0.000515347115    0.000080963854    0.043338645263    0.017048128416
0.250     0.030417157406    -0.069738783631    -0.000496433022    0.000169249362    0.036637100224    -0.044181646062    -0.000467289721    0.000213232340
            -0.000496433022    0.000169249362    0.039270114657    0.017463681167    -0.000527479911    0.000167304294    0.045768359865    0.028879995227
            0.036637101634    -0.044181646192    -0.000527479911    0.000167304294    0.030872459438    -0.070401773031    -0.000543230197    0.000177789569
            -0.000467289721    0.000213232340    0.045768359865    0.028879995227    -0.000543230197    0.000177789569    0.039737048501    0.018077157588
0.275     0.007071667116    -0.075638608175    -0.000505011397    0.000274603869    0.019190137579    -0.052566482075    -0.000465088626    0.000304075880
            -0.000505011397    0.000274603869    0.034909676017    0.020923142754    -0.000541432866    0.000280497623    0.044939478699    0.028292214373
            0.019190144687    -0.052566481609    -0.000541432866    0.000280497623    0.007507737955    -0.076553463203    -0.000554764834    0.000286028269
            -0.000465088634    0.000304075886    0.044939478699    0.028292214373    -0.000554764834    0.000286028269    0.035550006705    0.021470522988
0.300     -0.018971150986    -0.073918657776    -0.000491451203    0.000389417205    -0.001738686695    -0.054931178353    -0.000447956491    0.000401792771
            -0.000491451203    0.000389417205    0.030966100694    0.027089866756    -0.000530879604    0.000406041405    0.043384230160    0.029464207856
            -0.001738684841    -0.054931180413    -0.000530879604    0.000406041405    -0.018629524337    -0.075107221616    -0.000546617642    0.000404745580
            -0.000447956491    0.000401792771    0.043384230160    0.029464207856    -0.000546617642    0.000404745580    0.031757288236    0.027513515274
0.325     -0.045075172451    -0.063671585970    -0.000451421863    0.000509303501    -0.023992185229    -0.050106049398    -0.000411955903    0.000505754510
            -0.000451421863    0.000509303501    0.028529653844    0.035853922514    -0.000490180510    0.000538920308    0.041932533343    0.032657904013
            -0.023992186093    -0.050106051202    -0.000490180510    0.000538920308    -0.044916199958    -0.065130675740    -0.000514144656    0.000531566024
            -0.000411955903    0.000505754510    0.041932533343    0.032657904013    -0.000514144656    0.000531566024    0.029428022001    0.036104772693
0.350     -0.068335985616    -0.044949995046    -0.000381407248    0.000627612143    -0.045050283655    -0.037728938395    -0.000352022107    0.000613092391
            -0.000381407285    0.000627612203    0.028628051973    0.046701622829    -0.000414673468    0.000671435318    0.041483704612    0.037801072809
            -0.045050284422    -0.037728939037    -0.000414673452    0.000671435293    -0.068452544472    -0.046644740443    -0.000452359106    0.000661665297
            -0.000352022112    0.000613092400    0.041483704612    0.037801072809    -0.000452359106    0.000661665297    0.029572437157    0.046747351643
0.375     -0.085938943023    -0.018827849142    -0.000280057465    0.000735288869    -0.062337389582    -0.018348463870    -0.000263390421    0.000717775193
            -0.000280057461    0.000735288859    0.032072945026    0.058741121961    -0.000302036695    0.000793363990    0.042866085284    0.044469200772
            -0.062337391501    -0.018348464435    -0.000302036699    0.000793363999    -0.086416467862    -0.020688957661    -0.000357485698    0.000786987863
            -0.000263390421    0.000717775193    0.042866085284    0.044469200772    -0.000357485702    0.000786987873    0.032991169961    0.058571932984
0.400     -0.095546959893    0.012665324587    -0.000149728067    0.000821480373    -0.073581866213    0.006593492413    -0.000143464155    0.000810935552
            -0.000149728067    0.000821480373    0.039326744948    0.070810439124    -0.000153740601    0.000893089323    0.046709781336    0.051940540002
            -0.073581867209    0.006593492502    -0.000153740601    0.000893089323    -0.096450227631    0.010740462609    -0.000229028609    0.000896421655
            -0.000143464155    0.000810935552    0.046709779761    0.051940540074    -0.000229028609    0.000896421655    0.040144913152    0.070443294990
0.425     -0.095619551906    0.046776918735    0.000002756983    0.000873500569    -0.077119044915    0.034932710843    0.000006579357    0.000881973200
            0.000002756983    0.000873500579    0.050413633976    0.081614792693    0.000024221097    0.000959308486    0.053337406376    0.059286094320
            -0.077119029781    0.034932671544    0.000024221097    0.000959308486    -0.096980730113    0.044917892676    -0.000071380295    0.000975396695
            0.000006579357    0.000881973210    0.053337406376    0.059286094320    -0.000071380329    0.000975396702    0.051065932816    0.081092787830
0.450     -0.085633294163    0.080372556596    0.000170605111    0.000874597596    -0.072120894482    0.064064820569    0.000180767993    0.000920478770
            0.000170605113    0.000874597606    0.064901826673    0.089906301093    0.000221204433    0.000983033352    0.062715947705    0.065510296481
            -0.072120895978    0.064064821898    0.000221204433    0.000983033352    -0.087441302075    0.078726975358    0.000110337235    0.001002595881
            0.000180768009    0.000920478767    0.062715947705    0.065510296481    0.000110337217    0.001002595883    0.065339423977    0.089294162572
0.475     -0.066125994831    0.110324120580    0.000366735727    0.000820248700    -0.058663081287    0.091279514173    0.000369050295    0.000916870438
            0.000366736176    0.000820248783    0.081946421623    0.094640831193    0.000423546747    0.000957634831    0.074456271629    0.069681379448
            -0.058663081287    0.091279514173    0.000423546747    0.000957634831    -0.068319316561    0.109050431060    0.000335027235    0.000969457799
            0.000369050295    0.000916870438    0.074456271629    0.069681379448    0.000335027235    0.000969457799    0.082144691737    0.094018694575
0.500     -0.038601715156    0.133876014056    0.000571504303    0.000750372591    -0.037668903547    0.114097467420    0.000561477428    0.000866193638
            0.000571504316    0.000750372581    0.100400229053    0.095115061166    0.000619981288    0.000881687001    0.087876528960    0.071059087373
            -0.037668906682    0.114097476916    0.000619981288    0.000881687001    -0.041056422148    0.133159467616    0.000577718722    0.000920395672
            0.000561477428    0.000866193638    0.087876528960    0.071059087373    0.000577718706    0.000920395682    0.100362144656    0.094567803263
0.525     -0.005305945687    0.148910359760    0.000741218319    0.000653042603    -0.010697805295    0.130630099617    0.000744775759    0.000770308539
            0.000741218330    0.000653042590    0.118949746348    0.091034482291    0.000800805463    0.000762571365    0.102089382221    0.069168031265
            -0.010697808391    0.130630109397    0.000800805463    0.000762571365    -0.007803211948    0.149210758681    0.000790238829    0.000833264798
            0.000744775759    0.000770308539    0.102089382221    0.069168031265    0.000790238829    0.000833264798    0.118707472711    0.090642738965
0.550     0.031059583476    0.154159162726    0.000875795439    0.000520356172    0.018765585379    0.138714037165    0.000906256276    0.000633290004
            0.000875795439    0.000520356172    0.136271719653    0.082536297230    0.000941169108    0.000615723912    0.116115407760    0.063842652391
            0.018765585379    0.138714037165    0.000941169108    0.000615723912    0.026602929220    0.154108119251    0.000959734186    0.000703342842
            0.000906256287    0.000633289988    0.116115407760    0.063842652391    0.000959734242    0.000703342934    0.135882881047    0.082366068026
0.575     0.067544976349    0.149046684370    0.000974611262    0.000361416420    0.051381809031    0.138270418294    0.001035190230    0.000462117251
            0.000974611262    0.000361416420    0.151159557914    0.070149346384    0.001053497671    0.000432387443    0.128976691426    0.055218938136
            0.051381809031    0.138270418294    0.001053497671    0.000432387443    0.064257631895    0.149666973260    0.001103927189    0.000523861902
            0.001035190230    0.000462117251    0.128976691426    0.055218938136    0.001103927189    0.000523861902    0.150703544824    0.070245927597
0.600     0.101145872621    0.133810514825    0.001036223077    0.000186883472    0.082359350877    0.129135022923    0.001124129015    0.000266279244
            0.001036223077    0.000186883472    0.162637278741    0.054727591638    0.001124997864    0.000238184636    0.139789511853    0.043713745323
            0.082359348623    0.129135024360    0.001124997868    0.000238184616    0.098422027726    0.135432992408    0.001205738294    0.000321649360
            0.001124129015    0.000266279244    0.139789511853    0.043713745323    0.001205738294    0.000321649360    0.162206619654    0.055110496171
0.625     0.128953605060    0.110378020984    0.001063556046    0.000009502924    0.109711426915    0.112142423870    0.001171617429    0.000060051582
            0.001063556046    0.000009502923    0.170023093440    0.037359230295    0.001157170698    0.000039112113    0.147820063376    0.029973554911
            0.109711426915    0.112142423870    0.001157170698    0.000039112107    0.127300212389    0.112283766048    0.001263755373    0.000104190506
            0.001171617429    0.000060051580    0.147820063376    0.029973554911    0.001263755372    0.000104190512    0.169715615501    0.038019225449
0.650     0.149805819388    0.079964183791    0.001060577057    -0.000168429728    0.131887888928    0.088002366954    0.001179155443    -0.000151843314
            0.001060577057    -0.000168429726    0.172980560940    0.019272271315    0.001153448683    -0.000156788092    0.152545223830    0.014831104040
            0.131887888928    0.088002366954    0.001153448683    -0.000156788094    0.148700408056    0.081938488060    0.001278600207    -0.000117974108
            0.001179155443    -0.000151843314    0.152545223855    0.014831103774    0.001278600207    -0.000117974108    0.172888529607    0.020171489950
0.675     0.161367577745    0.044555846607    0.001028495682    -0.000340158477    0.146685955670    0.058246912513    0.001146146283    -0.000358947598
            0.001028495682    -0.000340158477    0.171526402180    0.001741240131    0.001118680191    -0.000343762813    0.153680112257    -0.000755645253
            0.146685955670    0.058246912513    0.001118680185    -0.000343762832    0.160893087210    0.046612226614    0.001253184400    -0.000335917771
            0.001146146283    -0.000358947598    0.153680112249    -0.000755646808    0.001253184406    -0.000335917749    0.171729160253    0.002813134117
0.700     0.162487121500    0.006944418147    0.000971993249    -0.000501956710    0.152681701669    0.025042939980    0.001077426773    -0.000553323086
            0.000971993249    -0.000501956710    0.166040569820    -0.014005691387    0.001058172020    -0.000518514733    0.151222984130    -0.015758302563
            0.152681701669    0.025042939980    0.001058172020    -0.000518514733    0.162716567153    0.008915292741    0.001192037315    -0.000542767316
            0.001077426773    -0.000553323086    0.151222984130    -0.015758302563    0.001192037315    -0.000542767316    0.166594969728    -0.012851228930
0.725     0.152748995766    -0.029920710670    0.000894990516    -0.000652483684    0.148987762516    -0.009115527863    0.000978697762    -0.000729783798
            0.000894990516    -0.000652483684    0.157242638045    -0.026874786831    0.000976685841    -0.000680026724    0.145468167090    -0.029154380701
            0.148987762516    -0.009115527863    0.000976685841    -0.000680026724    0.153682641817    -0.028249370069    0.001100458488    -0.000733937667
            0.000978697843    -0.000729783858    0.145468167090    -0.029154380701    0.001100458501    -0.000733937648    0.158177123559    -0.025747151631
0.750     0.132516421387    -0.062983671607    0.000800201734    -0.000791924826    0.135385549978    -0.041453711080    0.000855827665    -0.000885594357
            0.000800201734    -0.000791924826    0.146168162906    -0.036002768195    0.000877655645    -0.000829176046    0.137029578587    -0.040009780850
            0.135385559540    -0.041453714008    0.000877655630    -0.000829176061    0.134081234236    -0.061832817664    0.000983692205    -0.000907223650
            0.000855827665    -0.000885594357    0.137029578587    -0.040009780850    0.000983692221    -0.000907223632    0.147476647929    -0.035019100668
0.775     0.103013311203    -0.089257777793    0.000688557191    -0.000921147761    0.112458379576    -0.069066916692    0.000713866699    -0.001020111517
            0.000688557175    -0.000921147773    0.134107121094    -0.040848298168    0.000762297244    -0.000967797398    0.126817809544    -0.047586062094
            0.112458384231    -0.069066870895    0.000762297227    -0.000967797411    0.105063931412    -0.088830907481    0.000845818105    -0.001062333044
            0.000713866681    -0.001020111530    0.126817809544    -0.047586062094    0.000845818105    -0.001062333044    0.135745514999    -0.040124443745
