# GHz S RI R 45
0.000     0.016910431000    0.000000000000    0.000000236694    -0.000000000000    0.000514524540    -0.000000000000    -0.000016720452    0.000000000000
            0.000000236678    -0.000000000000    0.015494899000    0.000000000000    0.000005547304    -0.000000000000    0.000480728030    -0.000000000000
            0.000514520990    -0.000000000000    0.000005547259    -0.000000000000    0.016870794000    0.000000000000    -0.000012327957    0.000000000000
            -0.000016720448    0.000000000000    0.000480748680    -0.000000000000    -0.000012327956    0.000000000000    0.015464261000    0.000000000000
0.025     0.022673928316    0.010741391453    -0.000000012026    -0.000001279269    0.003114403427    0.010889294221    0.000003222032    0.000009219982
            -0.000000012043    -0.000001279265    0.020538613187    0.008678882667    -0.000002469216    -0.000005620748    0.002500739146    0.008739707579
            0.003114378780    0.010889343913    -0.000002469267    -0.000005620734    0.022613514539    0.010723577105    0.000000504696    0.000004868392
            0.000003222042    0.000009219979    0.002500737377    0.008739750419    0.000000504689    0.000004868393    0.020473130434    0.008638206757
0.050     0.031011857578    0.016039661147    -0.000001005090    -0.000002455860    0.010055397539    0.019580858931    0.000006288539    -0.000001830311
            -0.000001005106    -0.000002455853    0.027599736835    0.012821354833    -0.000005821743    -0.000002984849    0.008092288360    0.015912758348
            0.010055382962    0.019580870914    -0.000005821789    -0.000002984823    0.030959450796    0.016031231191    0.000001019002    -0.000003134765
            0.000006288555    -0.000001830320    0.008092294164    0.015912758762    0.000001019004    -0.000003134767    0.027518166531    0.012770266686
0.075     0.041368484852    0.017144836041    -0.000002665450    -0.000003035258    0.020134384979    0.024578771875    0.000001432573    -0.000007678236
            -0.000002665464    -0.000003035247    0.036513968363    0.013650218513    -0.000006890401    -0.000001021798    0.016410364841    0.020291293222
            0.020134376419    0.024578776302    -0.000006890439    -0.000001021760    0.041344376184    0.017138602936    -0.000004011399    -0.000006754110
            0.000001432581    -0.000007678243    0.016410372596    0.020291281805    -0.000004011405    -0.000006754107    0.036423946197    0.013599137718
0.100     0.052165671849    0.013252230955    -0.000004671409    -0.000002807548    0.031679848160    0.024897302622    -0.000005228142    -0.000008591728
            -0.000004671422    -0.000002807529    0.046170370992    0.010459793726    -0.000007518617    0.000000683863    0.026264668144    0.021060546791
            0.031679847208    0.024897305452    -0.000007518645    0.000000683909    0.052187308247    0.013239717254    -0.000010146333    -0.000006042389
            -0.000005228132    -0.000008591742    0.026264679126    0.021060531496    -0.000010146336    -0.000006042386    0.046084751179    0.010421740793
0.125     0.061278606519    0.004249973117    -0.000006691958    -0.000001632572    0.042772253317    0.020235636985    -0.000010960043    -0.000005649521
            -0.000006691965    -0.000001632555    0.054976203167    0.002962363352    -0.000007961944    0.000002476597    0.036274568245    0.017854238496
            0.042772254065    0.020235640080    -0.000007961953    0.000002476645    0.061362795323    0.004205302644    -0.000015077458    -0.000001866622
            -0.000010960039    -0.000005649536    0.036274575761    0.017854220961    -0.000015077461    -0.000001866614    0.054918929980    0.002957646375
0.150     0.066891725658    -0.009024870550    -0.000008334483    0.000000499856    0.051503987856    0.010955662173    -0.000014427144    -0.000000096529
            -0.000008334487    0.000000499872    0.061547656729    -0.008355622853    -0.000008112051    0.000004567631    0.045018554286    0.010733450184
            0.051503989430    0.010955664387    -0.000008112051    0.000004567685    0.067056184426    -0.009113556189    -0.000017557095    0.000004608179
            -0.000014427143    -0.000000096542    0.045018556649    0.010733431649    -0.000017557098    0.000004608187    0.061543752551    -0.008332598729
0.175     0.067306004319    -0.025180677207    -0.000009204418    0.000003451373    0.056189054344    -0.001894937489    -0.000014919496    0.000006571509
            -0.000009204417    0.000003451391    0.064439212912    -0.022702498766    -0.000007758112    0.000007006235    0.051153041461    0.000250333524
            0.056189056409    -0.001894935595    -0.000007758100    0.000007006285    0.067561381884    -0.025345366393    -0.000016935599    0.000011951165
            -0.000014919498    0.000006571501    0.051153039552    0.000250314855    -0.000016935599    0.000011951173    0.064523158932    -0.022661451969
0.200     0.061449115673    -0.042236036433    -0.000008957219    0.000006920571    0.055584689086    -0.016719227123    -0.000012412637    0.000013008787
            -0.000008957216    0.000006920588    0.062586187466    -0.038781987312    -0.000006639196    0.000009658083    0.053572334886    -0.012626519363
            0.055584691585    -0.016719225759    -0.000006639174    0.000009658119    0.061794522176    -0.042519171812    -0.000013218515    0.000018820582
            -0.000012412641    0.000013008778    0.053572328532    -0.012626537604    -0.000013218519    0.000018820580    0.062793009610    -0.038747645248
0.225     0.048985498502    -0.057881487844    -0.000007369345    0.000010475013    0.049044605975    -0.031534183172    -0.000007372494    0.000018013007
            -0.000007369336    0.000010475028    0.055388131877    -0.054981199347    -0.000004552506    0.000012267712    0.051518667528    -0.026602215612
            0.049044608758    -0.031534182541    -0.000004552474    0.000012267744    0.049403941633    -0.058331073902    -0.000006890161    0.000024017012
            -0.000007372504    0.000018012995    0.051518657818    -0.026602232237    -0.000006890166    0.000024017013    0.055744939820    -0.054993943541
0.250     0.030417157406    -0.069738783631    -0.000004390002    0.000013590587    0.036637100224    -0.044181646062    -0.000000595189    0.000020774692
            -0.000004389984    0.000013590607    0.042798635960    -0.069527637114    -0.000001424260    0.000014434733    0.044674953160    -0.040176124462
            0.036637101634    -0.044181646192    -0.000001424217    0.000014434759    0.030872459438    -0.070401773031    0.000001221397    0.000026713496
            -0.000000595189    0.000020774691    0.044674939795    -0.040176137828    0.000001221396    0.000026713498    0.043319324327    -0.069639974891
0.275     0.007071667116    -0.075638608175    -0.000000174611    0.000015728006    0.019190137579    -0.052566482075    0.000006903797    0.000020828127
            -0.000000174594    0.000015728016    0.025339437301    -0.080665100360    0.000002661805    0.000015731619    0.033211694603    -0.051778982848
            0.019190144687    -0.052566481609    0.000002661854    0.000015731635    0.007507737955    -0.076553463203    0.000010067688    0.000026422836
            0.000006903797    0.000020828128    0.033211678336    -0.051778993282    0.000010067687    0.000026422837    0.026019835600    -0.080937065826
0.300     -0.018971150986    -0.073918657776    0.000004910617    0.000016415013    -0.001738686695    -0.054931178353    0.000014094063    0.000018127652
            0.000004910643    0.000016415022    0.004092612540    -0.086839169846    0.000007411663    0.000015744458    0.017798767847    -0.059932847926
            -0.001738684841    -0.054931180413    0.000007411715    0.000015744457    -0.018629524337    -0.075107221616    0.000018564201    0.000023081035
            0.000014094064    0.000018127651    0.017798750349    -0.059932854166    0.000018564201    0.000023081038    0.004907398411    -0.087332775539
0.325     -0.045075172451    -0.063671585970    0.000010321643    0.000015330115    -0.023992185229    -0.050106049398    0.000019990788    0.000012986838
            0.000010321662    0.000015330119    -0.019384235514    -0.086860216044    0.000012376852    0.000014181187    -0.000435225418    -0.063399398146
            -0.023992186093    -0.050106051202    0.000012376895    0.000014181176    -0.044916199958    -0.065130675740    0.000025662772    0.000016988052
            0.000019990790    0.000012986838    -0.000435244243    -0.063399400016    0.000025662819    0.000016988052    -0.018482664802    -0.087631559988
0.350     -0.068335985616    -0.044949995046    0.000015403683    0.000012371168    -0.045050283655    -0.037728938395    0.000023833876    0.000006026952
            0.000015403703    0.000012371166    -0.043182000142    -0.080057836182    0.000016974212    0.000010936047    -0.019991757213    -0.061328580110
            -0.045050284422    -0.037728939037    0.000016974210    0.000010936041    -0.068452544472    -0.046644740443    0.000030525519    0.000008772371
            0.000023833877    0.000006026951    -0.019991757213    -0.061328580110    0.000030525608    0.000008772349    -0.042262026005    -0.081149079512
0.375     -0.085938943023    -0.018827849142    0.000019484594    0.000007690148    -0.062337389582    -0.018348463870    0.000025122031    -0.000001901676
            0.000019484676    0.000007690103    -0.065213496024    -0.066369868201    0.000020600968    0.000006129152    -0.039132258151    -0.053360349534
            -0.062337391501    -0.018348464435    0.000020601004    0.000006129122    -0.086416467862    -0.020688957661    0.000032567549    -0.000000691688
            0.000025122032    -0.000001901678    -0.039132258151    -0.053360349534    0.000032567551    -0.000000691685    -0.064359611326    -0.067801703627
0.400     -0.095546959893    0.012665324587    0.000021980067    0.000001685112    -0.073581866213    0.006593492413    0.000023706650    -0.000009865620
            0.000021980135    0.000001685047    -0.083417864704    -0.046391751533    0.000022711073    0.000000117029    -0.056050550953    -0.039694080580
            -0.073581867209    0.006593492502    0.000022711066    0.000000117026    -0.096450227631    0.010740462609    0.000031557839    -0.000010416491
            0.000023706651    -0.000009865622    -0.056050623931    -0.039694029439    0.000031557843    -0.000010416483    -0.082723573875    -0.048157442359
0.425     -0.095619551906    0.046776918735    0.000022482359    -0.000005054101    -0.077119044915    0.034932710843    0.000019769860    -0.000016945257
            0.000022482387    -0.000005054141    -0.095963599588    -0.021341436371    0.000022917370    -0.000006565471    -0.069047185850    -0.021086508159
            -0.077119029781    0.034932671544    0.000022917384    -0.000006565513    -0.096980730113    0.044917892676    0.000027603595    -0.000019404914
            0.000019769837    -0.000016945218    -0.069047214106    -0.021086477263    0.000027603601    -0.000019404910    -0.095521935825    -0.023403509275
0.450     -0.085633294163    0.080372556596    0.000020821137    -0.000011838982    -0.072120894482    0.064064820569    0.000013788303    -0.000022395475
            0.000020821141    -0.000011838980    -0.101445927899    0.007033779591    0.000021044740    -0.000013275592    -0.076712586678    0.001203142354
            -0.072120895978    0.064064821898    0.000021044729    -0.000013275595    -0.087441302075    0.078726975358    0.000021127676    -0.000026806955
            0.000013788306    -0.000022395469    -0.076712628413    0.001203223361    0.000021127682    -0.000026806958    -0.101339318729    0.004743819207
0.475     -0.066125994831    0.110324120580    0.000017098054    -0.000017981305    -0.058663081287    0.091279514173    0.000006467488    -0.000025700460
            0.000017098061    -0.000017981307    -0.099027793822    0.036613869471    0.000017172364    -0.000019368457    -0.078063530391    0.025527943650
            -0.058663081287    0.091279514173    0.000017172359    -0.000019368500    -0.068319316561    0.109050431060    0.000012806699    -0.000031984617
            0.000006467493    -0.000025700462    -0.078063553736    0.025528026693    0.000012806706    -0.000031984619    -0.099317916445    0.034191657854
0.500     -0.038601715156    0.133876014056    0.000011639206    -0.000022829414    -0.037668903547    0.114097467420    -0.000001398867    -0.000026588762
            0.000011639212    -0.000022829419    -0.088533492476    0.065101474998    0.000011591242    -0.000024215970    -0.072649274401    0.050008688065
            -0.037668906682    0.114097476916    0.000011591212    -0.000024216052    -0.041056422148    0.133159467616    0.000003439181    -0.000034530131
            -0.000001398867    -0.000026588760    -0.072649274401    0.050008688065    0.000003439172    -0.000034530228    -0.089254112083    0.062663863217
0.525     -0.005305945687    0.148910359760    0.000004886398    -0.000025904434    -0.010697805295    0.130630099617    -0.000009065268    -0.000025076995
            0.000004886401    -0.000025904439    -0.070463220855    0.090230287238    0.000004687111    -0.000027379843    -0.060583182413    0.072703614427
            -0.010697808391    0.130630109397    0.000004687106    -0.000027379835    -0.007803211948    0.149210758681    -0.000006216177    -0.000034345097
            -0.000009065272    -0.000025076993    -0.060583167505    0.072703699743    -0.000006216171    -0.000034345099    -0.071615503806    0.087905156912
0.550     0.031059583476    0.154159162726    -0.000002594313    -0.000026933516    0.018765585379    0.138714037165    -0.000015871416    -0.000021432922
            -0.000002594369    -0.000026933590    -0.045949506807    0.109969538689    -0.000002713495    -0.000028419175    -0.042533187732    0.091787544623
            0.018765585379    0.138714037165    -0.000002713498    -0.000028419170    0.026602929220    0.154108119251    -0.000015079975    -0.000031588223
            -0.000015871412    -0.000021432924    -0.042533187732    0.091787544623    -0.000015079976    -0.000031588227    -0.047499826482    0.107883678067
0.575     0.067544976349    0.149046684370    -0.000010181227    -0.000025790855    0.051381809031    0.138270418294    -0.000021264536    -0.000016061599
            -0.000010181225    -0.000025790864    -0.016653208303    0.122689853351    -0.000010661405    -0.000027341523    -0.019650977747    0.105694826319
            0.051381809031    0.138270418294    -0.000010661444    -0.000027341539    0.064257631895    0.149666973260    -0.000023108014    -0.000026374033
            -0.000021264534    -0.000016061603    -0.019650996195    0.105694822889    -0.000023108053    -0.000026374068    -0.018533253770    0.120955044868
0.600     0.101145872621    0.133810514825    -0.000017259876    -0.000022518506    0.082359350877    0.129135022923    -0.000024860254    -0.000009459883
            -0.000017259881    -0.000022518511    0.015377145496    0.127290557593    -0.000018106033    -0.000024168414    0.006525745037    0.113246134626
            0.082359348623    0.129135024360    -0.000018106116    -0.000024168436    0.098422027726    0.135432992408    -0.000029392478    -0.000019376684
            -0.000024860254    -0.000009459878    0.006525745037    0.113246134626    -0.000029392563    -0.000019376725    0.013270429226    0.125992931821
0.625     0.128953605060    0.110378020984    -0.000023262754    -0.000017423656    0.109711426915    0.112142423870    -0.000026484740    -0.000002302406
            -0.000023262757    -0.000017423665    0.047870370365    0.123265754246    -0.000024588249    -0.000019007406    0.034197933346    0.113716141614
            0.109711426915    0.112142423870    -0.000024588241    -0.000019007401    0.127300212389    0.112283766048    -0.000033616602    -0.000011026616
            -0.000026484698    -0.000002302402    0.034197933346    0.113716141614    -0.000033616604    -0.000011026616    0.045669654808    0.122460830472
0.650     0.149805819388    0.079964183791    -0.000027834369    -0.000010733826    0.131887888928    0.088002366954    -0.000026183409    0.000005022625
            -0.000027834464    -0.000010733823    0.078508755918    0.110734637443    -0.000029611237    -0.000012136201    0.061440708700    0.106884964994
            0.131887888928    0.088002366954    -0.000029611234    -0.000012136194    0.148700408056    0.081938488060    -0.000035549619    -0.000001878139
            -0.000026183409    0.000005022625    0.061440708700    0.106884964994    -0.000035549624    -0.000001878140    0.076365652607    0.110442274926
0.675     0.161367577745    0.044555846607    -0.000030493386    -0.000002849942    0.146685955670    0.058246912513    -0.000023928112    0.000011989437
            -0.000030493437    -0.000002849931    0.105087778039    0.090420103618    -0.000032741250    -0.000003939313    0.086330181050    0.093036928191
            0.146685955670    0.058246912513    -0.000032741241    -0.000003939312    0.160893087210    0.046612226614    -0.000035083493    0.000007491825
            -0.000023928074    0.000011989423    0.086330181050    0.093036928191    -0.000035083499    0.000007491820    0.103160653134    0.090621045506
0.700     0.162487121500    0.006944418147    -0.000030939707    0.000005695062    0.152681701669    0.025042939980    -0.000019897376    0.000018112870
            -0.000030939716    0.000005695058    0.125668170026    0.063596680294    -0.000033623415    0.000005090544    0.107076286800    0.072948284819
            0.152681701669    0.025042939980    -0.000033623408    0.000005090537    0.162716567153    0.008915292741    -0.000032224177    0.000016501741
            -0.000019897383    0.000018112870    0.107076286800    0.072948284819    -0.000032224190    0.000016501741    0.124109102757    0.064230190571
0.725     0.152748995766    -0.029920710670    -0.000028994263    0.000014301616    0.148987762516    -0.009115527863    -0.000014360478    0.000022973039
            -0.000028994295    0.000014301650    0.138696682140    0.032004446400    -0.000032009805    0.000014357623    0.122126957553    0.047835802503
            0.148987762516    -0.009115527863    -0.000032009858    0.000014357687    0.153682641817    -0.028249370069    -0.000027100459    0.000024570153
            -0.000014360471    0.000022973037    0.122126957553    0.047835802503    -0.000027100460    0.000024570154    0.137640892200    0.032968215622
0.750     0.132516421387    -0.062983671607    -0.000024626523    0.000022304894    0.135385549978    -0.041453711080    -0.000007667785    0.000026213595
            -0.000024626526    0.000022304897    0.143115161552    -0.002262227587    -0.000027800487    0.000023172877    0.130282925101    0.019291264885
            0.135385559540    -0.041453714008    -0.000027800476    0.000023172868    0.134081234236    -0.061832817664    -0.000019970420    0.000031137002
            -0.000007667784    0.000026213590    0.130282925101    0.019291264885    -0.000019970421    0.000031137003    0.142668872815    -0.001107324448
0.775     0.103013311203    -0.089257777793    -0.000017989363    0.000029003586    0.112458379576    -0.069066916692    -0.000000261024    0.000027552454
            -0.000017989366    0.000029003590    0.138432951365    -0.036883196646    -0.000021085337    0.000030784790    0.130774502280    -0.010807858601
            0.112458384231    -0.069066870895    -0.000021085325    0.000030784785    0.105063931412    -0.088830907481    -0.000011237656    0.000035689744
