# GHz S RI R 45
0.000     0.016910431000    0.000000000000    0.000017837094    -0.000000000000    0.000514524540    -0.000000000000    0.000008750666    -0.000000000000
            0.000017837097    -0.000000000000    0.016368130000    0.000000000000    0.000000515217    -0.000000000000    0.000545668830    -0.000000000000
            0.000514520990    -0.000000000000    0.000000515230    -0.000000000000    0.016870794000    0.000000000000    0.000008096722    0.000000000000
            0.000008750676    -0.000000000000    0.000545660620    -0.000000000000    0.000008096693    0.000000000000    0.016244565000    0.000000000000
0.025     0.022673928316    0.010741391453    -0.000014057337    -0.000019289433    0.003114403427    0.010889294221    -0.000006170622    -0.000011586468
            -0.000014057269    -0.000019289446    0.021364111842    0.009159550115    -0.000004562358    -0.000006423163    0.002639470889    0.009286413819
            0.003114378780    0.010889343913    -0.000004562340    -0.000006423164    0.022613514539    0.010723577105    -0.000004573199    -0.000011538208
            -0.000006170613    -0.000011586471    0.002639439821    0.009286464753    -0.000004573229    -0.000011538201    0.021305307562    0.009147630800
0.050     0.031011857578    0.016039661147    -0.000025336428    -0.000005506223    0.010055397539    0.019580858931    -0.000013981334    -0.000007693585
            -0.000025336342    -0.000005506273    0.028589809053    0.013617791831    -0.000009720534    -0.000007758120    0.008433841607    0.016904916560
            0.010055382962    0.019580870914    -0.000009720519    -0.000007758127    0.030959450796    0.016031231191    -0.000012643042    -0.000010057165
            -0.000013981321    -0.000007693594    0.008433821854    0.016904930885    -0.000012643063    -0.000010057154    0.028527410912    0.013597678812
0.075     0.041368484852    0.017144836041    -0.000026126908    0.000004437814    0.020134384979    0.024578771875    -0.000018263695    -0.000003689504
            -0.000026126908    0.000004437814    0.037639332581    0.014581481395    -0.000015495490    -0.000007120050    0.016997376504    0.021548204592
            0.020134376419    0.024578776302    -0.000015495482    -0.000007120056    0.041344376184    0.017138602936    -0.000018627911    -0.000007548010
            -0.000018263689    -0.000003689506    0.016997363850    0.021548213300    -0.000018627936    -0.000007547986    0.037572318097    0.014562872174
0.100     0.052165671849    0.013252230955    -0.000024266221    0.000011830404    0.031679848160    0.024897302622    -0.000021537039    0.000001314749
            -0.000024266220    0.000011830404    0.047279636779    0.011343750061    -0.000021442202    -0.000003735681    0.027025274435    0.022376921977
            0.031679847208    0.024897305452    -0.000021442191    -0.000003735694    0.052187308247    0.013239717254    -0.000024197191    -0.000003020752
            -0.000021537040    0.000001314753    0.027025273230    0.022376928136    -0.000024197205    -0.000003020728    0.047217673675    0.011338003561
0.125     0.061278606519    0.004249973117    -0.000021337192    0.000017749225    0.042772253317    0.020235636985    -0.000023509406    0.000007718434
            -0.000021337191    0.000017749225    0.055800993831    0.003702834982    -0.000026367352    0.000002615373    0.037016688050    0.019058533661
            0.042772254065    0.020235640080    -0.000026367346    0.000002615359    0.061362795323    0.004205302644    -0.000028618116    0.000003995781
            -0.000023509405    0.000007718439    0.037016688389    0.019058539557    -0.000028618119    0.000003995796    0.055761977408    0.003706903847
0.150     0.066891725658    -0.009024870550    -0.000017595214    0.000022923247    0.051503987856    0.010955662173    -0.000023474855    0.000015319681
            -0.000017595217    0.000022923242    0.061716954799    -0.007776729700    -0.000028994467    0.000011505205    0.045448364031    0.011741397214
            0.051503989430    0.010955664387    -0.000028994463    0.000011505209    0.067056184426    -0.009113556189    -0.000030770153    0.000013274532
            -0.000023474853    0.000015319685    0.045448366674    0.011741402974    -0.000030770160    0.000013274625    0.061726000822    -0.007755701168
0.175     0.067306004319    -0.025180677207    -0.000012929407    0.000027637221    0.056189054344    -0.001894937489    -0.000020823721    0.000023490507
            -0.000012929415    0.000027637174    0.063553694650    -0.022118251874    -0.000028271474    0.000022018317    0.050913385567    0.001110546231
            0.056189056409    -0.001894935595    -0.000028271483    0.000022018268    0.067561381884    -0.025345366393    -0.000029653046    0.000024056512
            -0.000020823720    0.000023490507    0.050913390366    0.001110555492    -0.000029653040    0.000024056559    0.063636789488    -0.022093218267
0.200     0.061449115673    -0.042236036433    -0.000007004968    0.000031777082    0.055584689086    -0.016719227123    -0.000015209369    0.000031273437
            -0.000007004968    0.000031777083    0.060279255775    -0.037839048523    -0.000023539898    0.000032836610    0.052296197613    -0.011704136537
            0.055584691585    -0.016719225759    -0.000023539898    0.000032836609    0.061794522176    -0.042519171812    -0.000024576955    0.000035119212
            -0.000015209364    0.000031273441    0.052296202538    -0.011704132847    -0.000024576955    0.000035119211    0.060458218186    -0.037837581906
0.225     0.048985498502    -0.057881487844    0.000000423229    0.000034954384    0.049044605975    -0.031534183172    -0.000006645102    0.000037574680
            0.000000423196    0.000034954346    0.051396504472    -0.053145180286    -0.000014639878    0.000042430068    0.048892635884    -0.025236248645
            0.049044608758    -0.031534182541    -0.000014639877    0.000042430064    0.049403941633    -0.058331073902    -0.000015315486    0.000044989770
            -0.000006645102    0.000037574679    0.048892645180    -0.025236243717    -0.000015315495    0.000044989768    0.051683126749    -0.053207188343
0.250     0.030417157406    -0.069738783631    0.000009344131    0.000036461794    0.036637100224    -0.044181646062    0.000004413662    0.000041269676
            0.000009344049    0.000036461740    0.037037374614    -0.066113698920    -0.000002000343    0.000049224644    0.040508427004    -0.037825839275
            0.036637101634    -0.044181646192    -0.000002000337    0.000049224642    0.030872459438    -0.070401773031    -0.000002222335    0.000052081609
            0.000004413672    0.000041269675    0.040508432568    -0.037825839177    -0.000002222258    0.000052081662    0.037428897226    -0.066286752585
0.275     0.007071667116    -0.075638608175    0.000019430488    0.000035559215    0.019190137579    -0.052566482075    0.000017100871    0.000041393336
            0.000019430396    0.000035559183    0.017969782856    -0.074895346136    0.000013382157    0.000051817061    0.027505473713    -0.047781379397
            0.019190144687    -0.052566481609    0.000013382159    0.000051817057    0.007507737955    -0.076553463203    0.000013765519    0.000054941492
            0.000017100876    0.000041393333    0.027505483713    -0.047781379410    0.000013765518    0.000054941490    0.018444986514    -0.075229289536
0.300     -0.018971150986    -0.073918657776    0.000029895293    0.000031572390    -0.001738686695    -0.054931178353    0.000030155871    0.000037299136
            0.000029895196    0.000031572382    -0.004427737293    -0.077929631709    0.000029985132    0.000049193451    0.010804238919    -0.053568650345
            -0.001738684841    -0.054931180413    0.000029985131    0.000049193448    -0.018629524337    -0.075107221616    0.000031142000    0.000052467395
            0.000030155871    0.000037299137    0.010804243648    -0.053568654492    0.000031142000    0.000052467395    -0.003910077724    -0.078470252174
0.325     -0.045075172451    -0.063671585970    0.000039674569    0.000024142852    -0.023992185229    -0.050106049398    0.000042080360    0.000028809570
            0.000039674476    0.000024142870    -0.028279647411    -0.074131995257    0.000045927756    0.000040912539    -0.008178263145    -0.053987276355
            -0.023992186093    -0.050106051202    0.000045927756    0.000040912532    -0.044916199958    -0.065130675740    0.000048002326    0.000044126901
            0.000042080313    0.000028809572    -0.008178259975    -0.053987280881    0.000048002326    0.000044126899    -0.027779935912    -0.074912505163
0.350     -0.068335985616    -0.044949995046    0.000047462134    0.000013382852    -0.045050283655    -0.037728938395    0.000051306898    0.000016329854
            0.000047462136    0.000013382853    -0.051381620670    -0.063063954665    0.000059195452    0.000027256495    -0.027654470299    -0.048339451854
            -0.045050284422    -0.037728939037    0.000059195451    0.000027256488    -0.068452544472    -0.046644740443    0.000062256838    0.000030123796
            0.000051306899    0.000016329849    -0.027654472782    -0.048339456194    0.000062256835    0.000030123799    -0.050975447288    -0.064097525868
0.375     -0.085938943023    -0.018827849142    0.000052032012    -0.000000082284    -0.062337389582    -0.018348463870    0.000056455772    0.000000846059
            0.000052032014    -0.000000082280    -0.071424830566    -0.045018929664    0.000067930401    0.000009248513    -0.045643574477    -0.036538750311
            -0.062337391501    -0.018348464435    0.000067930361    0.000009248539    -0.086416467862    -0.020688957661    0.000071945329    0.000011435522
            0.000056455771    0.000000846058    -0.045643572003    -0.036538761402    0.000071945403    0.000011435466    -0.071196152248    -0.046292653163
0.400     -0.095546959893    0.012665324587    0.000052408878    -0.000015105609    -0.073581866213    0.006593492413    0.000056564869    -0.000016156063
            0.000052408883    -0.000015105606    -0.086255953810    -0.021045516646    0.000070730922    -0.000011431543    -0.060198067890    -0.019160926030
            -0.073581867209    0.006593492502    0.000070730913    -0.000011431551    -0.096450227631    0.010740462609    0.000075542801    -0.000010259004
            0.000056564869    -0.000016156064    -0.060198068357    -0.019160937750    0.000075542866    -0.000010259072    -0.086287968855    -0.022516155669
0.425     -0.095619551906    0.046776918735    0.000048107439    -0.000030236752    -0.077119044915    0.034932710843    0.000051268627    -0.000032911793
            0.000048107441    -0.000030236749    -0.094121725358    0.007139547159    0.000066873566    -0.000032678978    -0.069621413487    0.002599333917
            -0.077119029781    0.034932671544    0.000066873542    -0.000032678934    -0.096980730113    0.044917892676    0.000072206696    -0.000032814015
            0.000051268625    -0.000032911794    -0.069621417938    0.002599321915    0.000072206695    -0.000032814015    -0.094486220490    0.005546279412
0.450     -0.085633294163    0.080372556596    0.000039214429    -0.000043895689    -0.072120894482    0.064064820569    0.000040867798    -0.000047633051
            0.000039214415    -0.000043895596    -0.093884572838    0.037316288835    0.000056434763    -0.000052266782    -0.072676072983    0.027048638533
            -0.072120895978    0.064064821898    0.000056434734    -0.000052266692    -0.087441302075    0.078726975358    0.000061909907    -0.000053918752
            0.000040867792    -0.000047633052    -0.072676076732    0.027048639928    0.000061909905    -0.000053918753    -0.094631777335    0.035704963591
0.475     -0.066125994831    0.110324120580    0.000026374371    -0.000054667795    -0.058663081287    0.091279514173    0.000026273510    -0.000058782220
            0.000026374377    -0.000054667703    -0.085149023912    0.066994485466    0.000040258632    -0.000068161156    -0.068711284939    0.052180490543
            -0.058663081287    0.091279514173    0.000040258632    -0.000068161108    -0.068319316561    0.109050431060    0.000045424030    -0.000071429254
            0.000026273510    -0.000058782220    -0.068711283244    0.052180451439    0.000045424030    -0.000071429254    -0.086298087995    0.065499303605
0.500     -0.038601715156    0.133876014056    0.000010674102    -0.000061430643    -0.037668903547    0.114097467420    0.000008832926    -0.000065234916
            0.000010674132    -0.000061430560    -0.068306943568    0.093674226831    0.000019790450    -0.000078751464    -0.057727461964    0.075906612025
            -0.037668906682    0.114097476916    0.000019790442    -0.000078751461    -0.041056422148    0.133159467616    0.000024146735    -0.000083602064
            0.000008832923    -0.000065234916    -0.057727477634    0.075906605134    0.000024146734    -0.000083602061    -0.069837772450    0.092479732105
0.525     -0.005305945687    0.148910359760    -0.000006583634    -0.000063514194    -0.010697805295    0.130630099617    -0.000009959738    -0.000066471711
            -0.000006583636    -0.000063514197    -0.044477285116    0.115089829337    -0.000003225345    -0.000083087318    -0.040347470450    0.096383840294
            -0.010697808391    0.130630109397    -0.000003225351    -0.000083087312    -0.007803211948    0.149210758681    -0.000000248577    -0.000089437497
            -0.000009959740    -0.000066471708    -0.040347470450    0.096383840294    -0.000000248599    -0.000089437537    -0.046371433034    0.114653816299
0.550     0.031059583476    0.154159162726    -0.000024018599    -0.000060722600    0.018765585379    0.138714037165    -0.000027749473    -0.000062298506
            -0.000024018537    -0.000060722536    -0.015387954986    0.129443324648    -0.000026066395    -0.000080648005    -0.018771959360    0.110845416506
            0.018765585379    0.138714037165    -0.000026066393    -0.000080647999    0.026602929220    0.154108119251    -0.000023931877    -0.000088029773
            -0.000027749482    -0.000062298496    -0.018771964899    0.110845425711    -0.000023931877    -0.000088029774    -0.018920649416    0.128052720684
0.575     0.067544976349    0.149046684370    -0.000040243710    -0.000053165709    0.051381809031    0.138270418294    -0.000044635130    -0.000052961874
            -0.000040243628    -0.000053165677    0.016821833882    0.135407422011    -0.000048387442    -0.000071487087    0.007891889291    0.119496892974
            0.051381809031    0.138270418294    -0.000048387437    -0.000071487080    0.064257631895    0.149666973260    -0.000048616189    -0.000079273961
            -0.000044635047    -0.000052961832    0.007891885119    0.119496893249    -0.000048616188    -0.000079273960    0.013997551495    0.134865801622
0.600     0.101145872621    0.133810514825    -0.000053946637    -0.000041297336    0.082359350877    0.129135022923    -0.000058238629    -0.000039473713
            -0.000053946635    -0.000041297349    0.049662601451    0.132231657016    -0.000067332829    -0.000056564289    0.035686263832    0.120795355334
            0.082359348623    0.129135024360    -0.000067332822    -0.000056564282    0.098422027726    0.135432992408    -0.000069917096    -0.000064459146
            -0.000058238635    -0.000039473702    0.035686261724    0.120795355957    -0.000069917179    -0.000064459177    0.046902729816    0.132676895438
0.625     0.128953605060    0.110378020984    -0.000064207148    -0.000026425099    0.109711426915    0.112142423870    -0.000067801812    -0.000022961123
            -0.000064207101    -0.000026425106    0.080192915095    0.120617288079    -0.000081678413    -0.000037092697    0.062831861822    0.114856394904
            0.109711426915    0.112142423870    -0.000081678317    -0.000037092688    0.127300212389    0.112283766048    -0.000086689295    -0.000044163617
            -0.000067801814    -0.000022961110    0.062831859817    0.114856396000    -0.000086689294    -0.000044163617    0.078130235579    0.121640476949
0.650     0.149805819388    0.079964183791    -0.000070711100    -0.000008812083    0.131887888928    0.088002366954    -0.000072973673    -0.000004145675
            -0.000070711106    -0.000008812083    0.107150414751    0.101197069192    -0.000090652669    -0.000014007870    0.087975478928    0.101793629004
            0.131887888928    0.088002366954    -0.000090652662    -0.000014007869    0.148700408056    0.081938488060    -0.000097661721    -0.000019663518
            -0.000072973671    -0.000004145675    0.087975483691    0.101793638105    -0.000097661718    -0.000019663517    0.105411098185    0.102494437747
0.675     0.161367577745    0.044555846607    -0.000072389894    0.000010468998    0.146685955670    0.058246912513    -0.000073023260    0.000015809214
            -0.000072389921    0.000010468989    0.128052629645    0.074878462779    -0.000093183542    0.000011204243    0.108952785590    0.082195598404
            0.146685955670    0.058246912513    -0.000093183521    0.000011204257    0.160893087210    0.046612226614    -0.000101845964    0.000007509482
            -0.000073023221    0.000015809192    0.108952792138    0.082195606328    -0.000101845964    0.000007509482    0.126708885847    0.076526468097
0.700     0.162487121500    0.006944418147    -0.000068855550    0.000030119482    0.152681701669    0.025042939980    -0.000067721671    0.000035578196
            -0.000068855492    0.000030119413    0.141179949132    0.043579105846    -0.000088800505    0.000036817241    0.124103333528    0.057373576497
            0.152681701669    0.025042939980    -0.000088800500    0.000036817239    0.162716567153    0.008915292741    -0.000098572387    0.000035590208
            -0.000067721670    0.000035578196    0.124103341603    0.057373582859    -0.000098572377    0.000035590205    0.140362891417    0.045499479032
0.725     0.152748995766    -0.029920710670    -0.000059955345    0.000048783231    0.148987762516    -0.009115527863    -0.000057089202    0.000053796016
            -0.000059955345    0.000048783231    0.145388574830    0.009514261887    -0.000077398533    0.000061009623    0.132129093099    0.028981775168
            0.148987762516    -0.009115527863    -0.000077398532    0.000061009621    0.153682641817    -0.028249370069    -0.000087559802    0.000062600460
            -0.000057089199    0.000053796014    0.132129102867    0.028981777311    -0.000087559802    0.000062600460    0.145194021111    0.011565241847
0.750     0.132516421387    -0.062983671607    -0.000045855410    0.000064980444    0.135385549978    -0.041453711080    -0.000041455819    0.000069024902
            -0.000045855421    0.000064980436    0.140121835473    -0.024858035679    -0.000059309616    0.000081865018    0.132168482448    -0.001005871854
            0.135385559540    -0.041453714008    -0.000059309616    0.000081865018    0.134081234236    -0.061832817664    -0.000069021898    0.000086403674
            -0.000041455820    0.000069024903    0.132168482449    -0.001005871715    -0.000069021898    0.000086403674    0.140599183602    -0.022851814799
0.775     0.103013311203    -0.089257777793    -0.000027140974    0.000077170522    0.112458379576    -0.069066916692    -0.000021551826    0.000079808322
            -0.000027140973    0.000077170521    0.125474734973    -0.056958803329    -0.000035397128    0.000097454768    0.123881925606    -0.030382478365
            0.112458384231    -0.069066870895    -0.000035397128    0.000097454768    0.105063931412    -0.088830907481    -0.000043776117    0.000104812512
