# GHz S RI R 45
0.000     0.016910431000    0.000000000000    0.982665430000    -0.000000000000    0.000514524540    -0.000000000000    -0.000684348040    0.000000000000
            0.982665430000    -0.000000000000    0.016727192000    0.000000000000    -0.000685652390    0.000000000000    0.000309293840    0.000000000000
            0.000514520990    -0.000000000000    -0.000685625940    0.000000000000    0.016870794000    0.000000000000    0.982689400000    -0.000000000000
            -0.000684320580    0.000000000000    0.000309292470    0.000000000000    0.982689400000    -0.000000000000    0.016680557000    0.000000000000
0.025     0.022673928316    0.010741391453    0.964660659401    -0.170563122766    0.003114403427    0.010889294221    -0.001224398042    -0.002365743254
            0.964660659401    -0.170563122766    0.021295603818    0.010983519714    -0.001221139469    -0.002362610039    0.002012304566    0.011186093976
            0.003114378780    0.010889343913    -0.001221107808    -0.002362678184    0.022613514539    0.010723577105    0.964782376656    -0.170218143660
            -0.001224467316    -0.002365824504    0.002012181029    0.011185928230    0.964782386504    -0.170218145398    0.021207108441    0.010974262474
0.050     0.031011857578    0.016039661147    0.918968801184    -0.332276277332    0.010055397539    0.019580858931    -0.002814859605    -0.004291899068
            0.918968801184    -0.332276277332    0.026471727159    0.017668592870    -0.002808564255    -0.004289847354    0.006325004106    0.021102609169
            0.010055382962    0.019580870914    -0.002808537137    -0.004289864749    0.030959450796    0.016031231191    0.919269007475    -0.331650974568
            -0.002814833406    -0.004291917924    0.006325033733    0.021102598201    0.919269007475    -0.331650974568    0.026343610519    0.017685430914
0.075     0.041368484852    0.017144836041    0.846873550937    -0.483081212901    0.020134384979    0.024578771875    -0.005077421906    -0.005391227557
            0.846873550937    -0.483081212901    0.032253888128    0.022278061852    -0.005068344539    -0.005389929105    0.012639515967    0.029179619607
            0.020134376419    0.024578776302    -0.005068316943    -0.005389943113    0.041344376184    0.017138602936    0.847440822119    -0.482229145243
            -0.005077395515    -0.005391241011    0.012639521345    0.029179619457    0.847440822119    -0.482229145243    0.032081279071    0.022345496169
0.100     0.052165671849    0.013252230955    0.750594522926    -0.618722904341    0.031679848160    0.024897302622    -0.007619623283    -0.005606025883
            0.750594522926    -0.618722904341    0.038078634748    0.024711861885    -0.007606045326    -0.005606215774    0.020187178601    0.034974436436
            0.031679847208    0.024897305452    -0.007606020228    -0.005606234151    0.052187308247    0.013239717254    0.751507292664    -0.617722671203
            -0.007619600194    -0.005606045791    0.020187177380    0.034974437140    0.751507292664    -0.617722671203    0.037867302748    0.024860544461
0.125     0.061278606519    0.004249973117    0.633067013322    -0.735488191476    0.042772253317    0.020235636985    -0.010142243948    -0.005027451915
            0.633067013322    -0.735488191476    0.043064245650    0.025194272401    -0.010123925455    -0.005047208131    0.028122672090    0.038376594865
            0.042772254065    0.020235640080    -0.010123904187    -0.005047230619    0.061362795323    0.004205302644    0.634385645647    -0.734439172759
            -0.010142226250    -0.005027469604    0.028122670751    0.038376595847    0.634385645647    -0.734439172759    0.042844859807    0.025451368442
0.150     0.066891725658    -0.009024870550    0.498073361931    -0.830213459390    0.051503987856    0.010955662173    -0.012470364943    -0.003786019436
            0.498073361931    -0.830213459390    0.046677927289    0.024280976871    -0.012453516662    -0.003827516813    0.035592257464    0.039530360932
            0.051503989430    0.010955664387    -0.012453499087    -0.003827539958    0.067056184426    -0.009113556189    0.499831136898    -0.829228816188
            -0.012470347445    -0.003786042649    0.035592256775    0.039530361553    0.499831142061    -0.829228824753    0.046477407708    0.024662162536
0.175     0.067306004319    -0.025180677207    0.349605074490    -0.900537217853    0.056189054344    -0.001894937489    -0.014532353994    -0.002033332112
            0.349605074490    -0.900537217853    0.048456628636    0.022701902476    -0.014523640333    -0.002098640857    0.041881194508    0.038908020999
            0.056189056409    -0.001894935595    -0.014523626407    -0.002098667311    0.067561381884    -0.025345366393    0.351808866496    -0.899737861665
            -0.014532340541    -0.002033356090    0.041881202192    0.038908018605    0.351808866496    -0.899737861665    0.048316084990    0.023213869694
0.200     0.061449115673    -0.042236036433    0.191877886695    -0.944733083461    0.055584689086    -0.016719227123    -0.016349415118    0.000137939153
            0.191877886695    -0.944733083461    0.048238791139    0.021356630778    -0.016357341373    0.000047382819    0.046509857314    0.037209385878
            0.055584691585    -0.016719225759    -0.016357331455    0.000047354241    0.061794522176    -0.042519171812    0.194508782847    -0.944244198013
            -0.016349405335    0.000137913387    0.046509855884    0.037209386065    0.194508782847    -0.944244198013    0.048205192092    0.021989176146
0.225     0.048985498502    -0.057881487844    0.029295736057    -0.961686827445    0.049044605975    -0.031534183172    -0.017966517189    0.002739951161
            0.029295736057    -0.961686827445    0.046243445414    0.021167254438    -0.018002098947    0.002624755803    0.049300020961    0.035257194011
            0.049044608758    -0.031534182541    -0.018002094165    0.002624726227    0.049403941633    -0.058331073902    0.032302876860    -0.961630787621
            -0.017966511607    0.002739921432    0.049300019532    0.035257194290    0.032302876860    -0.961630787621    0.046361074781    0.021890732566
0.250     0.030417157406    -0.069738783631    -0.133584660823    -0.950938504770    0.036637100224    -0.044181646062    -0.019373693376    0.005886484658
            -0.133584660823    -0.950938504770    0.043055881691    0.022946648845    -0.019449934038    0.005751235353    0.050404585510    0.033887746939
            0.036637101634    -0.044181646192    -0.019449933304    0.005751216678    0.030872459438    -0.070401773031    -0.130280103782    -0.951428811029
            -0.019373692772    0.005886466007    0.050404584089    0.033887747261    -0.130280103782    -0.951428811029    0.043357942892    0.023713665115
0.275     0.007071667116    -0.075638608175    -0.292104430184    -0.912730942423    0.019190137579    -0.052566482075    -0.020431620536    0.009739417542
            -0.292104430184    -0.912730942423    0.039573843652    0.027240246749    -0.020562201354    0.009594285234    0.050295796241    0.033820657225
            0.019190144687    -0.052566481609    -0.020562202477    0.009594263907    0.007507737955    -0.076553463203    -0.288607303908    -0.913870825793
            -0.020431623408    0.009739388277    0.050295798012    0.033820654592    -0.288607303908    -0.913870825793    0.040075187691    0.027990527545
0.300     -0.018971150986    -0.073918657776    -0.441598450319    -0.848099251107    -0.001738686695    -0.054931178353    -0.020842845385    0.014417625561
            -0.441598450319    -0.848099251107    0.036891268339    0.034230714339    -0.021039670065    0.014279147642    0.049710575500    0.035548044131
            -0.001738684841    -0.054931180413    -0.021039680063    0.014279116883    -0.018629524337    -0.075107221616    -0.438044604450    -0.849965780744
            -0.020842853081    0.014417598615    0.049710573253    0.035548043835    -0.438044604450    -0.849965780744    0.037584115149    0.034898729753
0.325     -0.045075172451    -0.063671585970    -0.577536862562    -0.758921778057    -0.023992185229    -0.050106049398    -0.020175694452    0.019889728671
            -0.577536862562    -0.758921778057    0.036150430926    0.043657461318    -0.020445969055    0.019780417996    0.049545464117    0.039232941498
            -0.023992186093    -0.050106051202    -0.020445979130    0.019780393200    -0.044916199958    -0.065130675740    -0.574083572187    -0.761567173608
            -0.020175706112    0.019889705448    0.049545461180    0.039232941986    -0.574083572187    -0.761567173608    0.037001800639    0.044181489396
0.350     -0.068335985616    -0.044949995046    -0.695739567097    -0.647958594592    -0.045050283655    -0.037728938395    -0.017954866063    0.025893062870
            -0.695739567097    -0.647958594592    0.038368950563    0.054826312409    -0.018299338817    0.025839804039    0.050724374497    0.044668931669
            -0.045050284422    -0.037728939037    -0.018299348302    0.025839788745    -0.068452544472    -0.046644740443    -0.692561909147    -0.651395808076
            -0.017954875632    0.025893047716    0.050724372187    0.044668932779    -0.692561909147    -0.651395808076    0.039323857737    0.055158708464
0.375     -0.085938943023    -0.018827849142    -0.792589953546    -0.518789306776    -0.062337389582    -0.018348463870    -0.013791598736    0.031903099612
            -0.792589953546    -0.518789306776    0.044269481746    0.066662037593    -0.014203664473    0.031934992797    0.054038710625    0.051280369908
            -0.062337391501    -0.018348464435    -0.014203681891    0.031934971916    -0.086416467862    -0.020688957661    -0.789869072477    -0.522992286609
            -0.013791621815    0.031903076562    0.054038706490    0.051280371360    -0.789869072477    -0.522992286609    0.045256490022    0.066776816794
0.400     -0.095546959893    0.012665324587    -0.865271657202    -0.375676620817    -0.073581866213    0.006593492413    -0.007525117449    0.037186251084
            -0.865271657202    -0.375676620817    0.054149473826    0.077853537757    -0.007992205084    0.037333043238    0.060016738668    0.058208777877
            -0.073581867209    0.006593492502    -0.007992216232    0.037333031648    -0.096450227631    0.010740462609    -0.863185559410    -0.380574871104
            -0.007525140832    0.037186233089    0.060016734902    0.058208780323    -0.863185559410    -0.380574871104    0.055089909697    0.077752434575
0.425     -0.095619551906    0.046776918735    -0.911923908115    -0.223341376933    -0.077119044915    0.034932710843    0.000675801458    0.040918810725
            -0.911923908115    -0.223341376933    0.067805988619    0.087023202952    0.000168477727    0.041212195628    0.068820411363    0.064431094675
            -0.077119029781    0.034932671544    0.000168450329    0.041212179740    -0.096980730113    0.044917892676    -0.910635141295    -0.228821065943
            0.000675777660    0.040918797116    0.068820409114    0.064431097077    -0.910635141295    -0.228821065943    0.068624998738    0.086736749685
0.450     -0.085633294163    0.080372556596    -0.931724165982    -0.066676816324    -0.072120894482    0.064064820569    0.010283579226    0.042357647309
            -0.931724165982    -0.066676816324    0.084552962098    0.092931758502    0.009745598171    0.042840641289    0.080224297444    0.068925132218
            -0.072120895978    0.064064821898    0.009745571442    0.042840630961    -0.087441302075    0.078726975358    -0.931366709602    -0.072588701705
            0.010283552297    0.042357636353    0.080224295038    0.068925135018    -0.931366709602    -0.072588701705    0.085189042469    0.092515574605
0.475     -0.066125994831    0.110324120580    -0.924845164334    0.089521671390    -0.058663081287    0.091279514173    0.020471059043    0.041002254358
            -0.924845164334    0.089521671390    0.103304091432    0.094640468539    0.019891381737    0.041761040614    0.093643887481    0.070807682591
            -0.058663081287    0.091279514173    0.019891381737    0.041761040614    -0.068319316561    0.109050431060    -0.925520369144    0.083354079772
            0.020471059043    0.041002254358    0.093643887481    0.070807682591    -0.925520369144    0.083354079772    0.103715627380    0.094168999326
0.500     -0.038601715156    0.133876014056    -0.892339952912    0.240791179242    -0.037668903547    0.114097467420    0.030248195202    0.036717126649
            -0.892339952912    0.240791179242    0.122730428914    0.091637909703    0.029537338686    0.038007840706    0.108237606137    0.069456820313
            -0.037668906682    0.114097476916    0.029537338686    0.038007840706    -0.041056422148    0.133159467616    -0.894099922745    0.234562890501
            0.030248103241    0.036717119487    0.108237602500    0.069456825980    -0.894099922745    0.234562890501    0.122892009516    0.091191255495
0.525     -0.005305945687    0.148910359760    -0.835929488166    0.383148741092    -0.010697805295    0.130630099617    0.038643226633    0.029769689464
            -0.835929488166    0.383148741092    0.141478163788    0.083903714195    0.036952658118    0.032871293273    0.123048146103    0.064579085757
            -0.010697808391    0.130630109397    0.036952612234    0.032871295203    -0.007803211948    0.149210758681    -0.838747393979    0.377068913413
            0.038643181513    0.029769692320    0.123048142722    0.064579092200    -0.838747393979    0.377068913413    0.141316164791    0.083528671513
0.550     0.031059583476    0.154159162726    -0.757982608945    0.513349679158    0.018765585379    0.138714037165    0.044886022692    0.020862312641
            -0.757982608945    0.513349679158    0.157501724681    0.072099229577    0.040649965194    0.015467269551    0.136622329597    0.056374037840
            0.018765585379    0.138714037165    0.040649964924    0.015467270260    0.026602929220    0.154108119251    -0.762119780552    0.507823251732
            0.044886021785    0.020862312220    0.136622329597    0.056374037840    -0.762119780552    0.507823251732    0.157698913214    0.071599417631
0.575     0.067544976349    0.149046684370    -0.660929078304    0.628126944993    0.051381809031    0.138270418294    0.048623189895    0.010714482181
            -0.660929078304    0.628126944993    0.170871192339    0.056185881656    0.047183704651    0.008498357076    0.148702118291    0.044627722056
            0.051381809031    0.138270418294    0.047183704651    0.008498357076    0.064257631895    0.149666973260    -0.666078155526    0.623019542310
            0.048623189895    0.010714482181    0.148702118291    0.044627722056    -0.666078155526    0.623019542310    0.170828256069    0.056134801856
0.600     0.101145872621    0.133810514825    -0.547616803109    0.725441759325    0.082359350877    0.129135022923    0.050065522870    -0.000486547458
            -0.547616803109    0.725441759325    0.180044791252    0.038032024674    0.047804991565    -0.001115819475    0.158012021749    0.030458723238
            0.082359348623    0.129135024360    0.047804911578    -0.001115775116    0.098422027726    0.135432992408    -0.553686565177    0.721065687548
            0.050065522871    -0.000486547283    0.158012020685    0.030458728754    -0.553686565177    0.721065687548    0.179869018795    0.038222913567
0.625     0.128953605060    0.110378020984    -0.420820775869    0.803374725484    0.109711426915    0.112142423870    0.046356187906    -0.011453592201
            -0.420820775869    0.803374725484    0.184615366651    0.018672921022    0.045638194085    -0.010381762049    0.164084926678    0.014643513234
            0.109711426915    0.112142423870    0.045638157661    -0.010381732820    0.127300212389    0.112283766048    -0.427745474564    0.799824638404
            0.046356187906    -0.011453592201    0.164084936434    0.014643516414    -0.427745474564    0.799824638404    0.184508663426    0.019284057602
0.650     0.149805819388    0.079964183791    -0.283574309672    0.860119595723    0.131887888928    0.088002366954    0.041348903311    -0.018811900769
            -0.283574309672    0.860119595723    0.184489599362    -0.000553614268    0.041363550380    -0.018246780845    0.166549524263    -0.002083833407
            0.131887888928    0.088002366954    0.041363551613    -0.018246780527    0.148700408056    0.081938488060    -0.291280900285    0.857624069295
            0.041348903311    -0.018811900769    0.166549524261    -0.002083833495    -0.291280900285    0.857624069295    0.184656128791    0.000279288310
0.675     0.161367577745    0.044555846607    -0.139061683231    0.894492450194    0.146685955670    0.058246912513    0.035726035626    -0.024489007328
            -0.139061683231    0.894492450194    0.179965676625    -0.018337611053    0.035828141592    -0.024170210789    0.165218772125    -0.018601330498
            0.146685955670    0.058246912513    0.035828088016    -0.024170136430    0.160893087210    0.046612226614    -0.147374943187    0.893214675771
            0.035726035626    -0.024489007328    0.165218782419    -0.018601328445    -0.147374943187    0.893214675771    0.180429260867    -0.017382715207
0.700     0.162487121500    0.006944418147    0.009486742591    0.905520327126    0.152681701669    0.025042939980    0.029830746494    -0.028294976998
            0.009486742591    0.905520327126    0.171699846676    -0.033494248936    0.029936654765    -0.028063356242    0.160325148449    -0.033832026494
            0.152681701669    0.025042939980    0.029936654765    -0.028063356242    0.162716567153    0.008915292741    0.000751917055    0.905590647840
            0.029830746494    -0.028294976998    0.160325148449    -0.033832026494    0.000751917055    0.905590647840    0.172493972228    -0.032507272790
0.725     0.152748995766    -0.029920710670    0.158606141978    0.892532235147    0.148987762516    -0.009115527863    0.024388734222    -0.030448191949
            0.158606141978    0.892532235147    0.160677652657    -0.045049605450    0.024498697369    -0.030235503666    0.152395199849    -0.046780939676
            0.148987762516    -0.009115527863    0.024498682334    -0.030235459218    0.153682641817    -0.028249370069    0.149664270875    0.894063167631
            0.024388734222    -0.030448191949    0.152395199849    -0.046780939676    0.149664270875    0.894063167631    0.161814027700    -0.044136609612
0.750     0.132516421387    -0.062983671607    0.304592622947    0.855258193591    0.135385549978    -0.041453711080    0.019937042122    -0.031545716821
            0.304592622947    0.855258193591    0.148172629021    -0.052345772557    0.020071872424    -0.031323018838    0.142277959694    -0.056616354304
            0.135385559540    -0.041453714008    0.020071856085    -0.031322928353    0.134081234236    -0.061832817664    0.295682150534    0.858335045009
            0.019937042122    -0.031545716821    0.142277968986    -0.056616358001    0.295682150534    0.858335045009    0.149629047779    -0.051617517139
0.775     0.103013311203    -0.089257777793    0.443478491990    0.793951552778    0.112458379576    -0.069066916692    0.016644965807    -0.032384981297
            0.443478487114    0.793951544048    0.135655600755    -0.055131705558    0.016831815711    -0.032147449106    0.131093899154    -0.062788107461
            0.112458384231    -0.069066870895    0.016831816736    -0.032147449698    0.105063931412    -0.088830907481    0.434870127165    0.798624540966
            0.016644967287    -0.032384982785    0.131093899154    -0.062788107461    0.434870127165    0.798624540966    0.137371608436    -0.054692088391
