# GHz S RI R 45
0.000     0.016910431000    0.000000000000    -0.000002720296    0.000000000000    0.000514524540    -0.000000000000    -0.000007440433    0.000000000000
            -0.000002720334    0.000000000000    0.015515852000    0.000000000000    0.000011673445    0.000000000000    0.000431511610    -0.000000000000
            0.000514520990    -0.000000000000    0.000011673425    0.000000000000    0.016870794000    0.000000000000    -0.000008308187    0.000000000000
            -0.000007440592    0.000000000000    0.000431507060    -0.000000000000    -0.000008308160    0.000000000000    0.015482974000    0.000000000000
0.025     0.022673928316    0.010741391453    -0.000003637505    0.000002194472    0.003114403427    0.010889294221    0.000002164824    0.000006619980
            -0.000003637540    0.000002194484    0.020836974260    0.009505835281    0.000029378224    0.000102653045    0.002755535543    0.009623261605
            0.003114378780    0.010889343913    0.000029378208    0.000102653049    0.022613514539    0.010723577105    0.000003268685    0.000008255298
            0.000002164673    0.000006620022    0.002755509207    0.009623311793    0.000003268717    0.000008255292    0.020764173744    0.009412286893
0.050     0.031011857578    0.016039661147    -0.000002184304    0.000005468141    0.010055397539    0.019580858931    0.000006037439    0.000003322005
            -0.000002184342    0.000005468166    0.028550816246    0.014163186513    0.000073917623    0.000195420797    0.009053398997    0.017408593433
            0.010055382962    0.019580870914    0.000073917610    0.000195420813    0.030959450796    0.016031231191    0.000007793444    0.000004680406
            0.000006037295    0.000003322092    0.009053383063    0.017408605101    0.000007793471    0.000004680396    0.028440891408    0.014011072970
0.075     0.041368484852    0.017144836041    0.000000400875    0.000007425330    0.020134384979    0.024578771875    0.000006971980    0.000000779094
            0.000000400853    0.000007425365    0.038365464521    0.015179386992    0.000138859665    0.000271099262    0.018374836567    0.022031308282
            0.020134376419    0.024578776302    0.000138859656    0.000271099278    0.041344376184    0.017138602936    0.000008625604    0.000002197665
            0.000006971868    0.000000779211    0.018374826186    0.022031313034    0.000008625630    0.000002197648    0.038214624226    0.014987041776
0.100     0.052165671849    0.013252230955    0.000003223919    0.000008297788    0.031679848160    0.024897302622    0.000007032827    -0.000001269543
            0.000003223906    0.000008297821    0.049034533515    0.011738150052    0.000219071130    0.000327872369    0.029373231507    0.022565441923
            0.031679847208    0.024897305452    0.000219071124    0.000327872385    0.052187308247    0.013239717254    0.000008437895    0.000000707650
            0.000007032748    -0.000001269397    0.029373230331    0.022565445096    0.000008437918    0.000000707626    0.048847295758    0.011529327780
0.125     0.061278606519    0.004249973117    0.000006077084    0.000008449739    0.042772253317    0.020235636985    0.000006663930    -0.000002938849
            0.000006077081    0.000008449778    0.058765520142    0.003517806495    0.000310340312    0.000366654672    0.040467753620    0.018602446443
            0.042772254065    0.020235640080    0.000310340305    0.000366654691    0.061362795323    0.004205302644    0.000008127346    0.000000122328
            0.000006663895    -0.000002938701    0.040467753230    0.018602449686    0.000008127366    0.000000122293    0.058560826797    0.003312908103
0.150     0.066891725658    -0.009024870550    0.000008899755    0.000007999002    0.051503987856    0.010955662173    0.000006041133    -0.000004281044
            0.000008899762    0.000007999035    0.065999466455    -0.008946792103    0.000409367430    0.000383249031    0.050036247917    0.010244054357
            0.051503989430    0.010955664387    0.000409367438    0.000383249051    0.067056184426    -0.009113556189    0.000008108038    0.000000089086
            0.000006041137    -0.000004280897    0.050036249161    0.010244058251    0.000008108049    0.000000089055    0.065797840790    -0.009126254612
0.175     0.067306004319    -0.025180677207    0.000011790080    0.000006989671    0.056189054344    -0.001894937489    0.000005370353    -0.000005363889
            0.000011790097    0.000006989701    0.069126028253    -0.024747730081    0.000511337137    0.000376487750    0.056557919594    -0.001850975528
            0.056189056409    -0.001894935595    0.000511337147    0.000376487770    0.067561381884    -0.025345366393    0.000008726060    0.000000232483
            0.000005370400    -0.000005363739    0.056557920684    -0.001850972796    0.000008726064    0.000000232445    0.068966128299    -0.024895841205
0.200     0.061449115673    -0.042236036433    0.000014822099    0.000005205134    0.055584689086    -0.016719227123    0.000004782875    -0.000006363509
            0.000014822123    0.000005205153    0.066974029046    -0.042420533315    0.000611142990    0.000346019721    0.058795337955    -0.016550342842
            0.055584691585    -0.016719225759    0.000611142993    0.000346019737    0.061794522176    -0.042519171812    0.000010066631    0.000000046643
            0.000004782954    -0.000006363377    0.058795339496    -0.016550341061    0.000010066627    0.000000046609    0.066897313741    -0.042552443811
0.225     0.048985498502    -0.057881487844    0.000017833794    0.000002289971    0.049044605975    -0.031534183172    0.000004263172    -0.000007550257
            0.000017833827    0.000002289992    0.058899036281    -0.060155353001    0.000703456055    0.000292495945    0.055918665019    -0.032355223285
            0.049044608758    -0.031534182541    0.000703456059    0.000292495961    0.049403941633    -0.058331073902    0.000011923129    -0.000001054984
            0.000004263287    -0.000007550158    0.055918667880    -0.032355222335    0.000011923118    -0.000001055020    0.058940060128    -0.060305315588
0.250     0.030417157406    -0.069738783631    0.000020321941    -0.000002094535    0.036637100224    -0.044181646062    0.000003577701    -0.000009156288
            0.000020321971    -0.000002094527    0.044881457045    -0.075975706807    0.000782901259    0.000217791718    0.047610279986    -0.047542688158
            0.036637101634    -0.044181646192    0.000782901269    0.000217791721    0.030872459438    -0.070401773031    0.000013734671    -0.000003482447
            0.000003577836    -0.000009156215    0.047610282353    -0.047542687203    0.000013734649    -0.000003482483    0.045062075416    -0.076192833931
0.275     0.007071667116    -0.075638608175    0.000021479668    -0.000007986562    0.019190137579    -0.052566482075    0.000002296212    -0.000011252759
            0.000021479705    -0.000007986563    0.025538428210    -0.087934877129    0.000844391574    0.000125181202    0.034114851925    -0.060324678914
            0.019190144687    -0.052566481609    0.000844391593    0.000125181209    0.007507737955    -0.076553463203    0.000014669038    -0.000007344505
            0.000002296349    -0.000011252727    0.034114855016    -0.060324679464    0.000014669008    -0.000007344534    0.025862112651    -0.088278458432
0.300     -0.018971150986    -0.073918657776    0.000020376331    -0.000014945235    -0.001738686695    -0.054931178353    -0.000000080442    -0.000013603095
            0.000020376363    -0.000014945247    0.002110816531    -0.094326846361    0.000883606912    0.000019385671    0.016248708945    -0.069034449491
            -0.001738684841    -0.054931180413    0.000883606922    0.000019385672    -0.018629524337    -0.075107221616    0.000013846113    -0.000012244852
            -0.000000080293    -0.000013603100    0.016248711812    -0.069034450871    0.000013846075    -0.000012244876    0.002558313722    -0.094860440386
0.325     -0.045075172451    -0.063671585970    0.000016284172    -0.000021968982    -0.023992185229    -0.050106049398    -0.000003941823    -0.000015647552
            0.000016284202    -0.000021969003    -0.023636371922    -0.093866568772    0.000897534115    -0.000093608880    -0.004652039435    -0.072296345654
            -0.023992186093    -0.050106051202    0.000897534134    -0.000093608885    -0.044916199958    -0.065130675740    0.000010577575    -0.000017308794
            -0.000003941688    -0.000015647591    -0.004652037040    -0.072296347812    0.000010577532    -0.000017308807    -0.023108832806    -0.094649556872
0.350     -0.068335985616    -0.044949995046    0.000008972653    -0.000027651085    -0.045050283655    -0.037728938395    -0.000009362513    -0.000016588910
            0.000008972680    -0.000027651110    -0.049559232510    -0.085862779214    0.000884944926    -0.000207005729    -0.026839736730    -0.069196291738
            -0.045050284422    -0.037728939037    0.000884944942    -0.000207005749    -0.068452544472    -0.046644740443    0.000004655772    -0.000021312960
            -0.000009362393    -0.000016588982    -0.026839725376    -0.069196298287    0.000004655724    -0.000021312965    -0.049019010896    -0.086941147075
0.375     -0.085938943023    -0.018827849142    -0.000001099264    -0.000030515664    -0.062337389582    -0.018348463870    -0.000016025488    -0.000015626436
            -0.000001099253    -0.000030515692    -0.073333953370    -0.070312228054    0.000846631690    -0.000313888584    -0.048310134756    -0.059393910459
            -0.062337391501    -0.018348464435    0.000846631704    -0.000313888606    -0.086416467862    -0.020688957661    -0.000003558660    -0.000023001740
            -0.000016025393    -0.000015626534    -0.048310136018    -0.059393912011    -0.000003558703    -0.000023001736    -0.072867605534    -0.071710467308
0.400     -0.095546959893    0.012665324587    -0.000012911476    -0.000029482425    -0.073581866213    0.006593492413    -0.000023307101    -0.000012273717
            -0.000012911467    -0.000029482463    -0.092690649668    -0.047948738730    0.000785271741    -0.000408043029    -0.067006499772    -0.043196812884
            -0.073581867209    0.006593492502    0.000785271743    -0.000408043047    -0.096450227631    0.010740462609    -0.000013243657    -0.000021485005
            -0.000023307037    -0.000012273834    -0.067006501453    -0.043196813967    -0.000013243704    -0.000021484988    -0.092397294958    -0.049663006422
0.425     -0.095619551906    0.046776918735    -0.000025349096    -0.000024492816    -0.077119044915    0.034932710843    -0.000030616403    -0.000006837136
            -0.000025349102    -0.000024492839    -0.105641898039    -0.020194236131    0.000704862644    -0.000484896659    -0.081021153526    -0.021548114085
            -0.077119029781    0.034932671544    0.000704862644    -0.000484896677    -0.096980730113    0.044917892676    -0.000023590150    -0.000016790463
            -0.000030616410    -0.000006837289    -0.081021155459    -0.021548114599    -0.000023590192    -0.000016790431    -0.105624661305    -0.022187801949
0.450     -0.085633294163    0.080372556596    -0.000037424721    -0.000018004641    -0.072120894482    0.064064820569    -0.000037242572    -0.000001614486
            -0.000037424732    -0.000018004671    -0.110701097817    0.010956405962    0.000610495119    -0.000543122331    -0.088806051047    0.004046218310
            -0.072120895978    0.064064821898    0.000610495117    -0.000543122348    -0.087441302075    0.078726975358    -0.000033911320    -0.000011355230
            -0.000037242577    -0.000001614610    -0.088806053751    0.004046202901    -0.000033911350    -0.000011355188    -0.111057779259    0.008754420786
0.475     -0.066125994831    0.110324120580    -0.000043223583    -0.000014609274    -0.058663081287    0.091279514173    -0.000038010281    0.000000397812
            -0.000043223603    -0.000014609289    -0.107031842294    0.043116950869    0.000512702404    -0.000583510814    -0.089321355907    0.031657179039
            -0.058663081287    0.091279514173    0.000512702401    -0.000583510830    -0.068319316561    0.109050431060    -0.000038391278    -0.000009529280
            -0.000038010318    0.000000397693    -0.089321362375    0.031657163783    -0.000038391298    -0.000009529228    -0.107846712599    0.040813687911
0.500     -0.038601715156    0.133876014056    -0.000038384069    -0.000007369133    -0.037668903547    0.114097467420    -0.000030926543    0.000005997665
            -0.000038384093    -0.000007369152    -0.094547124748    0.073725948939    0.000418789023    -0.000597436472    -0.082153107368    0.059113740233
            -0.037668906682    0.114097476916    0.000418789008    -0.000597436495    -0.041056422148    0.133159467616    -0.000032917045    -0.000003825115
            -0.000030926605    0.000005997559    -0.082153107368    0.059113740233    -0.000032917058    -0.000003825058    -0.095878963530    0.071472849387
0.525     -0.005305945687    0.148910359760    -0.000031468606    0.000003019462    -0.010697805295    0.130630099617    -0.000023382060    0.000013524892
            -0.000031468627    0.000003019458    -0.073944475687    0.100274410342    0.000325546809    -0.000586721625    -0.067554458021    0.084199043681
            -0.010697808391    0.130630109397    0.000325546804    -0.000586721640    -0.007803211948    0.149210758681    -0.000026115710    0.000005206305
            -0.000023382141    0.000013524808    -0.067554474897    0.084199004500    -0.000026115708    0.000005206362    -0.075780779380    0.098279488553
0.550     0.031059583476    0.154159162726    -0.000023821003    0.000011532515    0.018765585379    0.138714037165    -0.000015814618    0.000019320126
            -0.000023821030    0.000011532508    -0.046692156998    0.120616839549    0.000237469240    -0.000557298644    -0.046441647487    0.104907054249
            0.018765585379    0.138714037165    0.000237469221    -0.000557298652    0.026602929220    0.154108119251    -0.000019116562    0.000012484944
            -0.000015814715    0.000019320072    -0.046441647487    0.104907054249    -0.000019116548    0.000012484997    -0.048854843848    0.119069271460
0.575     0.067544976349    0.149046684370    -0.000015632828    0.000017028414    0.051381809031    0.138270418294    -0.000008383458    0.000022503086
            -0.000015632850    0.000017028420    -0.014695774521    0.133245705262    0.000159190176    -0.000510875790    -0.020177692454    0.119636615074
            0.051381809031    0.138270418294    0.000159190158    -0.000510875795    0.064257631895    0.149666973260    -0.000011555296    0.000017332949
            -0.000008383559    0.000022503055    -0.020177696630    0.119636614369    -0.000011555263    0.000017332998    -0.016954469453    0.132139861524
0.600     0.101145872621    0.133810514825    -0.000006984928    0.000019570807    0.082359350877    0.129135022923    -0.000001500870    0.000023290582
            -0.000006984978    0.000019570905    0.019938972226    0.137095297603    0.000093663215    -0.000450280923    0.009551559523    0.127138634255
            0.082359348623    0.129135024360    0.000093663192    -0.000450280928    0.098422027726    0.135432992408    -0.000004354934    0.000019625958
            -0.000001500967    0.000023290574    0.009551557304    0.127138634421    -0.000004354896    0.000019625996    0.017672352424    0.136383650153
0.625     0.128953605060    0.110378020984    -0.000000059402    0.000017710054    0.109711426915    0.112142423870    0.000004317855    0.000022393386
            -0.000000059415    0.000017710070    0.054770486074    0.131632920159    0.000043674875    -0.000377975663    0.040704615270    0.126626740951
            0.109711426915    0.112142423870    0.000043674862    -0.000377975665    0.127300212389    0.112283766048    0.000002015281    0.000020002855
            0.000004317761    0.000022393410    0.040704610849    0.126626742372    0.000002015337    0.000020002886    0.052566165759    0.131344033575
0.650     0.149805819388    0.079964183791    0.000003946112    0.000016042525    0.131887888928    0.088002366954    0.000009088728    0.000020588485
            0.000003946100    0.000016042543    0.087275753371    0.117069401208    0.000011605626    -0.000297044228    0.071094050585    0.117925890404
            0.131887888928    0.088002366954    0.000011605621    -0.000297044219    0.148700408056    0.081938488060    0.000007349603    0.000019233962
            0.000009088644    0.000020588526    0.071094046469    0.117925892886    0.000007349658    0.000019233976    0.085247392660    0.117232281120
0.675     0.161367577745    0.044555846607    0.000007090157    0.000014660335    0.146685955670    0.058246912513    0.000012995383    0.000018416699
            0.000007090160    0.000014660351    0.115099962780    0.094292342896    -0.000000615588    -0.000211114643    0.098569487858    0.101437978407
            0.146685955670    0.058246912513    -0.000000615595    -0.000211114632    0.160893087210    0.046612226614    0.000011859253    0.000017993051
            0.000012995309    0.000018416758    0.098569493056    0.101437987299    0.000011859315    0.000017993049    0.113387130349    0.094894215498
0.700     0.162487121500    0.006944418147    0.000009835108    0.000013836926    0.152681701669    0.025042939980    0.000016491484    0.000016197022
            0.000009835118    0.000013836939    0.136217192282    0.064770727830    0.000008379126    -0.000124504001    0.121160720725    0.078108051774
            0.152681701669    0.025042939980    0.000008379121    -0.000124503991    0.162716567153    0.008915292741    0.000016052241    0.000016630766
            0.000016491464    0.000016197076    0.121160719361    0.078108053889    0.000016052347    0.000016630723    0.134961865620    0.065749247760
0.725     0.152748995766    -0.029920710670    0.000013066024    0.000013594094    0.148987762516    -0.009115527863    0.000020103987    0.000013836789
            0.000013066058    0.000013594140    0.149044565913    0.030446570827    0.000039036178    -0.000042186362    0.137182572937    0.049357575091
            0.148987762516    -0.009115527863    0.000039036156    -0.000042186331    0.153682641817    -0.028249370069    0.000020516504    0.000015052697
            0.000020103977    0.000013836842    0.137182572075    0.049357577485    0.000020516565    0.000015052664    0.148374419737    0.031691833393
0.750     0.132516421387    -0.062983671607    0.000017599889    0.000013298436    0.135385549978    -0.041453711080    0.000024170747    0.000010846974
            0.000017599899    0.000013298448    0.152548408312    -0.006387779604    0.000090508823    0.000030421401    0.145357502147    0.017010786752
            0.135385559540    -0.041453714008    0.000090508833    0.000030421399    0.134081234236    -0.061832817664    0.000025644477    0.000012719314
            0.000024170752    0.000010847028    0.145357511931    0.017010789183    0.000025644556    0.000012719223    0.152562010449    -0.005026114703
0.775     0.103013311203    -0.089257777793    0.000023762725    0.000011780434    0.112458379576    -0.069066916692    0.000028627094    0.000006488926
            0.000023762735    0.000011780438    0.146310863240    -0.043230062060    0.000160366304    0.000087873335    0.144895570872    -0.016806751617
            0.112458384231    -0.069066870895    0.000160366311    0.000087873321    0.105063931412    -0.088830907481    0.000031389922    0.000008802105
            0.000028627092    0.000006489014    0.144895580923    -0.016806751757    0.000031389952    0.000008802050    0.147066414247    -0.041933938746
