# GHz S RI R 45
0.000     0.016910431000    0.000000000000    -0.000055482431    0.000000000000    0.000514524540    -0.000000000000    -0.000068173466    0.000000000000
            -0.000055482289    0.000000000000    0.017096174000    0.000000000000    -0.000045370107    0.000000000000    0.000432971590    0.000000000000
            0.000514520990    -0.000000000000    -0.000045369717    0.000000000000    0.016870794000    0.000000000000    -0.000070729281    0.000000000000
            -0.000068173132    0.000000000000    0.000432973200    0.000000000000    -0.000070729466    0.000000000000    0.017070862000    0.000000000000
0.025     0.022673928316    0.010741391453    -0.000091854881    -0.000207001444    0.003114403427    0.010889294221    -0.000118967806    -0.000268553929
            -0.000091854765    -0.000207001474    0.021826959846    0.011074678850    -0.000077325780    -0.000165386253    0.002182064502    0.011370331613
            0.003114378780    0.010889343913    -0.000077325466    -0.000165386333    0.022613514539    0.010723577105    -0.000090996405    -0.000200196310
            -0.000118968021    -0.000268554162    0.002181943133    0.011370164492    -0.000090996586    -0.000200196151    0.021747331124    0.011024126634
0.050     0.031011857578    0.016039661147    -0.000221164167    -0.000394212921    0.010055397539    0.019580858931    -0.000283143673    -0.000508118639
            -0.000221164093    -0.000394212951    0.027185627533    0.017744118203    -0.000181390986    -0.000311923709    0.006723368171    0.021430862804
            0.010055382962    0.019580870914    -0.000181390624    -0.000311923838    0.030959450796    0.016031231191    -0.000215207534    -0.000399144546
            -0.000283143472    -0.000508118695    0.006723399066    0.021430849967    -0.000215207608    -0.000399144517    0.027042295054    0.017668623490
0.075     0.041368484852    0.017144836041    -0.000425019921    -0.000516197685    0.020134384979    0.024578771875    -0.000540742598    -0.000669032859
            -0.000425019914    -0.000516197677    0.033202954108    0.022206551133    -0.000343838788    -0.000406771827    0.013384104454    0.029479213860
            0.020134376419    0.024578776302    -0.000343838453    -0.000406772006    0.041344376184    0.017138602936    -0.000423227299    -0.000531066078
            -0.000540742185    -0.000669033064    0.013384110940    0.029479213111    -0.000423227306    -0.000531066085    0.032972582887    0.022149730258
0.100     0.052165671849    0.013252230955    -0.000670130318    -0.000559335107    0.031679848160    0.024897302622    -0.000853987741    -0.000733353288
            -0.000670130311    -0.000559335100    0.039237621581    0.024326380329    -0.000539038671    -0.000438930173    0.021287687188    0.035029557421
            0.031679847208    0.024897305452    -0.000539037865    -0.000438930768    0.052187308247    0.013239717254    -0.000677652334    -0.000581551516
            -0.000853987741    -0.000733353288    0.021287688411    0.035029556678    -0.000677653118    -0.000581550956    0.038920137164    0.024339760012
0.125     0.061278606519    0.004249973117    -0.000929124533    -0.000519748448    0.042772253317    0.020235636985    -0.001190675275    -0.000693617336
            -0.000929124533    -0.000519748448    0.044330720060    0.024346744068    -0.000745456281    -0.000404819146    0.029479721251    0.037977325255
            0.042772254065    0.020235640080    -0.000745455946    -0.000404819469    0.061362795323    0.004205302644    -0.000950349441    -0.000544994964
            -0.001190675275    -0.000693617336    0.029479722527    0.037977325531    -0.000950349718    -0.000544994682    0.043951475510    0.024484133077
0.150     0.066891725658    -0.009024870550    -0.001179359486    -0.000402753194    0.051503987856    0.010955662173    -0.001522580532    -0.000552954580
            -0.001179358921    -0.000402753921    0.047844661281    0.022860568928    -0.000944862461    -0.000308141406    0.037008232346    0.038521703569
            0.051503989430    0.010955664387    -0.000944862470    -0.000308141410    0.067056184426    -0.009113556189    -0.001217180301    -0.000424403288
            -0.001522580532    -0.000552954580    0.037008233712    0.038521703644    -0.001217180301    -0.000424403288    0.047450311855    0.023158204025
0.175     0.067306004319    -0.025180677207    -0.001404560408    -0.000216964296    0.056189054344    -0.001894937489    -0.001827459363    -0.000318760638
            -0.001404560135    -0.000216964756    0.049271995192    0.020703842565    -0.001123687033    -0.000155244868    0.043090335593    0.037227470971
            0.056189056409    -0.001894935595    -0.001123686880    -0.000155245247    0.067561381884    -0.025345366393    -0.001458804433    -0.000226538569
            -0.001827459110    -0.000318760922    0.043090336242    0.037227470219    -0.001458804433    -0.000226538569    0.048928823866    0.021177318687
0.200     0.061449115673    -0.042236036433    -0.001594498642    0.000029091195    0.055584689086    -0.016719227123    -0.002088881976    0.000000319371
            -0.001594498642    0.000029091195    0.048449291263    0.018889040887    -0.001272784369    0.000047212093    0.047220379583    0.034912094324
            0.055584691585    -0.016719225759    -0.001272784369    0.000047212093    0.061794522176    -0.042519171812    -0.001660866670    0.000040508623
            -0.002088881976    0.000000319371    0.047220372101    0.034912097715    -0.001660866670    0.000040508623    0.048230240083    0.019524000562
0.225     0.048985498502    -0.057881487844    -0.001740866542    0.000329633453    0.049044605975    -0.031534183172    -0.002292038661    0.000397099467
            -0.001740866542    0.000329633453    0.045640498131    0.018448138809    -0.001384281647    0.000294210623    0.049244044851    0.032523052568
            0.049044608758    -0.031534182541    -0.001384281652    0.000294210119    0.049403941633    -0.058331073902    -0.001810465761    0.000369189198
            -0.002292038533    0.000397099033    0.049244046253    0.032523052259    -0.001810465761    0.000369189198    0.045611152613    0.019198568581
0.250     0.030417157406    -0.069738783631    -0.001834514659    0.000681753162    0.036637100224    -0.044181646062    -0.002421378297    0.000865646555
            -0.001834514659    0.000681753162    0.041520719227    0.020282876619    -0.001449722321    0.000582250958    0.049389855325    0.031009020477
            0.036637101634    -0.044181646192    -0.001449722255    0.000582250050    0.030872459438    -0.070401773031    -0.001894735545    0.000752525942
            -0.002421378317    0.000865645609    0.049389857019    0.031009021540    -0.001894735545    0.000752525942    0.041725914591    0.021075794418
0.275     0.007071667116    -0.075638608175    -0.001861499695    0.001082482457    0.019190137579    -0.052566482075    -0.002456964993    0.001398130803
            -0.001861499695    0.001082482457    0.037114303725    0.024988680884    -0.001457365380    0.000907058064    0.048251296765    0.031168408849
            0.019190144687    -0.052566481609    -0.001457365526    0.000907057450    0.007507737955    -0.076553463203    -0.001898071236    0.001181514696
            -0.002456965063    0.001398130276    0.048251299533    0.031168408250    -0.001898071236    0.001181514696    0.037567499842    0.025734162819
0.300     -0.018971150986    -0.073918657776    -0.001802883805    0.001524920066    -0.001738686695    -0.054931178353    -0.002374985483    0.001980958148
            -0.001802883805    0.001524920066    0.033661480620    0.032743829102    -0.001392389624    0.001260738028    0.046717975010    0.033520151274
            -0.001738684841    -0.054931180413    -0.001392389624    0.001260738028    -0.018629524337    -0.075107221616    -0.001802888960    0.001642522219
            -0.002374985483    0.001980958148    0.046717977805    0.033520150809    -0.001802888682    0.001642523118    0.034339404894    0.033348761257
0.325     -0.045075172451    -0.063671585970    -0.001636389058    0.001992881695    -0.023992185229    -0.050106049398    -0.002150043650    0.002589512944
            -0.001636389058    0.001992881695    0.032446374082    0.043221087527    -0.001238505993    0.001627962509    0.045847203190    0.038188803804
            -0.023992186093    -0.050106051202    -0.001238505993    0.001627962509    -0.044916199958    -0.065130675740    -0.001591617910    0.002113408183
            -0.002150043650    0.002589512944    0.045847206059    0.038188803483    -0.001591617910    0.002113408183    0.033288792735    0.043604390823
0.350     -0.068335985616    -0.044949995046    -0.001342025943    0.002458347343    -0.045050283655    -0.037728938395    -0.001761592662    0.003186395220
            -0.001342025943    0.002458347343    0.034596759433    0.055600699060    -0.000982520245    0.001984560063    0.046702531882    0.044862631839
            -0.045050284422    -0.037728939037    -0.000982520245    0.001984560063    -0.068452544472    -0.046644740443    -0.001251711260    0.002562789854
            -0.001761592662    0.003186395220    0.046702535673    0.044862630779    -0.001251711260    0.002562789854    0.035513519833    0.055708182677
0.375     -0.085938943023    -0.018827849142    -0.000909031673    0.002881130240    -0.062337389582    -0.018348463870    -0.001201122928    0.003721746152
            -0.000909031704    0.002881130335    0.040888037719    0.068638928734    -0.000619550171    0.002297857935    0.050165424162    0.052805891050
            -0.062337391501    -0.018348464435    -0.000619550145    0.002297857838    -0.086416467862    -0.020688957661    -0.000781135694    0.002950886273
            -0.001201126089    0.003721742610    0.050165426927    0.052805888423    -0.000781135694    0.002950886273    0.041770795894    0.068453824138
0.400     -0.095546959893    0.012665324587    -0.000342650604    0.003214071196    -0.073581866213    0.006593492413    -0.000479090170    0.004139739665
            -0.000342650604    0.003214071196    0.051595535683    0.080842611188    -0.000157887078    0.002531421599    0.056782430542    0.060971145390
            -0.073581867209    0.006593492502    -0.000157887034    0.002531421601    -0.096450227631    0.010740462609    -0.000193070779    0.003235175322
            -0.000479090098    0.004139739673    0.056782433735    0.060971142417    -0.000193070779    0.003235175322    0.052335154914    0.080390581703
0.425     -0.095619551906    0.046776918735    0.000332393199    0.003410679724    -0.077119044915    0.034932710843    0.000372159503    0.004387057121
            0.000332393199    0.003410679724    0.066420346318    0.090671853345    0.000379210977    0.002651252965    0.066656004736    0.068151068958
            -0.077119029781    0.034932671544    0.000379210977    0.002651252965    -0.096980730113    0.044917892676    0.000482596300    0.003377223985
            0.000372159503    0.004387057121    0.066656007606    0.068151064753    0.000482596286    0.003377223886    0.066922756683    0.090019221659
0.450     -0.085633294163    0.080372556596    0.001073199272    0.003434953968    -0.072120894482    0.064064820569    0.001300553315    0.004423526093
            0.001073199272    0.003434953968    0.084520972779    0.096776773669    0.000955516263    0.002633368256    0.079432308444    0.073175923200
            -0.072120895978    0.064064821898    0.000955516263    0.002633368256    -0.087441302075    0.078726975358    0.001202141170    0.003350869486
            0.001300553315    0.004423526093    0.079432312276    0.073175919041    0.001202141170    0.003350869486    0.084722237463    0.096019564810
0.475     -0.066125994831    0.110324120580    0.001824605565    0.003268443989    -0.058663081287    0.091279514173    0.002241200796    0.004229449222
            0.001824605565    0.003268443989    0.104623005139    0.098177454653    0.001527424797    0.002468589060    0.094351425352    0.075074850701
            -0.058663081287    0.091279514173    0.001527424797    0.002468589060    -0.068319316561    0.109050431060    0.001914375253    0.003147015611
            0.002241200796    0.004229449222    0.094351427972    0.075074847408    0.001914375253    0.003147015611    0.104497369905    0.097428036545
0.500     -0.038601715156    0.133876014056    0.002528205673    0.002914219441    -0.037668903547    0.114097467420    0.003126532704    0.003809380369
            0.002528205644    0.002914219202    0.125202661250    0.094392533197    0.002051908167    0.002164474921    0.110371670705    0.073208059863
            -0.037668906682    0.114097476916    0.002051898924    0.002164474176    -0.041056422148    0.133159467616    0.002569585213    0.002775458858
            0.003126532771    0.003809380314    0.110371670705    0.073208059863    0.002569585097    0.002775458830    0.124760678670    0.093763101683
0.525     -0.005305945687    0.148910359760    0.003131055789    0.002395378820    -0.010697805295    0.130630099617    0.003895784193    0.003190172288
            0.003131055789    0.002395378820    0.144676282047    0.085468320103    0.002497096022    0.001743786342    0.126302311663    0.067323591193
            -0.010697808391    0.130630109397    0.002497096022    0.001743786342    -0.007803211948    0.149210758681    0.003131788801    0.002263184965
            0.003895784193    0.003190172288    0.126302306364    0.067323579876    0.003131788681    0.002263184961    0.143954686033    0.085068956810
0.550     0.031059583476    0.154159162726    0.003594382040    0.001750602427    0.018765585379    0.138714037165    0.004504747921    0.002415687131
            0.003594382040    0.001750602427    0.161588420012    0.071945381323    0.002795576843    0.001265357062    0.140968688456    0.057573858843
            0.018765585379    0.138714037165    0.002795576843    0.001265357062    0.026602929220    0.154108119251    0.003516942303    0.001679163316
            0.004504748009    0.002415687178    0.140968688456    0.057573858843    0.003516942303    0.001679163316    0.160662277360    0.071902643065
0.575     0.067544976349    0.149046684370    0.003892020938    0.001027154154    0.051381809031    0.138270418294    0.004922788078    0.001538357068
            0.003892020612    0.001027154214    0.174736153368    0.054766192110    0.003001587010    0.000692840354    0.153331819091    0.044427333621
            0.051381809031    0.138270418294    0.003001587241    0.000692840242    0.064257631895    0.149666973260    0.003798833050    0.000974680640
            0.004922787982    0.001538357038    0.153331839076    0.044427336511    0.003798833050    0.000974680640    0.173770255647    0.055178729091
0.600     0.101145872621    0.133810514825    0.004015964899    0.000274642134    0.082359350877    0.129135022923    0.005138656154    0.000612903267
            0.004015964902    0.000274642085    0.183274450874    0.035173503365    0.003080274081    0.000123415569    0.162514095194    0.028605492794
            0.082359348623    0.129135024360    0.003080274082    0.000123415558    0.098422027726    0.135432992408    0.003928695564    0.000266764356
            0.005138656154    0.000612903267    0.162514086294    0.028605485671    0.003928695560    0.000266764424    0.182456149822    0.036035115225
0.625     0.128953605060    0.110378020984    0.003982450533    -0.000452851419    0.109711426915    0.112142423870    0.005168546157    -0.000299031221
            0.003982450627    -0.000452851478    0.186758745653    0.014585376438    0.003043055727    -0.000427447355    0.167854154599    0.011076344015
            0.109711426915    0.112142423870    0.003043055729    -0.000427447340    0.127300212389    0.112283766048    0.003918462451    -0.000429165110
            0.005168546157    -0.000299031221    0.167854154889    0.011076339621    0.003918462455    -0.000429165075    0.186236232000    0.015825597671
0.650     0.149805819388    0.079964183791    0.003815019102    -0.001132306824    0.131887888928    0.088002366954    0.005036124431    -0.001173996975
            0.003815019102    -0.001132306824    0.185168924013    -0.005522917393    0.002908453008    -0.000937004519    0.169001655116    -0.007023592827
            0.131887888928    0.088002366954    0.002908453008    -0.000937004519    0.148700408056    0.081938488060    0.003786912372    -0.001087012822
            0.005036124431    -0.001173996975    0.169001655128    -0.007023592532    0.003786912372    -0.001087012822    0.185058521836    -0.004008489211
0.675     0.161367577745    0.044555846607    0.003538704659    -0.001733372659    0.146685955670    0.058246912513    0.004763831220    -0.001976903015
            0.003538704659    -0.001733372659    0.178894573835    -0.023720424681    0.002698663486    -0.001390958374    0.165930948730    -0.024479789080
            0.146685955670    0.058246912513    0.002698663462    -0.001390958422    0.160893087210    0.046612226614    0.003556444009    -0.001689600300
            0.004763831220    -0.001976903015    0.165930948730    -0.024479789080    0.003556443948    -0.001689600195    0.179281401263    -0.022068689135
0.700     0.162487121500    0.006944418147    0.003190685911    -0.002243835261    0.152681701669    0.025042939980    0.004388282818    -0.002691794419
            0.003190685466    -0.002243835198    0.168731882186    -0.038723929804    0.002436723619    -0.001784080237    0.158982568839    -0.040076909174
            0.152681701669    0.025042939980    0.002436723992    -0.001784080575    0.162716567153    0.008915292741    0.003249985911    -0.002228963809
            0.004388282818    -0.002691794419    0.158982568839    -0.040076909174    0.003249985911    -0.002228963809    0.169660018279    -0.037098036297
0.725     0.152748995766    -0.029920710670    0.002805479699    -0.002667791200    0.148987762516    -0.009115527863    0.003942723092    -0.003319130023
            0.002805479605    -0.002667791298    0.155842928380    -0.049500046765    0.002143210880    -0.002120098540    0.148864738425    -0.052700026425
            0.148987762516    -0.009115527863    0.002143210917    -0.002120098503    0.153682641817    -0.028249370069    0.002887745340    -0.002705842104
            0.003942721730    -0.003319125584    0.148864737506    -0.052700029023    0.002887745460    -0.002705842122    0.157304237354    -0.048079273590
0.750     0.132516421387    -0.062983671607    0.002409446975    -0.003023619766    0.135385549978    -0.041453711080    0.003451970629    -0.003872811107
            0.002409446975    -0.003023619766    0.141709147230    -0.055382745517    0.001832788782    -0.002410769377    0.136662355127    -0.061456250877
            0.135385559540    -0.041453714008    0.001832788740    -0.002410769409    0.134081234236    -0.061832817664    0.002483956825    -0.003128433224
            0.003451970629    -0.003872811107    0.136662355127    -0.061456250877    0.002483956879    -0.003128433181    0.143637178258    -0.054344279476
0.775     0.103013311203    -0.089257777793    0.002014196354    -0.003339447815    0.112458379576    -0.069066916692    0.002926296550    -0.004375213656
            0.002014196354    -0.003339447815    0.128027620766    -0.056185299176    0.001510224773    -0.002672695198    0.123768727694    -0.065819235858
            0.112458384231    -0.069066870895    0.001510224773    -0.002672695198    0.105063931412    -0.088830907481    0.002043357636    -0.003508846400
            0.002926296550    -0.004375213656    0.123768727694    -0.065819235858    0.002043357636    -0.003508846400    0.130295208701    -0.055685656449
