# GHz S RI R 45
0.000     0.016910431000    0.000000000000    0.000000506968    -0.000000000000    0.000514524540    -0.000000000000    -0.000003142278    0.000000000000
            0.000000507108    -0.000000000000    0.017226697000    0.000000000000    -0.000014532467    0.000000000000    0.000524444430    0.000000000000
            0.000514520990    -0.000000000000    -0.000014532375    0.000000000000    0.016870794000    0.000000000000    -0.000004332386    0.000000000000
            -0.000003142229    0.000000000000    0.000524521940    0.000000000000    -0.000004332529    0.000000000000    0.017181596000    0.000000000000
0.025     0.022673928316    0.010741391453    -0.000011844574    -0.000026786460    0.003114403427    0.010889294221    -0.000014078900    -0.000029846666
            -0.000011844434    -0.000026786485    0.021579488874    0.010115394190    -0.000009885522    -0.000014786532    0.002085068095    0.010386137486
            0.003114378780    0.010889343913    -0.000009885475    -0.000014786540    0.022613514539    0.010723577105    -0.000014194031    -0.000027702924
            -0.000014078856    -0.000029846666    0.002085026400    0.010385967365    -0.000014194181    -0.000027702894    0.021526811957    0.010139371925
0.050     0.031011857578    0.016039661147    -0.000028310842    -0.000042443399    0.010055397539    0.019580858931    -0.000032336637    -0.000050534179
            -0.000028310738    -0.000042443437    0.026517376143    0.016087653097    -0.000019062969    -0.000036968379    0.006245930354    0.019621555324
            0.010055382962    0.019580870914    -0.000019062926    -0.000036968391    0.030959450796    0.016031231191    -0.000031059658    -0.000047509889
            -0.000032336655    -0.000050534169    0.006246038327    0.019621536695    -0.000031059852    -0.000047509823    0.026467331625    0.016151353547
0.075     0.041368484852    0.017144836041    -0.000049156271    -0.000052730379    0.020134384979    0.024578771875    -0.000057389760    -0.000064361995
            -0.000049156133    -0.000052730453    0.032033197844    0.020027040392    -0.000039656335    -0.000051430152    0.012389681919    0.026992008014
            0.020134376419    0.024578776302    -0.000039656292    -0.000051430170    0.041344376184    0.017138602936    -0.000054838101    -0.000060852024
            -0.000057389728    -0.000064362005    0.012389764951    0.026991996309    -0.000054838283    -0.000060851928    0.031997606695    0.020129250069
0.100     0.052165671849    0.013252230955    -0.000073639435    -0.000055988310    0.031679848160    0.024897302622    -0.000087324869    -0.000069434068
            -0.000073639345    -0.000055988383    0.037551824843    0.021799975130    -0.000065387608    -0.000056879322    0.019699278133    0.032036115029
            0.031679847208    0.024897305452    -0.000065387616    -0.000056879308    0.052187308247    0.013239717254    -0.000083514629    -0.000065779173
            -0.000087324797    -0.000069434110    0.019699353781    0.032036100208    -0.000083514795    -0.000065779043    0.037540019548    0.021937847637
0.125     0.061278606519    0.004249973117    -0.000099621983    -0.000051413675    0.042772253317    0.020235636985    -0.000119403308    -0.000064791613
            -0.000099621875    -0.000051413796    0.042169285114    0.021572369471    -0.000092822902    -0.000052963028    0.027292197653    0.034636503193
            0.042772254065    0.020235640080    -0.000092822838    -0.000052963078    0.061362795323    0.004205302644    -0.000114394400    -0.000061219980
            -0.000119403227    -0.000064791677    0.027292273679    0.034636484029    -0.000114394472    -0.000061219890    0.042202124380    0.021739100184
0.150     0.066891725658    -0.009024870550    -0.000124993498    -0.000039168647    0.051503987856    0.010955662173    -0.000150983755    -0.000050587942
            -0.000124993435    -0.000039168747    0.045330159495    0.019940346177    -0.000119260141    -0.000040239357    0.034276642572    0.034944349532
            0.051503989430    0.010955664387    -0.000119260075    -0.000040239427    0.067056184426    -0.009113556189    -0.000144800327    -0.000047230047
            -0.000150983746    -0.000050587939    0.034276717182    0.034944326774    -0.000144800379    -0.000047229952    0.045406187337    0.020121179610
0.175     0.067306004319    -0.025180677207    -0.000148090963    -0.000019784256    0.056189054344    -0.001894937489    -0.000179936586    -0.000027420980
            -0.000148090919    -0.000019784355    0.046528445356    0.017610744259    -0.000142531418    -0.000019705281    0.039895646161    0.033453178912
            0.056189056409    -0.001894935595    -0.000142531368    -0.000019705350    0.067561381884    -0.025345366393    -0.000172487891    -0.000024385036
            -0.000179936577    -0.000027420978    0.039895719252    0.033453152443    -0.000172487934    -0.000024384950    0.046648977696    0.017792908565
0.200     0.061449115673    -0.042236036433    -0.000167652946    0.000006077323    0.055584689086    -0.016719227123    -0.000204597853    0.000003909975
            -0.000167652920    0.000006077234    0.045554539600    0.015492118799    -0.000161192982    0.000007476764    0.043630574049    0.030902521695
            0.055584691585    -0.016719225759    -0.000161192972    0.000007476764    0.061794522176    -0.042519171812    -0.000195699062    0.000006433434
            -0.000204597814    0.000003909903    0.043630645801    0.030902491326    -0.000195699116    0.000006433606    0.045719023435    0.015661706782
0.225     0.048985498502    -0.057881487844    -0.000182536086    0.000037886702    0.049044605975    -0.031534183172    -0.000223457720    0.000042688686
            -0.000182536077    0.000037886601    0.042579382328    0.014543214924    -0.000174061436    0.000040175617    0.045273859727    0.028172847291
            0.049044608758    -0.031534182541    -0.000174061408    0.000040175515    0.049403941633    -0.058331073902    -0.000212885855    0.000044332616
            -0.000223457696    0.000042688600    0.045273929448    0.028172812850    -0.000212885891    0.000044332739    0.042782711942    0.014685171382
0.250     0.030417157406    -0.069738783631    -0.000191509662    0.000075168324    0.036637100224    -0.044181646062    -0.000234956921    0.000088210149
            -0.000191509664    0.000075168209    0.038148596103    0.015638843856    -0.000180159732    0.000077431225    0.044965730288    0.026173968590
            0.036637101634    -0.044181646192    -0.000180159735    0.000077431115    0.030872459438    -0.070401773031    -0.000222579822    0.000088407419
            -0.000234956862    0.000088210080    0.044965798662    0.026173930637    -0.000222579761    0.000088407575    0.038379427863    0.015738899415
0.275     0.007071667116    -0.075638608175    -0.000192993272    0.000117288929    0.019190137579    -0.052566482075    -0.000237209926    0.000139550827
            -0.000192993295    0.000117288852    0.033140866409    0.019409889979    -0.000178330233    0.000118187838    0.043189390255    0.025710827353
            0.019190144687    -0.052566481609    -0.000178330199    0.000118187816    0.007507737955    -0.076553463203    -0.000223104823    0.000137564103
            -0.000237209892    0.000139550807    0.043189447740    0.025710797255    -0.000223104775    0.000137564181    0.033381396073    0.019457584879
0.300     -0.018971150986    -0.073918657776    -0.000185128770    0.000163115082    -0.001738686695    -0.054931178353    -0.000228084286    0.000195221557
            -0.000185128812    0.000163115004    0.028660944811    0.026139626116    -0.000167279695    0.000161156777    0.040722057014    0.027364057808
            -0.001738684841    -0.054931180413    -0.000167279652    0.000161156792    -0.018629524337    -0.075107221616    -0.000212631385    0.000190253412
            -0.000228084286    0.000195221557    0.040722121202    0.027364014281    -0.000212631385    0.000190253412    0.028888493279    0.026131303041
0.325     -0.045075172451    -0.063671585970    -0.000165960499    0.000210648110    -0.023992185229    -0.050106049398    -0.000205411312    0.000252775418
            -0.000165960499    0.000210648110    0.025901315337    0.035672823942    -0.000145666445    0.000204369117    0.038534560758    0.031378598545
            -0.023992186093    -0.050106051202    -0.000145666433    0.000204369100    -0.044916199958    -0.065130675740    -0.000189332565    0.000244109120
            -0.000205411293    0.000252775395    0.038534621815    0.031378552071    -0.000189332553    0.000244109105    0.026090676117    0.035613884199
0.350     -0.068335985616    -0.044949995046    -0.000133970979    0.000256881466    -0.045050283655    -0.037728938395    -0.000167556389    0.000308685783
            -0.000133970979    0.000256881466    0.025971398426    0.047408221204    -0.000112513135    0.000245129848    0.037656721860    0.037608312231
            -0.045050284422    -0.037728939037    -0.000112513135    0.000245129848    -0.068452544472    -0.046644740443    -0.000151872736    0.000295834642
            -0.000167556389    0.000308685783    0.037656780636    0.037608263284    -0.000151872736    0.000295834642    0.026098490814    0.047314511206
0.375     -0.085938943023    -0.018827849142    -0.000088626234    0.000297875756    -0.062337389582    -0.018348463870    -0.000114003046    0.000358430262
            -0.000088626242    0.000297875784    0.029724641773    0.060333653503    -0.000067696731    0.000279972052    0.039012906861    0.045503548057
            -0.062337391501    -0.018348464435    -0.000067696726    0.000279972032    -0.086416467862    -0.020688957661    -0.000099933385    0.000341262142
            -0.000114003043    0.000358430253    0.039012968587    0.045503489867    -0.000099933382    0.000341262133    0.029771540586    0.060230965194
0.400     -0.095546959893    0.012665324587    -0.000030915405    0.000329290419    -0.073581866213    0.006593492413    -0.000045927392    0.000397079123
            -0.000030916150    0.000329289837    0.037614434275    0.073154200228    -0.000012383650    0.000305161055    0.043274867592    0.054184662877
            -0.073581867209    0.006593492502    -0.000012383639    0.000305161035    -0.096450227631    0.010740462609    -0.000034732072    0.000375880787
            -0.000045927305    0.000397079163    0.043274865701    0.054184664387    -0.000034732076    0.000375880757    0.037572500360    0.073076123418
0.425     -0.095619551906    0.046776918735    0.000036456761    0.000347065924    -0.077119044915    0.034932710843    0.000033610141    0.000420035668
            0.000036456761    0.000347065924    0.049601316261    0.084452942755    0.000050762069    0.000317249620    0.050742001036    0.062556972299
            -0.077119029781    0.034932671544    0.000050762069    0.000317249620    -0.096980730113    0.044917892676    0.000040797652    0.000395505172
            0.000033610134    0.000420035669    0.050742063647    0.062556902198    0.000040797645    0.000395505173    0.049474789145    0.084436422709
0.450     -0.085633294163    0.080372556596    0.000109261278    0.000348265445    -0.072120894482    0.064064820569    0.000119865783    0.000423939417
            0.000109261256    0.000348265483    0.065145123887    0.092893343374    0.000117782323    0.000313847354    0.061297333276    0.069479231340
            -0.072120895978    0.064064821898    0.000117782304    0.000313847319    -0.087441302075    0.078726975358    0.000122195326    0.000397111163
            0.000119865764    0.000423939381    0.061297393686    0.069479158041    0.000122195345    0.000397111126    0.064951272910    0.092973026288
0.475     -0.066125994831    0.110324120580    0.000182359086    0.000331502365    -0.058663081287    0.091279514173    0.000207092031    0.000407118087
            0.000182359106    0.000331502388    0.083268707173    0.097392993770    0.000183962609    0.000293977108    0.074421067565    0.073916050553
            -0.058663081287    0.091279514173    0.000183962619    0.000293977066    -0.068319316561    0.109050431060    0.000204100816    0.000379246915
            0.000207092015    0.000407118073    0.074421119169    0.073915970215    0.000204100820    0.000379246890    0.083034675486    0.097595658819
0.500     -0.038601715156    0.133876014056    0.000250748802    0.000297337897    -0.037668903547    0.114097467420    0.000289691052    0.000370045556
            0.000250748807    0.000297337892    0.102699830740    0.097267148554    0.000244853874    0.000258431275    0.089280636110    0.075079911292
            -0.037668906682    0.114097476916    0.000244853870    0.000258431280    -0.041056422148    0.133159467616    0.000281385708    0.000342453258
            0.000289691058    0.000370045564    0.089280688735    0.075079833177    0.000281385708    0.000342453258    0.102449073863    0.097602338729
0.525     -0.005305945687    0.148910359760    0.000309960724    0.000248148555    -0.010697805295    0.130630099617    0.000362557085    0.000315234640
            0.000309960728    0.000248148567    0.122089097649    0.092328680773    0.000297006369    0.000209717151    0.104876617539    0.072526322979
            -0.010697808391    0.130630109397    0.000297005887    0.000209717176    -0.007803211948    0.149210758681    0.000349954935    0.000289279580
            0.000362557085    0.000315234640    0.104876662479    0.072526240413    0.000349954930    0.000289279586    0.121766391863    0.092741154061
0.550     0.031059583476    0.154159162726    0.000356691530    0.000187980560    0.018765585379    0.138714037165    0.000421952549    0.000246545284
            0.000356691582    0.000187980612    0.139174273305    0.082994298804    0.000333175052    0.000154333661    0.119589965496    0.066275538872
            0.018765585379    0.138714037165    0.000333175011    0.000154333606    0.026602929220    0.154108119251    0.000400913841    0.000226306886
            0.000421952523    0.000246545269    0.119590010608    0.066275457470    0.000400914734    0.000226306689    0.139604202795    0.083256965996
0.575     0.067544976349    0.149046684370    0.000388673584    0.000119699043    0.051381809031    0.138270418294    0.000465162458    0.000167894509
            0.000388673586    0.000119699036    0.154247336183    0.069141594422    0.000358703061    0.000087980323    0.133193739819    0.056065080216
            0.051381809031    0.138270418294    0.000358703061    0.000087980323    0.064257631895    0.149666973260    0.000440891382    0.000149039299
            0.000465162446    0.000167894513    0.133193777002    0.056064991879    0.000440891802    0.000149039150    0.154617875849    0.069719949458
0.600     0.101145872621    0.133810514825    0.000405591546    0.000048158216    0.082359350877    0.129135022923    0.000491318316    0.000083923555
            0.000405591572    0.000048158244    0.165373958554    0.052547678314    0.000370045798    0.000021330440    0.144136152132    0.042947356647
            0.082359348623    0.129135024360    0.000370045748    0.000021330435    0.098422027726    0.135432992408    0.000464624957    0.000069109839
            0.000491318326    0.000083923558    0.144136196784    0.042947276826    0.000464624956    0.000069109848    0.165781044874    0.053125637454
0.625     0.128953605060    0.110378020984    0.000408969686    -0.000022287251    0.109711426915    0.112142423870    0.000502000888    -0.000000320121
            0.000408969353    -0.000022286930    0.172023780040    0.034167824310    0.000368285901    -0.000044011880    0.151810502315    0.027708956331
            0.109711426915    0.112142423870    0.000368285870    -0.000044011881    0.127300212389    0.112283766048    0.000473107203    -0.000011848214
            0.000502000858    -0.000000320122    0.151810520858    0.027708910434    0.000473107517    -0.000011848490    0.172580434404    0.034911074611
0.650     0.149805819388    0.079964183791    0.000400450665    -0.000090616048    0.131887888928    0.088002366954    0.000498695031    -0.000084002013
            0.000400450701    -0.000090616071    0.173919300834    0.015331595751    0.000355121842    -0.000105586921    0.155725051924    0.011105599291
            0.131887888928    0.088002366954    0.000355121806    -0.000105586937    0.148700408056    0.081938488060    0.000467523443    -0.000091080493
            0.000498694994    -0.000084001991    0.155725078502    0.011105507761    0.000467523411    -0.000091080504    0.174784519701    0.016002608380
0.675     0.161367577745    0.044555846607    0.000381374747    -0.000154342033    0.146685955670    0.058246912513    0.000482311931    -0.000164176791
            0.000381374744    -0.000154342039    0.171173954322    -0.002600712498    0.000332772675    -0.000161727040    0.155535033099    -0.005668677596
            0.146685955670    0.058246912513    0.000332772675    -0.000161727040    0.160893087210    0.046612226614    0.000449819414    -0.000166461775
            0.000482311914    -0.000164176776    0.155535051384    -0.005668725015    0.000449819393    -0.000166461776    0.172270132408    -0.002123528626
0.700     0.162487121500    0.006944418147    0.000354125759    -0.000212458480    0.152681701669    0.025042939980    0.000455083147    -0.000239486708
            0.000354125808    -0.000212458476    0.164271106799    -0.018338303107    0.000303493823    -0.000211745495    0.151351560048    -0.021411891412
            0.152681701669    0.025042939980    0.000303493782    -0.000211745466    0.162716567153    0.008915292741    0.000421954660    -0.000236919719
            0.000455083094    -0.000239486700    0.151351570136    -0.021411891491    0.000421954621    -0.000236919688    0.165527305929    -0.018125921034
0.725     0.152748995766    -0.029920710670    0.000320667464    -0.000265001427    0.148987762516    -0.009115527863    0.000418761431    -0.000309614654
            0.000320667484    -0.000265001434    0.154053402716    -0.030746157254    0.000269240830    -0.000255804454    0.143616289331    -0.034969980715
            0.148987762516    -0.009115527863    0.000269240816    -0.000255804441    0.153682641817    -0.028249370069    0.000385561132    -0.000302154385
            0.000418761431    -0.000309614654    0.143616298998    -0.034970025552    0.000385561137    -0.000302154378    0.155384115784    -0.030852720680
0.750     0.132516421387    -0.062983671607    0.000282310139    -0.000312749235    0.135385549978    -0.041453711080    0.000374450470    -0.000374903019
            0.000282310037    -0.000312748398    0.141698660318    -0.038950572068    0.000231363630    -0.000294783918    0.133134977628    -0.045317177866
            0.135385559540    -0.041453714008    0.000231363382    -0.000294782956    0.134081234236    -0.061832817664    0.000341700875    -0.000362475069
            0.000374450434    -0.000374902970    0.133134987812    -0.045317272082    0.000341701016    -0.000362475940    0.143000384415    -0.039404499189
0.775     0.103013311203    -0.089257777793    0.000239373949    -0.000356828513    0.112458379576    -0.069066916692    0.000322301254    -0.000435932705
            0.000239373961    -0.000356828529    0.128653383257    -0.042444409636    0.000190272270    -0.000329918085    0.121049028804    -0.051685631819
            0.112458384231    -0.069066870895    0.000190272260    -0.000329918068    0.105063931412    -0.088830907481    0.000290551515    -0.000418414840
            0.000322301225    -0.000435932665    0.121049031311    -0.051685727809    0.000290551523    -0.000418415724    0.129809751979    -0.043241534088
