# GHz S RI R 45
0.000     0.016910431000    0.000000000000    -0.000025650318    0.000000000000    0.000514524540    -0.000000000000    -0.000024782806    0.000000000000
            -0.000025650224    0.000000000000    0.017460721000    0.000000000000    -0.000003147041    0.000000000000    0.000264570560    0.000000000000
            0.000514520990    -0.000000000000    -0.000003147014    0.000000000000    0.016870794000    0.000000000000    -0.000004445444    0.000000000000
            -0.000024782611    0.000000000000    0.000264546170    0.000000000000    -0.000004445528    0.000000000000    0.017373536000    0.000000000000
0.025     0.022673928316    0.010741391453    -0.000009504974    -0.000012138670    0.003114403427    0.010889294221    -0.000014097143    -0.000018859065
            -0.000009504930    -0.000012138684    0.022376949906    0.011540941162    -0.000005801808    -0.000020568717    0.002069729422    0.011861883714
            0.003114378780    0.010889343913    -0.000005801778    -0.000020568724    0.022613514539    0.010723577105    -0.000009070711    -0.000023468872
            -0.000014097044    -0.000018859083    0.002069581173    0.011861718741    -0.000009070794    -0.000023468856    0.022272548226    0.011488542763
0.050     0.031011857578    0.016039661147    -0.000015833047    -0.000046200995    0.010055397539    0.019580858931    -0.000025997379    -0.000053015835
            -0.000015832991    -0.000046201015    0.028292785574    0.018403636863    -0.000018675297    -0.000039966793    0.007127881103    0.022324079109
            0.010055382962    0.019580870914    -0.000018675276    -0.000039966803    0.030959450796    0.016031231191    -0.000023487008    -0.000044198222
            -0.000025997271    -0.000053015873    0.007127885683    0.022324069249    -0.000023487084    -0.000044198197    0.028132301787    0.018315078273
0.075     0.041368484852    0.017144836041    -0.000043121051    -0.000068287283    0.020134384979    0.024578771875    -0.000056616882    -0.000074813973
            -0.000043121012    -0.000068287300    0.034979873036    0.022653272737    -0.000039257693    -0.000052792834    0.014523045001    0.030381120833
            0.020134376419    0.024578776302    -0.000039257664    -0.000052792853    0.041344376184    0.017138602936    -0.000046087783    -0.000058041729
            -0.000056616795    -0.000074814021    0.014523025346    0.030381124687    -0.000046087855    -0.000058041694    0.034736830088    0.022571893743
0.100     0.052165671849    0.013252230955    -0.000078027307    -0.000076998795    0.031679848160    0.024897302622    -0.000094895785    -0.000082521370
            -0.000078027320    -0.000076998781    0.041579520111    0.024140773050    -0.000064219253    -0.000057610181    0.023150103652    0.035497754408
            0.031679847208    0.024897305452    -0.000064219254    -0.000057610182    0.052187308247    0.013239717254    -0.000073538576    -0.000063320310
            -0.000094895712    -0.000082521423    0.023150078290    0.035497760203    -0.000073538648    -0.000063320260    0.041255206349    0.024117473581
0.125     0.061278606519    0.004249973117    -0.000115036151    -0.000072471744    0.042772253317    0.020235636985    -0.000135260828    -0.000075940228
            -0.000115036117    -0.000072471779    0.046910462601    0.023179879164    -0.000090773352    -0.000054016804    0.031834509702    0.037612868605
            0.042772254065    0.020235640080    -0.000090773315    -0.000054016847    0.061362795323    0.004205302644    -0.000102937819    -0.000059424447
            -0.000135260727    -0.000075940327    0.031834480953    0.037612875906    -0.000102937878    -0.000059424385    0.046540839759    0.023259584748
0.150     0.066891725658    -0.009024870550    -0.000150375549    -0.000055907137    0.051503987856    0.010955662173    -0.000173587750    -0.000056269836
            -0.000150375492    -0.000055907205    0.050202538814    0.020545514144    -0.000116678365    -0.000042412826    0.039449764824    0.037053194143
            0.051503989430    0.010955664387    -0.000116678365    -0.000042412826    0.067056184426    -0.009113556189    -0.000131826328    -0.000046646344
            -0.000173587634    -0.000056269999    0.039449737158    0.037053203148    -0.000131826389    -0.000046646262    0.049828177200    0.020754430022
0.175     0.067306004319    -0.025180677207    -0.000181148707    -0.000029028779    0.056189054344    -0.001894937489    -0.000206694165    -0.000025307925
            -0.000181148682    -0.000029028808    0.050865806717    0.017280909635    -0.000140221103    -0.000023526256    0.045096994091    0.034578286988
            0.056189056409    -0.001894935595    -0.000140221103    -0.000023526256    0.067561381884    -0.025345366393    -0.000158264613    -0.000025643734
            -0.000206694098    -0.000025308063    0.045096976499    0.034578293497    -0.000158264656    -0.000025643656    0.050544287671    0.017627723427
0.200     0.061449115673    -0.042236036433    -0.000205662951    0.000006443996    0.055584689086    -0.016719227123    -0.000232647464    0.000015031263
            -0.000205662913    0.000006443923    0.048752541566    0.014641259823    -0.000160225542    0.000001946910    0.048243784907    0.031239355380
            0.055584691585    -0.016719225759    -0.000160225513    0.000001946825    0.061794522176    -0.042519171812    -0.000180825810    0.000002882940
            -0.000232647394    0.000015031095    0.048243757552    0.031239366349    -0.000180825848    0.000002883035    0.048546702289    0.015108204225
0.225     0.048985498502    -0.057881487844    -0.000222556443    0.000048965763    0.049044605975    -0.031534183172    -0.000249895772    0.000062991948
            -0.000222556432    0.000048965720    0.044244862331    0.013892365374    -0.000175584444    0.000033504084    0.048805572506    0.028225081128
            0.049044608758    -0.031534182541    -0.000175584440    0.000033504051    0.049403941633    -0.058331073902    -0.000198147950    0.000038383642
            -0.000249895755    0.000062991851    0.048805547698    0.028225094062    -0.000198147969    0.000038383753    0.044209940113    0.014433160143
0.250     0.030417157406    -0.069738783631    -0.000230691500    0.000097428072    0.036637100224    -0.044181646062    -0.000257171967    0.000117213678
            -0.000230691500    0.000097428072    0.038236967603    0.016116707299    -0.000185029644    0.000070821328    0.047184038165    0.026691418887
            0.036637101634    -0.044181646192    -0.000185029653    0.000070821332    0.030872459438    -0.070401773031    -0.000208709042    0.000080408633
            -0.000257171967    0.000117213678    0.047184012997    0.026691432913    -0.000208709051    0.000080408720    0.038407859460    0.016660660429
0.275     0.007071667116    -0.075638608175    -0.000228516071    0.000150609412    0.019190137579    -0.052566482075    -0.000252829612    0.000176200756
            -0.000228516071    0.000150609412    0.032047301818    0.021996452570    -0.000186789803    0.000113362492    0.044232100127    0.027568874131
            0.019190144687    -0.052566481609    -0.000186789795    0.000113362487    0.007507737955    -0.076553463203    -0.000210501965    0.000128232392
            -0.000252829612    0.000176200756    0.044232084196    0.027568884567    -0.000210501960    0.000128232439    0.032428743315    0.022458346537
0.300     -0.018971150986    -0.073918657776    -0.000214128601    0.000206948418    -0.001738686695    -0.054931178353    -0.000234935328    0.000238094839
            -0.000214128558    0.000206948448    0.027247661246    0.031668801933    -0.000178668575    0.000159988183    0.041155027127    0.031392886323
            -0.001738684841    -0.054931180413    -0.000178668582    0.000159988190    -0.018629524337    -0.075107221616    -0.000201140265    0.000180444958
            -0.000234935350    0.000238094860    0.041155029813    0.031392886099    -0.000201140311    0.000180444937    0.027808591374    0.031961362325
0.325     -0.045075172451    -0.063671585970    -0.000185484313    0.000263763916    -0.023992185229    -0.050106049398    -0.000201477039    0.000299890628
            -0.000185484313    0.000263763916    0.025431966459    0.044621824350    -0.000158353934    0.000208417397    0.039326577088    0.038166126784
            -0.023992186093    -0.050106051202    -0.000158353940    0.000208417405    -0.044916199958    -0.065130675740    -0.000178191698    0.000234431961
            -0.000201477039    0.000299890628    0.039326538092    0.038166156914    -0.000178191698    0.000234431961    0.026105315800    0.044671461428
0.350     -0.068335985616    -0.044949995046    -0.000141077141    0.000317199772    -0.045050283655    -0.037728938395    -0.000151065331    0.000357412005
            -0.000141077141    0.000317199772    0.027950432108    0.059718652368    -0.000124104227    0.000255103196    0.040063761159    0.047317821825
            -0.045050284422    -0.037728939037    -0.000124104227    0.000255103196    -0.068452544472    -0.046644740443    -0.000139899532    0.000286271016
            -0.000151065331    0.000357412005    0.040063763457    0.047317821189    -0.000139899528    0.000286271007    0.028639938243    0.059479859200
0.375     -0.085938943023    -0.018827849142    -0.000080786036    0.000362209018    -0.062337389582    -0.018348463870    -0.000083790605    0.000405315553
            -0.000080786036    0.000362209018    0.035653771620    0.075313121979    -0.000075522369    0.000295384883    0.044375889870    0.057754145860
            -0.062337391501    -0.018348464435    -0.000075522369    0.000295384883    -0.086416467862    -0.020688957661    -0.000085964044    0.000330924912
            -0.000083790607    0.000405315563    0.044375891886    0.057754144311    -0.000085964044    0.000330924912    0.036247332828    0.074779964013
0.400     -0.095546959893    0.012665324587    -0.000006502726    0.000393424253    -0.073581866213    0.006593492413    -0.000001841571    0.000438003099
            -0.000006502719    0.000393424254    0.048716747754    0.089497596356    -0.000014152817    0.000324271367    0.052775386762    0.068036216120
            -0.073581867209    0.006593492502    -0.000014152817    0.000324271367    -0.096450227631    0.010740462609    -0.000018142810    0.000363063441
            -0.000001841563    0.000438003099    0.052775388524    0.068036213487    -0.000018142803    0.000363063442    0.049102595316    0.088707687331
0.425     -0.095619551906    0.046776918735    0.000077618674    0.000406098688    -0.077119044915    0.034932710843    0.000090276011    0.000450589862
            0.000077618665    0.000406098680    0.066571352464    0.100389131135    0.000056375462    0.000337387755    0.065168597543    0.076609819329
            -0.077119029781    0.034932671544    0.000056375452    0.000337387767    -0.096980730113    0.044917892676    0.000059634236    0.000378052326
            0.000090276019    0.000450589861    0.065168569258    0.076609856519    0.000059634236    0.000378052326    0.066655430958    0.099421410414
0.450     -0.085633294163    0.080372556596    0.000165685924    0.000397258603    -0.072120894482    0.064064820569    0.000186292599    0.000440073990
            0.000165685958    0.000397258567    0.087991316458    0.106431340336    0.000130836190    0.000331997849    0.080884797901    0.082069564346
            -0.072120895978    0.064064821898    0.000130836211    0.000331997884    -0.087441302075    0.078726975358    0.000141782049    0.000373002782
            0.000186291731    0.000440073652    0.080884799333    0.082069562935    0.000141782044    0.000373002806    0.087711048602    0.105395446524
0.475     -0.066125994831    0.110324120580    0.000250947942    0.000366304636    -0.058663081287    0.091279514173    0.000279103487    0.000405938278
            0.000250947481    0.000366304539    0.111276344817    0.106608538967    0.000203299325    0.000307540259    0.098791241830    0.083354981525
            -0.058663081287    0.091279514173    0.000203299330    0.000307540243    -0.068319316561    0.109050431060    0.000222003480    0.000347314164
            0.000279103487    0.000405938278    0.098791241830    0.083354981525    0.000222003480    0.000347314164    0.110606625068    0.105630429994
0.500     -0.038601715156    0.133876014056    0.000327009981    0.000315130901    -0.037668903547    0.114097467420    0.000362013709    0.000350251761
            0.000327009986    0.000315130896    0.134520637810    0.100564946415    0.000268262529    0.000265677870    0.117491893236    0.079880168415
            -0.037668906682    0.114097476916    0.000268262529    0.000265677870    -0.041056422148    0.133159467616    0.000294461055    0.000302709698
            0.000362013754    0.000350251744    0.117491889149    0.079880156640    0.000294461014    0.000302709710    0.133462702627    0.099769102315
0.525     -0.005305945687    0.148910359760    0.000388771493    0.000247576638    -0.010697805295    0.130630099617    0.000429665856    0.000277117008
            0.000388771506    0.000247576636    0.155941400138    0.088621442619    0.000321995106    0.000209810589    0.135559019700    0.071565874435
            -0.010697808391    0.130630109397    0.000321995110    0.000209810584    -0.007803211948    0.149210758681    0.000355169858    0.000242766114
            0.000429665400    0.000277117033    0.135558999715    0.071565912290    0.000355169862    0.000242766126    0.154419333467    0.088087348457
0.550     0.031059583476    0.154159162726    0.000433127586    0.000169582613    0.018765585379    0.138714037165    0.000478856206    0.000192155821
            0.000433127579    0.000169582576    0.172932148828    0.072159410447    0.000357224507    0.000148597500    0.151073815269    0.059110507018
            0.018765585379    0.138714037165    0.000357224553    0.000148597519    0.026602929220    0.154108119251    0.000396102750    0.000176181011
            0.000478856206    0.000192155821    0.151073815269    0.059110507018    0.000396102753    0.000176181004    0.171903207141    0.071445117454
0.575     0.067544976349    0.149046684370    0.000458068307    0.000085173518    0.051381809031    0.138270418294    0.000507697600    0.000100701361
            0.000458068298    0.000085173508    0.185782208851    0.051036071755    0.000379677775    0.000076376022    0.163633286739    0.042402786414
            0.051381809031    0.138270418294    0.000379677343    0.000076376191    0.064257631895    0.149666973260    0.000423892896    0.000097473629
            0.000507697590    0.000100701359    0.163633266698    0.042402823889    0.000423892885    0.000097473634    0.184517387625    0.051084046828
0.600     0.101145872621    0.133810514825    0.000464559619    0.000000587316    0.082359350877    0.129135022923    0.000516785515    0.000008518631
            0.000464559629    0.000000587312    0.192821779402    0.028125335198    0.000387053359    0.000005844983    0.171825728879    0.023296487800
            0.082359348623    0.129135024360    0.000387053359    0.000005844981    0.098422027726    0.135432992408    0.000435386804    0.000019766035
            0.000516785505    0.000008518634    0.171825729570    0.023296482702    0.000435386804    0.000019766041    0.191435340669    0.028598861960
0.625     0.128953605060    0.110378020984    0.000455426023    -0.000079131552    0.109711426915    0.112142423870    0.000509337743    -0.000079072288
            0.000455426021    -0.000079131561    0.193778363571    0.004829637798    0.000381051978    -0.000061533390    0.175242154964    0.003012136974
            0.109711426915    0.112142423870    0.000381051977    -0.000061533392    0.127300212389    0.112283766048    0.000432476041    -0.000055545324
            0.000509337409    -0.000079072024    0.175242154965    0.003012136913    0.000432476063    -0.000055545307    0.192602203474    0.005923797282
0.650     0.149805819388    0.079964183791    0.000433614592    -0.000152779905    0.131887888928    0.088002366954    0.000488085068    -0.000161020852
            0.000433614641    -0.000152779854    0.188835468352    -0.017083992075    0.000364148351    -0.000123500332    0.173603188621    -0.017301878856
            0.131887888928    0.088002366954    0.000364148349    -0.000123500338    0.148700408056    0.081938488060    0.000417307561    -0.000126082899
            0.000488085178    -0.000161020869    0.173603188621    -0.017301878856    0.000417307598    -0.000126082879    0.188109651077    -0.015717538813
0.675     0.161367577745    0.044555846607    0.000401933116    -0.000218074773    0.146685955670    0.058246912513    0.000455786676    -0.000234775880
            0.000401933116    -0.000218074773    0.178677940202    -0.035950346465    0.000339265840    -0.000178905514    0.166992227134    -0.036018546838
            0.146685955670    0.058246912513    0.000339265840    -0.000178905514    0.160893087210    0.046612226614    0.000392804090    -0.000190440004
            0.000455786672    -0.000234775888    0.166992227134    -0.036018546838    0.000392804090    -0.000190440004    0.178400999733    -0.034472945008
0.700     0.162487121500    0.006944418147    0.000364047974    -0.000274863198    0.152681701669    0.025042939980    0.000416093946    -0.000300108474
            0.000364048025    -0.000274863197    0.164455252625    -0.050312723541    0.000309103374    -0.000227870185    0.156082574385    -0.051657557238
            0.152681701669    0.025042939980    0.000309103381    -0.000227870174    0.162716567153    0.008915292741    0.000361580692    -0.000248609663
            0.000416094008    -0.000300108508    0.156082563990    -0.051657556820    0.000361580697    -0.000248609657    0.164636409574    -0.048870468857
0.725     0.152748995766    -0.029920710670    0.000322794728    -0.000324576615    0.148987762516    -0.009115527863    0.000371746286    -0.000358357143
            0.000322794706    -0.000324576593    0.147760253431    -0.059053668701    0.000275705248    -0.000271600315    0.141993547484    -0.062933769596
            0.148987762516    -0.009115527863    0.000275705267    -0.000271600325    0.153682641817    -0.028249370069    0.000325559540    -0.000301617577
            0.000371746141    -0.000358356703    0.141993536533    -0.062933720266    0.000325559540    -0.000301617577    0.148368134258    -0.057804528483
0.750     0.132516421387    -0.062983671607    0.000279613590    -0.000369786760    0.135385549978    -0.041453711080    0.000324061105    -0.000411929296
            0.000279613597    -0.000369786755    0.130568397186    -0.061561028387    0.000239966317    -0.000312130472    0.126313507053    -0.068914657627
            0.135385559540    -0.041453714008    0.000239966311    -0.000312130476    0.134081234236    -0.061832817664    0.000285517192    -0.000351248468
            0.000324061111    -0.000411929304    0.126313491669    -0.068914560548    0.000285517199    -0.000351248463    0.131516538034    -0.060653986562
0.775     0.103013311203    -0.089257777793    0.000233965627    -0.000413472967    0.112458379576    -0.069066916692    0.000272385499    -0.000463560434
            0.000233965615    -0.000413472963    0.115089954487    -0.057892160051    0.000201166704    -0.000351701471    0.110987729690    -0.069229499287
            0.112458384231    -0.069066870895    0.000201166704    -0.000351701471    0.105063931412    -0.088830907481    0.000240643359    -0.000399419316
            0.000272385499    -0.000463560434    0.110987729690    -0.069229499287    0.000240643365    -0.000399419312    0.116235966906    -0.057444815761
