# GHz S RI R 45
0.000     0.016910431000    0.000000000000    0.000000273235    -0.000000000000    0.000514524540    -0.000000000000    -0.000000402872    0.000000000000
            0.000000273292    -0.000000000000    0.016453523000    0.000000000000    -0.000001668028    0.000000000000    0.000511421990    -0.000000000000
            0.000514520990    -0.000000000000    -0.000001668060    0.000000000000    0.016870794000    0.000000000000    0.000000153336    -0.000000000000
            -0.000000403029    0.000000000000    0.000511391200    -0.000000000000    0.000000153000    -0.000000000000    0.016428238000    0.000000000000
0.025     0.022673928316    0.010741391453    -0.000000915586    0.000011702892    0.003114403427    0.010889294221    0.000003594228    0.000016287136
            -0.000000915451    0.000011702854    0.022067556268    0.010267455344    0.000003089353    0.000017673516    0.002971197990    0.010466480277
            0.003114378780    0.010889343913    0.000003089387    0.000017673511    0.022613514539    0.010723577105    0.000006388352    0.000020769634
            0.000003594148    0.000016287157    0.002971145160    0.010466536854    0.000006388311    0.000020769645    0.021997078323    0.010208757960
0.050     0.031011857578    0.016039661147    0.000009180439    0.000025153124    0.010055397539    0.019580858931    0.000017223063    0.000029211083
            0.000009180538    0.000025153062    0.030132096836    0.015327747180    0.000016820222    0.000031151963    0.009655318738    0.018908748086
            0.010055382962    0.019580870914    0.000016820263    0.000031151942    0.030959450796    0.016031231191    0.000023304279    0.000036178988
            0.000017222989    0.000029211128    0.009655279305    0.018908772713    0.000023304243    0.000036179018    0.030052862727    0.015237812642
0.075     0.041368484852    0.017144836041    0.000026289126    0.000031447152    0.020134384979    0.024578771875    0.000037526200    0.000034239427
            0.000026289205    0.000031447066    0.040239312409    0.016423002697    0.000036794148    0.000037075588    0.019449278490    0.023850338034
            0.020134376419    0.024578776302    0.000036794178    0.000037075561    0.041344376184    0.017138602936    0.000047987718    0.000042288490
            0.000037526140    0.000034239489    0.019449249752    0.023850358888    0.000047987692    0.000042288530    0.040161673128    0.016303937368
0.100     0.052165671849    0.013252230955    0.000046263293    0.000028835732    0.031679848160    0.024897302622    0.000060670605    0.000029196183
            0.000046263344    0.000028835628    0.050942949897    0.012734831076    0.000059595379    0.000033259717    0.030792450495    0.024324384026
            0.031679847208    0.024897305452    0.000059595405    0.000033259675    0.052187308247    0.013239717254    0.000076195127    0.000036412294
            0.000060670560    0.000029196263    0.030792435932    0.024324405689    0.000076195121    0.000036412332    0.050878489205    0.012589033735
0.125     0.061278606519    0.004249973117    0.000065235965    0.000016927606    0.042772253317    0.020235636985    0.000082401421    0.000013421362
            0.000065235988    0.000016927490    0.060246766737    0.004061271783    0.000081148772    0.000018979434    0.041887157570    0.019986944598
            0.042772254065    0.020235640080    0.000081148785    0.000018979394    0.061362795323    0.004205302644    0.000102952008    0.000017558205
            0.000082401398    0.000013421450    0.041887146119    0.019986973240    0.000102952022    0.000017558244    0.060204647001    0.003884345942
0.150     0.066891725658    -0.009024870550    0.000079625052    -0.000003485033    0.051503987856    0.010955662173    0.000098554874    -0.000012181779
            0.000079625043    -0.000003485155    0.066420285414    -0.008874609441    0.000097392867    -0.000004986528    0.050927084266    0.011100912216
            0.051503989430    0.010955664387    0.000097392869    -0.000004986564    0.067056184426    -0.009113556189    0.000123231903    -0.000013355179
            0.000098554879    -0.000012181774    0.050927080601    0.011100938419    0.000123231926    -0.000013355151    0.066423633508    -0.009081635513
0.175     0.067306004319    -0.025180677207    0.000086296744    -0.000030379031    0.056189054344    -0.001894937489    0.000105487584    -0.000045303311
            0.000086296705    -0.000030379141    0.067797963112    -0.024863780530    0.000104722455    -0.000036458387    0.056281043178    -0.001432984679
            0.056189056409    -0.001894935595    0.000104722450    -0.000036458434    0.067561381884    -0.025345366393    0.000132557129    -0.000053726001
            0.000105487606    -0.000045303259    0.056281045828    -0.001432959191    0.000132557157    -0.000053725985    0.067866315164    -0.025120276410
0.200     0.061449115673    -0.042236036433    0.000082941226    -0.000060815624    0.055584689086    -0.016719227123    0.000100494542    -0.000082499009
            0.000082941161    -0.000060815714    0.063264256890    -0.042122062077    0.000100407579    -0.000072113631    0.056699011869    -0.016191174455
            0.055584691585    -0.016719225759    0.000100407582    -0.000072113627    0.061794522176    -0.042519171812    0.000127497804    -0.000099511570
            0.000100494551    -0.000082499014    0.056699020857    -0.016191150264    0.000127497875    -0.000099511479    0.063409452342    -0.042460013497
0.225     0.048985498502    -0.057881487844    0.000068321234    -0.000091091062    0.049044605975    -0.031534183172    0.000082097563    -0.000119457456
            0.000068321146    -0.000091091128    0.052357129219    -0.058526499164    0.000082910943    -0.000107736018    0.051454855979    -0.031367719063
            0.049044608758    -0.031534182541    0.000082910886    -0.000107736088    0.049403941633    -0.058331073902    0.000106055950    -0.000145572075
            0.000082097631    -0.000119457386    0.051454875753    -0.031367690468    0.000106056014    -0.000145572040    0.052578887719    -0.058987022087
0.250     0.030417157406    -0.069738783631    0.000042479476    -0.000117163544    0.036637100224    -0.044181646062    0.000050310056    -0.000151431637
            0.000042479377    -0.000117163590    0.035370560206    -0.071841618646    0.000052157127    -0.000138635673    0.040459854258    -0.044958231669
            0.036637101634    -0.044181646192    0.000052157132    -0.000138635671    0.030872459438    -0.070401773031    0.000068008345    -0.000186144942
            0.000050310139    -0.000151431588    0.040459881606    -0.044958208403    0.000068008368    -0.000186144955    0.035652427232    -0.072470532044
0.275     0.007071667116    -0.075638608175    0.000006900917    -0.000135006714    0.019190137579    -0.052566482075    0.000006798374    -0.000173680016
            0.000006900814    -0.000135006729    0.013354669682    -0.079965948233    0.000009719088    -0.000160098002    0.024311503440    -0.054965473235
            0.019190144687    -0.052566481609    0.000009719050    -0.000160098025    0.007507737955    -0.076553463203    0.000015120653    -0.000215399511
            0.000006798467    -0.000173679983    0.024311514143    -0.054965466314    0.000015120728    -0.000215399516    0.013660971675    -0.080806939003
0.300     -0.018971150986    -0.073918657776    -0.000035514992    -0.000141165331    -0.001738686695    -0.054931178353    -0.000045108649    -0.000182073762
            -0.000035515093    -0.000141165316    -0.011931194579    -0.081195071139    -0.000041168903    -0.000167983449    0.004282615312    -0.059639479844
            -0.001738684841    -0.054931180413    -0.000041168903    -0.000167983449    -0.018629524337    -0.075107221616    -0.000048808380    -0.000228143180
            -0.000045108549    -0.000182073766    0.004282613087    -0.059639477999    -0.000048808260    -0.000228143205    -0.011656147729    -0.082283034652
0.325     -0.045075172451    -0.063671585970    -0.000080607985    -0.000133266735    -0.023992185229    -0.050106049398    -0.000100604106    -0.000173696701
            -0.000080608060    -0.000133266702    -0.038171277356    -0.074446283944    -0.000095784268    -0.000159344380    -0.017773377492    -0.057698011382
            -0.023992186093    -0.050106051202    -0.000095784306    -0.000159344380    -0.044916199958    -0.065130675740    -0.000118151798    -0.000220552058
            -0.000100604071    -0.000173696710    -0.017773386679    -0.057698005413    -0.000118151773    -0.000220552105    -0.038000356794    -0.075798597484
0.350     -0.068335985616    -0.044949995046    -0.000123434217    -0.000110525927    -0.045050283655    -0.037728938395    -0.000153901108    -0.000147432896
            -0.000123434290    -0.000110525876    -0.062721822757    -0.059456511423    -0.000148408486    -0.000132998569    -0.039603618351    -0.048532523363
            -0.045050284422    -0.037728939037    -0.000148408494    -0.000132998576    -0.068452544472    -0.046644740443    -0.000185997084    -0.000190875619
            -0.000153901035    -0.000147432929    -0.039603617087    -0.048532521814    -0.000185997111    -0.000190875647    -0.062739530757    -0.061065581353
0.375     -0.085938943023    -0.018827849142    -0.000158888768    -0.000074024989    -0.062337389582    -0.018348463870    -0.000198945017    -0.000104308543
            -0.000158888838    -0.000074024886    -0.082904507819    -0.036866430382    -0.000193033447    -0.000089894711    -0.058801920202    -0.032324651253
            -0.062337391501    -0.018348464435    -0.000193033490    -0.000089894690    -0.086416467862    -0.020688957661    -0.000244965654    -0.000139881699
            -0.000198944954    -0.000104308598    -0.058801882245    -0.032324670480    -0.000244965689    -0.000139881719    -0.083198239223    -0.038694762040
0.400     -0.095546959893    0.012665324587    -0.000182512202    -0.000026679364    -0.073581866213    0.006593492413    -0.000230315684    -0.000047508139
            -0.000182512236    -0.000026679271    -0.096339615430    -0.008211353712    -0.000224250206    -0.000033119628    -0.073111087980    -0.010077015093
            -0.073581867209    0.006593492502    -0.000224250267    -0.000033119557    -0.096450227631    0.010740462609    -0.000288239446    -0.000070930115
            -0.000230315638    -0.000047508213    -0.073111085008    -0.010077014684    -0.000288239463    -0.000070930172    -0.096989146207    -0.010189965195
0.425     -0.095619551906    0.046776918735    -0.000191168830    0.000027140534    -0.077119044915    0.034932710843    -0.000244027891    0.000018026915
            -0.000191168850    0.000027140605    -0.101241682853    0.024229722977    -0.000238048437    0.000032479111    -0.080698313626    0.016485607002
            -0.077119029781    0.034932671544    -0.000238048437    0.000032479111    -0.096980730113    0.044917892676    -0.000310519457    0.000010416177
            -0.000244027867    0.000018026827    -0.080698308789    0.016485620686    -0.000310519497    0.000010416179    -0.102308744194    0.022199139683
0.450     -0.085633294163    0.080372556596    -0.000183513812    0.000082300811    -0.072120894482    0.064064820569    -0.000238096804    0.000086336136
            -0.000183513804    0.000082301000    -0.096657422392    0.057683816818    -0.000232380420    0.000101017047    -0.080395946265    0.045113278015
            -0.072120895978    0.064064821898    -0.000232380447    0.000101017010    -0.087441302075    0.078726975358    -0.000308730875    0.000097177452
            -0.000238096805    0.000086336043    -0.080395922819    0.045113191058    -0.000308730922    0.000097177467    -0.098177006181    0.055724013260
0.475     -0.066125994831    0.110324120580    -0.000160053620    0.000133668758    -0.058663081287    0.091279514173    -0.000212677531    0.000151307814
            -0.000160053565    0.000133668855    -0.082570633117    0.089199489683    -0.000207303588    0.000166426553    -0.071820597287    0.073293909253
            -0.058663081287    0.091279514173    -0.000207303604    0.000166426565    -0.068319316561    0.109050431060    -0.000282284737    0.000181930559
            -0.000212677539    0.000151307820    -0.071820597287    0.073293909253    -0.000282284754    0.000181930569    -0.084544791296    0.087452181210
0.500     -0.038601715156    0.133876014056    -0.000122887854    0.000176813438    -0.037668903547    0.114097467420    -0.000169815039    0.000207484000
            -0.000122887778    0.000176813527    -0.059901910502    0.115969660935    -0.000164762771    0.000223268066    -0.055406133327    0.098539971600
            -0.037668906682    0.114097476916    -0.000164762726    0.000223268087    -0.041056422148    0.133159467616    -0.000232886661    0.000257763383
            -0.000169815058    0.000207484024    -0.055406133327    0.098539971600    -0.000232886708    0.000257763435    -0.062289133177    0.114596790655
0.525     -0.005305945687    0.148910359760    -0.000075244827    0.000208410077    -0.010697805295    0.130630099617    -0.000112924297    0.000250564453
            -0.000075244820    0.000208410058    -0.030407559207    0.135616603361    -0.000108115807    0.000267464560    -0.032326855469    0.118638153658
            -0.010697808391    0.130630109397    -0.000108115800    0.000267464541    -0.007803211948    0.149210758681    -0.000164028532    0.000319213515
            -0.000112924306    0.000250564471    -0.032326899185    0.118638069194    -0.000164028555    0.000319213560    -0.033080114049    0.134795904009
0.550     0.031059583476    0.154159162726    -0.000020882966    0.000226584525    0.018765585379    0.138714037165    -0.000046116317    0.000277696972
            -0.000020882958    0.000226584525    0.003506970134    0.146500240519    -0.000043719575    0.000294457208    -0.004347699200    0.131904747411
            0.018765585379    0.138714037165    -0.000043719570    0.000294457209    0.026602929220    0.154108119251    -0.000082944637    0.000359602549
            -0.000046116314    0.000277697013    -0.004347696898    0.131904747487    -0.000082944646    0.000359602588    0.000822921440    0.146321825942
0.575     0.067544976349    0.149046684370    0.000036513178    0.000230441264    0.051381809031    0.138270418294    0.000026142016    0.000287058730
            0.000036513182    0.000230441264    0.039252873443    0.147849247397    0.000028983591    0.000305021704    0.026494055733    0.137279237258
            0.051381809031    0.138270418294    0.000028983579    0.000305021685    0.064257631895    0.149666973260    0.000011057701    0.000379206853
            0.000026142023    0.000287058750    0.026494058630    0.137279226514    0.000011057682    0.000379206903    0.036806448590    0.148188041046
0.600     0.101145872621    0.133810514825    0.000093554757    0.000219732748    0.082359350877    0.129135022923    0.000099407784    0.000277820503
            0.000093554772    0.000219732720    0.074251540681    0.139461515268    0.000102188903    0.000297764783    0.058011345329    0.134199536627
            0.082359348623    0.129135024360    0.000102189788    0.000297764976    0.098422027726    0.135432992408    0.000107722586    0.000375291160
            0.000099407817    0.000277820534    0.058011263682    0.134199495661    0.000107722623    0.000375291264    0.072129296321    0.140190056418
0.625     0.128953605060    0.110378020984    0.000146595708    0.000195868504    0.109711426915    0.112142423870    0.000168894263    0.000251455825
            0.000146595680    0.000195868475    0.105847378355    0.121797977072    0.000172610074    0.000272515142    0.087876057810    0.122687985894
            0.109711426915    0.112142423870    0.000172610099    0.000272515161    0.127300212389    0.112283766048    0.000202587892    0.000347243999
            0.000168894289    0.000251455856    0.087875971481    0.122687973925    0.000202587941    0.000347244041    0.104129675636    0.122861352614
0.650     0.149805819388    0.079964183791    0.000194110899    0.000159341431    0.131887888928    0.088002366954    0.000232615095    0.000208291885
            0.000194110923    0.000159341434    0.131607040960    0.096067622045    0.000236310003    0.000230084164    0.113850269620    0.103401767546
            0.131887888928    0.088002366954    0.000236310802    0.000230083945    0.148700408056    0.081938488060    0.000290241178    0.000295639324
            0.000232615117    0.000208291919    0.113850264022    0.103401758836    0.000290241258    0.000295639385    0.130401176729    0.097394690373
0.675     0.161367577745    0.044555846607    0.000232658171    0.000111045755    0.146685955670    0.058246912513    0.000285921714    0.000149061765
            0.000232658149    0.000111045755    0.149514197584    0.064073576553    0.000289497414    0.000171869254    0.133925237333    0.077542308811
            0.146685955670    0.058246912513    0.000289497414    0.000171869254    0.160893087210    0.046612226614    0.000365302451    0.000221932083
            0.000285921305    0.000149061964    0.133925193777    0.077542324165    0.000365302472    0.000221932087    0.148922183924    0.065546645727
0.700     0.162487121500    0.006944418147    0.000259481335    0.000052873435    0.152681701669    0.025042939980    0.000324950320    0.000075952569
            0.000259481335    0.000052873435    0.158076474367    0.028080185312    0.000328383975    0.000099905226    0.146434125121    0.046797138786
            0.152681701669    0.025042939980    0.000328383975    0.000099905226    0.162716567153    0.008915292741    0.000422344870    0.000128586393
            0.000324950358    0.000075952584    0.146434125121    0.046797138786    0.000422344917    0.000128586375    0.158170779328    0.029538615221
0.725     0.152748995766    -0.029920710670    0.000271902493    -0.000012827600    0.148987762516    -0.009115527863    0.000345937999    -0.000008164054
            0.000271902473    -0.000012827602    0.156403353306    -0.009305120760    0.000349214281    0.000017103702    0.150140532373    0.013274900299
            0.148987762516    -0.009115527863    0.000349214292    0.000017103687    0.153682641817    -0.028249370069    0.000456015833    0.000019367790
            0.000345938058    -0.000008164084    0.150140532396    0.013274900037    0.000456015894    0.000019367778    0.157212036373    -0.008054486682
0.750     0.132516421387    -0.062983671607    0.000267377751    -0.000082858029    0.135385549978    -0.041453711080    0.000345297224    -0.000099261636
            0.000267377676    -0.000082857969    0.144294147165    -0.045265961467    0.000348476641    -0.000072448456    0.144366476881    -0.020580293052
            0.135385559540    -0.041453714008    0.000348476678    -0.000072448476    0.134081234236    -0.061832817664    0.000461354192    -0.000100335839
            0.000345297193    -0.000099261601    0.144366437654    -0.020580213933    0.000461354192    -0.000100335839    0.145789331680    -0.044433063786
0.775     0.103013311203    -0.089257777793    0.000243865494    -0.000152922954    0.112458379576    -0.069066916692    0.000320089405    -0.000191864313
            0.000243865477    -0.000152922943    0.122304736163    -0.076932322051    0.000323357429    -0.000163258625    0.129095811220    -0.052107492452
            0.112458384231    -0.069066870895    0.000323357423    -0.000163258636    0.105063931412    -0.088830907481    0.000434381369    -0.000223272369
            0.000320089412    -0.000191864340    0.129095802857    -0.052107486456    0.000434381406    -0.000223272407    0.124396277795    -0.076727601735
