# GHz S RI R 45
0.000     0.016910431000    0.000000000000    -0.000004553634    0.000000000000    0.000514524540    -0.000000000000    0.000000051349    -0.000000000000
            -0.000004553545    0.000000000000    0.016606757000    0.000000000000    -0.000007958045    0.000000000000    0.000550554090    -0.000000000000
            0.000514520990    -0.000000000000    -0.000007957695    0.000000000000    0.016870794000    0.000000000000    0.000015921575    -0.000000000000
            0.000000051345    -0.000000000000    0.000550554090    -0.000000000000    0.000015921596    -0.000000000000    0.016426970000    0.000000000000
0.025     0.022673928316    0.010741391453    -0.000002500203    -0.000005626930    0.003114403427    0.010889294221    -0.000001987800    -0.000009117317
            -0.000002500114    -0.000005626957    0.021755793444    0.009468183028    -0.000002062044    -0.000005102360    0.002712201920    0.009618341956
            0.003114378780    0.010889343913    -0.000002061917    -0.000005102389    0.022613514539    0.010723577105    -0.000010661983    -0.000022692666
            -0.000001987802    -0.000009117318    0.002712180009    0.009618390214    -0.000010661987    -0.000022692666    0.021703041926    0.009452744863
0.050     0.031011857578    0.016039661147    -0.000008889892    -0.000013681698    0.010055397539    0.019580858931    -0.000010652090    -0.000016092729
            -0.000008889820    -0.000013681739    0.029146952373    0.014065058195    -0.000008612486    -0.000016979794    0.008676615279    0.017486349992
            0.010055382962    0.019580870914    -0.000008612404    -0.000016979840    0.030959450796    0.016031231191    -0.000026099492    -0.000018210766
            -0.000010652093    -0.000016092727    0.008676603628    0.017486360239    -0.000026099488    -0.000018210770    0.029102889190    0.014048222229
0.075     0.041368484852    0.017144836041    -0.000020520174    -0.000015685561    0.020134384979    0.024578771875    -0.000023029827    -0.000017523690
            -0.000020520114    -0.000015685617    0.038339454949    0.015049927058    -0.000023384436    -0.000020854226    0.017453993627    0.022252698037
            0.020134376419    0.024578776302    -0.000023384369    -0.000020854290    0.041344376184    0.017138602936    -0.000036598073    -0.000012633952
            -0.000023029832    -0.000017523681    0.017453986338    0.022252699941    -0.000036598072    -0.000012633952    0.038320062108    0.015031622826
0.100     0.052165671849    0.013252230955    -0.000032999745    -0.000010770121    0.031679848160    0.024897302622    -0.000036255717    -0.000012199502
            -0.000032999701    -0.000010770189    0.048041992377    0.011716648536    -0.000039710870    -0.000015635274    0.027666012514    0.023061841386
            0.031679847208    0.024897305452    -0.000039710821    -0.000015635351    0.052187308247    0.013239717254    -0.000046246649    -0.000003982853
            -0.000036255712    -0.000012199507    0.027666012514    0.023061841386    -0.000046246648    -0.000003982861    0.048065281460    0.011693639351
0.125     0.061278606519    0.004249973117    -0.000043039511    0.000000593613    0.042772253317    0.020235636985    -0.000047219628    -0.000000242983
            -0.000043039485    0.000000593538    0.056474652090    0.003885718528    -0.000053223784    -0.000001968604    0.037736826443    0.019599585516
            0.042772254065    0.020235640080    -0.000053223756    -0.000001968686    0.061362795323    0.004205302644    -0.000054083006    0.000008919551
            -0.000047219626    -0.000000242983    0.037736826443    0.019599585516    -0.000054083006    0.000008919551    0.056557969632    0.003858188357
0.150     0.066891725658    -0.009024870550    -0.000048061841    0.000016829539    0.051503987856    0.010955662173    -0.000053211343    0.000017040969
            -0.000048061837    0.000016829443    0.062101395474    -0.007789531597    -0.000060580631    0.000018182241    0.046075637053    0.012066213545
            0.051503989430    0.010955664387    -0.000060580625    0.000018182147    0.067056184426    -0.009113556189    -0.000058094257    0.000026017450
            -0.000053211344    0.000017040970    0.046075637053    0.012066213545    -0.000058094263    0.000026017441    0.062269971923    -0.007844188356
0.175     0.067306004319    -0.025180677207    -0.000046315354    0.000035551737    0.056189054344    -0.001894937489    -0.000052211793    0.000037398514
            -0.000046315376    0.000035551639    0.063418811203    -0.022244013133    -0.000059470824    0.000041812800    0.051233228317    0.001226995523
            0.056189056409    -0.001894935595    -0.000059470835    0.000041812715    0.067561381884    -0.025345366393    -0.000056305912    0.000046229942
            -0.000052211793    0.000037398514    0.051233228317    0.001226995523    -0.000056305913    0.000046229942    0.063692147617    -0.022356982266
0.200     0.061449115673    -0.042236036433    -0.000037089407    0.000053997032    0.055584689086    -0.016719227123    -0.000043176930    0.000058008828
            -0.000037089455    0.000053996942    0.059409989064    -0.037889195684    -0.000048905912    0.000065450202    0.052085165061    -0.011690030482
            0.055584691585    -0.016719225759    -0.000048905955    0.000065450116    0.061794522176    -0.042519171812    -0.000047127938    0.000067417629
            -0.000043176930    0.000058008828    0.052085165061    -0.011690030482    -0.000047127938    0.000067417630    0.059798425717    -0.038100593866
0.225     0.048985498502    -0.057881487844    -0.000020703310    0.000069279396    0.049044605975    -0.031534183172    -0.000026131268    0.000075768002
            -0.000020703368    0.000069279324    0.049637086367    -0.052825589895    -0.000029196400    0.000085439266    0.047957698844    -0.025114161702
            0.049044608758    -0.031534182541    -0.000029196459    0.000085439197    0.049403941633    -0.058331073902    -0.000029800606    0.000086827606
            -0.000026131268    0.000075768001    0.047957698844    -0.025114161702    -0.000029800605    0.000086827605    0.050137682637    -0.053183395765
0.250     0.030417157406    -0.069738783631    0.000001528634    0.000078800642    0.036637100224    -0.044181646062    -0.000002212848    0.000087708963
            0.000001528560    0.000078800586    0.034335790618    -0.065043166211    -0.000001901464    0.000098485319    0.038729425013    -0.037289516538
            0.036637101634    -0.044181646192    -0.000001901537    0.000098485263    0.030872459438    -0.070401773031    -0.000004704270    0.000101245289
            -0.000002212844    0.000087708960    0.038729425013    -0.037289516538    -0.000004704197    0.000101245343    0.034928595933    -0.065598616790
0.275     0.007071667116    -0.075638608175    0.000027387053    0.000080484375    0.019190137579    -0.052566482075    0.000026375749    0.000091317597
            0.000027386968    0.000080484340    0.014417423804    -0.072640252741    0.000030283835    0.000101922692    0.024877068213    -0.046453281474
            0.019190144687    -0.052566481609    0.000030283753    0.000101922665    0.007507737955    -0.076553463203    0.000026552149    0.000107608303
            0.000026375752    0.000091317593    0.024877068213    -0.046453281474    0.000026552194    0.000107608323    0.015063250713    -0.073442082097
0.300     -0.018971150986    -0.073918657776    0.000053983088    0.000073123103    -0.001738686695    -0.054931178353    0.000056562069    0.000084944593
            0.000053983086    0.000073123103    -0.008568019800    -0.074057989873    0.000063832040    0.000094147603    0.007469498667    -0.051042079924
            -0.001738684841    -0.054931180413    0.000063831947    0.000094147593    -0.018629524337    -0.075107221616    0.000061068794    0.000103432330
            0.000056562073    0.000084944590    0.007469498667    -0.051042079924    0.000061068796    0.000103432329    -0.007928508959    -0.075145219458
0.325     -0.045075172451    -0.063671585970    0.000078022526    0.000056591484    -0.023992185229    -0.050106049398    0.000084692158    0.000068103027
            0.000078022433    0.000056591498    -0.032565033154    -0.068280022823    0.000094687833    0.000074861373    -0.011908797261    -0.049885079136
            -0.023992186093    -0.050106051202    0.000094687785    0.000074861370    -0.044916199958    -0.065130675740    0.000095015584    0.000087376888
            0.000084692159    0.000068103025    -0.011908797261    -0.049885079136    0.000095015588    0.000087376898    -0.032008118478    -0.069673681434
0.350     -0.068335985616    -0.044949995046    0.000096275928    0.000031992293    -0.045050283655    -0.037728938395    0.000107027190    0.000041693186
            0.000096275920    0.000031992284    -0.055208247620    -0.055010339493    0.000118836007    0.000045253931    -0.031308632957    -0.042383145534
            -0.045050284422    -0.037728939037    0.000118836007    0.000045253931    -0.068452544472    -0.046644740443    0.000124035099    0.000059630275
            0.000107027184    0.000041693175    -0.031308632957    -0.042383145534    0.000124035177    0.000059630229    -0.054821405180    -0.056706842979
0.375     -0.085938943023    -0.018827849142    0.000106024068    0.000001609909    -0.062337389582    -0.018348463870    0.000120270154    0.000008004244
            0.000106024028    0.000001609935    -0.074078602181    -0.034754099714    0.000132813164    0.000007961891    -0.048622984952    -0.028617321623
            -0.062337391501    -0.018348464435    0.000132813091    0.000007961946    -0.086416467862    -0.020688957661    0.000143965267    0.000022046439
            0.000120270155    0.000008004239    -0.048622984952    -0.028617321623    0.000143965267    0.000022046443    -0.073951464405    -0.036719913123
0.400     -0.095546959893    0.012665324587    0.000105544840    -0.000031372407    -0.073581866213    0.006593492413    0.000122139349    -0.000029540077
            0.000105544789    -0.000031372335    -0.086993827513    -0.008819713844    0.000134300840    -0.000033240588    -0.061844395115    -0.009384410387
            -0.073581867209    0.006593492502    0.000134300785    -0.000033240519    -0.096450227631    0.010740462609    0.000151488252    -0.000021975001
            0.000122139349    -0.000029540077    -0.061844395115    -0.009384410387    0.000151488252    -0.000021975002    -0.087207483690    -0.010989992704
0.425     -0.095619551906    0.046776918735    0.000094390477    -0.000063314882    -0.077119044915    0.034932710843    0.000111743940    -0.000066851990
            0.000094390446    -0.000063314803    -0.092273704973    0.020802155945    0.000122469501    -0.000073936447    -0.069305204796    0.013875064961
            -0.077119029781    0.034932671544    0.000122469500    -0.000073936449    -0.096980730113    0.044917892676    0.000144718034    -0.000067983094
            0.000111743939    -0.000066851992    -0.069305204796    0.013875064961    0.000144718034    -0.000067983094    -0.092889349632    0.018520613464
0.450     -0.085633294163    0.080372556596    0.000073463402    -0.000090698191    -0.072120894482    0.064064820569    0.000089741456    -0.000099814420
            0.000073463385    -0.000090698102    -0.088959432299    0.051647603507    0.000098120116    -0.000109735735    -0.069892944952    0.039235582345
            -0.072120895978    0.064064821898    0.000098120116    -0.000109735735    -0.087441302075    0.078726975358    0.000123494276    -0.000111107509
            0.000089741456    -0.000099814420    -0.069892944952    0.039235582345    0.000123494278    -0.000111107507    -0.090008050743    0.049369766653
0.475     -0.066125994831    0.110324120580    0.000044819835    -0.000110612424    -0.058663081287    0.091279514173    0.000058177726    -0.000124866161
            0.000044819841    -0.000110612379    -0.076922643879    0.081053575072    0.000063498861    -0.000136862325    -0.063167789280    0.064507795510
            -0.058663081287    0.091279514173    0.000063498859    -0.000136862326    -0.068319316561    0.109050431060    0.000089350127    -0.000146783419
            0.000058177726    -0.000124866161    -0.063167789280    0.064507795510    0.000089350127    -0.000146783419    -0.078398653813    0.078906076197
0.500     -0.038601715156    0.133876014056    0.000011284511    -0.000121108719    -0.037668903547    0.114097467420    0.000020103757    -0.000139447138
            0.000011284509    -0.000121108720    -0.056877436588    0.106450863888    0.000021877603    -0.000152619505    -0.049402702935    0.087488598949
            -0.037668906682    0.114097476916    0.000021877603    -0.000152619505    -0.041056422148    0.133159467616    0.000045194184    -0.000171304974
            0.000020103755    -0.000139447138    -0.049402702935    0.087488598949    0.000045194184    -0.000171304974    -0.058735542876    0.104559990574
0.525     -0.005305945687    0.148910359760    -0.000024005517    -0.000121317506    -0.010697805295    0.130630099617    -0.000020927024    -0.000142202743
            -0.000024005513    -0.000121317487    -0.030278293519    0.125622078896    -0.000023041029    -0.000155694730    -0.029517797283    0.106180424244
            -0.010697808391    0.130630109397    -0.000023041032    -0.000155694710    -0.007803211948    0.149210758681    -0.000005280434    -0.000182324651
            -0.000020927042    -0.000142202730    -0.029517797283    0.106180424244    -0.000005280415    -0.000182324661    -0.032436962547    0.124101108389
0.550     0.031059583476    0.154159162726    -0.000058029216    -0.000111410507    0.018765585379    0.138714037165    -0.000061350050    -0.000133001914
            -0.000058029216    -0.000111410507    0.000847934261    0.136905144147    -0.000065868426    -0.000145775536    -0.004961424692    0.118975596263
            0.018765585379    0.138714037165    -0.000065868409    -0.000145775499    0.026602929220    0.154108119251    -0.000056065098    -0.000178425947
            -0.000061350050    -0.000133001914    -0.004961424692    0.118975596263    -0.000056065073    -0.000178425976    -0.001499233679    0.135841757017
0.575     0.067544976349    0.149046684370    -0.000088013022    -0.000092282933    0.051381809031    0.138270418294    -0.000097782188    -0.000112604881
            -0.000088013022    -0.000092282933    0.034110936656    0.139308698913    -0.000106037355    -0.000123292899    0.022449912101    0.124760446131
            0.051381809031    0.138270418294    -0.000106037355    -0.000123292899    0.064257631895    0.149666973260    -0.000106431045    -0.000159300060
            -0.000097782188    -0.000112604881    0.022449912101    0.124760446131    -0.000106431045    -0.000159300060    0.031709031139    0.138752937376
0.600     0.101145872621    0.133810514825    -0.000111636623    -0.000065429812    0.082359350877    0.129135022923    -0.000127302581    -0.000082548595
            -0.000111636605    -0.000065429723    0.066970217486    0.132558248534    -0.000138521258    -0.000090809874    0.050693433217    0.122976769218
            0.082359348623    0.129135024360    -0.000138521258    -0.000090809874    0.098422027726    0.135432992408    -0.000150066206    -0.000126962971
            -0.000127302560    -0.000082548518    0.050693433217    0.122976769218    -0.000150066206    -0.000126962971    0.064661769565    0.132515478940
0.625     0.128953605060    0.110378020984    -0.000127340895    -0.000033358090    0.109711426915    0.112142423870    -0.000147754238    -0.000045689682
            -0.000127340895    -0.000033358090    0.096927772380    0.117071655386    -0.000161235975    -0.000050284343    0.077686301488    0.113616507423
            0.109711426915    0.112142423870    -0.000161235975    -0.000050284343    0.127300212389    0.112283766048    -0.000183911652    -0.000083053864
            -0.000147754238    -0.000045689682    0.077686301488    0.113616507423    -0.000183911652    -0.000083053864    0.094866864005    0.117501616447
0.650     0.149805819388    0.079964183791    -0.000134397436    0.000002513616    0.131887888928    0.088002366954    -0.000158169091    -0.000003742459
            -0.000134397436    0.000002513616    0.121701133012    0.093902205858    -0.000172438227    -0.000004432664    0.101420484585    0.097206799761
            0.131887888928    0.088002366954    -0.000172438227    -0.000004432664    0.148700408056    0.081938488060    -0.000205123937    -0.000030346076
            -0.000158169091    -0.000003742459    0.101420484585    0.097206799761    -0.000205123937    -0.000030346076    0.120034033631    0.094721412273
0.675     0.161367577745    0.044555846607    -0.000131575808    0.000039822648    0.146685955670    0.058246912513    -0.000156893714    0.000040548480
            -0.000131575808    0.000039822648    0.139354570289    0.064654496346    -0.000170983244    0.000043743327    0.120066273336    0.074765565386
            0.146685955670    0.058246912513    -0.000170983244    0.000043743327    0.160893087210    0.046612226614    -0.000211492003    0.000027774958
            -0.000156893705    0.000040548478    0.120066273336    0.074765565386    -0.000211491988    0.000027774919    0.138207344052    0.065739995040
0.700     0.162487121500    0.006944418147    -0.000118594015    0.000075997122    0.152681701669    0.025042939980    -0.000143421922    0.000084074866
            -0.000118594015    0.000075997122    0.148416778587    0.031388687643    -0.000156337623    0.000090988185    0.132084278059    0.047760779707
            0.152681701669    0.025042939980    -0.000156337623    0.000090988185    0.162716567153    0.008915292741    -0.000201546859    0.000087346570
            -0.000143421922    0.000084074866    0.132084278059    0.047760779707    -0.000201546859    0.000087346570    0.147881694427    0.032582825141
0.725     0.152748995766    -0.029920710670    -0.000095663823    0.000108374672    0.148987762516    -0.009115527863    -0.000117876583    0.000123603560
            -0.000095663576    0.000108374277    0.147970230751    -0.003487781529    -0.000128677182    0.000133814205    0.136313918958    0.018051059906
            0.148987762516    -0.009115527863    -0.000128677182    0.000133814205    0.153682641817    -0.028249370069    -0.000174735061    0.000143892810
            -0.000117876555    0.000123603573    0.136313918958    0.018051059906    -0.000174735061    0.000143892810    0.148095983363    -0.002370258473
0.750     0.132516421387    -0.062983671607    -0.000063645516    0.000134175340    0.135385549978    -0.041453711080    -0.000081168380    0.000155749941
            -0.000063645471    0.000134175306    0.137740250808    -0.037348673000    -0.000089050247    0.000168603767    0.132090687466    -0.012192475121
            0.135385559540    -0.041453714008    -0.000089050247    0.000168603767    0.134081234236    -0.061832817664    -0.000131692297    0.000192577805
            -0.000081168312    0.000155749943    0.132090687466    -0.012192475121    -0.000131692297    0.000192577805    0.138522282860    -0.036509554765
0.775     0.103013311203    -0.089257777793    -0.000024234817    0.000150638588    0.112458379576    -0.069066916692    -0.000035210680    0.000177139002
            -0.000024234817    0.000150638588    0.118161202809    -0.067498460690    -0.000039569364    0.000191797156    0.119339026386    -0.040593911885
            0.112458384231    -0.069066870895    -0.000039569358    0.000191797127    0.105063931412    -0.088830907481    -0.000074495899    0.000228487671
