# GHz S RI R 45
0.000     0.016910431000    0.000000000000    -0.000023765624    0.000000000000    0.000514524540    -0.000000000000    -0.000029328062    0.000000000000
            -0.000023765021    0.000000000000    0.017322589000    0.000000000000    -0.000019090390    0.000000000000    0.000371597180    0.000000000000
            0.000514520990    -0.000000000000    -0.000019090043    0.000000000000    0.016870794000    0.000000000000    -0.000028861825    0.000000000000
            -0.000029327671    0.000000000000    0.000371572650    0.000000000000    -0.000028862188    0.000000000000    0.017271727000    0.000000000000
0.025     0.022673928316    0.010741391453    -0.000039214039    -0.000060776176    0.003114403427    0.010889294221    -0.000043859928    -0.000069849395
            -0.000039213642    -0.000060776236    0.021999103934    0.011133054017    -0.000050341033    -0.000064160985    0.002017837088    0.011506858154
            0.003114378780    0.010889343913    -0.000050340353    -0.000064161110    0.022613514539    0.010723577105    -0.000056026994    -0.000068922568
            -0.000043859507    -0.000069849456    0.002017689480    0.011506688093    -0.000056027355    -0.000068922497    0.021921613365    0.011113181950
0.050     0.031011857578    0.016039661147    -0.000078550448    -0.000110888118    0.010055397539    0.019580858931    -0.000088683423    -0.000131245675
            -0.000078549975    -0.000110888269    0.027512507275    0.017888379818    -0.000092172091    -0.000100560417    0.006752284576    0.021798374698
            0.010055382962    0.019580870914    -0.000092171428    -0.000100560645    0.030959450796    0.016031231191    -0.000101171463    -0.000115490382
            -0.000088682944    -0.000131245757    0.006752290114    0.021798365655    -0.000101171844    -0.000115490247    0.027388986077    0.017885805259
0.075     0.041368484852    0.017144836041    -0.000137758535    -0.000141863525    0.020134384979    0.024578771875    -0.000158666350    -0.000169874951
            -0.000137758211    -0.000141863687    0.033776670986    0.022272066040    -0.000145418151    -0.000121701734    0.013756855488    0.029883541975
            0.020134376419    0.024578776302    -0.000145417635    -0.000121701992    0.041344376184    0.017138602936    -0.000163276094    -0.000143135358
            -0.000158665962    -0.000169875190    0.013756835246    0.029883544688    -0.000163276489    -0.000143135150    0.033603469392    0.022318154401
0.100     0.052165671849    0.013252230955    -0.000207812779    -0.000149892150    0.031679848160    0.024897302622    -0.000242270944    -0.000181160389
            -0.000207812414    -0.000149892383    0.040032694096    0.024126680779    -0.000206605568    -0.000123825838    0.022019526382    0.035244967567
            0.031679847208    0.024897305452    -0.000206605098    -0.000123826194    0.052187308247    0.013239717254    -0.000235702062    -0.000147680668
            -0.000242270587    -0.000181160649    0.022019501313    0.035244972617    -0.000235702378    -0.000147680465    0.039820429220    0.024257401957
0.125     0.061278606519    0.004249973117    -0.000280755575    -0.000133853937    0.042772253317    0.020235636985    -0.000329971037    -0.000163599467
            -0.000280755294    -0.000133854224    0.045215902193    0.023719712312    -0.000269606942    -0.000105316029    0.030468028229    0.037796579754
            0.042772254065    0.020235640080    -0.000269606497    -0.000105316452    0.061362795323    0.004205302644    -0.000310775702    -0.000127351142
            -0.000329970703    -0.000163599804    0.030468004801    0.037796585794    -0.000310776056    -0.000127350780    0.044985408748    0.023967108866
0.150     0.066891725658    -0.009024870550    -0.000349957265    -0.000095598507    0.051503987856    0.010955662173    -0.000413756182    -0.000119093194
            -0.000349957255    -0.000095598504    0.048611051620    0.021723510767    -0.000328673840    -0.000067633439    0.038058900887    0.037797447580
            0.051503989430    0.010955664387    -0.000328673828    -0.000067633496    0.067056184426    -0.009113556189    -0.000381512529    -0.000083811656
            -0.000413755615    -0.000119093970    0.038058873801    0.037797454985    -0.000381512524    -0.000083811724    0.048419892693    0.022110282645
0.175     0.067306004319    -0.025180677207    -0.000410656385    -0.000037829575    0.056189054344    -0.001894937489    -0.000487641498    -0.000050645926
            -0.000410656020    -0.000037830481    0.049670991468    0.019072920201    -0.000379675423    -0.000012992514    0.043944671405    0.035908163900
            0.056189056409    -0.001894935595    -0.000379675139    -0.000012992903    0.067561381884    -0.025345366393    -0.000442714313    -0.000019652157
            -0.000487641256    -0.000050646417    0.043944648952    0.035908172414    -0.000442714413    -0.000019652162    0.049581130135    0.019594393801
0.200     0.061449115673    -0.042236036433    -0.000459908757    0.000036711505    0.055584689086    -0.016719227123    -0.000547711944    0.000038523867
            -0.000459908439    0.000036710591    0.048238944475    0.016892959655    -0.000419931953    0.000056138980    0.047601344559    0.033062613226
            0.055584691585    -0.016719225759    -0.000419931634    0.000056138042    0.061794522176    -0.042519171812    -0.000490912511    0.000062148902
            -0.000547711951    0.000038523772    0.047601318390    0.033062624609    -0.000490912849    0.000062149816    0.048309704327    0.017517304269
0.225     0.048985498502    -0.057881487844    -0.000495239510    0.000126067540    0.049044605975    -0.031534183172    -0.000590594749    0.000145862430
            -0.000495239501    0.000126067538    0.044631408046    0.016324336747    -0.000447178805    0.000137992833    0.048903507977    0.030330482243
            0.049044608758    -0.031534182541    -0.000447178749    0.000137992302    0.049403941633    -0.058331073902    -0.000523118942    0.000159223949
            -0.000590594574    0.000145861512    0.048903487192    0.030330492989    -0.000523118970    0.000159223957    0.044908978279    0.016993707436
0.250     0.030417157406    -0.069738783631    -0.000513989049    0.000228989409    0.036637100224    -0.044181646062    -0.000612870988    0.000269430331
            -0.000513989049    0.000228989409    0.039623538442    0.018353015584    -0.000458992147    0.000231237477    0.048161425179    0.028766952635
            0.036637101634    -0.044181646192    -0.000458992147    0.000231237477    0.030872459438    -0.070401773031    -0.000536345757    0.000269589042
            -0.000612870923    0.000269429409    0.048161409775    0.028766962823    -0.000536345757    0.000269589042    0.040131056693    0.018990078056
0.275     0.007071667116    -0.075638608175    -0.000512176711    0.000344017710    0.019190137579    -0.052566482075    -0.000609841329    0.000406896015
            -0.000512176702    0.000344017705    0.034374029242    0.023616301972    -0.000451859462    0.000334325828    0.046093419694    0.029241637497
            0.019190144687    -0.052566481609    -0.000451859543    0.000334324912    0.007507737955    -0.076553463203    -0.000526551585    0.000390893040
            -0.000609841359    0.000406895574    0.046093397136    0.029241652521    -0.000526551589    0.000390893470    0.035103089794    0.024133717099
0.300     -0.018971150986    -0.073918657776    -0.000484666461    0.000468421935    -0.001738686695    -0.054931178353    -0.000575791249    0.000554483160
            -0.000484666439    0.000468421914    0.030275747383    0.032275718403    -0.000421397851    0.000444480913    0.043743812731    0.032288805178
            -0.001738684841    -0.054931180413    -0.000421398142    0.000444479976    -0.018629524337    -0.075107221616    -0.000488966559    0.000519443137
            -0.000575791256    0.000554483167    0.043743799932    0.032288815782    -0.000488966274    0.000519444106    0.031183442121    0.032589219230
0.325     -0.045075172451    -0.063671585970    -0.000425746264    0.000596721129    -0.023992185229    -0.050106049398    -0.000504635459    0.000705402257
            -0.000425746431    0.000596720702    0.028756082150    0.043921992132    -0.000362873151    0.000556557744    0.042327557550    0.037981797872
            -0.023992186093    -0.050106051202    -0.000362873547    0.000556556865    -0.044916199958    -0.065130675740    -0.000418651506    0.000648960102
            -0.000504635918    0.000705401338    0.042327520520    0.037981828657    -0.000418651506    0.000648960102    0.029766177043    0.043964482911
0.350     -0.068335985616    -0.044949995046    -0.000330883392    0.000720240249    -0.045050283655    -0.037728938395    -0.000391810547    0.000849514336
            -0.000330883375    0.000720240213    0.031047917234    0.057591783361    -0.000272785195    0.000662677236    0.043039158886    0.045889564742
            -0.045050284422    -0.037728939037    -0.000272785806    0.000662676422    -0.068452544472    -0.046644740443    -0.000312207584    0.000770337910
            -0.000391811088    0.000849513558    0.043039161973    0.045889563218    -0.000312207730    0.000770337884    0.032058747135    0.057327110403
0.375     -0.085938943023    -0.018827849142    -0.000198655144    0.000827275669    -0.062337389582    -0.018348463870    -0.000236309532    0.000973552630
            -0.000198655733    0.000827274942    0.037965164213    0.071858117679    -0.000150474940    0.000752514193    0.046832987834    0.055106485799
            -0.062337391501    -0.018348464435    -0.000150475615    0.000752513467    -0.086416467862    -0.020688957661    -0.000169461180    0.000871960635
            -0.000236309532    0.000973552630    0.046832955467    0.055106515931    -0.000169461179    0.000871960625    0.038863113258    0.071289574777
0.400     -0.095546959893    0.012665324587    -0.000032453391    0.000904939757    -0.073581866213    0.006593492413    -0.000042424754    0.001063197199
            -0.000032453359    0.000904939738    0.049742324007    0.085035746826    0.000000437223    0.000814959553    0.054252309905    0.064393718732
            -0.073581867209    0.006593492502    0.000000437280    0.000814959643    -0.096450227631    0.010740462609    0.000005072739    0.000941584826
            -0.000042424754    0.001063197199    0.054252313276    0.064393715892    0.000005072755    0.000941584805    0.050417656020    0.084210312053
0.425     -0.095619551906    0.046776918735    0.000158946713    0.000941467093    -0.077119044915    0.034932710843    0.000179708246    0.001105526548
            0.000158946315    0.000941466836    0.065960716760    0.095424272025    0.000171733994    0.000840171104    0.065316673133    0.072368402819
            -0.077119029781    0.034932671544    0.000171733164    0.000840170630    -0.096980730113    0.044917892676    0.000201901311    0.000968503181
            0.000179707436    0.001105526072    0.065316676252    0.072368398657    0.000201901699    0.000968503437    0.066324799667    0.094428300155
0.450     -0.085633294163    0.080372556596    0.000362303575    0.000928926942    -0.072120894482    0.064064820569    0.000415177375    0.001091932851
            0.000362303578    0.000928926855    0.085603867069    0.101572560220    0.000351511673    0.000821881560    0.079526896008    0.077733853331
            -0.072120895978    0.064064821898    0.000351510802    0.000821881269    -0.087441302075    0.078726975358    0.000407618941    0.000946038510
            0.000415177375    0.001091932851    0.079526900078    0.077733849167    0.000407618941    0.000946038510    0.085602530827    0.100521535809
0.475     -0.066125994831    0.110324120580    0.000561985488    0.000864817185    -0.058663081287    0.091279514173    0.000646555692    0.001019788397
            0.000561985053    0.000864817110    0.107198787735    0.102478344859    0.000526155138    0.000758660732    0.095943600442    0.079460511705
            -0.058663081287    0.091279514173    0.000526154668    0.000758660619    -0.068319316561    0.109050431060    0.000607041344    0.000872842244
            0.000646555264    0.001019788313    0.095943603216    0.079460508356    0.000607042334    0.000872842530    0.106821399484    0.101502620122
0.500     -0.038601715156    0.133876014056    0.000742696277    0.000752583663    -0.037668903547    0.114097467420    0.000856856471    0.000892955105
            0.000742695365    0.000752583580    0.129035556285    0.097713400288    0.000682831927    0.000654188558    0.113346044415    0.076919866287
            -0.037668906682    0.114097476916    0.000682830985    0.000654188501    -0.041056422148    0.133159467616    0.000785947779    0.000753161199
            0.000856856471    0.000892955105    0.113346044415    0.076919866287    0.000785947766    0.000753161213    0.128315742127    0.096940534777
0.525     -0.005305945687    0.148910359760    0.000891733546    0.000600609093    -0.010697805295    0.130630099617    0.001031969229    0.000720682017
            0.000891733556    0.000600609077    0.149380239723    0.087437173770    0.000812527951    0.000516363893    0.130390275767    0.069924274944
            -0.010697808391    0.130630109397    0.000812527038    0.000516363969    -0.007803211948    0.149210758681    0.000934450447    0.000595910115
            0.001031968310    0.000720682286    0.130390275767    0.069924274944    0.000934451088    0.000595910225    0.148394369447    0.086977995564
0.550     0.031059583476    0.154159162726    0.001000954403    0.000420526821    0.018765585379    0.138714037165    0.001162788209    0.000515790531
            0.001000954403    0.000420526821    0.166679579823    0.072343623678    0.000897745125    0.000363394346    0.145772124079    0.058717688810
            0.018765585379    0.138714037165    0.000897745132    0.000363394330    0.026602929220    0.154108119251    0.001032122591    0.000421614851
            0.001162788209    0.000515790531    0.145772117877    0.058717677441    0.001032123431    0.000421614648    0.165537123989    0.072277093995
0.575     0.067544976349    0.149046684370    0.001065831153    0.000225313178    0.051381809031    0.138270418294    0.001244098299    0.000292443773
            0.001065831055    0.000225313158    0.179691436673    0.053545857323    0.000952759276    0.000185804043    0.158333766084    0.043912747034
            0.051381809031    0.138270418294    0.000952758871    0.000185804240    0.064257631895    0.149666973260    0.001096598514    0.000218759428
            0.001244097505    0.000292444090    0.158333721519    0.043912832882    0.001096598510    0.000218759447    0.178525559717    0.053911855709
0.600     0.101145872621    0.133810514825    0.001086510179    0.000027446927    0.082359350877    0.129135022923    0.001275800345    0.000064362177
            0.001086510180    0.000027446902    0.187581397656    0.032448150557    0.000970291396    0.000011151002    0.167157061501    0.026424111973
            0.082359348623    0.129135024360    0.000970290601    0.000011151435    0.098422027726    0.135432992408    0.001118680499    0.000018962389
            0.001275800245    0.000064362179    0.167157053238    0.026424100201    0.001118681306    0.000018961982    0.186535791276    0.033243077436
0.625     0.128953605060    0.110378020984    0.001069507396    -0.000160075696    0.109711426915    0.112142423870    0.001264886444    -0.000153969278
            0.001069507392    -0.000160075720    0.189955023658    0.010616177013    0.000954368570    -0.000156191397    0.171607051608    0.007387732707
            0.109711426915    0.112142423870    0.000954368590    -0.000156191398    0.127300212389    0.112283766048    0.001102927630    -0.000173254937
            0.001264882963    -0.000153966426    0.171607051608    0.007387732707    0.001102928678    -0.000173255360    0.189169195796    0.011791181495
0.650     0.149805819388    0.079964183791    0.001021853212    -0.000334061533    0.131887888928    0.088002366954    0.001218836566    -0.000359417904
            0.001021852969    -0.000334060347    0.186879240516    -0.010343307739    0.000910996897    -0.000310314399    0.171387791094    -0.011906901564
            0.131887888928    0.088002366954    0.000910996887    -0.000310314396    0.148700408056    0.081938488060    0.001055896003    -0.000351381731
            0.001218837569    -0.000359418038    0.171387780868    -0.011906904461    0.001055896386    -0.000351381531    0.186474496275    -0.008878079225
0.675     0.161367577745    0.044555846607    0.000949835136    -0.000488538471    0.146685955670    0.058246912513    0.001143880670    -0.000545348124
            0.000949835110    -0.000488538520    0.178866443072    -0.028887570929    0.000846952476    -0.000447981364    0.166566867304    -0.030097085858
            0.146685955670    0.058246912513    0.000846952201    -0.000447981029    0.160893087210    0.046612226614    0.000984927916    -0.000511871409
            0.001143878083    -0.000545344489    0.166566855502    -0.030097038695    0.000984928022    -0.000511871421    0.178932626431    -0.027260022860
0.700     0.162487121500    0.006944418147    0.000862310203    -0.000622424202    0.152681701669    0.025042939980    0.001049122997    -0.000710337068
            0.000862310214    -0.000622424187    0.166869824778    -0.043650360477    0.000768844612    -0.000568719118    0.157626182802    -0.045835788042
            0.152681701669    0.025042939980    0.000768844191    -0.000568718308    0.162716567153    0.008915292741    0.000897049873    -0.000654181364
            0.001049123010    -0.000710337050    0.157626157990    -0.045835694299    0.000897049884    -0.000654181348    0.167453700988    -0.042015866827
0.725     0.152748995766    -0.029920710670    0.000766466782    -0.000738479037    0.148987762516    -0.009115527863    0.000941743983    -0.000857014177
            0.000766466782    -0.000738479037    0.152242582698    -0.053555294659    0.000682078122    -0.000674655341    0.145468944668    -0.057912323657
            0.148987762516    -0.009115527863    0.000682078127    -0.000674655322    0.153682641817    -0.028249370069    0.000797833748    -0.000780482413
            0.000941743983    -0.000857014177    0.145468928537    -0.057912228996    0.000797833748    -0.000780482413    0.153337755525    -0.052085533480
0.750     0.132516421387    -0.062983671607    0.000666579260    -0.000842387961    0.135385549978    -0.041453711080    0.000825727487    -0.000990819786
            0.000666579274    -0.000842387949    0.136686439152    -0.057952501672    0.000589760476    -0.000770046364    0.131423754809    -0.065400192969
            0.135385559540    -0.041453714008    0.000589760443    -0.000770046377    0.134081234236    -0.061832817664    0.000690311240    -0.000895067169
            0.000825727470    -0.000990819800    0.131423745430    -0.065400099586    0.000690311256    -0.000895067157    0.138228593784    -0.056815569264
0.775     0.103013311203    -0.089257777793    0.000562562326    -0.000941209167    0.112458379576    -0.069066916692    0.000700508190    -0.001118311477
            0.000562562326    -0.000941209167    0.122130627426    -0.056754039899    0.000491560379    -0.000860038559    0.117153498187    -0.067831323087
            0.112458384231    -0.069066870895    0.000491560384    -0.000860038567    0.105063931412    -0.088830907481    0.000573832900    -0.001002926527
            0.000700508190    -0.001118311477    0.117153492351    -0.067831273295    0.000573832900    -0.001002926527    0.123996265308    -0.056095324155
