# GHz S RI R 45
0.000     0.016910431000    0.000000000000    0.000015857505    -0.000000000000    0.000514524540    -0.000000000000    0.000000499820    -0.000000000000
            0.000015857407    -0.000000000000    0.016317779000    0.000000000000    0.000008600416    -0.000000000000    0.000516139560    -0.000000000000
            0.000514520990    -0.000000000000    0.000008600123    -0.000000000000    0.016870794000    0.000000000000    -0.000001387087    0.000000000000
            0.000000499550    -0.000000000000    0.000516136520    -0.000000000000    -0.000001387049    0.000000000000    0.016232790000    0.000000000000
0.025     0.022673928316    0.010741391453    -0.000003081879    -0.000004623035    0.003114403427    0.010889294221    0.000000496872    0.000006206832
            -0.000003081922    -0.000004623024    0.021672424667    0.009981085742    0.000000065275    0.000000866008    0.002904316548    0.010162090995
            0.003114378780    0.010889343913    0.000000065136    0.000000866320    0.022613514539    0.010723577105    0.000000415114    0.000008314417
            0.000000496605    0.000006206906    0.002904290923    0.010162140960    0.000000415144    0.000008314409    0.021609001054    0.009960771968
0.050     0.031011857578    0.016039661147    -0.000001680558    0.000009969557    0.010055397539    0.019580858931    0.000006333277    0.000012528866
            -0.000001680601    0.000009969587    0.029554063700    0.014918983736    0.000005293019    0.000011541791    0.009417924535    0.018390684153
            0.010055382962    0.019580870914    0.000005292771    0.000011541952    0.030959450796    0.016031231191    0.000007654642    0.000014902236
            0.000006333050    0.000012529016    0.009417910631    0.018390695768    0.000007654655    0.000014902229    0.029491436476    0.014897129331
0.075     0.041368484852    0.017144836041    0.000008989234    0.000016571601    0.020134384979    0.024578771875    0.000015448622    0.000014710510
            0.000008989198    0.000016571636    0.039488226173    0.016026223634    0.000015537192    0.000015156584    0.019005280203    0.023250661441
            0.020134376419    0.024578776302    0.000015537003    0.000015156801    0.041344376184    0.017138602936    0.000018072052    0.000017059563
            0.000015448451    0.000014710714    0.019005270821    0.023250666527    0.000018072066    0.000017059553    0.039438823086    0.016007414551
0.100     0.052165671849    0.013252230955    0.000021678059    0.000015210121    0.031679848160    0.024897302622    0.000025495489    0.000012019000
            0.000021678031    0.000015210168    0.050100282573    0.012485565292    0.000027010053    0.000012283947    0.030184105629    0.023790084865
            0.031679847208    0.024897305452    0.000027009931    0.000012284207    0.052187308247    0.013239717254    0.000029458815    0.000013877565
            0.000025495380    0.000012019245    0.030184104338    0.023790088118    0.000029458825    0.000013877550    0.050081330163    0.012473860089
0.125     0.061278606519    0.004249973117    0.000032282929    0.000007230472    0.042772253317    0.020235636985    0.000034284119    0.000004645255
            0.000032282913    0.000007230520    0.059482724246    0.004050559530    0.000036577993    0.000003679262    0.041238330704    0.019641592484
            0.042772254065    0.020235640080    0.000036577948    0.000003679546    0.061362795323    0.004205302644    0.000039459093    0.000005470436
            0.000034284082    0.000004645517    0.041238330578    0.019641595073    0.000039459100    0.000005470422    0.059515058637    0.004055891318
0.150     0.066891725658    -0.009024870550    0.000038514932    -0.000005368586    0.051503987856    0.010955662173    0.000040099849    -0.000006553827
            0.000038514929    -0.000005368537    0.065947873566    -0.008619585393    0.000042184999    -0.000009142594    0.050430460584    0.011007304861
            0.051503989430    0.010955664387    0.000042185031    -0.000009142320    0.067056184426    -0.009113556189    0.000046149451    -0.000007262275
            0.000040099888    -0.000006553583    0.050430462154    0.011007307048    0.000046149454    -0.000007262291    0.066062099113    -0.008614800956
0.175     0.067306004319    -0.025180677207    0.000039091243    -0.000020094891    0.056189054344    -0.001894937489    0.000041688978    -0.000020198892
            0.000039091254    -0.000020094843    0.067864687915    -0.024425910015    0.000042558738    -0.000024156114    0.056169817100    -0.001302256111
            0.056189056409    -0.001894935595    0.000042558847    -0.000024155856    0.067561381884    -0.025345366393    0.000048095271    -0.000022814052
            0.000041689132    -0.000020198665    0.056169819154    -0.001302253805    0.000048095270    -0.000022814066    0.068089561529    -0.024447401849
0.200     0.061449115673    -0.042236036433    0.000033866431    -0.000034626705    0.055584689086    -0.016719227123    0.000038380043    -0.000034708083
            0.000033866452    -0.000034626662    0.064100572131    -0.041703241692    0.000037331552    -0.000039308832    0.057209914664    -0.015971495557
            0.055584691585    -0.016719225759    0.000037331705    -0.000039308648    0.061794522176    -0.042519171812    0.000044503923    -0.000039420088
            0.000038380207    -0.000034707887    0.057209917148    -0.015971494098    0.000044503914    -0.000039420100    0.064458629927    -0.041788789642
0.225     0.048985498502    -0.057881487844    0.000023473241    -0.000046835424    0.049044605975    -0.031534183172    0.000030036559    -0.000048368376
            0.000023473278    -0.000046835386    0.054127102418    -0.058442622768    0.000026817294    -0.000052604413    0.052784236183    -0.031307263705
            0.049044608758    -0.031534182541    0.000026817490    -0.000052604278    0.049403941633    -0.058331073902    0.000035180465    -0.000055148851
            0.000030036768    -0.000048368238    0.052784238996    -0.031307262883    0.000035180469    -0.000055148851    0.054628786543    -0.058642550796
0.250     0.030417157406    -0.069738783631    0.000009098755    -0.000055180435    0.036637100224    -0.044181646062    0.000017026888    -0.000059548866
            0.000009098757    -0.000055180430    0.038124004468    -0.072501208127    0.000011887141    -0.000062411681    0.042716727238    -0.045406294909
            0.036637101634    -0.044181646192    0.000011887371    -0.000062411611    0.030872459438    -0.070401773031    0.000020508219    -0.000068146056
            0.000017027114    -0.000059548795    0.042716730879    -0.045406295603    0.000020508145    -0.000068146111    0.038762368717    -0.072873994672
0.275     0.007071667116    -0.075638608175    -0.000007687185    -0.000058582741    0.019190137579    -0.052566482075    0.000000219523    -0.000066754515
            -0.000007687138    -0.000058582723    0.016984131872    -0.081829419871    -0.000006143934    -0.000067428431    0.027472795573    -0.056343208918
            0.019190144687    -0.052566481609    -0.000006143700    -0.000067428425    0.007507737955    -0.076553463203    0.000001438138    -0.000076699537
            0.000000219755    -0.000066754515    0.027472798417    -0.056343209756    0.000001438146    -0.000076699542    0.017730711230    -0.082436085757
0.300     -0.018971150986    -0.073918657776    -0.000025196823    -0.000056570989    -0.001738686695    -0.054931178353    -0.000019092332    -0.000068794647
            -0.000025196816    -0.000056570998    -0.007718566285    -0.084716474213    -0.000025691671    -0.000066843645    0.008157216930    -0.062390236623
            -0.001738684841    -0.054931180413    -0.000025691452    -0.000066843701    -0.018629524337    -0.075107221616    -0.000020590624    -0.000079434704
            -0.000019092129    -0.000068794709    0.008157219367    -0.062390238321    -0.000020590716    -0.000079434717    -0.006916337195    -0.085611903956
0.325     -0.045075172451    -0.063671585970    -0.000041669046    -0.000049192052    -0.023992185229    -0.050106049398    -0.000039228803    -0.000064898829
            -0.000041668994    -0.000049192061    -0.033861510296    -0.079999059838    -0.000044957943    -0.000060338342    -0.013561952191    -0.062220711638
            -0.023992186093    -0.050106051202    -0.000044957705    -0.000060338462    -0.044916199958    -0.065130675740    -0.000043696515    -0.000075441520
            -0.000039228611    -0.000064898946    -0.013561941757    -0.062220715959    -0.000043696613    -0.000075441507    -0.033078313057    -0.081222916794
0.350     -0.068335985616    -0.044949995046    -0.000055518840    -0.000037017322    -0.045050283655    -0.037728938395    -0.000058295148    -0.000054854788
            -0.000055518748    -0.000037017359    -0.058970094363    -0.067252780853    -0.000062147121    -0.000048154012    -0.035606745655    -0.055103945456
            -0.045050284422    -0.037728939037    -0.000062146970    -0.000048154173    -0.068452544472    -0.046644740443    -0.000065745127    -0.000064432689
            -0.000058295041    -0.000054855033    -0.035606746741    -0.055103947135    -0.000065745132    -0.000064432694    -0.058297891728    -0.068820616084
0.375     -0.085938943023    -0.018827849142    -0.000065392113    -0.000021087342    -0.062337389582    -0.018348463870    -0.000074352608    -0.000039092773
            -0.000065392119    -0.000021087344    -0.080476671534    -0.046883906996    -0.000075580305    -0.000031092340    -0.055701083323    -0.041024648730
            -0.062337391501    -0.018348464435    -0.000075580166    -0.000031092545    -0.086416467862    -0.020688957661    -0.000084535780    -0.000046838891
            -0.000074352514    -0.000039092972    -0.055701084934    -0.041024649916    -0.000084535787    -0.000046838895    -0.080016125822    -0.048780081074
0.400     -0.095546959893    0.012665324587    -0.000070369940    -0.000002776664    -0.073581866213    0.006593492413    -0.000085677902    -0.000018672298
            -0.000070369957    -0.000002776664    -0.096020537200    -0.020144717612    -0.000083923644    -0.000010434635    -0.071639487197    -0.020733411641
            -0.073581867209    0.006593492502    -0.000083923598    -0.000010434807    -0.096450227631    0.010740462609    -0.000098089622    -0.000023799650
            -0.000085677871    -0.000018672495    -0.071639489119    -0.020733412197    -0.000098089632    -0.000023799652    -0.095869773905    -0.022318926223
0.425     -0.095619551906    0.046776918735    -0.000070017471    0.000016323710    -0.077119044915    0.034932710843    -0.000090975267    0.000004816343
            -0.000070017441    0.000016323626    -0.103724432497    0.010977713564    -0.000086313052    0.000012172818    -0.081540273562    0.004318126936
            -0.077119029781    0.034932671544    -0.000086313057    0.000012172619    -0.096980730113    0.044917892676    -0.000104887515    0.000002934958
            -0.000090975287    0.000004816153    -0.081540276313    0.004318112810    -0.000104887534    0.000002935014    -0.103966100762    0.008609611111
0.450     -0.085633294163    0.080372556596    -0.000064432843    0.000034634161    -0.072120894482    0.064064820569    -0.000089543698    0.000029459174
            -0.000064432873    0.000034634076    -0.102431929589    0.043964144887    -0.000082452728    0.000034932499    -0.084081525858    0.032128414297
            -0.072120895978    0.064064821898    -0.000082452726    0.000034932227    -0.087441302075    0.078726975358    -0.000104061401    0.000031230765
            -0.000089543774    0.000029459009    -0.084081527727    0.032128415011    -0.000104061416    0.000031230750    -0.103121640132    0.041515379750
0.475     -0.066125994831    0.110324120580    -0.000054165447    0.000050728266    -0.058663081287    0.091279514173    -0.000081313615    0.000053249956
            -0.000054165457    0.000050728186    -0.091834308724    0.076037628056    -0.000072580655    0.000056082300    -0.078636485712    0.060370693066
            -0.058663081287    0.091279514173    -0.000072580749    0.000056082149    -0.068319316561    0.109050431060    -0.000095442908    0.000058821790
            -0.000081313733    0.000053249810    -0.078636498628    0.060370681168    -0.000095442915    0.000058821817    -0.092991892764    0.073640642312
0.500     -0.038601715156    0.133876014056    -0.000040096320    0.000063547298    -0.037668903547    0.114097467420    -0.000066798499    0.000074364782
            -0.000040096372    0.000063547183    -0.072502104386    0.104463849827    -0.000057390824    0.000074161884    -0.065335994947    0.086651108279
            -0.037668906682    0.114097476916    -0.000057390987    0.000074161667    -0.041056422148    0.133159467616    -0.000079524355    0.000083638662
            -0.000066798626    0.000074364689    -0.065335994947    0.086651108279    -0.000079524345    0.000083638768    -0.074106084993    0.102258931241
0.525     -0.005305945687    0.148910359760    -0.000023344626    0.000072377447    -0.010697805295    0.130630099617    -0.000047006289    0.000091267764
            -0.000023344664    0.000072377350    -0.045796813837    0.126822530597    -0.000037952559    0.000088100180    -0.045014833493    0.108743859521
            -0.010697808391    0.130630109397    -0.000037952734    0.000088100076    -0.007803211948    0.149210758681    -0.000057378471    0.000104030894
            -0.000047006417    0.000091267698    -0.045014833493    0.108743859521    -0.000057378471    0.000104030894    -0.047785482665    0.124944675371
0.550     0.031059583476    0.154159162726    -0.000005020510    0.000076870128    0.018765585379    0.138714037165    -0.000023213688    0.000102827411
            -0.000005020519    0.000076870086    -0.013712769961    0.141230159627    -0.000016259561    0.000096513325    -0.019104466210    0.124796909903
            0.018765585379    0.138714037165    -0.000016259791    0.000096513283    0.026602929220    0.154108119251    -0.000031327714    0.000117699102
            -0.000023213845    0.000102827355    -0.019104472744    0.124796908903    -0.000031327683    0.000117699069    -0.015987951068    0.139794126572
0.575     0.067544976349    0.149046684370    0.000013806728    0.000076896540    0.051381809031    0.138270418294    0.000003129148    0.000108196430
            0.000013806687    0.000076896479    0.021331952176    0.146473166943    0.000008154246    0.000099620009    0.010529119422    0.133455220214
            0.051381809031    0.138270418294    0.000008154105    0.000099620053    0.064257631895    0.149666973260    -0.000000778127    0.000124994288
            0.000003128977    0.000108196395    0.010529119422    0.133455220214    -0.000000778136    0.000124994278    0.018897894113    0.145559727624
0.600     0.101145872621    0.133810514825    0.000032176015    0.000072517990    0.082359350877    0.129135022923    0.000030497392    0.000106870335
            0.000032176049    0.000072518021    0.056711885176    0.142072296815    0.000032695605    0.000097043724    0.041751452719    0.133942892878
            0.082359348623    0.129135024360    0.000032695459    0.000097043742    0.098422027726    0.135432992408    0.000030833450    0.000124836613
            0.000030497248    0.000106870397    0.041751450381    0.133942893606    0.000030833454    0.000124836611    0.054270576977    0.141718701700
0.625     0.128953605060    0.110378020984    0.000049109452    0.000064305470    0.109711426915    0.112142423870    0.000057152111    0.000099112322
            0.000049109422    0.000064305458    0.089798125528    0.128267897701    0.000056435674    0.000088724801    0.072318200787    0.126068917466
            0.109711426915    0.112142423870    0.000056435510    0.000088724834    0.127300212389    0.112283766048    0.000062209415    0.000116960857
            0.000057152015    0.000099112435    0.072318205763    0.126068926140    0.000062209420    0.000116960911    0.087516408558    0.128465020432
0.650     0.149805819388    0.079964183791    0.000064375581    0.000052387471    0.131887888928    0.088002366954    0.000082252212    0.000084891575
            0.000064375516    0.000052387526    0.118141509325    0.105973029383    0.000078211847    0.000074853857    0.100023325894    0.110224236933
            0.131887888928    0.088002366954    0.000078211761    0.000074853976    0.148700408056    0.081938488060    0.000091675391    0.000101453677
            0.000082252173    0.000084891710    0.100023323970    0.110224238679    0.000091675480    0.000101453664    0.116188032469    0.106665871846
0.675     0.161367577745    0.044555846607    0.000077037073    0.000036932930    0.146685955670    0.058246912513    0.000104029891    0.000064329663
            0.000077037031    0.000036932958    0.139614594541    0.076690372008    0.000096868247    0.000055768886    0.122814039172    0.087336941161
            0.146685955670    0.058246912513    0.000096868421    0.000055769407    0.160893087210    0.046612226614    0.000117544325    0.000078660605
            0.000104029868    0.000064329795    0.122814055003    0.087336987921    0.000117544344    0.000078660577    0.138146057818    0.077779110338
0.700     0.162487121500    0.006944418147    0.000086336772    0.000018377506    0.152681701669    0.025042939980    0.000120950052    0.000038104793
            0.000086336658    0.000018377577    0.152537855322    0.042418936037    0.000111207636    0.000031985400    0.138915589118    0.058834876239
            0.152681701669    0.025042939980    0.000111207515    0.000031985569    0.162716567153    0.008915292741    0.000138084305    0.000049218773
            0.000120949972    0.000038104946    0.138915589118    0.058834876239    0.000138084460    0.000049218725    0.151683657323    0.043761708075
0.725     0.152748995766    -0.029920710670    0.000091480538    -0.000002748562    0.148987762516    -0.009115527863    0.000131500920    0.000007176162
            0.000091480562    -0.000002748523    0.155772131009    0.005543816949    0.000120001075    0.000004275333    0.146923909865    0.026582434125
            0.148987762516    -0.009115527863    0.000120001039    0.000004275486    0.153682641817    -0.028249370069    0.000151543265    0.000014154158
            0.000131500709    0.000007176540    0.146923909865    0.026582434125    0.000151543234    0.000014154170    0.155623112670    0.006961735028
0.750     0.132516421387    -0.062983671607    0.000091618621    -0.000025681316    0.135385549978    -0.041453711080    0.000134232006    -0.000027063016
            0.000091618625    -0.000025681243    0.148812077955    -0.031289175787    0.000122030894    -0.000026230735    0.145930252364    -0.007196072291
            0.135385559540    -0.041453714008    0.000122030948    -0.000026230628    0.134081234236    -0.061832817664    0.000156223792    -0.000025010300
            0.000134232161    -0.000027063106    0.145930252364    -0.007196072291    0.000156223792    -0.000025010299    0.149408605953    -0.030002641482
0.775     0.103013311203    -0.089257777793    0.000085949476    -0.000049307306    0.112458379576    -0.069066916692    0.000127897399    -0.000062687703
            0.000085949428    -0.000049307260    0.131852009064    -0.065319453795    0.000116219756    -0.000057953370    0.135614362279    -0.040022031815
            0.112458384231    -0.069066870895    0.000116219848    -0.000057953498    0.105063931412    -0.088830907481    0.000150650118    -0.000066148523
            0.000127897471    -0.000062687761    0.135614371871    -0.040022034646    0.000150650112    -0.000066148536    0.133175220356    -0.064385378644
