!$
! Info: Touchstone file created by Circ.  Input file=Intel_C2M_200G_4p0in_202208016_staggered.circ
!$
# Hz S RI R 50
0	0.01479487	2.832759e-24	0.9850042	-5.001046e-24	9.355361e-05	2.54005e-22	-0.0002250794	2.756428e-20
	0.9850042	-4.99913e-24	0.01535115	5.498684e-24	-0.0002251349	2.757108e-20	0.0003186886	3.968551e-22
	9.361169e-05	2.541325e-22	-0.0002252725	2.758793e-20	0.01479281	2.686851e-24	0.9850045	-5.05494e-24
	-0.0002252171	2.758113e-20	0.0003187578	3.971313e-22	0.9850045	-5.056863e-24	0.01535257	5.594083e-24
1e+07	0.01812273	-0.001127603	0.9785968	-0.07870898	0.00116061	0.005084416	-0.0007491582	-0.0005037964
	0.9785968	-0.07870898	0.01800487	-0.0009972654	-0.0007491559	-0.0005037814	0.001089402	0.005101369
	0.00116061	0.005084416	-0.0007491559	-0.0005037814	0.01802038	-0.001098849	0.9787018	-0.07871313
	-0.0007491582	-0.0005037964	0.001089402	0.005101369	0.9787018	-0.07871313	0.01790306	-0.0009687647
2e+07	0.02055053	-0.005116098	0.9665345	-0.1539503	0.002551262	0.009634248	-0.0009169013	-0.0006589151
	0.9665345	-0.1539503	0.02025706	-0.00466078	-0.000916831	-0.0006589928	0.002230063	0.009771303
	0.002551273	0.009634235	-0.0009168285	-0.0006591039	0.02047495	-0.005019986	0.9666224	-0.1540003
	-0.0009168979	-0.0006590198	0.00223015	0.009771198	0.9666224	-0.1540003	0.02017537	-0.004561773
3e+07	0.02185132	-0.01031395	0.9495224	-0.2268024	0.004601607	0.0139787	-0.001032511	-0.0008024585
	0.9495224	-0.2268024	0.02085403	-0.009701235	-0.001032506	-0.0008025128	0.004014241	0.01417761
	0.004601579	0.01397873	-0.001032548	-0.000802512	0.02179525	-0.01016927	0.9495946	-0.2268766
	-0.001032523	-0.000802464	0.004014218	0.01417758	0.9495946	-0.2268766	0.02080354	-0.00955811
4e+07	0.02205919	-0.01602438	0.9274405	-0.2975878	0.007341529	0.01789603	-0.001113187	-0.0009492561
	0.9274405	-0.2975878	0.02029059	-0.01491255	-0.001113249	-0.0009492552	0.006328838	0.01830612
	0.007341523	0.01789606	-0.001113253	-0.0009492514	0.02202996	-0.01584048	0.927497	-0.2976808
	-0.001113188	-0.0009492429	0.006328839	0.01830612	0.927497	-0.2976808	0.02027112	-0.01473326
5e+07	0.02132299	-0.02186331	0.9003591	-0.3661124	0.01067691	0.0213265	-0.001171129	-0.001114198
	0.9003591	-0.3661124	0.01868488	-0.02007223	-0.001171292	-0.001114208	0.009158429	0.02206832
	0.01067691	0.02132651	-0.001171289	-0.001114208	0.02132306	-0.02164671	0.9004003	-0.3662213
	-0.001171126	-0.001114199	0.009158432	0.02206833	0.9004003	-0.3662213	0.01869912	-0.01986307
6e+07	0.01973548	-0.02764307	0.8684265	-0.4320959	0.01453424	0.02419083	-0.001219624	-0.001313234
	0.8684265	-0.4320959	0.01611455	-0.02492829	-0.001219986	-0.001313214	0.01244379	0.02540227
	0.01453426	0.02419082	-0.001219985	-0.001313215	0.01976696	-0.027399	0.8684519	-0.4322186
	-0.001219622	-0.001313234	0.01244379	0.02540227	0.8684519	-0.4322186	0.01616526	-0.0246954
7e+07	0.01736566	-0.03320668	0.8318318	-0.4952408	0.01882426	0.02641947	-0.001277129	-0.001557287
	0.8318318	-0.4952408	0.01270714	-0.02927885	-0.001277705	-0.001557241	0.01612013	0.02825771
	0.01882426	0.02641947	-0.001277655	-0.001557291	0.01743061	-0.03294041	0.8318395	-0.4953754
	-0.001277126	-0.001557289	0.01612013	0.02825771	0.8318395	-0.4953754	0.01279604	-0.02902868
8e+07	0.01429918	-0.03841673	0.7907934	-0.5552516	0.0234493	0.02795666	-0.001364516	-0.001850831
	0.7907934	-0.5552516	0.008605101	-0.03297513	-0.001365373	-0.001850717	0.02011658	0.03059408
	0.0234493	0.02795666	-0.001365374	-0.001850715	0.01439942	-0.03813356	0.7907836	-0.5553968
	-0.001364518	-0.001850829	0.02011658	0.03059408	0.7907836	-0.5553968	0.008732751	-0.03271445
9e+07	0.01064184	-0.04316073	0.7455517	-0.6118464	0.02830617	0.02876096	-0.001503755	-0.00219195
	0.7455517	-0.6118464	0.003957173	-0.03589983	-0.001504955	-0.002191669	0.02435909	0.03238223
	0.02830617	0.02876097	-0.001504954	-0.00219166	0.01077813	-0.04286647	0.7455219	-0.6119998
	-0.001503757	-0.002191941	0.02435909	0.03238223	0.7455219	-0.6119998	0.004123355	-0.03563471
1e+08	0.006536974	-0.04732454	0.6963346	-0.6647938	0.03329025	0.02880538	-0.001719113	-0.002573113
	0.6963346	-0.6647938	-0.001052177	-0.03793036	-0.001720796	-0.002572449	0.02877536	0.0336043
	0.03329025	0.02880538	-0.001720796	-0.002572449	0.006708597	-0.04702568	0.6962852	-0.6649533
	-0.001719113	-0.002573114	0.02877536	0.0336043	0.6962852	-0.6649533	-0.0008488409	-0.03766724
1.1e+08	0.002147813	-0.05108865	0.6433548	-0.713594	0.03830395	0.0280614	-0.00202563	-0.00296222
	0.6433548	-0.713594	-0.006164361	-0.03920635	-0.002027415	-0.002959835	0.03328045	0.03423581
	0.03830395	0.02806139	-0.002027415	-0.002959836	0.002410077	-0.05080933	0.6432873	-0.7137605
	-0.00202563	-0.002962221	0.03328045	0.03423581	0.6432873	-0.7137605	-0.0059278	-0.03893302
1.2e+08	-0.002639739	-0.05428362	0.5871717	-0.7580921	0.0431845	0.02655003	-0.00242282	-0.003360733
	0.5871717	-0.7580921	-0.01146292	-0.0396398	-0.002424064	-0.00335752	0.03778485	0.0342944
	0.0431845	0.02655003	-0.002424063	-0.003357521	-0.002347404	-0.05403869	0.5870818	-0.7582645
	-0.00242282	-0.003360734	0.03778485	0.0342944	0.5870818	-0.7582645	-0.01118844	-0.0393711
1.3e+08	-0.00766916	-0.05684854	0.528083	-0.7981433	0.04783974	0.02429701	-0.002928536	-0.00374786
	0.528083	-0.7981433	-0.01674997	-0.0391636	-0.002929459	-0.003744566	0.04221892	0.03379879
	0.04783974	0.02429701	-0.00292946	-0.003744567	-0.007369341	-0.05662327	0.5279694	-0.7983206
	-0.002928536	-0.003747861	0.04221892	0.03379879	0.5279694	-0.7983206	-0.01644111	-0.03890986
1.4e+08	-0.01282555	-0.0587755	0.4664249	-0.8335876	0.05217243	0.02134025	-0.003551035	-0.004099161
	0.4664249	-0.8335876	-0.02185525	-0.0377787	-0.003552145	-0.004095523	0.04651441	0.03277559
	0.05217243	0.02134024	-0.003552145	-0.004095524	-0.01251914	-0.0585586	0.4662856	-0.8337651
	-0.003551035	-0.004099162	0.04651441	0.03277559	0.4662856	-0.8337651	-0.0215179	-0.0375455
1.5e+08	-0.01800587	-0.06007464	0.4025439	-0.8642837	0.05608844	0.01772968	-0.004292133	-0.004387626
	0.4025439	-0.8642837	-0.02661846	-0.0355199	-0.004293526	-0.004383425	0.05060891	0.03125932
	0.05608844	0.01772968	-0.004293526	-0.004383425	-0.01768812	-0.05986326	0.4023786	-0.8644585
	-0.004292134	-0.004387627	0.05060891	0.03125932	0.4023786	-0.8644585	-0.02625867	-0.03530987
1.6e+08	-0.02311591	-0.06077098	0.3367947	-0.8901115	0.05950032	0.01352709	-0.005147178	-0.004585554
	0.3367947	-0.8901115	-0.030891	-0.0324496	-0.005148749	-0.00458039	0.05444664	0.02929194
	0.05950032	0.01352709	-0.005148749	-0.004580391	-0.0227822	-0.06056816	0.3366016	-0.8902815
	-0.005147179	-0.004585554	0.05444664	0.02929194	0.3366016	-0.8902815	-0.03051436	-0.03226315
1.7e+08	-0.02806978	-0.06090293	0.2695356	-0.9109782	0.06232922	0.008804871	-0.006105214	-0.004665922
	0.2695356	-0.9109782	-0.034539	-0.02865346	-0.006106673	-0.004659359	0.05797911	0.02692093
	0.06232922	0.00880487	-0.006106673	-0.004659359	-0.02771831	-0.06071464	0.2693143	-0.9111403
	-0.006105214	-0.004665922	0.05797911	0.02692093	0.2693143	-0.9111403	-0.03414996	-0.02848994
1.8e+08	-0.03279183	-0.06052103	0.2011282	-0.9268152	0.06450646	0.003644911	-0.007149347	-0.004603693
	0.2011282	-0.9268152	-0.03744509	-0.02423664	-0.007150236	-0.00459554	0.06116609	0.02419861
	0.06450646	0.00364491	-0.007150237	-0.00459554	-0.03242371	-0.06035419	0.2008778	-0.9269652
	-0.007149347	-0.004603694	0.06116609	0.02419861	0.2008778	-0.9269652	-0.03704765	-0.02409485
1.9e+08	-0.03721721	-0.05968647	0.1319358	-0.9375759	0.06597509	-0.001862649	-0.008257239	-0.004376706
	0.1319358	-0.9375759	-0.03951102	-0.01932134	-0.008257041	-0.004366924	0.06397567	0.02118121
	0.06597509	-0.001862649	-0.008257042	-0.004366924	-0.0368364	-0.05954759	0.1316579	-0.9377118
	-0.008257239	-0.004376706	0.06397567	0.02118121	0.1316579	-0.9377118	-0.03910841	-0.01919967
2e+08	-0.04129437	-0.058469	0.0623211	-0.943239	0.06669035	-0.007621333	-0.009401811	-0.00396716
	0.0623211	-0.943239	-0.04065843	-0.01404277	-0.009400037	-0.003956076	0.06638398	0.01792673
	0.06669035	-0.007621333	-0.009400037	-0.003956076	-0.04090593	-0.05836341	0.06201446	-0.9433553
	-0.009401811	-0.00396716	0.06638398	0.01792673	0.06201446	-0.9433553	-0.04025346	-0.01393901
2.1e+08	-0.04498498	-0.05694399	-0.00735614	-0.9438071	0.06662038	-0.01352978	-0.01055245	-0.003362666
	-0.00735614	-0.9438071	-0.04083139	-0.008546139	-0.01054863	-0.003350343	0.06837651	0.01449471
	0.06662038	-0.01352978	-0.01054863	-0.003350343	-0.04459587	-0.05687589	-0.007689493	-0.9438999
	-0.01055245	-0.003362666	0.06837651	0.01449471	-0.007689493	-0.9438999	-0.0404259	-0.008458112
2.2e+08	-0.04826542	-0.05519123	-0.0767382	-0.9393042	0.06574656	-0.01948343	-0.0116756	-0.00255612
	-0.0767382	-0.9393042	-0.03999552	-0.002983603	-0.01166935	-0.00254309	0.06994647	0.01094449
	0.06574656	-0.01948343	-0.01166935	-0.00254309	-0.04788327	-0.05516282	-0.07709639	-0.9393694
	-0.0116756	-0.00255612	0.06994647	0.01094449	-0.07709639	-0.9393694	-0.03959153	-0.002908559
2.3e+08	-0.05112644	-0.05329132	-0.1454691	-0.9297761	0.06406397	-0.02537642	-0.01273643	-0.001547407
	-0.1454691	-0.9297761	-0.03814009	0.002488881	-0.01272746	-0.001533906	0.07109527	0.007334307
	0.06406397	-0.02537642	-0.01272746	-0.001533906	-0.05075879	-0.05330358	-0.1458509	-0.9298101
	-0.01273643	-0.001547407	0.07109527	0.007334307	-0.1458509	-0.9298101	-0.03773878	0.002554127
2.4e+08	-0.05357315	-0.0513236	-0.2132011	-0.915293	0.06158108	-0.03110275	-0.01369986	-0.0003420041
	-0.2132011	-0.915293	-0.03527746	0.007715747	-0.01368798	-0.0003287676	0.0718324	0.003720554
	0.06158108	-0.03110275	-0.01368798	-0.0003287679	-0.05322808	-0.05137622	-0.2136028	-0.9152933
	-0.01369986	-0.0003420041	0.0718324	0.003720554	-0.2136028	-0.9152933	-0.03487959	0.007774408
2.5e+08	-0.05562467	-0.04936384	-0.2795885	-0.8959475	0.05831961	-0.0365582	-0.01453185	0.001047697
	-0.2795885	-0.8959475	-0.03144273	0.01254391	-0.01451688	0.001060044	0.07217438	0.0001564782
	0.05831961	-0.0365582	-0.01451688	0.001060044	-0.05530952	-0.04945531	-0.2800077	-0.8959087
	-0.01453185	0.001047697	0.07217438	0.0001564782	-0.2800077	-0.8959087	-0.03104791	0.01259949
2.6e+08	-0.05731268	-0.04748208	-0.3442946	-0.8718509	0.05431466	-0.04164214	-0.01520089	0.002603119
	-0.3442946	-0.8718509	-0.02669323	0.01682689	-0.01518272	0.002614178	0.07214451	-0.003308515
	0.05431466	-0.04164214	-0.01518272	0.002614178	-0.05703499	-0.04761005	-0.3447255	-0.8717705
	-0.01520089	0.002603119	0.07214451	-0.003308515	-0.3447255	-0.8717705	-0.02630078	0.01688244
2.7e+08	-0.05868057	-0.04574085	-0.4069884	-0.843137	0.04961353	-0.04625831	-0.01567862	0.004300433
	-0.4069884	-0.843137	-0.02110691	0.02042686	-0.01565744	0.004309297	0.07177221	-0.006629282
	0.04961353	-0.04625831	-0.01565744	0.004309297	-0.0584474	-0.04590199	-0.4074278	-0.8430133
	-0.01567862	0.004300433	0.07177221	-0.006629282	-0.4074278	-0.8430133	-0.02071519	0.02048597
2.8e+08	-0.05978224	-0.04419277	-0.4673481	-0.8099627	0.0442756	-0.05031706	-0.0159412	0.006110714
	-0.4673481	-0.8099627	-0.01478149	0.02321835	-0.01591712	0.006116934	0.07109255	-0.00976636
	0.0442756	-0.05031706	-0.01591712	0.006116934	-0.05959992	-0.04438285	-0.4677915	-0.8097939
	-0.0159412	0.006110714	0.07109255	-0.00976636	-0.4677915	-0.8097939	-0.0143881	0.02328439
2.9e+08	-0.06067971	-0.04287962	-0.5250614	-0.7725067	0.03837151	-0.05373661	-0.01596971	0.008001743
	-0.5250614	-0.7725067	-0.007832854	0.02509097	-0.01594331	0.008004512	0.07014515	-0.01268591
	0.03837151	-0.05373661	-0.01594331	0.008004511	-0.06055457	-0.0430938	-0.5255039	-0.7722913
	-0.01596971	0.008001743	0.07014515	-0.01268591	-0.5255039	-0.7722913	-0.007434453	0.02516661
3e+08	-0.06144163	-0.04183075	-0.579827	-0.7309671	0.03198191	-0.05644388	-0.01575156	0.009937824
	-0.579827	-0.7309671	-0.0003914661	0.02595093	-0.0157234	0.009936561	0.06897344	-0.01536093
	0.03198191	-0.05644388	-0.0157234	0.009936561	-0.06137935	-0.04206358	-0.5802634	-0.7307037
	-0.01575156	0.009937824	0.06897344	-0.01536093	-0.5802634	-0.7307037	1.607855e-05	0.02603839
3.1e+08	-0.06214096	-0.04106229	-0.6313578	-0.6855649	0.0251966	-0.05837656	-0.01528024	0.01188194
	-0.6313578	-0.6855649	0.007399213	0.02572417	-0.01525068	0.01187618	0.06762427	-0.01777084
	0.0251966	-0.05837656	-0.01525068	0.01187618	-0.06214724	-0.04130765	-0.6317806	-0.6852532
	-0.01528024	0.01188194	0.06762427	-0.01777084	-0.6317806	-0.6852532	0.007820091	0.02582463
3.2e+08	-0.06285333	-0.0405764	-0.679377	-0.6365427	0.01811312	-0.05948386	-0.0145555	0.01379666
	-0.679377	-0.6365427	0.01538501	0.02435716	-0.01452535	0.01378604	0.06614641	-0.01990297
	0.01811312	-0.05948386	-0.01452535	0.01378604	-0.06293259	-0.04082702	-0.6797839	-0.6361828
	-0.0145555	0.01379666	0.06614641	-0.01990297	-0.6797839	-0.6361828	0.01582476	0.02447159
3.3e+08	-0.06365383	-0.040361	-0.7236276	-0.5841611	0.01083542	-0.05972709	-0.01358312	0.01564539
	-0.7236276	-0.5841611	0.02340566	0.02181871	-0.01355376	0.01562935	0.06458923	-0.02175202
	0.01083542	-0.05972709	-0.01355376	0.01562935	-0.06381041	-0.04060902	-0.7240118	-0.5837549
	-0.01358312	0.01564539	0.06458923	-0.02175202	-0.7240118	-0.5837549	0.02386967	0.02194693
3.4e+08	-0.06461519	-0.04038942	-0.7638674	-0.5287049	0.003471924	-0.05908147	-0.01237557	0.01739305
	-0.7638674	-0.5287049	0.03129644	0.01810121	-0.01234752	0.01737175	0.06300275	-0.02332036
	0.003471924	-0.05908147	-0.01234752	0.01737175	-0.06485216	-0.04062643	-0.7642267	-0.528253
	-0.01237557	0.01739305	0.06300275	-0.02332036	-0.7642267	-0.528253	0.03179093	0.01824219
3.5e+08	-0.06580502	-0.04062135	-0.7998788	-0.4704744	-0.003865755	-0.05753567	-0.01095008	0.01900801
	-0.7998788	-0.4704744	0.03889325	0.01322057	-0.01092434	0.01898152	0.06143534	-0.02461863
	-0.003865755	-0.05753567	-0.01092434	0.01898152	-0.06612519	-0.04083821	-0.8002042	-0.46998
	-0.01095008	0.01900801	0.06143534	-0.02461863	-0.8002042	-0.46998	0.03942347	0.01337136
3.6e+08	-0.06728392	-0.04100342	-0.8314614	-0.4097909	-0.01106489	-0.0550931	-0.009328712	0.02046236
	-0.8314614	-0.4097909	0.04603427	0.007215734	-0.009306633	0.02043098	0.05993306	-0.0256647
	-0.01106489	-0.0550931	-0.009306633	0.02043098	-0.06768859	-0.04119031	-0.8317489	-0.4092564
	-0.009328712	0.02046236	0.05993306	-0.0256647	-0.8317489	-0.4092564	0.04660626	0.007373275
3.7e+08	-0.06910241	-0.0414705	-0.8584405	-0.3469895	-0.01801394	-0.05177156	-0.007537559	0.02173275
	-0.8584405	-0.3469895	0.05256499	0.0001488605	-0.007519857	0.0216971	0.05853847	-0.02648377
	-0.01801394	-0.05177156	-0.007519857	0.0216971	-0.0695918	-0.04161719	-0.8586872	-0.3464179
	-0.007537559	0.02173275	0.05853847	-0.02648377	-0.8586872	-0.3464179	0.0531844	0.0003084556
3.8e+08	-0.07129982	-0.04194724	-0.8806687	-0.2824205	-0.02460374	-0.04760281	-0.005604446	0.02280117
	-0.8806687	-0.2824205	0.058341	-0.007896105	-0.005592702	0.02276183	0.05728925	-0.02710795
	-0.02460374	-0.04760281	-0.005592702	0.02276183	-0.07187325	-0.04204302	-0.8808678	-0.2818161
	-0.005604446	0.02280117	0.05728925	-0.02710795	-0.8808678	-0.2818161	0.05901251	-0.007740656
3.9e+08	-0.07390187	-0.04234902	-0.898023	-0.2164494	-0.03073001	-0.04263315	-0.003560493	0.02365475
	-0.898023	-0.2164494	0.06323014	-0.0168156	-0.003554529	0.02361278	0.05621754	-0.02757544
	-0.03073001	-0.04263315	-0.003554529	0.02361278	-0.07455648	-0.04238346	-0.898174	-0.2158173
	-0.003560493	0.02365475	0.05621754	-0.02757544	-0.898174	-0.2158173	0.06395836	-0.01667026
4e+08	-0.07691909	-0.04258588	-0.9104132	-0.1494519	-0.03629509	-0.03692139	-0.001435606	0.02428616
	-0.9104132	-0.1494519	0.06711696	-0.02648727	-0.00143659	0.02424274	0.0553485	-0.02792942
	-0.03629509	-0.03692139	-0.00143659	0.02424274	-0.07765145	-0.04254859	-0.9105106	-0.148795
	-0.001435606	0.02428616	0.0553485	-0.02792942	-0.9105106	-0.148795	0.06790529	-0.02636053
4.1e+08	-0.08034609	-0.04256479	-0.9177763	-0.08180491	-0.04120935	-0.03053872	0.0007402816	0.02469328
	-0.9177763	-0.08180491	0.06990482	-0.03677491	0.0007318093	0.0246496	0.0546997	-0.0282165
	-0.04120935	-0.03053872	0.0007318093	0.0246496	-0.08115109	-0.04244527	-0.9178186	-0.08112761
	0.0007402816	0.02469328	0.0546997	-0.0282165	-0.9178186	-0.08112761	0.07075576	-0.03667536
4.2e+08	-0.08416014	-0.04219032	-0.9200841	-0.01389761	-0.0453935	-0.02356724	0.002938152	0.02487896
	-0.9200841	-0.01389761	0.07151718	-0.0475286	0.002922375	0.0248363	0.05428046	-0.02848717
	-0.0453935	-0.02356724	0.002922375	0.0248363	-0.08503114	-0.0419787	-0.9200684	-0.01320671
	0.002938152	0.02487896	0.05428046	-0.02848717	-0.9200684	-0.01320671	0.07243185	-0.04746534
4.3e+08	-0.08832154	-0.04137019	-0.9173375	0.05388453	-0.04877915	-0.01609806	0.005132673	0.02484989
	-0.9173375	0.05388453	0.07190017	-0.05859029	0.005109425	0.02480991	0.05409137	-0.02879196
	-0.04877915	-0.01609806	0.005109425	0.02480991	-0.08925086	-0.04105741	-0.9172624	0.05458469
	0.005132673	0.02484989	0.05409137	-0.02879196	-0.9172624	0.05458469	0.07287816	-0.05857337
4.4e+08	-0.092774	-0.04001698	-0.9095707	0.1211574	-0.05131018	-0.008230235	0.007300622	0.0246164
	-0.9095707	0.1211574	0.07102299	-0.06979628	0.007270553	0.02458028	0.05412399	-0.02918192
	-0.05131018	-0.008230235	0.007270553	0.02458028	-0.09375233	-0.0395945	-0.909435	0.1218605
	0.007300622	0.0246164	0.05412399	-0.02918192	-0.909435	0.1218605	0.07206279	-0.06983575
4.5e+08	-0.09744399	-0.03805034	-0.8968492	0.1875381	-0.05294387	-6.86381e-05	0.009422626	0.02419131
	-0.8968492	0.1875381	0.06887831	-0.08098036	0.009386489	0.02416046	0.05436146	-0.02970629
	-0.05294387	-6.86381e-05	0.009386489	0.02416046	-0.09846103	-0.03751071	-0.8966524	0.1882387
	0.009422626	0.02419131	0.05436146	-0.02970629	-0.8966524	0.1882387	0.06997681	-0.08108648
4.6e+08	-0.1022432	-0.0354005	-0.8792698	0.2526537	-0.05365094	0.008277854	0.01148348	0.02358876
	-0.8792698	0.2526537	0.06548265	-0.0919786	0.01144193	0.02356462	0.05477823	-0.03041137
	-0.05365094	0.008277854	0.01144193	0.02356462	-0.1032881	-0.03473786	-0.8790109	0.2533476
	0.01148348	0.02358876	0.05477823	-0.03041137	-0.8790109	0.2533476	0.06663496	-0.09216161
4.7e+08	-0.1070704	-0.03201234	-0.8569608	0.3161477	-0.05341617	0.01669868	0.01347072	0.02282402
	-0.8569608	0.3161477	0.06087583	-0.1026322	0.01342527	0.02280747	0.05534092	-0.03133836
	-0.05341617	0.01669868	0.01342527	0.02280747	-0.1081306	-0.0312211	-0.8566391	0.3168272
	0.01347072	0.02282402	0.05534092	-0.03133836	-0.8566391	0.3168272	0.06207557	-0.1029017
4.8e+08	-0.1118125	-0.02784403	-0.8300723	0.3776705	-0.0522379	0.02508256	0.01537683	0.0219116
	-0.8300723	0.3776705	0.05511835	-0.1127909	0.01532845	0.02190364	0.05600931	-0.03252324
	-0.0522379	0.02508256	0.01532845	0.02190364	-0.1128749	-0.02692117	-0.8296915	0.3783312
	0.01537683	0.0219116	0.05600931	-0.03252324	-0.8296915	0.3783312	0.05635823	-0.1131558
4.9e+08	-0.1163467	-0.02287206	-0.7987891	0.4368889	-0.0501284	0.03332038	0.01719606	0.02086566
	-0.7987891	0.4368889	0.04829161	-0.1223152	0.01714681	0.02086663	0.05673701	-0.03399508
	-0.0501284	0.03332038	0.01714681	0.02086663	-0.117398	-0.0218156	-0.7983486	0.4375273
	0.01719606	0.02086566	0.05673701	-0.03399508	-0.7983486	0.4375273	0.04956208	-0.1227842
5e+08	-0.1205453	-0.01709259	-0.763315	0.493497	-0.04711216	0.04130606	0.01892648	0.01969764
	-0.763315	0.493497	0.04049426	-0.1310816	0.01887781	0.01970817	0.05747305	-0.03577474
	-0.04711216	0.04130606	0.01887781	0.01970817	-0.1215713	-0.01590179	-0.7628171	0.4941041
	0.01892648	0.01969764	0.05747305	-0.03577474	-0.7628171	0.4941041	0.04178484	-0.1316612
5.1e+08	-0.124276	-0.01051991	-0.7238756	0.5471984	-0.04322625	0.0489378	0.02056713	0.01841831
	-0.7238756	0.5471984	0.03183996	-0.1389816	0.02052082	0.01843824	0.05816303	-0.03787531
	-0.04322625	0.0489378	0.02052082	0.01843824	-0.125263	-0.009196514	-0.7233239	0.5477715
	0.02056713	0.01841831	0.05816303	-0.03787531	-0.7233239	0.5477715	0.03313931	-0.1396778
5.2e+08	-0.1274068	-0.003190365	-0.6807189	0.597724	-0.03851877	0.05612104	0.02211893	0.01703468
	-0.6807189	0.597724	0.0224554	-0.1459254	0.02207715	0.01706336	0.05875059	-0.04030064
