!$
! Info: Touchstone file created by Circ.  Input file=Intel_C2M_200G_4p0in_202208016_staggered.circ
!$
# Hz S RI R 50
0	0.01478171	2.540291e-24	5.013403e-05	6.218865e-23	9.396298e-05	2.553348e-22	5.012654e-05	6.207329e-23
	5.013403e-05	6.218865e-23	0.01479487	2.832759e-24	5.013874e-05	6.224362e-23	9.355361e-05	2.54005e-22
	9.402107e-05	2.554627e-22	5.013873e-05	6.224467e-23	0.01477652	2.638793e-24	5.012914e-05	6.212159e-23
	5.012653e-05	6.207434e-23	9.361169e-05	2.541325e-22	5.012914e-05	6.212159e-23	0.01479281	2.686851e-24
1e+07	0.01799412	-0.001118182	2.231605e-06	1.588225e-05	0.001154818	0.005024058	7.385136e-06	1.568725e-05
	2.231606e-06	1.588225e-05	0.01812273	-0.001127603	1.439919e-06	4.364513e-06	0.00116061	0.005084416
	0.001154818	0.005024058	1.439919e-06	4.364513e-06	0.01810186	-0.001073336	2.174121e-06	1.515714e-05
	7.385136e-06	1.568725e-05	0.00116061	0.005084416	2.174121e-06	1.515714e-05	0.01802038	-0.001098849
2e+07	0.0204411	-0.005050948	2.617342e-06	9.020263e-06	0.002537581	0.009515514	4.435611e-06	1.104681e-05
	2.617347e-06	9.020287e-06	0.02055053	-0.005116098	8.972609e-06	9.691494e-06	0.002551262	0.009634248
	0.002537591	0.009515501	8.97261e-06	9.691494e-06	0.02054479	-0.005007361	1.819342e-06	7.894425e-06
	4.435612e-06	1.104681e-05	0.002551273	0.009634235	1.819342e-06	7.894425e-06	0.02047495	-0.005019986
3e+07	0.02176659	-0.01021337	4.495998e-06	7.039667e-06	0.004576651	0.01380466	2.524427e-06	1.047853e-05
	4.495998e-06	7.039667e-06	0.02185132	-0.01031395	1.665404e-05	1.158019e-05	0.004601607	0.0139787
	0.004576622	0.0138047	1.665404e-05	1.158019e-05	0.02186307	-0.01014609	3.135106e-06	5.924262e-06
	2.524427e-06	1.047853e-05	0.004601579	0.01397873	3.135106e-06	5.924261e-06	0.02179525	-0.01016927
4e+07	0.02200619	-0.01589517	5.972244e-06	5.473657e-06	0.007302575	0.01767015	5.006251e-06	9.187645e-06
	5.972244e-06	5.473657e-06	0.02205919	-0.01602438	2.276788e-05	1.034022e-05	0.007341529	0.01789603
	0.00730257	0.01767017	2.276788e-05	1.034022e-05	0.02210445	-0.01580236	4.160954e-06	4.525049e-06
	5.006251e-06	9.187645e-06	0.007341523	0.01789606	4.160954e-06	4.525049e-06	0.02202996	-0.01584048
5e+07	0.02130826	-0.02171182	7.087235e-06	3.933253e-06	0.01062189	0.02105276	7.123804e-06	7.639223e-06
	7.087235e-06	3.933253e-06	0.02132299	-0.02186331	2.755139e-05	7.375177e-06	0.01067691	0.0213265
	0.01062189	0.02105276	2.755139e-05	7.375177e-06	0.02141199	-0.02159344	4.920778e-06	3.246323e-06
	7.123804e-06	7.639223e-06	0.01067691	0.02132651	4.920778e-06	3.246323e-06	0.02132306	-0.02164671
6e+07	0.01976464	-0.02747605	7.853264e-06	2.344048e-06	0.0144619	0.02387374	8.778577e-06	5.853686e-06
	7.853263e-06	2.344048e-06	0.01973548	-0.02764307	3.110344e-05	3.296527e-06	0.01453424	0.02419083
	0.01446192	0.02387372	3.110344e-05	3.296527e-06	0.01987715	-0.0273325	5.422172e-06	1.989008e-06
	8.778576e-06	5.853686e-06	0.01453426	0.02419082	5.422171e-06	1.989008e-06	0.01976696	-0.027399
7e+07	0.01744331	-0.03303145	8.272701e-06	7.074578e-07	0.01873432	0.02606391	9.977927e-06	3.866239e-06
	8.272701e-06	7.074578e-07	0.01736566	-0.03320668	3.344818e-05	-1.554733e-06	0.01882426	0.02641947
	0.01873432	0.02606391	3.344818e-05	-1.554733e-06	0.0175679	-0.03286414	5.664181e-06	7.345124e-07
	9.977927e-06	3.866239e-06	0.01882426	0.02641947	5.664181e-06	7.34512e-07	0.01743061	-0.03294041
8e+07	0.01442864	-0.03824111	8.339809e-06	-9.54788e-07	0.02334252	0.02756774	1.071381e-05	1.713881e-06
	8.339809e-06	-9.54788e-07	0.01429918	-0.03841673	3.456971e-05	-6.96133e-06	0.0234493	0.02795666
	0.02334252	0.02756774	3.456972e-05	-6.96133e-06	0.01456847	-0.03805206	5.642183e-06	-5.075223e-07
	1.071381e-05	1.713881e-06	0.0234493	0.02795666	5.642183e-06	-5.075223e-07	0.01439942	-0.03813356
9e+07	0.01082484	-0.04299297	8.032348e-06	-2.623378e-06	0.02818442	0.02834376	1.09506e-05	-5.89017e-07
	8.032348e-06	-2.623378e-06	0.01064184	-0.04316073	3.438301e-05	-1.282496e-05	0.02830617	0.02876096
	0.02818443	0.02834377	3.438301e-05	-1.282496e-05	0.01098247	-0.04278479	5.341366e-06	-1.721602e-06
	1.09506e-05	-5.890171e-07	0.02830617	0.02876097	5.341366e-06	-1.721602e-06	0.01077813	-0.04286647
1e+08	0.006773217	-0.04717326	7.188612e-06	-4.374981e-06	0.03315661	0.02836486	1.045416e-05	-3.22463e-06
	7.188612e-06	-4.374981e-06	0.006536974	-0.04732454	3.226743e-05	-1.961485e-05	0.03329025	0.02880538
	0.03315661	0.02836486	3.226743e-05	-1.961485e-05	0.006950742	-0.04694869	4.646872e-06	-2.944533e-06
	1.045416e-05	-3.22463e-06	0.03329025	0.02880538	4.646872e-06	-2.944533e-06	0.006708597	-0.04702568
1.1e+08	0.002436922	-0.05095994	5.668638e-06	-5.221933e-06	0.03816298	0.02760139	8.742047e-06	-4.71274e-06
	5.668638e-06	-5.221933e-06	0.002147813	-0.05108865	2.688122e-05	-2.333246e-05	0.03830395	0.0280614
	0.03816298	0.02760139	2.688122e-05	-2.333246e-05	0.002694983	-0.05074451	3.530762e-06	-3.490593e-06
	8.742047e-06	-4.71274e-06	0.03830395	0.02806139	3.530762e-06	-3.490592e-06	0.002410077	-0.05080933
1.2e+08	-0.002297961	-0.0541847	4.44136e-06	-5.669274e-06	0.04304106	0.0260738	7.373475e-06	-5.551754e-06
	4.44136e-06	-5.669274e-06	-0.002639739	-0.05428362	2.329583e-05	-2.446348e-05	0.0431845	0.02655003
	0.04304106	0.0260738	2.329583e-05	-2.446348e-05	-0.002020129	-0.05399417	2.638333e-06	-3.773532e-06
	7.373475e-06	-5.551754e-06	0.0431845	0.02655003	2.638333e-06	-3.773532e-06	-0.002347404	-0.05403869
1.3e+08	-0.007276593	-0.05678672	3.360855e-06	-5.973379e-06	0.04769958	0.02380712	6.138497e-06	-6.07714e-06
	3.360855e-06	-5.973379e-06	-0.00766916	-0.05684854	2.187613e-05	-2.345495e-05	0.04783974	0.02429701
	0.04769958	0.02380712	2.187613e-05	-2.345495e-05	-0.00700116	-0.05660596	1.863837e-06	-3.980999e-06
	6.138497e-06	-6.07714e-06	0.04783974	0.02429701	1.863837e-06	-3.980999e-06	-0.007369341	-0.05662327
1.4e+08	-0.01238524	-0.05875754	2.402429e-06	-6.062353e-06	0.0520419	0.02083832	5.009894e-06	-6.380533e-06
	2.402429e-06	-6.062353e-06	-0.01282555	-0.0587755	2.038664e-05	-2.263599e-05	0.05217243	0.02134025
	0.0520419	0.02083831	2.038664e-05	-2.263599e-05	-0.01211252	-0.05857469	1.144703e-06	-4.054947e-06
	5.009894e-06	-6.380533e-06	0.05217243	0.02134024	1.144703e-06	-4.054947e-06	-0.01251914	-0.0585586
1.5e+08	-0.01752184	-0.06010662	1.996605e-06	-5.700392e-06	0.05597443	0.01721628	3.980415e-06	-6.537514e-06
	1.996605e-06	-5.700392e-06	-0.01800587	-0.06007464	1.887493e-05	-2.192034e-05	0.05608844	0.01772968
	0.05597443	0.01721628	1.887493e-05	-2.192034e-05	-0.01724636	-0.05991823	4.790867e-07	-4.017402e-06
	3.980415e-06	-6.537514e-06	0.05608844	0.01772968	4.790867e-07	-4.017402e-06	-0.01768812	-0.05986326
1.6e+08	-0.022593	-0.06085814	1.600606e-06	-5.347553e-06	0.05941005	0.01300162	3.20178e-06	-6.481366e-06
	1.600606e-06	-5.347553e-06	-0.02311591	-0.06077098	1.736383e-05	-2.124636e-05	0.05950032	0.01352709
	0.05941004	0.01300162	1.736383e-05	-2.124636e-05	-0.02230932	-0.06066664	1.922122e-07	-3.714988e-06
	3.20178e-06	-6.481366e-06	0.05950032	0.01352709	1.922122e-07	-3.714988e-06	-0.0227822	-0.06056816
1.7e+08	-0.02751344	-0.06104951	1.218667e-06	-5.013333e-06	0.06226999	0.0082655	2.879251e-06	-6.151523e-06
	1.218667e-06	-5.013333e-06	-0.02806978	-0.06090293	1.586928e-05	-2.056639e-05	0.06232922	0.008804871
	0.06226999	0.0082655	1.586928e-05	-2.056639e-05	-0.0272189	-0.06086038	-7.880626e-08	-3.431086e-06
	2.879251e-06	-6.151523e-06	0.06232922	0.00880487	-7.880625e-08	-3.431086e-06	-0.02771831	-0.06071464
1.8e+08	-0.03220794	-0.06073025	8.543858e-07	-4.666378e-06	0.06448556	0.003088567	2.56505e-06	-5.833528e-06
	8.543858e-07	-4.666378e-06	-0.03279183	-0.06052103	1.440971e-05	-1.98581e-05	0.06450646	0.003644911
	0.06448556	0.003088567	1.440971e-05	-1.98581e-05	-0.03190277	-0.06054996	-3.34646e-07	-3.136133e-06
	2.56505e-06	-5.833528e-06	0.06450646	0.00364491	-3.34646e-07	-3.136133e-06	-0.03242371	-0.06035419
1.9e+08	-0.03661186	-0.05996048	5.131039e-07	-4.304106e-06	0.0659995	-0.002440302	2.263141e-06	-5.521654e-06
	5.131039e-07	-4.304106e-06	-0.03721721	-0.05968647	1.299985e-05	-1.91083e-05	0.06597509	-0.001862649
	0.0659995	-0.002440302	1.299985e-05	-1.91083e-05	-0.03629908	-0.05979518	-5.703845e-07	-2.827711e-06
	2.263141e-06	-5.521654e-06	0.06597509	-0.001862649	-5.703845e-07	-2.827711e-06	-0.0368364	-0.05954759
2e+08	-0.04067339	-0.05880898	2.002389e-07	-3.925077e-06	0.06676663	-0.008225868	1.977078e-06	-5.211713e-06
	2.002389e-07	-3.925077e-06	-0.04129437	-0.058469	1.165069e-05	-1.831007e-05	0.06669035	-0.007621333
	0.06676663	-0.008225868	1.165069e-05	-1.831007e-05	-0.04035763	-0.05866349	-7.826533e-07	-2.506072e-06
	1.977078e-06	-5.211713e-06	0.06669035	-0.007621333	-7.826533e-07	-2.506072e-06	-0.04090593	-0.05836341
2.1e+08	-0.04435431	-0.05735003	-8.00802e-08	-3.530353e-06	0.06675447	-0.01416794	1.709477e-06	-4.901749e-06
	-8.00802e-08	-3.530353e-06	-0.04498498	-0.05694399	1.037316e-05	-1.746287e-05	0.06662038	-0.01352978
	0.06675447	-0.01416794	1.037316e-05	-1.746287e-05	-0.04404154	-0.0572282	-9.675801e-07	-2.172255e-06
	1.709477e-06	-4.901749e-06	0.06662038	-0.01352978	-9.675801e-07	-2.172255e-06	-0.04459587	-0.05687589
2.2e+08	-0.04763062	-0.05566246	-3.242934e-07	-3.121917e-06	0.06594352	-0.02016304	1.462452e-06	-4.590845e-06
	-3.242934e-07	-3.121917e-06	-0.04826542	-0.05519123	9.175795e-06	-1.656766e-05	0.06574656	-0.01948343
	0.06594352	-0.02016304	9.175795e-06	-1.656766e-05	-0.0473274	-0.0555662	-1.122343e-06	-1.828209e-06
	1.462452e-06	-4.590845e-06	0.06574656	-0.01948343	-1.122343e-06	-1.828209e-06	-0.04788327	-0.05516282
2.3e+08	-0.05049255	-0.053826	-5.295262e-07	-2.702585e-06	0.06432791	-0.02610631	1.237659e-06	-4.278866e-06
	-5.295262e-07	-2.702585e-06	-0.05112644	-0.05329132	8.065728e-06	-1.562753e-05	0.06406397	-0.02537642
	0.06432791	-0.02610631	8.065728e-06	-1.562753e-05	-0.05020533	-0.05375609	-1.2447e-06	-1.476506e-06
	1.237659e-06	-4.278866e-06	0.06406397	-0.02537642	-1.2447e-06	-1.476506e-06	-0.05075879	-0.05330358
2.4e+08	-0.05294451	-0.05191925	-6.935722e-07	-2.275802e-06	0.06191497	-0.03189262	1.036392e-06	-3.966259e-06
	-6.935722e-07	-2.275802e-06	-0.05357315	-0.0513236	7.04891e-06	-1.464726e-05	0.06158108	-0.03110275
	0.06191497	-0.03189262	7.04891e-06	-1.464726e-05	-0.05268018	-0.05187529	-1.332964e-06	-1.120197e-06
	1.036392e-06	-3.966259e-06	0.06158108	-0.03110275	-1.332963e-06	-1.120197e-06	-0.05322808	-0.05137622
2.5e+08	-0.05500486	-0.05001741	-8.149208e-07	-1.845492e-06	0.05872511	-0.03741851	8.595707e-07	-3.653896e-06
	-8.149208e-07	-1.845492e-06	-0.05562467	-0.04936384	6.130125e-06	-1.36328e-05	0.05831961	-0.0365582
	0.05872511	-0.03741851	6.130125e-06	-1.36328e-05	-0.05476954	-0.0499979	-1.386028e-06	-7.626618e-07
	8.595707e-07	-3.653896e-06	0.05831961	-0.0365582	-1.386028e-06	-7.626618e-07	-0.05530952	-0.04945531
2.6e+08	-0.05670434	-0.04819012	-8.927762e-07	-1.41587e-06	0.054792	-0.04258388	7.077924e-07	-3.342944e-06
	-8.927762e-07	-1.41587e-06	-0.05731268	-0.04748208	5.313089e-06	-1.259104e-05	0.05431466	-0.04164214
	0.054792	-0.04258388	5.313089e-06	-1.259104e-05	-0.05650424	-0.04819287	-1.403388e-06	-4.074984e-07
	7.077924e-07	-3.342944e-06	0.05431466	-0.04164214	-1.403388e-06	-4.074984e-07	-0.05703499	-0.04761005
2.7e+08	-0.05808542	-0.04649967	-9.270153e-07	-9.913383e-07	0.05016143	-0.04729289	5.813401e-07	-3.034778e-06
	-9.270153e-07	-9.913383e-07	-0.05868057	-0.04574085	4.6004e-06	-1.152955e-05	0.04961353	-0.04625831
	0.05016143	-0.04729289	4.6004e-06	-1.152955e-05	-0.05792623	-0.04652169	-1.385105e-06	-5.841014e-08
	5.813401e-07	-3.034778e-06	0.04961353	-0.04625831	-1.385105e-06	-5.841014e-08	-0.0584474	-0.04590199
2.8e+08	-0.05920097	-0.04499867	-9.182101e-07	-5.763498e-07	0.04489112	-0.05145606	4.80237e-07	-2.730917e-06
	-9.182101e-07	-5.763498e-07	-0.05978224	-0.04419277	3.993713e-06	-1.045646e-05	0.0442756	-0.05031706
	0.04489112	-0.05145606	3.993713e-06	-1.045646e-05	-0.05908762	-0.04503628	-1.331789e-06	2.80892e-07
	4.80237e-07	-2.730917e-06	0.0442756	-0.05031706	-1.331789e-06	2.80892e-07	-0.05959992	-0.04438285
2.9e+08	-0.06011203	-0.04372913	-8.675827e-07	-1.752842e-07	0.03905004	-0.05499155	4.042471e-07	-2.432953e-06
	-8.675827e-07	-1.752842e-07	-0.06067971	-0.04287962	3.493656e-06	-9.380214e-06	0.03837151	-0.05373661
	0.03905004	-0.05499155	3.493656e-06	-9.380214e-06	-0.06004947	-0.04377823	-1.244586e-06	6.067849e-07
	4.042471e-07	-2.432953e-06	0.03837151	-0.05373661	-1.244586e-06	6.067849e-07	-0.06055457	-0.0430938
3e+08	-0.0608863	-0.04272078	-7.769536e-07	2.076505e-07	0.0327171	-0.05782602	3.529119e-07	-2.142503e-06
	-7.769536e-07	2.076505e-07	-0.06144163	-0.04183075	3.099876e-06	-8.309464e-06	0.03198191	-0.05644388
	0.0327171	-0.05782602	3.099876e-06	-8.309464e-06	-0.06087885	-0.04277698	-1.125115e-06	9.15806e-07
	3.529119e-07	-2.142503e-06	0.03198191	-0.05644388	-1.125115e-06	9.15806e-07	-0.06137935	-0.04206358
3.1e+08	-0.06159588	-0.04199038	-6.487053e-07	5.685278e-07	0.02598037	-0.05989664	3.255706e-07	-1.861176e-06
	-6.487053e-07	5.685278e-07	-0.06214096	-0.04106229	2.811123e-06	-7.252958e-06	0.0251966	-0.05837656
	0.02598037	-0.05989664	2.811123e-06	-7.252958e-06	-0.06164797	-0.04204883	-9.754417e-07	1.204727e-06
	3.255706e-07	-1.861176e-06	0.0251966	-0.05837656	-9.754417e-07	1.204727e-06	-0.06214724	-0.04130765
3.2e+08	-0.06231564	-0.04154093	-4.856994e-07	9.037521e-07	0.01893571	-0.06115178	3.213813e-07	-1.590551e-06
	-4.856994e-07	9.037521e-07	-0.06285333	-0.0405764	2.625172e-06	-6.21942e-06	0.01811312	-0.05948386
	0.01893571	-0.06115178	2.625172e-06	-6.21942e-06	-0.06243057	-0.04159593	-7.980209e-07	1.470629e-06
	3.213813e-07	-1.590551e-06	0.01811312	-0.05948386	-7.980209e-07	1.470629e-06	-0.06293259	-0.04082702
3.3e+08	-0.06312011	-0.04136138	-2.911926e-07	1.210136e-06	0.01168539	-0.06155175	3.39362e-07	-1.33215e-06
	-2.911926e-07	1.210136e-06	-0.06365383	-0.040361	2.538971e-06	-5.21744e-06	0.01083542	-0.05972709
	0.01168539	-0.06155175	2.538971e-06	-5.21744e-06	-0.06330129	-0.04140686	-5.956181e-07	1.710896e-06
	3.39362e-07	-1.33215e-06	0.01083542	-0.05972709	-5.956181e-07	1.710896e-06	-0.06381041	-0.04060902
3.4e+08	-0.06408164	-0.0414262	-6.880351e-08	1.484957e-06	0.004336367	-0.06107043	3.783768e-07	-1.087431e-06
	-6.880351e-08	1.484957e-06	-0.06461519	-0.04038942	2.548519e-06	-4.255408e-06	0.003471924	-0.05908147
	0.004336367	-0.06107043	2.548519e-06	-4.255408e-06	-0.06433144	-0.04145584	-3.712678e-07	1.923307e-06
	3.783768e-07	-1.087431e-06	0.003471924	-0.05908147	-3.712678e-07	1.923307e-06	-0.06485216	-0.04062643
3.5e+08	-0.06526771	-0.04169642	1.776298e-07	1.725978e-06	-0.003001187	-0.05969495	4.371845e-07	-8.577778e-07
	1.776298e-07	1.725978e-06	-0.06580502	-0.04062135	2.649008e-06	-3.341375e-06	-0.003865755	-0.05753567
	-0.003001187	-0.05969495	2.649008e-06	-3.341375e-06	-0.06558865	-0.04170331	-1.282068e-07	2.106005e-06
	4.371845e-07	-8.577778e-07	-0.003865755	-0.05753567	-1.282068e-07	2.106005e-06	-0.06612519	-0.04083821
3.6e+08	-0.06673912	-0.04212	4.440827e-07	1.931455e-06	-0.01021565	-0.05742695	5.144301e-07	-6.444942e-07
	4.440827e-07	1.931455e-06	-0.06728392	-0.04100342	2.834816e-06	-2.482988e-06	-0.01106489	-0.0550931
	-0.01021565	-0.05742695	2.834816e-06	-2.482988e-06	-0.06713246	-0.04209674	1.301801e-07	2.257557e-06
	5.144301e-07	-6.444942e-07	-0.01106489	-0.0550931	1.301801e-07	2.257557e-06	-0.06768859	-0.04119031
3.7e+08	-0.06854683	-0.04263325	7.264669e-07	2.100158e-06	-0.01719643	-0.0542822	6.086633e-07	-4.48801e-07
	7.264669e-07	2.100158e-06	-0.06910241	-0.0414705	3.099527e-06	-1.687373e-06	-0.01801394	-0.05177156
	-0.01719643	-0.0542822	3.099527e-06	-1.687373e-06	-0.0690132	-0.04257213	4.004417e-07	2.376923e-06
	6.086633e-07	-4.48801e-07	-0.01801394	-0.05177156	4.004417e-07	2.376923e-06	-0.0695918	-0.04161719
3.8e+08	-0.07073098	-0.04316217	1.020682e-06	2.231323e-06	-0.02383504	-0.05029032	7.183461e-07	-2.718418e-07
	1.020682e-06	2.231323e-06	-0.07129982	-0.04194724	3.436044e-06	-9.610735e-07	-0.02460374	-0.04760281
	-0.02383504	-0.05029032	3.436044e-06	-9.610735e-07	-0.07127056	-0.04305501	6.790887e-07	2.463433e-06
	7.183461e-07	-2.718418e-07	-0.02460374	-0.04760281	6.790887e-07	2.463433e-06	-0.07187325	-0.04204302
3.9e+08	-0.0733184	-0.04362343	1.322663e-06	2.324663e-06	-0.03002757	-0.04549532	8.418304e-07	-1.146753e-07
	1.322663e-06	2.324663e-06	-0.07390187	-0.04234902	3.836519e-06	-3.099665e-07	-0.03073001	-0.04263315
	-0.03002757	-0.04549532	3.836519e-06	-3.099665e-07	-0.07392964	-0.04346227	9.626371e-07	2.516819e-06
	8.418304e-07	-1.146753e-07	-0.03073001	-0.04263315	9.626371e-07	2.516819e-06	-0.07455648	-0.04238346
4e+08	-0.07632109	-0.04392813	1.628469e-06	2.380294e-06	-0.03567636	-0.03995365	9.773883e-07	2.172519e-08
	1.628469e-06	2.380294e-06	-0.07691909	-0.04258588	4.292569e-06	2.608412e-07	-0.03629509	-0.03692139
	-0.03567636	-0.03995365	4.292569e-06	2.608412e-07	-0.07700229	-0.04370496	1.247674e-06	2.53715e-06
	9.773883e-07	2.172519e-08	-0.03629509	-0.03692139	1.247674e-06	2.53715e-06	-0.07765145	-0.04254859
4.1e+08	-0.07973534	-0.04398413	1.934318e-06	2.398718e-06	-0.04069153	-0.0337341	1.123204e-06	1.364925e-07
	1.934318e-06	2.398718e-06	-0.08034609	-0.04256479	4.795331e-06	7.47128e-07	-0.04120935	-0.03053872
	-0.04069153	-0.0337341	4.795331e-06	7.47128e-07	-0.08048362	-0.04369059	1.530875e-06	2.524828e-06
	1.123204e-06	1.364925e-07	-0.04120935	-0.03053872	1.530875e-06	2.524828e-06	-0.08115109	-0.04244527
4.2e+08	-0.08354046	-0.04369651	2.236604e-06	2.38078e-06	-0.04499311	-0.0269164	1.277334e-06	2.288519e-07
	2.236604e-06	2.38078e-06	-0.08416014	-0.04219032	5.335411e-06	1.145508e-06	-0.0453935	-0.02356724
	-0.04499311	-0.0269164	5.335411e-06	1.145508e-06	-0.0843518	-0.0433246	1.809024e-06	2.48057e-06
	1.277334e-06	2.288519e-07	-0.0453935	-0.02356724	1.809024e-06	2.48057e-06	-0.08503114	-0.0419787
4.3e+08	-0.08769895	-0.04297322	2.531934e-06	2.327581e-06	-0.04851177	-0.01958936	1.437762e-06	2.981568e-07
	2.531934e-06	2.327581e-06	-0.08832154	-0.04137019	5.90321e-06	1.453606e-06	-0.04877915	-0.01609806
	-0.04851177	-0.01958936	5.90321e-06	1.453606e-06	-0.08856864	-0.04251536	2.079066e-06	2.40535e-06
	1.437762e-06	2.981568e-07	-0.04877915	-0.01609806	2.079066e-06	2.40535e-06	-0.08925086	-0.04105741
4.4e+08	-0.09215682	-0.04172656	2.817118e-06	2.240481e-06	-0.05119007	-0.01184985	1.602347e-06	3.438993e-07
	2.817118e-06	2.240481e-06	-0.092774	-0.04001698	6.488871e-06	1.670032e-06	-0.05131018	-0.008230235
	-0.05119007	-0.01184985	6.488871e-06	1.670032e-06	-0.09307889	-0.04117528	2.338076e-06	2.300408e-06
	1.602347e-06	3.438993e-07	-0.05131018	-0.008230235	2.338076e-06	2.300408e-06	-0.09375233	-0.0395945
4.5e+08	-0.09684298	-0.0398755	3.089161e-06	2.121041e-06	-0.05298367	-0.003800764	1.768843e-06	3.657225e-07
	3.089161e-06	2.121041e-06	-0.09744399	-0.03805034	7.082407e-06	1.79439e-06	-0.05294387	-6.86381e-05
	-0.05298367	-0.003800764	7.082407e-06	1.79439e-06	-0.09781067	-0.03922393	2.583304e-06	2.167211e-06
	1.768843e-06	3.657225e-07	-0.05294387	-6.86381e-05	2.583304e-06	2.167211e-06	-0.09846103	-0.03751071
4.6e+08	-0.1016715	-0.03734912	3.345274e-06	1.970982e-06	-0.05386143	0.004450837	1.934915e-06	3.634571e-07
	3.345274e-06	1.970982e-06	-0.1022432	-0.0354005	7.673893e-06	1.827326e-06	-0.05365094	0.008277854
	-0.05386143	0.004450837	7.673893e-06	1.827326e-06	-0.1026776	-0.03659143	2.812167e-06	2.00743e-06
	1.934915e-06	3.634571e-07	-0.05365094	0.008277854	2.812167e-06	2.00743e-06	-0.1032881	-0.03473786
4.7e+08	-0.1065433	-0.03409062	3.582867e-06	1.792194e-06	-0.05380602	0.01279591	2.098149e-06	3.371552e-07
	3.582867e-06	1.792194e-06	-0.1070704	-0.03201234	8.253562e-06	1.770567e-06	-0.05341617	0.01669868
	-0.05380602	0.01279591	8.253562e-06	1.770567e-06	-0.1075792	-0.03322072	3.022269e-06	1.822934e-06
	2.098149e-06	3.371552e-07	-0.05341617	0.01669868	3.022269e-06	1.822934e-06	-0.1081306	-0.0312211
4.8e+08	-0.1113474	-0.03005606	3.79949e-06	1.586676e-06	-0.05281351	0.02112443	2.25606e-06	2.870822e-07
	3.79949e-06	1.586676e-06	-0.1118125	-0.02784403	8.811876e-06	1.626747e-06	-0.0522379	0.02508256
