!$
! Info: Touchstone file created by Circ.  Input file=Intel_C2M_200G_4p0in_202208016_staggered.circ
!$
# Hz S RI R 50
0	0.01478165	2.645098e-24	5.041573e-05	6.231264e-23	9.394052e-05	2.552551e-22	5.034906e-05	6.219363e-23
	5.041573e-05	6.231264e-23	0.01479487	2.832759e-24	5.039822e-05	6.227454e-23	9.355361e-05	2.54005e-22
	9.399861e-05	2.55383e-22	5.039821e-05	6.227559e-23	0.01477645	2.540615e-24	5.036205e-05	6.215765e-23
	5.034905e-05	6.219468e-23	9.361169e-05	2.541325e-22	5.036205e-05	6.215765e-23	0.01479281	2.686851e-24
1e+07	0.01828927	-0.0009624922	9.842711e-06	6.276851e-06	0.000975012	0.005010281	1.558524e-06	1.390386e-05
	9.842711e-06	6.276851e-06	0.01812273	-0.001127603	3.137718e-05	6.765427e-06	0.00116061	0.005084416
	0.000975012	0.005010281	3.137718e-05	6.765427e-06	0.01850608	-0.0009471442	1.272444e-05	1.673676e-05
	1.558524e-06	1.390386e-05	0.00116061	0.005084416	1.272444e-05	1.673676e-05	0.01802038	-0.001098849
2e+07	0.0208477	-0.004918027	3.889776e-06	1.663834e-05	0.002380915	0.009558757	2.357683e-06	5.598506e-06
	3.889776e-06	1.663834e-05	0.02055053	-0.005116098	2.114588e-05	1.805576e-05	0.002551262	0.009634248
	0.002380926	0.009558744	2.114589e-05	1.805576e-05	0.02099077	-0.004951384	9.272273e-06	1.50776e-05
	2.357684e-06	5.598505e-06	0.002551273	0.009634235	9.272273e-06	1.50776e-05	0.02047495	-0.005019986
3e+07	0.02225188	-0.01013144	1.3833e-05	2.130316e-05	0.004439403	0.01387007	3.501334e-06	4.278949e-06
	1.3833e-05	2.130316e-05	0.02185132	-0.01031395	1.48751e-05	2.69916e-05	0.004601607	0.0139787
	0.004439374	0.0138701	1.487509e-05	2.699161e-05	0.0223379	-0.01013521	7.275217e-06	1.627138e-05
	3.501335e-06	4.278949e-06	0.004601579	0.01397873	7.275218e-06	1.627138e-05	0.02179525	-0.01016927
4e+07	0.02254695	-0.01588165	2.225475e-05	2.222554e-05	0.007182807	0.01774915	4.769343e-06	4.606378e-06
	2.225475e-05	2.222554e-05	0.02205919	-0.01602438	1.046383e-05	3.255315e-05	0.007341529	0.01789603
	0.007182802	0.01774918	1.046383e-05	3.255315e-05	0.02259807	-0.01583796	5.998903e-06	1.761005e-05
	4.769344e-06	4.606378e-06	0.007341523	0.01789606	5.998903e-06	1.761005e-05	0.02202996	-0.01584048
5e+07	0.02188446	-0.02177779	2.934037e-05	2.086489e-05	0.01051798	0.02114057	6.254416e-06	5.723896e-06
	2.934037e-05	2.086489e-05	0.02132299	-0.02186331	1.988386e-05	3.177162e-05	0.01067691	0.0213265
	0.01051798	0.02114057	1.988386e-05	3.177161e-05	0.02191545	-0.02167781	9.511574e-06	1.708886e-05
	6.254417e-06	5.723896e-06	0.01067691	0.02132651	9.511574e-06	1.708886e-05	0.02132306	-0.02164671
6e+07	0.02035776	-0.02762845	3.522382e-05	1.804297e-05	0.01437222	0.02396707	7.656273e-06	6.454034e-06
	3.522382e-05	1.804297e-05	0.01973548	-0.02764307	2.776634e-05	2.904166e-05	0.01453424	0.02419083
	0.01437224	0.02396706	2.776634e-05	2.904166e-05	0.02038205	-0.02746732	1.275391e-05	1.599791e-05
	7.656273e-06	6.454033e-06	0.01453426	0.02419082	1.275391e-05	1.599791e-05	0.01976696	-0.027399
7e+07	0.01803563	-0.03327422	3.99275e-05	1.414791e-05	0.01865711	0.02616032	8.986455e-06	6.921889e-06
	3.99275e-05	1.414791e-05	0.01736566	-0.03320668	3.412164e-05	2.482095e-05	0.01882426	0.02641947
	0.01865711	0.02616032	3.412164e-05	2.482095e-05	0.01806602	-0.03305033	1.549445e-05	1.44805e-05
	8.986455e-06	6.921888e-06	0.01882426	0.02641947	1.549445e-05	1.44805e-05	0.01743061	-0.03294041
8e+07	0.01500272	-0.03857621	4.343592e-05	9.408649e-06	0.02327586	0.02766542	1.025321e-05	7.188047e-06
	4.343592e-05	9.408649e-06	0.01429918	-0.03841673	3.890953e-05	1.938391e-05	0.0234493	0.02795666
	0.02327586	0.02766543	3.890953e-05	1.938391e-05	0.01505159	-0.03828997	1.772492e-05	1.258902e-05
	1.025321e-05	7.188047e-06	0.0234493	0.02795666	1.772492e-05	1.258902e-05	0.01439942	-0.03813356
9e+07	0.01136252	-0.0434217	4.563443e-05	3.938987e-06	0.02812626	0.02844156	1.143947e-05	7.303891e-06
	4.563443e-05	3.938987e-06	0.01064184	-0.04316073	4.198617e-05	1.295852e-05	0.02830617	0.02876096
	0.02812626	0.02844157	4.198617e-05	1.295852e-05	0.01144183	-0.04307472	1.937855e-05	1.036807e-05
	1.143947e-05	7.303891e-06	0.02830617	0.02876097	1.937855e-05	1.036807e-05	0.01077813	-0.04286647
1e+08	0.00724817	-0.04770434	4.580783e-05	-2.768659e-06	0.0331041	0.02846225	1.245112e-05	7.260824e-06
	4.580783e-05	-2.768659e-06	0.006536974	-0.04732454	4.24901e-05	4.951701e-06	0.03329025	0.02880538
	0.0331041	0.02846225	4.24901e-05	4.951701e-06	0.007373143	-0.04729505	2.013285e-05	7.608195e-06
	1.245112e-05	7.260824e-06	0.03329025	0.02880538	2.013285e-05	7.608195e-06	0.006708597	-0.04702568
1.1e+08	0.002802964	-0.05154635	4.26109e-05	-6.229399e-06	0.03811502	0.02770173	1.340047e-05	7.674311e-06
	4.26109e-05	-6.229399e-06	0.002147813	-0.05108865	3.8777e-05	8.014044e-07	0.03830395	0.0280614
	0.03811502	0.02770172	3.8777e-05	8.014045e-07	0.003056852	-0.05112262	1.950097e-05	6.254967e-06
	1.340046e-05	7.674311e-06	0.03830395	0.02806139	1.950097e-05	6.254967e-06	0.002410077	-0.05080933
1.2e+08	-0.002026409	-0.05479693	4.068966e-05	-8.094181e-06	0.04299877	0.02617718	1.499033e-05	8.358558e-06
	4.068966e-05	-8.094181e-06	-0.002639739	-0.05428362	3.636863e-05	-1.34667e-06	0.0431845	0.02655003
	0.04299877	0.02617717	3.636863e-05	-1.34667e-06	-0.001710841	-0.05438872	1.943609e-05	5.532278e-06
	1.499033e-05	8.358558e-06	0.0431845	0.02655003	1.943609e-05	5.532278e-06	-0.002347404	-0.05403869
1.3e+08	-0.007092258	-0.05740867	4.047791e-05	-8.419135e-06	0.04766327	0.02391337	1.676603e-05	8.750555e-06
	4.047791e-05	-8.419135e-06	-0.00766916	-0.05684854	3.451745e-05	-2.759142e-06	0.04783974	0.02429701
	0.04766327	0.02391337	3.451745e-05	-2.759142e-06	-0.006740469	-0.05700873	1.963515e-05	5.010559e-06
	1.676603e-05	8.750555e-06	0.04783974	0.02429701	1.963515e-05	5.010559e-06	-0.007369341	-0.05662327
1.4e+08	-0.01228161	-0.0593769	4.19798e-05	-7.702346e-06	0.05201178	0.02094724	1.871717e-05	8.83494e-06
	4.19798e-05	-7.702346e-06	-0.01282555	-0.0587755	3.307717e-05	-3.767396e-06	0.05217243	0.02134025
	0.05201178	0.02094724	3.307717e-05	-3.767396e-06	-0.01189696	-0.05897943	2.003654e-05	4.570738e-06
	1.871717e-05	8.83494e-06	0.05217243	0.02134024	2.003654e-05	4.570738e-06	-0.01251914	-0.0585586
1.5e+08	-0.01749236	-0.06071342	4.357068e-05	-7.447586e-06	0.05595065	0.01732763	2.080611e-05	8.667588e-06
	4.357068e-05	-7.447586e-06	-0.01800587	-0.06007464	3.196299e-05	-4.470346e-06	0.05608844	0.01772968
	0.05595065	0.01732763	3.196299e-05	-4.470346e-06	-0.01707261	-0.06031987	2.061406e-05	4.13357e-06
	2.080611e-05	8.667589e-06	0.05608844	0.01772968	2.061406e-05	4.13357e-06	-0.01768812	-0.05986326
1.6e+08	-0.02263097	-0.06144411	4.525263e-05	-7.626208e-06	0.05939272	0.01311511	2.301816e-05	8.218267e-06
	4.525263e-05	-7.626208e-06	-0.02311591	-0.06077098	3.114342e-05	-4.988846e-06	0.05950032	0.01352709
	0.05939272	0.01311511	3.114342e-05	-4.988846e-06	-0.02217406	-0.06106099	2.134462e-05	3.640246e-06
	2.301816e-05	8.218267e-06	0.05950032	0.01352709	2.134462e-05	3.640246e-06	-0.0227822	-0.06056816
1.7e+08	-0.02761196	-0.0616079	4.700571e-05	-8.292507e-06	0.06225928	0.008380838	2.53272e-05	7.442763e-06
	4.700571e-05	-8.292507e-06	-0.02806978	-0.06090293	3.148584e-05	-4.994815e-06	0.06232922	0.008804871
	0.06225928	0.008380837	3.148584e-05	-4.994815e-06	-0.02711875	-0.06124395	2.247198e-05	3.119739e-06
	2.53272e-05	7.442763e-06	0.06232922	0.00880487	2.247198e-05	3.119739e-06	-0.02771831	-0.06071464
1.8e+08	-0.03235995	-0.06125564	4.879086e-05	-9.430995e-06	0.06448157	0.003205417	2.769907e-05	6.306369e-06
	4.879086e-05	-9.430995e-06	-0.03279183	-0.06052103	3.249375e-05	-4.956324e-06	0.06450646	0.003644911
	0.06448157	0.003205416	3.249375e-05	-4.956324e-06	-0.03183435	-0.06091991	2.399281e-05	2.512204e-06
	2.769907e-05	6.306369e-06	0.06450646	0.00364491	2.399281e-05	2.512204e-06	-0.03242371	-0.06035419
1.9e+08	-0.03681024	-0.06044863	5.05736e-05	-1.101138e-05	0.06600238	-0.002322333	3.009935e-05	4.804746e-06
	5.05736e-05	-1.101138e-05	-0.03721721	-0.05968647	3.350175e-05	-5.214433e-06	0.06597509	-0.001862649
	0.06600238	-0.002322334	3.350175e-05	-5.214433e-06	-0.03625903	-0.06014918	2.548832e-05	1.631147e-06
	3.009935e-05	4.804746e-06	0.06597509	-0.001862649	2.548832e-05	1.631147e-06	-0.0368364	-0.05954759
2e+08	-0.04091128	-0.05925668	5.231074e-05	-1.304441e-05	0.0667765	-0.008107208	3.248599e-05	2.912578e-06
	5.231074e-05	-1.304441e-05	-0.04129437	-0.058469	3.448961e-05	-5.762718e-06	0.06669035	-0.007621333
	0.0667765	-0.008107208	3.448961e-05	-5.762718e-06	-0.04034235	-0.05899981	2.693364e-05	4.734177e-07
	3.248599e-05	2.912578e-06	0.06669035	-0.007621333	2.693364e-05	4.734177e-07	-0.04090593	-0.05836341
2.1e+08	-0.04462471	-0.05775514	5.395062e-05	-1.554421e-05	0.06677138	-0.01404906	3.481e-05	6.090507e-07
	5.395062e-05	-1.554421e-05	-0.04498498	-0.05694399	3.543399e-05	-6.610408e-06	0.06662038	-0.01352978
	0.06677138	-0.01404906	3.543399e-05	-6.610408e-06	-0.04404775	-0.05754552	2.830024e-05	-9.632632e-07
	3.481e-05	6.090507e-07	0.06662038	-0.01352978	2.830024e-05	-9.632632e-07	-0.04459587	-0.05687589
2.2e+08	-0.04792669	-0.0560238	5.54345e-05	-1.851792e-05	0.06596756	-0.02004446	3.701706e-05	-2.121054e-06
	5.54345e-05	-1.851792e-05	-0.04826542	-0.05519123	3.630567e-05	-7.758705e-06	0.06574656	-0.01948343
	0.06596756	-0.02004446	3.630567e-05	-7.758705e-06	-0.0473519	-0.05586362	2.955715e-05	-2.679573e-06
	3.701706e-05	-2.121054e-06	0.06574656	-0.01948343	2.955715e-05	-2.679573e-06	-0.04788327	-0.05516282
2.3e+08	-0.05080774	-0.0541433	5.669752e-05	-2.196709e-05	0.06435905	-0.02598864	3.904715e-05	-5.28815e-06
	5.669752e-05	-2.196709e-05	-0.05112644	-0.05329132	3.707062e-05	-9.210339e-06	0.06406397	-0.02537642
	0.06435905	-0.02598864	3.707062e-05	-9.210339e-06	-0.05024505	-0.05403307	3.067095e-05	-4.672859e-06
	3.904715e-05	-5.28815e-06	0.06406397	-0.02537642	3.067095e-05	-4.672859e-06	-0.05075879	-0.05330358
2.4e+08	-0.05327258	-0.05219304	5.766963e-05	-2.588572e-05	0.06195314	-0.03177645	4.083617e-05	-8.892588e-06
	5.766963e-05	-2.588572e-05	-0.05357315	-0.0513236	3.769217e-05	-1.096285e-05	0.06158108	-0.03110275
	0.06195314	-0.03177646	3.769217e-05	-1.096285e-05	-0.0527322	-0.05213166	3.160674e-05	-6.938489e-06
	4.083617e-05	-8.892588e-06	0.06158108	-0.03110275	3.160674e-05	-6.938489e-06	-0.05322808	-0.05137622
2.5e+08	-0.05533995	-0.05024894	5.827705e-05	-3.025883e-05	0.05877011	-0.03730449	4.231634e-05	-1.292701e-05
	5.827705e-05	-3.025883e-05	-0.05562467	-0.04936384	3.813016e-05	-1.301184e-05	0.05831961	-0.0365582
	0.05877011	-0.03730449	3.813016e-05	-1.301184e-05	-0.05483104	-0.05023377	3.23283e-05	-9.46662e-06
	4.231634e-05	-1.292701e-05	0.05831961	-0.0365582	3.23283e-05	-9.46662e-06	-0.05530952	-0.04945531
2.6e+08	-0.0570411	-0.04838138	5.844339e-05	-3.506108e-05	0.05484362	-0.04247264	4.341766e-05	-1.737425e-05
	5.844339e-05	-3.506108e-05	-0.05731268	-0.04748208	3.834273e-05	-1.534811e-05	0.05431466	-0.04164214
	0.05484362	-0.04247264	3.834273e-05	-1.534811e-05	-0.05657264	-0.04840864	3.27984e-05	-1.224451e-05
	4.341766e-05	-1.737425e-05	0.05431466	-0.04164214	3.27984e-05	-1.224451e-05	-0.05703499	-0.04761005
2.7e+08	-0.05841895	-0.04665319	5.809127e-05	-4.0257e-05	0.05021928	-0.04718506	4.406892e-05	-2.220777e-05
	5.809127e-05	-4.0257e-05	-0.05868057	-0.04574085	3.828551e-05	-1.795825e-05	0.04961353	-0.04625831
	0.05021928	-0.04718506	3.828551e-05	-1.795825e-05	-0.0579991	-0.046718	3.297873e-05	-1.525592e-05
	4.406892e-05	-2.220777e-05	0.04961353	-0.04625831	3.297873e-05	-1.525592e-05	-0.0584474	-0.04590199
2.8e+08	-0.059527	-0.04511751	5.714508e-05	-4.579718e-05	0.04495477	-0.05135221	4.419969e-05	-2.738903e-05
	5.714508e-05	-4.579718e-05	-0.05978224	-0.04419277	3.791264e-05	-2.082433e-05	0.0442756	-0.05031706
	0.04495477	-0.05135221	3.791264e-05	-2.082433e-05	-0.05916275	-0.04521397	3.283167e-05	-1.847842e-05
	4.419969e-05	-2.738903e-05	0.0442756	-0.05031706	3.283167e-05	-1.847842e-05	-0.05959992	-0.04438285
2.9e+08	-0.06042687	-0.04381679	5.55318e-05	-5.162078e-05	0.03911895	-0.05489226	4.374239e-05	-3.286828e-05
	5.55318e-05	-5.162078e-05	-0.06067971	-0.04287962	3.717839e-05	-2.392108e-05	0.03837151	-0.05373661
	0.03911895	-0.05489226	3.717839e-05	-2.392108e-05	-0.06012484	-0.04393834	3.231953e-05	-2.188578e-05
	4.374239e-05	-3.286828e-05	0.03837151	-0.05373661	3.231953e-05	-2.188578e-05	-0.06055457	-0.0430938
3e+08	-0.06118691	-0.0427811	5.318213e-05	-5.765641e-05	0.03279065	-0.05773173	4.26323e-05	-3.858494e-05
	5.318213e-05	-5.765641e-05	-0.06144163	-0.04183075	3.603787e-05	-2.721666e-05	0.03198191	-0.05644388
	0.03279065	-0.05773173	3.603787e-05	-2.721666e-05	-0.06095267	-0.04292069	3.140546e-05	-2.544653e-05
	4.26323e-05	-3.858494e-05	0.03198191	-0.05644388	3.140546e-05	-2.544653e-05	-0.06137935	-0.04206358
3.1e+08	-0.0618799	-0.04202747	5.003705e-05	-6.38169e-05	0.02605784	-0.05980772	4.081123e-05	-4.446752e-05
	5.003705e-05	-6.38169e-05	-0.06214096	-0.04106229	3.44446e-05	-3.067477e-05	0.0251966	-0.05837656
	0.02605784	-0.05980772	3.44446e-05	-3.067477e-05	-0.06171863	-0.04217746	3.005497e-05	-2.912325e-05
	4.081123e-05	-4.446752e-05	0.0251966	-0.05837656	3.005497e-05	-2.912325e-05	-0.06214724	-0.04130765
3.2e+08	-0.06258138	-0.04155906	4.604332e-05	-7.000719e-05	0.01901635	-0.06106851	3.822894e-05	-5.043305e-05
	4.604332e-05	-7.000719e-05	-0.06285333	-0.0405764	3.235742e-05	-3.424908e-05	0.01811312	-0.05948386
	0.01901635	-0.06106851	3.235742e-05	-3.424908e-05	-0.06249672	-0.0417109	2.823397e-05	-3.28744e-05
	3.822894e-05	-5.043305e-05	0.01811312	-0.05948386	2.823397e-05	-3.28744e-05	-0.06293259	-0.04082702
3.3e+08	-0.0633666	-0.04136491	4.116086e-05	-7.611984e-05	0.01176844	-0.06147429	3.484341e-05	-5.63902e-05
	4.116086e-05	-7.611984e-05	-0.06365383	-0.040361	2.973486e-05	-3.788874e-05	0.01083542	-0.05972709
	0.01176844	-0.06147429	2.973486e-05	-3.788874e-05	-0.06336177	-0.04150965	2.591325e-05	-3.665131e-05
	3.484341e-05	-5.63902e-05	0.01083542	-0.05972709	2.591325e-05	-3.665131e-05	-0.06381041	-0.04060902
3.4e+08	-0.0643086	-0.04141941	3.536143e-05	-8.203909e-05	0.004420992	-0.0609988	3.062673e-05	-6.223708e-05
	3.536143e-05	-8.203909e-05	-0.06461519	-0.04038942	2.654046e-05	-4.153386e-05	0.003471924	-0.05908147
	0.004420992	-0.0609988	2.654046e-05	-4.153386e-05	-0.06438534	-0.04154799	2.306547e-05	-4.04007e-05
	3.062673e-05	-6.223708e-05	0.003471924	-0.05908147	2.306547e-05	-4.04007e-05	-0.06485216	-0.04062643
3.5e+08	-0.06547554	-0.04168351	2.863502e-05	-8.764128e-05	-0.002915732	-0.05962906	2.55583e-05	-6.786767e-05
	2.863502e-05	-8.764128e-05	-0.06580502	-0.04062135	2.274486e-05	-4.511689e-05	-0.003865755	-0.05753567
	-0.002915732	-0.05962906	2.274486e-05	-4.511689e-05	-0.06563524	-0.0417864	1.966874e-05	-4.406323e-05
	2.55583e-05	-6.786767e-05	-0.003865755	-0.05753567	1.966874e-05	-4.406323e-05	-0.06612519	-0.04083821
3.6e+08	-0.06692887	-0.04210495	2.09815e-05	-9.279791e-05	-0.01013012	-0.05736657	1.963588e-05	-7.31678e-05
	2.09815e-05	-9.279791e-05	-0.06728392	-0.04100342	1.832022e-05	-4.856477e-05	-0.01106489	-0.0550931
	-0.01013012	-0.05736657	1.832022e-05	-4.856477e-05	-0.06717121	-0.04217236	1.570793e-05	-4.75734e-05
	1.963588e-05	-7.31678e-05	-0.01106489	-0.0550931	1.570793e-05	-4.75734e-05	-0.06768859	-0.04119031
3.7e+08	-0.06872014	-0.04261971	1.242618e-05	-9.737806e-05	-0.01711152	-0.05422701	1.287165e-05	-7.802056e-05
	1.242618e-05	-9.737806e-05	-0.06910241	-0.0414705	1.325304e-05	-5.179533e-05	-0.01801394	-0.05177156
	-0.01711152	-0.05422701	1.325304e-05	-5.179533e-05	-0.06904381	-0.04264183	1.117045e-05	-5.086191e-05
	1.287165e-05	-7.802056e-05	-0.01801394	-0.05177156	1.117045e-05	-5.086191e-05	-0.0695918	-0.04161719
3.8e+08	-0.07089003	-0.04315338	3.004578e-06	-0.0001012488	-0.02375136	-0.05023991	5.293535e-06	-8.230802e-05
	3.004578e-06	-0.0001012488	-0.07129982	-0.04194724	7.533632e-06	-5.472191e-05	-0.02460374	-0.04760281
	-0.02375136	-0.05023991	7.533632e-06	-5.472191e-05	-0.07129289	-0.04312034	6.056918e-06	-5.385352e-05
	5.293535e-06	-8.230802e-05	-0.02460374	-0.04760281	6.056918e-06	-5.385352e-05	-0.07187325	-0.04204302
3.9e+08	-0.07346588	-0.04362218	-7.224932e-06	-0.0001042802	-0.02994562	-0.0454492	-3.058766e-06	-8.591271e-05
	-7.224932e-06	-0.0001042802	-0.07390187	-0.04234902	1.163971e-06	-5.725186e-05	-0.03073001	-0.04263315
	-0.02994562	-0.0454492	1.163971e-06	-5.725186e-05	-0.07394374	-0.04352474	3.705994e-07	-5.646933e-05
	-3.058766e-06	-8.591271e-05	-0.03073001	-0.04263315	3.705994e-07	-5.646933e-05	-0.07455648	-0.04238346
4e+08	-0.07646006	-0.04393665	-1.818429e-05	-0.0001063466	-0.03559656	-0.03991128	-1.212138e-05	-8.87209e-05
	-1.818429e-05	-0.0001063466	-0.07691909	-0.04258588	-5.840007e-06	-5.928775e-05	-0.03629509	-0.03692139
	-0.03559656	-0.03991128	-5.840007e-06	-5.928775e-05	-0.07700841	-0.04376598	-5.868662e-06	-5.86274e-05
	-1.212138e-05	-8.87209e-05	-0.03629509	-0.03692139	-5.868662e-06	-5.86274e-05	-0.07765145	-0.04254859
4.1e+08	-0.07986916	-0.04400404	-2.978243e-05	-0.0001073301	-0.04061416	-0.03369487	-2.182243e-05	-9.062197e-05
	-2.978243e-05	-0.0001073301	-0.08034609	-0.04256479	-1.34504e-05	-6.072937e-05	-0.04120935	-0.03053872
	-0.04061416	-0.03369487	-1.34504e-05	-6.072937e-05	-0.08048214	-0.04375153	-1.263686e-05	-6.024355e-05
	-2.182243e-05	-9.062197e-05	-0.04120935	-0.03053872	-1.263686e-05	-6.024355e-05	-0.08115109	-0.04244527
4.2e+08	-0.08367269	-0.04372884	-4.190783e-05	-0.0001071211	-0.04491836	-0.02687972	-3.2068e-05	-9.15163e-05
	-4.190783e-05	-0.0001071211	-0.08416014	-0.04219032	-2.162674e-05	-6.147856e-05	-0.0453935	-0.02356724
	-0.04491836	-0.02687972	-2.162674e-05	-6.147856e-05	-0.08434325	-0.04338672	-1.989406e-05	-6.123264e-05
	-3.2068e-05	-9.15163e-05	-0.0453935	-0.02356724	-1.989406e-05	-6.123264e-05	-0.08503114	-0.0419787
4.3e+08	-0.08783321	-0.0430183	-5.443386e-05	-0.0001056233	-0.04843968	-0.01955466	-4.275239e-05	-9.131199e-05
	-5.443386e-05	-0.0001056233	-0.08832154	-0.04137019	-3.031048e-05	-6.14325e-05	-0.04877915	-0.01609806
	-0.04843968	-0.01955466	-3.031048e-05	-6.14325e-05	-0.0885537	-0.04257982	-2.758918e-05	-6.151182e-05
	-4.275239e-05	-9.131199e-05	-0.04877915	-0.01609806	-2.758918e-05	-6.151182e-05	-0.08925086	-0.04105741
4.4e+08	-0.09229674	-0.0417841	-6.721895e-05	-0.0001027573	-0.05112063	-0.01181658	-5.376106e-05	-8.992793e-05
	-6.721895e-05	-0.0001027573	-0.092774	-0.04001698	-3.942959e-05	-6.049589e-05	-0.05131018	-0.008230235
	-0.05112063	-0.01181658	-3.942959e-05	-6.049589e-05	-0.09305836	-0.04124309	-3.565674e-05	-6.10004e-05
	-5.376106e-05	-8.992793e-05	-0.05131018	-0.008230235	-3.565674e-05	-6.10004e-05	-0.09375233	-0.0395945
4.5e+08	-0.09699203	-0.03994457	-8.011105e-05	-9.845567e-05	-0.05291678	-0.003768412	-6.496066e-05	-8.72987e-05
	-8.011105e-05	-9.845567e-05	-0.09744399	-0.03805034	-4.88949e-05	-5.858008e-05	-0.05294387	-6.86381e-05
	-0.05291678	-0.003768412	-4.88949e-05	-5.858008e-05	-0.09778547	-0.03929605	-4.402288e-05	-5.96207e-05
	-6.496066e-05	-8.72987e-05	-0.05294387	-6.86381e-05	-4.402288e-05	-5.96207e-05	-0.09846103	-0.03751071
4.6e+08	-0.101833	-0.03742817	-9.294644e-05	-9.267029e-05	-0.05379688	0.004482718	-7.620988e-05	-8.337248e-05
	-9.294644e-05	-9.267029e-05	-0.1022432	-0.0354005	-5.860624e-05	-5.559969e-05	-0.05365094	0.008277854
	-0.05379688	0.004482718	-5.860624e-05	-5.559969e-05	-0.1026488	-0.03666862	-5.259656e-05	-5.73053e-05
	-7.620988e-05	-8.337248e-05	-0.05365094	0.008277854	-5.259656e-05	-5.73053e-05	-0.1032881	-0.03473786
4.7e+08	-0.1067201	-0.03417757	-0.0001055559	-8.537129e-05	-0.05374354	0.01282768	-8.736491e-05	-7.811203e-05
	-0.0001055559	-8.537129e-05	-0.1070704	-0.03201234	-6.84413e-05	-5.148352e-05	-0.05341617	0.01669868
	-0.05374354	0.01282768	-6.84413e-05	-5.148352e-05	-0.1075478	-0.0333036	-6.127333e-05	-5.399403e-05
	-8.736491e-05	-7.811203e-05	-0.05341617	0.01669868	-6.127333e-05	-5.399403e-05	-0.1081306	-0.0312211
4.8e+08	-0.1115421	-0.03014834	-0.0001177608	-7.655135e-05	-0.0527528	0.02115638	-9.826715e-05	-7.150134e-05
	-0.0001177608	-7.655135e-05	-0.1118125	-0.02784403	-7.826999e-05	-4.617228e-05	-0.0522379	0.02508256
