!$
! Info: Touchstone file created by Circ.  Input file=Intel_C2M_200G_4p0in_202208016_staggered.circ
!$
# Hz S RI R 50
0	0.01535115	5.498244e-24	-7.234176e-05	8.85931e-21	0.0003186904	3.968501e-22	-6.799088e-05	8.326482e-21
	-7.234185e-05	8.859322e-21	0.01479487	2.832759e-24	-7.955804e-05	9.74305e-21	9.355361e-05	2.54005e-22
	0.0003187596	3.97126e-22	-7.955813e-05	9.743061e-21	0.01535237	5.59558e-24	-7.236731e-05	8.86244e-21
	-6.799087e-05	8.326481e-21	9.361169e-05	2.541325e-22	-7.236721e-05	8.862428e-21	0.01479281	2.686851e-24
1e+07	0.01841112	-0.0008612377	-0.0003912915	-8.797651e-05	0.0009096716	0.005085465	-4.590202e-05	-0.000104482
	-0.0003912915	-8.797651e-05	0.01812273	-0.001127603	-0.0005588731	2.129415e-06	0.00116061	0.005084416
	0.0009096716	0.005085465	-0.0005588731	2.129415e-06	0.01820209	-0.0007791814	-0.0002905291	-9.696408e-05
	-4.590202e-05	-0.000104482	0.00116061	0.005084416	-0.0002905291	-9.696408e-05	0.01802038	-0.001098849
2e+07	0.02070783	-0.00458564	-0.0003551047	-0.0003226523	0.002072817	0.009810714	-6.704773e-05	-0.0001783219
	-0.0003551047	-0.0003226522	0.02055053	-0.005116098	-0.0005346392	-0.0002184276	0.002551262	0.009634248
	0.002072903	0.00981061	-0.0005346392	-0.0002184276	0.02059588	-0.004363302	-0.0002844442	-0.0002613193
	-6.704772e-05	-0.0001783219	0.002551273	0.009634235	-0.0002844442	-0.0002613193	0.02047495	-0.005019986
3e+07	0.02133873	-0.009662491	-0.0003536501	-0.0004522214	0.003876121	0.01423798	-0.0001001306	-0.0002474656
	-0.0003536501	-0.0004522214	0.02185132	-0.01031395	-0.000531194	-0.0003251926	0.004601607	0.0139787
	0.003876098	0.01423795	-0.000531194	-0.0003251926	0.02131828	-0.009381691	-0.0003055513	-0.0003735146
	-0.0001001306	-0.0002474656	0.004601579	0.01397873	-0.0003055513	-0.0003735146	0.02179525	-0.01016927
4e+07	0.02080082	-0.014913	-0.0003777222	-0.0005535933	0.006208352	0.01837893	-0.0001540604	-0.0003072932
	-0.0003777222	-0.0005535933	0.02205919	-0.01602438	-0.0005438194	-0.0004080742	0.007341529	0.01789603
	0.006208352	0.01837893	-0.0005438194	-0.0004080742	0.02086157	-0.01460003	-0.0003470939	-0.0004640507
	-0.0001540604	-0.0003072932	0.007341523	0.01789606	-0.0003470939	-0.0004640507	0.02202996	-0.01584048
5e+07	0.01921305	-0.02011582	-0.0004212732	-0.000636126	0.009054279	0.02214865	-0.0002169339	-0.0003587779
	-0.0004212732	-0.000636126	0.02132299	-0.02186331	-0.0005691134	-0.0004791737	0.01067691	0.0213265
	0.009054282	0.02214866	-0.0005691134	-0.0004791737	0.01934918	-0.01978843	-0.0004050592	-0.0005385369
	-0.0002169339	-0.0003587779	0.01067691	0.02132651	-0.0004050592	-0.0005385369	0.02132306	-0.02164671
6e+07	0.01665319	-0.02501858	-0.0004801462	-0.000702266	0.01235461	0.02548663	-0.0002873807	-0.0004014282
	-0.0004801462	-0.000702266	0.01973548	-0.02764307	-0.0006056094	-0.0005427923	0.01453424	0.02419083
	0.01235461	0.02548663	-0.0006056094	-0.0005427923	0.01685945	-0.02469112	-0.0004763575	-0.0005980958
	-0.0002873806	-0.0004014282	0.01453426	0.02419082	-0.0004763575	-0.0005980958	0.01976696	-0.027399
7e+07	0.01324858	-0.02941883	-0.0005842948	-0.0007338471	0.01604438	0.02834335	-0.0003639855	-0.0004341425
	-0.0005842948	-0.0007338471	0.01736566	-0.03320668	-0.0006523763	-0.0006002409	0.01882426	0.02641947
	0.01604437	0.02834335	-0.0006523763	-0.0006002409	0.0135187	-0.029104	-0.0005582517	-0.000642661
	-0.0003639855	-0.0004341425	0.01882426	0.02641947	-0.0005582517	-0.000642661	0.01743061	-0.03294041
8e+07	0.009141179	-0.03316727	-0.0007309163	-0.0007204602	0.02005248	0.03067882	-0.0004452925	-0.0004562651
	-0.0007309163	-0.0007204602	0.01429918	-0.03841673	-0.0007090362	-0.0006518562	0.0234493	0.02795666
	0.02005248	0.03067882	-0.0007090362	-0.0006518562	0.009467447	-0.03287682	-0.0006480593	-0.0006717119
	-0.0004452925	-0.0004562651	0.0234493	0.02795666	-0.0006480593	-0.0006717119	0.01439942	-0.03813356
9e+07	0.00447867	-0.03614659	-0.0008714728	-0.0006828832	0.02430462	0.03246447	-0.0005305799	-0.0004676946
	-0.0008714728	-0.0006828832	0.01064184	-0.04316073	-0.0007758818	-0.0006975885	0.02830617	0.02876096
	0.02430462	0.03246447	-0.0007758818	-0.0006975885	0.004851726	-0.03589096	-0.0007524929	-0.0006769554
	-0.0005305799	-0.0004676946	0.02830617	0.02876097	-0.0007524929	-0.0006769554	0.01077813	-0.04286647
1e+08	-0.0005596804	-0.03823791	-0.0009966355	-0.0006150948	0.02872764	0.03368295	-0.00061758	-0.0004675036
	-0.0009966355	-0.0006150948	0.006536974	-0.04732454	-0.0008512843	-0.0007350637	0.03329025	0.02880538
	0.02872764	0.03368295	-0.0008512843	-0.0007350637	-0.0001550284	-0.03803109	-0.0008769501	-0.0006411573
	-0.00061758	-0.0004675036	0.03329025	0.02880538	-0.0008769501	-0.0006411573	0.006708597	-0.04702568
1.1e+08	-0.005724772	-0.03955082	-0.001088614	-0.0005584896	0.03323808	0.03431355	-0.0007055834	-0.0004597353
	-0.001088614	-0.0005584896	0.002147813	-0.05108865	-0.0009445016	-0.000760788	0.03830395	0.0280614
	0.03323808	0.03431355	-0.0009445016	-0.000760788	-0.005315211	-0.03936008	-0.0009841563	-0.0006035641
	-0.0007055834	-0.0004597353	0.03830395	0.02806139	-0.0009841563	-0.0006035641	0.002410077	-0.05080933
1.2e+08	-0.01106922	-0.04000786	-0.001188936	-0.0005008156	0.0377484	0.03437089	-0.0007977919	-0.0004421863
	-0.001188936	-0.0005008156	-0.002639739	-0.05428362	-0.001051276	-0.0007798123	0.0431845	0.02655003
	0.0377484	0.03437089	-0.001051276	-0.0007798123	-0.01064384	-0.03983704	-0.001095566	-0.0005580007
	-0.0007977919	-0.0004421863	0.0431845	0.02655003	-0.001095566	-0.0005580007	-0.002347404	-0.05403869
1.3e+08	-0.01639962	-0.03954861	-0.001290061	-0.0004332768	0.04218812	0.03387358	-0.0008946975	-0.000415352
	-0.001290061	-0.0004332768	-0.00766916	-0.05684854	-0.001170052	-0.0007882552	0.04783974	0.02429701
	0.04218812	0.03387358	-0.001170052	-0.0007882552	-0.01595974	-0.0394031	-0.001206373	-0.0004999043
	-0.0008946975	-0.000415352	0.04783974	0.02429701	-0.001206373	-0.0004999043	-0.007369341	-0.05662327
1.4e+08	-0.02154658	-0.03817568	-0.001389329	-0.0003542742	0.04648883	0.03284827	-0.0009915471	-0.0003756898
	-0.001389329	-0.0003542742	-0.01282555	-0.0587755	-0.00129988	-0.0007833759	0.05217243	0.02134025
	0.04648883	0.03284827	-0.00129988	-0.0007833759	-0.02109661	-0.03805771	-0.001314415	-0.0004287047
	-0.0009915471	-0.0003756898	0.05217243	0.02134024	-0.001314415	-0.0004287047	-0.01251914	-0.0585586
1.5e+08	-0.02635016	-0.03592476	-0.001484797	-0.0002631855	0.05058803	0.03132952	-0.001087066	-0.0003230918
	-0.001484797	-0.0002631855	-0.01800587	-0.06007464	-0.001439451	-0.0007625157	0.05608844	0.01772968
	0.05058803	0.03132952	-0.001439451	-0.0007625157	-0.02589494	-0.03583435	-0.001417958	-0.0003443808
	-0.001087066	-0.0003230918	0.05608844	0.01772968	-0.001417958	-0.0003443808	-0.01768812	-0.05986326
1.6e+08	-0.03066198	-0.03285869	-0.00157476	-0.0001599453	0.05442988	0.02935942	-0.001179894	-0.0002576071
	-0.00157476	-0.0001599453	-0.02311591	-0.06077098	-0.001586903	-0.0007232249	0.05950032	0.01352709
	0.05442988	0.02935942	-0.001586903	-0.0007232249	-0.03020605	-0.03279421	-0.001515491	-0.0002472546
	-0.001179894	-0.0002576071	0.05950032	0.01352709	-0.001515491	-0.0002472546	-0.0227822	-0.06056816
1.7e+08	-0.03434826	-0.02906346	-0.001657676	-4.473127e-05	0.05796587	0.0269855	-0.001268657	-0.0001793345
	-0.001657676	-4.473127e-05	-0.02806978	-0.06090293	-0.001739871	-0.0006633437	0.06232922	0.008804871
	0.05796587	0.0269855	-0.001739871	-0.0006633437	-0.0338951	-0.02902255	-0.001605603	-0.0001378173
	-0.001268657	-0.0001793345	0.06232922	0.00880487	-0.001605603	-0.0001378173	-0.02771831	-0.06071464
1.8e+08	-0.03729164	-0.02464446	-0.001732117	8.200302e-05	0.06115577	0.02426019	-0.001351945	-8.850515e-05
	-0.001732117	8.200302e-05	-0.03279183	-0.06052103	-0.001895537	-0.0005809157	0.06450646	0.003644911
	0.06115577	0.02426019	-0.001895537	-0.0005809157	-0.03684436	-0.02462443	-0.001687088	-1.676443e-05
	-0.001351945	-8.850515e-05	0.06450646	0.00364491	-0.001687088	-1.676443e-05	-0.03242371	-0.06035419
1.9e+08	-0.03939388	-0.01972396	-0.001796723	0.0002196951	0.06396766	0.02123982	-0.001428368	1.453463e-05
	-0.001796723	0.0002196951	-0.03721721	-0.05968647	-0.002050688	-0.0004742504	0.06597509	-0.001862649
	0.06396766	0.02123982	-0.002050688	-0.0004742504	-0.03895488	-0.01972198	-0.001758736	0.0001151461
	-0.001428368	1.453463e-05	0.06597509	-0.001862649	-0.001758736	0.0001151461	-0.0368364	-0.05954759
2e+08	-0.04057636	-0.01443737	-0.00184937	0.0003670707	0.06637774	0.01798248	-0.001496525	0.0001292394
	-0.00184937	0.0003670707	-0.04129437	-0.058469	-0.00220513	-0.0003152566	0.06669035	-0.007621333
	0.06637774	0.01798248	-0.00220513	-0.0003152566	-0.04014803	-0.01444989	-0.001818759	0.0002562395
	-0.001496525	0.0001292394	0.06669035	-0.007621333	-0.001818759	0.0002562395	-0.04090593	-0.05836341
2.1e+08	-0.04078324	-0.008929859	-0.001889794	0.000523638	0.06837152	0.01454776	-0.00155502	0.0002550031
	-0.001889794	0.000523638	-0.04498498	-0.05694399	-0.002347356	-0.0001314831	0.06662038	-0.01352978
	0.06837152	0.01454776	-0.002347356	-0.0001314831	-0.0403666	-0.008953621	-0.001867144	0.0004062708
	-0.00155502	0.0002550031	0.06662038	-0.01352978	-0.001867144	0.0004062708	-0.04459587	-0.05687589
2.2e+08	-0.03997997	-0.003353638	-0.001916872	0.00068846	0.06994228	0.01099507	-0.001602486	0.0003910421
	-0.001916872	0.00068846	-0.04826542	-0.05519123	-0.002473493	7.635223e-05	0.06574656	-0.01948343
	0.06994228	0.01099507	-0.002473493	7.635223e-05	-0.03957624	-0.003384863	-0.001903016	0.0005643359
	-0.001602486	0.0003910421	0.06574656	-0.01948343	-0.001903016	0.0005643358	-0.04788327	-0.05516282
2.3e+08	-0.03815566	0.002135304	-0.001929561	0.0008604145	0.07109148	0.007382718	-0.00163763	0.0005363974
	-0.001929561	0.0008604145	-0.05112644	-0.05329132	-0.002579724	0.0003066779	0.06406397	-0.02537642
	0.07109148	0.007382718	-0.002579724	0.0003066779	-0.03776518	0.002100695	-0.001925595	0.0007294439
	-0.00163763	0.0005363974	0.06406397	-0.02537642	-0.001925595	0.0007294439	-0.05075879	-0.05330358
2.4e+08	-0.03532245	0.007381328	-0.001926864	0.001038405	0.07182872	0.003767153	-0.001659221	0.0006899541
	-0.001926864	0.001038405	-0.05357315	-0.0513236	-0.002662411	0.000557338	0.06158108	-0.03110275
	0.07182872	0.003767153	-0.002662411	0.000557338	-0.03494513	0.007347429	-0.001934116	0.0009005835
	-0.001659221	0.0006899541	0.06158108	-0.03110275	-0.001934116	0.0009005835	-0.05322808	-0.05137622
2.5e+08	-0.03151518	0.0122313	-0.001907906	0.001221085	0.07217053	0.0002016434	-0.001666076	0.0008504905
	-0.001907906	0.001221085	-0.05562467	-0.04936384	-0.002718176	0.000825533	0.05831961	-0.0365582
	0.07217053	0.0002016434	-0.002718176	0.000825533	-0.03114972	0.01220238	-0.00192792	0.001076673
	-0.001666076	0.0008504905	0.05831961	-0.0365582	-0.00192792	0.001076673	-0.05530952	-0.04945531
2.6e+08	-0.02679092	0.01653863	-0.001871856	0.001407049	0.07214033	-0.003264392	-0.001657196	0.001016567
	-0.001871856	0.001407049	-0.05731268	-0.04748208	-0.002744112	0.001107889	0.05431466	-0.04164214
	0.07214033	-0.003264392	-0.002744112	0.001107889	-0.0264357	0.01651845	-0.001906367	0.001256594
	-0.001657196	0.001016567	0.05431466	-0.04164214	-0.001906367	0.001256594	-0.05703499	-0.04761005
2.7e+08	-0.02122734	0.0201653	-0.001818004	0.001594783	0.07176761	-0.006585779	-0.001631611	0.001186693
	-0.001818004	0.001594783	-0.05868057	-0.04574085	-0.002737883	0.001400454	0.04961353	-0.04625831
	0.07176761	-0.006585779	-0.002737883	0.001400454	-0.02087973	0.02015813	-0.001868868	0.001439175
	-0.001631611	0.001186693	0.04961353	-0.04625831	-0.001868868	0.001439175	-0.0584474	-0.04590199
2.8e+08	-0.0149219	0.02298568	-0.001745765	0.001782659	0.07108753	-0.009723087	-0.00158857	0.001359143
	-0.001745765	0.001782659	-0.05978224	-0.04419277	-0.002697682	0.001699002	0.0442756	-0.05031706
	0.07108753	-0.009723087	-0.002697682	0.001699002	-0.01457843	0.02299545	-0.001814928	0.001623154
	-0.00158857	0.001359143	0.0442756	-0.05031706	-0.001814928	0.001623154	-0.05959992	-0.04438285
2.9e+08	-0.007990171	0.02488914	-0.0016547	0.001968903	0.07013977	-0.01264248	-0.001527478	0.001532128
	-0.0016547	0.001968903	-0.06067971	-0.04287962	-0.002622434	0.001998994	0.03837151	-0.05373661
	0.07013977	-0.01264248	-0.002622434	0.001998994	-0.007646406	0.02491893	-0.001744051	0.001807263
	-0.001527478	0.001532128	0.03837151	-0.05373661	-0.001744051	0.001807263	-0.06055457	-0.0430938
3e+08	-0.0005623804	0.0257816	-0.001544506	0.002151672	0.06896784	-0.01531697	-0.001447924	0.001703757
	-0.001544506	0.002151672	-0.06144163	-0.04183075	-0.002511821	0.002295708	0.03198191	-0.05644388
	0.06896784	-0.01531697	-0.002511821	0.002295708	-0.0002130571	0.02583393	-0.001655842	0.001990113
	-0.001447924	0.001703757	0.03198191	-0.05644388	-0.001655842	0.001990113	-0.06137935	-0.04206358
3.1e+08	0.007218266	0.0255886	-0.001415093	0.002329052	0.06761865	-0.01772604	-0.001349647	0.001872071
	-0.001415093	0.002329052	-0.06214096	-0.04106229	-0.002366172	0.002584461	0.0251966	-0.05837656
	0.06761865	-0.01772604	-0.002366172	0.002584461	0.007578536	0.02566498	-0.001550056	0.002170221
	-0.001349647	0.001872071	0.0251966	-0.05837656	-0.001550056	0.002170221	-0.06214724	-0.04130765
3.2e+08	0.01519779	0.02425628	-0.001266515	0.002499049	0.06614102	-0.01985707	-0.001232714	0.00203498
	-0.001266515	0.002499049	-0.06285333	-0.0405764	-0.002186711	0.002860613	0.01811312	-0.05948386
	0.06614102	-0.01985707	-0.002186711	0.002860613	0.01557571	0.02435773	-0.001426448	0.002346065
	-0.001232714	0.00203498	0.01811312	-0.05948386	-0.001426448	0.002346065	-0.06293259	-0.04082702
3.3e+08	0.02321607	0.02175305	-0.001099056	0.002659617	0.06458438	-0.02170478	-0.001097335	0.002190421
	-0.001099056	0.002659617	-0.06365383	-0.040361	-0.001975156	0.003119892	0.01083542	-0.05972709
	0.06458438	-0.02170478	-0.001975156	0.003119892	0.02361823	0.02187932	-0.001284904	0.002516043
	-0.001097335	0.002190421	0.01083542	-0.05972709	-0.001284904	0.002516043	-0.06381041	-0.04060902
3.4e+08	0.03110851	0.01807075	-0.0009132488	0.002808689	0.06299878	-0.02327163	-0.0009440029	0.002336336
	-0.0009132488	0.002808689	-0.06461519	-0.04038942	-0.001734053	0.003358284	0.003471924	-0.05908147
	0.06299878	-0.02327163	-0.001734053	0.003358284	0.03154228	0.01822064	-0.001125435	0.002678495
	-0.0009440029	0.002336336	0.003471924	-0.05908147	-0.001125435	0.002678495	-0.06485216	-0.04062643
3.5e+08	0.038711	0.01322487	-0.0007098704	0.002944159	0.06143262	-0.02456833	-0.0007734657	0.002470637
	-0.0007098704	0.002944159	-0.06580502	-0.04062135	-0.001466438	0.00357234	-0.003865755	-0.05753567
	0.06143262	-0.02456833	-0.001466438	0.00357234	0.03918285	0.01339515	-0.0009482396	0.002831633
	-0.0007734657	0.002470637	-0.003865755	-0.05753567	-0.0009482396	0.002831633	-0.06612519	-0.04083821
3.6e+08	0.04586178	0.007253829	-0.0004899378	0.00306402	0.05993198	-0.02561279	-0.00058674	0.002591352
	-0.0004899378	0.00306402	-0.06728392	-0.04100342	-0.001175658	0.003759165	-0.01106489	-0.0550931
	0.05993198	-0.02561279	-0.001175658	0.003759165	0.04637875	0.007440923	-0.0007536622	0.002973663
	-0.00058674	0.002591352	-0.01106489	-0.0550931	-0.0007536622	0.002973663	-0.06768859	-0.04119031
3.7e+08	0.05240617	0.0002192581	-0.0002546575	0.003166283	0.05853942	-0.0264303	-0.0003849767	0.002696608
	-0.0002546575	0.003166283	-0.06910241	-0.0414705	-0.0008654712	0.00391648	-0.01801394	-0.05177156
	0.05853942	-0.0264303	-0.0008654712	0.00391648	0.05297493	0.0004179444	-0.0005421247	0.003102743
	-0.0003849767	0.002696608	-0.01801394	-0.05177156	-0.0005421247	0.003102743	-0.0695918	-0.04161719
3.8e+08	0.05819965	-0.007795407	-5.588455e-06	0.003249077	0.05729263	-0.02705306	-0.0001697072	0.002784634
	-5.588455e-06	0.003249077	-0.07129982	-0.04194724	-0.0005399065	0.004042646	-0.02460374	-0.04760281
	0.05729263	-0.02705306	-0.0005399065	0.004042646	0.05882576	-0.007592034	-0.0003143898	0.003216966
	-0.0001697072	0.002784634	-0.02460374	-0.04760281	-0.0003143898	0.003216966	-0.07187325	-0.04204302
3.9e+08	0.06310973	-0.01668705	0.000255512	0.003310671	0.05622371	-0.0275193	5.743047e-05	0.002853836
	0.000255512	0.003310671	-0.07390187	-0.04234902	-0.0002029706	0.004136734	-0.03073001	-0.04263315
	0.05622371	-0.0275193	-0.0002029706	0.004136734	0.06379864	-0.01648578	-7.136609e-05	0.003314457
	5.743047e-05	0.002853836	-0.03073001	-0.04263315	-7.136609e-05	0.003314457	-0.07455648	-0.04238346
4e+08	0.06702072	-0.02633388	0.0005266439	0.003349507	0.05535782	-0.02787228	0.0002945597	0.002902801
	0.0005266439	0.003349507	-0.07691909	-0.04258588	0.0001414958	0.004198418	-0.03629509	-0.03692139
	0.05535782	-0.02787228	0.0001414958	0.004198418	0.06777645	-0.02614393	0.000185857	0.003393327
	0.0002945597	0.002902801	-0.03629509	-0.03692139	0.000185857	0.003393327	-0.07765145	-0.04254859
4.1e+08	0.06983557	-0.0366	0.0008056194	0.003364225	0.05471248	-0.02815869	0.0005396497	0.002930349
	0.0008056194	0.003364225	-0.08034609	-0.04256479	0.0004895868	0.004228012	-0.04120935	-0.03053872
	0.05471248	-0.02815869	0.0004895868	0.004228012	0.07066115	-0.03643096	0.0004557855	0.003451778
	0.0005396497	0.002930349	-0.04120935	-0.03053872	0.0004557855	0.003451778	-0.08115109	-0.04244527
4.2e+08	0.07147726	-0.04733596	0.001090017	0.003353739	0.05429696	-0.02842907	0.0007905011	0.002935569
	0.001090017	0.003353739	-0.08416014	-0.04219032	0.0008380247	0.004226306	-0.0453935	-0.02356724
	0.05429696	-0.02842907	0.0008380247	0.004226306	0.07237423	-0.04719778	0.0007368403	0.00348808
	0.0007905011	0.002935569	-0.0453935	-0.02356724	0.0007368403	0.00348808	-0.08503114	-0.0419787
4.3e+08	0.07189145	-0.05838397	0.001377301	0.003317223	0.05411182	-0.02873402	0.001044955	0.002917706
	0.001377301	0.003317223	-0.08832154	-0.04137019	0.001183577	0.004194565	-0.04877915	-0.01609806
	0.05411182	-0.02873402	0.001183577	0.004194565	0.07285967	-0.05828764	0.001027221	0.003500612
	0.001044955	0.002917706	-0.04877915	-0.01609806	0.001027221	0.003500612	-0.08925086	-0.04105741
4.4e+08	0.07104672	-0.06958056	0.001664783	0.003254153	0.05414853	-0.02912458	0.001300629	0.002876353
	0.001664783	0.003254153	-0.092774	-0.04001698	0.001523703	0.004134318	-0.05131018	-0.008230235
	0.05414853	-0.02912458	0.001523703	0.004134318	0.07208482	-0.06953704	0.001324692	0.003487972
	0.001300629	0.002876353	-0.05131018	-0.008230235	0.001324692	0.003487972	-0.09375233	-0.0395945
4.5e+08	0.06893526	-0.08075973	0.001949739	0.00316435	0.0543902	-0.02965011	0.001555132	0.002811368
	0.001949739	0.00316435	-0.09744399	-0.03805034	0.001856318	0.004047305	-0.05294387	-6.86381e-05
	0.0543902	-0.02965011	0.001856318	0.004047305	0.07004012	-0.08078012	0.001626952	0.003448957
	0.001555132	0.002811368	-0.05294387	-6.86381e-05	0.001626952	0.003448957	-0.09846103	-0.03751071
4.6e+08	0.06557281	-0.09175756	0.002229319	0.003047984	0.05481114	-0.03035687	0.001806162	0.002722827
	0.002229319	0.003047984	-0.1022432	-0.0354005	0.002179576	0.003935425	-0.05365094	0.008277854
	0.05481114	-0.03035687	0.002179576	0.003935425	0.06673957	-0.09185288	0.001931602	0.00338249
	0.001806162	0.002722827	-0.05365094	0.008277854	0.001931602	0.00338249	-0.1032881	-0.03473786
4.7e+08	0.06099869	-0.1024153	0.002500857	0.002905498	0.05537794	-0.03128612	0.002051372	0.002611114
	0.002500857	0.002905498	-0.1070704	-0.03201234	0.002492228	0.003800492	-0.05341617	0.01669868
	0.05537794	-0.03128612	0.002492228	0.003800492	0.06222075	-0.1025959	0.00223586	0.003287952
	0.002051372	0.002611114	-0.05341617	0.01669868	0.00223586	0.003287952	-0.1081306	-0.0312211
4.8e+08	0.05527274	-0.1125825	0.002761687	0.002737717	0.05605027	-0.03247379	0.002288572	0.002476793
	0.002761687	0.002737717	-0.1118125	-0.02784403	0.002793578	0.003644153	-0.0522379	0.02508256
	0.05605027	-0.03247379	0.002793578	0.003644153	0.05654265	-0.112858	0.002536989	0.003164869
	0.002288572	0.002476793	-0.0522379	0.02508256	0.002536989	0.003164869	-0.1128749	-0.02692117
4.9e+08	0.04847571	-0.1221194	0.003009195	0.002545813	0.05678164	-0.03394899	0.002515654	0.002320697
