!$
! Info: Touchstone file created by Circ.  Input file=Intel_C2M_200G_2p0in_202208016_staggered.circ
!$
# Hz S RI R 50
0	0.01163448	4.171365e-24	-5.607564e-05	6.867286e-21	0.0003035771	2.177403e-22	-5.169154e-05	6.330388e-21
	-5.607574e-05	6.867298e-21	0.01107668	1.978029e-24	-6.33464e-05	7.757697e-21	7.744081e-05	2.247415e-22
	0.0003036474	2.178883e-22	-6.33465e-05	7.757708e-21	0.0116357	4.221506e-24	-5.610129e-05	6.870426e-21
	-5.169153e-05	6.330387e-21	7.749933e-05	2.248706e-22	-5.610119e-05	6.870414e-21	0.0110746	1.88028e-24
1e+07	0.01373776	0.0002084739	-0.0002734792	-0.0001019157	0.0006643803	0.004121181	-3.867259e-05	-0.0001011676
	-0.0002734792	-0.0001019157	0.01349389	7.941939e-05	-0.0003914516	-5.414968e-05	0.0007931459	0.004131691
	0.0006643803	0.004121181	-0.0003914516	-5.414968e-05	0.01359783	0.0002718786	-0.0002054815	-0.0001068023
	-3.867259e-05	-0.0001011676	0.0007931459	0.004131691	-0.0002054815	-0.0001068023	0.01342581	0.000109709
2e+07	0.01570206	-0.001523085	-0.0002504207	-0.0002961188	0.001416507	0.008006771	-5.664316e-05	-0.0001781148
	-0.0002504206	-0.0002961188	0.01533586	-0.001814548	-0.000382016	-0.0002502128	0.001607497	0.007914275
	0.001416594	0.008006667	-0.0003820159	-0.0002502128	0.0156234	-0.001353319	-0.0002041253	-0.0002535092
	-5.664315e-05	-0.0001781148	0.001607508	0.007914263	-0.0002041253	-0.0002535092	0.01528637	-0.00172784
3e+07	0.01677667	-0.004308165	-0.0002515851	-0.0004183524	0.002599461	0.011711	-8.332419e-05	-0.0002515976
	-0.0002515851	-0.0004183524	0.01663848	-0.004498907	-0.0003899016	-0.0003671942	0.002762371	0.01165294
	0.002599438	0.01171097	-0.0003899016	-0.0003671943	0.01675985	-0.004085859	-0.0002214765	-0.0003645881
	-8.332419e-05	-0.0002515976	0.002762337	0.01165297	-0.0002214765	-0.0003645881	0.016599	-0.004366936
4e+07	0.01734463	-0.007322886	-0.0002711978	-0.0005211555	0.004125513	0.01528329	-0.0001253159	-0.0003193148
	-0.0002711978	-0.0005211555	0.0173649	-0.007612879	-0.0004119454	-0.0004655716	0.004334112	0.01520199
	0.004125514	0.0152833	-0.0004119454	-0.0004655716	0.01738329	-0.007064006	-0.0002538171	-0.0004612374
	-0.0001253159	-0.0003193148	0.004334103	0.01520201	-0.0002538171	-0.0004612374	0.01734182	-0.007441187
5e+07	0.01744932	-0.01051537	-0.0003055901	-0.0006111563	0.006010995	0.01867228	-0.0001747382	-0.0003817159
	-0.0003055901	-0.0006111563	0.01761404	-0.01090103	-0.0004455317	-0.0005532001	0.006273908	0.01855534
	0.006010998	0.01867229	-0.0004455317	-0.0005532001	0.01754166	-0.01023047	-0.0002988981	-0.0005475595
	-0.0001747382	-0.0003817159	0.006273908	0.01855535	-0.0002988981	-0.0005475595	0.01760912	-0.01069321
6e+07	0.01708954	-0.01375995	-0.0003523495	-0.0006901792	0.008234293	0.0218454	-0.0002308213	-0.0004385181
	-0.0003523495	-0.0006901792	0.01744066	-0.01426878	-0.000489149	-0.000632781	0.008565227	0.0216822
	0.008234292	0.0218454	-0.000489149	-0.000632781	0.01723482	-0.01345781	-0.0003550937	-0.0006244982
	-0.0002308213	-0.0004385181	0.008565249	0.02168219	-0.0003550937	-0.0006244982	0.01745551	-0.01402718
7e+07	0.01630351	-0.01695524	-0.000433579	-0.0007491942	0.01077282	0.02477424	-0.0002929361	-0.0004890167
	-0.000433579	-0.0007491942	0.01686763	-0.01763791	-0.0005416074	-0.0007050933	0.01118369	0.02455083
	0.01077282	0.02477424	-0.0005416075	-0.0007050933	0.01650058	-0.01664421	-0.0004210351	-0.0006920495
	-0.0002929361	-0.0004890167	0.0111837	0.02455083	-0.0004210351	-0.0006920495	0.01690424	-0.01736479
8e+07	0.01513298	-0.02003169	-0.0005493193	-0.0007826209	0.01360104	0.02743211	-0.0003603878	-0.0005326771
	-0.0005493193	-0.0007826209	0.01592357	-0.02093413	-0.0006020173	-0.0007703955	0.01410223	0.02713233
	0.01360104	0.02743211	-0.0006020173	-0.0007703955	0.01538	-0.01972013	-0.0004954156	-0.0007497526
	-0.0003603878	-0.0005326771	0.01410223	0.02713233	-0.0004954156	-0.0007497526	0.01598411	-0.02063157
9e+07	0.0136147	-0.0229314	-0.0006660715	-0.0008002151	0.01669176	0.02979553	-0.0004327311	-0.0005693091
	-0.0006660715	-0.0008002151	0.01464921	-0.02409217	-0.0006698887	-0.0008289296	0.01729209	0.02940057
	0.01669176	0.02979553	-0.0006698887	-0.0008289296	0.01390918	-0.02262748	-0.0005840507	-0.0007929741
	-0.0004327311	-0.0005693091	0.01729209	0.02940058	-0.0005840507	-0.0007929741	0.01473539	-0.02376278
1e+08	0.01179759	-0.02557752	-0.0007791367	-0.0007965159	0.02001808	0.03184444	-0.0005087029	-0.0005979874
	-0.0007791367	-0.0007965159	0.01310779	-0.02703538	-0.0007438417	-0.0008793225	0.02072432	0.03133259
	0.02001808	0.03184444	-0.0007438417	-0.0008793225	0.01213403	-0.02529345	-0.000693343	-0.0008114625
	-0.0005087029	-0.0005979874	0.02072432	0.03133259	-0.000693343	-0.0008114625	0.01322067	-0.02668256
1.1e+08	0.009822174	-0.02802219	-0.0008719657	-0.0007955732	0.02354741	0.03355124	-0.0005871805	-0.000621386
	-0.0008719657	-0.0007955732	0.01140896	-0.02989512	-0.0008299486	-0.0009211431	0.02438443	0.03290478
	0.02354741	0.03355124	-0.0008299486	-0.0009211431	0.01018187	-0.02773589	-0.0007944498	-0.0008264451
	-0.0005871805	-0.000621386	0.02438443	0.03290478	-0.0007944498	-0.0008264451	0.01161043	-0.02951225
1.2e+08	0.007574777	-0.03024258	-0.000973	-0.0007941915	0.02723803	0.03490382	-0.0006707628	-0.0006386345
	-0.000973	-0.0007941915	0.009409939	-0.03256002	-0.0009239862	-0.0009579933	0.02818928	0.03408851
	0.02723803	0.03490382	-0.0009239862	-0.0009579933	0.007967981	-0.02996114	-0.0009021628	-0.0008362152
	-0.0006707628	-0.0006386345	0.02818928	0.0340885	-0.0009021628	-0.0008362152	0.009652467	-0.03218326
1.3e+08	0.005116091	-0.03216779	-0.001078372	-0.0007855493	0.03105718	0.03589331	-0.0007597133	-0.0006502549
	-0.001078372	-0.0007855493	0.00718842	-0.03497157	-0.001025094	-0.0009881147	0.03211454	0.03487876
	0.03105718	0.03589332	-0.001025094	-0.0009881147	0.005543206	-0.03189884	-0.001014016	-0.0008369351
	-0.0007597133	-0.0006502549	0.03211454	0.03487876	-0.001014016	-0.0008369351	0.007446506	-0.03459654
1.4e+08	0.002500295	-0.03376351	-0.001186556	-0.0007681059	0.03497021	0.03651266	-0.000851603	-0.0006533053
	-0.001186556	-0.0007681059	0.004796083	-0.03710788	-0.001132913	-0.001010626	0.03612708	0.03526961
	0.03497021	0.03651266	-0.001132913	-0.001010626	0.002958855	-0.03351167	-0.00112878	-0.0008276831
	-0.000851603	-0.0006533053	0.03612708	0.03526961	-0.00112878	-0.0008276831	0.005064283	-0.03672401
1.5e+08	-0.0002181959	-0.03500902	-0.001296408	-0.0007410423	0.03894247	0.03675766	-0.0009458222	-0.0006475555
	-0.001296408	-0.0007410423	0.002278535	-0.0389547	-0.001247124	-0.00102466	0.04019082	0.03525639
	0.03894247	0.03675766	-0.001247124	-0.00102466	0.0002690751	-0.03477699	-0.001245405	-0.0008079174
	-0.0009458222	-0.0006475555	0.04019082	0.03525638	-0.001245405	-0.0008079174	0.002559947	-0.03855566
1.6e+08	-0.002985272	-0.03589358	-0.001406845	-0.0007039326	0.04293947	0.03662754	-0.001041678	-0.0006328576
	-0.001406845	-0.0007039326	-0.0003209297	-0.04050313	-0.001367267	-0.001029388	0.04426848	0.03483707
	0.04293947	0.03662754	-0.001367267	-0.001029388	-0.002471787	-0.03568292	-0.001362901	-0.0007773423
	-0.001041678	-0.0006328576	0.04426848	0.03483706	-0.001362901	-0.0007773423	-2.026598e-05	-0.04008711
1.7e+08	-0.00574801	-0.03641481	-0.001516874	-0.0006565129	0.04692696	0.03612414	-0.001138493	-0.000609049
	-0.001516874	-0.0006565129	-0.00295951	-0.0417491	-0.001492774	-0.001024028	0.04832249	0.03401253
	0.04692696	0.03612414	-0.001492774	-0.001024028	-0.005210066	-0.03622678	-0.001480274	-0.000735761
	-0.001138493	-0.000609049	0.04832249	0.03401253	-0.001480274	-0.000735761	-0.002633924	-0.04131773
1.8e+08	-0.00845476	-0.03657728	-0.001625526	-0.0005987302	0.05087163	0.03525249	-0.001235557	-0.0005760098
	-0.001625526	-0.0005987302	-0.005595261	-0.04269397	-0.001623045	-0.001007673	0.05231543	0.03278679
	0.05087163	0.03525249	-0.001623045	-0.001007673	-0.007894186	-0.03641323	-0.001596612	-0.0006831814
	-0.001235557	-0.0005760098	0.05231543	0.03278679	-0.001596612	-0.0006831814	-0.005240333	-0.04225097
1.9e+08	-0.01105637	-0.03639234	-0.001731874	-0.0005305888	0.05474108	0.03402086	-0.001332178	-0.0005336554
	-0.001731874	-0.0005305888	-0.008186628	-0.04334425	-0.001757383	-0.0009793925	0.05621067	0.03116748
	0.05474108	0.03402086	-0.001757383	-0.0009793925	-0.01047459	-0.0362539	-0.001710939	-0.0006196207
	-0.001332178	-0.0005336554	0.05621067	0.03116748	-0.001710939	-0.0006196207	-0.007799715	-0.04289462
2e+08	-0.01350537	-0.03587733	-0.00183433	-0.0004522853	0.05850384	0.03243973	-0.001427593	-0.0004819858
	-0.00183433	-0.0004522853	-0.0106938	-0.04371216	-0.001904063	-0.0009227267	0.05997261	0.02916529
	0.05850384	0.03243973	-0.001904063	-0.0009227267	-0.01290463	-0.03576589	-0.001821726	-0.0005452716
	-0.001427593	-0.0004819858	0.05997261	0.02916528	-0.001821726	-0.0005452716	-0.01027329	-0.04326073
2.1e+08	-0.01575836	-0.03505494	-0.001932714	-0.0003640896	0.06213059	0.03052275	-0.001521087	-0.0004209946
	-0.001932714	-0.0003640896	-0.01307931	-0.04381453	-0.002050839	-0.000852327	0.06356689	0.02679401
	0.0621306	0.03052275	-0.002050839	-0.000852327	-0.01514021	-0.03497225	-0.001928748	-0.0004603771
	-0.001521087	-0.0004209946	0.06356689	0.02679401	-0.001928748	-0.0004603771	-0.01262496	-0.04336665
2.2e+08	-0.01777426	-0.03395313	-0.002026223	-0.0002662645	0.06559327	0.02828572	-0.001611916	-0.0003507329
	-0.002026223	-0.0002662645	-0.01530808	-0.04367366	-0.002196598	-0.0007676258	0.06696071	0.02407026
	0.06559327	0.02828572	-0.002196598	-0.0007676258	-0.01714124	-0.03390062	-0.00203117	-0.0003651732
	-0.001611916	-0.0003507329	0.06696071	0.02407026	-0.00203117	-0.0003651732	-0.01482089	-0.04323401
2.3e+08	-0.01951629	-0.03260461	-0.002114071	-0.0001592052	0.06886565	0.02574657	-0.001699344	-0.0002713331
	-0.002114071	-0.0001592052	-0.01734852	-0.04331585	-0.002340061	-0.0006683122	0.07012335	0.02101338
	0.06886565	0.02574657	-0.002340061	-0.0006683122	-0.018871	-0.03258346	-0.002128198	-0.0002600035
	-0.001699344	-0.0002713331	0.07012335	0.02101338	-0.002128198	-0.0002600035	-0.0168298	-0.04288847
2.4e+08	-0.02095196	-0.03104607	-0.002195554	-4.321949e-05	0.07192404	0.02292554	-0.001782632	-0.0001829794
	-0.002195554	-4.321945e-05	-0.01917296	-0.04277119	-0.002479885	-0.0005541225	0.07302588	0.0176453
	0.07192404	0.02292554	-0.002479885	-0.0005541225	-0.02029727	-0.03105729	-0.002219044	-0.0001452207
	-0.001782632	-0.0001829794	0.07302588	0.0176453	-0.002219044	-0.0001452207	-0.01862472	-0.04236016
2.5e+08	-0.02205309	-0.02931822	-0.002269983	8.119544e-05	0.07474659	0.01984435	-0.001861034	-8.584639e-05
	-0.002269983	8.119544e-05	-0.02075807	-0.04207336	-0.002614606	-0.0004249209	0.07564151	0.01399002
	0.07474659	0.01984435	-0.002614606	-0.0004249209	-0.02139188	-0.02936222	-0.002302993	-2.126896e-05
	-0.001861034	-8.584639e-05	0.07564151	0.01399002	-0.002302993	-2.126896e-05	-0.02018239	-0.04168184
2.6e+08	-0.02279691	-0.02746445	-0.00233669	0.0002135728	0.07731382	0.01652618	-0.001933848	1.973714e-05
	-0.00233669	0.0002135728	-0.02208484	-0.04125855	-0.00274274	-0.0002807466	0.07794625	0.01007378
	0.07731382	0.01652618	-0.00274274	-0.0002807466	-0.02213222	-0.02754177	-0.002379336	0.0001113955
	-0.001933848	1.973714e-05	0.07794625	0.01007378	-0.002379336	0.0001113955	-0.02148414	-0.04088981
2.7e+08	-0.02316525	-0.0255313	-0.002395066	0.0003534082	0.07960866	0.01299577	-0.002000344	0.0001335235
	-0.002395066	0.0003534082	-0.02313896	-0.0403652	-0.002862748	-0.0001219027	0.0799179	0.005924495
	0.07960866	0.01299577	-0.002862748	-0.0001219027	-0.02250019	-0.02564156	-0.002447403	0.0002522782
	-0.002000344	0.0001335235	0.0799179	0.005924495	-0.002447403	0.0002522782	-0.02251576	-0.04002212
2.8e+08	-0.02314579	-0.0235672	-0.002444544	0.00050016	0.08161661	0.009278556	-0.002059822	0.0002550844
	-0.002444544	0.00050016	-0.02391148	-0.0394335	-0.002973059	5.128173e-05	0.08153723	0.001571672
	0.08161661	0.009278556	-0.002973059	5.128173e-05	-0.02248338	-0.0237095	-0.002506574	0.0004008036
	-0.002059822	0.0002550844	0.08153723	0.001571672	-0.002506574	0.0004008036	-0.02326836	-0.03911835
2.9e+08	-0.02273225	-0.02162168	-0.002484573	0.0006532144	0.08332544	0.005401115	-0.002111611	0.0003839951
	-0.002484573	0.0006532144	-0.02439821	-0.03850441	-0.00307213	0.0002382373	0.08278773	-0.002953761
	0.08332544	0.005401115	-0.00307213	0.0002382373	-0.02207521	-0.02179508	-0.002556247	0.0005564458
	-0.002111611	0.0003839951	0.08278773	-0.002953761	-0.002556247	0.0005564458	-0.02373795	-0.03821971
3e+08	-0.02192338	-0.01974545	-0.002514641	0.0008119675	0.08472528	0.001390083	-0.002155068	0.0005197837
	-0.002514641	0.0008119675	-0.02460023	-0.03761929	-0.00315845	0.0004381619	0.08365518	-0.007619742
	0.08472528	0.001390083	-0.00315845	0.0004381619	-0.02127415	-0.01994846	-0.002595849	0.0007185873
	-0.002155068	0.0005197837	0.08365518	-0.007619742	-0.002595849	0.0007185873	-0.02392548	-0.03736732
3.1e+08	-0.020724	-0.0179891	-0.002534308	0.0009757787	0.08580918	-0.002726877	-0.002189533	0.0006619697
	-0.002534308	0.0009757787	-0.02452362	-0.03681927	-0.003230511	0.0006501683	0.08412854	-0.01239338
	0.08580918	-0.002726877	-0.003230511	0.0006501683	-0.0200851	-0.01822021	-0.002624895	0.0008865202
	-0.002189533	0.0006619697	0.08412854	-0.01239338	-0.002624895	0.0008865202	-0.0238373	-0.03660269
3.2e+08	-0.01914505	-0.0164032	-0.002543125	0.001143997	0.08657247	-0.006922514	-0.002214425	0.0008099055
	-0.002543125	0.001143997	-0.02417961	-0.03614518	-0.003286966	0.0008730287	0.08419953	-0.01724103
	0.08657247	-0.006922514	-0.003286966	0.0008730287	-0.01851842	-0.01666013	-0.002642878	0.001059592
	-0.002214425	0.0008099055	0.08419953	-0.01724103	-0.002642878	0.001059592	-0.02348503	-0.03596567
3.3e+08	-0.0172027	-0.01503697	-0.002540694	0.001315939	0.08701242	-0.01116939	-0.002229151	0.0009629899
	-0.002540694	0.001315939	-0.02358427	-0.0356362	-0.003326484	0.001105561	0.08386239	-0.02212845
	0.08701242	-0.01116939	-0.003326484	0.001105561	-0.01659005	-0.01531755	-0.002649352	0.001237106
	-0.002229151	0.0009629899	0.08386239	-0.02212845	-0.002649352	0.001237106	-0.02288499	-0.03549594
3.4e+08	-0.01491924	-0.01393817	-0.002526674	0.001490883	0.08712948	-0.01544018	-0.002233195	0.001120562
	-0.002526674	0.001490883	-0.02275882	-0.0353297	-0.003347936	0.001346202	0.08311467	-0.02702141
	0.08712948	-0.01544018	-0.003347936	0.001346202	-0.01432184	-0.01423956	-0.00264392	0.001418347
	-0.002233195	0.001120562	0.08311467	-0.02702141	-0.00264392	0.001418347	-0.02205836	-0.03523026
3.5e+08	-0.01232212	-0.01315183	-0.00250074	0.001668049	0.08692591	-0.01970844	-0.002226046	0.001281858
	-0.00250074	0.001668049	-0.02172881	-0.0352607	-0.003350356	0.001593348	0.0819563	-0.03188534
	0.08692591	-0.01970844	-0.003350356	0.001593348	-0.01174096	-0.01347213	-0.002626226	0.001602499
	-0.002226046	0.001281858	0.0819563	-0.03188534	-0.002626226	0.001602499	-0.02103121	-0.03520409
3.6e+08	-0.009444229	-0.01272105	-0.002462641	0.001846689	0.08640634	-0.02394798	-0.002207286	0.001446092
	-0.002462641	0.001846689	-0.02052424	-0.03546163	-0.003332831	0.001845342	0.0803905	-0.03668589
	0.08640634	-0.02394798	-0.003332831	0.001845342	-0.008879724	-0.01305718	-0.002595976	0.001788772
	-0.002207286	0.001446092	0.0803905	-0.03668589	-0.002595976	0.001788772	-0.01983378	-0.03544902
3.7e+08	-0.006323107	-0.01268483	-0.002412091	0.002026044	0.08557763	-0.02813354	-0.002176469	0.001612513
	-0.002412091	0.002026044	-0.01917894	-0.03596103	-0.00329471	0.002100354	0.07842316	-0.04138947
	0.08557763	-0.02813354	-0.00329471	0.002100354	-0.005775326	-0.01303413	-0.002552845	0.00197642
	-0.002176469	0.001612513	0.07842316	-0.04138947	-0.002552845	0.00197642	-0.01850012	-0.03599347
3.8e+08	-0.003000776	-0.01307827	-0.002348933	0.00220527	0.08444854	-0.03224098	-0.002133292	0.001780197
	-0.002348933	0.00220527	-0.01773041	-0.03678419	-0.003235579	0.0023564	0.07606267	-0.04596268
	0.08444854	-0.03224098	-0.003235579	0.0023564	-0.002469433	-0.01343871	-0.002496633	0.002164548
	-0.002133292	0.001780197	0.07606267	-0.04596268	-0.002496633	0.002164548	-0.01706818	-0.0368627
3.9e+08	0.0004757537	-0.01393286	-0.002273016	0.002383546	0.08303022	-0.03624725	-0.002077443	0.001948266
	-0.002273016	0.002383546	-0.0162203	-0.03795201	-0.003155206	0.002611519	0.07332082	-0.05037323
	0.08303022	-0.03624725	-0.003155206	0.002611519	0.0009913906	-0.01430113	-0.002427164	0.002352322
	-0.002077443	0.001948266	0.07332082	-0.05037323	-0.002427164	0.002352322	-0.01557938	-0.0380764
4e+08	0.004056188	-0.01527433	-0.002184242	0.002560013	0.08133533	-0.04013065	-0.002008698	0.002115766
	-0.002184242	0.002560013	-0.01469238	-0.03948071	-0.003053489	0.002863764	0.07021148	-0.05458992
	0.08133533	-0.04013065	-0.003053489	0.002863764	0.004557526	-0.01564859	-0.002344245	0.002538895
	-0.002008698	0.002115766	0.07021148	-0.05458992	-0.002344245	0.002538895	-0.01407759	-0.03965118
4.1e+08	0.007687663	-0.01712371	-0.002082533	0.002733812	0.07937829	-0.04387069	-0.001926905	0.002281726
	-0.002082533	0.002733812	-0.01319211	-0.04138172	-0.00293076	0.003111029	0.06675131	-0.05858259
	0.07937829	-0.04387069	-0.00293076	0.003111029	0.008176265	-0.01750175	-0.002247883	0.002723305
	-0.001926905	0.002281726	0.06675131	-0.05858259	-0.002247883	0.002723305	-0.01260882	-0.04159778
4.2e+08	0.01131344	-0.01949608	-0.00196791	0.002904044	0.07717531	-0.04744926	-0.00183203	0.00244514
	-0.00196791	0.002904044	-0.01176846	-0.04366098	-0.002787315	0.003351451	0.06295968	-0.06232305
	0.07717531	-0.04744926	-0.002787315	0.003351451	0.01179116	-0.01987604	-0.002138004	0.002904679
	-0.00183203	0.00244514	0.06295968	-0.06232305	-0.002138004	0.002904679	-0.01122188	-0.04392156
4.3e+08	0.01487561	-0.02240071	-0.001840409	0.00306982	0.0747438	-0.05084922	-0.00172395	0.002605024
	-0.001840409	0.00306982	-0.01047039	-0.04631916	-0.002623927	0.003583006	0.05885781	-0.06578462
	0.0747438	-0.05084922	-0.002623927	0.003583006	0.01534448	-0.02278113	-0.002014567	0.003082137
	-0.00172395	0.002605024	0.05885781	-0.06578462	-0.002014567	0.003082137	-0.009965582	-0.04662295
4.4e+08	0.01831449	-0.02584066	-0.001700144	0.003230205	0.07210222	-0.05405582	-0.001602793	0.002760309
	-0.001700144	0.003230205	-0.009347528	-0.04935157	-0.002441368	0.003803915	0.05446951	-0.0689425
	0.07210222	-0.05405582	-0.002441368	0.003803915	0.01877706	-0.02622045	-0.001877757	0.003254658
	-0.001602793	0.002760309	0.05446951	-0.0689425	-0.001877757	0.003254658	-0.008889898	-0.04969656
4.5e+08	0.02156907	-0.02981254	-0.00154728	0.003384297	0.06927066	-0.05705614	-0.001468757	0.002909927
	-0.00154728	0.003384297	-0.008450463	-0.05274705	-0.002240626	0.004012515	0.04982058	-0.0717742
	0.06927066	-0.05705614	-0.002240626	0.004012515	0.02202809	-0.03019096	-0.001727717	0.003421324
	-0.001468757	0.002909927	0.04982058	-0.0717742	-0.001727717	0.003421324	-0.008045245	-0.05313089
4.6e+08	0.02457837	-0.03430667	-0.001382122	0.003531112	0.06626964	-0.05983963	-0.001322035	0.003052844
	-0.001382122	0.003531112	-0.007829117	-0.0564891	-0.002023066	0.004207129	0.0449386	-0.07425945
	0.06626964	-0.05983963	-0.002023066	0.004207129	0.02503681	-0.03468351	-0.0015645	0.003581219
	-0.001322035	0.003052844	0.0449386	-0.07425945	-0.0015645	0.003581219	-0.007480892	-0.05690927
4.7e+08	0.02728282	-0.03930603	-0.001204893	0.003669751	0.06312021	-0.06239755	-0.001163009	0.003187985
	-0.001204893	0.003669751	-0.007530586	-0.06055514	-0.001790069	0.004386337	0.03985255	-0.07638076
	0.06312021	-0.06239755	-0.001790069	0.004386337	0.02774345	-0.03968181	-0.001388516	0.003733349
	-0.001163009	0.003187985	0.03985255	-0.07638076	-0.001388516	0.003733349	-0.007244975	-0.06100843
4.8e+08	0.02962307	-0.0447885	-0.001015968	0.003799288	0.05984402	-0.0647236	-0.0009920455	0.003314328
	-0.001015968	0.003799288	-0.007602097	-0.06491766	-0.001543023	0.004548995	0.03459312	-0.07812292
	0.05984402	-0.0647236	-0.001543023	0.004548995	0.03008921	-0.04516339	-0.001200007	0.003876769
	-0.0009920455	0.003314328	0.03459312	-0.07812292	-0.001200007	0.003876769	-0.007383444	-0.06539994
