!$
! Info: Touchstone file created by Circ.  Input file=Intel_C2M_200G_2p0in_202208016_staggered.circ
!$
# Hz S RI R 50
0	0.01106342	1.727571e-24	3.369418e-05	3.19307e-23	7.785279e-05	2.256861e-22	3.36864e-05	3.185273e-23
	3.369418e-05	3.19307e-23	0.01107668	1.978029e-24	3.369903e-05	3.19628e-23	7.744081e-05	2.247415e-22
	7.791132e-05	2.258149e-22	3.369902e-05	3.196361e-23	0.01105819	1.778239e-24	3.368913e-05	3.187987e-23
	3.368639e-05	3.185355e-23	7.749933e-05	2.248706e-22	3.368913e-05	3.187987e-23	0.0110746	1.88028e-24
1e+07	0.01339908	8.196497e-05	1.301201e-06	1.073458e-05	0.0007877361	0.004070975	4.76348e-06	1.066041e-05
	1.301201e-06	1.073457e-05	0.01349389	7.941939e-05	9.130893e-07	2.975396e-06	0.0007931459	0.004131691
	0.0007877361	0.004070975	9.130893e-07	2.975396e-06	0.01347077	0.0001284538	1.270723e-06	1.024497e-05
	4.76348e-06	1.066041e-05	0.0007931459	0.004131691	1.270723e-06	1.024497e-05	0.01342581	0.000109709
2e+07	0.01525021	-0.001776788	1.54071e-06	6.178902e-06	0.001595572	0.007794182	2.718542e-06	7.571428e-06
	1.540709e-06	6.178935e-06	0.01533586	-0.001814548	5.82112e-06	6.790188e-06	0.001607497	0.007914275
	0.001595584	0.007794171	5.821121e-06	6.790188e-06	0.01532162	-0.00171565	1.028103e-06	5.398779e-06
	2.718542e-06	7.571428e-06	0.001607508	0.007914263	1.028103e-06	5.398778e-06	0.01528637	-0.00172784
3e+07	0.01656467	-0.004437897	2.78347e-06	4.970173e-06	0.002740871	0.01147539	1.333277e-06	7.198493e-06
	2.78347e-06	4.970173e-06	0.01663848	-0.004498907	1.087267e-05	8.471379e-06	0.002762371	0.01165294
	0.002740837	0.01147542	1.087267e-05	8.471379e-06	0.01663002	-0.004344606	1.900037e-06	4.165869e-06
	1.333277e-06	7.198493e-06	0.002762337	0.01165297	1.900037e-06	4.165869e-06	0.016599	-0.004366936
4e+07	0.01730694	-0.007531653	3.797943e-06	4.06776e-06	0.004300294	0.01496907	2.975478e-06	6.493654e-06
	3.797943e-06	4.06776e-06	0.0173649	-0.007612879	1.50063e-05	8.129678e-06	0.004334112	0.01520199
	0.004300285	0.01496909	1.50063e-05	8.129678e-06	0.01737388	-0.007404824	2.609795e-06	3.338309e-06
	2.975478e-06	6.493654e-06	0.004334103	0.01520201	2.609795e-06	3.338309e-06	0.01734182	-0.007441187
5e+07	0.01757578	-0.01080219	4.619615e-06	3.190854e-06	0.006225233	0.01826945	4.429817e-06	5.642072e-06
	4.619615e-06	3.190854e-06	0.01761404	-0.01090103	1.840335e-05	6.662941e-06	0.006273908	0.01855534
	0.006225233	0.01826945	1.840335e-05	6.662941e-06	0.01764691	-0.01064157	3.179592e-06	2.597364e-06
	4.429817e-06	5.642072e-06	0.006273908	0.01855535	3.179592e-06	2.597364e-06	0.01760912	-0.01069321
6e+07	0.01742563	-0.01415509	5.260505e-06	2.27271e-06	0.008499453	0.02134612	5.634935e-06	4.63442e-06
	5.260504e-06	2.27271e-06	0.01744066	-0.01426878	2.11389e-05	4.433905e-06	0.008565227	0.0216822
	0.008499474	0.02134612	2.11389e-05	4.433905e-06	0.01750328	-0.01396028	3.617086e-06	1.863074e-06
	5.634935e-06	4.63442e-06	0.008565249	0.02168219	3.617086e-06	1.863074e-06	0.01745551	-0.01402718
7e+07	0.016879	-0.01751234	5.722465e-06	1.297388e-06	0.01109895	0.02416777	6.598176e-06	3.475324e-06
	5.722465e-06	1.297388e-06	0.01686763	-0.01763791	2.32325e-05	1.623279e-06	0.01118369	0.02455083
	0.01109895	0.02416777	2.32325e-05	1.623279e-06	0.01696576	-0.01728345	3.921842e-06	1.109509e-06
	6.598176e-06	3.475324e-06	0.0111837	0.02455083	3.921842e-06	1.109508e-06	0.01690424	-0.01736479
8e+07	0.01596402	-0.02079999	5.998895e-06	2.61287e-07	0.0139971	0.02670584	7.31359e-06	2.169354e-06
	5.998895e-06	2.61287e-07	0.01592357	-0.02093413	2.466945e-05	-1.675093e-06	0.01410223	0.02713233
	0.0139971	0.02670584	2.466945e-05	-1.675093e-06	0.01606266	-0.02053727	4.088153e-06	3.286235e-07
	7.31359e-06	2.169354e-06	0.01410223	0.02713233	4.088153e-06	3.286235e-07	0.01598411	-0.02063157
9e+07	0.01472073	-0.02395306	6.069581e-06	-8.443764e-07	0.01716565	0.02893449	7.755262e-06	7.018582e-07
	6.069581e-06	-8.443764e-07	0.01464921	-0.02409217	2.538448e-05	-5.457307e-06	0.01729209	0.02940057
	0.01716565	0.0289345	2.538448e-05	-5.457307e-06	0.01483376	-0.02365722	4.100845e-06	-4.864644e-07
	7.755262e-06	7.018582e-07	0.01729209	0.02940058	4.100845e-06	-4.864644e-07	0.01473539	-0.02376278
1e+08	0.01321138	-0.02689538	5.825073e-06	-2.120283e-06	0.02057626	0.03083108	7.776146e-06	-1.105454e-06
	5.825073e-06	-2.120283e-06	0.01310779	-0.02703538	2.498855e-05	-1.01837e-05	0.02072432	0.03133259
	0.02057626	0.03083108	2.498855e-05	-1.01837e-05	0.01334115	-0.02656731	3.878958e-06	-1.399085e-06
	7.776146e-06	-1.105454e-06	0.02072432	0.03133259	3.878958e-06	-1.399084e-06	0.01322067	-0.02668256
1.1e+08	0.01154615	-0.02975689	4.997664e-06	-2.905491e-06	0.02421542	0.03237164	6.846328e-06	-2.291893e-06
	4.997664e-06	-2.905491e-06	0.01140896	-0.02989512	2.203338e-05	-1.326606e-05	0.02438443	0.03290478
	0.02421542	0.03237164	2.203338e-05	-1.326606e-05	0.01175813	-0.02939057	3.270619e-06	-1.941361e-06
	6.846328e-06	-2.291893e-06	0.02438443	0.03290478	3.270619e-06	-1.941361e-06	0.01161043	-0.02951225
1.2e+08	0.009582515	-0.03242713	4.32201e-06	-3.404397e-06	0.02800013	0.03352759	6.091649e-06	-3.027168e-06
	4.32201e-06	-3.404397e-06	0.009409939	-0.03256002	2.005709e-05	-1.444067e-05	0.02818928	0.03408851
	0.02800013	0.03352759	2.005709e-05	-1.444067e-05	0.009828985	-0.03205965	2.779639e-06	-2.290462e-06
	6.091649e-06	-3.027168e-06	0.02818928	0.0340885	2.779639e-06	-2.290462e-06	0.009652467	-0.03218326
1.3e+08	0.007397296	-0.03484801	3.724285e-06	-3.798401e-06	0.03190665	0.03429399	5.392219e-06	-3.564238e-06
	3.724285e-06	-3.798401e-06	0.00718842	-0.03497157	1.933803e-05	-1.387713e-05	0.03211454	0.03487876
	0.03190665	0.03429399	1.933803e-05	-1.387713e-05	0.007652756	-0.03447492	2.355352e-06	-2.576965e-06
	5.392219e-06	-3.564238e-06	0.03211454	0.03487876	2.355352e-06	-2.576965e-06	0.007446506	-0.03459654
1.4e+08	0.005041533	-0.03699773	3.177402e-06	-4.056911e-06	0.0359024	0.0346648	4.731114e-06	-3.963562e-06
	3.177402e-06	-4.056911e-06	0.004796083	-0.03710788	1.856735e-05	-1.3496e-05	0.03612708	0.03526961
	0.0359024	0.0346648	1.856735e-05	-1.3496e-05	0.005300583	-0.0366081	1.947088e-06	-2.788136e-06
	4.731114e-06	-3.963562e-06	0.03612708	0.03526961	1.947088e-06	-2.788136e-06	0.005064283	-0.03672401
1.5e+08	0.002560231	-0.03886191	2.956017e-06	-3.930108e-06	0.03995185	0.03463521	4.10936e-06	-4.267427e-06
	2.956017e-06	-3.930108e-06	0.002278535	-0.0389547	1.777021e-05	-1.322951e-05	0.04019082	0.03525639
	0.03995185	0.03463521	1.777021e-05	-1.322951e-05	0.002826092	-0.03844905	1.551242e-06	-2.937472e-06
	4.10936e-06	-4.267427e-06	0.04019082	0.03525638	1.551242e-06	-2.937472e-06	0.002559947	-0.03855566
1.6e+08	-3.884748e-06	-0.04043154	2.730364e-06	-3.823324e-06	0.04401823	0.03420296	3.6269e-06	-4.395732e-06
	2.730364e-06	-3.823324e-06	-0.0003209297	-0.04050313	1.695468e-05	-1.303323e-05	0.04426848	0.03483707
	0.04401823	0.03420296	1.695468e-05	-1.303323e-05	0.0002749962	-0.03999314	1.381959e-06	-2.848024e-06
	3.6269e-06	-4.395732e-06	0.04426848	0.03483706	1.381959e-06	-2.848024e-06	-2.026598e-05	-0.04008711
1.7e+08	-0.00260856	-0.04170231	2.506697e-06	-3.737601e-06	0.04806445	0.03336862	3.427895e-06	-4.257732e-06
	2.506697e-06	-3.737601e-06	-0.00295951	-0.0417491	1.612328e-05	-1.287475e-05	0.04832249	0.03401253
	0.04806445	0.03336862	1.612328e-05	-1.287475e-05	-0.002310756	-0.04123951	1.218438e-06	-2.775645e-06
	3.427895e-06	-4.257732e-06	0.04832249	0.03401253	1.218438e-06	-2.775645e-06	-0.002633924	-0.04131773
1.8e+08	-0.005212349	-0.04267525	2.279369e-06	-3.65586e-06	0.05205357	0.03213586	3.22553e-06	-4.135475e-06
	2.279369e-06	-3.65586e-06	-0.005595261	-0.04269397	1.528178e-05	-1.273377e-05	0.05231543	0.03278679
	0.05205357	0.03213586	1.528178e-05	-1.273377e-05	-0.004890953	-0.04219133	1.051977e-06	-2.705488e-06
	3.22553e-06	-4.135475e-06	0.05231543	0.03278679	1.051977e-06	-2.705488e-06	-0.005240333	-0.04225097
1.9e+08	-0.007774123	-0.04335645	2.049852e-06	-3.574356e-06	0.05594936	0.03051189	3.02141e-06	-4.023661e-06
	2.049852e-06	-3.574356e-06	-0.008186628	-0.04334425	1.443476e-05	-1.259632e-05	0.05621067	0.03116748
	0.05594936	0.03051189	1.443476e-05	-1.259632e-05	-0.0074262	-0.0428559	8.837271e-07	-2.634152e-06
	3.02141e-06	-4.023661e-06	0.05621067	0.03116748	8.837271e-07	-2.634152e-06	-0.007799715	-0.04289462
2e+08	-0.01025427	-0.04375763	1.819523e-06	-3.489592e-06	0.05971662	0.02850696	2.816736e-06	-3.917868e-06
	1.819523e-06	-3.489592e-06	-0.0106938	-0.04371216	1.358577e-05	-1.245278e-05	0.05997261	0.02916529
	0.05971662	0.02850695	1.358577e-05	-1.245278e-05	-0.009878196	-0.0432449	7.147472e-07	-2.559881e-06
	2.816736e-06	-3.917868e-06	0.05997261	0.02916528	7.147472e-07	-2.559881e-06	-0.01027329	-0.04326073
2.1e+08	-0.01261579	-0.04389517	1.589793e-06	-3.399597e-06	0.06332128	0.02613436	2.61267e-06	-3.815197e-06
	1.589793e-06	-3.399597e-06	-0.01307931	-0.04381453	1.273916e-05	-1.229668e-05	0.06356689	0.02679401
	0.06332128	0.02613436	1.273916e-05	-1.229668e-05	-0.01221099	-0.04337507	5.463318e-07	-2.481008e-06
	2.61267e-06	-3.815197e-06	0.06356689	0.02679401	5.463318e-07	-2.481008e-06	-0.01262496	-0.04336665
2.2e+08	-0.01482377	-0.04379077	1.361983e-06	-3.302834e-06	0.0667308	0.02341015	2.410223e-06	-3.713446e-06
	1.361983e-06	-3.302834e-06	-0.01530808	-0.04367366	1.189824e-05	-1.212294e-05	0.06696071	0.02407026
	0.0667308	0.02341015	1.189824e-05	-1.212294e-05	-0.01439093	-0.04326748	3.795573e-07	-2.396456e-06
	2.410223e-06	-3.713446e-06	0.06696071	0.02407026	3.795573e-07	-2.396456e-06	-0.01482089	-0.04323401
2.3e+08	-0.01684679	-0.04347015	1.137357e-06	-3.198199e-06	0.0699147	0.02035315	2.210309e-06	-3.610955e-06
	1.137357e-06	-3.198199e-06	-0.01734852	-0.04331585	1.106608e-05	-1.192784e-05	0.07012335	0.02101338
	0.0699147	0.02035315	1.106608e-05	-1.192784e-05	-0.0163868	-0.04294721	2.154476e-07	-2.305469e-06
	2.210309e-06	-3.610955e-06	0.07012335	0.02101338	2.154476e-07	-2.305469e-06	-0.0168298	-0.04288847
2.4e+08	-0.01865716	-0.04296278	9.171396e-07	-3.08493e-06	0.07284417	0.01698469	2.013791e-06	-3.506488e-06
	9.171396e-07	-3.08493e-06	-0.01917296	-0.04277119	1.024562e-05	-1.170878e-05	0.07302588	0.0176453
	0.07284417	0.01698469	1.024562e-05	-1.170878e-05	-0.01817167	-0.04244376	5.500683e-08	-2.207557e-06
	2.013791e-06	-3.506488e-06	0.07302588	0.0176453	5.500683e-08	-2.207557e-06	-0.01862472	-0.04236016
2.5e+08	-0.02023151	-0.04230174	7.025247e-07	-2.96256e-06	0.07549253	0.01332818	1.821465e-06	-3.399142e-06
	7.025247e-07	-2.96256e-06	-0.02075807	-0.04207336	9.439584e-06	-1.146395e-05	0.07564151	0.01399002
	0.07549253	0.01332818	9.439584e-06	-1.146395e-05	-0.01972215	-0.04178928	-1.008101e-07	-2.102437e-06
	1.821465e-06	-3.399142e-06	0.07564151	0.01399002	-1.008101e-07	-2.102437e-06	-0.02018239	-0.04168184
2.6e+08	-0.02155068	-0.0415226	4.946448e-07	-2.830869e-06	0.07783582	0.009409243	1.634071e-06	-3.288278e-06
	4.946448e-07	-2.830869e-06	-0.02208484	-0.04125855	8.650547e-06	-1.119218e-05	0.07794625	0.01007378
	0.07783582	0.009409243	8.650547e-06	-1.119218e-05	-0.02101935	-0.04101942	-2.51094e-07	-1.990028e-06
	1.634071e-06	-3.288278e-06	0.07794625	0.01007378	-2.51094e-07	-1.990028e-06	-0.02148414	-0.04088981
2.7e+08	-0.02260009	-0.04066323	2.945944e-07	-2.689837e-06	0.07985183	0.005255192	1.452289e-06	-3.17348e-06
	2.945944e-07	-2.689837e-06	-0.02313896	-0.0403652	7.880936e-06	-1.08929e-05	0.0799179	0.005924495
	0.07985183	0.005255192	7.880936e-06	-1.08929e-05	-0.02204878	-0.04017168	-3.949872e-07	-1.870411e-06
	1.452289e-06	-3.17348e-06	0.0799179	0.005924495	-3.949872e-07	-1.870411e-06	-0.02251576	-0.04002212
2.8e+08	-0.02337049	-0.03976325	1.034116e-07	-2.539658e-06	0.08152122	0.0008948912	1.276764e-06	-3.05452e-06
	1.034116e-07	-2.539658e-06	-0.02391148	-0.0394335	7.133062e-06	-1.056598e-05	0.08153723	0.001571672
	0.08152122	0.0008948911	7.133062e-06	-1.056598e-05	-0.02280117	-0.03928504	-5.316776e-07	-1.743808e-06
	1.276764e-06	-3.05452e-06	0.08153723	0.001571672	-5.316776e-07	-1.743808e-06	-0.02326836	-0.03911835
2.9e+08	-0.02385724	-0.0388631	-7.793111e-08	-2.380688e-06	0.08282736	-0.003641343	1.108087e-06	-2.931328e-06
	-7.793111e-08	-2.380688e-06	-0.02439821	-0.03850441	6.409098e-06	-1.021171e-05	0.08278773	-0.002953761
	0.08282736	-0.003641343	6.409098e-06	-1.021171e-05	-0.02327199	-0.03840026	-6.604231e-07	-1.610575e-06
	1.108087e-06	-2.931328e-06	0.08278773	-0.002953761	-6.604231e-07	-1.610575e-06	-0.02373795	-0.03821971
3e+08	-0.02406097	-0.03800371	-2.485375e-07	-2.213425e-06	0.08375583	-0.008322044	9.467878e-07	-2.803953e-06
	-2.485375e-07	-2.213425e-06	-0.02460023	-0.03761929	5.711077e-06	-9.830645e-06	0.08365518	-0.007619742
	0.08375583	-0.008322044	5.711077e-06	-9.830645e-06	-0.02346165	-0.03755798	-7.805433e-07	-1.471169e-06
	9.467878e-07	-2.803953e-06	0.08365518	-0.007619742	-7.805433e-07	-1.471169e-06	-0.02392548	-0.03736732
3.1e+08	-0.02398714	-0.03722579	-4.076042e-07	-2.038514e-06	0.0842953	-0.01311491	7.9335e-07	-2.67257e-06
	-4.076042e-07	-2.038514e-06	-0.02452362	-0.03681927	5.040881e-06	-9.423693e-06	0.08412854	-0.01239338
	0.0842953	-0.01311491	5.040881e-06	-9.423693e-06	-0.02337583	-0.03679931	-8.914368e-07	-1.326151e-06
	7.9335e-07	-2.67257e-06	0.08412854	-0.01239338	-8.914368e-07	-1.326151e-06	-0.0238373	-0.03660269
3.2e+08	-0.02364639	-0.03656982	-5.54403e-07	-1.85671e-06	0.08443722	-0.01798689	6.481921e-07	-2.537444e-06
	-5.54403e-07	-1.85671e-06	-0.02417961	-0.03614518	4.400262e-06	-8.99199e-06	0.08419953	-0.01724103
	0.08443722	-0.01798689	4.400262e-06	-8.99199e-06	-0.02302544	-0.03616385	-9.925983e-07	-1.176164e-06
	6.481921e-07	-2.537444e-06	0.08419953	-0.01724103	-9.925983e-07	-1.176164e-06	-0.02348503	-0.03596567
3.3e+08	-0.02305404	-0.03607474	-6.883112e-07	-1.668854e-06	0.0841754	-0.02290427	5.116772e-07	-2.398904e-06
	-6.883112e-07	-1.668854e-06	-0.02358427	-0.0356362	3.790827e-06	-8.53682e-06	0.08386239	-0.02212845
	0.0841754	-0.02290427	3.790827e-06	-8.53682e-06	-0.02242598	-0.03569106	-1.083581e-06	-1.021913e-06
	5.116772e-07	-2.398904e-06	0.08386239	-0.02212845	-1.083581e-06	-1.021913e-06	-0.02288499	-0.03549594
3.4e+08	-0.02223063	-0.03577778	-8.088181e-07	-1.4759e-06	0.08350697	-0.02783335	3.841066e-07	-2.257369e-06
	-8.088181e-07	-1.4759e-06	-0.02275882	-0.0353297	3.214044e-06	-8.059741e-06	0.08311467	-0.02702141
	0.08350697	-0.02783335	3.214044e-06	-8.059741e-06	-0.02159782	-0.03541762	-1.164047e-06	-8.641559e-07
	3.841066e-07	-2.257369e-06	0.08311467	-0.02702141	-1.164047e-06	-8.641559e-07	-0.02205836	-0.03523026
3.5e+08	-0.02120086	-0.03571387	-9.15532e-07	-1.278842e-06	0.08243141	-0.03274009	2.657189e-07	-2.113291e-06
	-9.15532e-07	-1.278842e-06	-0.02172881	-0.0352607	2.671234e-06	-7.562409e-06	0.0819563	-0.03188534
	0.08243141	-0.03274009	2.671234e-06	-7.562409e-06	-0.0205661	-0.03537898	-1.233734e-06	-7.036966e-07
	2.657189e-07	-2.113291e-06	0.0819563	-0.03188534	-1.233734e-06	-7.036966e-07	-0.02103121	-0.03520409
3.6e+08	-0.01999395	-0.03591547	-1.008163e-06	-1.078751e-06	0.08095137	-0.03759054	1.566838e-07	-1.967177e-06
	-1.008163e-06	-1.078751e-06	-0.02052424	-0.03546163	2.163558e-06	-7.046648e-06	0.0803905	-0.03668589
	0.08095137	-0.03759054	2.163558e-06	-7.046648e-06	-0.01936018	-0.03560689	-1.292496e-06	-5.413653e-07
	1.566838e-07	-1.967177e-06	0.0803905	-0.03668589	-1.292496e-06	-5.413653e-07	-0.01983378	-0.03544902
3.7e+08	-0.01864287	-0.03641129	-1.086559e-06	-8.767086e-07	0.07907214	-0.04235153	5.710635e-08	-1.819552e-06
	-1.086559e-06	-8.767086e-07	-0.01917894	-0.03596103	1.69202e-06	-6.514372e-06	0.07842316	-0.04138947
	0.07907214	-0.04235153	1.69202e-06	-6.514372e-06	-0.01801318	-0.03613	-1.34027e-06	-3.77995e-07
	5.710635e-08	-1.819552e-06	0.07842316	-0.04138947	-1.34027e-06	-3.77995e-07	-0.01850012	-0.03599347
3.8e+08	-0.01718426	-0.03722685	-1.150679e-06	-6.738225e-07	0.07680149	-0.04699004	-3.296919e-08	-1.670962e-06
	-1.150679e-06	-6.738225e-07	-0.01773041	-0.03678419	1.257486e-06	-5.96759e-06	0.07606267	-0.04596268
	0.07680149	-0.04699004	1.257486e-06	-5.96759e-06	-0.0165621	-0.03697399	-1.377071e-06	-2.144303e-07
	-3.296919e-08	-1.670962e-06	0.07606267	-0.04596268	-1.377071e-06	-2.144303e-07	-0.01706818	-0.0368627
3.9e+08	-0.01565895	-0.03838342	-1.200617e-06	-4.712212e-07	0.07415054	-0.05147405	-1.135657e-07	-1.521982e-06
	-1.200617e-06	-4.712212e-07	-0.0162203	-0.03795201	8.606644e-07	-5.408458e-06	0.07332082	-0.05037323
	0.07415054	-0.05147405	8.606644e-07	-5.408458e-06	-0.01504746	-0.03815907	-1.403028e-06	-5.150992e-08
	-1.135657e-07	-1.521982e-06	0.07332082	-0.05037323	-1.403028e-06	-5.150992e-08	-0.01557938	-0.0380764
4e+08	-0.01410986	-0.03989774	-1.236578e-06	-2.700081e-07	0.07113242	-0.05577262	-1.847638e-07	-1.37317e-06
	-1.236578e-06	-2.700081e-07	-0.01469238	-0.03948071	5.021228e-07	-4.839152e-06	0.07021148	-0.05458992
	0.07113242	-0.05577262	5.021228e-07	-4.839152e-06	-0.01351226	-0.03970249	-1.418334e-06	1.09955e-07
	-1.847638e-07	-1.37317e-06	0.07021148	-0.05458992	-1.418334e-06	1.09955e-07	-0.01407759	-0.03965118
4.1e+08	-0.01258166	-0.04178182	-1.258888e-06	-7.12425e-08	0.06776307	-0.05985575	-2.467147e-07	-1.225066e-06
	-1.258888e-06	-7.12425e-08	-0.01319211	-0.04138172	1.822137e-07	-4.261857e-06	0.06675131	-0.05858259
	0.06776307	-0.05985575	1.822137e-07	-4.261857e-06	-0.01200162	-0.04161582	-1.423278e-06	2.691896e-07
	-2.467147e-07	-1.225066e-06	0.06675131	-0.05858259	-1.423278e-06	2.691896e-07	-0.01260882	-0.04159778
4.2e+08	-0.01112254	-0.04404239	-1.268002e-06	1.240325e-07	0.06406105	-0.06369537	-2.996161e-07	-1.078227e-06
	-1.268002e-06	1.240325e-07	-0.01176846	-0.04366098	-9.880752e-08	-3.678927e-06	0.06295968	-0.06232305
	0.06406105	-0.06369537	-9.880752e-08	-3.678927e-06	-0.01056363	-0.04390533	-1.418217e-06	4.254377e-07
	-2.996161e-07	-1.078227e-06	0.06295968	-0.06232305	-1.418217e-06	4.254377e-07	-0.01122188	-0.04392156
4.3e+08	-0.009780809	-0.04668094	-1.264457e-06	3.14855e-07	0.06004683	-0.06726479	-3.437262e-07	-9.331556e-07
	-1.264457e-06	3.14855e-07	-0.01047039	-0.04631916	-3.408955e-07	-3.092621e-06	0.05885781	-0.06578462
	0.06004683	-0.06726479	-3.408955e-07	-3.092621e-06	-0.009246405	-0.04657252	-1.403577e-06	5.780216e-07
	-3.437262e-07	-9.331556e-07	0.05885781	-0.06578462	-1.403577e-06	5.780216e-07	-0.009965582	-0.04662295
4.4e+08	-0.008605457	-0.04969376	-1.248907e-06	5.003286e-07	0.05574338	-0.07053916	-3.793486e-07	-7.903345e-07
	-1.248907e-06	5.003286e-07	-0.009347528	-0.04935157	-5.441574e-07	-2.505265e-06	0.05446951	-0.0689425
	0.05574338	-0.07053916	-5.441574e-07	-2.505265e-06	-0.008099351	-0.0496132	-1.379844e-06	7.262953e-07
	-3.793486e-07	-7.903345e-07	0.05446951	-0.0689425	-1.379844e-06	7.262953e-07	-0.008889898	-0.04969656
4.5e+08	-0.007646562	-0.0530708	-1.222084e-06	6.796262e-07	0.05117572	-0.07349591	-4.068277e-07	-6.50219e-07
	-1.222084e-06	6.796262e-07	-0.008450463	-0.05274705	-7.088414e-07	-1.919216e-06	0.04982058	-0.0717742
	0.05117572	-0.07349591	-7.088414e-07	-1.919216e-06	-0.007172397	-0.05301719	-1.347559e-06	8.69679e-07
	-4.068277e-07	-6.50219e-07	0.04982058	-0.0717742	-1.347559e-06	8.69679e-07	-0.008045245	-0.05313089
4.6e+08	-0.006953649	-0.05679674	-1.184793e-06	8.52024e-07	0.04637063	-0.0761145	-4.26544e-07	-5.132146e-07
	-1.184793e-06	8.52024e-07	-0.007829117	-0.0564891	-8.353765e-07	-1.33679e-06	0.0449386	-0.07425945
	0.04637063	-0.0761145	-8.353765e-07	-1.33679e-06	-0.006514519	-0.05676919	-1.307303e-06	1.00766e-06
	-4.26544e-07	-5.132146e-07	0.0449386	-0.07425945	-1.307303e-06	1.00766e-06	-0.007480892	-0.05690927
4.7e+08	-0.006573552	-0.06085029	-1.13792e-06	1.016918e-06	0.0413563	-0.07837717	-4.389226e-07	-3.796733e-07
	-1.13792e-06	1.016918e-06	-0.007530586	-0.06055514	-9.244129e-07	-7.602544e-07	0.03985255	-0.07638076
	0.0413563	-0.07837717	-9.244129e-07	-7.602544e-07	-0.006173699	-0.0608475	-1.2597e-06	1.1398e-06
	-4.389226e-07	-3.796733e-07	0.03985255	-0.07638076	-1.2597e-06	1.1398e-06	-0.007244975	-0.06100843
4.8e+08	-0.006553341	-0.06520529	-1.082361e-06	1.173793e-06	0.03616272	-0.08026831	-4.4439e-07	-2.499068e-07
