# GHz S RI R 45
0.000     0.014586187000    0.000000000000    0.000001745302    0.000000000000    0.000485933610    -0.000000000000    -0.000017029470    0.000000000000
            0.000001745498    0.000000000000    0.014502188000    0.000000000000    0.000012631507    0.000000000000    0.000436269530    0.000000000000
            0.000485930040    -0.000000000000    0.000012633510    0.000000000000    0.014543675000    0.000000000000    -0.000005940185    0.000000000000
            -0.000017029327    0.000000000000    0.000436269490    0.000000000000    -0.000005940168    0.000000000000    0.014484832000    0.000000000000
0.025     0.019005981039    0.011120917081    -0.000016730346    -0.000064995634    0.002207439828    0.010107437033    -0.000030044631    -0.000063686042
            -0.000016730353    -0.000064995617    0.017992096989    0.010202580671    -0.000021102170    -0.000076433705    0.001501523901    0.009268816874
            0.002207410258    0.010107484434    -0.000021102186    -0.000076433710    0.018940641297    0.011102206242    -0.000016392921    -0.000068011072
            -0.000030044614    -0.000063686035    0.001501401167    0.009268651573    -0.000016392931    -0.000068011059    0.017913642650    0.010203322625
0.050     0.025177518047    0.018529029921    -0.000047814906    -0.000115678072    0.006822493453    0.019149281716    -0.000063918899    -0.000122795329
            -0.000047814910    -0.000115678081    0.021941146241    0.017288751786    -0.000057906728    -0.000122509714    0.004287695109    0.017954085058
            0.006822476747    0.019149290853    -0.000057906728    -0.000122509714    0.025103539166    0.018525166952    -0.000048369400    -0.000130734724
            -0.000063918899    -0.000122795329    0.004287725515    0.017954073684    -0.000048369422    -0.000130734715    0.021839273497    0.017308005537
0.075     0.033288343014    0.023833110295    -0.000091421045    -0.000157250830    0.013956899028    0.026433816925    -0.000115417990    -0.000167194503
            -0.000091421045    -0.000157250830    0.026619765411    0.023299950039    -0.000101724142    -0.000161744033    0.008616434860    0.025761298684
            0.013956888862    0.026433818901    -0.000101724142    -0.000161744033    0.033218750488    0.023844704497    -0.000098874636    -0.000181276936
            -0.000115417892    -0.000167194547    0.008616440572    0.025761297827    -0.000098874636    -0.000181276936    0.026491415785    0.023351106244
0.100     0.043016934962    0.026415406611    -0.000146177938    -0.000186478034    0.023030274598    0.031332085881    -0.000178682500    -0.000194193619
            -0.000146177944    -0.000186478042    0.032062722201    0.028037777317    -0.000155654443    -0.000190607579    0.014210938326    0.032392028855
            0.023030273003    0.031332088295    -0.000155654529    -0.000190607548    0.042961851150    0.026445647459    -0.000163054833    -0.000216074827
            -0.000178682411    -0.000194193659    0.014210937761    0.032392029103    -0.000163054920    -0.000216074786    0.031907776045    0.028135021948
0.125     0.053530612379    0.025835363373    -0.000208728820    -0.000201153237    0.033320475330    0.033390248502    -0.000248259202    -0.000202622567
            -0.000208728820    -0.000201153237    0.037962420594    0.031359297420    -0.000217607269    -0.000206394930    0.020733142869    0.037632749368
            0.033320474288    0.033390250954    -0.000217607269    -0.000206394930    0.053502411050    0.025884745184    -0.000236097502    -0.000232950915
            -0.000248259202    -0.000202622567    0.020733142869    0.037632749368    -0.000236097502    -0.000232950915    0.037786540653    0.031519076216
0.150     0.064039332917    0.021880680129    -0.000275385357    -0.000200380340    0.044025258372    0.032358396347    -0.000319284350    -0.000192799028
            -0.000275385417    -0.000200380310    0.043905168482    0.033221179363    -0.000284363453    -0.000207690297    0.027816505283    0.041368423803
            0.044025258854    0.032358399068    -0.000284363453    -0.000207690297    0.064054475150    0.021952116423    -0.000313292565    -0.000231216960
            -0.000319284248    -0.000192799119    0.027816505283    0.041368423803    -0.000313292565    -0.000231216960    0.043718813282    0.033458377882
0.175     0.073544976355    0.014599084007    -0.000342690196    -0.000184159830    0.054308047765    0.028194644158    -0.000387603757    -0.000165973698
            -0.000342690196    -0.000184159830    0.049535131585    0.033735723816    -0.000352867355    -0.000194052149    0.035084960334    0.043574314251
            0.054308047668    0.028194646515    -0.000352867355    -0.000194052149    0.073622839435    0.014687826239    -0.000390288318    -0.000211287435
            -0.000387603757    -0.000165973698    0.035084960334    0.043574314251    -0.000390288364    -0.000211287372    0.049356056614    0.034063179771
0.200     0.081149573235    0.004313683316    -0.000407673045    -0.000153249734    0.063354676512    0.021064393210    -0.000450017331    -0.000124150223
            -0.000407673045    -0.000153249734    0.054524260718    0.033099859954    -0.000420250851    -0.000165819694    0.042177622158    0.044322184206
            0.063354677675    0.021064396052    -0.000420250851    -0.000165819694    0.081310786189    0.004408845501    -0.000463507898    -0.000174493859
            -0.000450017351    -0.000124150229    0.042177622158    0.044322184206    -0.000463507876    -0.000174493943    0.054375266744    0.033525457134
0.225     0.086064800505    -0.008454237252    -0.000467834618    -0.000108790459    0.070410357859    0.011322721737    -0.000504112865    -0.000069686280
            -0.000467834618    -0.000108790459    0.058613699294    0.031578349701    -0.000484091614    -0.000123688221    0.048770694037    0.043765067961
            0.070410358511    0.011322723985    -0.000484091614    -0.000123688221    0.086329627268    -0.008370968242    -0.000530044185    -0.000122685118
            -0.000504112566    -0.000069686688    0.048770694037    0.043765067961    -0.000530044185    -0.000122685118    0.058521186609    0.032102884459
0.250     0.087658510923    -0.023002483603    -0.000521243252    -0.000052146073    0.074825676441    -0.000504770362    -0.000548422597    -0.000005031835
            -0.000521243252    -0.000052146073    0.061622451561    0.029503949943    -0.000542342269    -0.000068652535    0.054596287092    0.042131395224
            0.074825677450    -0.000504769089    -0.000542342269    -0.000068652535    0.088044485700    -0.022956848469    -0.000587866845    -0.000057938576
            -0.000548422597    -0.000005031835    0.054596287092    0.042131395224    -0.000587866845    -0.000057938576    0.061613819787    0.030120919148
0.275     0.085468675827    -0.038493388166    -0.000566320558    0.000015304203    0.076082229218    -0.013747064212    -0.000582106098    0.000067508679
            -0.000566320538    0.000015304203    0.063468952854    0.027237759585    -0.000593277315    -0.000001710281    0.059456002800    0.039702322212
            0.076082232385    -0.013747057928    -0.000593277315    -0.000001710281    0.085988493775    -0.038518099584    -0.000635519434    0.000017679179
            -0.000582106098    0.000067508679    0.059456002800    0.039702322212    -0.000635519434    0.000017679179    0.063570796730    0.027932710738
0.300     0.079245831038    -0.053991062743    -0.000601823914    0.000092263788    0.073828865303    -0.027622179539    -0.000604930867    0.000145998417
            -0.000601823914    0.000092263788    0.064172137300    0.025158325144    -0.000635389502    0.000076118350    0.063234048882    0.036799552355
            0.073828869077    -0.027622178013    -0.000635389502    0.000076118350    0.079904670243    -0.054125875740    -0.000672122569    0.000102340473
            -0.000604930867    0.000145998417    0.063234048882    0.036799552355    -0.000672122569    0.000102340473    0.064407870077    0.025908988779
0.325     0.068956073281    -0.068505409505    -0.000626578703    0.000177529995    0.067896535403    -0.041267289961    -0.000616888857    0.000228898056
            -0.000626578703    0.000177529995    0.063853635223    0.023621369102    -0.000667195499    0.000163898935    0.065900762683    0.033758201216
            0.067896537832    -0.041267289815    -0.000667195499    0.000163898935    0.069749666527    -0.068794631239    -0.000697009362    0.000194482628
            -0.000616888857    0.000228898056    0.065900762683    0.033758201216    -0.000697009362    0.000194482628    0.064241361214    0.024398761087
0.350     0.054805362144    -0.081046900922    -0.000639455154    0.000269988867    0.058322736965    -0.053787218008    -0.000618096971    0.000315151682
            -0.000639455153    0.000269988998    0.062730911014    0.022947388487    -0.000687187965    0.000260674040    0.067519815931    0.030912065878
            0.058322739374    -0.053787218346    -0.000687187947    0.000260674033    0.055717544789    -0.081537593636    -0.000709653714    0.000292892792
            -0.000618096954    0.000315151672    0.067519815931    0.030912065878    -0.000709653714    0.000292892792    0.063281534978    0.023717104116
0.375     0.037229437944    -0.090670535352    -0.000639150773    0.000368462559    0.045355657324    -0.064289537172    -0.000608458674    0.000404007065
            -0.000639150764    0.000368462554    0.061104955553    0.023386965285    -0.000693644639    0.000365376248    0.068239840438    0.028563183618
            0.045355659599    -0.064289538014    -0.000693644657    0.000365376257    0.038231240260    -0.091409272076    -0.000709343032    0.000396531849
            -0.000608458674    0.000404007065    0.068239840438    0.028563183618    -0.000709343032    0.000396531849    0.061820489401    0.024110866476
0.400     0.016891725736    -0.096540346563    -0.000624252171    0.000471614524    0.029458174214    -0.071946893326    -0.000587607690    0.000494944497
            -0.000624252171    0.000471614524    0.059344580876    0.025109787688    -0.000684701270    0.000476662132    0.068292494127    0.026967502458
            0.029458176228    -0.071946894662    -0.000684701270    0.000476662132    0.017940382817    -0.097569511680    -0.000695163148    0.000504468004
            -0.000587607690    0.000494944497    0.068292494127    0.026967502458    -0.000695163148    0.000504468004    0.060217262543    0.025748779726
0.425     -0.005343404092    -0.097972767404    -0.000593174412    0.000577708142    0.011295087058    -0.076036007817    -0.000554734858    0.000587352416
            -0.000593174420    0.000577708149    0.057861699916    0.028178972528    -0.000658298589    0.000592705170    0.067972884098    0.026305924248
            0.011295132184    -0.076035992015    -0.000658298589    0.000592705170    -0.004303825900    -0.099327267869    -0.000665837432    0.000615561249
            -0.000554734865    0.000587352424    0.067972884098    0.026305924248    -0.000665837417    0.000615561236    0.058873575635    0.028695498292
0.450     -0.028447258397    -0.094498614730    -0.000544364493    0.000684520325    -0.008293390129    -0.076002540017    -0.000508686441    0.000680365282
            -0.000544364493    0.000684520325    0.057088253448    0.032547735495    -0.000612425977    0.000711062708    0.067625289438    0.026675194660
            -0.008293389020    -0.076002542149    -0.000612425977    0.000711062708    -0.027484445945    -0.096201318984    -0.000619857764    0.000728328348
            -0.000508686441    0.000680365282    0.067625289438    0.026675194660    -0.000619857764    0.000728328348    0.058211484458    0.032908354477
0.475     -0.051276438686    -0.085896147830    -0.000476432679    0.000789143614    -0.028329284481    -0.071495418576    -0.000448041941    0.000772537154
            -0.000476432395    0.000789144077    0.057441984705    0.038047005813    -0.000545263063    0.000828505599    0.067613279046    0.028067109586
            -0.028329284481    -0.071495418576    -0.000545263074    0.000828505615    -0.050466800250    -0.087954758778    -0.000555583024    0.000840627496
            -0.000448041936    0.000772537145    0.067613279536    0.028067108406    -0.000555583024    0.000840627496    0.058639809356    0.038225501179
0.500     -0.072641357084    -0.072228862626    -0.000388491574    0.000888038047    -0.047757715609    -0.062414364235    -0.000371406668    0.000861754431
            -0.000388491578    0.000888038056    0.059298356704    0.044395320086    -0.000455567638    0.000941052393    0.068296420254    0.030371641023
            -0.047757718040    -0.062414367411    -0.000455567638    0.000941052393    -0.072066537963    -0.074632636867    -0.000471541512    0.000949608327
            -0.000371406668    0.000861754431    0.068296420254    0.030371641023    -0.000471541512    0.000949608327    0.060527019378    0.044374761604
0.525     -0.091376084195    -0.053850429752    -0.000280400497    0.000977036666    -0.065505742807    -0.048919500771    -0.000277697052    0.000945089424
            -0.000280400326    0.000977036715    0.062954810510    0.051204917450    -0.000342927604    0.001044003337    0.069994534303    0.033372348648
            -0.065505746012    -0.048919503164    -0.000342927604    0.001044003337    -0.091118142668    -0.056568631870    -0.000366729083    0.001051598237
            -0.000277697052    0.000945089424    0.069994534303    0.033372348648    -0.000366729083    0.001051598237    0.064166599052    0.050979843052
0.550     -0.106422727525    -0.031398845322    -0.000153073016    0.001051663450    -0.080564739437    -0.031439100706    -0.000166503475    0.001018972403
            -0.000153073016    0.001051663450    0.068608122339    0.058009192935    -0.000208121056    0.001132276157    0.072964829371    0.036766381910
            -0.080564739437    -0.031439100706    -0.000208121056    0.001132276157    -0.106558485526    -0.034380180083    -0.000240980473    0.001142307028
            -0.000166503458    0.001018972406    0.072964829371    0.036766381910    -0.000240980493    0.001142307126    0.069753815456    0.057586343705
0.575     -0.116898045583    -0.005758621617    -0.000008638786    0.001107368204    -0.092049875826    -0.010639707421    -0.000038386304    0.001079325410
            -0.000008638786    0.001107368204    0.076326770915    0.064286695923    -0.000053276011    0.001200667700    0.077370819438    0.040177724961
            -0.092049875826    -0.010639707421    -0.000053276011    0.001200667700    -0.117494225804    -0.008932852196    -0.000095237024    0.001216995761
            -0.000038386304    0.001079325410    0.077370817849    0.040177725851    -0.000095237024    0.001216995761    0.077359350811    0.063685865627
0.600     -0.122162332380    0.021993415984    0.000149513107    0.001140052589    -0.099273516188    0.012614044734    0.000104932760    0.001122011321
            0.000149513107    0.001140052589    0.086045329726    0.069500995767    0.000118057029    0.001244431211    0.083273066461    0.043193386044
            -0.099273516188    0.012614044734    0.000118057029    0.001244431211    -0.123269770256    0.018713425531    0.000068250088    0.001270977041
            0.000104932760    0.001122011321    0.083273066461    0.043193386044    0.000068250066    0.001270977042    0.086923315226    0.068753592710
0.625     -0.121853249336    0.050659743465    0.000316833903    0.001146375833    -0.101775580224    0.037321756314    0.000260517045    0.001143139535
            0.000316833903    0.001146375833    0.097555795638    0.073135018051    0.000301018621    0.001259603544    0.090612128073    0.045386775602
            -0.101775586738    0.037321738551    0.000301018621    0.001259603544    -0.123503287902    0.047373750517    0.000245927020    0.001299910028
            0.000260517045    0.001143139535    0.090612128073    0.045386775602    0.000245926998    0.001299910033    0.098246663729    0.072282817876
0.650     -0.115910518239    0.079005342981    0.000487941872    0.001124231761    -0.099359965465    0.062419022757    0.000424354112    0.001139589711
            0.000487941872    0.001124231761    0.110525810926    0.074731145168    0.000489769831    0.001243545365    0.099221629732    0.046358629456
            -0.099359965465    0.062419022757    0.000489769831    0.001243545365    -0.118111932225    0.075819934008    0.000433078627    0.001300397052
            0.000424354132    0.001139589703    0.099221629732    0.046358629456    0.000433078627    0.001300397052    0.111007684945    0.073823513507
0.675     -0.104561795224    0.105832420955    0.000656951288    0.001072866211    -0.092079976808    0.086843477349    0.000591581377    0.001109223099
            0.000656951288    0.001072866211    0.124509175835    0.073920508641    0.000677847273    0.001195066489    0.108828438477    0.045758655589
            -0.092079976808    0.086843477349    0.000677847294    0.001195066477    -0.107299657660    0.102856380667    0.000624111903    0.001270167831
            0.000591581377    0.001109223099    0.108828430856    0.045758647914    0.000624111903    0.001270167831    0.124773836432    0.073011837857
0.700     -0.088298401927    0.130057822869    0.000818016419    0.000993057254    -0.080230737951    0.109607312606    0.000756922763    0.001051192671
            0.000818016419    0.000993057254    0.138984286586    0.070449539679    0.000858738580    0.001114664178    0.119084793606    0.043316178662
            -0.080230737951    0.109607312606    0.000858738580    0.001114664178    -0.091533995183    0.127395185328    0.000813024264    0.001208404827
            0.000756922763    0.001051192671    0.119084793606    0.043316178662    0.000813024264    0.001208404827    0.139036343143    0.069594997301
0.725     -0.067824054899    0.150760939365    0.000965664288    0.000886926898    -0.064299969503    0.129836397438    0.000914988921    0.000965911665
            0.000965664288    0.000886926898    0.153376653670    0.064193480197    0.001026246553    0.001004311155    0.129579895649    0.038850183189
            -0.064299973941    0.129836406399    0.001026246570    0.001004311137    -0.071496830908    0.148507103198    0.000993744292    0.001115678164
            0.000914988921    0.000965911665    0.129579895649    0.038850183189    0.000993744273    0.001115678182    0.153235252199    0.063445770038
0.750     -0.044000673950    0.167228447197    0.001095269461    0.000757783874    -0.044931451108    0.146818603872    0.001060758142    0.000855032411
            0.001095269461    0.000757783874    0.167102810160    0.055160615994    0.001175019948    0.000867361309    0.139878747482    0.032281979438
            -0.044931451108    0.146818603872    0.001175019948    0.000867361309    -0.048031073987    0.165464269392    0.001160643287    0.000993958282
            0.001060758157    0.000855032393    0.139878747482    0.032281979438    0.001160643270    0.000993958303    0.166799265027    0.054567378717
0.775     -0.017787528201    0.178965383238    0.001203178517    0.000609746415    -0.022871393670    0.160007643802    0.001189746735    0.000721220195
            0.001203178506    0.000609746436    0.179593362810    0.043489321967    0.001300696101    0.000708114157    0.149535673650    0.023630658512
            -0.022871407559    0.160007601410    0.001300696101    0.000708114157    -0.022080754927    0.177754166276    0.001308724756    0.000846297298
            0.001189746723    0.000721220216    0.149535673650    0.023630658512    0.001308724726    0.000846297344    0.179169966490    0.043089566992
