# GHz S RI R 45
0.000     0.014586187000    0.000000000000    -0.000002833341    0.000000000000    0.000485933610    -0.000000000000    -0.000007479148    0.000000000000
            -0.000002833379    0.000000000000    0.013188000000    0.000000000000    0.000008823161    0.000000000000    0.000402442990    -0.000000000000
            0.000485930040    -0.000000000000    0.000008823142    0.000000000000    0.014543675000    0.000000000000    -0.000008448089    0.000000000000
            -0.000007479308    0.000000000000    0.000402438410    -0.000000000000    -0.000008448062    0.000000000000    0.013147025000    0.000000000000
0.025     0.019005981039    0.011120917081    -0.000003954205    0.000001293273    0.002207439828    0.010107437033    0.000001510566    0.000006832623
            -0.000003954241    0.000001293281    0.017150637288    0.009797873735    0.000017415727    0.000058471409    0.001867372572    0.008813851661
            0.002207410258    0.010107484434    0.000017415709    0.000058471413    0.018940641297    0.011102206242    0.000002377946    0.000008029093
            0.000001510410    0.000006832650    0.001867341050    0.008813898614    0.000002377979    0.000008029090    0.017082898911    0.009710750543
0.050     0.025177518047    0.018529029921    -0.000003409216    0.000004046343    0.006822493453    0.019149281716    0.000005305304    0.000004467435
            -0.000003409257    0.000004046361    0.022593810658    0.016376064318    0.000034850010    0.000115441291    0.005835420837    0.016810296827
            0.006822476747    0.019149290853    0.000034849995    0.000115441306    0.025103539166    0.018525166952    0.000006639582    0.000005185247
            0.000005305145    0.000004467493    0.005835403337    0.016810306077    0.000006639609    0.000005185242    0.022499332767    0.016227388144
0.075     0.033288343014    0.023833110295    -0.000001863550    0.000006070646    0.013956899028    0.026433816925    0.000006530274    0.000002815302
            -0.000001863581    0.000006070674    0.029817244291    0.021284479883    0.000060932944    0.000167079847    0.012054513203    0.023430261792
            0.013956888862    0.026433818901    0.000060932927    0.000167079854    0.033218750488    0.023844704497    0.000007658187    0.000003368092
            0.000006530132    0.000002815384    0.012054501967    0.023430263075    0.000007658217    0.000003368083    0.029687657177    0.021081924796
0.100     0.043016934962    0.026415406611    0.000000042025    0.000007394428    0.023030274598    0.031332085881    0.000007176652    0.000001550425
            0.000000042000    0.000007394455    0.038667724358    0.023997839257    0.000094381212    0.000212883676    0.020108559893    0.028157890279
            0.023030273003    0.031332088295    0.000094381198    0.000212883682    0.042961851150    0.026445647459    0.000007906406    0.000002271290
            0.000007176523    0.000001550531    0.020108557526    0.028157893199    0.000007906436    0.000002271276    0.038497027143    0.023757545821
0.125     0.053530612379    0.025835363373    0.000002008709    0.000008149661    0.033320475330    0.033390248502    0.000007559795    0.000000466118
            0.000002008688    0.000008149693    0.048522142850    0.024093576394    0.000133870895    0.000252598333    0.029476870322    0.030587531094
            0.033320474288    0.033390250954    0.000133870877    0.000252598342    0.053502411050    0.025884745184    0.000007899724    0.000001700605
            0.000007559694    0.000000466234    0.029476868880    0.030587533872    0.000007899758    0.000001700584    0.048318450141    0.023834267295
0.150     0.064039332917    0.021880680129    0.000003921892    0.000008496549    0.044025258372    0.032358396347    0.000007749659    -0.000000526966
            0.000003921879    0.000008496580    0.058841524446    0.021324040220    0.000178643070    0.000285998969    0.039571418273    0.030452181236
            0.044025258854    0.032358399068    0.000178643060    0.000285998986    0.064054475150    0.021952116423    0.000007858068    0.000001512492
            0.000007749581    -0.000000526839    0.039571417732    0.030452185218    0.000007858094    0.000001512472    0.058601557393    0.021063653862
0.175     0.073544976355    0.014599084007    0.000005734700    0.000008591046    0.054308047765    0.028194644158    0.000007796380    -0.000001417256
            0.000005734694    0.000008591081    0.068828460698    0.015591465471    0.000227922593    0.000312772824    0.049758732028    0.027620372542
            0.054308047668    0.028194646515    0.000227922588    0.000312772841    0.073622839435    0.014687826239    0.000007962721    0.000001630890
            0.000007796322    -0.000001417108    0.049758731456    0.027620375633    0.000007962749    0.000001630863    0.068568002233    0.015350768429
0.200     0.081149573235    0.004313683316    0.000007505623    0.000008543984    0.063354676512    0.021064393210    0.000007753208    -0.000002181316
            0.000007505624    0.000008544017    0.077749690413    0.007022588890    0.000280979354    0.000332564106    0.059399185845    0.022107859347
            0.063354677675    0.021064396052    0.000280979356    0.000332564131    0.081310786189    0.004408845501    0.000008317762    0.000001963076
            0.000007753174    -0.000002181165    0.059399185625    0.022107862806    0.000008317783    0.000001963049    0.077492350086    0.006815095511
0.225     0.086064800505    -0.008454237252    0.000009330152    0.000008418618    0.070410357859    0.011322721737    0.000007709196    -0.000002817328
            0.000009330159    0.000008418658    0.084928580490    -0.004110616736    0.000337068336    0.000344989563    0.067869945741    0.014068695515
            0.070410358511    0.011322723985    0.000337068331    0.000344989582    0.086329627268    -0.008370968242    0.000009046388    0.000002378260
            0.000007709195    -0.000002817175    0.067869945984    0.014068699272    0.000009046409    0.000002378227    0.084701842003    -0.004279134599
0.250     0.087658510923    -0.023002483603    0.000011340163    0.000008183211    0.074825676441    -0.000504770362    0.000007751497    -0.000003354807
            0.000011340174    0.000008183240    0.089774898720    -0.017389733546    0.000395380993    0.000349663149    0.074600284025    0.003788723735
            0.074825677450    -0.000504769089    0.000395380994    0.000349663163    0.088044485700    -0.022956848469    0.000010205892    0.000002739059
            0.000007751515    -0.000003354652    0.074600284898    0.003788726260    0.000010205909    0.000002739019    0.089608811867    -0.017520448703
0.275     0.085468675827    -0.038493388166    0.000013642717    0.000007735294    0.076082229218    -0.013747064212    0.000007962545    -0.000003881325
            0.000013642736    0.000007735325    0.091793236688    -0.032280688798    0.000455019687    0.000346220789    0.079088576118    -0.008328456910
            0.076082232385    -0.013747057928    0.000455019689    0.000346220803    0.085988493775    -0.038518099584    0.000011830752    0.000002846386
            0.000007962585    -0.000003881189    0.079088578383    -0.008328454497    0.000011830762    0.000002846344    0.091718710447    -0.032382826214
0.300     0.079245831038    -0.053991062743    0.000016292919    0.000006882733    0.073828865303    -0.027622179539    0.000008381084    -0.000004517788
            0.000016292943    0.000006882758    0.090620713746    -0.048150146681    0.000514976656    0.000334357531    0.080932570185    -0.021781089353
            0.073828869077    -0.027622178013    0.000514976666    0.000334357550    0.079904670243    -0.054125875740    0.000013881123    0.000002506552
            0.000008381149    -0.000004517652    0.080932572877    -0.021781087047    0.000013881129    0.000002506506    0.090667928082    -0.048242106198
0.325     0.068956073281    -0.068505409505    0.000019253195    0.000005398119    0.067896535403    -0.041267289961    0.000008989645    -0.000005423195
            0.000019253225    0.000005398140    0.086028600597    -0.064295378741    0.000574122863    0.000313867067    0.079838216748    -0.035987157177
            0.067896537832    -0.041267289815    0.000574122876    0.000313867086    0.069749666527    -0.068794631239    0.000016244670    0.000001498475
            0.000008989727    -0.000005423076    0.079838219828    -0.035987155212    0.000016244668    0.000001498429    0.086224544782    -0.064404445000
0.350     0.054805362144    -0.081046900922    0.000022370231    0.000003036246    0.058322736965    -0.053787218008    0.000009694810    -0.000006747946
            0.000022370261    0.000003036267    0.077948129791    -0.079976936918    0.000631211666    0.000284694907    0.075641927980    -0.050313771429
            0.058322739374    -0.053787218346    0.000631211671    0.000284694922    0.055717544789    -0.081537593636    0.000018722469    -0.000000354025
            0.000009694909    -0.000006747842    0.075641930523    -0.050313771217    0.000018722462    -0.000000354073    0.078313867640    -0.080138623031
0.375     0.037229437944    -0.090670535352    0.000025374696    -0.000000394846    0.045355657324    -0.064289537172    0.000010326276    -0.000008619608
            0.000025374725    -0.000000394838    0.066462911784    -0.094445446606    0.000684901664    0.000246988686    0.068311195955    -0.064095690365
            0.045355659599    -0.064289538014    0.000684901679    0.000246988705    0.038231240260    -0.091409272076    0.000021032008    -0.000003181668
            0.000010326389    -0.000008619523    0.068311199261    -0.064095691226    0.000021031998    -0.000003181711    0.067011756698    -0.094702169775
0.400     0.016891725736    -0.096540346563    0.000027890325    -0.000004997744    0.029458174214    -0.071946893326    0.000010650436    -0.000011091914
            0.000027890363    -0.000004997737    0.051817923648    -0.106981345185    0.000733800175    0.000201151791    0.057955952478    -0.076673111181
            0.029458176228    -0.071946894662    0.000733800194    0.000201151796    0.017940382817    -0.097569511680    0.000022831081    -0.000007007921
            0.000010650557    -0.000011091852    0.057955956360    -0.076673110754    0.000022831061    -0.000007007969    0.052553348754    -0.107380805302
0.425     -0.005343404092    -0.097972767404    0.000029482178    -0.000010728272    0.011295087058    -0.076036007817    0.000010393218    -0.000014130510
            0.000029482199    -0.000010728274    0.034405189006    -0.116918633171    0.000776530248    0.000147874978    0.044821284411    -0.087408626998
            0.011295132184    -0.076035992015    0.000776530267    0.000147874982    -0.004303825900    -0.099327267869    0.000023746044    -0.000011741162
            0.000010393367    -0.000014130511    0.044821286849    -0.087408627995    0.000023746017    -0.000011741203    0.035319104443    -0.117511604825
0.450     -0.028447258397    -0.094498614730    0.000029703545    -0.000017375640    -0.008293390129    -0.076002540017    0.000009285028    -0.000017582699
            0.000029703578    -0.000017375646    0.014753018927    -0.123684471344    0.000811812244    0.000088156121    0.029283920471    -0.095727662499
            -0.008293389020    -0.076002542149    0.000811812264    0.000088156119    -0.027484445945    -0.096201318984    0.000023426419    -0.000017145065
            0.000009285153    -0.000017582684    0.029283922142    -0.095727661988    0.000023426381    -0.000017145102    0.015825480309    -0.124521676807
0.475     -0.051276438686    -0.085896147830    0.000028175642    -0.000024553884    -0.028329284481    -0.071495418576    0.000007100614    -0.000021188012
            0.000028175662    -0.000024553898    -0.006494972895    -0.126817428434    0.000838554616    0.000023278408    0.011837706825    -0.101132516614
            -0.028329284481    -0.071495418576    0.000838554636    0.000023278406    -0.050466800250    -0.087954758778    0.000021591323    -0.000022855586
            0.000007100742    -0.000021188018    0.011837709753    -0.101132526340    0.000021591277    -0.000022855619    -0.005296527323    -0.127946598370
0.500     -0.072641357084    -0.072228862626    0.000024646051    -0.000031727705    -0.047757715609    -0.062414364235    0.000003712700    -0.000024588084
            0.000024646075    -0.000031727723    -0.028605634240    -0.125998045975    0.000855940580    -0.000045230590    -0.006925771049    -0.103239224187
            -0.047757718040    -0.062414367411    0.000855940610    -0.000045230592    -0.072066537963    -0.074632636867    0.000018087710    -0.000028399355
            0.000003712826    -0.000024588107    -0.006925771049    -0.103239224187    0.000018087658    -0.000028399387    -0.027325838662    -0.127461478458
0.525     -0.091376084195    -0.053850429752    0.000019055557    -0.000038267733    -0.065505742807    -0.048919500771    -0.000000879212    -0.000027373346
            0.000019055571    -0.000038267750    -0.050786188067    -0.121059645656    0.000863495041    -0.000115685841    -0.026338607213    -0.101784474040
            -0.065505746012    -0.048919503164    0.000863495060    -0.000115685848    -0.091118142668    -0.056568631870    0.000012923192    -0.000033248726
            -0.000000879096    -0.000027373384    -0.026338564168    -0.101784454190    0.000012923137    -0.000033248743    -0.049480171040    -0.122890769004
0.550     -0.106422727525    -0.031398845322    0.000011563032    -0.000043520928    -0.080564739437    -0.031439100706    -0.000006521106    -0.000029129592
            0.000011563052    -0.000043520948    -0.072220395304    -0.112004991245    0.000861126661    -0.000186338478    -0.045689444771    -0.096652663544
            -0.080564739437    -0.031439100706    0.000861126671    -0.000186338480    -0.106558485526    -0.034380180083    0.000006290711    -0.000036879746
            -0.000006521007    -0.000029129652    -0.045689444771    -0.096652663544    0.000006290659    -0.000036879762    -0.070952348375    -0.114225765991
0.575     -0.116898045583    -0.005758621617    0.000002552885    -0.000046901051    -0.092049875826    -0.010639707421    -0.000012916887    -0.000029501466
            0.000002552894    -0.000046901073    -0.092101057716    -0.099002744308    0.000849124290    -0.000255495035    -0.064248040180    -0.087871472683
            -0.092049875826    -0.010639707421    0.000849124315    -0.000255495059    -0.117494225804    -0.008932852196    -0.000001445077    -0.000038844175
            -0.000012916800    -0.000029501533    -0.064248046082    -0.087871480756    -0.000001445135    -0.000038844180    -0.090941328073    -0.101622102818
0.600     -0.122162332380    0.021993415984    -0.000007402852    -0.000047962767    -0.099273516188    0.012614044734    -0.000019647638    -0.000028242837
            -0.000007402897    -0.000047962874    -0.109671693456    -0.082387306060    0.000828124739    -0.000321615022    -0.081307441674    -0.075622920288
            -0.099273516188    0.012614044734    0.000828124752    -0.000321615044    -0.123269770256    0.018713425531    -0.000009777473    -0.000038827188
            -0.000019647570    -0.000028242908    -0.081307448996    -0.075622927099    -0.000009777523    -0.000038827188    -0.108693836575    -0.085398935653
0.625     -0.121853249336    0.050659743465    -0.000017604507    -0.000046470022    -0.101775580224    0.037321756314    -0.000026227707    -0.000025257620
            -0.000017604515    -0.000046470043    -0.124253960124    -0.062640873661    0.000799034150    -0.000383400094    -0.096203975621    -0.060226876191
            -0.101775586738    0.037321738551    0.000799034159    -0.000383400098    -0.123503287902    0.047373750517    -0.000018119024    -0.000036693444
            -0.000026227658    -0.000025257705    -0.096203975621    -0.060226876191    -0.000018119088    -0.000036693429    -0.123531712017    -0.066022617052
0.650     -0.115910518239    0.079005342981    -0.000027308304    -0.000042421299    -0.099359965465    0.062419022757    -0.000032156449    -0.000020615245
            -0.000027308307    -0.000042421321    -0.135285530960    -0.040373976730    0.000762942805    -0.000439839083    -0.108359789906    -0.042133113414
            -0.099359965465    0.062419022757    0.000762942806    -0.000439839101    -0.118111932225    0.075819934008    -0.000025866718    -0.000032502605
            -0.000032156407    -0.000020615336    -0.108359789906    -0.042133113414    -0.000025866767    -0.000032502585    -0.134888198036    -0.044088493523
0.675     -0.104561795224    0.105832420955    -0.000035812749    -0.000036054055    -0.092079976808    0.086843477349    -0.000036986125    -0.000014542444
            -0.000035812762    -0.000036054068    -0.142335744053    -0.016297667113    0.000721017169    -0.000490224026    -0.117292957334    -0.021896245806
            -0.092079976808    0.086843477349    0.000721017177    -0.000490224032    -0.107299657660    0.102856380667    -0.000032475557    -0.000026500578
            -0.000036986097    -0.000014542537    -0.117292957334    -0.021896245806    -0.000032475608    -0.000026500544    -0.142325988655    -0.020292509420
0.700     -0.088298401927    0.130057822869    -0.000042535287    -0.000027804411    -0.080230737951    0.109607312606    -0.000040366484    -0.000007392951
            -0.000042535300    -0.000027804420    -0.145131161958    0.008810397467    0.000674419644    -0.000534124691    -0.122652426332    -0.000151582242
            -0.080230737951    0.109607312606    0.000674419642    -0.000534124709    -0.091533995183    0.127395185328    -0.000037513699    -0.000019082345
            -0.000040366494    -0.000007393003    -0.122652426332    -0.000151582242    -0.000037513775    -0.000019082252    -0.145561100688    0.004600101186
0.725     -0.067824054899    0.150760939365    -0.000047070377    -0.000018254012    -0.064299969503    0.129836397438    -0.000042084635    0.000000400624
            -0.000047070429    -0.000018254042    -0.143556191597    0.034137772757    0.000624230926    -0.000571339949    -0.124212819395    0.022412847381
            -0.064299973941    0.129836406399    0.000624230936    -0.000571339997    -0.071496830908    0.148507103198    -0.000040705276    -0.000010739340
            -0.000042084648    0.000000400573    -0.124212819395    0.022412847381    -0.000040705321    -0.000010739284    -0.144465109522    0.029787936292
0.750     -0.044000673950    0.167228447197    -0.000049215122    -0.000008053394    -0.044931451108    0.146818603872    -0.000042072032    0.000008378159
            -0.000049215137    -0.000008053405    -0.137660530844    0.058876312947    0.000571419579    -0.000601835049    -0.121895545498    0.045090023545
            -0.044931451108    0.146818603872    0.000571419572    -0.000601835041    -0.048031073987    0.165464269392    -0.000041941288    -0.000001997930
            -0.000042072053    0.000008378110    -0.121895553368    0.045090002270    -0.000041941335    -0.000001997815    -0.139072638890    0.054470052989
0.775     -0.017787528201    0.178965383238    -0.000048974993    0.000002146721    -0.022871393670    0.160007643802    -0.000040403119    0.000016106002
            -0.000048975006    0.000002146713    -0.127645906438    0.082251169260    0.000516821536    -0.000625673661    -0.115752957810    0.067175726126
            -0.022871407559    0.160007601410    0.000516821530    -0.000625673653    -0.022080754927    0.177754166276    -0.000041276248    0.000006639819
            -0.000040403136    0.000016105911    -0.115752957810    0.067175726126    -0.000041276267    0.000006639889    -0.129569443782    0.077876200392
