# GHz S RI R 45
0.000     0.014586187000    0.000000000000    -0.000055474979    0.000000000000    0.000485933610    -0.000000000000    -0.000068308758    0.000000000000
            -0.000055474836    0.000000000000    0.014769629000    0.000000000000    -0.000045437409    0.000000000000    0.000405698020    0.000000000000
            0.000485930040    -0.000000000000    -0.000045437018    0.000000000000    0.014543675000    0.000000000000    -0.000070765822    0.000000000000
            -0.000068308425    0.000000000000    0.000405699770    0.000000000000    -0.000070766008    0.000000000000    0.014753796000    0.000000000000
0.025     0.019005981039    0.011120917081    -0.000081735867    -0.000213157693    0.002207439828    0.010107437033    -0.000106043145    -0.000276411162
            -0.000081735748    -0.000213157718    0.018678136032    0.011237889157    -0.000069213967    -0.000170367712    0.001700628723    0.010459837086
            0.002207410258    0.010107484434    -0.000069213644    -0.000170367768    0.018940641297    0.011102206242    -0.000081388313    -0.000206176518
            -0.000106043352    -0.000276411414    0.001700507895    0.010459671328    -0.000081388543    -0.000206176363    0.018607061101    0.011189749683
0.050     0.025177518047    0.018529029921    -0.000183258219    -0.000418956328    0.006822493453    0.019149281716    -0.000234843557    -0.000539262125
            -0.000183258142    -0.000418956351    0.023132182064    0.019106204720    -0.000151362010    -0.000331934476    0.005011438135    0.020173094954
            0.006822476747    0.019149290853    -0.000151361634    -0.000331934571    0.025103539166    0.018525166952    -0.000177238824    -0.000422539027
            -0.000234843259    -0.000539262212    0.005011469563    0.020173083025    -0.000177238972    -0.000422538965    0.023016817110    0.019019428366
0.075     0.033288343014    0.023833110295    -0.000351823961    -0.000581466671    0.013956899028    0.026433816925    -0.000446399074    -0.000750307330
            -0.000351823961    -0.000581466671    0.028498734368    0.025709669199    -0.000286025092    -0.000459044247    0.010117371874    0.028816767099
            0.013956888862    0.026433818901    -0.000286024729    -0.000459044379    0.033218750488    0.023844704497    -0.000347908988    -0.000593940453
            -0.000446398630    -0.000750307478    0.010117378241    0.028816765923    -0.000347908993    -0.000593940462    0.028311934716    0.025607851850
0.100     0.043016934962    0.026415406611    -0.000565699271    -0.000688861949    0.023030274598    0.031332085881    -0.000716302399    -0.000894866827
            -0.000565699264    -0.000688861941    0.034754482788    0.030789391421    -0.000456488004    -0.000542258265    0.016680507168    0.036020261839
            0.023030273003    0.031332088295    -0.000456487080    -0.000542258704    0.042961851150    0.026445647459    -0.000567154351    -0.000708748628
            -0.000716302399    -0.000894866827    0.016680509054    0.036020260965    -0.000567155244    -0.000708748222    0.034480122548    0.030705880320
0.125     0.053530612379    0.025835363373    -0.000807160262    -0.000734080608    0.033320475330    0.033390248502    -0.001024170339    -0.000963326679
            -0.000807160262    -0.000734080608    0.041504414206    0.034214370155    -0.000648784161    -0.000575819727    0.024269373893    0.041530879363
            0.033320474288    0.033390250954    -0.000648783755    -0.000575819974    0.053502411050    0.025884745184    -0.000816756068    -0.000759759277
            -0.001024170339    -0.000963326679    0.024269375343    0.041530878516    -0.000816756539    -0.000759758917    0.041136793096    0.034186661586
0.150     0.064039332917    0.021880680129    -0.001059146355    -0.000716426789    0.044025258372    0.032358396347    -0.001349765976    -0.000953448073
            -0.001059145524    -0.000716427304    0.048229423390    0.035886170322    -0.000849344778    -0.000559096258    0.032416385449    0.045228960101
            0.044025258854    0.032358399068    -0.000849344778    -0.000559096258    0.064054475150    0.021952116423    -0.001079627179    -0.000745639834
            -0.001349765976    -0.000953448073    0.032416387027    0.045228958969    -0.001079627179    -0.000745639834    0.047784127110    0.035954777429
0.175     0.073544976355    0.014599084007    -0.001306828121    -0.000638778866    0.054308047765    0.028194644158    -0.001675123567    -0.000866965969
            -0.001306827718    -0.000638779235    0.054489371402    0.035997375405    -0.001046359439    -0.000494218437    0.040651853747    0.047117645276
            0.054308047668    0.028194646515    -0.001046359086    -0.000494218717    0.073622839435    0.014687826239    -0.001340561023    -0.000668272153
            -0.001675123327    -0.000866966216    0.040651854569    0.047117644567    -0.001340561023    -0.000668272153    0.053992951489    0.036196452589
0.200     0.081149573235    0.004313683316    -0.001538928294    -0.000507160198    0.063354676512    0.021064393210    -0.001985860330    -0.000709432256
            -0.001538928199    -0.000507160167    0.059897914629    0.034826587442    -0.001230776103    -0.000385824290    0.048536190870    0.047324495211
            0.063354677675    0.021064396052    -0.001230776103    -0.000385824290    0.081310786189    0.004408845501    -0.001587607069    -0.000532564090
            -0.001985860330    -0.000709432256    0.048536182225    0.047324498348    -0.001587607069    -0.000532564090    0.059387308644    0.035181507314
0.225     0.086064800505    -0.008454237252    -0.001746916942    -0.000328716881    0.070410357859    0.011322721737    -0.002270304475    -0.000487884550
            -0.001746916942    -0.000328716881    0.064166212694    0.032729841069    -0.001395604416    -0.000239382159    0.055689323807    0.046079546174
            0.070410358511    0.011322723985    -0.001395604135    -0.000239382612    0.086329627268    -0.008370968242    -0.001810932022    -0.000344668311
            -0.002270304195    -0.000487884905    0.055689323840    0.046079544565    -0.001810932022    -0.000344668311    0.063686688835    0.033254129729
0.250     0.087658510923    -0.023002483603    -0.001925713846    -0.000110654235    0.074825676441    -0.000504770362    -0.002520340568    -0.000209886124
            -0.001925713846    -0.000110654235    0.067115392136    0.030136920606    -0.001536438544    -0.000060456001    0.061814107300    0.043702266844
            0.074825677450    -0.000504769089    -0.001536438013    -0.000060456786    0.088044485700    -0.022956848469    -0.002003727477    -0.000111109467
            -0.002520340096    -0.000209886970    0.061814108063    0.043702265765    -0.002003727477    -0.000111109467    0.066716625733    0.030830126291
0.275     0.085468675827    -0.038493388166    -0.002071964330    0.000140697598    0.076082229218    -0.013747064212    -0.002729579937    0.000117461107
            -0.002071964330    0.000140697598    0.068698109868    0.027501372754    -0.001650125678    0.000145962685    0.066712897662    0.040570221031
            0.076082232385    -0.013747057928    -0.001650125504    0.000145962380    0.085988493775    -0.038518099584    -0.002160478870    0.000161824579
            -0.002729579757    0.000117460622    0.066712898370    0.040570219866    -0.002160478870    0.000161824579    0.068430118591    0.028348185571
0.300     0.079245831038    -0.053991062743    -0.002183970016    0.000420587683    0.073828865303    -0.027622179539    -0.002893404740    0.000488221387
            -0.002183970016    0.000420587683    0.068997991441    0.025281294174    -0.001734704265    0.000375958060    0.070301785222    0.037099231223
            0.073828869077    -0.027622178013    -0.001734704265    0.000375958060    0.079904670243    -0.054125875740    -0.002277165599    0.000468733175
            -0.002893404740    0.000488221387    0.070301785870    0.037099229996    -0.002277165827    0.000468734050    0.068906929737    0.026251351008
0.325     0.068956073281    -0.068505409505    -0.002259941083    0.000725657753    0.067896535403    -0.041267289961    -0.003007118043    0.000897334693
            -0.002259941083    0.000725657753    0.068226875288    0.023890058377    -0.001788092207    0.000626467589    0.072612583860    0.033706045890
            0.067896537832    -0.041267289815    -0.001788092207    0.000626467589    0.069749666527    -0.068794631239    -0.002349755351    0.000804674729
            -0.003007118043    0.000897334693    0.072612584767    0.033706046311    -0.002349755351    0.000804674729    0.068350519937    0.024939442057
0.350     0.054805362144    -0.081046900922    -0.002297644881    0.001053999908    0.058322736965    -0.053787218008    -0.003065880718    0.001340720548
            -0.002297644881    0.001053999908    0.066713155871    0.023677322547    -0.001807931150    0.000895287379    0.073797730490    0.030786658435
            0.058322739374    -0.053787218346    -0.001807931150    0.000895287379    0.055717544789    -0.081537593636    -0.002374216384    0.001165337165
            -0.003065880718    0.001340720548    0.073797731413    0.030786658820    -0.002374216384    0.001165337165    0.067077240524    0.024750967287
0.375     0.037229437944    -0.090670535352    -0.002293171302    0.001404060604    0.045355657324    -0.064289537172    -0.003063314417    0.001814055995
            -0.002293171302    0.001404060604    0.064879463719    0.024886596311    -0.001790652481    0.001180195438    0.074115118431    0.028675368243
            0.045355659599    -0.064289538014    -0.001790652481    0.001180195438    0.038231240260    -0.091409272076    -0.002345573949    0.001545976792
            -0.003063314568    0.001814051029    0.074115120296    0.028675368964    -0.002345574033    0.001545976847    0.065494189855    0.025921481431
0.400     0.016891725736    -0.096540346563    -0.002240921037    0.001774022063    0.029458174214    -0.071946893326    -0.002991888573    0.002312247469
            -0.002240921037    0.001774022063    0.063218493601    0.027641684493    -0.001731701974    0.001478510958    0.073919112324    0.027625192801
            0.029458176228    -0.071946894662    -0.001731701974    0.001478510958    0.017940382817    -0.097569511680    -0.002258229662    0.001941135566
            -0.002991888573    0.002312247469    0.073919114197    0.027625193501    -0.002258229662    0.001941135566    0.064076720533    0.028571436577
0.425     -0.005343404092    -0.097972767404    -0.002133330979    0.002160287954    0.011295087058    -0.076036007817    -0.002842619644    0.002827885109
            -0.002133330979    0.002160287954    0.062254714793    0.031917363386    -0.001625314781    0.001785962783    0.073627774286    0.027772297488
            0.011295132184    -0.076035992015    -0.001625314781    0.001785962783    -0.004303825900    -0.099327267869    -0.002105881573    0.002343378503
            -0.002842619644    0.002827885109    0.073627776158    0.027772298194    -0.002105881573    0.002343378503    0.063330457776    0.032677584007
0.450     -0.028447258397    -0.094498614730    -0.001961758672    0.002556646937    -0.008293390129    -0.076002540017    -0.002606183809    0.003350586155
            -0.001961758672    0.002556646937    0.062509145032    0.037539645868    -0.001465390807    0.002096166327    0.073697764020    0.029126533000
            -0.008293389020    -0.076002542149    -0.001465390807    0.002096166327    -0.027484445945    -0.096201318984    -0.001882486695    0.002743036266
            -0.002606183809    0.003350586155    0.073697766388    0.029126532448    -0.001882486695    0.002743036266    0.063758533727    0.038072606534
0.475     -0.051276438686    -0.085896147830    -0.001717374377    0.002953041708    -0.028329284481    -0.071495418576    -0.002273964671    0.003865859581
            -0.001717374377    0.002953041708    0.064449897535    0.044178476076    -0.001246227570    0.002399808919    0.074576897017    0.031552857622
            -0.028329284481    -0.071495418576    -0.001246227570    0.002399808919    -0.050466800250    -0.087954758778    -0.001583072308    0.003127356196
            -0.002273964671    0.003865859581    0.074576899960    0.031552855798    -0.001583072308    0.003127356196    0.065812902926    0.044438831056
0.500     -0.072641357084    -0.072228862626    -0.001392944618    0.003335511077    -0.047757715609    -0.062414364235    -0.001839844440    0.004355309734
            -0.001392943998    0.003335511228    0.068454187512    0.051370004612    -0.000963898095    0.002684817056    0.076669871119    0.034783976970
            -0.047757718040    -0.062414367411    -0.000963903063    0.002684808792    -0.072066537963    -0.074632636867    -0.001205216414    0.003480968200
            -0.001839844440    0.004355309734    0.076669872030    0.034783977384    -0.001205216381    0.003480968105    0.069858315134    0.051329211107
0.525     -0.091376084195    -0.053850429752    -0.000984436658    0.003686113935    -0.065505742807    -0.048919500771    -0.001301915670    0.004796785503
            -0.000984436658    0.003686113935    0.074762116665    0.058538716247    -0.000617479497    0.002936464156    0.080288843120    0.038428834594
            -0.065505746012    -0.048919503164    -0.000617479518    0.002936464254    -0.091118142668    -0.056568631870    -0.000750216817    0.003786135346
            -0.001301915670    0.004796785503    0.080288847838    0.038428831685    -0.000750216817    0.003786135346    0.076127809958    0.058188559098
0.550     -0.106422727525    -0.031398845322    -0.000492781566    0.003984394049    -0.080564739437    -0.031439100706    -0.000664117819    0.005166081286
            -0.000492781566    0.003984394049    0.083453881310    0.065044205735    -0.000210261372    0.003138777657    0.085628091300    0.042010411790
            -0.080564739437    -0.031439100706    -0.000210261365    0.003138777558    -0.106558485526    -0.034380180083    -0.000224284684    0.004024341026
            -0.000664117819    0.005166081286    0.085628091300    0.042010411790    -0.000224284684    0.004024341026    0.084699838131    0.064398143309
0.575     -0.116898045583    -0.005758621617    0.000075022335    0.004208699396    -0.092049875826    -0.010639707421    0.000062749854    0.005438557709
            0.000075022554    0.004208699292    0.094424813878    0.070224950855    0.000249590519    0.003275664238    0.092730899673    0.044999002154
            -0.092049875826    -0.010639707421    0.000249590412    0.003275664346    -0.117494225804    -0.008932852196    0.000360981804    0.004177668940
            0.000062749854    0.005438557709    0.092730882465    0.044998991804    0.000360981804    0.004177668940    0.095474632363    0.069319098304
0.600     -0.122162332380    0.021993415984    0.000705477674    0.004338841669    -0.099273516188    0.012614044734    0.000860834372    0.005591887583
            0.000705477599    0.004338841682    0.107394118319    0.073456993874    0.000749052445    0.003333078542    0.101491984617    0.046865779421
            -0.099273516188    0.012614044734    0.000749052503    0.003333078529    -0.123269770256    0.018713425531    0.000988757962    0.004231036350
            0.000860834372    0.005591887583    0.101491987889    0.046865772335    0.000988757888    0.004231036367    0.108182465389    0.072347211651
0.625     -0.121853249336    0.050659743465    0.001379033234    0.004357868250    -0.101775580224    0.037321756314    0.001705915502    0.005607985477
            0.001379033264    0.004357868345    0.121911831171    0.074200935367    0.001270830687    0.003300348108    0.111651816607    0.047121231559
            -0.101775586738    0.037321738551    0.001270830744    0.003300348086    -0.123503287902    0.047373750517    0.001637844496    0.004173611316
            0.001705915502    0.005607985477    0.111651819897    0.047121223764    0.001637844496    0.004173611316    0.122390176319    0.072959158943
0.650     -0.115910518239    0.079005342981    0.002071554907    0.004254454489    -0.099359965465    0.062419022757    0.002569162656    0.005475473048
            0.002071554907    0.004254454489    0.137402516091    0.072046358999    0.001794888039    0.003171891957    0.122832070719    0.045362046634
            -0.099359965465    0.062419022757    0.001794888039    0.003171891957    -0.118111932225    0.075819934008    0.002284426746    0.004000536558
            0.002569162656    0.005475473048    0.122832070719    0.045362046634    0.002284426746    0.004000536558    0.137541847366    0.070756275014
0.675     -0.104561795224    0.105832420955    0.002756037433    0.004023711205    -0.092079976808    0.086843477349    0.003419064371    0.005190318126
            0.002756037433    0.004023711205    0.153193586442    0.066740258234    0.002299972402    0.002947539472    0.134550883375    0.041295030583
            -0.092079976808    0.086843477349    0.002299972453    0.002947539432    -0.107299657660    0.102856380667    0.002903802390    0.003713140353
            0.003419064371    0.005190318126    0.134550883375    0.041295030583    0.002903802325    0.003713140404    0.152988110233    0.065490633170
0.700     -0.088298401927    0.130057822869    0.003405129557    0.003668077613    -0.080230737951    0.109607312606    0.004224244426    0.004756714540
            0.003405129477    0.003668077142    0.168576575947    0.058201837514    0.002765727448    0.002632870642    0.146277140150    0.034759502407
            -0.080230737951    0.109607312606    0.002765727856    0.002632870939    -0.091533995183    0.127395185328    0.003472712768    0.003319151433
            0.004224244426    0.004756714540    0.146277140150    0.034759502407    0.003472712768    0.003319151433    0.168043234523    0.057081243770
0.725     -0.067824054899    0.150760939365    0.003992871312    0.003196580363    -0.064299969503    0.129836397438    0.004955312587    0.004186060334
            0.003992871446    0.003196580355    0.182840801325    0.046523426426    0.003174013299    0.002238231854    0.157450354255    0.025728157178
            -0.064299973941    0.129836406399    0.003174013218    0.002238231796    -0.071496830908    0.148507103198    0.003970732012    0.002831506351
            0.004955307854    0.004186059893    0.157450345778    0.025728147047    0.003970731995    0.002831506548    0.182018674457    0.045612552379
0.750     -0.044000673950    0.167228447197    0.004496889490    0.002624138334    -0.044931451108    0.146818603872    0.005587160381    0.003496168338
            0.004496889490    0.002624138334    0.195327427805    0.031953815829    0.003510474289    0.001777871852    0.167532289992    0.014303965991
            -0.044931451108    0.146818603872    0.003510474320    0.001777871791    -0.048031073987    0.165464269392    0.004381940072    0.002267291480
            0.005587160381    0.003496168338    0.167532289992    0.014303965991    0.004381940032    0.002267291556    0.194274531796    0.031322469064
0.775     -0.017787528201    0.178965383238    0.004899139576    0.001969948351    -0.022871393670    0.160007643802    0.006099757185    0.002709338216
            0.004899139576    0.001969948351    0.205451525386    0.014880846153    0.003764845192    0.001268328124    0.176018721359    0.000704199136
            -0.022871407559    0.160007601410    0.003764845192    0.001268328124    -0.022080754927    0.177754166276    0.004695138633    0.001646002764
            0.006099757185    0.002709338216    0.176018721359    0.000704199136    0.004695138633    0.001646002764    0.204241760262    0.014582769015
