# GHz S RI R 45
0.000     0.014586187000    0.000000000000    0.000015933135    -0.000000000000    0.000485933610    -0.000000000000    0.000000502701    -0.000000000000
            0.000015933037    -0.000000000000    0.013985181000    0.000000000000    0.000008641677    -0.000000000000    0.000487614170    -0.000000000000
            0.000485930040    -0.000000000000    0.000008641383    -0.000000000000    0.014543675000    0.000000000000    -0.000001393419    0.000000000000
            0.000000502430    -0.000000000000    0.000487611120    -0.000000000000    -0.000001393381    0.000000000000    0.013908831000    0.000000000000
0.025     0.019005981039    0.011120917081    -0.000002633336    -0.000004929112    0.002207439828    0.010107437033    -0.000000109312    0.000006262303
            -0.000002633380    -0.000004929105    0.018006444057    0.010336847527    -0.000000019548    0.000000873792    0.002013849630    0.009360771071
            0.002207410258    0.010107484434    -0.000000019717    0.000000874090    0.018940641297    0.011102206242    -0.000000397292    0.000008364812
            -0.000000109586    0.000006262351    0.002013819054    0.009360818053    -0.000000397261    0.000008364807    0.017937599092    0.010302271255
0.050     0.025177518047    0.018529029921    -0.000003589849    0.000009526218    0.006822493453    0.019149281716    0.000003831204    0.000013607780
            -0.000003589897    0.000009526239    0.023697807099    0.017288314545    0.000002994866    0.000012432482    0.006208368103    0.017849220971
            0.006822476747    0.019149290853    0.000002994589    0.000012432593    0.025103539166    0.018525166952    0.000004677274    0.000016209705
            0.000003830950    0.000013607883    0.006208351955    0.017849229764    0.000004677288    0.000016209700    0.023613991383    0.017240308665
0.075     0.033288343014    0.023833110295    0.000003922034    0.000018592869    0.013956899028    0.026433816925    0.000010696271    0.000018655559
            0.000003921988    0.000018592893    0.031231681982    0.022409742846    0.000010655096    0.000019114617    0.012769507126    0.024812553537
            0.013956888862    0.026433818901    0.000010654850    0.000019114773    0.033218750488    0.023844704497    0.000012554745    0.000021680489
            0.000010696047    0.000018655707    0.012769496659    0.024812555550    0.000012554762    0.000021680483    0.031135426970    0.022356174584
0.100     0.043016934962    0.026415406611    0.000014515048    0.000022422286    0.023030274598    0.031332085881    0.000019294224    0.000020887294
            0.000014515005    0.000022422320    0.040387633632    0.025133349331    0.000020613788    0.000021712615    0.021209387942    0.029687394417
            0.023030273003    0.031332088295    0.000020613575    0.000021712812    0.042961851150    0.026445647459    0.000022295247    0.000024128355
            0.000019294029    0.000020887481    0.021209385933    0.029687397081    0.000022295261    0.000024128344    0.040283172908    0.025084446044
0.125     0.053530612379    0.025835363373    0.000025529636    0.000021511605    0.033320475330    0.033390248502    0.000028530320    0.000020131074
            0.000025529601    0.000021511641    0.050470258200    0.025025387146    0.000031041541    0.000020341868    0.030926101436    0.032046717262
            0.033320474288    0.033390250954    0.000031041368    0.000020342100    0.053502411050    0.025884745184    0.000032777604    0.000023289561
            0.000028530164    0.000020131291    0.030926099893    0.032046720140    0.000032777617    0.000023289551    0.050366550054    0.024992449180
0.150     0.064039332917    0.021880680129    0.000035560755    0.000016594632    0.044025258372    0.032358396347    0.000037556598    0.000016459302
            0.000035560725    0.000016594673    0.060815803989    0.021846025149    0.000040758721    0.000015418729    0.041246471560    0.031628108017
            0.044025258854    0.032358399068    0.000040758595    0.000015418979    0.064054475150    0.021952116423    0.000043073151    0.000019195053
            0.000037556497    0.000016459530    0.041246470698    0.031628110786    0.000043073162    0.000019195041    0.060726561114    0.021838090208
0.175     0.073544976355    0.014599084007    0.000043485401    0.000008621405    0.054308047765    0.028194644158    0.000045602435    0.000010167732
            0.000043485379    0.000008621450    0.070559755654    0.015556385758    0.000048795079    0.000007587432    0.051454986327    0.028332343723
            0.054308047668    0.028194646515    0.000048795003    0.000007587704    0.073622839435    0.014687826239    0.000052320612    0.000012134837
            0.000045602413    0.000010168008    0.051454985719    0.028332346900    0.000052320621    0.000012134825    0.070504340780    0.015579655363
0.200     0.081149573235    0.004313683316    0.000048781269    -0.000001465358    0.063354676512    0.021064393210    0.000052113016    0.000001639820
            0.000048781253    -0.000001465312    0.078902704113    0.006355045413    0.000054599685    -0.000002444012    0.060840295860    0.022231124134
            0.063354677675    0.021064396052    0.000054599667    -0.000002443770    0.081310786189    0.004408845501    0.000059884552    0.000002513908
            0.000052112996    0.000001640078    0.060840296024    0.022231126601    0.000059884556    0.000002513894    0.078904576725    0.006410675216
0.225     0.086064800505    -0.008454237252    0.000051170854    -0.000012686183    0.070410357859    0.011322721737    0.000056647112    -0.000008646589
            0.000051170849    -0.000012686129    0.085117913902    -0.005391105496    0.000057811347    -0.000013911406    0.068723535726    0.013555091372
            0.070410358511    0.011322723985    0.000057811372    -0.000013911167    0.086329627268    -0.008370968242    0.000065248017    -0.000009149350
            0.000056647143    -0.000008646338    0.068723537215    0.013555094158    0.000065248019    -0.000009149347    0.085203391037    -0.005309482785
0.250     0.087658510923    -0.023002483603    0.000050701470    -0.000024269932    0.074825676441    -0.000504770362    0.000058905054    -0.000020223065
            0.000050701467    -0.000024269927    0.088591552145    -0.019153070987    0.000058318607    -0.000026159544    0.074497509609    0.002682233753
            0.074825677450    -0.000504769089    0.000058318680    -0.000026159313    0.088044485700    -0.022956848469    0.000068054227    -0.000022333846
            0.000058905127    -0.000020222837    0.074497511518    0.002682236295    0.000068054229    -0.000022333939    0.088787481144    -0.019059652390
0.275     0.085468675827    -0.038493388166    0.000047547380    -0.000035508336    0.076082229218    -0.013747064212    0.000058674248    -0.000032582042
            0.000047547388    -0.000035508285    0.088833019538    -0.034276868935    0.000056118053    -0.000038554275    0.077647229068    -0.009879893800
            0.076082232385    -0.013747057928    0.000056118164    -0.000038554065    0.085988493775    -0.038518099584    0.000068042904    -0.000036468096
            0.000058674365    -0.000032581837    0.077647231293    -0.009879892155    0.000068042912    -0.000036468091    0.089164991615    -0.034194447941
0.300     0.079245831038    -0.053991062743    0.000041987602    -0.000045911247    0.073828865303    -0.027622179539    0.000055822218    -0.000045235358
            0.000041987612    -0.000045911245    0.085515135760    -0.050007797378    0.000051307139    -0.000050587610    0.077781798238    -0.023519307978
            0.073828869077    -0.027622178013    0.000051307283    -0.000050587427    0.079904670243    -0.054125875740    0.000065050885    -0.000050996667
            0.000055822364    -0.000045235189    0.077781800563    -0.023519307200    0.000065050858    -0.000050996758    0.086004304086    -0.049967987151
0.325     0.068956073281    -0.068505409505    0.000034347645    -0.000055045905    0.067896535403    -0.041267289961    0.000050292264    -0.000057664392
            0.000034347665    -0.000055045861    0.078475753289    -0.065525321277    0.000044042396    -0.000061771522    0.074646199150    -0.037541404814
            0.067896537832    -0.041267289815    0.000044042588    -0.000061771333    0.069749666527    -0.068794631239    0.000059002480    -0.000065327578
            0.000050292435    -0.000057664247    0.074646201592    -0.037541404410    0.000059002441    -0.000065327666    0.079136816665    -0.065567372310
0.350     0.054805362144    -0.081046900922    0.000024950815    -0.000062622599    0.058322736965    -0.053787218008    0.000042096801    -0.000069353232
            0.000024950867    -0.000062622518    0.067743097983    -0.079983883751    0.000034515636    -0.000071698550    0.068143680053    -0.051205012417
            0.058322739374    -0.053787218346    0.000034515830    -0.000071698437    0.055717544789    -0.081537593636    0.000049904506    -0.000078872939
            0.000042097074    -0.000069353179    0.068143683346    -0.051205013029    0.000049904516    -0.000078872939    0.068581826954    -0.080153440046
0.375     0.037229437944    -0.090670535352    0.000014147089    -0.000068382788    0.045355657324    -0.064289537172    0.000031341040    -0.000079764203
            0.000014147093    -0.000068382795    0.053528466589    -0.092544667651    0.000022974810    -0.000079970802    0.058339134676    -0.063746189610
            0.045355659599    -0.064289538014    0.000022975035    -0.000079970687    0.038231240260    -0.091409272076    0.000037869991    -0.000091021074
            0.000031341244    -0.000079764136    0.058339137814    -0.063746190804    0.000037870001    -0.000091021078    0.054539559823    -0.092891763349
0.400     0.016891725736    -0.096540346563    0.000002265136    -0.000072142717    0.029458174214    -0.071946893326    0.000018221834    -0.000088366664
            0.000002265126    -0.000072142735    0.036231256070    -0.102424806049    0.000009700713    -0.000086235969    0.045468563878    -0.074424214529
            0.029458176228    -0.071946894662    0.000009700893    -0.000086235927    0.017940382817    -0.097569511680    0.000023114057    -0.000101170143
            0.000018222041    -0.000088366639    0.045468566741    -0.074424216295    0.000023114064    -0.000101170141    0.037397000937    -0.103001264290
0.425     -0.005343404092    -0.097972767404    -0.000010329827    -0.000073745372    0.011295087058    -0.076036007817    0.000003054001    -0.000094643180
            -0.000010329739    -0.000073745337    0.016422349710    -0.108928153182    -0.000004953909    -0.000090165406    0.029931079321    -0.082546378088
            0.011295132184    -0.076035992015    -0.000004953709    -0.000090165397    -0.004303825900    -0.099327267869    0.000005984883    -0.000108735038
            0.000003054203    -0.000094643186    0.029931081784    -0.082546380386    0.000005984844    -0.000108735060    0.017711829511    -0.109784053580
0.450     -0.028447258397    -0.094498614730    -0.000023275866    -0.000073081878    -0.008293390129    -0.076002540017    -0.000013734520    -0.000098124869
            -0.000023275773    -0.000073081897    -0.005174093963    -0.111493066664    -0.000020585634    -0.000091478985    0.012279873831    -0.087517747374
            -0.008293389020    -0.076002542149    -0.000020585355    -0.000091478939    -0.027484445945    -0.096201318984    -0.000013046871    -0.000113183735
            -0.000013734333    -0.000098124919    0.012279875637    -0.087517749140    -0.000013046863    -0.000113183746    -0.003805525658    -0.112673472855
0.475     -0.051276438686    -0.085896147830    -0.000036169092    -0.000070094220    -0.028329284481    -0.071495418576    -0.000031594172    -0.000098422442
            -0.000036168997    -0.000070094216    -0.027710360330    -0.109717842787    -0.000036715563    -0.000089961964    -0.006798688395    -0.088863905692
            -0.028329284481    -0.071495418576    -0.000036715385    -0.000089962021    -0.050466800250    -0.087954758778    -0.000033375695    -0.000114071159
            -0.000031594006    -0.000098422516    -0.006798687149    -0.088863909799    -0.000033375744    -0.000114071176    -0.026319463839    -0.111259713737
0.500     -0.072641357084    -0.072228862626    -0.000048599008    -0.000064782983    -0.047757715609    -0.062414364235    -0.000049877786    -0.000095258944
            -0.000048598889    -0.000064782988    -0.050254665804    -0.103397142760    -0.000052815469    -0.000085481156    -0.026517415263    -0.086274477194
            -0.047757718040    -0.062414367411    -0.000052815193    -0.000085481244    -0.072066537963    -0.074632636867    -0.000054288123    -0.000111074324
            -0.000049877646    -0.000095259041    -0.026517415263    -0.086274477194    -0.000054288231    -0.000111074349    -0.048909062148    -0.105325166681
0.525     -0.091376084195    -0.053850429752    -0.000060134984    -0.000057233399    -0.065505742807    -0.048919500771    -0.000067860763    -0.000088506008
            -0.000060134873    -0.000057233393    -0.071834144536    -0.092533599224    -0.000068312934    -0.000078015293    -0.046021786957    -0.079614522028
            -0.065505746012    -0.048919503164    -0.000068312771    -0.000078015410    -0.091118142668    -0.056568631870    -0.000074984581    -0.000104032699
            -0.000067860646    -0.000088506110    -0.046021787958    -0.079614523759    -0.000074984605    -0.000104032694    -0.070609525401    -0.094858278222
0.550     -0.106422727525    -0.031398845322    -0.000070361233    -0.000047609271    -0.080564739437    -0.031439100706    -0.000084786992    -0.000078206066
            -0.000070361188    -0.000047609259    -0.091489572994    -0.077351970625    -0.000082624677    -0.000067662825    -0.064441379324    -0.068949766098
            -0.080564739437    -0.031439100706    -0.000082624515    -0.000067663006    -0.106558485526    -0.034380180083    -0.000094626392    -0.000092967543
            -0.000084786868    -0.000078206170    -0.064441384787    -0.068949771943    -0.000094626380    -0.000092967499    -0.090466055813    -0.080066349014
0.575     -0.116898045583    -0.005758621617    -0.000078892207    -0.000036172017    -0.092049875826    -0.010639707421    -0.000099912743    -0.000064581033
            -0.000078892128    -0.000036172014    -0.108323069153    -0.058287583575    -0.000095188673    -0.000054652669    -0.080928968594    -0.054538052263
            -0.092049875826    -0.010639707421    -0.000095188631    -0.000054652822    -0.117494225804    -0.008932852196    -0.000112384776    -0.000078096917
            -0.000099912620    -0.000064581150    -0.080928968594    -0.054538052263    -0.000112384746    -0.000078096925    -0.107580964934    -0.061366881635
0.600     -0.122162332380    0.021993415984    -0.000085400892    -0.000023257769    -0.099273516188    0.012614044734    -0.000112560277    -0.000048021755
            -0.000085400940    -0.000023257766    -0.121554219510    -0.035970418771    -0.000105496524    -0.000039333246    -0.094718732202    -0.036825593618
            -0.099273516188    0.012614044734    -0.000105496450    -0.000039333386    -0.123269770256    0.018713425531    -0.000127495357    -0.000059825194
            -0.000112560229    -0.000048021920    -0.094718732202    -0.036825593618    -0.000127495357    -0.000059825194    -0.121169646999    -0.039371386890
0.625     -0.121853249336    0.050659743465    -0.000089644114    -0.000009273274    -0.101775580224    0.037321756314    -0.000122160940    -0.000029070038
            -0.000089644083    -0.000009273287    -0.130556924412    -0.011190082903    -0.000113131784    -0.000022160717    -0.105156554393    -0.016417082505
            -0.101775586738    0.037321738551    -0.000113131695    -0.000022160863    -0.123503287902    0.047373750517    -0.000139307929    -0.000038722364
            -0.000122160943    -0.000029070196    -0.105156554393    -0.016417082505    -0.000139307980    -0.000038722404    -0.130597522109    -0.014852093788
0.650     -0.115910518239    0.079005342981    -0.000091470918    0.000005341153    -0.099359965465    0.062419022757    -0.000128293366    -0.000008374453
            -0.000091470903    0.000005341072    -0.134900072730    0.015147131154    -0.000117785044    -0.000003663064    -0.111748422788    0.005955764409
            -0.099359965465    0.062419022757    -0.000117785059    -0.000003663209    -0.118111932225    0.075819934008    -0.000147323550    -0.000015479650
            -0.000128293417    -0.000008374592    -0.111748422788    0.005955764409    -0.000147323608    -0.000015479578    -0.135420614888    0.011299469835
0.675     -0.104561795224    0.105832420955    -0.000090838566    0.000020130026    -0.092079976808    0.086843477349    -0.000130695092    0.000013354645
            -0.000090838538    0.000020129969    -0.134360003712    0.042067374924    -0.000119275387    0.000015590036    -0.114167830567    0.029477173529
            -0.092079976808    0.086843477349    -0.000119275856    0.000015589695    -0.107299657660    0.102856380667    -0.000151216716    0.000009135381
            -0.000130695145    0.000013354512    -0.114167869904    0.029477141177    -0.000151216714    0.000009135408    -0.135399732203    0.038121934042
0.700     -0.088298401927    0.130057822869    -0.000087794751    0.000034660027    -0.080230737951    0.109607312606    -0.000129274793    0.000035391968
            -0.000087794680    0.000034659911    -0.128934124877    0.068585224315    -0.000117544471    0.000035021023    -0.112282762099    0.053295603694
            -0.080230737951    0.109607312606    -0.000117544449    0.000035020815    -0.091533995183    0.127395185328    -0.000150838651    0.000034332413
            -0.000129274798    0.000035391800    -0.112282771133    0.053295607982    -0.000150838770    0.000034332523    -0.130513319444    0.064637334710
0.725     -0.067824054899    0.150760939365    -0.000082475448    0.000048539260    -0.064299969503    0.129836397438    -0.000124088096    0.000057040381
            -0.000082475492    0.000048539228    -0.118825161623    0.093750192622    -0.000112648919    0.000054081168    -0.106136598789    0.076562914237
            -0.064299973941    0.129836406399    -0.000112648958    0.000054081017    -0.071496830908    0.148507103198    -0.000146207864    0.000059342016
            -0.000124088055    0.000057039942    -0.106136598789    0.076562914237    -0.000146207836    0.000059342005    -0.120944692116    0.089899460550
0.750     -0.044000673950    0.167228447197    -0.000075072495    0.000061434245    -0.044931451108    0.146818603872    -0.000115324308    0.000077665344
            -0.000075072518    0.000061434177    -0.104426531200    0.116696838861    -0.000104737198    0.000072267491    -0.095949210187    0.098482960865
            -0.044931451108    0.146818603872    -0.000104737277    0.000072267411    -0.048031073987    0.165464269392    -0.000137480816    0.000083454333
            -0.000115324430    0.000077665484    -0.095949210187    0.098482960865    -0.000137480807    0.000083454328    -0.107066897715    0.113042054724
0.775     -0.017787528201    0.178965383238    -0.000065819411    0.000073080340    -0.022871393670    0.160007643802    -0.000103265136    0.000096714193
            -0.000065819383    0.000073080282    -0.086287860914    0.136675932815    -0.000094030497    0.000089144816    -0.082083074668    0.118334345959
            -0.022871407559    0.160007601410    -0.000094030559    0.000089144968    -0.022080754927    0.177754166276    -0.000124923683    0.000106040785
