# GHz S RI R 45
0.000     0.014586187000    0.000000000000    0.000000237482    -0.000000000000    0.000485933610    -0.000000000000    -0.000016800241    0.000000000000
            0.000000237465    -0.000000000000    0.013159234000    0.000000000000    0.000005573269    -0.000000000000    0.000451995380    -0.000000000000
            0.000485930040    -0.000000000000    0.000005573223    -0.000000000000    0.014543675000    0.000000000000    -0.000012386834    0.000000000000
            -0.000016800238    0.000000000000    0.000452016130    -0.000000000000    -0.000012386833    0.000000000000    0.013137317000    0.000000000000
0.025     0.019005981039    0.011120917081    0.000000112889    -0.000001281619    0.002207439828    0.010107437033    0.000002324305    0.000009545361
            0.000000112871    -0.000001281616    0.016934622150    0.008969752794    -0.000001922765    -0.000005867816    0.001697962468    0.007902593342
            0.002207410258    0.010107484434    -0.000001922818    -0.000005867808    0.018940641297    0.011102206242    0.000000029221    0.000004923619
            0.000002324315    0.000009545359    0.001697956493    0.007902636050    0.000000029213    0.000004923619    0.016866081017    0.008913802238
0.050     0.025177518047    0.018529029921    -0.000000517189    -0.000002621113    0.006822493453    0.019149281716    0.000006567525    -0.000000589968
            -0.000000517206    -0.000002621108    0.021923453204    0.014918681375    -0.000005173806    -0.000004076432    0.005172409335    0.015142252652
            0.006822476747    0.019149290853    -0.000005173857    -0.000004076415    0.025103539166    0.018525166952    0.000001614022    -0.000002899082
            0.000006567543    -0.000000589974    0.005172415061    0.015142253866    0.000001614024    -0.000002899084    0.021828363407    0.014836600638
0.075     0.033288343014    0.023833110295    -0.000001701685    -0.000003698718    0.013956899028    0.026433816925    0.000003592142    -0.000007003502
            -0.000001701701    -0.000003698711    0.028483676559    0.019345147624    -0.000006362399    -0.000002969024    0.010650116929    0.021177963997
            0.013956888862    0.026433818901    -0.000006362447    -0.000002968998    0.033218750488    0.023844704497    -0.000001931407    -0.000007676982
            0.000003592152    -0.000007003507    0.010650127779    0.021177955183    -0.000001931414    -0.000007676980    0.028361671805    0.019246340791
0.100     0.043016934962    0.026415406611    -0.000003304248    -0.000004393269    0.023030274598    0.031332085881    -0.000001632878    -0.000010010107
            -0.000003304266    -0.000004393257    0.036492857157    0.021802176912    -0.000007290110    -0.000002207216    0.017758888051    0.025564144247
            0.023030273003    0.031332088295    -0.000007290153    -0.000002207183    0.042961851150    0.026445647459    -0.000007195801    -0.000009491120
            -0.000001632863    -0.000010010118    0.017758904238    0.025564134220    -0.000007195807    -0.000009491118    0.036343833777    0.021699897800
0.125     0.053530612379    0.025835363373    -0.000005227656    -0.000004581229    0.033320475330    0.033390248502    -0.000007171980    -0.000010167861
            -0.000005227671    -0.000004581216    0.045405095757    0.021920113152    -0.000008284623    -0.000001493159    0.026050133097    0.027947851978
            0.033320474288    0.033390250954    -0.000008284653    -0.000001493121    0.053502411050    0.025884745184    -0.000012624038    -0.000008705424
            -0.000007171970    -0.000010167872    0.026050147925    0.027947839524    -0.000012624045    -0.000008705419    0.045239431813    0.021828812152
0.150     0.064039332917    0.021880680129    -0.000007329688    -0.000004157249    0.044025258372    0.032358396347    -0.000012160284    -0.000008013937
            -0.000007329700    -0.000004157237    0.054759090836    0.019473784499    -0.000009381091    -0.000000584018    0.035018411916    0.028089510984
            0.044025258854    0.032358399068    -0.000009381120    -0.000000583974    0.064054475150    0.021952116423    -0.000017403568    -0.000005753368
            -0.000012160276    -0.000008013950    0.035018424462    0.028089496941    -0.000017403575    -0.000005753364    0.054578503043    0.019407325419
0.175     0.073544976355    0.014599084007    -0.000009437503    -0.000003053132    0.054308047765    0.028194644158    -0.000015916348    -0.000004177693
            -0.000009437514    -0.000003053117    0.063848068056    0.014363779946    -0.000010527051    0.000000675470    0.044116235907    0.025865428789
            0.054308047668    0.028194646515    -0.000010527073    0.000000675519    0.073622839435    0.014687826239    -0.000020899914    -0.000001191193
            -0.000015916343    -0.000004177703    0.044116246250    0.025865413126    -0.000020899921    -0.000001191190    0.063668227135    0.014338052042
0.200     0.081149573235    0.004313683316    -0.000011348125    -0.000001254090    0.063354676512    0.021064393210    -0.000018127266    0.000000749464
            -0.000011348135    -0.000001254075    0.072017480135    0.006690697572    -0.000011575988    0.000002370912    0.052787704658    0.021277443187
            0.063354677675    0.021064396052    -0.000011575998    0.000002370954    0.081310786189    0.004408845501    -0.000022800466    0.000004413727
            -0.000018127263    0.000000749451    0.052787713569    0.021277426430    -0.000022800468    0.000004413728    0.071861509258    0.006715555217
0.225     0.086064800505    -0.008454237252    -0.000012858134    0.000001198284    0.070410357859    0.011322721737    -0.000018643452    0.000006142418
            -0.000012858142    0.000001198301    0.078660666189    -0.003316037744    -0.000012372745    0.000004543763    0.060488491687    0.014446406888
            0.070410358511    0.011322723985    -0.000012372749    0.000004543811    0.086329627268    -0.008370968242    -0.000022950256    0.000010464525
            -0.000018643450    0.000006142403    0.060488496946    0.014446389173    -0.000022950260    0.000010464522    0.078555121928    -0.003237977720
0.250     0.087658510923    -0.023002483603    -0.000013774286    0.000004199800    0.074825676441    -0.000504770362    -0.000017516228    0.000011497768
            -0.000013774292    0.000004199825    0.083242804631    -0.015296047030    -0.000012736629    0.000007141989    0.066715312336    0.005607881373
            0.074825677450    -0.000504769089    -0.000012736626    0.000007142040    0.088044485700    -0.022956848469    -0.000021390699    0.000016461919
            -0.000017516230    0.000011497765    0.066715315934    0.005607862445    -0.000021390703    0.000016461916    0.083216136598    -0.015168684063
0.275     0.085468675827    -0.038493388166    -0.000013934707    0.000007594057    0.076082229218    -0.013747064212    -0.000014905428    0.000016348659
            -0.000013934708    0.000007594077    0.085309753641    -0.028784917375    -0.000012509385    0.000010080413    0.071021617954    -0.004899225268
            0.076082232385    -0.013747057928    -0.000012509375    0.000010080463    0.085988493775    -0.038518099584    -0.000018263722    0.000021942354
            -0.000014905427    0.000016348659    0.071021618649    -0.004899244247    -0.000018263723    0.000021942355    0.085390708824    -0.028619458113
0.300     0.079245831038    -0.053991062743    -0.000013222388    0.000011180720    0.073828865303    -0.027622179539    -0.000011052693    0.000020366920
            -0.000013222384    0.000011180749    0.084520610977    -0.043225964873    -0.000011562561    0.000013196013    0.073043434062    -0.016648176686
            0.073828869077    -0.027622178013    -0.000011562538    0.000013196061    0.079904670243    -0.054125875740    -0.000013799083    0.000026567495
            -0.000011052693    0.000020366920    0.073043432629    -0.016648196475    -0.000013799084    0.000026567497    0.084737110758    -0.043041701262
0.325     0.068956073281    -0.068505409505    -0.000011574685    0.000014729585    0.067896535403    -0.041267289961    -0.000006259446    0.000023281315
            -0.000011574684    0.000014729604    0.080651620251    -0.057997073693    -0.000009809536    0.000016306921    0.072508395788    -0.029139668332
            0.067896537832    -0.041267289815    -0.000009809512    0.000016306959    0.069749666527    -0.068794631239    -0.000008282100    0.000030050889
            -0.000006259446    0.000023281315    0.072508391451    -0.029139687168    -0.000008282085    0.000030050935    0.081028369441    -0.057821176439
0.350     0.054805362144    -0.081046900922    -0.000008990647    0.000017995623    0.058322736965    -0.053787218008    -0.000000838970    0.000024936807
            -0.000008990644    0.000017995640    0.073619316354    -0.072437719382    -0.000007225478    0.000019189607    0.069255145822    -0.041826174993
            0.058322739374    -0.053787218346    -0.000007225473    0.000019189605    0.055717544789    -0.081537593636    -0.000002019875    0.000032215733
            -0.000000838969    0.000024936808    0.069255145822    -0.041826174993    -0.000002019832    0.000032215815    0.074175678701    -0.072304831945
0.375     0.037229437944    -0.090670535352    -0.000005533389    0.000020734070    0.045355657324    -0.064289537172    0.000004865958    0.000025239659
            -0.000005533332    0.000020734146    0.063475712931    -0.085873541914    -0.000003837756    0.000021622455    0.063235456687    -0.054128205563
            0.045355659599    -0.064289538014    -0.000003837719    0.000021622487    0.038231240260    -0.091409272076    0.000004650621    0.000032940725
            0.000004865959    0.000025239659    0.063235456687    -0.054128205563    0.000004650619    0.000032940727    0.064223781039    -0.085824586134
0.400     0.016891725736    -0.096540346563    -0.000001329348    0.000022718532    0.029458174214    -0.071946893326    0.000010536402    0.000024185401
            -0.000001329280    0.000022718599    0.050416996825    -0.097650813870    0.000000255204    0.000023383812    0.054524166287    -0.065465882555
            0.029458176228    -0.071946894662    0.000000255208    0.000023383804    0.017940382817    -0.097569511680    0.000011405022    0.000032192243
            0.000010536403    0.000024185403    0.054524108245    -0.065465956924    0.000011405013    0.000032192248    0.051359834239    -0.097731538067
0.425     -0.005343404092    -0.097972767404    0.000003436333    0.000023755561    0.011295087058    -0.076036007817    0.000015848629    0.000021834091
            0.000003436371    0.000023755592    0.034772139826    -0.107158079208    0.000004903287    0.000024280410    0.043314580162    -0.075274668054
            0.011295132184    -0.076035992015    0.000004903330    0.000024280427    -0.004303825900    -0.099327267869    0.000017909959    0.000029997224
            0.000015848591    0.000021834064    0.043314548047    -0.075274700378    0.000017909954    0.000029997229    0.035902457986    -0.107416878606
0.450     -0.028447258397    -0.094498614730    0.000008529761    0.000023701814    -0.008293390129    -0.076002540017    0.000020524693    0.000018312217
            0.000008529757    0.000023701817    0.016995150079    -0.113861201907    0.000009896751    0.000024158365    0.029916098613    -0.083038855178
            -0.008293389020    -0.076002542149    0.000009896755    0.000024158354    -0.027484445945    -0.096201318984    0.000023866916    0.000026452594
            0.000020524687    0.000018312220    0.029916021917    -0.083038910445    0.000023866918    0.000026452600    0.018294338158    -0.114346801916
0.475     -0.051276438686    -0.085896147830    0.000013681141    0.000022475106    -0.028329284481    -0.071495418576    0.000024310176    0.000013808357
            0.000013681141    0.000022475112    -0.002352815349    -0.117320680026    0.000014991070    0.000022918464    0.014742898691    -0.088306050781
            -0.028329284481    -0.071495418576    0.000014991114    0.000022918470    -0.050466800250    -0.087954758778    0.000028994264    0.000021716697
            0.000024310176    0.000013808362    0.014742814240    -0.088306095296    0.000028994264    0.000021716706    -0.000914497625    -0.118079048756
0.500     -0.072641357084    -0.072228862626    0.000018603252    0.000020065415    -0.047757715609    -0.062414364235    0.000027014313    0.000008554743
            0.000018603254    0.000020065422    -0.022624953623    -0.117218984777    0.000019912218    0.000020529269    -0.001701631953    -0.090717718276
            -0.047757718040    -0.062414367411    0.000019912309    0.000020529267    -0.072066537963    -0.074632636867    0.000033065025    0.000015999309
            0.000027014313    0.000008554743    -0.001701631953    -0.090717718276    0.000033065122    0.000015999333    -0.021088685761    -0.118291232888
0.525     -0.091376084195    -0.053850429752    0.000023010516    0.000016536897    -0.065505742807    -0.048919500771    0.000028498841    0.000002828645
            0.000023010519    0.000016536901    -0.043113943049    -0.113372111027    0.000024384495    0.000017028780    -0.018842239569    -0.090017673942
            -0.065505746012    -0.048919503164    0.000024384490    0.000017028772    -0.091118142668    -0.056568631870    0.000035898100    0.000009558843
            0.000028498842    0.000002828644    -0.018842326114    -0.090017695672    0.000035898100    0.000009558848    -0.041530767849    -0.114791701460
0.550     -0.106422727525    -0.031398845322    0.000026641266    0.000012026857    -0.080564739437    -0.031439100706    0.000028701142    -0.000003080177
            0.000026641363    0.000012026844    -0.063083192372    -0.105745268595    0.000028144735    0.000012529020    -0.036059924813    -0.086075461651
            -0.080564739437    -0.031439100706    0.000028144730    0.000012529015    -0.106558485526    -0.034380180083    0.000037382216    0.000002678057
            0.000028701142    -0.000003080175    -0.036059924813    -0.086075461651    0.000037382220    0.000002678059    -0.061512990731    -0.107535300880
0.575     -0.116898045583    -0.005758621617    0.000029276226    0.000006735167    -0.092049875826    -0.010639707421    0.000027628057    -0.000008869505
            0.000029276232    0.000006735172    -0.081795495949    -0.094452883017    0.000030966433    0.000007204040    -0.052712220624    -0.078885508634
            -0.092049875826    -0.010639707421    0.000030966470    0.000007204016    -0.117494225804    -0.008932852196    0.000037471422    -0.000004340640
            0.000027628060    -0.000008869502    -0.052712221736    -0.078885510297    0.000037471475    -0.000004340649    -0.080304129502    -0.096624697854
0.600     -0.122162332380    0.021993415984    0.000030755688    0.000000910475    -0.099273516188    0.012614044734    0.000025358534    -0.000014261533
            0.000030755694    0.000000910477    -0.098549465388    -0.079759081263    0.000032674349    0.000001281951    -0.068168933166    -0.068576910929
            -0.099273516188    0.012614044734    0.000032674423    0.000001281902    -0.123269770256    0.018713425531    0.000036191475    -0.000011205257
            0.000025358534    -0.000014261536    -0.068168933166    -0.068576910929    0.000036191566    -0.000011205294    -0.097206131725    -0.082309997557
0.625     -0.121853249336    0.050659743465    0.000030988012    -0.000005169791    -0.101775580224    0.037321756314    0.000022036224    -0.000019004571
            0.000030988021    -0.000005169789    -0.112704632760    -0.062065731144    0.000033155808    -0.000004977046    -0.081831201973    -0.055402472546
            -0.101775586738    0.037321738551    0.000033155797    -0.000004977048    -0.123503287902    0.047373750517    0.000033632352    -0.000017640416
            0.000022036190    -0.000019004545    -0.081831201973    -0.055402472546    0.000033632356    -0.000017640412    -0.111579592429    -0.064978786453
0.650     -0.115910518239    0.079005342981    0.000029955107    -0.000011219981    -0.099359965465    0.062419022757    0.000017852513    -0.000022901797
            0.000029955181    -0.000011220047    -0.123715956102    -0.041896503711    0.000032367286    -0.000011296335    -0.093167706206    -0.039732898418
            -0.099359965465    0.062419022757    0.000032367280    -0.000011296334    -0.118111932225    0.075819934008    0.000029937388    -0.000023411789
            0.000017852516    -0.000022901796    -0.093167706206    -0.039732898418    0.000029937393    -0.000023411791    -0.122876352154    -0.045140069014
0.675     -0.104561795224    0.105832420955    0.000027706738    -0.000016966274    -0.092079976808    0.086843477349    0.000013037547    -0.000025810093
            0.000027706774    -0.000016966314    -0.131150638618    -0.019874521081    0.000030330372    -0.000017404969    -0.101726153659    -0.022037129950
            -0.092079976808    0.086843477349    0.000030330363    -0.000017404968    -0.107299657660    0.102856380667    0.000025293543    -0.000028329247
            0.000013037524    -0.000025810060    -0.101726153659    -0.022037129950    0.000025293552    -0.000028329246    -0.130658041224    -0.023403025160
0.700     -0.088298401927    0.130057822869    0.000024353259    -0.000022164177    -0.080230737951    0.109607312606    0.000007832840    -0.000027652495
            0.000024353267    -0.000022164181    -0.134711781848    0.003306306378    0.000027127913    -0.000023052384    -0.107164056926    -0.002862096488
            -0.080230737951    0.109607312606    0.000027127908    -0.000023052377    -0.091533995183    0.127395185328    0.000019910140    -0.000032258269
            0.000007832848    -0.000027652498    -0.107164056926    -0.002862096488    0.000019910148    -0.000032258276    -0.134618700045    -0.000449351108
0.725     -0.067824054899    0.150760939365    0.000020050613    -0.000026609720    -0.064299969503    0.129836397438    0.000002484061    -0.000028411548
            0.000020050633    -0.000026609764    -0.134243494542    0.026908397399    0.000022889141    -0.000028021951    -0.109248317685    0.017189905995
            -0.064299973941    0.129836406399    0.000022889166    -0.000028022032    -0.071496830908    0.148507103198    0.000014009787    -0.000035116707
            0.000002484058    -0.000028411545    -0.109248317685    0.017189905995    0.000014009791    -0.000035116708    -0.134591386300    0.022994643075
0.750     -0.044000673950    0.167228447197    0.000014987409    -0.000030147627    -0.044931451108    0.146818603872    -0.000002784575    -0.000028125528
            0.000014987411    -0.000030147633    -0.129739132907    0.050185777034    0.000017780535    -0.000032138372    -0.107874108273    0.037491487146
            -0.044931451108    0.146818603872    0.000017780526    -0.000032138362    -0.048031073987    0.165464269392    0.000007808689    -0.000036872748
            -0.000002784578    -0.000028125523    -0.107874108273    0.037491487146    0.000007808694    -0.000036872749    -0.130555800937    0.046190541420
0.775     -0.017787528201    0.178965383238    0.000009368120    -0.000032671699    -0.022871393670    0.160007643802    -0.000007772475    -0.000026878570
            0.000009368122    -0.000032671704    -0.121334146846    0.072410201063    0.000011988906    -0.000035269991    -0.103054238776    0.057409396229
            -0.022871407559    0.160007601410    0.000011988899    -0.000035269981    -0.022080754927    0.177754166276    0.000001511221    -0.000037538114
