# GHz S RI R 45
0.000     0.014586187000    0.000000000000    -0.000023821095    0.000000000000    0.000485933610    -0.000000000000    -0.000029340633    0.000000000000
            -0.000023820492    0.000000000000    0.015005575000    0.000000000000    -0.000019098885    0.000000000000    0.000344400870    0.000000000000
            0.000485930040    -0.000000000000    -0.000019098535    0.000000000000    0.014543675000    0.000000000000    -0.000028925625    0.000000000000
            -0.000029340241    0.000000000000    0.000344376470    0.000000000000    -0.000028925990    0.000000000000    0.014945361000    0.000000000000
0.025     0.019005981039    0.011120917081    -0.000036255614    -0.000063089374    0.002207439828    0.010107437033    -0.000040531494    -0.000072500640
            -0.000036255214    -0.000063089417    0.018841122023    0.011370683423    -0.000047273637    -0.000067007451    0.001512364122    0.010606497716
            0.002207410258    0.010107484434    -0.000047272949    -0.000067007545    0.018940641297    0.011102206242    -0.000052738833    -0.000072070222
            -0.000040531056    -0.000072500688    0.001512216748    0.010606327817    -0.000052739199    -0.000072070167    0.018763774077    0.011330772368
0.050     0.025177518047    0.018529029921    -0.000067882701    -0.000119309104    0.006822493453    0.019149281716    -0.000076199387    -0.000140671973
            -0.000067882231    -0.000119309199    0.023438581595    0.019430302146    -0.000082503697    -0.000110151080    0.004958174218    0.020604945622
            0.006822476747    0.019149290853    -0.000082503029    -0.000110151230    0.025103539166    0.018525166952    -0.000090101090    -0.000126016849
            -0.000076198908    -0.000140672085    0.004958179899    0.020604936027    -0.000090101463    -0.000126016767    0.023316010505    0.019383647374
0.075     0.033288343014    0.023833110295    -0.000117570837    -0.000162583046    0.013956899028    0.026433816925    -0.000134558861    -0.000193408194
            -0.000117570461    -0.000162583183    0.029068811699    0.026109196703    -0.000127933119    -0.000143344554    0.010356185828    0.029411991253
            0.013956888862    0.026433818901    -0.000127932540    -0.000143344762    0.033218750488    0.023844704497    -0.000142771085    -0.000167310229
            -0.000134558421    -0.000193408354    0.010356166020    0.029411993987    -0.000142771481    -0.000167310102    0.028892337303    0.026076238436
0.100     0.043016934962    0.026415406611    -0.000179514427    -0.000189549544    0.023030274598    0.031332085881    -0.000207860068    -0.000226813947
            -0.000179514019    -0.000189549710    0.035635649419    0.031121664589    -0.000182798847    -0.000163247492    0.017285921926    0.036626479309
            0.023030273003    0.031332088295    -0.000182798334    -0.000163247722    0.042961851150    0.026445647459    -0.000207284289    -0.000192328193
            -0.000207859671    -0.000226814149    0.017285897631    0.036626484141    -0.000207284675    -0.000192328013    0.035400153252    0.031127587875
0.125     0.053530612379    0.025835363373    -0.000248476113    -0.000198155723    0.033320475330    0.033390248502    -0.000289850269    -0.000238497642
            -0.000248475761    -0.000198155939    0.042680190476    0.034331206573    -0.000243359116    -0.000167455719    0.025249118152    0.041985713034
            0.033320474288    0.033390250954    -0.000243358580    -0.000167456039    0.053502411050    0.025884745184    -0.000278801725    -0.000198500038
            -0.000289849847    -0.000238497888    0.025249094977    0.041985717636    -0.000278802165    -0.000198499764    0.042387193452    0.034403462188
0.150     0.064039332917    0.021880680129    -0.000319350486    -0.000188555484    0.044025258372    0.032358396347    -0.000374537078    -0.000228572562
            -0.000319350478    -0.000188555479    0.049630477073    0.035650514266    -0.000305215310    -0.000155917447    0.033722380326    0.045374542501
            0.044025258854    0.032358399068    -0.000305215283    -0.000155917500    0.064054475150    0.021952116423    -0.000352061038    -0.000185869182
            -0.000374536301    -0.000228573164    0.033722352979    0.045374550366    -0.000352061014    -0.000185869248    0.049299156035    0.035818275257
0.175     0.073544976355    0.014599084007    -0.000387833355    -0.000161890568    0.054308047765    0.028194644158    -0.000456820248    -0.000198262418
            -0.000387832628    -0.000161891219    0.055994765016    0.035300952682    -0.000364703967    -0.000129468315    0.042180401126    0.046818291243
            0.054308047668    0.028194646515    -0.000364703601    -0.000129468687    0.073622839435    0.014687826239    -0.000422653362    -0.000155445106
            -0.000456819901    -0.000198262741    0.042180379576    0.046818298544    -0.000422653381    -0.000155445112    0.055652186001    0.035586711338
0.200     0.081149573235    0.004313683316    -0.000450831938    -0.000120248001    0.063354676512    0.021064393210    -0.000533006763    -0.000149881371
            -0.000450831282    -0.000120248753    0.061350174997    0.033604471658    -0.000419076920    -0.000089932127    0.050140313246    0.046480635837
            0.063354677675    0.021064396052    -0.000419076279    -0.000089932831    0.081310786189    0.004408845501    -0.000487312717    -0.000109348343
            -0.000533006746    -0.000149881467    0.050140285865    0.046480646251    -0.000487313357    -0.000109347683    0.061031239018    0.034022127883
0.225     0.086064800505    -0.008454237252    -0.000506088036    -0.000065883046    0.070410357859    0.011322721737    -0.000600295971    -0.000085959680
            -0.000506088038    -0.000065882956    0.065384421262    0.030971362656    -0.000466358265    -0.000039214396    0.057188628115    0.044640872282
            0.070410358511    0.011322723985    -0.000466358002    -0.000039214784    0.086329627268    -0.008370968242    -0.000543602189    -0.000049811295
            -0.000600295425    -0.000085960457    0.057188606199    0.044640882481    -0.000543602209    -0.000049811297    0.065129315528    0.031523159567
0.250     0.087658510923    -0.023002483603    -0.000552407069    -0.000000964037    0.074825676441    -0.000504770362    -0.000657107174    -0.000008965282
            -0.000552407069    -0.000000964037    0.067914473403    0.027890484996    -0.000505441697    0.000020765242    0.063011914426    0.041675551906
            0.074825677450    -0.000504769089    -0.000505441697    0.000020765242    0.088044485700    -0.022956848469    -0.000590131267    0.000020913087
            -0.000657106693    -0.000008966079    0.063011896630    0.041675560686    -0.000590131277    0.000020913088    0.067765242520    0.028566194710
0.275     0.085468675827    -0.038493388166    -0.000589010351    0.000072695611    0.076082229218    -0.013747064212    -0.000702300142    0.000078976906
            -0.000589010351    0.000072695611    0.068905415918    0.024875479954    -0.000535588954    0.000088437137    0.067411820623    0.038024453711
            0.076082232385    -0.013747057928    -0.000535588570    0.000088436210    0.085988493775    -0.038518099584    -0.000625896383    0.000100919904
            -0.000702299964    0.000078976514    0.067411795820    0.038024469187    -0.000625896607    0.000100920277    0.068901857401    0.025651648316
0.300     0.079245831038    -0.053991062743    -0.000615557835    0.000153807006    0.073828865303    -0.027622179539    -0.000735249944    0.000176290576
            -0.000615557806    0.000153806998    0.068472277930    0.022439733931    -0.000556417436    0.000162606755    0.070323046218    0.034164846598
            0.073828869077    -0.027622178013    -0.000556417164    0.000162605832    0.079904670243    -0.054125875740    -0.000650340142    0.000188725895
            -0.000735249954    0.000176290579    0.070323030371    0.034164858621    -0.000650340482    0.000188726732    0.068648197542    0.023280163192
0.325     0.068956073281    -0.068505409505    -0.000631558924    0.000241481043    0.067896535403    -0.041267289961    -0.000755173948    0.000281766736
            -0.000631558799    0.000241480616    0.066874083121    0.021043595035    -0.000567412080    0.000242433181    0.071813560275    0.030570928269
            0.067896537832    -0.041267289815    -0.000567411861    0.000242432267    0.069749666527    -0.068794631239    -0.000662762253    0.000283179179
            -0.000755173716    0.000281765899    0.071813520732    0.030570957332    -0.000662762263    0.000283179183    0.067253146047    0.021901253785
0.350     0.054805362144    -0.081046900922    -0.000636338563    0.000335220581    0.058322736965    -0.053787218008    -0.000761133684    0.000394591869
            -0.000636338536    0.000335220567    0.064501266931    0.021069187455    -0.000567910328    0.000327337196    0.072090181831    0.027685027283
            0.058322739374    -0.053787218346    -0.000567910252    0.000327336228    0.055717544789    -0.081537593636    -0.000662353733    0.000383414813
            -0.000761133585    0.000394590975    0.072090182764    0.027685027641    -0.000662353750    0.000383414823    0.065093922517    0.021889339549
0.375     0.037229437944    -0.090670535352    -0.000628663310    0.000434532757    0.045355657324    -0.064289537172    -0.000751626071    0.000513888165
            -0.000628663304    0.000434531781    0.061848510871    0.022775414227    -0.000556784751    0.000416725578    0.071479341921    0.025872983356
            0.045355659599    -0.064289538014    -0.000556784739    0.000416724659    0.038231240260    -0.091409272076    -0.000647828364    0.000488503494
            -0.000751626079    0.000513888171    0.071479307725    0.025873016130    -0.000647828356    0.000488503488    0.062649803821    0.023498959492
0.400     0.016891725736    -0.096540346563    -0.000606819383    0.000538751125    0.029458174214    -0.071946893326    -0.000724698279    0.000638569241
            -0.000606819266    0.000538751211    0.059487496329    0.026278891066    -0.000532549731    0.000509795663    0.070415328498    0.025398309051
            0.029458176228    -0.071946894662    -0.000532549781    0.000509795711    0.017940382817    -0.097569511680    -0.000617571933    0.000597294075
            -0.000724698279    0.000638569241    0.070415330380    0.025398309730    -0.000617571933    0.000597294075    0.060475003583    0.026847404056
0.425     -0.005343404092    -0.097972767404    -0.000568574220    0.000646556027    0.011295087058    -0.076036007817    -0.000677914595    0.000766795175
            -0.000568574360    0.000646555504    0.058020006726    0.031524093626    -0.000493321086    0.000605169380    0.069400145659    0.026383080102
            0.011295132184    -0.076035992015    -0.000493321241    0.000605168492    -0.004303825900    -0.099327267869    -0.000569596438    0.000707982046
            -0.000677914933    0.000766794209    0.069400147529    0.026383080812    -0.000569596392    0.000707982494    0.059154376513    0.031884723995
0.450     -0.028447258397    -0.094498614730    -0.000511504382    0.000755781441    -0.008293390129    -0.076002540017    -0.000608725007    0.000895819601
            -0.000511504343    0.000755781383    0.058036543497    0.038280923028    -0.000437138948    0.000700715631    0.068971134961    0.028796815379
            -0.008293389020    -0.076002542149    -0.000437139268    0.000700714783    -0.027484445945    -0.096201318984    -0.000501900940    0.000817978676
            -0.000608725007    0.000895819601    0.068971137309    0.028796814946    -0.000501900935    0.000817978667    0.059262810761    0.038391410087
0.475     -0.051276438686    -0.085896147830    -0.000433319875    0.000863086354    -0.028329284481    -0.071495418576    -0.000514822343    0.001021646554
            -0.000433320042    0.000863085935    0.060057433767    0.046141388300    -0.000362235033    0.000793318354    0.069643854388    0.032438134461
            -0.028329284481    -0.071495418576    -0.000362235177    0.000793317936    -0.050466800250    -0.087954758778    -0.000412763015    0.000923644012
            -0.000514822565    0.001021646106    0.069643856767    0.032438134090    -0.000412762656    0.000923644939    0.061308357528    0.045975123033
0.500     -0.072641357084    -0.072228862626    -0.000332421701    0.000964029267    -0.047757715609    -0.062414364235    -0.000394717142    0.001139136887
            -0.000332422146    0.000964028373    0.064487817602    0.054547145085    -0.000267533030    0.000878956307    0.071869599806    0.036951908869
            -0.047757718040    -0.062414367411    -0.000267533460    0.000878955517    -0.072066537963    -0.074632636867    -0.000301253535    0.001020415412
            -0.000394717142    0.001139136887    0.071869599161    0.036951910124    -0.000301253506    0.001020415317    0.065688058521    0.054095859932
0.525     -0.091376084195    -0.053850429752    -0.000208375590    0.001053155984    -0.065505742807    -0.048919500771    -0.000248249817    0.001242136546
            -0.000208375590    0.001053155984    0.071564915189    0.062818978947    -0.000153022917    0.000952819640    0.075978209205    0.041845511844
            -0.065505746012    -0.048919503164    -0.000153023496    0.000952818889    -0.091118142668    -0.056568631870    -0.000167649327    0.001102938811
            -0.000248250586    0.001242135882    0.075978209205    0.041845511844    -0.000167649075    0.001102939355    0.072637148720    0.062096505690
0.550     -0.106422727525    -0.031398845322    -0.000062373713    0.001124533108    -0.080564739437    -0.031439100706    -0.000077051439    0.001324043327
            -0.000062373713    0.001124533108    0.081333099201    0.070215624445    -0.000020156692    0.001009795044    0.082149097507    0.046537358604
            -0.080564739437    -0.031439100706    -0.000020156692    0.001009795044    -0.106558485526    -0.034380180083    -0.000013815885    0.001165600823
            -0.000077051410    0.001324043229    0.082149101684    0.046537355289    -0.000013815243    0.001165601531    0.082204161161    0.069256711918
0.575     -0.116898045583    -0.005758621617    0.000102536204    0.001172244425    -0.092049875826    -0.010639707421    0.000115226262    0.001378374070
            0.000102536183    0.001172244427    0.093621136112    0.075988884647    0.000128020403    0.001044915745    0.090378198470    0.050401197700
            -0.092049875826    -0.010639707421    0.000128020039    0.001044915487    -0.117494225804    -0.008932852196    0.000156651886    0.001203019917
            0.000115225554    0.001378373427    0.090378151848    0.050401281302    0.000156651844    0.001203019923    0.094227909228    0.074848749933
0.600     -0.122162332380    0.021993415984    0.000281491043    0.001191189193    -0.099273516188    0.012614044734    0.000322983608    0.001399585578
            0.000281491064    0.001191189188    0.108056401709    0.079451382941    0.000286924434    0.001054059178    0.100485027160    0.052830329198
            -0.099273516188    0.012614044734    0.000286923672    0.001054058556    -0.123269770256    0.018713425531    0.000338514687    0.001210778173
            0.000322983610    0.001399585475    0.100485034536    0.052830315168    0.000338515446    0.001210778688    0.108351985488    0.078202063246
0.625     -0.121853249336    0.050659743465    0.000468095153    0.001177605406    -0.101775580224    0.037321756314    0.000538996761    0.001383657977
            0.000468095133    0.001177605414    0.124081936240    0.080032029862    0.000450746667    0.001034368464    0.112115496205    0.053284019315
            -0.101775586738    0.037321738551    0.000450746707    0.001034368556    -0.123503287902    0.047373750517    0.000525244903    0.001185881797
            0.000538992665    0.001383655816    0.112115496205    0.053284019315    0.000525245598    0.001185882583    0.124039888172    0.078756223859
0.650     -0.115910518239    0.079005342981    0.000655013927    0.001129646845    -0.099359965465    0.062419022757    0.000755043936    0.001328665451
            0.000655012220    0.001129646217    0.141011573453    0.077321694990    0.000612997466    0.000984736065    0.124787322324    0.051338594421
            -0.099359965465    0.062419022757    0.000612997447    0.000984735959    -0.118111932225    0.075819934008    0.000709597189    0.001127259012
            0.000755044128    0.001328665572    0.124787325012    0.051338587887    0.000709597132    0.001127259402    0.140627408742    0.076108464480
0.675     -0.104561795224    0.105832420955    0.000834570417    0.001047474988    -0.092079976808    0.086843477349    0.000962602210    0.001234908695
            0.000834570454    0.001047474959    0.158068910402    0.071101634343    0.000767051419    0.000905818345    0.137915994838    0.046711268796
            -0.092079976808    0.086843477349    0.000767051003    0.000905818173    -0.107299657660    0.102856380667    0.000884225673    0.001035774655
            0.000962597805    0.001234907310    0.137915980163    0.046711312123    0.000884225630    0.001035774824    0.157362248884    0.070038786734
0.700     -0.088298401927    0.130057822869    0.000999521461    0.000933321412    -0.080230737951    0.109607312606    0.001153599471    0.001104938004
            0.000999521478    0.000933321395    0.174458736621    0.061351125116    0.000906817864    0.000800035860    0.150877675323    0.039278389664
            -0.080230737951    0.109607312606    0.000906816970    0.000800035664    -0.091533995183    0.127395185328    0.001042392338    0.000914229120
            0.001153599490    0.001104937984    0.150877654071    0.039278471297    0.001042392354    0.000914229101    0.173470391718    0.060520217491
0.725     -0.067824054899    0.150760939365    0.001143501809    0.000791089898    -0.064299969503    0.129836397438    0.001321007147    0.000943135765
            0.001143501877    0.000791089975    0.189405747218    0.048241885266    0.001027123543    0.000671175121    0.163036558138    0.029070836926
            -0.064299973941    0.129836406399    0.001027123555    0.000671175103    -0.071496830908    0.148507103198    0.001178372596    0.000766902061
            0.001321007147    0.000943135765    0.163036542917    0.029070922292    0.001178372596    0.000766902061    0.188196876393    0.047710849763
0.750     -0.044000673950    0.167228447197    0.001261572662    0.000625996378    -0.044931451108    0.146818603872    0.001459325384    0.000755313623
            0.001261572752    0.000625996422    0.202211627780    0.032112651787    0.001124124675    0.000524037567    0.173798908910    0.016263485413
            -0.044931451108    0.146818603872    0.001124124694    0.000524037528    -0.048031073987    0.165464269392    0.001287931473    0.000599206566
            0.001459325384    0.000755313623    0.173798900139    0.016263579143    0.001287931473    0.000599206566    0.200858375200    0.031934199294
0.775     -0.017787528201    0.178965383238    0.001350280333    0.000444015420    -0.022871393670    0.160007643802    0.001564706203    0.000548118003
            0.001350280333    0.000444015420    0.212276853798    0.013443872299    0.001195327003    0.000363917722    0.182622641560    0.001152794924
            -0.022871407559    0.160007601410    0.001195327010    0.000363917701    -0.022080754927    0.177754166276    0.001368334389    0.000417087260
            0.001564706213    0.000548117976    0.182622631322    0.001152832632    0.001368334389    0.000417087260    0.210866643337    0.013650878968
