# GHz S RI R 45
0.000     0.014586187000    0.000000000000    -0.000000035059    -0.000000000000    0.000485933610    -0.000000000000    -0.000002398335    0.000000000000
            -0.000000035051    -0.000000000000    0.013666243000    0.000000000000    -0.000002329681    0.000000000000    0.000488592570    -0.000000000000
            0.000485930040    -0.000000000000    -0.000002329673    0.000000000000    0.014543675000    0.000000000000    0.000000205022    -0.000000000000
            -0.000002398320    0.000000000000    0.000488594630    -0.000000000000    0.000000205013    -0.000000000000    0.013588034000    0.000000000000
0.025     0.019005981039    0.011120917081    -0.000001250401    -0.000002692686    0.002207439828    0.010107437033    -0.000000536244    -0.000001251219
            -0.000001250393    -0.000002692687    0.017360986729    0.009304858805    -0.000001645230    -0.000002168133    0.001764328932    0.008199608365
            0.002207410258    0.010107484434    -0.000001645231    -0.000002168134    0.018940641297    0.011102206242    -0.000001312860    -0.000003873813
            -0.000000536235    -0.000001251220    0.001764304548    0.008199653709    -0.000001312873    -0.000003873812    0.017290814516    0.009236651560
0.050     0.025177518047    0.018529029921    -0.000002955335    -0.000004317865    0.006822493453    0.019149281716    -0.000001421994    -0.000004724226
            -0.000002955324    -0.000004317870    0.022438071171    0.015534794557    -0.000003080193    -0.000005434400    0.005332965143    0.015708833276
            0.006822476747    0.019149290853    -0.000003080192    -0.000005434401    0.025103539166    0.018525166952    -0.000003771830    -0.000006411430
            -0.000001421990    -0.000004724227    0.005332954044    0.015708840212    -0.000003771844    -0.000006411424    0.022355871327    0.015407836632
0.075     0.033288343014    0.023833110295    -0.000005201138    -0.000005371940    0.013956899028    0.026433816925    -0.000004268390    -0.000006994198
            -0.000005201136    -0.000005371942    0.029118571047    0.020179183075    -0.000006253999    -0.000007521832    0.010950177601    0.021953968065
            0.013956888862    0.026433818901    -0.000006253995    -0.000007521833    0.033218750488    0.023844704497    -0.000007058512    -0.000008091746
            -0.000004268384    -0.000006994201    0.010950171154    0.021953965693    -0.000007058516    -0.000008091743    0.029016405072    0.019998412329
0.100     0.043016934962    0.026415406611    -0.000007901885    -0.000005630767    0.023030274598    0.031332085881    -0.000007970164    -0.000007858135
            -0.000007901884    -0.000005630770    0.037248337955    0.022768693818    -0.000010250583    -0.000008195541    0.018216332042    0.026469075733
            0.023030273003    0.031332088295    -0.000010250583    -0.000008195542    0.042961851150    0.026445647459    -0.000011039540    -0.000008578892
            -0.000007970157    -0.000007858141    0.018216332966    0.026469075098    -0.000011039552    -0.000008578882    0.037122535517    0.022546105262
0.125     0.053530612379    0.025835363373    -0.000010808046    -0.000004946106    0.033320475330    0.033390248502    -0.000011947153    -0.000007271816
            -0.000010808039    -0.000004946116    0.046255068594    0.022931165933    -0.000014532917    -0.000007340149    0.026649814967    0.028891746919
            0.033320474288    0.033390250954    -0.000014532918    -0.000007340147    0.053502411050    0.025884745184    -0.000015313504    -0.000007688071
            -0.000011947146    -0.000007271823    0.026649816480    0.028891745523    -0.000015313510    -0.000007688065    0.046107004794    0.022680645389
0.150     0.064039332917    0.021880680129    -0.000013625457    -0.000003278206    0.044025258372    0.032358396347    -0.000015750913    -0.000005282033
            -0.000013625457    -0.000003278209    0.055610249629    0.020434872915    -0.000018621618    -0.000004987585    0.035709870538    0.028983276232
            0.044025258854    0.032358399068    -0.000018621617    -0.000004987585    0.064054475150    0.021952116423    -0.000019460185    -0.000005366367
            -0.000015750907    -0.000005282043    0.035709870773    0.028983274355    -0.000019460185    -0.000005366367    0.055448982125    0.020169377890
0.175     0.073544976355    0.014599084007    -0.000016071192    -0.000000668039    0.054308047765    0.028194644158    -0.000018980025    -0.000002043290
            -0.000016071190    -0.000000668044    0.064583171027    0.015212167375    -0.000022082989    -0.000001275289    0.044814755792    0.026632502489
            0.054308047668    0.028194646515    -0.000022082987    -0.000001275296    0.073622839435    0.014687826239    -0.000023073325    -0.000001694658
            -0.000018980021    -0.000002043300    0.044814756257    0.026632501707    -0.000023073330    -0.000001694646    0.064422824855    0.014941917336
0.200     0.081149573235    0.004313683316    -0.000017888089    0.000002766189    0.063354676512    0.021064393210    -0.000021323503    0.000002226848
            -0.000017888095    0.000002766190    0.072493202747    0.007394271248    -0.000024572838    0.000003567687    0.053378586588    0.021863684942
            0.063354677675    0.021064396052    -0.000024572839    0.000003567683    0.081310786189    0.004408845501    -0.000025795378    0.000003154022
            -0.000021323503    0.000002226848    0.053378586588    0.021863684942    -0.000025795379    0.000003154036    0.072351905726    0.007125350431
0.225     0.086064800505    -0.008454237252    -0.000018858440    0.000006851415    0.070410357859    0.011322721737    -0.000022540269    0.000007248351
            -0.000018858440    0.000006851412    0.078711346013    -0.002750549399    -0.000025813181    0.000009244881    0.060832830158    0.014828554628
            0.070410358511    0.011322723985    -0.000025813181    0.000009244881    0.086329627268    -0.008370968242    -0.000027329460    0.000008927355
            -0.000022540269    0.000007248338    0.060832829445    0.014828553330    -0.000027329460    0.000008927355    0.078610497349    -0.003017862554
0.250     0.087658510923    -0.023002483603    -0.000018814580    0.000011366298    0.074825676441    -0.000504770362    -0.000022471802    0.000012718786
            -0.000018814580    0.000011366289    0.082691173578    -0.014815320258    -0.000025621622    0.000015424192    0.066657939143    0.005800076437
            0.074825677450    -0.000504769089    -0.000025621624    0.000015424193    0.088044485700    -0.022956848469    -0.000027450532    0.000015317147
            -0.000022471799    0.000012718690    0.066657938208    0.005800075652    -0.000027450529    0.000015317152    0.082653703555    -0.015087264073
0.275     0.085468675827    -0.038493388166    -0.000017641972    0.000016055914    0.076082229218    -0.013747064212    -0.000021030535    0.000018309900
            -0.000017641973    0.000016055916    0.083978774599    -0.028284447272    -0.000023888685    0.000021739577    0.070400245453    -0.004840237025
            0.076082232385    -0.013747057928    -0.000023888686    0.000021739578    0.085988493775    -0.038518099584    -0.000026007259    0.000021973170
            -0.000021030536    0.000018309901    0.070400243382    -0.004840237993    -0.000026007255    0.000021973174    0.084027294414    -0.028574338609
0.300     0.079245831038    -0.053991062743    -0.000015288183    0.000020641763    0.073828865303    -0.027622179539    -0.000018200622    0.000023695193
            -0.000015288186    0.000020641767    0.082246721577    -0.042549243276    -0.000020592106    0.000027824023    0.071698153430    -0.016620225702
            0.073828869077    -0.027622178013    -0.000020592101    0.000027824026    0.079904670243    -0.054125875740    -0.000022930685    0.000028519032
            -0.000018200627    0.000023695191    0.071698151110    -0.016620235713    -0.000022930685    0.000028519032    0.082401750911    -0.042878038807
0.325     0.068956073281    -0.068505409505    -0.000011763417    0.000024832767    0.067896535403    -0.041267289961    -0.000014035873    0.000028545874
            -0.000011763423    0.000024832768    0.077297276790    -0.056936546891    -0.000015786351    0.000033302769    0.070293265299    -0.028993675742
            0.067896537832    -0.041267289815    -0.000015786351    0.000033302769    0.069749666527    -0.068794631239    -0.000018233397    0.000034564742
            -0.000014035878    0.000028545873    0.070293263869    -0.028993676588    -0.000018233397    0.000034564741    0.077575155377    -0.057331839209
0.350     0.054805362144    -0.081046900922    -0.000007147306    0.000028340330    0.058322736965    -0.053787218008    -0.000008656441    0.000032552800
            -0.000007147306    0.000028340332    0.069086115177    -0.070739151069    -0.000009606384    0.000037825172    0.066048830524    -0.041367188544
            0.058322739374    -0.053787218346    -0.000009606383    0.000037825169    0.055717544789    -0.081537593636    -0.000012016748    0.000039725175
            -0.000008656441    0.000032552800    0.066048828955    -0.041367189166    -0.000012016748    0.000039725175    0.069497018540    -0.071234716691
0.375     0.037229437944    -0.090670535352    -0.000001587681    0.000030890143    0.045355657324    -0.064289537172    -0.000002252138    0.000035428546
            -0.000001587683    0.000030890145    0.057716819045    -0.083242124786    -0.000002265796    0.000041062832    0.058953635919    -0.053118132194
            0.045355659599    -0.064289538014    -0.000002265796    0.000041062833    0.038231240260    -0.091409272076    -0.000004468644    0.000043633555
            -0.000002252141    0.000035428548    0.058953634433    -0.053118130855    -0.000004468642    0.000043633555    0.058263054617    -0.083876681517
0.400     0.016891725736    -0.096540346563    0.000004699146    0.000032241857    0.029458174214    -0.071946893326    0.000004925227    0.000036929156
            0.000004699142    0.000032241863    0.043449115802    -0.093761254577    0.000005949575    0.000042740067    0.049131518206    -0.063629957000
            0.029458176228    -0.071946894662    0.000005949570    0.000042740068    0.017940382817    -0.097569511680    0.000004136056    0.000045965736
            0.000004925223    0.000036929158    0.049131517595    -0.063629956208    0.000004136060    0.000045965731    0.044123579079    -0.094576135204
0.425     -0.005343404092    -0.097972767404    0.000011435058    0.000032203582    0.011295087058    -0.076036007817    0.000012562363    0.000036863851
            0.000011435055    0.000032203585    0.026686248383    -0.101667114673    0.000014685037    0.000042640034    0.036836878140    -0.072310133874
            0.011295132184    -0.076035992015    0.000014685036    0.000042640033    -0.004303825900    -0.099327267869    0.000013443550    0.000046456242
            0.000012562363    0.000036863850    0.036836875970    -0.072310132734    0.000013443553    0.000046456240    0.027471618138    -0.102704513357
0.450     -0.028447258397    -0.094498614730    0.000018291288    0.000030652762    -0.008293390129    -0.076002540017    0.000020300684    0.000035115162
            0.000018291290    0.000030652766    0.007964676557    -0.106423600417    0.000023535612    0.000040631953    0.022450392255    -0.078628041321
            -0.008293389020    -0.076002542149    0.000023535615    0.000040631952    -0.027484445945    -0.096201318984    0.000023033450    0.000044924843
            0.000020300597    0.000035115126    0.022450390334    -0.078628039789    0.000023033452    0.000044924841    0.008832755670    -0.107723707742
0.475     -0.051276438686    -0.085896147830    0.000024904832    0.000027548186    -0.028329284481    -0.071495418576    0.000027747973    0.000031650891
            0.000024904822    0.000027548236    -0.012066155068    -0.107608614085    0.000032059499    0.000036679115    0.006466176685    -0.082132817662
            -0.028329284481    -0.071495418576    0.000032059499    0.000036679116    -0.050466800250    -0.087954758778    0.000032438403    0.000041290274
            0.000027747972    0.000031650894    0.006466176606    -0.082132816665    0.000032438404    0.000041290270    -0.011154113123    -0.109207032303
0.500     -0.072641357084    -0.072228862626    0.000030902330    0.000022943374    -0.047757715609    -0.062414364235    0.000034505006    0.000026536031
            0.000030902332    0.000022943382    -0.032670964069    -0.104944448094    0.000039808505    0.000030854756    -0.010528822192    -0.082487303339
            -0.047757718040    -0.062414367411    0.000039808502    0.000030854748    -0.072066537963    -0.074632636867    0.000041170999    0.000035588520
            0.000034504913    0.000026536024    -0.010528822065    -0.082487302347    0.000041170998    0.000035588522    -0.031763660933    -0.106869478732
0.525     -0.091376084195    -0.053850429752    0.000035925390    0.000016987483    -0.065505742807    -0.048919500771    0.000040188151    0.000019935621
            0.000035925394    0.000016987485    -0.053058873582    -0.098310421968    0.000046352066    0.000023341851    -0.027876351341    -0.079479118653
            -0.065505746012    -0.048919503164    0.000046352066    0.000023341851    -0.091118142668    -0.056568631870    0.000048753939    0.000027975225
            0.000040188152    0.000019935623    -0.027876351010    -0.079479117709    0.000048753937    0.000027975224    -0.052213181119    -0.100580600519
0.550     -0.106422727525    -0.031398845322    0.000039659771    0.000009922075    -0.080564739437    -0.031439100706    0.000044461433    0.000012109761
            0.000039659778    0.000009922088    -0.072421547268    -0.087758265021    0.000051312671    0.000014429060    -0.044881831086    -0.073044555198
            -0.080564739437    -0.031439100706    0.000051312670    0.000014429061    -0.106558485526    -0.034380180083    0.000054755706    0.000018724644
            0.000044461347    0.000012109790    -0.044881831086    -0.073044555198    0.000054755706    0.000018724641    -0.071700613608    -0.090380123352
0.575     -0.116898045583    -0.005758621617    0.000041859988    0.000002064733    -0.092049875826    -0.010639707421    0.000047059595    0.000003399149
            0.000041859950    0.000002064755    -0.089968772280    -0.073511131354    0.000054389777    0.000004493610    -0.060841555088    -0.063267298501
            -0.092049875826    -0.010639707421    0.000054389780    0.000004493610    -0.117494225804    -0.008932852196    0.000058819580    0.000008212458
            0.000047059597    0.000003399154    -0.060841553702    -0.063267297059    0.000058819577    0.000008212451    -0.089438825840    -0.076477485333
0.600     -0.122162332380    0.021993415984    0.000042370708    -0.000006212890    -0.099273516188    0.012614044734    0.000047812355    -0.000005798486
            0.000042370713    -0.000006212890    -0.104971407483    -0.055957980986    0.000055386989    -0.000006023614    -0.075085216364    -0.050383546163
            -0.099273516188    0.012614044734    0.000055386990    -0.000006023613    -0.123269770256    0.018713425531    0.000060693345    -0.000003107029
            0.000047812356    -0.000005798485    -0.075085221836    -0.050383530830    0.000060693425    -0.000003107076    -0.104698809174    -0.059247194950
0.625     -0.121853249336    0.050659743465    0.000041136086    -0.000014513700    -0.101775580224    0.037321756314    0.000046653568    -0.000015056869
            0.000041136093    -0.000014513699    -0.116792684287    -0.035636149229    0.000054220639    -0.000016648355    -0.087000306275    -0.034766907924
            -0.101775586738    0.037321738551    0.000054220638    -0.000016648355    -0.123503287902    0.047373750517    0.000060242115    -0.000014734319
            0.000046653534    -0.000015056839    -0.087000306275    -0.034766907924    0.000060242114    -0.000014734318    -0.116840729074    -0.039211629276
0.650     -0.115910518239    0.079005342981    0.000038203341    -0.000022446448    -0.099359965465    0.062419022757    0.000043625720    -0.000023954018
            0.000038203349    -0.000022446448    -0.124924731443    -0.013205845452    0.000050926775    -0.000026908385    -0.096072939659    -0.016912987592
            -0.099359965465    0.062419022757    0.000050926770    -0.000026908383    -0.118111932225    0.075819934008    0.000057458311    -0.000026159382
            0.000043625724    -0.000023954017    -0.096072939659    -0.016912987592    0.000057458311    -0.000026159383    -0.125349776797    -0.017017488268
0.675     -0.104561795224    0.105832420955    0.000033711049    -0.000029651630    -0.092079976808    0.086843477349    0.000038869139    -0.000032099567
            0.000033711051    -0.000029651632    -0.129006988374    0.010580735862    0.000045648839    -0.000036362309    -0.101900100504    0.002586838929
            -0.092079976808    0.086843477349    0.000045648843    -0.000036362311    -0.107299657660    0.102856380667    0.000052451107    -0.000036894944
            0.000038869141    -0.000032099567    -0.101900090507    0.002586838675    0.000052451102    -0.000036894945    -0.129855506114    0.006595806002
0.700     -0.088298401927    0.130057822869    0.000027874624    -0.000035827034    -0.080230737951    0.109607312606    0.000032606764    -0.000039161594
            0.000027874632    -0.000035827038    -0.128846701449    0.034918797307    0.000038623723    -0.000044629201    -0.104219270405    0.023077148031
            -0.080230737951    0.109607312606    0.000038623719    -0.000044629201    -0.091533995183    0.127395185328    0.000045435114    -0.000046507801
            0.000032606766    -0.000039161597    -0.104219270405    0.023077148031    0.000045435114    -0.000046507801    -0.130152529770    0.030833081146
0.725     -0.067824054899    0.150760939365    0.000020962590    -0.000040738853    -0.064299969503    0.129836397438    0.000025119937    -0.000044879117
            0.000020962591    -0.000040738856    -0.124418860195    0.058985625105    0.000030155861    -0.000051402644    -0.102903346110    0.043867141387
            -0.064299973941    0.129836406399    0.000030155861    -0.000051402645    -0.071496830908    0.148507103198    0.000036703598    -0.000054636235
            0.000025119937    -0.000044879117    -0.102903336911    0.043867137465    0.000036703595    -0.000054636235    -0.126201559680    0.054879421441
0.750     -0.044000673950    0.167228447197    0.000013273878    -0.000044231091    -0.044931451108    0.146818603872    0.000016724794    -0.000049072798
            0.000013273878    -0.000044231091    -0.115866308964    0.081983434787    0.000020593211    -0.000056463870    -0.097972905179    0.064268771187
            -0.044931451108    0.146818603872    0.000020593214    -0.000056463874    -0.048031073987    0.165464269392    0.000026606083    -0.000061005840
            0.000016724795    -0.000049072797    -0.097972905179    0.064268771187    0.000026606079    -0.000061005837    -0.118129227827    0.077940130692
0.775     -0.017787528201    0.178965383238    0.000005115308    -0.000046220912    -0.022871393670    0.160007643802    0.000007748226    -0.000051640477
            0.000005115310    -0.000046220918    -0.103483991746    0.103167751368    0.000010301660    -0.000059678076    -0.089577897290    0.083619272760
            -0.022871407559    0.160007601410    0.000010301662    -0.000059678082    -0.022080754927    0.177754166276    0.000015520104    -0.000065428164
