# GHz S RI R 45
0.000     0.014586187000    0.000000000000    0.000017922194    -0.000000000000    0.000485933610    -0.000000000000    0.000008793087    -0.000000000000
            0.000017922196    -0.000000000000    0.014040559000    0.000000000000    0.000000518459    -0.000000000000    0.000517184690    -0.000000000000
            0.000485930040    -0.000000000000    0.000000518472    -0.000000000000    0.014543675000    0.000000000000    0.000008135512    0.000000000000
            0.000008793097    -0.000000000000    0.000517176440    -0.000000000000    0.000008135482    0.000000000000    0.013913990000    0.000000000000
0.025     0.019005981039    0.011120917081    -0.000012187620    -0.000020685725    0.002207439828    0.010107437033    -0.000005045512    -0.000012203987
            -0.000012187554    -0.000020685729    0.017772599190    0.009454421259    -0.000003940280    -0.000006877620    0.001832731597    0.008459945342
            0.002207410258    0.010107484434    -0.000003940262    -0.000006877620    0.018940641297    0.011102206242    -0.000003450735    -0.000011998835
            -0.000005045503    -0.000012203989    0.001832695474    0.008459993379    -0.000003450765    -0.000011998832    0.017710344252    0.009441673294
0.050     0.025177518047    0.018529029921    -0.000023968220    -0.000010350665    0.006822493453    0.019149281716    -0.000012327341    -0.000010310862
            -0.000023968124    -0.000010350698    0.022966507608    0.015756062021    -0.000008104870    -0.000009548563    0.005518279640    0.016193802331
            0.006822476747    0.019149290853    -0.000008104854    -0.000009548568    0.025103539166    0.018525166952    -0.000010545402    -0.000012386959
            -0.000012327326    -0.000010310867    0.005518257432    0.016193813068    -0.000010545429    -0.000012386951    0.022892367816    0.015738207508
0.075     0.033288343014    0.023833110295    -0.000026518922    -0.000003231442    0.013956899028    0.026433816925    -0.000016585661    -0.000008814598
            -0.000026518922    -0.000003231442    0.029792926571    0.020396715175    -0.000012923289    -0.000011330938    0.011307509757    0.022594573884
            0.013956888862    0.026433818901    -0.000012923276    -0.000011330944    0.033218750488    0.023844704497    -0.000015825297    -0.000012648773
            -0.000016585655    -0.000008814602    0.011307495454    0.022594578806    -0.000015825325    -0.000012648759    0.029701779239    0.020383121596
0.100     0.043016934962    0.026415406611    -0.000027176406    0.000001871835    0.023030274598    0.031332085881    -0.000020635897    -0.000006918895
            -0.000027176404    0.000001871835    0.038066157439    0.022887567474    -0.000018630319    -0.000011604966    0.018770247290    0.027174064192
            0.023030273003    0.031332088295    -0.000018630305    -0.000011604976    0.042961851150    0.026445647459    -0.000021479799    -0.000011984490
            -0.000020635900    -0.000006918892    0.018770243684    0.027174069114    -0.000021479820    -0.000011984477    0.037959006496    0.022891209710
0.125     0.053530612379    0.025835363373    -0.000027389507    0.000005947531    0.033320475330    0.033390248502    -0.000024641158    -0.000004044472
            -0.000027389507    0.000005947531    0.047172948379    0.022851899976    -0.000024813307    -0.000009951003    0.027388160799    0.029559162886
            0.033320474288    0.033390250954    -0.000024813295    -0.000009951013    0.053502411050    0.025884745184    -0.000027478953    -0.000009767185
            -0.000024641159    -0.000004044467    0.027388157515    0.029559168655    -0.000027478963    -0.000009767172    0.047056509160    0.022885586284
0.150     0.064039332917    0.021880680129    -0.000027505209    0.000009766975    0.044025258372    0.032358396347    -0.000028289300    0.000000083067
            -0.000027505209    0.000009766970    0.056542970327    0.020061870264    -0.000030864444    -0.000006195065    0.036581178504    0.029512043839
            0.044025258854    0.032358399068    -0.000030864444    -0.000006195059    0.064054475150    0.021952116423    -0.000033349186    -0.000005669640
            -0.000028289300    0.000000083072    0.036581177234    0.029512050192    -0.000033349242    -0.000005669566    0.056429780292    0.020138350178
0.175     0.073544976355    0.014599084007    -0.000027555919    0.000013763696    0.054308047765    0.028194644158    -0.000031185014    0.000005503592
            -0.000027555898    0.000013763649    0.065404297411    0.014474642765    -0.000036156730    -0.000000356633    0.045729332930    0.026935558471
            0.054308047668    0.028194646515    -0.000036156707    -0.000000356670    0.073622839435    0.014687826239    -0.000038534204    0.000000395156
            -0.000031185012    0.000005503591    0.045729330814    0.026935567975    -0.000038534228    0.000000395197    0.065312419587    0.014602519226
0.200     0.081149573235    0.004313683316    -0.000027296705    0.000018204949    0.063354676512    0.021064393210    -0.000032912037    0.000012060877
            -0.000027296706    0.000018204950    0.073043191895    0.006257087624    -0.000040085366    0.000007342824    0.054212638449    0.021879005099
            0.063354677675    0.021064396052    -0.000040085365    0.000007342831    0.081310786189    0.004408845501    -0.000042437188    0.000008284348
            -0.000032912036    0.000012060883    0.054212639321    0.021879010953    -0.000042437186    0.000008284348    0.072994990117    0.006440037550
0.225     0.086064800505    -0.008454237252    -0.000026445729    0.000023222495    0.070410357859    0.011322721737    -0.000033112137    0.000019492172
            -0.000026445725    0.000023222442    0.078807608319    -0.004276439102    -0.000042120314    0.000016539598    0.061435594899    0.014529091613
            0.070410358511    0.011322723985    -0.000042120307    0.000016539604    0.086329627268    -0.008370968242    -0.000044519579    0.000017705188
            -0.000033112137    0.000019492172    0.061435596509    0.014529102184    -0.000044519582    0.000017705181    0.078828343529    -0.004041741371
0.250     0.087658510923    -0.023002483603    -0.000024649998    0.000028716500    0.074825676441    -0.000504770362    -0.000031509274    0.000027404849
            -0.000024650000    0.000028716400    0.082140717564    -0.016666048457    -0.000041847236    0.000026724641    0.066861044126    0.005201757615
            0.074825677450    -0.000504769089    -0.000041847229    0.000026724646    0.088044485700    -0.022956848469    -0.000044328560    0.000028190215
            -0.000031509270    0.000027404854    0.066861047768    0.005201762360    -0.000044328558    0.000028190311    0.082256489947    -0.016390033340
0.275     0.085468675827    -0.038493388166    -0.000021603903    0.000034513781    0.076082229218    -0.013747064212    -0.000027923830    0.000035352665
            -0.000021603925    0.000034513681    0.082591941779    -0.030338883612    -0.000038978265    0.000037301487    0.070028175122    -0.005672901815
            0.076082232385    -0.013747057928    -0.000038978255    0.000037301491    0.085988493775    -0.038518099584    -0.000041531736    0.000039173496
            -0.000027923823    0.000035352669    0.070028180799    -0.005672893664    -0.000041531734    0.000039173494    0.082827534261    -0.030039912127
0.300     0.079245831038    -0.053991062743    -0.000017084492    0.000040244226    0.073828865303    -0.027622179539    -0.000022303493    0.000042826762
            -0.000017084527    0.000040244132    0.079851815336    -0.044628111946    -0.000033389489    0.000047603531    0.070580999728    -0.017570802647
            0.073828869077    -0.027622178013    -0.000033389479    0.000047603535    0.079904670243    -0.054125875740    -0.000035952486    0.000049988703
            -0.000022303493    0.000042826762    0.070581005500    -0.017570800159    -0.000035952487    0.000049988704    0.080229186972    -0.044332629370
0.325     0.068956073281    -0.068505409505    -0.000010958876    0.000045512988    0.067896535403    -0.041267289961    -0.000014711123    0.000049311076
            -0.000010958923    0.000045512905    0.073756250097    -0.058804543221    -0.000025112396    0.000056938096    0.068279615992    -0.029893167494
            0.067896537832    -0.041267289815    -0.000025112384    0.000056938097    0.069749666527    -0.068794631239    -0.000027572107    0.000059932172
            -0.000014711138    0.000049311033    0.068279622138    -0.029893165924    -0.000027572106    0.000059932170    0.074291672194    -0.058546157088
0.350     0.054805362144    -0.081046900922    -0.000003260758    0.000049826577    0.058322736965    -0.053787218008    -0.000005351433    0.000054294203
            -0.000003260759    0.000049826579    0.064309372218    -0.072111250399    -0.000014357402    0.000064623847    0.063019556802    -0.041996206379
            0.058322739374    -0.053787218346    -0.000014357389    0.000064623846    0.055717544789    -0.081537593636    -0.000016559370    0.000068287178
            -0.000005351429    0.000054294204    0.063019563261    -0.041996207506    -0.000016559382    0.000068287174    0.065011531761    -0.071929598897
0.375     0.037229437944    -0.090670535352    0.000005867021    0.000052719803    0.045355657324    -0.064289537172    0.000005451599    0.000057310814
            0.000005867018    0.000052719806    0.051677653734    -0.083792644676    -0.000001497153    0.000070024887    0.054836296063    -0.053212529196
            0.045355659599    -0.064289538014    -0.000001497185    0.000070024850    0.038231240260    -0.091409272076    -0.000003254748    0.000074374589
            0.000005451600    0.000057310814    0.054836302438    -0.053212529806    -0.000003254682    0.000074374658    0.052546014640    -0.083731787651
0.400     0.016891725736    -0.096540346563    0.000016098174    0.000053743632    0.029458174214    -0.071946893326    0.000017242385    0.000057970767
            0.000016098171    0.000053743637    0.036196363192    -0.093137445220    0.000012932165    0.000072600568    0.043913278748    -0.062889918370
            0.029458176228    -0.071946894662    0.000012932172    0.000072600557    0.017940382817    -0.097569511680    0.000011819569    0.000077597345
            0.000017242386    0.000057970766    0.043913284378    -0.062889921756    0.000011819640    0.000077597409    0.037219545176    -0.093243549092
0.425     -0.005343404092    -0.097972767404    0.000027006888    0.000052540482    0.011295087058    -0.076036007817    0.000029467288    0.000055991391
            0.000027006885    0.000052540485    0.018354860889    -0.099506063944    0.000028258224    0.000071935821    0.030577230678    -0.070412949083
            0.011295132184    -0.076035992015    0.000028258181    0.000071935793    -0.004303825900    -0.099327267869    0.000027991960    0.000077481966
            0.000029467287    0.000055991389    0.030577235127    -0.070412952602    0.000027991961    0.000077481964    0.019510064501    -0.099824620281
0.450     -0.028447258397    -0.094498614730    0.000038027147    0.000048873054    -0.008293390129    -0.076002540017    0.000041486906    0.000051232965
            0.000038027055    0.000048873026    -0.001217507839    -0.102372640405    0.000043700586    0.000067790012    0.015289926813    -0.075245468640
            -0.008293389020    -0.076002542149    0.000043700498    0.000067789968    -0.027484445945    -0.096201318984    0.000044461676    0.000073728954
            0.000041486908    0.000051232960    0.015289930635    -0.075245473986    0.000044461677    0.000073728953    0.000034828092    -0.102945864109
0.475     -0.051276438686    -0.085896147830    0.000048545412    0.000042653956    -0.028329284481    -0.071495418576    0.000052624479    0.000043717191
            0.000048545318    0.000042653938    -0.021777053067    -0.101348785999    0.000058415574    0.000060116937    -0.001367371074    -0.076951225331
            -0.028329284481    -0.071495418576    0.000058415526    0.000060116926    -0.050466800250    -0.087954758778    0.000060351914    0.000066239225
            0.000052624479    0.000043717190    -0.001367323907    -0.076951217167    0.000060351915    0.000066239224    -0.020473200083    -0.102212488236
0.500     -0.072641357084    -0.072228862626    0.000057903598    0.000033980913    -0.047757715609    -0.062414364235    0.000062203902    0.000033649083
            0.000057903507    0.000033980914    -0.042497968572    -0.096215497289    0.000071552344    0.000049092764    -0.018720609746    -0.075230464856
            -0.047757718040    -0.062414367411    0.000071552345    0.000049092758    -0.072066537963    -0.074632636867    0.000074761521    0.000055145987
            0.000062203902    0.000033649079    -0.018720610953    -0.075230469708    0.000074761519    0.000055145984    -0.041198532358    -0.097395877980
0.525     -0.091376084195    -0.053850429752    0.000065487646    0.000023121774    -0.065505742807    -0.048919500771    0.000069608676    0.000021408079
            0.000065487649    0.000023121774    -0.062509727106    -0.086935765654    0.000082311565    0.000035109549    -0.036030506210    -0.069933051183
            -0.065505746012    -0.048919503164    0.000082311561    0.000035109542    -0.091118142668    -0.056568631870    0.000086832215    0.000040810739
            0.000069608675    0.000021408076    -0.036030508500    -0.069933055628    0.000086832263    0.000040810737    -0.061278357215    -0.088447472288
0.550     -0.106422727525    -0.031398845322    0.000070759221    0.000010524677    -0.080564739437    -0.031439100706    0.000074330737    0.000007537595
            0.000070759130    0.000010524700    -0.080943502357    -0.073668493704    0.000090011904    0.000018763325    -0.052535263076    -0.061079754053
            -0.080564739437    -0.031439100706    0.000090011900    0.000018763321    -0.106558485526    -0.034380180083    0.000095815004    0.000023815878
            0.000074330730    0.000007537593    -0.052535266336    -0.061079757844    0.000095815004    0.000023815878    -0.079848653613    -0.075511546846
0.575     -0.116898045583    -0.005758621617    0.000073318835    -0.000003237984    -0.092049875826    -0.010639707421    0.000076017207    -0.000007299162
            0.000073318756    -0.000003237936    -0.096973441934    -0.056761830945    0.000094139584    0.000000810682    -0.067483552400    -0.048859423245
            -0.092049875826    -0.010639707421    0.000094139578    0.000000810675    -0.117494225804    -0.008932852196    0.000101126732    0.000004919491
            0.000076017119    -0.000007299124    -0.067483555640    -0.048859425591    0.000101126722    0.000004919490    -0.096085253873    -0.058921287486
0.600     -0.122162332380    0.021993415984    0.000072935315    -0.000017493825    -0.099273516188    0.012614044734    0.000074503029    -0.000022363366
            0.000072935322    -0.000017493821    -0.109866371585    -0.036741627505    0.000094395933    -0.000017883669    -0.080184585969    -0.033626721672
            -0.099273516188    0.012614044734    0.000094395921    -0.000017883674    -0.123269770256    0.018713425531    0.000102400158    -0.000014993804
            0.000074503027    -0.000022363368    -0.080184589658    -0.033626723219    0.000102400232    -0.000014993851    -0.109252580029    -0.039186833936
0.625     -0.121853249336    0.050659743465    0.000069562591    -0.000031547282    -0.101775580224    0.037321756314    0.000069820976    -0.000036905091
            0.000069562559    -0.000031547250    -0.119015569668    -0.014285654009    0.000090709627    -0.000036413800    -0.090035738890    -0.015881595464
            -0.101775586738    0.037321738551    0.000090709547    -0.000036413737    -0.123503287902    0.047373750517    0.000099500874    -0.000034984070
            0.000069820973    -0.000036905094    -0.090035744798    -0.015881596506    0.000099500874    -0.000034984070    -0.118738773076    -0.016970078321
0.650     -0.115910518239    0.079005342981    0.000063341085    -0.000044720713    -0.099359965465    0.062419022757    0.000062196705    -0.000050219622
            0.000063341094    -0.000044720713    -0.123979550079    0.009813076551    0.000083241573    -0.000053902181    -0.096565264125    0.003757616534
            -0.099359965465    0.062419022757    0.000083241564    -0.000053902181    -0.118111932225    0.075819934008    0.000092536580    -0.000054125360
            0.000062196700    -0.000050219625    -0.096565271776    0.003757599952    0.000092536579    -0.000054125362    -0.124092189189    0.006949280065
0.675     -0.104561795224    0.105832420955    0.000054566752    -0.000056417741    -0.092079976808    0.086843477349    0.000052016624    -0.000061700517
            0.000054566775    -0.000056417755    -0.124496914895    0.034685550098    0.000072353834    -0.000069557535    -0.099443275629    0.024587142111
            -0.092079976808    0.086843477349    0.000072353805    -0.000069557536    -0.107299657660    0.102856380667    0.000081824832    -0.000071566296
            0.000052016600    -0.000061700478    -0.099443275629    0.024587142111    0.000081824833    -0.000071566295    -0.125039283576    0.031714119964
0.700     -0.088298401927    0.130057822869    0.000043664734    -0.000066152965    -0.080230737951    0.109607312606    0.000039790166    -0.000070877373
            0.000043664709    -0.000066152879    -0.120501686973    0.059436046753    0.000058572512    -0.000082726697    -0.098507049399    0.045859596112
            -0.080230737951    0.109607312606    0.000058572507    -0.000082726701    -0.091533995183    0.127395185328    0.000067863991    -0.000086587251
            0.000039790163    -0.000070877372    -0.098507058465    0.045859600333    0.000067863989    -0.000086587253    -0.121498962811    0.056437071582
0.725     -0.067824054899    0.150760939365    0.000031133761    -0.000073577496    -0.064299969503    0.129836397438    0.000026096934    -0.000077433571
            0.000031133762    -0.000073577496    -0.112116571156    0.083183047124    0.000042534049    -0.000092919618    -0.093750028081    0.066817860505
            -0.064299973941    0.129836406399    0.000042534047    -0.000092919619    -0.071496830908    0.148507103198    0.000051274081    -0.000098624442
            0.000026096930    -0.000077433569    -0.093750028081    0.066817860505    0.000051274081    -0.000098624442    -0.113577261789    0.080242021286
0.750     -0.044000673950    0.167228447197    0.000017512080    -0.000078483094    -0.044931451108    0.146818603872    0.000011540359    -0.000081210953
            0.000017512082    -0.000078483094    -0.099642055267    0.105105805142    0.000024933317    -0.000099824624    -0.085325094317    0.086738403014
            -0.044931451108    0.146818603872    0.000024933315    -0.000099824624    -0.048031073987    0.165464269392    0.000032749998    -0.000107290114
            0.000011540358    -0.000081210953    -0.085325094317    0.086738403014    0.000032749998    -0.000107290114    -0.101557227571    0.102309208403
0.775     -0.017787528201    0.178965383238    0.000003327802    -0.000080790094    -0.022871393670    0.160007643802    -0.000003297512    -0.000082193833
            0.000003327805    -0.000080790093    -0.083531858551    0.124474718801    0.000006472514    -0.000103295264    -0.073518781960    0.104954370125
            -0.022871407559    0.160007601410    0.000006472510    -0.000103295264    -0.022080754927    0.177754166276    0.000013008586    -0.000112364788
