# GHz S RI R 45
0.000     0.014586187000    0.000000000000    -0.000004575501    0.000000000000    0.000485933610    -0.000000000000    0.000000051946    -0.000000000000
            -0.000004575412    0.000000000000    0.014275858000    0.000000000000    -0.000007995481    0.000000000000    0.000522211680    -0.000000000000
            0.000485930040    -0.000000000000    -0.000007995130    0.000000000000    0.014543675000    0.000000000000    0.000015996935    -0.000000000000
            0.000000051941    -0.000000000000    0.000522211690    -0.000000000000    0.000015996956    -0.000000000000    0.014104719000    0.000000000000
0.025     0.019005981039    0.011120917081    -0.000001952847    -0.000005878358    0.002207439828    0.010107437033    -0.000001099310    -0.000009322968
            -0.000001952755    -0.000005878377    0.018166774072    0.009813359742    -0.000001564260    -0.000005312218    0.001897895269    0.008797345839
            0.002207410258    0.010107484434    -0.000001564131    -0.000005312234    0.018940641297    0.011102206242    -0.000008455219    -0.000023760904
            -0.000001099311    -0.000009322969    0.001897868765    0.008797392068    -0.000008455228    -0.000023760903    0.018107500952    0.009784510172
0.050     0.025177518047    0.018529029921    -0.000006134182    -0.000015242889    0.006822493453    0.019149281716    -0.000007410287    -0.000017965131
            -0.000006134100    -0.000015242915    0.023557219519    0.016326776776    -0.000005217047    -0.000018449829    0.005741598211    0.016813139159
            0.006822476747    0.019149290853    -0.000005216958    -0.000018449859    0.025103539166    0.018525166952    -0.000022258899    -0.000023052977
            -0.000007410287    -0.000017965131    0.005741584509    0.016813147008    -0.000022258895    -0.000023052981    0.023488407291    0.016287377551
0.075     0.033288343014    0.023833110295    -0.000015314144    -0.000021055513    0.013956899028    0.026433816925    -0.000017210272    -0.000023549211
            -0.000015314066    -0.000021055552    0.030610819914    0.021082273031    -0.000016581573    -0.000026873699    0.011758737424    0.023409828923
            0.013956888862    0.026433818901    -0.000016581490    -0.000026873742    0.033218750488    0.023844704497    -0.000031720455    -0.000022737596
            -0.000017210276    -0.000023549208    0.011758729500    0.023409828427    -0.000031720454    -0.000022737595    0.030538570058    0.021038540918
0.100     0.043016934962    0.026415406611    -0.000026778896    -0.000022558601    0.023030274598    0.031332085881    -0.000029278568    -0.000025125054
            -0.000026778830    -0.000022558649    0.039116581128    0.023574432630    -0.000031185388    -0.000029653655    0.019483025898    0.028075151038
            0.023030273003    0.031332088295    -0.000031185313    -0.000029653709    0.042961851150    0.026445647459    -0.000041734212    -0.000021238776
            -0.000029278561    -0.000025125057    0.019483025898    0.028075151038    -0.000041734211    -0.000021238775    0.039047787833    0.023532778729
0.125     0.053530612379    0.025835363373    -0.000038800054    -0.000019521403    0.033320475330    0.033390248502    -0.000042146907    -0.000022223292
            -0.000038799996    -0.000019521459    0.048414496002    0.023420990370    -0.000046684574    -0.000026580431    0.028353320234    0.030423952303
            0.033320474288    0.033390250954    -0.000046684510    -0.000026580492    0.053502411050    0.025884745184    -0.000052574162    -0.000017231164
            -0.000042146909    -0.000022223283    0.028353320234    0.030423952303    -0.000052574162    -0.000017231164    0.048358874457    0.023385686554
0.150     0.064039332917    0.021880680129    -0.000049926995    -0.000012132132    0.044025258372    0.032358396347    -0.000054404350    -0.000014796100
            -0.000049926939    -0.000012132211    0.057896273219    0.020399094972    -0.000061233466    -0.000017895316    0.037743950536    0.030220910465
            0.044025258854    0.032358399068    -0.000061233412    -0.000017895381    0.064054475150    0.021952116423    -0.000063486570    -0.000009878827
            -0.000054404351    -0.000014796100    0.037743950536    0.030220910465    -0.000063486569    -0.000009878838    0.057867897319    0.020376035566
0.175     0.073544976355    0.014599084007    -0.000058866677    -0.000000943342    0.054308047765    0.028194644158    -0.000064700521    -0.000003204478
            -0.000058866632    -0.000000943434    0.066738848389    0.014491922253    -0.000073167171    -0.000004285216    0.046991207273    0.027385142530
            0.054308047668    0.028194646515    -0.000073167128    -0.000004285291    0.073622839435    0.014687826239    -0.000073493089    0.000001213053
            -0.000064700523    -0.000003204467    0.046991207273    0.027385142530    -0.000073493090    0.000001213041    0.066755563749    0.014481181670
0.200     0.081149573235    0.004313683316    -0.000064643596    0.000013250390    0.063354676512    0.021064393210    -0.000071907451    0.000011884771
            -0.000064643565    0.000013250301    0.074191536427    0.005905482410    -0.000081234292    0.000013277528    0.055437005812    0.021995213449
            0.063354677675    0.021064396052    -0.000081234263    0.000013277436    0.081310786189    0.004408845501    -0.000081376379    0.000015964349
            -0.000071907448    0.000011884783    0.055437005812    0.021995213449    -0.000081376381    0.000015964349    0.074273139884    0.005901879914
0.225     0.086064800505    -0.008454237252    -0.000066524930    0.000029448389    0.070410357859    0.011322721737    -0.000075105454    0.000029536759
            -0.000066524913    0.000029448299    0.079576633890    -0.004995924828    -0.000084473665    0.000033547297    0.062455800039    0.014278047064
            0.070410358511    0.011322723985    -0.000084473655    0.000033547191    0.086329627268    -0.008370968242    -0.000086000192    0.000033987533
            -0.000075105453    0.000029536758    0.062455800039    0.014278047064    -0.000086000191    0.000033987533    0.079743862877    -0.005004089392
0.250     0.087658510923    -0.023002483603    -0.000064083719    0.000046584416    0.074825676441    -0.000504770362    -0.000073662434    0.000048661125
            -0.000064083713    0.000046584326    0.082325599534    -0.017694925657    -0.000082312132    0.000055200379    0.067491044612    0.004598139063
            0.074825677450    -0.000504769089    -0.000082312134    0.000055200277    0.088044485700    -0.022956848469    -0.000086304784    0.000054450641
            -0.000073662433    0.000048661124    0.067491044612    0.004598139063    -0.000086304797    0.000054450734    0.082598092822    -0.017725994598
0.275     0.085468675827    -0.038493388166    -0.000057147240    0.000063515039    0.076082229218    -0.013747064212    -0.000067216320    0.000068030182
            -0.000057147244    0.000063514954    0.081990653954    -0.031555895157    -0.000074492361    0.000076801674    0.070075383526    -0.006559432028
            0.076082232385    -0.013747057928    -0.000074492373    0.000076801579    0.085988493775    -0.038518099584    -0.000081469416    0.000076293091
            -0.000067216306    0.000068030191    0.070075383526    -0.006559432028    -0.000081469404    0.000076293133    0.082385262192    -0.031634969822
0.300     0.079245831038    -0.053991062743    -0.000045804284    0.000079131247    0.073828865303    -0.027622179539    -0.000055704769    0.000086381941
            -0.000045804283    0.000079131245    0.078282351658    -0.045848732894    -0.000061086422    0.000096961966    0.069859778960    -0.018612588543
            0.073828869077    -0.027622178013    -0.000061086458    0.000096961872    0.079904670243    -0.054125875740    -0.000070970791    0.000098149736
            -0.000055704754    0.000086381951    0.069859778960    -0.018612588543    -0.000070970791    0.000098149736    0.078810884623    -0.046007965400
0.325     0.068956073281    -0.068505409505    -0.000030394423    0.000092340374    0.067896535403    -0.041267289961    -0.000039361832    0.000102433975
            -0.000030394467    0.000092340289    0.071072939918    -0.059783221470    -0.000042480364    0.000114302089    0.066626625741    -0.030903881593
            0.067896537832    -0.041267289815    -0.000042480394    0.000114302046    0.069749666527    -0.068794631239    -0.000054627997    0.000118550123
            -0.000039361832    0.000102433975    0.066626625741    -0.030903881593    -0.000054628017    0.000118550114    0.071740032956    -0.060060253419
0.350     0.054805362144    -0.081046900922    -0.000011489013    0.000102157260    0.058322736965    -0.053787218008    -0.000018717550    0.000114980588
            -0.000011489006    0.000102157251    0.060419748797    -0.072548207878    -0.000019347823    0.000127578793    0.060309362964    -0.042734138968
            0.058322739374    -0.053787218346    -0.000019347823    0.000127578793    0.055717544789    -0.081537593636    -0.000032678537    0.000135926305
            -0.000018717544    0.000114980589    0.060309362964    -0.042734138968    -0.000032678480    0.000135926380    0.061221371225    -0.072984942800
0.375     0.037229437944    -0.090670535352    0.000010101394    0.000107711714    0.045355657324    -0.064289537172    0.000005400718    0.000122924076
            0.000010101364    0.000107711676    0.046558817186    -0.083344660952    0.000007340116    0.000135681732    0.050997396368    -0.053387155381
            0.045355659599    -0.064289538014    0.000007340051    0.000135681666    0.038231240260    -0.091409272076    -0.000005748835    0.000148773389
            0.000005400725    0.000122924076    0.050997396368    -0.053387155381    -0.000005748838    0.000148773389    0.047480268233    -0.083984915022
0.400     0.016891725736    -0.096540346563    0.000033369925    0.000108330828    0.029458174214    -0.071946893326    0.000031902107    0.000125370039
            0.000033369847    0.000108330769    0.029908910478    -0.091432894664    0.000036370841    0.000137741156    0.038943115929    -0.062173070657
            0.029458176228    -0.071946894662    0.000036370765    0.000137741093    0.017940382817    -0.097569511680    0.000025103795    0.000155726314
            0.000031902104    0.000125370040    0.038943115929    -0.062173070657    0.000025103795    0.000155726314    0.030923918077    -0.092319990074
0.425     -0.005343404092    -0.097972767404    0.000057124148    0.000103573479    0.011295087058    -0.076036007817    0.000059452975    0.000121679397
            0.000057124066    0.000103573433    0.011054636345    -0.096164646836    0.000066299696    0.000133159820    0.024555768065    -0.068454664658
            0.011295132184    -0.076035992015    0.000066299696    0.000133159820    -0.004303825900    -0.099327267869    0.000058470088    0.000155686840
            0.000059452977    0.000121679396    0.024555768065    -0.068454664658    0.000058470088    0.000155686840    0.012125221191    -0.097338462123
0.450     -0.028447258397    -0.094498614730    0.000080064317    0.000093296168    -0.008293390129    -0.076002540017    0.000086556117    0.000111553217
            0.000080064222    0.000093296131    -0.009272737656    -0.097029388542    0.000095544360    0.000121698070    0.008389482869    -0.071694210455
            -0.008293389020    -0.076002542149    0.000095544360    0.000121698070    -0.027484445945    -0.096201318984    0.000092623171    0.000147928574
            0.000086556111    0.000111553209    0.008389482869    -0.071694210455    0.000092623171    0.000147928574    -0.008196072696    -0.098522826865
0.475     -0.051276438686    -0.085896147830    0.000100837192    0.000077686422    -0.028329284481    -0.071495418576    0.000111621593    0.000095074290
            0.000100837145    0.000077686417    -0.030225916985    -0.093680625151    0.000122442749    0.000103507888    -0.008876615086    -0.071478148363
            -0.028329284481    -0.071495418576    0.000122442749    0.000103507888    -0.050466800250    -0.087954758778    0.000125647200    0.000132174778
            0.000111621591    0.000095074292    -0.008876615086    -0.071478148363    0.000125647200    0.000132174778    -0.029202872759    -0.095517040711
0.500     -0.072641357084    -0.072228862626    0.000118146903    0.000057283745    -0.047757715609    -0.062414364235    0.000133088217    0.000072745202
            0.000118146903    0.000057283745    -0.050882683158    -0.085970578554    0.000145385120    0.000079163254    -0.026473210668    -0.067556877820
            -0.047757718040    -0.062414367411    0.000145385120    0.000079163254    -0.072066537963    -0.074632636867    0.000155549120    0.000108671452
            0.000133088217    0.000072745202    -0.026473210668    -0.067556877820    0.000155549120    0.000108671452    -0.049981012906    -0.088160142862
0.525     -0.091376084195    -0.053850429752    0.000130842301    0.000032968890    -0.065505742807    -0.048919500771    0.000149533075    0.000045479279
            0.000130842283    0.000032968878    -0.070290469096    -0.073961678986    0.000162911925    0.000049653534    -0.043574961411    -0.059857973645
            -0.065505746012    -0.048919503164    0.000162911908    0.000049653519    -0.091118142668    -0.056568631870    0.000180422528    0.000078186477
            0.000149533071    0.000045479255    -0.043574961411    -0.059857973645    0.000180422529    0.000078186500    -0.069582716254    -0.076499933158
0.550     -0.106422727525    -0.031398845322    0.000138031378    0.000005912979    -0.080564739437    -0.031439100706    0.000159804448    0.000014556280
            0.000138031378    0.000005912978    -0.087522362509    -0.057936817928    0.000173849199    0.000016329471    -0.059352771959    -0.048505549126
            -0.080564739437    -0.031439100706    0.000173849160    0.000016329457    -0.106558485526    -0.034380180083    0.000198596367    0.000041995517
            0.000159804448    0.000014556280    -0.059352771959    -0.048505549126    0.000198596378    0.000041995559    -0.087082755114    -0.060802162455
0.575     -0.116898045583    -0.005758621617    0.000139153085    -0.000022501135    -0.092049875826    -0.010639707421    0.000163113386    -0.000018463049
            0.000139153086    -0.000022501135    -0.101726177573    -0.038387409709    0.000177396453    -0.000019178456    -0.073014657095    -0.033812446101
            -0.092049875826    -0.010639707421    0.000177396453    -0.000019178456    -0.117494225804    -0.008932852196    0.000208773844    0.000001775076
            0.000163113386    -0.000018463049    -0.073014657095    -0.033812446101    0.000208773844    0.000001775076    -0.101625737703    -0.041541281364
0.600     -0.122162332380    0.021993415984    0.000134033669    -0.000050790635    -0.099273516188    0.012614044734    0.000159118844    -0.000051865507
            0.000134033585    -0.000050790659    -0.112179968829    -0.015991443172    0.000173204694    -0.000055090730    -0.083862446580    -0.016270025825
            -0.099273516188    0.012614044734    0.000173204693    -0.000055090733    -0.123269770256    0.018713425531    0.000210144478    -0.000040507986
            0.000159118761    -0.000051865535    -0.083862446580    -0.016270025825    0.000210144478    -0.000040507982    -0.112482575755    -0.019378533762
0.625     -0.121853249336    0.050659743465    0.000122896566    -0.000077490843    -0.101775580224    0.037321756314    0.000147934511    -0.000083915907
            0.000122896566    -0.000077490843    -0.118329185378    0.008422678200    0.000161389806    -0.000089602539    -0.091322776845    0.003482775602
            -0.101775586738    0.037321738551    0.000161389806    -0.000089602539    -0.123503287902    0.047373750517    0.000202425757    -0.000082759254
            0.000147934511    -0.000083915907    -0.091322776845    0.003482775602    0.000202425757    -0.000082759254    -0.119087837411    0.004873103440
0.650     -0.115910518239    0.079005342981    0.000106331111    -0.000101276452    -0.099359965465    0.062419022757    0.000130123968    -0.000113001575
            0.000106331111    -0.000101276452    -0.119823519717    0.033925274013    0.000142521484    -0.000121034726    -0.094989824231    0.024696936240
            -0.099359965465    0.062419022757    0.000142521484    -0.000121034726    -0.118111932225    0.075819934008    0.000185883690    -0.000122916976
            0.000130123968    -0.000113001575    -0.094989824231    0.024696936240    0.000185883690    -0.000122916976    -0.121075817428    0.030295801100
0.675     -0.104561795224    0.105832420955    0.000085222577    -0.000121050010    -0.092079976808    0.086843477349    0.000106615856    -0.000137743435
            0.000085222577    -0.000121050010    -0.116527727008    0.059535531464    0.000117545082    -0.000147938132    -0.094633150464    0.046557261521
            -0.092079976808    0.086843477349    0.000117545079    -0.000147938134    -0.107299657660    0.102856380667    0.000161258541    -0.000159094834
            0.000106615835    -0.000137743439    -0.094633150464    0.046557261521    0.000161258529    -0.000159094817    -0.118294187975    0.055917583300
0.700     -0.088298401927    0.130057822869    0.000060660253    -0.000136014592    -0.080230737951    0.109607312606    0.000078612455    -0.000157089959
            0.000060660253    -0.000136014592    -0.108528495141    0.084280273690    0.000087689293    -0.000169189843    -0.090215468307    0.068233185142
            -0.080230737951    0.109607312606    0.000087689293    -0.000169189843    -0.091533995183    0.127395185328    0.000129697429    -0.000189705822
            0.000078612455    -0.000157089959    -0.090215468307    0.068233185142    0.000129697429    -0.000189705822    -0.110809823960    0.080769288125
0.725     -0.067824054899    0.150760939365    0.000033833968    -0.000145686112    -0.064299969503    0.129836397438    0.000047472477    -0.000170345459
            0.000033833906    -0.000145685634    -0.096116414868    0.107240279048    0.000054354379    -0.000184022124    -0.081872810617    0.088917829722
            -0.064299973941    0.129836406399    0.000054354360    -0.000184022119    -0.071496830908    0.148507103198    0.000092617246    -0.000213517113
            0.000047472471    -0.000170345460    -0.081872810617    0.088917829722    0.000092617246    -0.000213517113    -0.098893644508    0.103932067020
0.750     -0.044000673950    0.167228447197    0.000005937281    -0.000149896411    -0.044931451108    0.146818603872    0.000014596325    -0.000177182683
            0.000005937264    -0.000149896361    -0.079763801631    0.127599452376    0.000018995260    -0.000192043353    -0.069906718261    0.107874910486
            -0.044931451108    0.146818603872    0.000018995256    -0.000192043344    -0.048031073987    0.165464269392    0.000051601624    -0.000229699826
            0.000014596285    -0.000177182657    -0.069906718261    0.107874910486    0.000051601628    -0.000229699825    -0.082998208461    0.124585052459
0.775     -0.017787528201    0.178965383238    -0.000021910381    -0.000148742172    -0.022871393670    0.160007643802    -0.000018668426    -0.000177596862
            -0.000021910384    -0.000148742172    -0.060088853591    0.144673081184    -0.000016969214    -0.000193192992    -0.054749507214    0.124459420861
            -0.022871407559    0.160007601410    -0.000016969218    -0.000193192961    -0.022080754927    0.177754166276    0.000008277693    -0.000237798562
