# GHz S RI R 45
0.000     0.014586187000    0.000000000000    -0.000001940925    0.000000000000    0.000485933610    -0.000000000000    -0.000002034541    0.000000000000
            -0.000001940941    0.000000000000    0.015437219000    0.000000000000    0.000033618331    -0.000000000000    0.000451820270    0.000000000000
            0.000485930040    -0.000000000000    0.000033618232    -0.000000000000    0.014543675000    0.000000000000    -0.000002998471    0.000000000000
            -0.000002034543    0.000000000000    0.000451738480    0.000000000000    -0.000002998480    0.000000000000    0.015367484000    0.000000000000
0.025     0.019005981039    0.011120917081    0.000001655252    -0.000000118575    0.002207439828    0.010107437033    0.000000295611    -0.000001226843
            0.000001655243    -0.000000118570    0.019212996182    0.010882050248    -0.000009459766    -0.000028179325    0.001745188650    0.010079784756
            0.002207410258    0.010107484434    -0.000009459785    -0.000028179319    0.018940641297    0.011102206242    0.000003024680    0.000001664050
            0.000000295612    -0.000001226842    0.001744982622    0.010079623539    0.000003024669    0.000001664055    0.019147077837    0.010905368661
0.050     0.025177518047    0.018529029921    0.000001416350    -0.000004296264    0.006822493453    0.019149281716    -0.000000314463    -0.000005034321
            0.000001416334    -0.000004296262    0.023761846493    0.018284535486    -0.000024595527    -0.000011928260    0.005132269689    0.019386979427
            0.006822476747    0.019149290853    -0.000024595527    -0.000011928260    0.025103539166    0.018525166952    0.000003998759    -0.000003145298
            -0.000000314455    -0.000005034323    0.005132218900    0.019386976322    0.000003998749    -0.000003145296    0.023702303030    0.018356161007
0.075     0.033288343014    0.023833110295    -0.000000794813    -0.000007221485    0.013956899028    0.026433816925    -0.000002747282    -0.000007843164
            -0.000000794829    -0.000007221481    0.029204415900    0.024329481966    -0.000025640152    -0.000001042159    0.010342379330    0.027523674598
            0.013956888862    0.026433818901    -0.000025640152    -0.000001042159    0.033218750488    0.023844704497    0.000002292165    -0.000006652364
            -0.000002747283    -0.000007843165    0.010342305360    0.027523686369    0.000002292155    -0.000006652360    0.029173208865    0.024445525189
0.100     0.043016934962    0.026415406611    -0.000003928788    -0.000008956688    0.023030274598    0.031332085881    -0.000006043389    -0.000009511493
            -0.000003928801    -0.000008956684    0.035487682063    0.028752489108    -0.000023185730    0.000005814032    0.016984788442    0.034101785052
            0.023030273003    0.031332088295    -0.000023185731    0.000005814033    0.042961851150    0.026445647459    -0.000000498904    -0.000008980793
            -0.000006043390    -0.000009511491    0.016984709443    0.034101800938    -0.000000498903    -0.000008980792    0.035500958787    0.028902860194
0.125     0.053530612379    0.025835363373    -0.000007423710    -0.000009534170    0.033320475330    0.033390248502    -0.000009716368    -0.000010035391
            -0.000007423720    -0.000009534166    0.042174127676    0.031384553946    -0.000019690846    0.000009786018    0.024580520094    0.038860180947
            0.033320474288    0.033390250954    -0.000019690844    0.000009786021    0.053502411050    0.025884745184    -0.000003759465    -0.000010221879
            -0.000009716370    -0.000010035390    0.024580443510    0.038860200991    -0.000003759473    -0.000010221874    0.042243991358    0.031555045939
0.150     0.064039332917    0.021880680129    -0.000010968693    -0.000009030256    0.044025258372    0.032358396347    -0.000013455745    -0.000009473201
            -0.000010968709    -0.000009030247    0.048709563388    0.032201041159    -0.000016141606    0.000011792532    0.032613460236    0.041683371622
            0.044025258854    0.032358399068    -0.000016141683    0.000011792593    0.064054475150    0.021952116423    -0.000007222668    -0.000010459707
            -0.000013455748    -0.000009473199    0.032613375657    0.041683398436    -0.000007222674    -0.000010459701    0.048846182002    0.032375884685
0.175     0.073544976355    0.014599084007    -0.000014275296    -0.000007574934    0.054308047765    0.028194644158    -0.000016984785    -0.000007936338
            -0.000014275311    -0.000007574923    0.054614398132    0.031383767261    -0.000013106633    0.000012370083    0.040564021285    0.042592359252
            0.054308047668    0.028194646515    -0.000013106704    0.000012370151    0.073622839435    0.014687826239    -0.000010624474    -0.000009796404
            -0.000016984785    -0.000007936338    0.040563947180    0.042592385638    -0.000010624478    -0.000009796401    0.054823697439    0.031542880149
0.200     0.081149573235    0.004313683316    -0.000017174672    -0.000005314054    0.063354676512    0.021064393210    -0.000020131583    -0.000005559212
            -0.000017174685    -0.000005314042    0.059461354453    0.029235167832    -0.000010805611    0.000012078446    0.047945947782    0.041746390471
            0.063354677675    0.021064396052    -0.000010805674    0.000012078521    0.081310786189    0.004408845501    -0.000013815542    -0.000008325020
            -0.000020131584    -0.000005559208    0.047945875483    0.041746420207    -0.000013815547    -0.000008325013    0.059744065015    0.029356163911
0.225     0.086064800505    -0.008454237252    -0.000019530009    -0.000002416549    0.070410357859    0.011322721737    -0.000022756866    -0.000002494513
            -0.000019530018    -0.000002416539    0.062927280733    0.026153686206    -0.000009394559    0.000011339355    0.054338879596    0.039421481652
            0.070410358511    0.011322723985    -0.000009394589    0.000011339395    0.086329627268    -0.008370968242    -0.000016657407    -0.000006165183
            -0.000022756866    -0.000002494509    0.054338808365    0.039421516828    -0.000016657408    -0.000006165177    0.063278416819    0.026212605464
0.250     0.087658510923    -0.023002483603    -0.000021280319    0.000000976751    0.074825676441    -0.000504770362    -0.000024789484    0.000001127483
            -0.000021280320    0.000000976747    0.064808689077    0.022623443596    -0.000008782287    0.000010534265    0.059415578176    0.035995413035
            0.074825677450    -0.000504769089    -0.000008782335    0.000010534349    0.088044485700    -0.022956848469    -0.000019070801    -0.000003406001
            -0.000024789484    0.000001127487    0.059415500737    0.035995454012    -0.000019070798    -0.000003406004    0.065216569284    0.022596305773
0.275     0.085468675827    -0.038493388166    -0.000022380467    0.000004726435    0.076082229218    -0.013747064212    -0.000026170955    0.000005179364
            -0.000022380469    0.000004726431    0.065046491754    0.019161863139    -0.000008910772    0.000009983799    0.062961618872    0.031915121421
            0.076082232385    -0.013747057928    -0.000008910788    0.000009983845    0.085988493775    -0.038518099584    -0.000020982999    -0.000000146572
            -0.000026170955    0.000005179369    0.062961551331    0.031915161772    -0.000020983002    -0.000000146561    0.065492525990    0.019026527058
0.300     0.079245831038    -0.053991062743    -0.000022814983    0.000008733719    0.073828865303    -0.027622179539    -0.000026868820    0.000009566954
            -0.000022815015    0.000008733809    0.063727411578    0.016297050993    -0.000009561449    0.000009885711    0.064892737562    0.027673154792
            0.073828869077    -0.027622178013    -0.000009561477    0.000009885805    0.079904670243    -0.054125875740    -0.000022338856    0.000003546744
            -0.000026868820    0.000009566954    0.064892671927    0.027673199085    -0.000022338856    0.000003546744    0.064186026450    0.016034608599
0.325     0.068956073281    -0.068505409505    -0.000022564364    0.000012900740    0.067896535403    -0.041267289961    -0.000026843691    0.000014195042
            -0.000022564364    0.000012900740    0.061084598069    0.014515952052    -0.000010540505    0.000010452066    0.065260141770    0.023768003221
            0.067896537832    -0.041267289815    -0.000010540514    0.000010452114    0.069749666527    -0.068794631239    -0.000023077868    0.000007596955
            -0.000026843689    0.000014195047    0.065260078026    0.023768049670    -0.000023077868    0.000007596951    0.061523682372    0.014113193683
0.350     0.054805362144    -0.081046900922    -0.000021606606    0.000017154376    0.058322736965    -0.053787218008    -0.000026054237    0.000018985546
            -0.000021606609    0.000017154371    0.057486018745    0.014239693635    -0.000011594297    0.000011727302    0.064256466131    0.020675869058
            0.058322739374    -0.053787218346    -0.000011594293    0.000011727302    0.055717544789    -0.081537593636    -0.000023131203    0.000011941425
            -0.000026054234    0.000018985551    0.064256404990    0.020675918691    -0.000023131203    0.000011941420    0.057868105505    0.013690988268
0.375     0.037229437944    -0.090670535352    -0.000019908402    0.000021405143    0.045355657324    -0.064289537172    -0.000024447316    0.000023840540
            -0.000019908404    0.000021405190    0.053414690058    0.015777766464    -0.000012455832    0.000013783358    0.062203299248    0.018805834767
            0.045355659599    -0.064289538014    -0.000012455829    0.000013783359    0.038231240260    -0.091409272076    -0.000022421426    0.000016491766
            -0.000024447315    0.000023840539    0.062203226141    0.018805900346    -0.000022421429    0.000016491762    0.053698783102    0.015087049442
0.400     0.016891725736    -0.096540346563    -0.000017427020    0.000025559559    0.029458174214    -0.071946893326    -0.000021964616    0.000028651891
            -0.000017427023    0.000025559564    0.049442453984    0.019307053311    -0.000012873753    0.000016533509    0.059539616752    0.018472080240
            0.029458176228    -0.071946894662    -0.000012873748    0.000016533509    0.017940382817    -0.097569511680    -0.000020860911    0.000021144535
            -0.000021964615    0.000028651890    0.059539547026    0.018472149742    -0.000020860910    0.000021144535    0.049586269331    0.018489180606
0.425     -0.005343404092    -0.097972767404    -0.000014122722    0.000029487937    0.011295087058    -0.076036007817    -0.000018552517    0.000033272317
            -0.000014122721    0.000029487936    0.046190569785    0.024837899375    -0.000012583531    0.000019882821    0.056789030061    0.019852471135
            0.011295132184    -0.076035992015    -0.000012583517    0.000019882868    -0.004303825900    -0.099327267869    -0.000018370271    0.000025753010
            -0.000018552516    0.000033272316    0.056788964392    0.019852543834    -0.000018370270    0.000025753009    0.046153545980    0.023919541102
0.450     -0.028447258397    -0.094498614730    -0.000009967227    0.000033033468    -0.008293390129    -0.076002540017    -0.000014175272    0.000037524820
            -0.000009967198    0.000033033560    0.044287911852    0.032207157590    -0.000011388411    0.000023612926    0.054526172897    0.022971637996
            -0.008293389020    -0.076002542149    -0.000011388375    0.000023613019    -0.027484445945    -0.096201318984    -0.000014884873    0.000030134226
            -0.000014175265    0.000037524822    0.054526110609    0.022971713726    -0.000014884875    0.000030134229    0.044034980555    0.031226824610
0.475     -0.051276438686    -0.085896147830    -0.000004969535    0.000036001272    -0.028329284481    -0.071495418576    -0.000008837628    0.000041192805
            -0.000004969537    0.000036001272    0.044317202992    0.041067769325    -0.000009116208    0.000027473250    0.053324667489    0.027678345386
            -0.028329284481    -0.071495418576    -0.000009116207    0.000027473248    -0.050466800250    -0.087954758778    -0.000010385119    0.000034061214
            -0.000008837627    0.000041192805    0.053324638571    0.027678385903    -0.000010385119    0.000034061215    0.043821410641    0.040074955932
0.500     -0.072641357084    -0.072228862626    0.000000811677    0.000038175596    -0.047757715609    -0.062414364235    -0.000002600087    0.000044039517
            0.000000811676    0.000038175596    0.046765304661    0.050908492766    -0.000005706024    0.000031141501    0.053710748987    0.033654540245
            -0.047757718040    -0.062414367411    -0.000005706024    0.000031141501    -0.072066537963    -0.074632636867    -0.000004907118    0.000037280096
            -0.000002600087    0.000044039517    0.053710696642    0.033654627551    -0.000004907118    0.000037280096    0.046012274176    0.049961020049
0.525     -0.091376084195    -0.053850429752    0.000007246782    0.000039334005    -0.065505742807    -0.048919500771    0.000004402952    0.000045821927
            0.000007246777    0.000039334005    0.051970757481    0.061076732462    -0.000001166302    0.000034283892    0.056105198972    0.040425820548
            -0.065505746012    -0.048919503164    -0.000001166274    0.000034283926    -0.091118142668    -0.056568631870    0.000001432203    0.000039527660
            0.000004402955    0.000045821925    0.056105148312    0.040425904541    0.000001432203    0.000039527657    0.050960267518    0.060238400969
0.550     -0.106422727525    -0.031398845322    0.000014134395    0.000039277444    -0.080564739437    -0.031439100706    0.000011960521    0.000046323784
            0.000014134393    0.000039277445    0.060088577906    0.070830731552    0.000004365914    0.000036570495    0.060785840114    0.047404296260
            -0.080564739437    -0.031439100706    0.000004365980    0.000036570566    -0.106558485526    -0.034380180083    0.000008436059    0.000040561001
            0.000011960521    0.000046323784    0.060785793988    0.047404381424    0.000008436060    0.000040561002    0.058837220949    0.070166402092
0.575     -0.116898045583    -0.005758621617    0.000021202273    0.000037857593    -0.092049875826    -0.010639707421    0.000019789599    0.000045380827
            0.000021202307    0.000037857626    0.071061936752    0.079390786235    0.000010674134    0.000037716236    0.067848777872    0.053929747971
            -0.092049875826    -0.010639707421    0.000010674202    0.000037716292    -0.117494225804    -0.008932852196    0.000015826708    0.000040189837
            0.000019789601    0.000045380824    0.067848733913    0.053929838633    0.000015826745    0.000040189874    0.069603312925    0.078962390168
0.600     -0.122162332380    0.021993415984    0.000028130559    0.000035003932    -0.099273516188    0.012614044734    0.000027556196    0.000042911248
            0.000028130559    0.000035003932    0.084624456786    0.086007307735    0.000017446222    0.000037517109    0.077204519972    0.059334552509
            -0.099273516188    0.012614044734    0.000017446217    0.000037517102    -0.123269770256    0.018713425531    0.000023270172    0.000038303032
            0.000027556196    0.000042911247    0.077204482837    0.059334641854    0.000023270172    0.000038303036    0.083007727300    0.085869031228
0.625     -0.121853249336    0.050659743465    0.000034577089    0.000030740369    -0.101775580224    0.037321756314    0.000034904470    0.000038928650
            0.000034577089    0.000030740370    0.100309388981    0.090018048079    0.000024333358    0.000035862414    0.088574377615    0.062992650303
            -0.101775586738    0.037321738551    0.000024333352    0.000035862409    -0.123503287902    0.047373750517    0.000030401738    0.000034889761
            0.000034904472    0.000038928650    0.088574340041    0.062992737644    0.000030401737    0.000034889765    0.098598502133    0.090212158540
0.650     -0.115910518239    0.079005342981    0.000040214771    0.000025188414    -0.099359965465    0.062419022757    0.000041492807    0.000033549163
            0.000040214770    0.000025188418    0.117495121545    0.090902810891    0.000030966797    0.000032757782    0.101526751465    0.064378416175
            -0.099359965465    0.062419022757    0.000030966873    0.000032757813    -0.118111932225    0.075819934008    0.000036865761    0.000030042274
            0.000041492808    0.000033549165    0.101526751465    0.064378416175    0.000036865773    0.000030042282    0.115763706037    0.091455767313
0.675     -0.104561795224    0.105832420955    0.000044761399    0.000018557531    -0.092079976808    0.086843477349    0.000047025073    0.000026976403
            0.000044761395    0.000018557533    0.135442194766    0.088316378162    0.000037007949    0.000028302903    0.115503123194    0.063096144802
            -0.092079976808    0.086843477349    0.000037007943    0.000028302900    -0.107299657660    0.102856380667    0.000042346477    0.000023949201
            0.000047025072    0.000026976399    0.115503109945    0.063096189914    0.000042346519    0.000023949216    0.133770469146    0.089237150367
0.700     -0.088298401927    0.130057822869    0.000048007257    0.000011121838    -0.080230737951    0.109607312606    0.000051278431    0.000019483220
            0.000048007258    0.000011121839    0.153359497960    0.082108917915    0.000042169742    0.000022688837    0.129876452011    0.058909165307
            -0.080230737951    0.109607312606    0.000042169738    0.000022688836    -0.091533995183    0.127395185328    0.000046598945    0.000016871408
            0.000051278430    0.000019483214    0.129876432183    0.058909257439    0.000046598951    0.000016871404    0.151829635717    0.083387493255
0.725     -0.067824054899    0.150760939365    0.000049826996    0.000003192975    -0.064299969503    0.129836397438    0.000054114484    0.000011378161
            0.000049827037    0.000003192985    0.170448204391    0.072325640491    0.000046239072    0.000016155716    0.143983914488    0.051739782305
            -0.064299973941    0.129836406399    0.000046239111    0.000016155721    -0.071496830908    0.148507103198    0.000049461677    0.000009115882
            0.000054114470    0.000011378160    0.143983901703    0.051739877024    0.000049461677    0.000009115880    0.169139815570    0.073932347550
0.750     -0.044000673950    0.167228447197    0.000050182958    -0.000004910927    -0.044931451108    0.146818603872    0.000055484113    0.000002979799
            0.000050183051    -0.000004910926    0.185959331180    0.059190737783    0.000049083435    0.000008978577    0.157181634782    0.041666985340
            -0.044931451108    0.146818603872    0.000049083518    0.000008978583    -0.048031073987    0.165464269392    0.000050862891    0.000001002674
            0.000055484109    0.000002979795    0.157181634055    0.041666988084    0.000050862891    0.000001002672    0.184944408657    0.061078631160
0.775     -0.017787528201    0.178965383238    0.000049116104    -0.000012890021    -0.022871393670    0.160007643802    0.000055415515    -0.000005413458
            0.000049116102    -0.000012890014    0.199222672770    0.043084640289    0.000050644193    0.000001428062    0.168865472872    0.028904866406
            -0.022871407559    0.160007601410    0.000050644232    0.000001428059    -0.022080754927    0.177754166276    0.000050812514    -0.000007159051
            0.000055415509    -0.000005413455    0.168865474959    0.028904913481    0.000050812512    -0.000007159052    0.198562475189    0.045190810328
