# GHz S RI R 45
0.000     0.014586187000    0.000000000000    0.000001462655    -0.000000000000    0.000485933610    -0.000000000000    -0.000003131694    0.000000000000
            0.000001462550    -0.000000000000    0.015226658000    0.000000000000    -0.000003262992    0.000000000000    0.000554564030    0.000000000000
            0.000485930040    -0.000000000000    -0.000003263034    0.000000000000    0.014543675000    0.000000000000    0.000028285664    -0.000000000000
            -0.000003131714    0.000000000000    0.000554675260    0.000000000000    0.000028285775    -0.000000000000    0.015250267000    0.000000000000
0.025     0.019005981039    0.011120917081    0.000001554420    -0.000006268738    0.002207439828    0.010107437033    0.000000005707    -0.000006100543
            0.000001554313    -0.000006268723    0.018922274594    0.010524183909    0.000001714985    -0.000003192488    0.001709375786    0.009726192074
            0.002207410258    0.010107484434    0.000001714952    -0.000003192500    0.018940641297    0.011102206242    -0.000011519911    -0.000031642567
            0.000000005679    -0.000006100544    0.001709368684    0.009726021225    -0.000011519808    -0.000031642577    0.018840160745    0.010474552387
0.050     0.025177518047    0.018529029921    -0.000001436026    -0.000013072300    0.006822493453    0.019149281716    -0.000002440119    -0.000016173423
            -0.000001436130    -0.000013072274    0.023192237530    0.017811682431    0.000000338366    -0.000011920911    0.004852755156    0.018818405011
            0.006822476747    0.019149290853    0.000000338341    -0.000011920911    0.025103539166    0.018525166952    -0.000028479815    -0.000022531076
            -0.000002440146    -0.000016173421    0.004852896269    0.018818383080    -0.000028479707    -0.000022531104    0.023068379145    0.017724252855
0.075     0.033288343014    0.023833110295    -0.000006561701    -0.000018494582    0.013956899028    0.026433816925    -0.000009136529    -0.000024130644
            -0.000006561794    -0.000018494547    0.028351933134    0.023858844689    -0.000004869322    -0.000018583664    0.009750641368    0.026845728324
            0.013956888862    0.026433818901    -0.000004869346    -0.000018583663    0.033218750488    0.023844704497    -0.000034014602    -0.000017152358
            -0.000009136552    -0.000024130643    0.009750757669    0.026845712680    -0.000034014500    -0.000017152396    0.028161312850    0.023754156235
0.100     0.043016934962    0.026415406611    -0.000013179788    -0.000022169079    0.023030274598    0.031332085881    -0.000018122672    -0.000029488142
            -0.000013179884    -0.000022169029    0.034361709712    0.028397509861    -0.000012000947    -0.000022947646    0.016040285675    0.033441000076
            0.023030273003    0.031332088295    -0.000012000975    -0.000022947642    0.042961851150    0.026445647459    -0.000037667154    -0.000013983786
            -0.000018122693    -0.000029488141    0.016040395255    0.033440978569    -0.000037667058    -0.000013983833    0.034088892207    0.028305468565
0.125     0.053530612379    0.025835363373    -0.000020664113    -0.000023936455    0.033320475330    0.033390248502    -0.000028398087    -0.000032088323
            -0.000020664196    -0.000023936399    0.040816540845    0.031256860164    -0.000020098531    -0.000024985643    0.023286016468    0.038353856409
            0.033320474288    0.033390250954    -0.000020098556    -0.000024985639    0.053502411050    0.025884745184    -0.000041182562    -0.000011808567
            -0.000028398113    -0.000032088318    0.023286125151    0.038353830199    -0.000041182472    -0.000011808627    0.040456430973    0.031211283553
0.150     0.064039332917    0.021880680129    -0.000028531639    -0.000023769101    0.044025258372    0.032358396347    -0.000039253064    -0.000031933467
            -0.000028531719    -0.000023769033    0.047202943834    0.032389494417    -0.000028553532    -0.000024780585    0.031017458463    0.041464461862
            0.044025258854    0.032358399068    -0.000028553558    -0.000024780582    0.064054475150    0.021952116423    -0.000045031686    -0.000009736722
            -0.000039253137    -0.000031933424    0.031017569865    0.041464429729    -0.000045031604    -0.000009736786    0.046766642305    0.032427628246
0.175     0.073544976355    0.014599084007    -0.000036330561    -0.000021766892    0.054308047765    0.028194644158    -0.000050024081    -0.000029152967
            -0.000036330627    -0.000021766820    0.053067261609    0.031953380748    -0.000036819083    -0.000022516153    0.038757963308    0.042776180354
            0.054308047668    0.028194646515    -0.000036819099    -0.000022516154    0.073622839435    0.014687826239    -0.000049375825    -0.000007288097
            -0.000050024083    -0.000029152980    0.038758068332    0.042776143221    -0.000049375751    -0.000007288174    0.052576727551    0.032106606403
0.200     0.081149573235    0.004313683316    -0.000043741813    -0.000018082257    0.063354676512    0.021064393210    -0.000060242429    -0.000023963583
            -0.000043741875    -0.000018082175    0.058003931074    0.030215854988    -0.000044544323    -0.000018420885    0.046058088618    0.042418221026
            0.063354677675    0.021064396052    -0.000044544395    -0.000018420824    0.081310786189    0.004408845501    -0.000054091902    -0.000004104239
            -0.000060242500    -0.000023963525    0.046058196474    0.042418176246    -0.000054091841    -0.000004104320    0.057490777326    0.030508463507
0.225     0.086064800505    -0.008454237252    -0.000050508784    -0.000012908162    0.070410357859    0.011322721737    -0.000069501366    -0.000016634339
            -0.000050508834    -0.000012908071    0.061700827709    0.027533059785    -0.000051446809    -0.000012759493    0.052524959679    0.040626098117
            0.070410358511    0.011322723985    -0.000051446876    -0.000012759424    0.086329627268    -0.008370968242    -0.000059077581    0.000000115401
            -0.000069501403    -0.000016634309    0.052525060999    0.040626050480    -0.000059077558    0.000000115349    0.061204564101    0.027979252136
0.250     0.087658510923    -0.023002483603    -0.000056469915    -0.000006413288    0.074825676441    -0.000504770362    -0.000077540796    -0.000007421722
            -0.000056469953    -0.000006413193    0.063952953143    0.024343907546    -0.000057372384    -0.000005754762    0.057846888478    0.037729391885
            0.074825677450    -0.000504769089    -0.000057372393    -0.000005754784    0.088044485700    -0.022956848469    -0.000064073908    0.000005530159
            -0.000077540856    -0.000007421646    0.057846983395    0.037729341542    -0.000064073867    0.000005530065    0.063517473364    0.024945886166
0.275     0.085468675827    -0.038493388166    -0.000061493159    0.000001248113    0.076082229218    -0.013747064212    -0.000084128430    0.000003418435
            -0.000061493185    0.000001248210    0.064686541814    0.021120840036    -0.000062197226    0.000002387256    0.061810844518    0.034122183653
            0.076082232385    -0.013747057928    -0.000062197259    0.000002387290    0.085988493775    -0.038518099584    -0.000068853865    0.000012328927
            -0.000084128443    0.000003418436    0.061810941467    0.034122125975    -0.000068853836    0.000012328822    0.064356573273    0.021867680938
0.300     0.079245831038    -0.053991062743    -0.000065476481    0.000009972860    0.073828865303    -0.027622179539    -0.000089099231    0.000015684256
            -0.000065476494    0.000009972968    0.063960018017    0.018350429580    -0.000065841175    0.000011530016    0.064318713402    0.030243133835
            0.073828869077    -0.027622178013    -0.000065841221    0.000011530095    0.079904670243    -0.054125875740    -0.000073103660    0.000020561206
            -0.000089099246    0.000015684258    0.064318802762    0.030243073046    -0.000073103643    0.000020561105    0.063777554010    0.019218007807
0.325     0.068956073281    -0.068505409505    -0.000068295692    0.000019675032    0.067896535403    -0.041267289961    -0.000092268149    0.000029174207
            -0.000068295697    0.000019675124    0.061965781832    0.016485717815    -0.000068201793    0.000021554207    0.065391827494    0.026540331458
            0.067896537832    -0.041267289815    -0.000068201811    0.000021554199    0.069749666527    -0.068794631239    -0.000076499228    0.000030308591
            -0.000092268174    0.000029174250    0.065391916440    0.026540263872    -0.000076499222    0.000030308496    0.061966008386    0.017437670236
0.350     0.054805362144    -0.081046900922    -0.000069799725    0.000030295044    0.058322736965    -0.053787218008    -0.000093450558    0.000043719266
            -0.000069799715    0.000030295142    0.059019874793    0.015924968941    -0.000069153861    0.000032379672    0.065177289253    0.023447058554
            0.058322739374    -0.053787218346    -0.000069153878    0.000032379665    0.055717544789    -0.081537593636    -0.000078669251    0.000041516431
            -0.000093450567    0.000043719271    0.065177378736    0.023446984109    -0.000078669256    0.000041516328    0.059227890002    0.016914701838
0.375     0.037229437944    -0.090670535352    -0.000069781889    0.000041746877    0.045355657324    -0.064289537172    -0.000092416469    0.000059107184
            -0.000069781875    0.000041746968    0.055545075564    0.016969500776    -0.000068518647    0.000043899059    0.063937336132    0.021342553573
            0.045355659599    -0.064289538014    -0.000068518665    0.000043899155    0.038231240260    -0.091409272076    -0.000079201548    0.000054113662
            -0.000092416486    0.000059107195    0.063937414308    0.021342480448    -0.000079201573    0.000054113557    0.055972952712    0.017942992281
0.400     0.016891725736    -0.096540346563    -0.000067990148    0.000053907516    0.029458174214    -0.071946893326    -0.000088914618    0.000075095276
            -0.000067990109    0.000053907620    0.052048365772    0.019805747862    -0.000066073734    0.000055977011    0.062041177082    0.020528455260
            0.029458176228    -0.071946894662    -0.000066073740    0.000055977116    0.017940382817    -0.097569511680    -0.000077676033    0.000067875204
            -0.000088914633    0.000075095289    0.062041243236    0.020528385845    -0.000077676070    0.000067875116    0.052693165498    0.020705503169
0.425     -0.005343404092    -0.097972767404    -0.000064133139    0.000066559949    0.011295087058    -0.076036007817    -0.000082674221    0.000091336052
            -0.000064133091    0.000066560039    0.049087282162    0.024474085606    -0.000061562044    0.000068385545    0.059936996912    0.021191476152
            0.011295132184    -0.076035992015    -0.000061562046    0.000068385643    -0.004303825900    -0.099327267869    -0.000073654006    0.000082490486
            -0.000082674239    0.000091336104    0.059937059499    0.021191404131    -0.000073654037    0.000082490405    0.049929848246    0.025243058625
0.450     -0.028447258397    -0.094498614730    -0.000057919165    0.000079382872    -0.008293390129    -0.076002540017    -0.000073449404    0.000107388636
            -0.000057919116    0.000079382951    0.047234304860    0.030861744520    -0.000054727275    0.000080801042    0.058125945955    0.023389041041
            -0.008293389020    -0.076002542149    -0.000054727301    0.000080801050    -0.027484445945    -0.096201318984    -0.000066762151    0.000097477894
            -0.000073449393    0.000107388741    0.058126004365    0.023388965530    -0.000066762197    0.000097477815    0.048239617807    0.031448358540
0.475     -0.051276438686    -0.085896147830    -0.000049098599    0.000091916127    -0.028329284481    -0.071495418576    -0.000061061468    0.000122675328
            -0.000049098533    0.000091916196    0.047030148041    0.038691347394    -0.000045359918    0.000092767147    0.057117805816    0.027026185447
            -0.028329284481    -0.071495418576    -0.000045359943    0.000092767157    -0.050466800250    -0.087954758778    -0.000056695020    0.000112232244
            -0.000061061498    0.000122675335    0.057117858997    0.027026108123    -0.000056695080    0.000112232168    0.048148715730    0.039053794515
0.500     -0.072641357084    -0.072228862626    -0.000037525801    0.000103581348    -0.047757715609    -0.062414364235    -0.000045459751    0.000136520763
            -0.000037525721    0.000103581408    0.048941621362    0.047535558858    -0.000033352854    0.000103719934    0.057392499703    0.031862230154
            -0.047757718040    -0.062414367411    -0.000033352860    0.000103719953    -0.072066537963    -0.074632636867    -0.000043320461    0.000126011053
            -0.000045459705    0.000136520863    0.057392549118    0.031862151444    -0.000043320517    0.000126011002    0.050112517864    0.047645865404
0.525     -0.091376084195    -0.053850429752    -0.000023212784    0.000113696968    -0.065505742807    -0.048919500771    -0.000026771637    0.000148164429
            -0.000023212711    0.000113697014    0.053313233526    0.056833193867    -0.000018756001    0.000113002700    0.059350302830    0.037513925186
            -0.065505746012    -0.048919503164    -0.000018755986    0.000113002753    -0.091118142668    -0.056568631870    -0.000026684408    0.000137996635
            -0.000026771576    0.000148164532    0.059350372398    0.037513803892    -0.000026684473    0.000137996582    0.054468506672    0.056680865239
0.550     -0.106422727525    -0.031398845322    -0.000006375555    0.000121550960    -0.080564739437    -0.031439100706    -0.000005342696    0.000156845701
            -0.000006375485    0.000121551004    0.060335853134    0.065931350390    -0.000001815989    0.000119938403    0.063277277636    0.043489624141
            -0.080564739437    -0.031439100706    -0.000001816070    0.000119938492    -0.106558485526    -0.034380180083    -0.000007091526    0.000147358401
            -0.000005342708    0.000156845721    0.063277317778    0.043489542783    -0.000007091598    0.000147358348    0.061405157186    0.065524487976
0.575     -0.116898045583    -0.005758621617    0.000012547076    0.000126459074    -0.092049875826    -0.010639707421    0.000018251219    0.000161861090
            0.000012547151    0.000126459106    0.070016118879    0.074126808789    0.000017005775    0.000123887191    0.069308786145    0.049220205148
            -0.092049875826    -0.010639707421    0.000017005837    0.000123887273    -0.117494225804    -0.008932852196    0.000014928305    0.000153328442
            0.000018251213    0.000161861111    0.069308838010    0.049220085484    0.000014928300    0.000153328473    0.070932398295    0.073493211242
0.600     -0.122162332380    0.021993415984    0.000032908263    0.000127864247    -0.099273516188    0.012614044734    0.000043227174    0.000162667797
            0.000032908342    0.000127864278    0.082173970822    0.080724966346    0.000037053287    0.000124341281    0.077420791589    0.054113533701
            -0.099273516188    0.012614044734    0.000037053363    0.000124341362    -0.123269770256    0.018713425531    0.000038609114    0.000155301100
            0.000043227174    0.000162667817    0.077420816112    0.054113446249    0.000038609108    0.000155301122    0.082878432145    0.079910143783
0.625     -0.121853249336    0.050659743465    0.000053896192    0.000125390030    -0.101775580224    0.037321756314    0.000068652503    0.000158931976
            0.000053896229    0.000125390025    0.096443040000    0.085090185191    0.000057518403    0.000120976597    0.087420180719    0.057595605329
            -0.101775586738    0.037321738551    0.000057518403    0.000120976619    -0.123503287902    0.047373750517    0.000063037415    0.000152880021
            0.000068652503    0.000158931998    0.087420211264    0.057595522614    0.000063037419    0.000152880052    0.096891116502    0.084154355409
0.650     -0.115910518239    0.079005342981    0.000074612738    0.000118907542    -0.099359965465    0.062419022757    0.000093523106    0.000150593965
            0.000074612648    0.000118907481    0.112305363978    0.086696754829    0.000077520786    0.000113712451    0.098971748029    0.059164051370
            -0.099359965465    0.062419022757    0.000077520791    0.000113712472    -0.118111932225    0.075819934008    0.000087209507    0.000145949121
            0.000093523104    0.000150593967    0.098971774232    0.059163968558    0.000087209510    0.000145949142    0.112469153719    0.085711142986
0.675     -0.104561795224    0.105832420955    0.000094149523    0.000108532608    -0.092079976808    0.086843477349    0.000116848540    0.000137854358
            0.000094149516    0.000108532588    0.129119353561    0.085164127794    0.000096182013    0.000102707899    0.111613527451    0.058418194837
            -0.092079976808    0.086843477349    0.000096182029    0.000102707926    -0.107299657660    0.102856380667    0.000110138759    0.000134651504
            0.000116848548    0.000137854377    0.111613555226    0.058418055511    0.000110138765    0.000134651525    0.128990584676    0.084205742887
0.700     -0.088298401927    0.130057822869    0.000111681580    0.000094625568    -0.080230737951    0.109607312606    0.000137752710    0.000121168701
            0.000111681583    0.000094625457    0.146175384323    0.080281753990    0.000112716252    0.000088355563    0.124806905721    0.055089650304
            -0.080230737951    0.109607312606    0.000112716273    0.000088355585    -0.091533995183    0.127395185328    0.000130933625    0.000119392612
            0.000137752718    0.000121168708    0.124806924923    0.055089557275    0.000130933626    0.000119392625    0.145765797318    0.079427811339
0.725     -0.067824054899    0.150760939365    0.000126517575    0.000077729585    -0.064299969503    0.129836397438    0.000155514565    0.000101176822
            0.000126517561    0.000077729570    0.162734380744    0.072015356792    0.000126479369    0.000071221235    0.137962357210    0.049048674869
            -0.064299973941    0.129836406399    0.000126479381    0.000071221253    -0.071496830908    0.148507103198    0.000148860277    0.000100758596
            0.000155514575    0.000101176844    0.137962382025    0.049048545367    0.000148860302    0.000100758612    0.162075390607    0.071337403926
0.750     -0.044000673950    0.167228447197    0.000138159175    0.000058523920    -0.044931451108    0.146818603872    0.000169633540    0.000078649210
            0.000138159150    0.000058523901    0.178082247361    0.060499257069    0.000137019708    0.000051992614    0.150491065619    0.040308093770
            -0.044931451108    0.146818603872    0.000137019734    0.000051992632    -0.048031073987    0.165464269392    0.000163390827    0.000079476982
            0.000169633597    0.000078649229    0.150491092028    0.040307917869    0.000163390852    0.000079477022    0.177222665539    0.060060469235
0.775     -0.017787528201    0.178965383238    0.000146295335    0.000037745593    -0.022871393670    0.160007643802    0.000179816425    0.000054400902
            0.000146295774    0.000037745534    0.191559685035    0.046022082308    0.000144076518    0.000031404937    0.161824203536    0.029008230196
            -0.022871407559    0.160007601410    0.000144076540    0.000031404973    -0.022080754927    0.177754166276    0.000174201039    0.000056320761
            0.000179816459    0.000054400926    0.161824217712    0.029008151114    0.000174200609    0.000056320823    0.190562346033    0.045871252710
