# GHz S RI R 45
0.000     0.014586187000    0.000000000000    0.000000274381    -0.000000000000    0.000485933610    -0.000000000000    -0.000000404821    0.000000000000
            0.000000274438    -0.000000000000    0.014130358000    0.000000000000    -0.000001675978    0.000000000000    0.000482791030    -0.000000000000
            0.000485930040    -0.000000000000    -0.000001676011    0.000000000000    0.014543675000    0.000000000000    0.000000153971    -0.000000000000
            -0.000000404977    0.000000000000    0.000482760090    -0.000000000000    0.000000153636    -0.000000000000    0.014096965000    0.000000000000
0.025     0.019005981039    0.011120917081    -0.000002013455    0.000011608669    0.002207439828    0.010107437033    0.000002010086    0.000016655754
            -0.000002013317    0.000011608643    0.018396904737    0.010615525051    0.000001477528    0.000017964992    0.002074259323    0.009673616992
            0.002207410258    0.010107484434    0.000001477562    0.000017964991    0.018940641297    0.011102206242    0.000004390884    0.000021412731
            0.000002010004    0.000016655767    0.002074200895    0.009673668179    0.000004390842    0.000021412738    0.018327793618    0.010563871174
0.050     0.025177518047    0.018529029921    0.000004382810    0.000026595490    0.006822493453    0.019149281716    0.000011376477    0.000032197553
            0.000004382920    0.000026595449    0.024268512835    0.017713415977    0.000011012784    0.000033985953    0.006433462791    0.018411969433
            0.006822476747    0.019149290853    0.000011012828    0.000033985940    0.025103539166    0.018525166952    0.000016121770    0.000040257302
            0.000011376396    0.000032197583    0.006433418774    0.018411985873    0.000016121728    0.000040257323    0.024191193664    0.017632988547
0.075     0.033288343014    0.023833110295    0.000016756863    0.000037888197    0.013956899028    0.026433816925    0.000026442993    0.000043862461
            0.000016756964    0.000037888136    0.032018616803    0.022885440180    0.000025817044    0.000046354711    0.013227766146    0.025532654147
            0.013956888862    0.026433818901    0.000025817081    0.000046354694    0.033218750488    0.023844704497    0.000034424969    0.000054655138
            0.000026442917    0.000043862505    0.013227732652    0.025532665868    0.000034424933    0.000054655169    0.031935839565    0.022776638578
0.100     0.043016934962    0.026415406611    0.000033038405    0.000044415174    0.023030274598    0.031332085881    0.000045736783    0.000050248113
            0.000033038493    0.000044415097    0.041394061291    0.025540201840    0.000044752698    0.000053677566    0.021930175723    0.030446503323
            0.023030273003    0.031332088295    0.000044752738    0.000053677536    0.042961851150    0.026445647459    0.000057854908    0.000062911466
            0.000045736711    0.000050248171    0.021930153883    0.030446517821    0.000057854887    0.000062911499    0.041308784457    0.025409276064
0.125     0.053530612379    0.025835363373    0.000051559591    0.000045515478    0.033320475330    0.033390248502    0.000067590325    0.000050395454
            0.000051559666    0.000045515384    0.051646248391    0.025241623373    0.000066266198    0.000054981720    0.031891897243    0.032715126348
            0.033320474288    0.033390250954    0.000066266228    0.000054981690    0.053502411050    0.025884745184    0.000084579638    0.000063776876
            0.000067590264    0.000050395522    0.031891874276    0.032715147340    0.000084579624    0.000063776912    0.051564777329    0.025094001444
0.150     0.064039332917    0.021880680129    0.000070799289    0.000040784741    0.044025258372    0.032358396347    0.000090244808    0.000043777921
            0.000070799347    0.000040784633    0.062069065250    0.021750159772    0.000088679163    0.000049691232    0.042389765277    0.032080183301
            0.044025258854    0.032358399068    0.000088679189    0.000049691206    0.064054475150    0.021952116423    0.000112545092    0.000056525822
            0.000090244805    0.000043777925    0.042389748005    0.032080202810    0.000112545096    0.000056525859    0.062004039800    0.021593457444
0.175     0.073544976355    0.014599084007    0.000089156546    0.000030231835    0.054308047765    0.028194644158    0.000111877377    0.000030335579
            0.000089156584    0.000030231723    0.071743258506    0.015061457384    0.000110218784    0.000037693945    0.052661435464    0.028462618940
            0.054308047668    0.028194646515    0.000110218809    0.000037693902    0.073622839435    0.014687826239    0.000139604067    0.000040958792
            0.000111877353    0.000030335631    0.052661421286    0.028462640967    0.000139604079    0.000040958822    0.071710733627    0.014896864405
0.200     0.081149573235    0.004313683316    0.000105151956    0.000014179755    0.063354676512    0.021064393210    0.000130760321    0.000010423556
            0.000105151971    0.000014179644    0.079831351164    0.005419704756    0.000129177022    0.000019283915    0.061954960196    0.021967839400
            0.063354677675    0.021064396052    0.000129177022    0.000019283918    0.081310786189    0.004408845501    0.000163660853    0.000017386608
            0.000130760321    0.000010423560    0.061954949493    0.021967863602    0.000163660840    0.000017386726    0.079849566094    0.005243073285
0.225     0.086064800505    -0.008454237252    0.000117412934    -0.000006679582    0.070410357859    0.011322721737    0.000145293449    -0.000015209357
            0.000117412928    -0.000006679692    0.085582096165    -0.006752667192    0.000143957843    -0.000004842889    0.069560407980    0.012872148342
            0.070410358511    0.011322723985    0.000143957860    -0.000004842980    0.086329627268    -0.008370968242    0.000182745686    -0.000013413371
            0.000145293439    -0.000015209259    0.069560399499    0.012872183185    0.000182745702    -0.000013413299    0.085670355371    -0.006951828489
0.250     0.087658510923    -0.023002483603    0.000124783496    -0.000031407564    0.074825676441    -0.000504770362    0.000154108712    -0.000045499025
            0.000124783470    -0.000031407668    0.088371842876    -0.020863596398    0.000153174859    -0.000033667358    0.074852004049    0.001608144381
            0.074825677450    -0.000504769089    0.000153174860    -0.000033667352    0.088044485700    -0.022956848469    0.000195121274    -0.000050254408
            0.000154108720    -0.000045498928    0.074852000283    0.001608179982    0.000195121298    -0.000050254395    0.088548890844    -0.021102752533
0.275     0.085468675827    -0.038493388166    0.000126335954    -0.000058801092    0.076082229218    -0.013747064212    0.000156088660    -0.000079094260
            0.000126335918    -0.000058801193    0.087717761204    -0.036191571211    0.000155689926    -0.000065871232    0.077309877493    -0.011255680434
            0.076082232385    -0.013747057928    0.000155689921    -0.000065871272    0.085988493775    -0.038518099584    0.000199331198    -0.000091589487
            0.000156088685    -0.000079094167    0.077309876312    -0.011255667723    0.000199331244    -0.000091589433    0.087998995477    -0.036495128987
0.300     0.079245831038    -0.053991062743    0.000121423080    -0.000087503703    0.073828865303    -0.027622179539    0.000150424874    -0.000114439603
            0.000121423025    -0.000087503796    0.083317167937    -0.051914486089    0.000150663796    -0.000099919273    0.076554272615    -0.025043402701
            0.073828869077    -0.027622178013    0.000150663796    -0.000099919273    0.079904670243    -0.054125875740    0.000194268743    -0.000135584900
            0.000150424910    -0.000114439506    0.076554268890    -0.025043404440    0.000194268804    -0.000135584812    0.083713088566    -0.052314141831
0.325     0.068956073281    -0.068505409505    0.000109699386    -0.000116004858    0.067896535403    -0.041267289961    0.000136639505    -0.000149800861
            0.000109699316    -0.000116004938    0.075051163483    -0.067147701692    0.000137595703    -0.000134090494    0.072357728732    -0.038996608733
            0.067896537832    -0.041267289815    0.000137595687    -0.000134090539    0.069749666527    -0.068794631239    0.000179214264    -0.000180167589
            0.000136639544    -0.000149800826    0.072357725411    -0.038996608572    0.000179214308    -0.000180167602    0.075564926427    -0.067680683098
0.350     0.054805362144    -0.081046900922    0.000091145104    -0.000142741192    0.058322736965    -0.053787218008    0.000114626030    -0.000183351256
            0.000091145030    -0.000142741262    0.063009113366    -0.080989986483    0.000116349625    -0.000166560446    0.064668821426    -0.052314315073
            0.058322739374    -0.053787218346    0.000116349625    -0.000166560446    0.055717544789    -0.081537593636    0.000153890993    -0.000223112182
            0.000114626096    -0.000183351191    0.064668818181    -0.052314314315    0.000153891025    -0.000223112196    0.063634274422    -0.081697634872
0.375     0.037229437944    -0.090670535352    0.000066093432    -0.000166118552    0.045355657324    -0.064289537172    0.000084672291    -0.000213210293
            0.000066093343    -0.000166118598    0.047480446521    -0.092559097216    0.000087196024    -0.000195451743    0.053615209184    -0.064181015582
            0.045355659599    -0.064289538014    0.000087195987    -0.000195451770    0.038231240260    -0.091409272076    0.000118499447    -0.000262103163
            0.000084672362    -0.000213210232    0.053615237498    -0.064180978899    0.000118499477    -0.000262103193    0.048199620600    -0.093484542652
0.400     0.016891725736    -0.096540346563    0.000035231654    -0.000184616135    0.029458174214    -0.071946893326    0.000047486134    -0.000237550074
            0.000035231559    -0.000184616163    0.028957516007    -0.101046495436    0.000050821653    -0.000218932335    0.039511981475    -0.073817933874
            0.029458176228    -0.071946894662    0.000050821582    -0.000218932392    0.017940382817    -0.097569511680    0.000073750911    -0.000294848040
            0.000047486215    -0.000237550027    0.039511978771    -0.073817931918    0.000073750936    -0.000294848075    0.029741395171    -0.102231879373
0.425     -0.005343404092    -0.097972767404    -0.000000381711    -0.000196846390    0.011295087058    -0.076036007817    0.000004204995    -0.000254669427
            -0.000000381804    -0.000196846400    0.008115775803    -0.105752271565    0.000008347545    -0.000235298406    0.022852555447    -0.080512616833
            0.011295132184    -0.076035992015    0.000008347545    -0.000235298406    -0.004303825900    -0.099327267869    0.000020885554    -0.000319178122
            0.000004205083    -0.000254669385    0.022852552090    -0.080512615707    0.000020885568    -0.000319178162    0.008922783905    -0.107235459489
0.450     -0.028447258397    -0.094498614730    -0.000039357718    -0.000201667862    -0.008293390129    -0.076002540017    -0.000043627260    -0.000263116341
            -0.000039357906    -0.000201667886    -0.014209719093    -0.106138119371    -0.000038698153    -0.000243094698    0.004293492221    -0.083674257608
            -0.008293389020    -0.076002542149    -0.000038698151    -0.000243094709    -0.027484445945    -0.096201318984    -0.000038347032    -0.000333185891
            -0.000043627168    -0.000263116326    0.004293578102    -0.083674219156    -0.000038347020    -0.000333185943    -0.013433147522    -0.107949223759
0.475     -0.051276438686    -0.085896147830    -0.000080012519    -0.000198265948    -0.028329284481    -0.071495418576    -0.000094101701    -0.000261793351
            -0.000080012631    -0.000198265924    -0.037061039911    -0.101855676177    -0.000088424545    -0.000241216116    -0.015370359221    -0.082860575529
            -0.028329284481    -0.071495418576    -0.000088424552    -0.000241216135    -0.050466800250    -0.087954758778    -0.000101733618    -0.000335360260
            -0.000094101708    -0.000261793370    -0.015370358492    -0.082860571596    -0.000101733566    -0.000335360296    -0.036378200237    -0.104013608172
0.500     -0.072641357084    -0.072228862626    -0.000120466734    -0.000186244721    -0.047757715609    -0.062414364235    -0.000145040619    -0.000250062623
            -0.000120466815    -0.000186244704    -0.059405240026    -0.092784313905    -0.000138670448    -0.000229018759    -0.035248298578    -0.077823954133
            -0.047757718040    -0.062414367411    -0.000138670442    -0.000229018751    -0.072066537963    -0.074632636867    -0.000166694538    -0.000324706341
            -0.000145040634    -0.000250062648    -0.035248298578    -0.077823954133    -0.000166694570    -0.000324706403    -0.058887254874    -0.095294128937
0.525     -0.091376084195    -0.053850429752    -0.000158750155    -0.000165685414    -0.065505742807    -0.048919500771    -0.000194115757    -0.000227830218
            -0.000158750142    -0.000165685400    -0.080187217054    -0.079041941289    -0.000187126301    -0.000206392767    -0.054394857030    -0.068523129768
            -0.065505746012    -0.048919503164    -0.000187126281    -0.000206392744    -0.091118142668    -0.056568631870    -0.000230424421    -0.000300857969
            -0.000194115803    -0.000227830192    -0.054394761793    -0.068523132593    -0.000230424458    -0.000300858017    -0.079909363328    -0.081892600490
0.550     -0.106422727525    -0.031398845322    -0.000192947938    -0.000137163236    -0.080564739437    -0.031439100706    -0.000239010866    -0.000195574076
            -0.000192947930    -0.000137163231    -0.098394305541    -0.060994050043    -0.000231490870    -0.000173797648    -0.071872405101    -0.055144653804
            -0.080564739437    -0.031439100706    -0.000231490870    -0.000173797648    -0.106558485526    -0.034380180083    -0.000290060748    -0.000264124281
            -0.000239010931    -0.000195574059    -0.071872401928    -0.055144651369    -0.000290060731    -0.000264124359    -0.098431964567    -0.064156170678
0.575     -0.116898045583    -0.005758621617    -0.000221343145    -0.000101727524    -0.092049875826    -0.010639707421    -0.000277580942    -0.000154340145
            -0.000221343145    -0.000101727524    -0.113111511977    -0.039234844327    -0.000269629816    -0.000132254997    -0.086798217125    -0.038088347553
            -0.092049875826    -0.010639707421    -0.000269629798    -0.000132254988    -0.117494225804    -0.008932852196    -0.000342878742    -0.000215496104
            -0.000277580968    -0.000154340159    -0.086798218278    -0.038088329993    -0.000342878784    -0.000215496131    -0.113535827491    -0.042661110100
0.600     -0.122162332380    0.021993415984    -0.000242544961    -0.000060816482    -0.099273516188    0.012614044734    -0.000308009744    -0.000105658949
            -0.000242544953    -0.000060816435    -0.123584498474    -0.014559063270    -0.000299730721    -0.000083267150    -0.098409788288    -0.017952958615
            -0.099273516188    0.012614044734    -0.000299731489    -0.000083266518    -0.123269770256    0.018713425531    -0.000386471556    -0.000156578634
            -0.000308009791    -0.000105658965    -0.098409700187    -0.017952995785    -0.000386471658    -0.000156578675    -0.124457097810    -0.018185078635
0.625     -0.121853249336    0.050659743465    -0.000255585437    -0.000016145504    -0.101775580224    0.037321756314    -0.000328933950    -0.000051435339
            -0.000255585397    -0.000016145502    -0.129257359211    0.012084276036    -0.000320423214    -0.000028705694    -0.106097238547    0.004504316645
            -0.101775586738    0.037321738551    -0.000320423239    -0.000028705640    -0.123503287902    0.047373750517    -0.000418902725    -0.000089470527
            -0.000328933999    -0.000051435347    -0.106097160977    0.004504257699    -0.000418902793    -0.000089470541    -0.130626845307    0.008337923162
0.650     -0.115910518239    0.079005342981    -0.000259973553    0.000030439322    -0.099359965465    0.062419022757    -0.000339511698    0.000006213978
            -0.000259973583    0.000030439325    -0.129811228636    0.039649869591    -0.000330848850    0.000029338844    -0.109451075658    0.028413974386
            -0.099359965465    0.062419022757    -0.000330849351    0.000029339528    -0.118111932225    0.075819934008    -0.000438805567    -0.000016604415
            -0.000339511738    0.000006213979    -0.109451061020    0.028413990976    -0.000438805677    -0.000016604419    -0.131709029631    0.035874121952
0.675     -0.104561795224    0.105832420955    -0.000255683538    0.000077106604    -0.092079976808    0.086843477349    -0.000339438886    0.000065119837
            -0.000255683528    0.000077106601    -0.125169788689    0.067055299863    -0.000330676430    0.000088718929    -0.108264313661    0.052846049987
            -0.092079976808    0.086843477349    -0.000330676430    0.000088718929    -0.107299657660    0.102856380667    -0.000445422310    0.000059433529
            -0.000339438659    0.000065119425    -0.108264277952    0.052846009158    -0.000445422330    0.000059433531    -0.127607833054    0.063348548471
0.700     -0.088298401927    0.130057822869    -0.000243109758    0.000122167128    -0.080230737951    0.109607312606    -0.000328908234    0.000123210466
            -0.000243109750    0.000122167123    -0.115501593855    0.093247540959    -0.000320065967    0.000147373042    -0.102549182547    0.076869365746
            -0.080230737951    0.109607312606    -0.000320065967    0.000147373042    -0.091533995183    0.127395185328    -0.000438583805    0.000136072443
            -0.000328908281    0.000123210483    -0.102549182547    0.076869365746    -0.000438583829    0.000136072535    -0.118470870150    0.089710452047
0.725     -0.067824054899    0.150760939365    -0.000222970410    0.000164174277    -0.064299969503    0.129836397438    -0.000308523363    0.000178632860
            -0.000222970386    0.000164174260    -0.101193436621    0.117252672083    -0.000299583451    0.000203445930    -0.092509236077    0.099594139122
            -0.064299973941    0.129836406399    -0.000299583468    0.000203445941    -0.071496830908    0.148507103198    -0.000418635145    0.000210896976
            -0.000308523423    0.000178632896    -0.092509236077    0.099594139122    -0.000418635207    0.000210897008    -0.104663829695    0.113984338190
0.750     -0.044000673950    0.167228447197    -0.000196206862    0.000201972817    -0.044931451108    0.146818603872    -0.000279187724    0.000229822826
            -0.000196206799    0.000201972753    -0.082820430249    0.138228416341    -0.000270101016    0.000255358171    -0.078526024001    0.120223429220
            -0.044931451108    0.146818603872    -0.000270101045    0.000255358199    -0.048031073987    0.165464269392    -0.000386334926    0.000281747851
            -0.000279187733    0.000229822751    -0.078526022219    0.120223334831    -0.000386334934    0.000281747857    -0.086741660320    0.135320487119
0.775     -0.017787528201    0.178965383238    -0.000163871391    0.000234717954    -0.022871393670    0.160007643802    -0.000241991477    0.000275539718
            -0.000163871379    0.000234717938    -0.061101582741    0.155489646417    -0.000232682376    0.000301841152    -0.061116932806    0.138071774611
            -0.022871407559    0.160007601410    -0.000232682330    0.000301841200    -0.022080754927    0.177754166276    -0.000342739844    0.000346775477
