# GHz S RI R 45
0.000     0.014586187000    0.000000000000    0.000006832035    -0.000000000000    0.000485933610    -0.000000000000    0.000000771498    -0.000000000000
            0.000006832080    -0.000000000000    0.013602043000    0.000000000000    0.000003553931    -0.000000000000    0.000441619130    -0.000000000000
            0.000485930040    -0.000000000000    0.000003553872    -0.000000000000    0.014543675000    0.000000000000    0.000003270412    -0.000000000000
            0.000000771505    -0.000000000000    0.000441536580    -0.000000000000    0.000003270375    -0.000000000000    0.013559548000    0.000000000000
0.025     0.019005981039    0.011120917081    -0.000001423176    -0.000002371428    0.002207439828    0.010107437033    -0.000000448589    0.000001838025
            -0.000001423140    -0.000002371443    0.017578019283    0.010093426567    0.000001551271    0.000001402807    0.001939674980    0.009093862387
            0.002207410258    0.010107484434    0.000001551216    0.000001402821    0.018940641297    0.011102206242    0.000004361846    0.000002815349
            -0.000000448634    0.000001838032    0.001939563848    0.009093920957    0.000004361822    0.000002815353    0.017507315961    0.010034133258
0.050     0.025177518047    0.018529029921    -0.000001989336    0.000003699149    0.006822493453    0.019149281716    0.000000597558    0.000005199268
            -0.000001989294    0.000003699132    0.023119493280    0.016885235883    0.000002414725    0.000005242792    0.006008530706    0.017338650276
            0.006822476747    0.019149290853    0.000002414668    0.000005242813    0.025103539166    0.018525166952    0.000006201153    0.000004767122
            0.000000597521    0.000005199282    0.006008438081    0.017338681316    0.000006201124    0.000004767135    0.023029304974    0.016782298547
0.075     0.033288343014    0.023833110295    0.000000845201    0.000007670520    0.013956899028    0.026433816925    0.000003278991    0.000007550370
            0.000000845239    0.000007670495    0.030458434494    0.021939861196    0.000005478574    0.000007740604    0.012375775902    0.024139852424
            0.013956888862    0.026433818901    0.000005478525    0.000007740631    0.033218750488    0.023844704497    0.000008705488    0.000006029589
            0.000003278957    0.000007550390    0.012375695572    0.024139884616    0.000008705459    0.000006029610    0.030342735674    0.021803495538
0.100     0.043016934962    0.026415406611    0.000005010725    0.000009615697    0.023030274598    0.031332085881    0.000006739468    0.000008704944
            0.000005010748    0.000009615672    0.039413287207    0.024710493274    0.000009378521    0.000008717856    0.020593825870    0.028959034121
            0.023030273003    0.031332088295    0.000009378473    0.000008717895    0.042961851150    0.026445647459    0.000011738362    0.000006435484
            0.000006739439    0.000008704969    0.020593753803    0.028959080462    0.000011738338    0.000006435510    0.039271000045    0.024555921811
0.125     0.053530612379    0.025835363373    0.000009491291    0.000009723622    0.033320475330    0.033390248502    0.000010503814    0.000008617754
            0.000009491311    0.000009723588    0.049334347967    0.024772224900    0.000013484695    0.000008174471    0.030104621411    0.031380793942
            0.033320474288    0.033390250954    0.000013484656    0.000008174513    0.053502411050    0.025884745184    0.000015041674    0.000005834922
            0.000010503793    0.000008617781    0.030104559346    0.031380846554    0.000015041664    0.000005834945    0.049171271234    0.024615006851
0.150     0.064039332917    0.021880680129    0.000013744785    0.000008234986    0.044025258372    0.032358396347    0.000014209718    0.000007332881
            0.000013744799    0.000008234950    0.059608696132    0.021875174625    0.000017329202    0.000006253730    0.040280343102    0.031140222710
            0.044025258854    0.032358399068    0.000017329169    0.000006253782    0.064054475150    0.021952116423    0.000018315056    0.000004212714
            0.000014209701    0.000007332911    0.040280294284    0.031140279317    0.000018315051    0.000004212738    0.059436500989    0.021731931988
0.175     0.073544976355    0.014599084007    0.000017328552    0.000005461448    0.054308047765    0.028194644158    0.000017538422    0.000004972809
            0.000017328559    0.000005461410    0.069418036513    0.015956674933    0.000020539251    0.000003180655    0.050449766134    0.028121358075
            0.054308047668    0.028194646515    0.000020539229    0.000003180707    0.073622839435    0.014687826239    0.000021302049    0.000001602729
            0.000017538409    0.000004972845    0.050449722119    0.028121424714    0.000021302049    0.000001602754    0.069255200704    0.015839582491
0.200     0.081149573235    0.004313683316    0.000020002976    0.000001725066    0.063354676512    0.021064393210    0.000020259521    0.000001702746
            0.000020002972    0.000001725034    0.078000970540    0.007176568511    0.000022883428    -0.000000773758    0.059939898535    0.022366043139
            0.063354677675    0.021064396052    0.000022883413    -0.000000773699    0.081310786189    0.004408845501    0.000023766893    -0.000001882166
            0.000020259515    0.000001702779    0.059939862309    0.022366120199    0.000023766898    -0.000001882143    0.077871294484    0.007092830138
0.225     0.086064800505    -0.008454237252    0.000021612929    -0.000002628527    0.070410357859    0.011322721737    0.000022192856    -0.000002276608
            0.000021612920    -0.000002628570    0.084658556651    -0.004149080045    0.000024210290    -0.000005317572    0.068101852960    0.014064005000
            0.070410358511    0.011322723985    0.000024210287    -0.000005317512    0.086329627268    -0.008370968242    0.000025523354    -0.000006111437
            0.000022192856    -0.000002276575    0.068101829904    0.014064082032    0.000025523364    -0.000006111417    0.084589727548    -0.004199630053
0.250     0.087658510923    -0.023002483603    0.000022121512    -0.000007308235    0.074825676441    -0.000504770362    0.000023223421    -0.000006764137
            0.000022121497    -0.000007308262    0.088790032792    -0.017550194164    0.000024464090    -0.000010185586    0.074348057213    0.003543969989
            0.074825677450    -0.000504769089    0.000024464097    -0.000010185524    0.088044485700    -0.022956848469    0.000026416266    -0.000010911513
            0.000023223427    -0.000006764105    0.074348044660    0.003544044304    0.000026416279    -0.000010911496    0.088811699517    -0.017575583267
0.275     0.085468675827    -0.038493388166    0.000021544336    -0.000012034702    0.076082229218    -0.013747064212    0.000023276909    -0.000011547836
            0.000021544316    -0.000012034730    0.089903144377    -0.032436684297    0.000023639025    -0.000015123253    0.078170280347    -0.008742273923
            0.076082232385    -0.013747057928    0.000023639038    -0.000015123201    0.085988493775    -0.038518099584    0.000026331190    -0.000016104661
            0.000023276921    -0.000011547807    0.078170278753    -0.008742189204    0.000026331210    -0.000016104643    0.090044880094    -0.032453727401
0.300     0.079245831038    -0.053991062743    0.000019946060    -0.000016593857    0.073828865303    -0.027622179539    0.000022318570    -0.000016427543
            0.000019946035    -0.000016593884    0.087652373322    -0.048119167861    0.000021774533    -0.000019918847    0.079170810614    -0.022241837854
            0.073828869077    -0.027622178013    0.000021774563    -0.000019918755    0.079904670243    -0.054125875740    0.000025184929    -0.000021485445
            0.000022318587    -0.000016427517    0.079170823331    -0.022241744522    0.000025184952    -0.000021485444    0.087940846086    -0.048153712030
0.325     0.068956073281    -0.068505409505    0.000017420100    -0.000020788900    0.067896535403    -0.041267289961    0.000020347449    -0.000021200769
            0.000017420072    -0.000020788917    0.081840159204    -0.063839992926    0.000018939365    -0.000024376006    0.077072491558    -0.036319923892
            0.067896537832    -0.041267289815    0.000018939390    -0.000024375966    0.069749666527    -0.068794631239    0.000022930497    -0.000026848295
            0.000020347469    -0.000021200741    0.077072517020    -0.036319832325    0.000022930515    -0.000026848299    0.082296992506    -0.063926567841
0.350     0.054805362144    -0.081046900922    0.000014072517    -0.000024470765    0.058322736965    -0.053787218008    0.000017390744    -0.000025674897
            0.000014072480    -0.000024470780    0.072442680772    -0.078810321843    0.000015220217    -0.000028330803    0.071741212568    -0.050292458046
            0.058322739374    -0.053787218346    0.000015220224    -0.000028330811    0.055717544789    -0.081537593636    0.000019557491    -0.000031968038
            0.000017390772    -0.000025674872    0.071741250554    -0.050292370760    0.000019557559    -0.000031967965    0.073082098140    -0.078990697328
0.375     0.037229437944    -0.090670535352    0.000010029779    -0.000027506562    0.045355657324    -0.064289537172    0.000013509845    -0.000029661573
            0.000010029763    -0.000027506550    0.059602599355    -0.092238236461    0.000010726634    -0.000031634360    0.063188161442    -0.063446429197
            0.045355659599    -0.064289538014    0.000010726669    -0.000031634330    0.038231240260    -0.091409272076    0.000015094294    -0.000036624422
            0.000013509897    -0.000029661532    0.063188183979    -0.063446389814    0.000015094344    -0.000036624402    0.060429058889    -0.092560014740
0.400     0.016891725736    -0.096540346563    0.000005420145    -0.000029792660    0.029458174214    -0.071946893326    0.000008794429    -0.000032982246
            0.000005420134    -0.000029792644    0.043636125122    -0.103373234687    0.000005579712    -0.000034158556    0.051580076132    -0.075081674635
            0.029458176228    -0.071946894662    0.000005579777    -0.000034158637    0.017940382817    -0.097569511680    0.000009614547    -0.000040589826
            0.000008794506    -0.000032982190    0.051580136103    -0.075081601891    0.000009614629    -0.000040589778    0.044643115296    -0.103887502530
0.425     -0.005343404092    -0.097972767404    0.000000390475    -0.000031245355    0.011295087058    -0.076036007817    0.000003370098    -0.000035474703
            0.000000390425    -0.000031245361    0.025018537540    -0.111532414488    -0.000000077406    -0.000035795675    0.037232904725    -0.084530799541
            0.011295132184    -0.076035992015    -0.000000077364    -0.000035795657    -0.004303825900    -0.099327267869    0.000003234657    -0.000043654604
            0.000003370101    -0.000035474711    0.037232975655    -0.084530736610    0.000003234667    -0.000043654625    0.026186745757    -0.112291350849
0.450     -0.028447258397    -0.094498614730    -0.000004909621    -0.000031802469    -0.008293390129    -0.076002540017    -0.000002606832    -0.000036995942
            -0.000004909628    -0.000031802444    0.004370432452    -0.116144741172    -0.000006088475    -0.000036456677    0.020605774765    -0.091204657452
            -0.008293389020    -0.076002542149    -0.000006088390    -0.000036456654    -0.027484445945    -0.096201318984    -0.000003878982    -0.000045622263
            -0.000002606745    -0.000036995916    0.020605853231    -0.091204604867    -0.000003878976    -0.000045622285    0.005667771293    -0.117197871339
0.475     -0.051276438686    -0.085896147830    -0.000010317065    -0.000031430439    -0.028329284481    -0.071495418576    -0.000008949289    -0.000037437111
            -0.000010317110    -0.000031430428    -0.017567048235    -0.116772434267    -0.000012279673    -0.000036083956    0.002284141839    -0.094610667524
            -0.028329284481    -0.071495418576    -0.000012279583    -0.000036083940    -0.050466800250    -0.087954758778    -0.000011521512    -0.000046334954
            -0.000008949292    -0.000037437124    0.002284226764    -0.094610626462    -0.000011521518    -0.000046334978    -0.016185342981    -0.118163999077
0.500     -0.072641357084    -0.072228862626    -0.000015666684    -0.000030119199    -0.047757715609    -0.062414364235    -0.000015445615    -0.000036723767
            -0.000015666677    -0.000030119173    -0.039963959074    -0.113145101507    -0.000018465888    -0.000034645172    -0.017045305845    -0.094392925239
            -0.047757718040    -0.062414367411    -0.000018465896    -0.000034645188    -0.072066537963    -0.074632636867    -0.000019445865    -0.000045672981
            -0.000015445620    -0.000036723778    -0.017045215298    -0.094392894846    -0.000019445866    -0.000045673005    -0.038554427630    -0.114910493240
0.525     -0.091376084195    -0.053850429752    -0.000020792978    -0.000027895188    -0.065505742807    -0.048919500771    -0.000021871670    -0.000034831915
            -0.000020792967    -0.000027895164    -0.061936914179    -0.105171393396    -0.000024458741    -0.000032149572    -0.036620780931    -0.090342760141
            -0.065505746012    -0.048919503164    -0.000024458698    -0.000032149585    -0.091118142668    -0.056568631870    -0.000027385669    -0.000043575258
            -0.000021871581    -0.000034831935    -0.036620698701    -0.090342738443    -0.000027385686    -0.000043575286    -0.060565544638    -0.107334655459
0.550     -0.106422727525    -0.031398845322    -0.000025536592    -0.000024810714    -0.080564739437    -0.031439100706    -0.000027997187    -0.000031783426
            -0.000025536569    -0.000024810700    -0.082594556484    -0.092955853271    -0.000030069410    -0.000028637914    -0.055648031022    -0.082425084241
            -0.080564739437    -0.031439100706    -0.000030069421    -0.000028637915    -0.106558485526    -0.034380180083    -0.000035056509    -0.000040037297
            -0.000027997194    -0.000031783434    -0.055647944382    -0.082425079993    -0.000035056429    -0.000040037332    -0.081334665114    -0.095526385589
0.575     -0.116898045583    -0.005758621617    -0.000029757200    -0.000020953609    -0.092049875826    -0.010639707421    -0.000033607973    -0.000027653163
            -0.000029757226    -0.000020953573    -0.101077411994    -0.076792330296    -0.000035127409    -0.000024192658    -0.073331332699    -0.070773579448
            -0.092049875826    -0.010639707421    -0.000035127376    -0.000024192681    -0.117494225804    -0.008932852196    -0.000042185774    -0.000035119032
            -0.000033607989    -0.000027653167    -0.073331286408    -0.070773584212    -0.000042185814    -0.000035119090    -0.100005738175    -0.079764055430
0.600     -0.122162332380    0.021993415984    -0.000033332678    -0.000016432209    -0.099273516188    0.012614044734    -0.000038508820    -0.000022558384
            -0.000033332649    -0.000016432195    -0.116606752164    -0.057157010764    -0.000039477784    -0.000018924608    -0.088924212834    -0.055695603169
            -0.099273516188    0.012614044734    -0.000039477715    -0.000018924651    -0.123269770256    0.018713425531    -0.000048515804    -0.000028937466
            -0.000038508832    -0.000022558391    -0.088924123102    -0.055695633402    -0.000048515749    -0.000028937524    -0.115799708934    -0.060506691789
0.625     -0.121853249336    0.050659743465    -0.000036175740    -0.000011375791    -0.101775580224    0.037321756314    -0.000042545643    -0.000016652874
            -0.000036175751    -0.000011375753    -0.128518151728    -0.034683283748    -0.000043002735    -0.000012971712    -0.101755189283    -0.037649816363
            -0.101775586738    0.037321738551    -0.000043002749    -0.000012971716    -0.123503287902    0.047373750517    -0.000053830568    -0.000021658370
            -0.000042545619    -0.000016652908    -0.101755106727    -0.037649866581    -0.000053830556    -0.000021658409    -0.128048307587    -0.038370905962
0.650     -0.115910518239    0.079005342981    -0.000038224013    -0.000005920498    -0.099359965465    0.062419022757    -0.000045600723    -0.000010112952
            -0.000038223984    -0.000005920494    -0.136301581558    -0.010131397071    -0.000045610665    -0.000006485633    -0.111274927006    -0.017227601234
            -0.099359965465    0.062419022757    -0.000045610611    -0.000006485699    -0.118111932225    0.075819934008    -0.000057953708    -0.000013484779
            -0.000045600734    -0.000010112955    -0.111274848809    -0.017227648788    -0.000057953739    -0.000013484775    -0.136233531969    -0.014101316177
0.675     -0.104561795224    0.105832420955    -0.000039452809    -0.000000201074    -0.092079976808    0.086843477349    -0.000047606515    -0.000003122899
            -0.000039452778    -0.000000201081    -0.139617963258    0.015650251242    -0.000047252660    0.000000377966    -0.117066039914    0.004880977259
            -0.092079976808    0.086843477349    -0.000047252650    0.000000377942    -0.107299657660    0.102856380667    -0.000060765202    -0.000004638386
            -0.000047606502    -0.000003122932    -0.117066001652    0.004880934729    -0.000060765204    -0.000004638418    -0.140004401848    0.011467407232
0.700     -0.088298401927    0.130057822869    -0.000039857064    0.000005655397    -0.080230737951    0.109607312606    -0.000048530686    0.000004135292
            -0.000039857041    0.000005655394    -0.138318568066    0.041770136619    -0.000047903230    0.000007467118    -0.118875771079    0.027923828101
            -0.080230737951    0.109607312606    -0.000047903240    0.000007467120    -0.091533995183    0.127395185328    -0.000062188845    0.000004650221
            -0.000048530706    0.000004135303    -0.118875717555    0.027923749851    -0.000062188878    0.000004650235    -0.139198057593    0.037454284555
0.725     -0.067824054899    0.150760939365    -0.000039458205    0.000011541100    -0.064299969503    0.129836397438    -0.000048380226    0.000011497326
            -0.000039458179    0.000011541085    -0.132440670358    0.067333611425    -0.000047569418    0.000014646561    -0.116605014092    0.051120935716
            -0.064299973941    0.129836406399    -0.000047569399    0.000014646482    -0.071496830908    0.148507103198    -0.000062197878    0.000014161015
            -0.000048380234    0.000011497336    -0.116604967591    0.051120842540    -0.000062197900    0.000014161032    -0.133835029845    0.062972706477
0.750     -0.044000673950    0.167228447197    -0.000038282966    0.000017362137    -0.044931451108    0.146818603872    -0.000047181213    0.000018815855
            -0.000038282958    0.000017362206    -0.122203243940    0.091489548722    -0.000046268281    0.000021793075    -0.110321366711    0.073706443208
            -0.044931451108    0.146818603872    -0.000046268290    0.000021793089    -0.048031073987    0.165464269392    -0.000060796469    0.000023685280
            -0.000047181219    0.000018815867    -0.110321325919    0.073706360256    -0.000060796491    0.000023685301    -0.124116748824    0.087174769166
0.775     -0.017787528201    0.178965383238    -0.000036366565    0.000023049135    -0.022871393670    0.160007643802    -0.000044977197    0.000025972035
            -0.000036366551    0.000023049109    -0.107984371675    0.113461161027    -0.000044030934    0.000028808602    -0.100230206298    0.094954825062
            -0.022871407559    0.160007601410    -0.000044030939    0.000028808616    -0.022080754927    0.177754166276    -0.000058017800    0.000033040034
