# GHz S RI R 45
0.000     0.021755964000    0.000000000000    0.000001455592    -0.000000000000    0.000606240040    0.000000000000    -0.000003090478    0.000000000000
            0.000001455488    -0.000000000000    0.022384566000    0.000000000000    -0.000003198303    0.000000000000    0.000672163380    0.000000000000
            0.000606236510    0.000000000000    -0.000003198344    0.000000000000    0.021709563000    0.000000000000    0.000028063188    -0.000000000000
            -0.000003090498    0.000000000000    0.000672275230    0.000000000000    0.000028063298    -0.000000000000    0.022406486000    0.000000000000
0.025     0.027686092176    0.010332329419    0.000001278596    -0.000006203133    0.003159645671    0.010770777771    -0.000000246071    -0.000005962374
            0.000001278489    -0.000006203114    0.027061920002    0.009702281061    0.000001584710    -0.000003188253    0.002257643160    0.010544798998
            0.003159621213    0.010770826632    0.000001584677    -0.000003188264    0.027623580389    0.010324017812    -0.000012903435    -0.000030682057
            -0.000000246099    -0.000005962374    0.002257636096    0.010544626658    -0.000012903334    -0.000030682072    0.026971678705    0.009644108595
0.050     0.036016556717    0.014841193489    -0.000002544738    -0.000012609625    0.010010887833    0.019416964867    -0.000003824082    -0.000015559107
            -0.000002544841    -0.000012609589    0.032151309338    0.014746352958    -0.000000698102    -0.000011648067    0.006616358583    0.019941912370
            0.010010874196    0.019416977523    -0.000000698126    -0.000011648064    0.035959053639    0.014863155600    -0.000030109270    -0.000019323427
            -0.000003824110    -0.000015559103    0.006616500837    0.019941890458    -0.000030109167    -0.000019323464    0.031999536597    0.014653404313
0.075     0.046088707522    0.015267249309    -0.000008775081    -0.000017007612    0.020003540002    0.024410764489    -0.000012077623    -0.000022157089
            -0.000008775168    -0.000017007562    0.037553293378    0.017733427319    -0.000007136716    -0.000017333593    0.013093194014    0.027314825354
            0.020003531065    0.024410769226    -0.000007136742    -0.000017333587    0.046065732773    0.015313267499    -0.000035457425    -0.000011759069
            -0.000012077645    -0.000022157084    0.013093311164    0.027314808012    -0.000035457332    -0.000011759120    0.037313339331    0.017645437535
0.100     0.056506182332    0.010813711521    -0.000016435826    -0.000018959281    0.031468403215    0.024748120788    -0.000022593352    -0.000025153169
            -0.000016435908    -0.000018959215    0.042791920004    0.018513061385    -0.000015442650    -0.000019939577    0.020757875766    0.032141017681
            0.031468402705    0.024748123053    -0.000015442676    -0.000019939568    0.056541524016    0.010873382227    -0.000038646857    -0.000006381065
            -0.000022593371    -0.000025153164    0.020757986624    0.032140996082    -0.000038646771    -0.000006381134    0.042459307586    0.018479903366
0.125     0.065228273395    0.001429111707    -0.000024647139    -0.000018390590    0.042485517995    0.020102604626    -0.000033987626    -0.000024452490
            -0.000024647207    -0.000018390513    0.047003002438    0.017290959272    -0.000024363711    -0.000019537374    0.028583794153    0.034287214873
            0.042485518750    0.020102607706    -0.000024363737    -0.000019537361    0.065344215140    0.001483332093    -0.000041504194    -0.000001939698
            -0.000033987650    -0.000024452479    0.028583903324    0.034287187655    -0.000041504121    -0.000001939774    0.046596123620    0.017360988999
0.150     0.070378117753    -0.012216728021    -0.000032781176    -0.000015395255    0.051141937235    0.010862271186    -0.000045277568    -0.000020190165
            -0.000032781234    -0.000015395164    0.049377162889    0.014635276261    -0.000033117011    -0.000016347838    0.035592456473    0.034007799031
            0.051141937645    0.010862274072    -0.000033117036    -0.000016347822    0.070595312887    -0.012192739452    -0.000044528246    0.000002509099
            -0.000045277628    -0.000020190097    0.035592568318    0.034007764484    -0.000044528188    0.000002509010    0.048939589212    0.014848100342
0.175     0.070270075956    -0.028670728142    -0.000040337419    -0.000010164795    0.055754740563    -0.001926009871    -0.000055625921    -0.000012645832
            -0.000040337458    -0.000010164700    0.049433563711    0.011449333875    -0.000041085859    -0.000010679425    0.040972426352    0.031891753747
            0.055754742632    -0.001926007896    -0.000041085871    -0.000010679428    0.070602140773    -0.028714538970    -0.000047897777    0.000007598209
            -0.000055625927    -0.000012645844    0.040972532144    0.031891715515    -0.000047897734    0.000007598108    0.049023181740    0.011822796240
0.200     0.063862279107    -0.045924520058    -0.000046956902    -0.000002841144    0.055083279573    -0.016662569314    -0.000064415858    -0.000002112786
            -0.000046956926    -0.000002841038    0.047039279729    0.008780560693    -0.000047867295    -0.000002783909    0.044190221934    0.028792085707
            0.055083282069    -0.016662567970    -0.000047867337    -0.000002783828    0.064311451118    -0.046082851419    -0.000051413752    0.000013878810
            -0.000064415897    -0.000002112709    0.044190329661    0.028792039436    -0.000051413729    0.000013878708    0.046719892229    0.009307424005
0.225     0.050850814273    -0.061662734826    -0.000052269265    0.000006471167    0.048487336980    -0.031358434021    -0.000071042921    0.000011098095
            -0.000052269268    0.000006471270    0.042473186712    0.007685271456    -0.000053068508    0.000007117884    0.045069380024    0.025707529175
            0.048487339206    -0.031358434261    -0.000053068539    0.000007117973    0.051403000158    -0.061988434851    -0.000054712378    0.000021903530
            -0.000071042941    0.000011098136    0.045069480513    0.025707480155    -0.000054712383    0.000021903466    0.042304399134    0.008331616365
0.250     0.031765992182    -0.073513866398    -0.000055827363    0.000017710813    0.036048211956    -0.043850449430    -0.000074907821    0.000026687088
            -0.000055827348    0.000017710915    0.036414214788    0.009098734807    -0.000056265128    0.000018868470    0.043830159715    0.023652704764
            0.036048213991    -0.043850450346    -0.000056265143    0.000018868464    0.032387162534    -0.074059779554    -0.000057099554    0.000031981502
            -0.000074907837    0.000026687182    0.043830252810    0.023652652276    -0.000057099567    0.000031981392    0.036440463391    0.009806750881
0.275     0.007959386278    -0.079324204889    -0.000057025399    0.000030711651    0.018613185902    -0.052044990479    -0.000075298857    0.000044204486
            -0.000057025372    0.000030711740    0.029894886087    0.013669718774    -0.000056897835    0.000032208186    0.041078980594    0.023503490345
            0.018613192026    -0.052044990413    -0.000056897848    0.000032208219    0.008594390667    -0.080135691165    -0.000057671635    0.000044267412
            -0.000075298874    0.000044204479    0.041079074544    0.023503430850    -0.000057671667    0.000044267309    0.030136066916    0.014364445809
0.300     -0.018471159083    -0.077454412850    -0.000055135795    0.000045097955    -0.002238804036    -0.054196759536    -0.000071467312    0.000062989134
            -0.000055135756    0.000045098035    0.024183679969    0.021646158191    -0.000054314147    0.000046699777    0.037746016566    0.025858771881
            -0.002238802226    -0.054196761613    -0.000054314135    0.000046699865    -0.017898098094    -0.078560926553    -0.000055378961    0.000058421337
            -0.000071467321    0.000062989142    0.037746102229    0.025858710537    -0.000055379000    0.000058421255    0.024629538651    0.022246568683
0.325     -0.044879743465    -0.067025983201    -0.000049421782    0.000060122677    -0.024333429565    -0.049160299497    -0.000062726733    0.000081992138
            -0.000049421724    0.000060122756    0.020628477509    0.032776817943    -0.000047872210    0.000061555601    0.034960854613    0.030916604148
            -0.024333430452    -0.049160301290    -0.000047872229    0.000061555603    -0.044459088324    -0.068432356805    -0.000049188370    0.000073698269
            -0.000062726737    0.000081992172    0.034960940072    0.030916536191    -0.000049188415    0.000073698198    0.021236285890    0.033207631283
0.350     -0.068363118290    -0.048123182165    -0.000039346316    0.000074652444    -0.045144085215    -0.036607187231    -0.000048672959    0.000099816993
            -0.000039346249    0.000074652508    0.020458948988    0.046303393152    -0.000037137001    0.000075644777    0.033888280381    0.038416528105
            -0.045144085992    -0.036607187861    -0.000037137018    0.000075644780    -0.068191739061    -0.049802697738    -0.000038377571    0.000088795737
            -0.000048672963    0.000099817002    0.033888365525    0.038416454331    -0.000038377649    0.000088795662    0.021157542541    0.046508461388
0.375     -0.086120146012    -0.021850083714    -0.000024806364    0.000087221605    -0.062103792816    -0.017123938030    -0.000029407223    0.000114770131
            -0.000024806283    0.000087221666    0.024587830521    0.061010403917    -0.000022104663    0.000087538698    0.035534543872    0.047641277456
            -0.062103794744    -0.017123938561    -0.000022104602    0.000087538780    -0.086289224336    -0.023741587339    -0.000022706576    0.000102097441
            -0.000029407248    0.000114770145    0.035534617352    0.047641207678    -0.000022706656    0.000102097382    0.025286041811    0.060963065132
0.400     -0.095838773707    0.009740676630    -0.000006302068    0.000096281834    -0.072965966464    0.007812766794    -0.000005682853    0.000125156889
            -0.000006301983    0.000096281876    0.033445518142    0.075380422016    -0.000003349275    0.000095764015    0.040578337916    0.057517020160
            -0.072965967458    0.007812766901    -0.000003349215    0.000095764091    -0.096420587690    0.007731377416    -0.000002666464    0.000111862244
            -0.000005682871    0.000125156898    0.040578400394    0.057516955277    -0.000002666543    0.000111862202    0.034045392446    0.075090532556
0.425     -0.096011805819    0.043884990444    0.000015025999    0.000100486432    -0.076105479073    0.036013709919    0.000021078299    0.000129558712
            0.000015026079    0.000100486451    0.046884028092    0.087791399940    0.000017945654    0.000099070102    0.049245563853    0.066763567318
            -0.076105470813    0.036013657238    0.000017945725    0.000099070170    -0.097048102628    0.041877948562    0.000020596301    0.000116603250
            0.000021078330    0.000129558748    0.049245623654    0.066763499598    0.000020596212    0.000116603225    0.047295064804    0.087305606632
0.450     -0.086152055284    0.077451563329    0.000037550400    0.000099003943    -0.070743699457    0.064863918702    0.000048979396    0.000127162055
            0.000037550490    0.000099003951    0.064181403172    0.096754685423    0.000040153402    0.000096728095    0.061276024823    0.074097460002
            -0.070743700195    0.064863919378    0.000040153398    0.000096728118    -0.087644516277    0.075581258963    0.000045374491    0.000115373160
            0.000048979478    0.000127162109    0.061276081875    0.074097392059    0.000045374401    0.000115373142    0.064334297617    0.096151675376
0.475     -0.066830696558    0.107330253478    0.000059427053    0.000091676294    -0.057011029210    0.091656933148    0.000075936207    0.000117892310
            0.000059427139    0.000091676298    0.084132300374    0.101112334575    0.000061465323    0.000088672122    0.075962688398    0.078407408792
            -0.057011029210    0.091656933148    0.000061465320    0.000088672148    -0.068737312157    0.105731123110    0.000069767993    0.000107935261
            0.000075936206    0.000117892335    0.075962744389    0.078407340624    0.000069767914    0.000107935264    0.083989551395    0.100492886285
0.500     -0.039577514525    0.130796504592    0.000078928639    0.000079040758    -0.035892082252    0.113919994711    0.000100037710    0.000102421789
            0.000078928711    0.000079040743    0.105217051848    0.100187113554    0.000080220164    0.000075506817    0.092268837106    0.078903913367
            -0.035892085257    0.113920004249    0.000080220168    0.000075506842    -0.041813504786    0.129588473935    0.000091966632    0.000094774337
            0.000100037802    0.000102421825    0.092268885968    0.078903840842    0.000091966551    0.000094774346    0.104778665093    0.099660840833
0.525     -0.006655080927    0.145777238857    0.000094698458    0.000062171402    -0.009050245361    0.129650016770    0.000119798875    0.000081980002
            0.000094698524    0.000062171374    0.125790726384    0.093838048151    0.000095141620    0.000058343908    0.108966545493    0.075187361201
            -0.009050250583    0.129650026430    0.000095141676    0.000058343931    -0.009099321097    0.145052414281    0.000110559050    0.000076913223
            0.000119798983    0.000081980021    0.108966614686    0.075187243314    0.000110558972    0.000076913249    0.125095799231    0.093509918762
0.550     0.029216623585    0.151012267134    0.000105912704    0.000042456832    0.021387067024    0.137471393503    0.000134324173    0.000058111496
            0.000105912772    0.000042456797    0.144277904914    0.082450328445    0.000105489246    0.000038576048    0.124788261857    0.067270844652
            0.021387067024    0.137471393503    0.000105489281    0.000038576154    0.026711689685    0.150824432250    0.000124650172    0.000055701485
            0.000134324188    0.000058111513    0.124788305298    0.067270764067    0.000124650100    0.000055701524    0.143399086284    0.082407548293
0.575     0.065139511674    0.146091252256    0.000112287268    0.000021349981    0.053050809898    0.136678737083    0.000143297343    0.000032406749
            0.000112287327    0.000021349937    0.159316953103    0.066857879073    0.000111053129    0.000017632696    0.138542565975    0.055542297620
            0.053050809898    0.136678737083    0.000111053233    0.000017632678    0.062735615932    0.146450019964    0.000133889563    0.000032532914
            0.000143297360    0.000032406763    0.138542633978    0.055542181743    0.000133889580    0.000032532928    0.158354083145    0.067160377050
0.600     0.098281859580    0.131419947462    0.000114022625    0.000000175160    0.083522943502    0.127236497257    0.000146911487    0.000006301732
            0.000114022676    0.000000175105    0.169876528015    0.048242391776    0.000112090077    -0.000003209254    0.149216360085    0.040715258009
            0.083522941281    0.127236498715    0.000112090186    -0.000003209290    0.096142078581    0.132287050877    0.000138384839    0.000008683159
            0.000146911506    0.000006301741    0.149216401408    0.040715182540    0.000138384858    0.000008683172    0.168945077653    0.048915735998
0.625     0.126065151701    0.108125039458    0.000111664955    -0.000020005226    0.110480882382    0.109721069026    0.000145711944    -0.000019062017
            0.000111664959    -0.000020005261    0.175311507113    0.028016314374    0.000109179238    -0.000022948563    0.156032288536    0.023756264404
            0.110480882382    0.109721069026    0.000109179260    -0.000022948556    0.124341016627    0.109415207302    0.000138564026    -0.000014848249
            0.000145711975    -0.000019062013    0.156032331669    0.023756180413    0.000138564057    -0.000014848244    0.174532481018    0.029046994128
0.650     0.146311965432    0.077947336907    0.000105987565    -0.000038462549    0.131823040080    0.085273132489    0.000140460567    -0.000042894657
            0.000105987585    -0.000038462494    0.175404430803    0.007710507370    0.000103097389    -0.000040923295    0.158510047339    0.005824424962
            0.131823040080    0.085273132489    0.000103097411    -0.000040923293    0.145130296238    0.079532122716    0.000135042992    -0.000037366253
            0.000140460645    -0.000042894643    0.158510080582    0.005824337258    0.000135043015    -0.000037366246    0.174891827729    0.009046843873
0.675     0.157347793539    0.043127478524    0.000097841538    -0.000054824480    0.145757983086    0.055537364387    0.000131973343    -0.000064770955
            0.000097841515    -0.000054824481    0.170368375101    -0.011131471716    0.000094670859    -0.000056820695    0.156496486808    -0.011803025189
            0.145757992431    0.055537367947    0.000094670891    -0.000056820701    0.156799761178    0.044840780930    0.000128472703    -0.000058510433
            0.000131973364    -0.000064770960    0.156496526511    -0.011803163607    0.000128472725    -0.000058510435    0.170217946154    -0.009577188099
0.700     0.158101703109    0.006292868427    0.000088042743    -0.000069075331    0.150922679286    0.022611253734    0.000121007019    -0.000084614778
            0.000088042633    -0.000069075358    0.160854193890    -0.027058167921    0.000084664094    -0.000070665480    0.150217317994    -0.027805889860
            0.150922679286    0.022611253734    0.000084664122    -0.000070665494    0.158231075469    0.007940719614    0.000119435285    -0.000078210400
            0.000121007035    -0.000084614789    0.150217341311    -0.027805983659    0.000119435307    -0.000078210402    0.161131619612    -0.025403718150
0.725     0.148190197619    -0.029661731292    0.000077226694    -0.000081510553    0.146486517089    -0.011022495427    0.000108115950    -0.000102624740
            0.000077226669    -0.000081510535    0.147927588904    -0.038819525916    0.000073645961    -0.000082762469    0.140294745105    -0.040923802269
            0.146486517089    -0.011022495427    0.000073645981    -0.000082762479    0.148984910347    -0.028289842059    0.000108307947    -0.000096629638
            0.000108115974    -0.000102624745    0.140294766992    -0.040923941501    0.000108307960    -0.000096629654    0.148658454470    -0.037203732901
0.750     0.128014460349    -0.061728237357    0.000065728727    -0.000092663790    0.132300780969    -0.042609912716    0.000093551737    -0.000119190341
            0.000065728706    -0.000092663768    0.133038429041    -0.045491284525    0.000061882875    -0.000093611561    0.127768806004    -0.050079124544
            0.132300780969    -0.042609912716    0.000061882895    -0.000093611584    0.129399281126    -0.060842539189    0.000095187643    -0.000114060312
            0.000093551768    -0.000119190393    0.127768828614    -0.050079313486    0.000095187688    -0.000114060326    0.134202261363    -0.044060041931
0.775     0.098833264176    -0.086980345515    0.000053453987    -0.000103139096    0.109020690433    -0.069290295496    0.000077158273    -0.000134711813
            0.000053453980    -0.000103139539    0.117940027955    -0.046607264971    0.000049235517    -0.000103744385    0.114051799186    -0.054533755019
            0.109020694112    -0.069290252421    0.000049235540    -0.000103744396    0.100667526906    -0.086771977323    0.000079798304    -0.000130758339
            0.000077158288    -0.000134711839    0.114051816196    -0.054533858534    0.000079798307    -0.000130757892    0.119465330579    -0.045498274978
