# GHz S RI R 45
0.000     0.021755964000    0.000000000000    0.000001500170    0.000000000000    0.000606240040    0.000000000000    -0.000025443974    0.000000000000
            0.000001500367    0.000000000000    0.021673108000    0.000000000000    0.000012567685    0.000000000000    0.000555897030    0.000000000000
            0.000606236510    0.000000000000    0.000012569673    0.000000000000    0.021709563000    0.000000000000    -0.000006029145    0.000000000000
            -0.000025443832    0.000000000000    0.000555896980    0.000000000000    -0.000006029129    0.000000000000    0.021658899000    0.000000000000
0.025     0.027686092176    0.010332329419    -0.000019918958    -0.000063189670    0.003159645671    0.010770777771    -0.000042249766    -0.000059181524
            -0.000019918965    -0.000063189653    0.026110925880    0.009459474060    -0.000024495574    -0.000074088679    0.002006431605    0.010119050435
            0.003159621213    0.010770826632    -0.000024495589    -0.000074088683    0.027623580389    0.010324017812    -0.000019966165    -0.000066068364
            -0.000042249758    -0.000059181513    0.002006307990    0.010118884305    -0.000019966173    -0.000066068349    0.026034578172    0.009469504751
0.050     0.036016556717    0.014841193489    -0.000058494832    -0.000108688403    0.010010887833    0.019416964867    -0.000086098754    -0.000111297005
            -0.000058494851    -0.000108688393    0.030815810455    0.014449583633    -0.000068253061    -0.000113952719    0.005894463640    0.019223273419
            0.010010874196    0.019416977523    -0.000068253066    -0.000113952728    0.035959053639    0.014863155600    -0.000061114328    -0.000122569950
            -0.000086098754    -0.000111297005    0.005894493920    0.019223262042    -0.000061114324    -0.000122569941    0.030714635224    0.014492329289
0.075     0.046088707522    0.015267249309    -0.000111822404    -0.000139339934    0.020003540002    0.024410764489    -0.000149003099    -0.000139039705
            -0.000111822404    -0.000139339934    0.035705866962    0.017660800357    -0.000120930747    -0.000142076366    0.011694398012    0.026630900549
            0.020003531065    0.024410769226    -0.000120930747    -0.000142076366    0.046065732773    0.015313267499    -0.000123072799    -0.000159492823
            -0.000149003029    -0.000139039736    0.011694403929    0.026630900135    -0.000123072799    -0.000159492823    0.035581999387    0.017756256017
0.100     0.056506182332    0.010813711521    -0.000175588415    -0.000151131838    0.031468403215    0.024748120788    -0.000219548584    -0.000140502489
            -0.000175588415    -0.000151131838    0.040469497091    0.019009034769    -0.000183363881    -0.000154075670    0.018663061848    0.031897327981
            0.031468402705    0.024748123053    -0.000183363984    -0.000154075593    0.056541524016    0.010873382227    -0.000196932846    -0.000172660966
            -0.000219548510    -0.000140502550    0.018663061848    0.031897327981    -0.000196932921    -0.000172660910    0.040333491844    0.019176118409
0.125     0.065228273395    0.001429111707    -0.000243820669    -0.000142354702    0.042485517995    0.020102604626    -0.000288450129    -0.000117468730
            -0.000243820669    -0.000142354702    0.044424497289    0.018670742700    -0.000251325568    -0.000147391050    0.025973733062    0.034879200627
            0.042485518750    0.020102607706    -0.000251325568    -0.000147391050    0.065344215140    0.001483332093    -0.000274420173    -0.000161165961
            -0.000288450129    -0.000117468730    0.025973733062    0.034879200627    -0.000274420173    -0.000161165961    0.044297570714    0.018924842405
0.150     0.070378117753    -0.012216728021    -0.000311000880    -0.000113346182    0.051141937235    0.010862271186    -0.000349244468    -0.000074133486
            -0.000311000948    -0.000113346083    0.046920743516    0.017114622209    -0.000320018176    -0.000121350717    0.032829443627    0.035736025079
            0.051141937645    0.010862274072    -0.000320018185    -0.000121350721    0.070595312887    -0.012192739452    -0.000348698402    -0.000126695541
            -0.000349244416    -0.000074133538    0.032829443627    0.035736025079    -0.000348698392    -0.000126695538    0.046830990551    0.017464697641
0.175     0.070270075956    -0.028670728142    -0.000372622996    -0.000065463115    0.055754740563    -0.001926009871    -0.000398273645    -0.000015342456
            -0.000372622996    -0.000065463115    0.047578411129    0.015062535479    -0.000385346723    -0.000076233681    0.038550380756    0.034889658506
            0.055754742632    -0.001926007896    -0.000385346737    -0.000076233614    0.070602140773    -0.028714538970    -0.000414768592    -0.000072228859
            -0.000398273645    -0.000015342456    0.038550380756    0.034889658506    -0.000414768624    -0.000072228790    0.047561158104    0.015504929795
0.200     0.063862279107    -0.045924520058    -0.000425173512    -0.000000468171    0.055083279573    -0.016662569314    -0.000434293361    0.000054572251
            -0.000425173512    -0.000000468171    0.046283925923    0.013348875514    -0.000443643031    -0.000012775505    0.042660027504    0.032977477336
            0.055083282069    -0.016662567970    -0.000443643031    -0.000012775505    0.064311451118    -0.046082851419    -0.000469557361    -0.000000968688
            -0.000434293380    0.000054572253    0.042660027504    0.032977477336    -0.000469557371    -0.000000968770    0.046374108684    0.013864819070
0.225     0.050850814273    -0.061662734826    -0.000465578719    0.000079974620    0.048487336980    -0.031358434021    -0.000457343309    0.000132629395
            -0.000465578738    0.000079974623    0.043244946917    0.012814734400    -0.000491348652    0.000068344681    0.044948045606    0.030764166371
            0.048487339206    -0.031358434261    -0.000491348652    0.000068344681    0.051403000158    -0.061988434851    -0.000511074254    0.000084483713
            -0.000457343214    0.000132628935    0.044948045606    0.030764166371    -0.000511074254    0.000084483713    0.043471007122    0.013370798629
0.250     0.031765992182    -0.073513866398    -0.000490765935    0.000174296829    0.036048211956    -0.043850449430    -0.000467780673    0.000217503738
            -0.000490765935    0.000174296829    0.038979764400    0.014213034454    -0.000524493807    0.000166223586    0.045504664129    0.029048325403
            0.036048213991    -0.043850450346    -0.000524493807    0.000166223586    0.032387162534    -0.074059779554    -0.000537687232    0.000182480452
            -0.000467780673    0.000217503738    0.045504664129    0.029048325403    -0.000537687232    0.000182480452    0.039357285777    0.014764319513
0.275     0.007959386278    -0.079324204889    -0.000497093208    0.000280619551    0.018613185902    -0.052044990479    -0.000464997729    0.000309060748
            -0.000497093208    0.000280619551    0.034285388391    0.018079159880    -0.000538317569    0.000279356376    0.044718590966    0.028546138313
            0.018613192026    -0.052044990413    -0.000538317569    0.000279356376    0.008594390667    -0.080135691165    -0.000547037778    0.000291929522
            -0.000464997729    0.000309060748    0.044718590966    0.028546138313    -0.000547037778    0.000291929522    0.034812954507    0.018574530706
0.300     -0.018471159083    -0.077454412850    -0.000480360395    0.000396094593    -0.002238804036    -0.054196759536    -0.000446798833    0.000407490172
            -0.000480360403    0.000396094599    0.030150411886    0.024647904181    -0.000527384175    0.000404758890    0.043238494634    0.029789525769
            -0.002238802226    -0.054196761613    -0.000527384175    0.000404758890    -0.017898098094    -0.078560926553    -0.000535604672    0.000411551115
            -0.000446798833    0.000407490172    0.043238494634    0.029789525769    -0.000535604672    0.000411551115    0.030807141569    0.025036600876
0.325     -0.044879743465    -0.067025983201    -0.000436137520    0.000516073663    -0.024333429565    -0.049160299497    -0.000409215310    0.000511861855
            -0.000436137520    0.000516073663    0.027640059858    0.033771965339    -0.000486088276    0.000537229355    0.041889132095    0.033028203870
            -0.024333430452    -0.049160301290    -0.000486088276    0.000537229355    -0.044459088324    -0.068432356805    -0.000498658709    0.000538603105
            -0.000409215310    0.000511861855    0.041889132095    0.033028203870    -0.000498658709    0.000538603105    0.028386011648    0.034011405896
0.350     -0.068363118290    -0.048123182165    -0.000360806064    0.000633710424    -0.045144085215    -0.036607187231    -0.000347319750    0.000619007646
            -0.000360806099    0.000633710485    0.027751160550    0.044913766946    -0.000409898057    0.000668900173    0.041560065975    0.038179641695
            -0.045144085992    -0.036607187861    -0.000409897930    0.000668900228    -0.068191739061    -0.049802697738    -0.000431165359    0.000667983843
            -0.000347319755    0.000619007655    0.041560065975    0.038179641695    -0.000431165359    0.000667983843    0.028530863674    0.044977088372
0.375     -0.086120146012    -0.021850083714    -0.000252774210    0.000739973328    -0.062103792816    -0.017123938030    -0.000256618557    0.000722680027
            -0.000252774207    0.000739973318    0.031263547926    0.057169738761    -0.000296696038    0.000789437379    0.043065997015    0.044812759596
            -0.062103794744    -0.017123938561    -0.000296696045    0.000789437398    -0.086289224336    -0.023741587339    -0.000329161953    0.000791618966
            -0.000256618557    0.000722680027    0.043065997015    0.044812759596    -0.000329161953    0.000791618966    0.032012195159    0.057050970555
0.400     -0.095838773707    0.009740676630    -0.000113738781    0.000824657657    -0.072965966464    0.007812766794    -0.000134835818    0.000813911598
            -0.000113738781    0.000824657657    0.038610066783    0.069376004184    -0.000148173286    0.000887181661    0.047021065277    0.052204528319
            -0.072965967458    0.007812766901    -0.000148173286    0.000887181661    -0.096420587690    0.007731377416    -0.000191464080    0.000899055398
            -0.000134835818    0.000813911598    0.047021065277    0.052204528319    -0.000191464082    0.000899055408    0.039262289571    0.069093801160
0.425     -0.096011805819    0.043884990444    0.000050701012    0.000877830786    -0.076105479073    0.036013709919    0.000016637436    0.000882088711
            0.000050701012    0.000877830786    0.049789406843    0.080243287168    0.000029574283    0.000950823304    0.053731789616    0.059430748289
            -0.076105470813    0.036013657238    0.000029574283    0.000950823314    -0.097048102628    0.041877948562    -0.000020932618    0.000978693589
            0.000016637436    0.000882088721    0.053731789616    0.059430748289    -0.000020932652    0.000978693588    0.050288478317    0.079839982437
0.450     -0.086152055284    0.077451563329    0.000231297997    0.000891759046    -0.070743699457    0.064863918702    0.000192103642    0.000916958226
            0.000231297997    0.000891759046    0.064349192772    0.088534359709    0.000226328727    0.000971507984    0.063151375478    0.065506534612
            -0.070743700195    0.064863919378    0.000226328727    0.000971507984    -0.087644516277    0.075581258963    0.000175113822    0.001019895564
            0.000192103656    0.000916958212    0.063151375478    0.065506534612    0.000175113804    0.001019895567    0.064655266274    0.088071379539
0.475     -0.066830696558    0.107330253478    0.000416325900    0.000862282063    -0.057011029210    0.091656933148    0.000381960739    0.000910498428
            0.000416326349    0.000862282146    0.081429011633    0.093219000524    0.000429088090    0.000944367895    0.074881384173    0.069515529187
            -0.057011029210    0.091656933148    0.000429088090    0.000944367895    -0.068737312157    0.105731123110    0.000385532100    0.001014831097
            0.000381960739    0.000910498428    0.074881384173    0.069515529187    0.000385532100    0.001014831097    0.081525685996    0.092770833558
0.500     -0.039577514525    0.130796504592    0.000593370948    0.000789630680    -0.035892082252    0.113919994711    0.000574067276    0.000858499620
            0.000593370948    0.000789630680    0.099870957059    0.093609636528    0.000624010376    0.000869419390    0.088236578011    0.070735730525
            -0.035892085257    0.113920004249    0.000624010376    0.000869419390    -0.041813504786    0.129588473935    0.000596933611    0.000959954730
            0.000574067291    0.000858499610    0.088236578011    0.070735730525    0.000596933611    0.000959954730    0.099768093793    0.093253672734
0.525     -0.006655080927    0.145777238857    0.000751124661    0.000678106360    -0.009050245361    0.129650016770    0.000755492814    0.000761113537
            0.000751124661    0.000678106360    0.118355183151    0.089428380212    0.000798420350    0.000751237402    0.102332617628    0.068710655519
            -0.009050250583    0.129650026430    0.000798420350    0.000751237402    -0.009099321097    0.145052414281    0.000795565738    0.000856376178
            0.000755492814    0.000761113537    0.102332617628    0.068710655519    0.000795565723    0.000856376192    0.118089879583    0.089236696498
0.550     0.029216623585    0.151012267134    0.000880862413    0.000535159662    0.021387067024    0.137471393503    0.000914333829    0.000622670676
            0.000880862413    0.000535159662    0.135555998403    0.080829390101    0.000942444452    0.000597984143    0.116198850622    0.063292107119
            0.021387067024    0.137471393503    0.000942444452    0.000597984143    0.026711689685    0.150824432250    0.000969172603    0.000709481791
            0.000914333922    0.000622670717    0.116198850622    0.063292107119    0.000969172591    0.000709481808    0.135188019774    0.080859110582
0.575     0.065139511674    0.146091252256    0.000977098293    0.000369922010    0.053050809898    0.136678737083    0.001040959539    0.000450734713
            0.000977098293    0.000369922010    0.150268014237    0.068358381864    0.001049799912    0.000419799300    0.128870736887    0.054629651082
            0.053050809898    0.136678737083    0.001049799912    0.000419799300    0.062735615932    0.146450019964    0.001108201324    0.000527771933
            0.001040959539    0.000450734713    0.128870736887    0.054629651082    0.001108201333    0.000527771914    0.149875307734    0.068645844292
0.600     0.098281859580    0.131419947462    0.001037722074    0.000191835625    0.083522943502    0.127236497257    0.001128851942    0.000254936473
            0.001037722074    0.000191835625    0.161519904959    0.052886040624    0.001118013887    0.000227294124    0.139481317161    0.043148684469
            0.083522941281    0.127236498715    0.001118013891    0.000227294104    0.096142078581    0.132287050877    0.001206541548    0.000321582465
            0.001128851942    0.000254936473    0.139481317161    0.043148684469    0.001206541542    0.000321582486    0.161189968364    0.053441444397
0.625     0.126065151701    0.108125039458    0.001063408992    0.000009485971    0.110480882382    0.109721069026    0.001174719440    0.000045717085
            0.001063408992    0.000009485971    0.168638224954    0.035516351800    0.001147836848    0.000030193716    0.147315662890    0.029498509821
            0.110480882382    0.109721069026    0.001147836848    0.000030193710    0.124341016627    0.109415207302    0.001261463658    0.000101690330
            0.001174719440    0.000045717083    0.147315662890    0.029498509821    0.001261463657    0.000101690336    0.168461114648    0.036321106471
0.650     0.146311965432    0.077947336907    0.001056956690    -0.000170161607    0.131823040080    0.085273132489    0.001178412844    -0.000166731751
            0.001056956690    -0.000170161607    0.171298918596    0.017491304223    0.001142545565    -0.000163574613    0.151870248967    0.014509241640
            0.131823040080    0.085273132489    0.001142545565    -0.000163574613    0.145130296238    0.079532122716    0.001273407140    -0.000121713894
            0.001178412844    -0.000166731751    0.151870248967    0.014509241640    0.001273407140    -0.000121713891    0.171357211755    0.018499222253
0.675     0.157347793539    0.043127478524    0.001022290405    -0.000342107570    0.145757983086    0.055537364387    0.001142347877    -0.000373327232
            0.001022290405    -0.000342107570    0.169535612569    0.000096442698    0.001106822564    -0.000348379441    0.152879050325    -0.000868981803
            0.145757992431    0.055537367947    0.001106822557    -0.000348379461    0.156799761178    0.044840780930    0.001245225168    -0.000339879005
            0.001142347877    -0.000373327232    0.152879040316    -0.000868983214    0.001245225174    -0.000339878983    0.169897332129    0.001234898700
0.700     0.158101703109    0.006292868427    0.000963712617    -0.000503425794    0.150922679286    0.022611253734    0.001070967892    -0.000566789199
            0.000963712617    -0.000503425794    0.163749514482    -0.015433551142    0.001045876348    -0.000521074648    0.150357296831    -0.015620597997
            0.150922679286    0.022611253734    0.001045876348    -0.000521074648    0.158231075469    0.007940719614    0.001181546931    -0.000546087169
            0.001070967892    -0.000566789199    0.150357296831    -0.015620597997    0.001181546931    -0.000546087169    0.164458825168    -0.014257568277
0.725     0.148190197619    -0.029661731292    0.000885009416    -0.000652996630    0.146486517089    -0.011022495427    0.000969850081    -0.000742006057
            0.000885009416    -0.000652996630    0.154684887183    -0.028004793830    0.000964315682    -0.000680768016    0.144613337107    -0.028740767769
            0.146486517089    -0.011022495427    0.000964315682    -0.000680768016    0.148984910347    -0.028289842059    0.001087769897    -0.000735902449
            0.000969850081    -0.000742006057    0.144613337107    -0.028740767769    0.001087769910    -0.000735902430    0.155756529447    -0.026899706612
0.750     0.128014460349    -0.061728237357    0.000788821382    -0.000791132643    0.132300780969    -0.042609912716    0.000844838703    -0.000896277847
            0.000788821382    -0.000791132643    0.143403242413    -0.036761983766    0.000865380163    -0.000828388056    0.136270785182    -0.039317646668
            0.132300780969    -0.042609912716    0.000865380149    -0.000828388071    0.129399281126    -0.060842539189    0.000969216346    -0.000907260887
            0.000844838703    -0.000896277847    0.136270785182    -0.039317646668    0.000969216362    -0.000907260870    0.144817332470    -0.035839648284
0.775     0.098833264176    -0.086980345515    0.000676011372    -0.000918758680    0.109020690433    -0.069290295496    0.000700975290    -0.001028994030
            0.000676011372    -0.000918758680    0.131218730989    -0.041181181778    0.000750084667    -0.000965722615    0.126243890134    -0.046639198386
            0.109020694112    -0.069290252421    0.000750084650    -0.000965722628    0.100667526906    -0.086771977323    0.000830015071    -0.001060001532
            0.000700975290    -0.001028994030    0.126243890134    -0.046639198386    0.000830015071    -0.001060001532    0.132918470172    -0.040547591214
