# GHz S RI R 45
0.000     0.021755964000    0.000000000000    -0.000000033985    -0.000000000000    0.000606240040    0.000000000000    -0.000002363549    0.000000000000
            -0.000000033977    -0.000000000000    0.020851905000    0.000000000000    -0.000002295894    0.000000000000    0.000609218670    -0.000000000000
            0.000606236510    0.000000000000    -0.000002295886    0.000000000000    0.021709563000    0.000000000000    0.000000202621    -0.000000000000
            -0.000002363535    0.000000000000    0.000609220720    -0.000000000000    0.000000202612    -0.000000000000    0.020773139000    0.000000000000
0.025     0.027686092176    0.010332329419    -0.000001484049    -0.000002515856    0.003159645671    0.010770777771    -0.000000645021    -0.000001173035
            -0.000001484017    -0.000002515873    0.025993997954    0.008718547002    -0.000001819846    -0.000001964028    0.002618407977    0.008925367976
            0.003159621213    0.010770826632    -0.000001819862    -0.000001964023    0.027623580389    0.010324017812    -0.000001659295    -0.000003666639
            -0.000000641110    -0.000001177860    0.002618528496    0.008925226320    -0.000001656857    -0.000003668541    0.025920810009    0.008639521119
0.050     0.036016556717    0.014841193489    -0.000003669086    -0.000003600686    0.010010887833    0.019416964867    -0.000002267769    -0.000004284876
            -0.000003669073    -0.000003600687    0.033162432350    0.012444683327    -0.000004002304    -0.000004654281    0.008218338257    0.016306641778
            0.010010874196    0.019416977523    -0.000004002306    -0.000004654283    0.035959053639    0.014863155600    -0.000004854827    -0.000005464268
            -0.000002267327    -0.000004284357    0.008218289992    0.016306713135    -0.000004854495    -0.000005464293    0.033071816670    0.012301312909
0.075     0.046088707522    0.015267249309    -0.000006401678    -0.000003589522    0.020003540002    0.024410764489    -0.000005982331    -0.000005378880
            -0.000006401677    -0.000003589523    0.041920079028    0.012864271580    -0.000007999595    -0.000005315609    0.016566308781    0.020844764768
            0.020003531065    0.024410769226    -0.000007999593    -0.000005315613    0.046065732773    0.015313267499    -0.000008915345    -0.000005624409
            -0.000005982316    -0.000005378727    0.016566283920    0.020844755147    -0.000008915238    -0.000005624291    0.041807054880    0.012667622438
0.100     0.056506182332    0.010813711521    -0.000009261513    -0.000002197665    0.031468403215    0.024748120788    -0.000010150305    -0.000004195578
            -0.000009261553    -0.000002197633    0.051270109971    0.009275750996    -0.000012348410    -0.000003656828    0.026418099708    0.021695743245
            0.031468402705    0.024748123053    -0.000012348388    -0.000003656885    0.056541524016    0.010873382227    -0.000013204126    -0.000003713313
            -0.000010150313    -0.000004195639    0.026418104013    0.021695752184    -0.000013204175    -0.000003713351    0.051138723033    0.009041818985
0.125     0.065228273395    0.001429111707    -0.000011643774    0.000000611903    0.042485517995    0.020102604626    -0.000013693765    -0.000000886604
            -0.000011643681    0.000000611954    0.059638429112    0.001503582892    -0.000015971280    0.000000233131    0.036334410314    0.018483683728
            0.042485518750    0.020102607706    -0.000015971411    0.000000233099    0.065344215140    0.001483332093    -0.000016803913    0.000000284392
            -0.000013693785    -0.000000886562    0.036334421392    0.018483677390    -0.000016803919    0.000000284471    0.059500801531    0.001246177731
0.150     0.070378117753    -0.012216728021    -0.000012961204    0.000004603300    0.051141937235    0.010862271186    -0.000015779647    0.000004102915
            -0.000012961213    0.000004603319    0.065526525322    -0.010119312173    -0.000017977285    0.000005885865    0.044838122195    0.011340182894
            0.051141937645    0.010862274072    -0.000017977284    0.000005885837    0.070595312887    -0.012192739452    -0.000018865149    0.000006021174
            -0.000015779630    0.000004102902    0.044838118890    0.011340183723    -0.000018865129    0.000006021164    0.065405406866    -0.010395003325
0.175     0.070270075956    -0.028670728142    -0.000012750397    0.000009334894    0.055754740563    -0.001926009871    -0.000015815597    0.000010067860
            -0.000012750291    0.000009334912    0.067487318082    -0.024642923754    -0.000017718323    0.000012556650    0.050558912024    0.000881100446
            0.055754742632    -0.001926007896    -0.000017718466    0.000012556645    0.070602140773    -0.028714538970    -0.000018730902    0.000012838631
            -0.000015815550    0.000010067869    0.050558915045    0.000881099307    -0.000018730834    0.000012838652    0.067408374086    -0.024942488535
0.200     0.063862279107    -0.045924520058    -0.000010733065    0.000014206874    0.055083279573    -0.016662569314    -0.000013510746    0.000016176729
            -0.000010732994    0.000014206878    0.064497432332    -0.040654145698    -0.000014876656    0.000019336826    0.052388710347    -0.011845928581
            0.055083282069    -0.016662567970    -0.000014876753    0.000019336840    0.064311451118    -0.046082851419    -0.000016016443    0.000019879678
            -0.000013510736    0.000016176741    0.052388715224    -0.011845929684    -0.000016016414    0.000019879707    0.064484958281    -0.040995137138
0.225     0.050850814273    -0.061662734826    -0.000006853454    0.000018536511    0.048487336980    -0.031358434021    -0.000008883793    0.000021540378
            -0.000006853457    0.000018536507    0.056029412758    -0.056446791020    -0.000009465192    0.000025246819    0.049598941635    -0.025459258610
            0.048487339206    -0.031358434261    -0.000009465192    0.000025246819    0.051403000158    -0.061988434851    -0.000010658442    0.000026180873
            -0.000008883799    0.000021540371    0.049598940301    -0.025459259019    -0.000010658442    0.000026180873    0.056101592135    -0.056859071372
0.250     0.031765992182    -0.073513866398    -0.000001306515    0.000021631888    0.036048211956    -0.043850449430    -0.000002253720    0.000025329733
            -0.000001306524    0.000021631883    0.042141618789    -0.070179238787    -0.000001839080    0.000029367777    0.041938799076    -0.038376247746
            0.036048213991    -0.043850450346    -0.000001839080    0.000029367778    0.032387162534    -0.074059779554    -0.000002934427    0.000030784286
            -0.000002253809    0.000025329675    0.041938800415    -0.038376246282    -0.000002934441    0.000030784284    0.042305562106    -0.070702494531
0.275     0.007959386278    -0.079324204889    0.000005464492    0.000022877534    0.018613185902    -0.052044990479    0.000005779796    0.000026848252
            0.000005464477    0.000022877536    0.023489453996    -0.080057883130    0.000007334840    0.000030920835    0.029683334334    -0.048965330574
            0.018613192026    -0.052044990413    0.000007334857    0.000030920837    0.008594390667    -0.080135691165    0.000006545555    0.000032845064
            0.000005779804    0.000026848257    0.029683330916    -0.048965332646    0.000006545572    0.000032845069    0.023736933783    -0.080737464547
0.300     -0.018471159083    -0.077454412850    0.000012792321    0.000021827592    -0.002238804036    -0.054196759536    0.000014396199    0.000025631078
            0.000012792324    0.000021827597    0.001310154432    -0.084535468039    0.000017139171    0.000029389002    0.013639109563    -0.055722466502
            -0.002238802226    -0.054196761613    0.000017139174    0.000029389000    -0.017898098094    -0.078560926553    0.000016879412    0.000031749532
            0.000014396191    0.000025631080    0.013639100335    -0.055722466702    0.000016879406    0.000031749530    0.001614706559    -0.085416875290
0.325     -0.044879743465    -0.067025983201    0.000019850780    0.000018287141    -0.024333429565    -0.049160299497    0.000022623367    0.000021513441
            0.000019850772    0.000018287172    -0.022675021707    -0.082484756062    0.000026485284    0.000024585010    -0.004908113695    -0.057436136921
            -0.024333430452    -0.049160301290    0.000026485297    0.000024584975    -0.044459088324    -0.068432356805    0.000026957775    0.000027214224
            0.000022623362    0.000021513445    -0.004908116447    -0.057436133675    0.000026957774    0.000027214221    -0.022358133230    -0.083606324233
0.350     -0.068363118290    -0.048123182165    0.000025756354    0.000012376053    -0.045144085215    -0.036607187231    0.000029460901    0.000014683183
            0.000025756343    0.000012376064    -0.046406112436    -0.073361647175    0.000034252669    0.000016718024    -0.024304024991    -0.053346081043
            -0.045144085992    -0.036607187861    0.000034252681    0.000016718014    -0.068191739061    -0.049802697738    0.000035591969    0.000019364276
            0.000029460900    0.000014683190    -0.024304025406    -0.053346081953    0.000035591969    0.000019364285    -0.046137966606    -0.074747497765
0.375     -0.086120146012    -0.021850083714    0.000029693792    0.000004540808    -0.062103792816    -0.017123938030    0.000034004660    0.000005685226
            0.000029693794    0.000004540811    -0.067683393739    -0.057293010801    0.000039423118    0.000006392520    -0.042681399115    -0.043248677624
            -0.062103794744    -0.017123938561    0.000039423119    0.000006392520    -0.086289224336    -0.023741587339    0.000041669563    0.000008749560
            0.000034004651    0.000005685227    -0.042681396305    -0.043248674777    0.000041669549    0.000008749555    -0.067536488222    -0.058946728001
0.400     -0.095838773707    0.009740676630    0.000031048263    -0.000004486305    -0.072965966464    0.007812766794    0.000035589430    -0.000004635301
            0.000031048271    -0.000004486299    -0.084400682857    -0.035113413411    0.000041241836    -0.000005449277    -0.058162856407    -0.027556014858
            -0.072965967458    0.007812766901    0.000041241834    -0.000005449276    -0.096420587690    0.007731377416    0.000044320291    -0.000003700538
            0.000035589432    -0.000004635298    -0.058162855503    -0.027556014430    0.000044320287    -0.000003700544    -0.084451028847    -0.037013464221
0.425     -0.096011805819    0.043884990444    0.000029503832    -0.000013787203    -0.076105479073    0.036013709919    0.000033885359    -0.000015239373
            0.000029503837    -0.000013787191    -0.094770420361    -0.008303571255    0.000039320109    -0.000017644162    -0.069058955699    -0.007270636094
            -0.076105470813    0.036013657238    0.000039320105    -0.000017644173    -0.097048102628    0.041877948562    0.000043042715    -0.000016794799
            0.000033885355    -0.000015239373    -0.069058954704    -0.007270635990    0.000043042707    -0.000016794802    -0.095088920148    -0.010402140375
0.450     -0.086152055284    0.077451563329    0.000025093584    -0.000022392296    -0.070743699457    0.064863918702    0.000028947657    -0.000025044644
            0.000025093588    -0.000022392297    -0.097531788362    0.021140544176    0.000033697995    -0.000028970216    -0.074065499759    0.016104899943
            -0.070743700195    0.064863919378    0.000033697995    -0.000028970220    -0.087644516277    0.075581258963    0.000037778644    -0.000029241121
            0.000028947637    -0.000025044556    -0.074065498782    0.016104899730    0.000037778643    -0.000029241125    -0.098174593890    0.018915842638
0.475     -0.066830696558    0.107330253478    0.000018179407    -0.000029417171    -0.057011029210    0.091656933148    0.000021191840    -0.000033068451
            0.000018179453    -0.000029417175    -0.092085278343    0.050904684106    0.000024818480    -0.000038302967    -0.072396754868    0.040721588542
            -0.057011029210    0.091656933148    0.000024818484    -0.000038302963    -0.068737312157    0.105731123110    0.000028901912    -0.000039817324
            0.000021191840    -0.000033068450    -0.072396753996    0.040721588052    0.000028901904    -0.000039817323    -0.093085585800    0.048645310297
0.500     -0.039577514525    0.130796504592    0.000009382286    -0.000034172814    -0.035892082252    0.113919994711    0.000011314460    -0.000038548574
            0.000009382289    -0.000034172822    -0.078561780018    0.078588796549    0.000013450312    -0.000044751991    -0.063870495090    0.064576384362
            -0.035892085257    0.113920004249    0.000013450311    -0.000044751983    -0.041813504786    0.129588473935    0.000017148213    -0.000047515381
            0.000011314484    -0.000038548487    -0.063870493683    0.064576382940    0.000017148213    -0.000047515379    -0.079923660305    0.076397528071
0.525     -0.006655080927    0.145777238857    -0.000000521642    -0.000036224481    -0.009050245361    0.129650016770    0.000000181404    -0.000041003970
            -0.000000521651    -0.000036224488    -0.057798218411    0.101936547545    0.000000568134    -0.000047733353    -0.048905863755    0.085703948004
            -0.009050250583    0.129650026430    0.000000568145    -0.000047733347    -0.009099321097    0.145052414281    0.000003496644    -0.000051630307
            0.000000181404    -0.000041003972    -0.048905862764    0.085703946267    0.000003496642    -0.000051630307    -0.059493652642    0.099917510471
0.550     0.029216623585    0.151012267134    -0.000010703060    -0.000035403298    0.021387067024    0.137471393503    -0.000011286466    -0.000040248026
            -0.000010703056    -0.000035403309    -0.031248516067    0.119041660551    -0.000012770258    -0.000046994837    -0.028472293714    0.102361002091
            0.021387067024    0.137471393503    -0.000012770258    -0.000046994837    0.026711689685    0.150824432250    -0.000010953540    -0.000051794688
            -0.000011286404    -0.000040247968    -0.028472293714    0.102361002091    -0.000010953549    -0.000051794686    -0.033217439236    0.117290422031
0.575     0.065139511674    0.146091252256    -0.000020363482    -0.000031777094    0.053050809898    0.136678737083    -0.000022202923    -0.000036354548
            -0.000020363442    -0.000031777079    -0.000837259176    0.128497982348    -0.000025526858    -0.000042587355    -0.003980477001    0.113156901787
            0.053050809898    0.136678737083    -0.000025526860    -0.000042587358    0.062735615932    0.146450019964    -0.000025091984    -0.000047960325
            -0.000022202918    -0.000036354554    -0.003980477001    0.113156901787    -0.000025091982    -0.000047960321    -0.002991112473    0.127091556807
0.600     0.098281859580    0.131419947462    -0.000028787566    -0.000025605358    0.083522943502    0.127236497257    -0.000031775822    -0.000029608247
            -0.000028787570    -0.000025605362    0.031214238046    0.129498407200    -0.000036756905    -0.000034819066    0.022845907320    0.117155418764
            0.083522941281    0.127236498715    -0.000036756906    -0.000034819067    0.096142078581    0.132287050877    -0.000037874610    -0.000040359345
            -0.000031775822    -0.000029608248    0.022845911410    0.117155417967    -0.000037874698    -0.000040359368    0.028986395875    0.128487513138
0.625     0.126065151701    0.108125039458    -0.000035366753    -0.000017291319    0.110480882382    0.109721069026    -0.000039331470    -0.000020450506
            -0.000035366761    -0.000017291330    0.062565072918    0.121868918922    -0.000045645887    -0.000024198055    0.050106594007    0.113913696672
            0.110480882382    0.109721069026    -0.000045645880    -0.000024198052    0.124341016627    0.109415207302    -0.000048369241    -0.000029451562
            -0.000039331429    -0.000020450502    0.050106589980    0.113913687518    -0.000048369246    -0.000029451554    0.060389038106    0.121271974034
0.650     0.146311965432    0.077947336907    -0.000039606913    -0.000007348530    0.131823040080    0.085273132489    -0.000044321967    -0.000009441277
            -0.000039606917    -0.000007348531    0.090927444447    0.106061998914    -0.000051530416    -0.000011389592    0.075861133302    0.103503423683
            0.131823040080    0.085273132489    -0.000051530414    -0.000011389591    0.145130296238    0.079532122716    -0.000055781512    -0.000015887182
            -0.000044321970    -0.000009441278    0.075861131495    0.103503425007    -0.000055781516    -0.000015887173    0.088933833653    0.105861625663
0.675     0.157347793539    0.043127478524    -0.000041125876    0.000003617910    0.145757983086    0.055537364387    -0.000046321069    0.000002761779
            -0.000041125879    0.000003617910    0.114212864918    0.083107280893    -0.000053902491    0.000002814184    0.098243219296    0.086487560320
            0.145757992431    0.055537367947    -0.000053902496    0.000002814184    0.156799761178    0.044840780930    -0.000059467568    -0.000000478090
            -0.000046321069    0.000002761779    0.098243219296    0.086487560320    -0.000059467563    -0.000000478080    0.112527914789    0.083248665104
0.700     0.158101703109    0.006292868427    -0.000039664245    0.000014916806    0.150922679286    0.022611253734    -0.000045032441    0.000015408788
            -0.000039664253    0.000014916809    0.130666587921    0.054539422370    -0.000052426174    0.000017510556    0.115581045304    0.063892236516
            0.150922679286    0.022611253734    -0.000052426169    0.000017510555    0.158231075469    0.007940719614    -0.000058959303    0.000015814521
            -0.000045032446    0.000015408789    0.115581045304    0.063892236516    -0.000058959304    0.000015814521    0.129401610055    0.054932351866
0.725     0.148190197619    -0.029661731292    -0.000035105571    0.000025770979    0.146486517089    -0.011022495427    -0.000040309673    0.000027655537
            -0.000035105568    0.000025770986    0.138970638232    0.022304875138    -0.000046960205    0.000031696993    0.126487181511    0.037151679337
            0.146486517089    -0.011022495427    -0.000046960206    0.000031696994    0.148984910347    -0.028289842059    -0.000053996097    0.000031890999
            -0.000040309674    0.000027655538    0.126487181511    0.037151679337    -0.000053996096    0.000031890999    0.138213057925    0.022826587608
0.750     0.128014460349    -0.061728237357    -0.000027520710    0.000035330582    0.132300780969    -0.042609912716    -0.000032203324    0.000038573876
            -0.000027520703    0.000035330586    0.138339451665    -0.011351544937    -0.000037605525    0.000044295294    0.129966790948    0.008041157201
            0.132300780969    -0.042609912716    -0.000037605528    0.000044295299    0.129399281126    -0.060842539189    -0.000044585540    0.000046537608
            -0.000032203329    0.000038573869    0.129966790892    0.008041158109    -0.000044585536    0.000046537604    0.138142579178    -0.010849046677
0.775     0.098833264176    -0.086980345515    -0.000017220426    0.000042708449    0.109020690433    -0.069290295496    -0.000021019185    0.000047185038
            -0.000017220428    0.000042708453    0.128585692030    -0.044013437362    -0.000024758624    0.000054197313    0.125494254141    -0.021412047002
            0.109020694112    -0.069290252421    -0.000024758626    0.000054197317    0.100667526906    -0.086771977323    -0.000031068460    0.000058477950
