# GHz S RI R 45
0.000     0.021755964000    0.000000000000    0.977819920000    -0.000000000000    0.000606240040    0.000000000000    -0.000774008190    0.000000000000
            0.977819920000    -0.000000000000    0.021566183000    0.000000000000    -0.000775343720    0.000000000000    0.000399291200    0.000000000000
            0.000606236510    0.000000000000    -0.000775317430    0.000000000000    0.021709563000    0.000000000000    0.977842340000    -0.000000000000
            -0.000773980890    0.000000000000    0.000399290100    0.000000000000    0.977842340000    -0.000000000000    0.021528826000    0.000000000000
0.025     0.027686092176    0.010332329419    0.959626104989    -0.170168401694    0.003159645671    0.010770777771    -0.001268562405    -0.002253702326
            0.959626104989    -0.170168401694    0.026270591080    0.010293906105    -0.001265275550    -0.002250609828    0.002063214104    0.011101785160
            0.003159621213    0.010770826632    -0.001265243838    -0.002250677559    0.027623580389    0.010324017812    0.959752623755    -0.169814539453
            -0.001268631562    -0.002253782857    0.002063090408    0.011101618963    0.959752623755    -0.169814539453    0.026180340178    0.010292320711
0.050     0.036016556717    0.014841193489    0.913910817532    -0.331092534712    0.010010887833    0.019416964867    -0.002774150352    -0.004144719586
            0.913910817532    -0.331092534712    0.031281577951    0.015922970070    -0.002767661963    -0.004142837610    0.006316339079    0.021003694281
            0.010010874196    0.019416977523    -0.002767634876    -0.004142854984    0.035959053639    0.014863155600    0.914224294491    -0.330460433963
            -0.002774124199    -0.004144738414    0.006316368930    0.021003683216    0.914224294491    -0.330460433963    0.031154938342    0.015962657855
0.075     0.046088707522    0.015267249309    0.842045845449    -0.481209677846    0.020003540002    0.024410764489    -0.004962575934    -0.005250142379
            0.842045845449    -0.481209677846    0.036530613679    0.019663059226    -0.004953144231    -0.005249441223    0.012593615012    0.029090057683
            0.020003531065    0.024410769226    -0.004953117257    -0.005249454851    0.046065732773    0.015313267499    0.842630169928    -0.480355447799
            -0.004962550073    -0.005250155402    0.012593620376    0.029090057540    0.842630169928    -0.480355447799    0.036373186103    0.019766963107
0.100     0.056506182332    0.010813711521    0.746068614695    -0.616263442643    0.031468403215    0.024748120788    -0.007445345806    -0.005491764218
            0.746068614695    -0.616263442643    0.041667874914    0.021437758994    -0.007431548351    -0.005493279812    0.020119207312    0.034893592746
            0.031468402705    0.024748123053    -0.007431524735    -0.005493296452    0.056541524016    0.010873382227    0.747000144465    -0.615265451646
            -0.007445324040    -0.005491782272    0.020119206094    0.034893593449    0.747000144465    -0.615265451646    0.041492289411    0.021629518630
0.125     0.065228273395    0.001429111707    0.629037000573    -0.732540729160    0.042485517995    0.020102604626    -0.009923586054    -0.004933757503
            0.629037000573    -0.732540729160    0.045975299175    0.021491694479    -0.009904032954    -0.004940038636    0.028009560318    0.038279001060
            0.042485518750    0.020102607706    -0.009904012862    -0.004940060994    0.065344215140    0.001483332093    0.630375401819    -0.731498417238
            -0.009923568557    -0.004933774726    0.028009559650    0.038279001549    0.630375401819    -0.731498417238    0.045804597976    0.021790561937
0.150     0.070378117753    -0.012216728021    0.494503573476    -0.826925503557    0.051141937235    0.010862271186    -0.012212329758    -0.003729421495
            0.494503573476    -0.826925503557    0.048773523961    0.020290986732    -0.012186914545    -0.003744770405    0.035421504315    0.039441276651
            0.051141937645    0.010862274072    -0.012186898099    -0.003744793286    0.070595312887    -0.012192739452    0.496281950831    -0.825951770269
            -0.012212312689    -0.003729446576    0.035421503626    0.039441277269    0.496281950831    -0.825951770269    0.048646572687    0.020709671917
0.175     0.070270075956    -0.028670728142    0.346418535003    -0.896989358403    0.055754740563    -0.001926009871    -0.014249919876    -0.002025183993
            0.346418535003    -0.896989358403    0.049700229667    0.018648409898    -0.014220941466    -0.002054815245    0.041654763448    0.038856242734
            0.055754742632    -0.001926007896    -0.014220927982    -0.002054838635    0.070602140773    -0.028714538970    0.348643872041    -0.896205685621
            -0.014249905098    -0.002025209803    0.041654771799    0.038856239647    0.348643872041    -0.896205685621    0.049661379429    0.019182820687
0.200     0.063862279107    -0.045924520058    0.188997472745    -0.940932795798    0.055083279573    -0.016662569314    -0.016060162581    0.000096915840
            0.188997472745    -0.940932795798    0.048694427515    0.017460625985    -0.016033045428    0.000048239941    0.046242679199    0.037220337287
            0.055083282069    -0.016662567970    -0.016033035504    0.000048214727    0.064311451118    -0.046082851419    0.191650666228    -0.940465741800
            -0.016060153750    0.000096887756    0.046242677770    0.037220337467    0.191650666228    -0.940465741800    0.048787477915    0.018088287852
0.225     0.050850814273    -0.061662734826    0.026679353035    -0.957585294405    0.048487336980    -0.031358434021    -0.017682878069    0.002658277708
            0.026679353035    -0.957585294405    0.046046116039    0.017600232792    -0.017666118518    0.002587924745    0.049016777232    0.035348595777
            0.048487339206    -0.031358434261    -0.017666112688    0.002587895546    0.051403000158    -0.061988434851    0.029708567181    -0.957559232171
            -0.017682873345    0.002658248594    0.049016775804    0.035348596048    0.029708567181    -0.957559232171    0.046306958883    0.018280602276
0.250     0.031765992182    -0.073513866398    -0.135924033325    -0.946459352191    0.036048211956    -0.043850449430    -0.019098431775    0.005776272911
            -0.135924033325    -0.946459352191    0.042375942989    0.019812671378    -0.019102472801    0.005685489225    0.050136124863    0.034066945650
            0.036048213991    -0.043850450346    -0.019102472046    0.005685467224    0.032387162534    -0.074059779554    -0.132599983690    -0.946989795180
            -0.019098431073    0.005776254507    0.050136124036    0.034066945088    -0.132599983690    -0.946989795180    0.042825333952    0.020490678761
0.275     0.007959386278    -0.079324204889    -0.294095124802    -0.907800658817    0.018613185902    -0.052044990479    -0.020157694816    0.009609549753
            -0.294095124802    -0.907800658817    0.038586143883    0.024576636361    -0.020193243931    0.009504582754    0.050075288600    0.034082913961
            0.018613192026    -0.052044990413    -0.020193244987    0.009504561725    0.008594390667    -0.080135691165    -0.290584883626    -0.908992136185
            -0.020157698432    0.009609521253    0.050075290980    0.034082910465    -0.290584883626    -0.908992136185    0.039223838507    0.025188852133
0.300     -0.018471159083    -0.077454412850    -0.443118942400    -0.842673109003    -0.002238804036    -0.054196759536    -0.020557033401    0.014268177079
            -0.443118942400    -0.842673109003    0.035752788873    0.032018947479    -0.020632497871    0.014160385692    0.049569089280    0.035875842639
            -0.002238802226    -0.054196761613    -0.020632507751    0.014160355392    -0.017898098094    -0.078560926553    -0.439563058449    -0.844602596023
            -0.020557040127    0.014268149850    0.049569087034    0.035875842332    -0.439563058449    -0.844602596023    0.036554976908    0.032502092848
0.325     -0.044879743465    -0.067025983201    -0.578432578014    -0.753002065735    -0.024333429565    -0.049160299497    -0.019864586810    0.019709214592
            -0.578432578014    -0.753002065735    0.034986736156    0.041838551723    -0.019983329909    0.019613918074    0.049507114472    0.039596784348
            -0.024333430452    -0.049160301290    -0.019983343312    0.019613890143    -0.044459088324    -0.068432356805    -0.574993750036    -0.755719535146
            -0.019864598331    0.019709191622    0.049507111528    0.039596784827    -0.574993750036    -0.755719535146    0.035905518408    0.042138688365
0.350     -0.068363118290    -0.048123182165    -0.695843663834    -0.641603891963    -0.045144085215    -0.036607187231    -0.017611509098    0.025659063725
            -0.695843663834    -0.641603891963    0.037268022789    0.053316716944    -0.017770395131    0.025593155202    0.050801610788    0.045030114096
            -0.045144085992    -0.036607187861    -0.017770409006    0.025593137046    -0.068191739061    -0.049802697738    -0.692701546633    -0.645118152514
            -0.017611518572    0.025659048732    0.050801608468    0.045030115206    -0.692701546633    -0.645118152514    0.038236596090    0.053398945086
0.375     -0.086120146012    -0.021850083714    -0.791744796812    -0.512115063789    -0.062103792816    -0.017123938030    -0.013421087015    0.031586121617
            -0.791744796812    -0.512115063789    0.043281228463    0.065368015368    -0.013609808947    0.031564963193    0.054228749558    0.051595684186
            -0.062103794744    -0.017123938561    -0.013609831741    0.031564940297    -0.086289224336    -0.023741587339    -0.789083894185    -0.516393896654
            -0.013421104765    0.031586102124    0.054228746132    0.051595686336    -0.789083894185    -0.516393896654    0.044221173745    0.065222721814
0.400     -0.095838773707    0.009740676630    -0.863346953250    -0.368849196614    -0.072965966464    0.007812766794    -0.007147760159    0.036755803573
            -0.863346953250    -0.368849196614    0.053288943715    0.076682811038    -0.007350008610    0.036789983522    0.060299996515    0.058436637372
            -0.072965967458    0.007812766901    -0.007350026110    0.036789970848    -0.096420587690    0.007731377416    -0.861346710439    -0.373814405204
            -0.007147783338    0.036755785822    0.060299994475    0.058436639477    -0.861346710439    -0.373814405204    0.054120573666    0.076329854251
0.425     -0.096011805819    0.043884990444    -0.908831380353    -0.216565301143    -0.076105479073    0.036013709919    0.001024411849    0.040350206200
            -0.908831380353    -0.216565301143    0.067058751990    0.085893615982    0.000828491455    0.040442979892    0.069161434797    0.064538007383
            -0.076105470813    0.036013657238    0.000828463578    0.040442963460    -0.097048102628    0.041877948562    -0.907653226383    -0.222095454966
            0.001024388254    0.040350192795    0.069161431418    0.064538011004    -0.907653226383    -0.222095454966    0.067712662793    0.085381311550
0.450     -0.086152055284    0.077451563329    -0.927425675017    -0.060181498781    -0.070743699457    0.064863918702    0.010555423057    0.041637756712
            -0.927425675017    -0.060181498781    0.083881008333    0.091776995907    0.010385624396    0.041784126771    0.080574947439    0.068891398649
            -0.070743700195    0.064863919378    0.010385598659    0.041784116682    -0.087644516277    0.075581258963    -0.927200783778    -0.066119866028
            0.010555396598    0.041637746913    0.080574945034    0.068891401462    -0.927200783778    -0.066119866028    0.084307725133    0.091176548600
0.475     -0.066830696558    0.107330253478    -0.919356612494    0.095498643809    -0.057011029210    0.091656933148    0.020610136741    0.040132668176
            -0.919356612494    0.095498643809    0.102650435728    0.093413293832    0.020482531836    0.040319943745    0.093947607500    0.070631324574
            -0.057011029210    0.091656933148    0.020482531836    0.040319943745    -0.068737312157    0.105731123110    -0.920183099380    0.089334317832
            0.020610136741    0.040132668176    0.093947607500    0.070631324574    -0.920183099380    0.089334317832    0.102827858344    0.092811250865
0.500     -0.039577514525    0.130796504592    -0.885731751405    0.246018097667    -0.035892082252    0.113919994711    0.030193434720    0.035713730322
            -0.885731751405    0.246018097667    0.122016623899    0.090310643491    0.030117285963    0.035924455115    0.108430757567    0.069154992186
            -0.035892085257    0.113920004249    0.030117285336    0.035924455640    -0.041813504786    0.129588473935    -0.887663621429    0.239826510638
            0.030193342266    0.035713723370    0.108430752739    0.069154999755    -0.887663621429    0.239826510638    0.121953602266    0.089796558037
0.525     -0.006655080927    0.145777238857    -0.828340945799    0.387415730053    -0.009050245361    0.129650016770    0.038320526153    0.028661332129
            -0.828340945799    0.387415730053    0.140545109362    0.082443237072    0.038297027390    0.028876294729    0.123026653732    0.064173700905
            -0.009050250583    0.129650026430    0.038296982098    0.028876298322    -0.009099321097    0.145052414281    -0.831394225096    0.381401740841
            0.038320480917    0.028661335843    0.123026650371    0.064173707347    -0.831394225096    0.381401740841    0.140281052431    0.082100413695
0.550     0.029216623585    0.151012267134    -0.749470383507    0.516299222589    0.021387067024    0.137471393503    0.044188846150    0.019616917221
            -0.749470383507    0.516299222589    0.156888082767    0.070240380839    0.044211126511    0.019819202532    0.136715313188    0.055731575281
            0.021387067024    0.137471393503    0.044211125252    0.019819202894    0.026711689685    0.150824432250    -0.753621910221    0.510663286478
            0.044188845808    0.019616917992    0.136715313188    0.055731575281    -0.753621910221    0.510663286478    0.156488229081    0.070135037689
0.575     0.065139511674    0.146091252256    -0.651724076870    0.629826616675    0.053050809898    0.136678737083    0.047305208131    0.009472961672
            -0.651724076870    0.629826616675    0.169906530551    0.054513086454    0.047360205194    0.009651118221    0.148543154376    0.044172487815
            0.053050809898    0.136678737083    0.047360205194    0.009651118221    0.062735615932    0.146450019964    -0.656920552685    0.624765283834
            0.047305208131    0.009472961672    0.148543154376    0.044172487815    -0.656920552685    0.624765283834    0.169456603805    0.054687903159
0.600     0.098281859580    0.131419947462    -0.537898565482    0.725664471004    0.083522943502    0.127236497257    0.047558114828    -0.000776468411
            -0.537898565482    0.725664471004    0.178774386447    0.036360570423    0.047629992283    -0.000626239010    0.157710620323    0.030100320572
            0.083522941281    0.127236498715    0.047629912866    -0.000626194215    0.096142078581    0.132287050877    -0.544056226126    0.721358383431
            0.047558114831    -0.000776468237    0.157710619273    0.030100326077    -0.544056226126    0.721358383431    0.178370254018    0.036829116454
0.625     0.126065151701    0.108125039458    -0.410914966015    0.801901486599    0.110480882382    0.109721069026    0.045218486017    -0.010195457377
            -0.410914970575    0.801901495498    0.183022447957    0.017061272466    0.045292117679    -0.010068483164    0.163613622233    0.014316864703
            0.110480882382    0.109721069026    0.045292082225    -0.010068453714    0.124341016627    0.109415207302    -0.417921229121    0.798519339989
            0.045218486017    -0.010195457377    0.163613631995    0.014316867859    -0.417921229121    0.798519339989    0.182761590201    0.017804882566
0.650     0.146311965432    0.077947336907    -0.273781747203    0.856989994358    0.131823040080    0.085273132489    0.040882783244    -0.018053060998
            -0.273781747203    0.856989994358    0.182573373688    -0.002035484632    0.040947837249    -0.017937766246    0.165898700789    -0.002230158274
            0.131823040080    0.085273132489    0.040947838478    -0.017937765933    0.145130296238    0.079532122716    -0.281505413753    0.854686517861
            0.040882783244    -0.018053060998    0.165898700788    -0.002230158361    -0.281505413753    0.854686517861    0.182545512079    -0.001065215354
0.675     0.157347793539    0.043127478524    -0.129627893058    0.889685893009    0.145757983086    0.055537364387    0.035360004070    -0.023932649762
            -0.129627893058    0.889685893009    0.177731002476    -0.019608383696    0.035413865739    -0.023812955306    0.164478473362    -0.018511598970
            0.145757992431    0.055537367947    0.035413814319    -0.023812881239    0.156799761178    0.044840780930    -0.137911750504    0.888602337196
            0.035360004070    -0.023932649762    0.164478473685    -0.018511596099    -0.137911750504    0.888602337196    0.178008692104    -0.018488197225
0.700     0.158101703109    0.006292868427    0.018275178482    0.899047677004    0.150922679286    0.022611253734    0.029527346369    -0.027795241668
            0.018275178482    0.899047677004    0.169176198402    -0.034465661648    0.029576759524    -0.027654618441    0.159575447338    -0.033481951343
            0.150922679286    0.022611253734    0.029576759524    -0.027654618441    0.158231075469    0.007940719614    0.009611077112    0.899307523727
            0.029527346369    -0.027795241668    0.159575447338    -0.033481951343    0.009611077112    0.899307523727    0.169805844612    -0.033294118743
0.725     0.148190197619    -0.029661731292    0.166445637529    0.884455689169    0.146486517089    -0.011022495427    0.024164176853    -0.029976115201
            0.166445637529    0.884455689169    0.157922783730    -0.045637627181    0.024225605263    -0.029802173355    0.151719954524    -0.046165639115
            0.146486517089    -0.011022495427    0.024225591144    -0.029802129417    0.148984910347    -0.028289842059    0.157613789010    0.886164802248
            0.024164177377    -0.029976114779    0.151719964091    -0.046165642026    0.157613789010    0.886164802248    0.158917885088    -0.044528372674
0.750     0.128014460349    -0.061728237357    0.311173177308    0.845697744054    0.132300780969    -0.042609912716    0.019795002602    -0.031117610711
            0.311173177308    0.845697744054    0.145272293734    -0.052481132963    0.019891830820    -0.030906849242    0.141764167326    -0.055754591845
            0.132300780969    -0.042609912716    0.019891815567    -0.030906759165    0.129399281126    -0.060842539189    0.302410003732    0.848934362027
            0.019795002059    -0.031117611056    0.141764176632    -0.055754595505    0.302410003732    0.848934362027    0.146608945626    -0.051550079414
0.775     0.098833264176    -0.086980345515    0.448494570419    0.783092625004    0.109020690433    -0.069290295496    0.016564439443    -0.032028542841
            0.448494570419    0.783092625004    0.132719285380    -0.054770899724    0.016722839792    -0.031789478991    0.130825717270    -0.061726288508
            0.109020694112    -0.069290252421    0.016722840812    -0.031789479584    0.100667526906    -0.086771977323    0.440067764204    0.787899683900
            0.016564440461    -0.032028543440    0.130825717270    -0.061726288508    0.440067764204    0.787899683900    0.134334102902    -0.054124974498
