# GHz S RI R 45
0.000     0.021755964000    0.000000000000    0.000006732410    -0.000000000000    0.000606240040    0.000000000000    0.000000759081    -0.000000000000
            0.000006732453    -0.000000000000    0.020788250000    0.000000000000    0.000003501735    -0.000000000000    0.000562849780    -0.000000000000
            0.000606236510    0.000000000000    0.000003501678    -0.000000000000    0.021709563000    0.000000000000    0.000003222568    -0.000000000000
            0.000000759088    -0.000000000000    0.000562768410    -0.000000000000    0.000003222531    -0.000000000000    0.020742291000    0.000000000000
0.025     0.027686092176    0.010332329419    -0.000001625184    -0.000002183611    0.003159645671    0.010770777771    -0.000000261893    0.000001843402
            -0.000001625144    -0.000002183628    0.026282118842    0.009463371530    0.000001646191    0.000001223970    0.002876211249    0.009783456833
            0.003159621213    0.010770826632    0.000001646137    0.000001223988    0.027623580389    0.010324017812    0.000004543872    0.000002332336
            -0.000000262107    0.000001843478    0.002876107339    0.009783524904    0.000004543759    0.000002332355    0.026211801489    0.009415062025
0.050     0.036016556717    0.014841193489    -0.000001224549    0.000003948665    0.010010887833    0.019416964867    0.000001564464    0.000004899065
            -0.000001224512    0.000003948640    0.034077944785    0.013603002417    0.000003294399    0.000004598181    0.009178928590    0.017748277044
            0.010010874196    0.019416977523    0.000003294349    0.000004598211    0.035959053639    0.014863155600    0.000006888073    0.000003408038
            0.000001564419    0.000004899081    0.009178844782    0.017748323764    0.000006888042    0.000003408060    0.033991740201    0.013531068815
0.075     0.046088707522    0.015267249309    0.000002933108    0.000006986937    0.020003540002    0.024410764489    0.000005208721    0.000006179434
            0.000002933136    0.000006986903    0.043679123727    0.014119204856    0.000007263030    0.000005749906    0.018521090317    0.022497485334
            0.020003531065    0.024410769226    0.000007262992    0.000005749946    0.046065732773    0.015313267499    0.000009888499    0.000003206211
            0.000005208697    0.000006179437    0.018521024108    0.022497538546    0.000009888463    0.000003206219    0.043584301684    0.014036796061
0.100     0.056506182332    0.010813711521    0.000008076354    0.000006905954    0.031468403215    0.024748120788    0.000009344596    0.000005421306
            0.000008076365    0.000006905923    0.053959088717    0.010204103246    0.000011626475    0.000004486456    0.029496994734    0.023076253297
            0.031468402705    0.024748123053    0.000011626444    0.000004486509    0.056541524016    0.010873382227    0.000013050494    0.000001489710
            0.000009344596    0.000005421345    0.029496945929    0.023076322173    0.000013050505    0.000001489738    0.053870547054    0.010125027050
0.125     0.065228273395    0.001429111707    0.000012625129    0.000004169873    0.042485517995    0.020102604626    0.000013052890    0.000002718891
            0.000012625132    0.000004169835    0.063152098464    0.001654057671    0.000015256296    0.000001042751    0.040463912119    0.019071758765
            0.042485518750    0.020102607706    0.000015256281    0.000001042805    0.065344215140    0.001483332093    0.000015732450    -0.000001784453
            0.000013052885    0.000002718915    0.040463883023    0.019071832225    0.000015732449    -0.000001784440    0.063094463079    0.001586258541
0.150     0.070378117753    -0.012216728021    0.000015653246    -0.000000543005    0.051141937235    0.010862271186    0.000015621365    -0.000001579524
            0.000015653235    -0.000000543042    0.069580108492    -0.011140140191    0.000017352315    -0.000004018191    0.049741002970    0.010660181897
            0.051141937645    0.010862274072    0.000017352316    -0.000004018131    0.070595312887    -0.012192739452    0.000017328146    -0.000006360978
            0.000015621338    -0.000001579478    0.049740992603    0.010660254133    0.000017328123    -0.000006360931    0.069583838668    -0.011197369893
0.175     0.070270075956    -0.028670728142    0.000016579247    -0.000006351912    0.055754740563    -0.001926009871    0.000016529032    -0.000006923503
            0.000016579231    -0.000006351944    0.071642380921    -0.027107473555    0.000017413481    -0.000009943178    0.055779946974    -0.001428827858
            0.055754742632    -0.001926007896    0.000017413494    -0.000009943125    0.070602140773    -0.028714538970    0.000017368132    -0.000011826471
            0.000016529033    -0.000006923471    0.055779954980    -0.001428749642    0.000017368135    -0.000011826454    0.071741257999    -0.027169233550
0.200     0.063862279107    -0.045924520058    0.000015224876    -0.000012385909    0.055083279573    -0.016662569314    0.000015494997    -0.000012672224
            0.000015224852    -0.000012385929    0.068215632033    -0.044662298575    0.000015274675    -0.000015933932    0.057341872452    -0.015974989523
            0.055083282069    -0.016662567970    0.000015274705    -0.000015933880    0.064311451118    -0.046082851419    0.000015551911    -0.000017610270
            0.000015495026    -0.000012672202    0.057341900537    -0.015974911069    0.000015551943    -0.000017610264    0.068440998814    -0.044758859406
0.225     0.050850814273    -0.061662734826    0.000011707275    -0.000017800308    0.048487336980    -0.031358434021    0.000012457504    -0.000018135717
            0.000011707236    -0.000017800329    0.058738978743    -0.061896248333    0.000011037768    -0.000021210939    0.053631576393    -0.031382944438
            0.048487339206    -0.031358434261    0.000011037811    -0.000021210899    0.051403000158    -0.061988434851    0.000011764013    -0.000023089166
            0.000012457529    -0.000018135696    0.053631618419    -0.031382878557    0.000011764035    -0.000023089161    0.059112728765    -0.062073211277
0.250     0.031765992182    -0.073513866398    0.000006381278    -0.000021920519    0.036048211956    -0.043850449430    0.000007566446    -0.000022660596
            0.000006381247    -0.000021920523    0.043311227956    -0.076760524033    0.000005031677    -0.000025117513    0.044408185994    -0.045838877557
            0.036048213991    -0.043850450346    0.000005031732    -0.000025117484    0.032387162534    -0.074059779554    0.000006095825    -0.000027600975
            0.000007566480    -0.000022660579    0.044408239493    -0.045838827121    0.000006095851    -0.000027600972    0.043839909104    -0.077075199922
0.275     0.007959386278    -0.079324204889    -0.000000215245    -0.000024218768    0.018613185902    -0.052044990479    0.000001169886    -0.000025657210
            -0.000000215279    -0.000024218763    0.022700373183    -0.087272595541    -0.000002234934    -0.000027126793    0.030036152312    -0.057486841757
            0.018613192026    -0.052044990413    -0.000002234883    -0.000027126780    0.008594390667    -0.080135691165    -0.000001162660    -0.000030528388
            0.000001169917    -0.000025657207    0.030036224706    -0.057486799419    -0.000001162636    -0.000030528396    0.023369979444    -0.087788760588
0.300     -0.018471159083    -0.077454412850    -0.000007446549    -0.000024382071    -0.002238804036    -0.054196759536    -0.000006217948    -0.000026665747
            -0.000007446583    -0.000024382059    -0.001679099868    -0.091741727452    -0.000010133940    -0.000026899752    0.011487959438    -0.064634624613
            -0.002238802226    -0.054196761613    -0.000010133845    -0.000026899743    -0.017898098094    -0.078560926553    -0.000009512033    -0.000031338558
            -0.000006217916    -0.000026665756    0.011488048110    -0.064634599712    -0.000009512016    -0.000031338583    -0.000906514151    -0.092521658158
0.325     -0.044879743465    -0.067025983201    -0.000014602517    -0.000022302171    -0.024333429565    -0.049160299497    -0.000013940573    -0.000025398787
            -0.000014602538    -0.000022302153    -0.027880643244    -0.088961473125    -0.000017948739    -0.000024296551    -0.009722048541    -0.065941835015
            -0.024333430452    -0.049160301290    -0.000017948691    -0.000024296566    -0.044459088324    -0.068432356805    -0.000018286553    -0.000029668043
            -0.000013940544    -0.000025398797    -0.009721956291    -0.065941831432    -0.000018286555    -0.000029668059    -0.027067070476    -0.090057266876
0.350     -0.068363118290    -0.048123182165    -0.000020992818    -0.000018094475    -0.045144085215    -0.036607187231    -0.000021267259    -0.000021789482
            -0.000020992840    -0.000018094443    -0.053596919748    -0.078391560283    -0.000024952732    -0.000019402786    -0.031671588851    -0.060603053331
            -0.045144085992    -0.036607187861    -0.000024952737    -0.000019402796    -0.068191739061    -0.049802697738    -0.000026690712    -0.000025376516
            -0.000021267228    -0.000021789504    -0.031671502768    -0.060603068982    -0.000026690628    -0.000025376569    -0.052824715963    -0.079835957922
0.375     -0.086120146012    -0.021850083714    -0.000025988151    -0.000012092254    -0.062103792816    -0.017123938030    -0.000027463962    -0.000016020485
            -0.000025988141    -0.000012092238    -0.076387935729    -0.060250247609    -0.000030466489    -0.000012535383    -0.052216256156    -0.048462762768
            -0.062103794744    -0.017123938561    -0.000030466456    -0.000012535413    -0.086289224336    -0.023741587339    -0.000033902336    -0.000018597234
            -0.000027463917    -0.000016020530    -0.052216217587    -0.048462777864    -0.000033902314    -0.000018597275    -0.075753439380    -0.062048680393
0.400     -0.095838773707    0.009740676630    -0.000029108982    -0.000004803595    -0.072965966464    0.007812766794    -0.000031889336    -0.000008511003
            -0.000029108967    -0.000004803582    -0.093948907367    -0.035545744315    -0.000033944601    -0.000004211287    -0.069228600058    -0.030075350691
            -0.072965967458    0.007812766901    -0.000033944678    -0.000004211351    -0.096420587690    0.007731377416    -0.000039159349    -0.000009741391
            -0.000031889282    -0.000008511072    -0.069228529124    -0.030075406053    -0.000039159300    -0.000009741473    -0.093552487942    -0.037671696790
0.425     -0.096011805819    0.043884990444    -0.000030071393    0.000003135364    -0.076105479073    0.036013709919    -0.000034080498    0.000000125471
            -0.000030071394    0.000003135412    -0.104362611841    -0.005995379256    -0.000035040511    0.000004900621    -0.080826816377    -0.006664432626
            -0.076105470813    0.036013657238    -0.000035040498    0.000004900581    -0.097048102628    0.041877948562    -0.000041878903    0.000000544504
            -0.000034080505    0.000000125471    -0.080826759567    -0.006664513159    -0.000041878923    0.000000544497    -0.104297650433    -0.008388328537
0.450     -0.086152055284    0.077451563329    -0.000028816540    0.000011056429    -0.070743699457    0.064863918702    -0.000033806987    0.000009169057
            -0.000028816514    0.000011056430    -0.106328914641    0.026135639817    -0.000033642167    0.000014071133    -0.085599719506    0.019993539898
            -0.070743700195    0.064863919378    -0.000033642161    0.000014071048    -0.087644516277    0.075581258963    -0.000041718236    0.000011456476
            -0.000033806976    0.000009168972    -0.085599678932    0.019993467401    -0.000041718258    0.000011456474    -0.106669543039    0.023566768215
0.475     -0.066830696558    0.107330253478    -0.000025504326    0.000018334507    -0.057011029210    0.091656933148    -0.000031090770    0.000017890176
            -0.000025504303    0.000018334545    -0.099302475755    0.058266916616    -0.000029878969    0.000022598172    -0.082748347924    0.047757066689
            -0.057011029210    0.091656933148    -0.000029878977    0.000022598088    -0.068737312157    0.105731123110    -0.000038617879    0.000022147594
            -0.000031090779    0.000017890181    -0.082748330165    0.047756979428    -0.000038617899    0.000022147606    -0.100094060646    0.055636999969
0.500     -0.039577514525    0.130796504592    -0.000020459151    0.000024464340    -0.035892082252    0.113919994711    -0.000026167948    0.000025638927
            -0.000020459131    0.000024464325    -0.083553985274    0.087769065000    -0.000024071133    0.000029887710    -0.072171251854    0.074346426038
            -0.035892085257    0.113920004249    -0.000024071144    0.000029887723    -0.041813504786    0.129588473935    -0.000032772774    0.000031819498
            -0.000026167955    0.000025638934    -0.072171261965    0.074346332602    -0.000032772795    0.000031819508    -0.084805604747    0.085206900166
0.525     -0.006655080927    0.145777238857    -0.000014111617    0.000029098697    -0.009050245361    0.129650016770    -0.000019433142    0.000031910203
            -0.000014111601    0.000029098679    -0.060122998590    0.112218446176    -0.000016672768    0.000035507798    -0.054445547906    0.097562810812
            -0.009050250583    0.129650026430    -0.000016672792    0.000035507769    -0.009099321097    0.145052414281    -0.000024582644    0.000039811660
            -0.000019433194    0.000031910137    -0.054445581906    0.097562711676    -0.000024582661    0.000039811687    -0.061804603469    0.109854584047
0.550     0.029216623585    0.151012267134    -0.000006917706    0.000032048512    0.021387067024    0.137471393503    -0.000011359259    0.000036358823
            -0.000006917700    0.000032048488    -0.030702405777    0.129619682110    -0.000008188360    0.000039193245    -0.030754759738    0.115493618696
            0.021387067024    0.137471393503    -0.000008188354    0.000039193255    0.026711689685    0.150824432250    -0.000014574026    0.000045625601
            -0.000011359262    0.000036358833    -0.030754802197    0.115493534950    -0.000014574090    0.000045625554    -0.032744479693    0.127574403070
0.575     0.065139511674    0.146091252256    0.000000691011    0.000033265225    0.053050809898    0.136678737083    -0.000002434930    0.000038796966
            0.000000691052    0.000033265224    0.002538834819    0.138555521666    0.000000884958    0.000040837721    -0.002754144431    0.126648657263
            0.053050809898    0.136678737083    0.000000884923    0.000040837708    0.062735615932    0.146450019964    -0.000003330700    0.000048939888
            -0.000002434928    0.000038796978    -0.002754174725    0.126648626597    -0.000003330725    0.000048939950    0.000240023377    0.136927489629
0.600     0.098281859580    0.131419947462    0.000008345658    0.000032787095    0.083522943502    0.127236497257    0.000006879014    0.000039148723
            0.000008345651    0.000032787066    0.037152349661    0.138279832543    0.000010100009    0.000040440368    0.027578876855    0.130065056325
            0.083522941281    0.127236498715    0.000010099933    0.000040440348    0.096142078581    0.132287050877    0.000008554769    0.000049574038
            0.000006879019    0.000039148735    0.027578801044    0.130065000843    0.000008554692    0.000049574035    0.034728046109    0.137136437191
0.625     0.126065151701    0.108125039458    0.000015747184    0.000030705295    0.110480882382    0.109721069026    0.000016168890    0.000037418288
            0.000015747216    0.000030705277    0.070606169893    0.128735587708    0.000019075556    0.000038073679    0.058099445393    0.125336380612
            0.110480882382    0.109721069026    0.000019075566    0.000038073690    0.124341016627    0.109415207302    0.000020512539    0.000047463868
            0.000016168854    0.000037418294    0.058099363283    0.125336352541    0.000020512510    0.000047463885    0.068205855809    0.128106502853
0.650     0.146311965432    0.077947336907    0.000022648652    0.000027114520    0.131823040080    0.085273132489    0.000025055240    0.000033644875
            0.000022648632    0.000027114503    0.100467446561    0.110534034256    0.000027480520    0.000033831243    0.086644713980    0.112629451851
            0.131823040080    0.085273132489    0.000027480440    0.000033831259    0.145130296238    0.079532122716    0.000031990341    0.000042622589
            0.000025055250    0.000033644881    0.086644626286    0.112629443613    0.000031990360    0.000042622609    0.098247929131    0.110406833746
0.675     0.157347793539    0.043127478524    0.000028833454    0.000022100888    0.145757983086    0.055537364387    0.000033176626    0.000027890081
            0.000028833428    0.000022100874    0.124552754136    0.084887839965    0.000035016593    0.000027815257    0.111156375294    0.092649081185
            0.145757992431    0.055537367947    0.000035016569    0.000027815274    0.156799761178    0.044840780930    0.000042449235    0.000035128841
            0.000033176599    0.000027890099    0.111156332845    0.092649085257    0.000042449219    0.000035128867    0.122666642285    0.085206259274
0.700     0.158101703109    0.006292868427    0.000034069141    0.000015733323    0.150922679286    0.022611253734    0.000040148771    0.000020233807
            0.000034069120    0.000015733319    0.141062895302    0.053527009707    0.000041371981    0.000020125405    0.129810225955    0.066605285494
            0.150922679286    0.022611253734    0.000041371991    0.000020125406    0.158231075469    0.007940719614    0.000051331529    0.000025124884
            0.000040148791    0.000020233811    0.129810134613    0.066605310179    0.000051331563    0.000025124888    0.139647194905    0.054192844958
0.725     0.148190197619    -0.029661731292    0.000038087585    0.000008087259    0.146486517089    -0.011022495427    0.000045548824    0.000010801412
            0.000038087557    0.000008087263    0.148684076551    0.018594548999    0.000046203962    0.000010883645    0.141110703725    0.036148863380
            0.146486517089    -0.011022495427    0.000046203915    0.000010883707    0.148984910347    -0.028289842059    0.000058055881    0.000012841371
            0.000045548835    0.000010801409    0.141110629198    0.036148912524    0.000058055907    0.000012841369    0.147848921790    0.019470698329
0.750     0.128014460349    -0.061728237357    0.000040550838    -0.000000714536    0.132300780969    -0.042609912716    0.000048892991    -0.000000189962
            0.000040550852    -0.000000714600    0.146682264239    -0.017475429254    0.000049105309    0.000000276230    0.144010377901    0.003298134980
            0.132300780969    -0.042609912716    0.000049105319    0.000000276221    0.129399281126    -0.060842539189    0.000062005174    -0.000001358012
            0.000048893001    -0.000000189971    0.144010316408    0.003298199459    0.000062005199    -0.000001358024    0.146499998464    -0.016556986057
0.775     0.098833264176    -0.086980345515    0.000041069467    -0.000010450326    0.109020690433    -0.069290295496    0.000049666167    -0.000012376563
            0.000041069447    -0.000010450305    0.134966677392    -0.052094324566    0.000049627749    -0.000011393932    0.137989569995    -0.029664209401
            0.109020694112    -0.069290252421    0.000049627759    -0.000011393944    0.100667526906    -0.086771977323    0.000062566130    -0.000016927129
            0.000049666176    -0.000012376574    0.137989525314    -0.029664131765    0.000062566149    -0.000016927148    0.135462652947    -0.051322900328
