# GHz S RI R 45
0.000     0.021755964000    0.000000000000    0.000015700531    -0.000000000000    0.000606240040    0.000000000000    0.000000493409    -0.000000000000
            0.000015700435    -0.000000000000    0.021160655000    0.000000000000    0.000008514453    -0.000000000000    0.000608151500    -0.000000000000
            0.000606236510    0.000000000000    0.000008514163    -0.000000000000    0.021709563000    0.000000000000    -0.000001374242    0.000000000000
            0.000000493141    -0.000000000000    0.000608148480    -0.000000000000    -0.000001374204    0.000000000000    0.021088282000    0.000000000000
0.025     0.027686092176    0.010332329419    -0.000003055601    -0.000004572959    0.003159645671    0.010770777771    0.000000497880    0.000006142452
            -0.000003055643    -0.000004572947    0.026696468643    0.009648966826    0.000000064842    0.000000856265    0.002952300940    0.010046538876
            0.003159621213    0.010770826632    0.000000064705    0.000000856573    0.027623580389    0.010324017812    0.000000417922    0.000008228249
            0.000000497616    0.000006142526    0.002952275570    0.010046588022    0.000000417952    0.000008228241    0.026633706061    0.009622566784
0.050     0.036016556717    0.014841193489    -0.000001653599    0.000009867854    0.010010887833    0.019416964867    0.000006278843    0.000012389596
            -0.000001653641    0.000009867883    0.034602501032    0.013873563377    0.000005247682    0.000011413889    0.009380896047    0.018229334916
            0.010010874196    0.019416977523    0.000005247436    0.000011414048    0.035959053639    0.014863155600    0.000007588463    0.000014737057
            0.000006278619    0.000012389743    0.009380881969    0.018229346659    0.000007588476    0.000014737051    0.034532513123    0.013841975826
0.075     0.046088707522    0.015267249309    0.000008917799    0.000016388985    0.020003540002    0.024410764489    0.000015305626    0.000014537226
            0.000008917760    0.000016389030    0.044301332158    0.014362995852    0.000015393500    0.000014977868    0.018886740638    0.023081477590
            0.020003531065    0.024410769226    0.000015393315    0.000014978071    0.046065732773    0.015313267499    0.000017905212    0.000016858135
            0.000015305457    0.000014537429    0.018886731718    0.023081482305    0.000017905225    0.000016858125    0.044235526218    0.014334957456
0.100     0.056506182332    0.010813711521    0.000021483279    0.000015017935    0.031468403215    0.024748120788    0.000025253695    0.000011853242
            0.000021483252    0.000015017983    0.054594436005    0.010308267180    0.000026752340    0.000012111062    0.029988665499    0.023632973193
            0.031468402705    0.024748123053    0.000026752222    0.000012111318    0.056541524016    0.010873382227    0.000029179723    0.000013684519
            0.000025253587    0.000011853485    0.029988664635    0.023632975906    0.000029179732    0.000013684504    0.054549350277    0.010290988948
0.125     0.065228273395    0.001429111707    0.000031979386    0.000007095923    0.042485517995    0.020102604626    0.000033954106    0.000004533632
            0.000031979371    0.000007095971    0.063645713072    0.001540801463    0.000036220525    0.000003570863    0.040968734520    0.019491299792
            0.042485518750    0.020102607706    0.000036220481    0.000003571144    0.065344215140    0.001483332093    0.000039078395    0.000005338837
            0.000033954070    0.000004533891    0.040968734402    0.019491302367    0.000039078402    0.000005338822    0.063644681204    0.001536646081
0.150     0.070378117753    -0.012216728021    0.000038137955    -0.000005410246    0.051141937235    0.010862271186    0.000039704871    -0.000006586434
            0.000038137952    -0.000005410196    0.069718555257    -0.011477296840    0.000041759035    -0.000009156036    0.050083518474    0.010885959462
            0.051141937645    0.010862274072    0.000041759066    -0.000009155766    0.070595312887    -0.012192739452    0.000045692824    -0.000007303660
            0.000039704909    -0.000006586193    0.050083518881    0.010885962297    0.000045692827    -0.000007303677    0.069788525504    -0.011477371522
0.175     0.070270075956    -0.028670728142    0.000038675563    -0.000020030186    0.055754740563    -0.001926009871    0.000041250798    -0.000020140313
            0.000038675576    -0.000020030138    0.071188317931    -0.027578148932    0.000042094359    -0.000024061694    0.055745116451    -0.001372498134
            0.055754742632    -0.001926007896    0.000042094465    -0.000024061439    0.070602140773    -0.028714538970    0.000047587307    -0.000022750345
            0.000041250949    -0.000020140088    0.055745117508    -0.001372495824    0.000047587308    -0.000022750360    0.071357242212    -0.027594622606
0.200     0.063862279107    -0.045924520058    0.000033437969    -0.000034450303    0.055083279573    -0.016662569314    0.000037913987    -0.000034549200
            0.000033437984    -0.000034450268    0.066947975057    -0.045066563442    0.000036851046    -0.000039099372    0.056708811707    -0.015965302718
            0.055083282069    -0.016662567970    0.000036851204    -0.000039099181    0.064311451118    -0.046082851419    0.000043962560    -0.000039240003
            0.000037914151    -0.000034549006    0.056708814189    -0.015965301280    0.000043962553    -0.000039240014    0.067239266863    -0.045133157651
0.225     0.050850814273    -0.061662734826    0.000023053633    -0.000046541558    0.048487336980    -0.031358434021    0.000029555699    -0.000048095522
            0.000023053669    -0.000046541520    0.056496943800    -0.061925509421    0.000026339901    -0.000052270145    0.052213204613    -0.031192879651
            0.048487339206    -0.031358434261    0.000026340097    -0.000052270012    0.051403000158    -0.061988434851    0.000034621433    -0.000054836402
            0.000029555907    -0.000048095386    0.052213207419    -0.031192878855    0.000034621438    -0.000054836403    0.056923049270    -0.062089152018
0.250     0.031765992182    -0.073513866398    0.000008713180    -0.000054759734    0.036048211956    -0.043850449430    0.000016550437    -0.000059141510
            0.000008713183    -0.000054759730    0.040040031353    -0.076016388894    0.000011437419    -0.000061937772    0.042093656707    -0.045145599129
            0.036048213991    -0.043850450346    0.000011437646    -0.000061937703    0.032387162534    -0.074059779554    0.000019954106    -0.000067677921
            0.000016550663    -0.000059141441    0.042093660329    -0.045145599854    0.000019954034    -0.000067677975    0.040596840312    -0.076332781278
0.275     0.007959386278    -0.079324204889    -0.000008003706    -0.000058028038    0.018613185902    -0.052044990479    -0.000000219429    -0.000066190352
            -0.000008003660    -0.000058028020    0.018491608694    -0.085301791244    -0.000006528955    -0.000066800858    0.026833401422    -0.055896619702
            0.018613192026    -0.052044990413    -0.000006528721    -0.000066800855    0.008594390667    -0.080135691165    0.000000926984    -0.000076050542
            -0.000000219199    -0.000066190355    0.026833404239    -0.055896620568    0.000000926993    -0.000076050548    0.019154147560    -0.085829853728
0.300     -0.018471159083    -0.077454412850    -0.000025398232    -0.000055884821    -0.002238804036    -0.054196759536    -0.000019443359    -0.000068058752
            -0.000025398224    -0.000055884830    -0.006557437713    -0.088089346875    -0.000025960419    -0.000066057950    0.007558370206    -0.061725595258
            -0.002238802226    -0.054196761613    -0.000025960191    -0.000066058012    -0.017898098094    -0.078560926553    -0.000021001334    -0.000078587865
            -0.000019443158    -0.000068058814    0.007558372725    -0.061725597972    -0.000021001425    -0.000078587876    -0.005837758379    -0.088882668134
0.325     -0.044879743465    -0.067025983201    -0.000041703171    -0.000048395069    -0.024333429565    -0.049160299497    -0.000039426931    -0.000063994426
            -0.000041703119    -0.000048395077    -0.032973577675    -0.083239429354    -0.000045048550    -0.000059409472    -0.014043774219    -0.061324141871
            -0.024333430452    -0.049160301290    -0.000045048315    -0.000059409593    -0.044459088324    -0.068432356805    -0.000043932668    -0.000074400110
            -0.000039426741    -0.000063994543    -0.014043774665    -0.061324143821    -0.000043932766    -0.000074400097    -0.032267198613    -0.084337304910
0.350     -0.068363118290    -0.048123182165    -0.000055335735    -0.000036152110    -0.045144085215    -0.036607187231    -0.000058269073    -0.000053811516
            -0.000055335651    -0.000036152138    -0.058279386341    -0.070354721781    -0.000061996170    -0.000047122340    -0.035882508437    -0.053989668068
            -0.045144085992    -0.036607187861    -0.000061996022    -0.000047122501    -0.068191739061    -0.049802697738    -0.000065724890    -0.000063229720
            -0.000058268960    -0.000053811770    -0.035882509544    -0.053989669734    -0.000065724884    -0.000063229736    -0.057674014121    -0.071773374073
0.375     -0.086120146012    -0.021850083714    -0.000064954658    -0.000020217792    -0.062103792816    -0.017123938030    -0.000074036869    -0.000037970234
            -0.000064954665    -0.000020217794    -0.079914070359    -0.049869164194    -0.000075134443    -0.000030025017    -0.055680745757    -0.039741386924
            -0.062103794744    -0.017123938561    -0.000075134303    -0.000030025234    -0.086289224336    -0.023741587339    -0.000084183006    -0.000045541661
            -0.000074036785    -0.000037970419    -0.055680746571    -0.039741387505    -0.000084183013    -0.000045541665    -0.079506418679    -0.051594694286
0.400     -0.095838773707    0.009740676630    -0.000069661787    -0.000001981859    -0.072965966464    0.007812766794    -0.000085025309    -0.000017557279
            -0.000069661803    -0.000001981860    -0.095533785809    -0.023059359883    -0.000083149827    -0.000009420925    -0.071245975453    -0.019365315243
            -0.072965967458    0.007812766901    -0.000083149784    -0.000009421096    -0.096420587690    0.007731377416    -0.000097347864    -0.000022507439
            -0.000085025282    -0.000017557474    -0.071245974003    -0.019365328202    -0.000097347872    -0.000022507440    -0.095418659938    -0.025044329503
0.425     -0.096011805819    0.043884990444    -0.000069047266    0.000016960133    -0.076105479073    0.036013709919    -0.000089966528    0.000005818915
            -0.000069047238    0.000016960050    -0.103286926729    0.008070653129    -0.000085205103    0.000013031684    -0.080723452950    0.005656428168
            -0.076105470813    0.036013657238    -0.000085205111    0.000013031487    -0.097048102628    0.041877948562    -0.000103731228    0.000004100181
            -0.000089966551    0.000005818712    -0.080723454945    0.005656428308    -0.000103731246    0.000004100218    -0.103544637264    0.005906451200
0.450     -0.086152055284    0.077451563329    -0.000063233051    0.000035040727    -0.070743699457    0.064863918702    -0.000088192298    0.000030242891
            -0.000063233083    0.000035040644    -0.102048388182    0.040995613076    -0.000081033433    0.000035541911    -0.082829457387    0.033302518182
            -0.070743700195    0.064863919378    -0.000081033436    0.000035541642    -0.087644516277    0.075581258963    -0.000102502362    0.000032142138
            -0.000088192375    0.000030242728    -0.082829459242    0.033302518928    -0.000102502378    0.000032142123    -0.102733441491    0.038760300930
0.475     -0.066830696558    0.107330253478    -0.000052806835    0.000050863860    -0.057011029210    0.091656933148    -0.000079680695    0.000053726836
            -0.000052806854    0.000050863772    -0.091542441088    0.072945570127    -0.000070926647    0.000056373211    -0.076982327518    0.061240914156
            -0.057011029210    0.091656933148    -0.000070926742    0.000056373064    -0.068737312157    0.105731123110    -0.000093552138    0.000059367015
            -0.000079680803    0.000053726706    -0.076982329866    0.061240916024    -0.000093552143    0.000059367063    -0.092674857053    0.070765206377
0.500     -0.039577514525    0.130796504592    -0.000038685956    0.000063366080    -0.035892082252    0.113919994711    -0.000064993055    0.000074444218
            -0.000038686009    0.000063365968    -0.072369655848    0.101206363133    -0.000055634646    0.000074033058    -0.063359169166    0.087089051483
            -0.035892085257    0.113920004249    -0.000055634810    0.000074032846    -0.041813504786    0.129588473935    -0.000077436197    0.000083674561
            -0.000064993181    0.000074444127    -0.063359169166    0.087089051483    -0.000077436179    0.000083674659    -0.073928928586    0.099213330381
0.525     -0.006655080927    0.145777238857    -0.000021973657    0.000071854022    -0.009050245361    0.129650016770    -0.000045143879    0.000090883199
            -0.000021973709    0.000071853924    -0.045915153553    0.123388691697    -0.000036232697    0.000087369032    -0.042837367067    0.108648159764
            -0.009050250583    0.129650026430    -0.000036232870    0.000087368932    -0.009099321097    0.145052414281    -0.000055241090    0.000103295942
            -0.000045144021    0.000090883128    -0.042837367067    0.108648159764    -0.000055241095    0.000103295951    -0.047839957103    0.121708871583
0.550     0.029216623585    0.151012267134    -0.000003790883    0.000075996239    0.021387067024    0.137471393503    -0.000021434406    0.000101925918
            -0.000003790893    0.000075996198    -0.014187120295    0.137645820052    -0.000013961505    0.000095601746    -0.016882579210    0.124105702491
            0.021387067024    0.137471393503    -0.000013961735    0.000095601708    0.026711689685    0.150824432250    -0.000028399902    0.000116890770
            -0.000021434564    0.000101925875    -0.016882583542    0.124105701902    -0.000028399872    0.000116890736    -0.016377781960    0.136385460743
0.575     0.065139511674    0.146091252256    0.000014813998    0.000075749019    0.053050809898    0.136678737083    0.000004693241    0.000106843902
            0.000014813957    0.000075748960    0.020395819858    0.142800795734    0.000009891598    0.000098293232    0.012617364314    0.132153504561
            0.053050809898    0.136678737083    0.000009891461    0.000098293277    0.062735615932    0.146450019964    0.000001468086    0.000123556969
            0.000004693070    0.000106843869    0.012617364314    0.132153504561    0.000001468075    0.000123556949    0.018069751502    0.142035990881
0.600     0.098281859580    0.131419947462    0.000032929045    0.000071256174    0.083522943502    0.127236497257    0.000031760702    0.000105250511
            0.000032929079    0.000071256204    0.055223918995    0.138407928326    0.000034069738    0.000095276857    0.043522258116    0.132065617681
            0.083522941281    0.127236498715    0.000034069596    0.000095276886    0.096142078581    0.132287050877    0.000032679114    0.000122784411
            0.000031760560    0.000105250574    0.043522255811    0.132065618440    0.000032679116    0.000122784411    0.052914706808    0.138176191872
0.625     0.126065151701    0.108125039458    0.000049766137    0.000062769332    0.110480882382    0.109721069026    0.000058295915    0.000097042355
            0.000049766107    0.000062769319    0.087698352178    0.124737456440    0.000057369828    0.000086597984    0.073598663269    0.123701558265
            0.110480882382    0.109721069026    0.000057369667    0.000086598019    0.124341016627    0.109415207302    0.000063544246    0.000114394124
            0.000058295817    0.000097042461    0.073598661110    0.123701559549    0.000063544255    0.000114394177    0.085568858187    0.125032416434
0.650     0.146311965432    0.077947336907    0.000064620871    0.000050578621    0.131823040080    0.085273132489    0.000082844318    0.000082354602
            0.000064620808    0.000050578676    0.115409559843    0.102726112063    0.000078628159    0.000072457189    0.100666477219    0.107499729676
            0.131823040080    0.085273132489    0.000078628084    0.000072457315    0.145130296238    0.079532122716    0.000092384019    0.000098485579
            0.000082844277    0.000082354729    0.100666482178    0.107499738732    0.000092384100    0.000098485558    0.113620660199    0.103495157086
0.675     0.157347793539    0.043127478524    0.000076810021    0.000035012670    0.145757983086    0.055537364387    0.000103944410    0.000061549098
            0.000076809982    0.000035012696    0.136275140435    0.073890562597    0.000096689153    0.000053209640    0.122711724101    0.084429305604
            0.145757992431    0.055537367947    0.000096689337    0.000053210154    0.156799761178    0.044840780930    0.000117510441    0.000075427721
            0.000103944390    0.000061549229    0.122711732607    0.084429346167    0.000117510458    0.000075427694    0.134974219770    0.075035247670
0.700     0.158101703109    0.006292868427    0.000085610024    0.000016459630    0.150922679286    0.022611253734    0.000120117955    0.000035258247
            0.000085609915    0.000016459702    0.148663535412    0.040231597069    0.000110370273    0.000029396735    0.138009258014    0.055949122676
            0.150922679286    0.022611253734    0.000110370156    0.000029396902    0.158231075469    0.007940719614    0.000137210886    0.000045893781
            0.000120117878    0.000035258400    0.138009266305    0.055949128842    0.000137211039    0.000045893731    0.147970776608    0.041611363787
0.725     0.148190197619    -0.029661731292    0.000090235741    -0.000004545679    0.146486517089    -0.011022495427    0.000129877950    0.000004455475
            0.000090235765    -0.000004545640    0.151484332892    0.004122961662    0.000118466050    0.000001816801    0.145213288799    0.023941999335
            0.146486517089    -0.011022495427    0.000118466027    0.000001816952    0.148984910347    -0.028289842059    0.000149765673    0.000010946571
            0.000129877747    0.000004455852    0.145213288799    0.023941999335    0.000149765642    0.000010946584    0.151482017736    0.005561346998
0.750     0.128014460349    -0.061728237357    0.000089857079    -0.000027222489    0.132300780969    -0.042609912716    0.000131813724    -0.000029440312
            0.000089857084    -0.000027222418    0.144279069605    -0.031814628044    0.000119793568    -0.000028373640    0.143478935391    -0.009364975790
            0.132300780969    -0.042609912716    0.000119793624    -0.000028373536    0.129399281126    -0.060842539189    0.000153525118    -0.000027855398
            0.000131813878    -0.000029440405    0.143478935391    -0.009364975790    0.000153525118    -0.000027855398    0.144999919757    -0.030519852838
0.775     0.098833264176    -0.086980345515    0.000083705945    -0.000050440205    0.109020690433    -0.069290295496    0.000124737759    -0.000064482412
            0.000083705898    -0.000050440158    0.127284203682    -0.064859648026    0.000113324636    -0.000059574325    0.132552182698    -0.041508278456
            0.109020694112    -0.069290252421    0.000113324737    -0.000059574456    0.100667526906    -0.086771977323    0.000147080152    -0.000068358128
            0.000124737830    -0.000064482470    0.132552182698    -0.041508278456    0.000147080147    -0.000068358139    0.128703055816    -0.063922823512
