# GHz S RI R 45
0.000     0.021755964000    0.000000000000    0.000017660482    -0.000000000000    0.000606240040    0.000000000000    0.000008661960    -0.000000000000
            0.000017660485    -0.000000000000    0.021220571000    0.000000000000    0.000000507716    -0.000000000000    0.000637209600    -0.000000000000
            0.000606236510    0.000000000000    0.000000507728    -0.000000000000    0.021709563000    0.000000000000    0.000008016028    0.000000000000
            0.000008661970    -0.000000000000    0.000637201450    -0.000000000000    0.000008015999    0.000000000000    0.021090490000    0.000000000000
0.025     0.027686092176    0.010332329419    -0.000013930327    -0.000019077448    0.003159645671    0.010770777771    -0.000006114936    -0.000011461264
            -0.000013930260    -0.000019077461    0.026392507910    0.008819039160    -0.000004518125    -0.000006352553    0.002689276072    0.009179638854
            0.003159621213    0.010770826632    -0.000004518107    -0.000006352554    0.027623580389    0.010324017812    -0.000004535380    -0.000011415442
            -0.000006114926    -0.000011461268    0.002689245473    0.009179689395    -0.000004535411    -0.000011415435    0.026331480007    0.008816794561
0.050     0.036016556717    0.014841193489    -0.000025073828    -0.000005419074    0.010010887833    0.019416964867    -0.000013840962    -0.000007599658
            -0.000025073743    -0.000005419120    0.033642067929    0.012550363910    -0.000009625345    -0.000007668880    0.008404917550    0.016759303758
            0.010010874196    0.019416977523    -0.000009625330    -0.000007668887    0.035959053639    0.014863155600    -0.000012520112    -0.000009938744
            -0.000013840950    -0.000007599664    0.008404898439    0.016759318936    -0.000012520135    -0.000009938730    0.033573943638    0.012561182553
0.075     0.046088707522    0.015267249309    -0.000025844772    0.000004427664    0.020003540002    0.024410764489    -0.000018078435    -0.000003628584
            -0.000025844772    0.000004427659    0.042453752458    0.012883506685    -0.000015345034    -0.000007027439    0.016895779496    0.021398415678
            0.020003531065    0.024410769226    -0.000015345026    -0.000007027445    0.046065732773    0.015313267499    -0.000018444131    -0.000007445274
            -0.000018078429    -0.000003628586    0.016895767298    0.021398424034    -0.000018444154    -0.000007445250    0.042386456136    0.012918169848
0.100     0.056506182332    0.010813711521    -0.000023991758    0.000011749869    0.031468403215    0.024748120788    -0.000021314583    0.000001337243
            -0.000023991756    0.000011749868    0.051771034863    0.009118445983    -0.000021231330    -0.000003660510    0.026856934418    0.022239228140
            0.031468402705    0.024748123053    -0.000021231320    -0.000003660524    0.056541524016    0.010873382227    -0.000023954801    -0.000002948041
            -0.000021314585    0.000001337247    0.026856932077    0.022239234103    -0.000023954815    -0.000002948017    0.051720259311    0.009186662612
0.125     0.065228273395    0.001429111707    -0.000021086696    0.000017612976    0.042485517995    0.020102604626    -0.000023263212    0.000007687595
            -0.000021086696    0.000017612975    0.059958438127    0.001114859063    -0.000026104559    0.000002643084    0.036785149384    0.018922776303
            0.042485518750    0.020102607706    -0.000026104553    0.000002643070    0.065344215140    0.001483332093    -0.000028328200    0.000004013164
            -0.000023263211    0.000007687604    0.036785149409    0.018922782811    -0.000028328204    0.000004013174    0.059946825619    0.001220654988
0.150     0.070378117753    -0.012216728021    -0.000017370470    0.000022744238    0.051141937235    0.010862271186    -0.000023217729    0.000015230822
            -0.000017370469    0.000022744236    0.065472534457    -0.010731938746    -0.000028694635    0.000011469513    0.045148686932    0.011626152289
            0.051141937645    0.010862274072    -0.000028694632    0.000011469517    0.070595312887    -0.012192739452    -0.000030447688    0.000013223856
            -0.000023217727    0.000015230826    0.045148688417    0.011626158553    -0.000030447692    0.000013223953    0.065528316641    -0.010594001417
0.175     0.070270075956    -0.028670728142    -0.000012727927    0.000027421111    0.055754740563    -0.001926009871    -0.000020566328    0.000023340909
            -0.000012727934    0.000027421065    0.066848106679    -0.025383512115    -0.000027949440    0.000021908899    0.050543178703    0.001035355563
            0.055754742632    -0.001926007896    -0.000027949449    0.000021908850    0.070602140773    -0.028714538970    -0.000029312106    0.000023929244
            -0.000020566326    0.000023340906    0.050543182516    0.001035364731    -0.000029312098    0.000023929288    0.067000162719    -0.025231446827
0.200     0.063862279107    -0.045924520058    -0.000006824752    0.000031522521    0.055083279573    -0.016662569314    -0.000014960736    0.000031059196
            -0.000006824752    0.000031522522    0.063079828445    -0.041329126367    -0.000023208957    0.000032644067    0.051855021557    -0.011716399420
            0.055083282069    -0.016662567970    -0.000023208951    0.000032644071    0.064311451118    -0.046082851419    -0.000024229911    0.000034906767
            -0.000014960731    0.000031059200    0.051855026481    -0.011716395777    -0.000024229911    0.000034906766    0.063353039032    -0.041194058252
0.225     0.050850814273    -0.061662734826    0.000000580088    0.000034653574    0.048487336980    -0.031358434021    -0.000006416352    0.000037288387
            0.000000580054    0.000034653538    0.053698641641    -0.056767537787    -0.000014315314    0.000042142120    0.048384904384    -0.025156876518
            0.048487339206    -0.031358434261    -0.000014315312    0.000042142116    0.051403000158    -0.061988434851    -0.000014976819    0.000044679734
            -0.000006416350    0.000037288386    0.048384912772    -0.025156871224    -0.000014976827    0.000044679731    0.054107801611    -0.056693309908
0.250     0.031765992182    -0.073513866398    0.000009467336    0.000036104203    0.036048211956    -0.043850449430    0.000004604553    0.000040902244
            0.000009467254    0.000036104150    0.038860985269    -0.069780350164    -0.000001705164    0.000048826903    0.039948756288    -0.037620523390
            0.036048213991    -0.043850450346    -0.000001705159    0.000048826900    0.032387162534    -0.074059779554    -0.000001914759    0.000051658862
            0.000004604562    0.000040902243    0.039948762554    -0.037620524029    -0.000001914682    0.000051658914    0.039405872230    -0.069819411542
0.275     0.007959386278    -0.079324204889    0.000019499041    0.000035136010    0.018613185902    -0.052044990479    0.000017225753    0.000040939101
            0.000019498949    0.000035135979    0.019355042546    -0.078530044502    0.000013612566    0.000051298541    0.026924118090    -0.047414480071
            0.018613192026    -0.052044990413    0.000013612569    0.000051298537    0.008594390667    -0.080135691165    0.000014006135    0.000054393903
            0.000017225759    0.000040939097    0.026924127179    -0.047414480660    0.000014006135    0.000054393900    0.020016109357    -0.078738094170
0.300     -0.018471159083    -0.077454412850    0.000029878403    0.000031083807    -0.002238804036    -0.054196759536    0.000030177253    0.000036763263
            0.000029878307    0.000031083801    -0.003425135394    -0.081473115319    0.000030102929    0.000048555211    0.010249947164    -0.053010878695
            -0.002238802226    -0.054196761613    0.000030102929    0.000048555209    -0.017898098094    -0.078560926553    0.000031266355    0.000051795044
            0.000030177253    0.000036763265    0.010249951814    -0.053010882888    0.000031266355    0.000051795044    -0.002688581346    -0.081902587424
0.325     -0.044879743465    -0.067025983201    0.000039535607    0.000023603939    -0.024333429565    -0.049160299497    0.000041956574    0.000028214698
            0.000039535514    0.000023603958    -0.027594018256    -0.077546151897    0.000045877931    0.000040176308    -0.008639522936    -0.053225087994
            -0.024333430452    -0.049160301290    0.000045877934    0.000040176300    -0.044459088324    -0.068432356805    0.000047953013    0.000043351157
            0.000041956529    0.000028214701    -0.008639519862    -0.053225092546    0.000047953013    0.000043351154    -0.026843161558    -0.078237468169
0.350     -0.068363118290    -0.048123182165    0.000047167107    0.000012827500    -0.045144085215    -0.036607187231    0.000051001422    0.000015719489
            0.000047167108    0.000012827502    -0.050944321297    -0.066334452980    0.000058926261    0.000026469811    -0.027945497630    -0.047383700304
            -0.045144085992    -0.036607187861    0.000058926259    0.000026469805    -0.068191739061    -0.049802697738    0.000061979134    0.000029293091
            0.000051001423    0.000015719485    -0.027945500170    -0.047383704611    0.000061979130    0.000029293093    -0.050256879374    -0.067308371935
0.375     -0.086120146012    -0.021850083714    0.000051558652    -0.000000602210    -0.062103792816    -0.017123938030    0.000055947908    0.000000282895
            0.000051558654    -0.000000602206    -0.071172358677    -0.048155793937    0.000067406273    0.000008484306    -0.045685860179    -0.035430638618
            -0.062103794744    -0.017123938561    0.000067406233    0.000008484332    -0.086289224336    -0.023741587339    0.000071400622    0.000010625305
            0.000055947907    0.000000282893    -0.045685857156    -0.035430649043    0.000071400696    0.000010625249    -0.070635804576    -0.049407250315
0.400     -0.095838773707    0.009740676630    0.000051756186    -0.000015525828    -0.072965966464    0.007812766794    0.000055859467    -0.000016597257
            0.000051756190    -0.000015525828    -0.086138617480    -0.024080480048    0.000069944803    -0.000012081956    -0.059924079398    -0.017973525452
            -0.072965967458    0.007812766901    0.000069944794    -0.000012081958    -0.096420587690    0.007731377416    0.000074721823    -0.000010952873
            0.000055859466    -0.000016597259    -0.059924083229    -0.017973526601    0.000074721886    -0.000010952941    -0.085840867163    -0.025574695282
0.425     -0.096011805819    0.043884990444    0.000047301293    -0.000030489455    -0.076105479073    0.036013709919    0.000050402164    -0.000033154554
            0.000047301295    -0.000030489451    -0.094111360225    0.004158675081    0.000065855815    -0.000033117346    -0.068987329449    0.003764285165
            -0.076105470813    0.036013657238    0.000065855794    -0.000033117303    -0.097048102628    0.041877948562    0.000071139510    -0.000033286336
            0.000050402163    -0.000033154554    -0.068987334100    0.003764273342    0.000071139509    -0.000033286337    -0.094130198596    0.002486159593
0.450     -0.086152055284    0.077451563329    0.000038308988    -0.000043918031    -0.070743699457    0.064863918702    0.000039909098    -0.000047607905
            0.000038308974    -0.000043917940    -0.093980182081    0.034334421060    0.000055255939    -0.000052398807    -0.071672951460    0.028067977498
            -0.070743700195    0.064863919378    0.000055255914    -0.000052398715    -0.087644516277    0.075581258963    0.000060670182    -0.000054064590
            0.000039909092    -0.000047607906    -0.071672955185    0.028067978956    0.000060670180    -0.000054064590    -0.094373302674    0.032574393874
0.475     -0.066830696558    0.107330253478    0.000025438288    -0.000054408756    -0.057011029210    0.091656933148    0.000025307992    -0.000058432722
            0.000025438295    -0.000054408665    -0.085379349978    0.063959855498    0.000039014926    -0.000067905620    -0.067373942509    0.052918002111
            -0.057011029210    0.091656933148    0.000039014928    -0.000067905573    -0.068737312157    0.105731123110    0.000044114086    -0.000071151612
            0.000025307992    -0.000058432722    -0.067373941320    0.052917963151    0.000044114084    -0.000071151613    -0.086175752918    0.062221629444
0.500     -0.039577514525    0.130796504592    0.000009782085    -0.000060880459    -0.035892082252    0.113919994711    0.000007960855    -0.000064546410
            0.000009782116    -0.000060880379    -0.068729666579    0.090549862326    0.000018601414    -0.000078072354    -0.056142429108    0.076211098192
            -0.035892085257    0.113920004249    0.000018601407    -0.000078072350    -0.041813504786    0.129588473935    0.000022908555    -0.000082843494
            0.000007960852    -0.000064546411    -0.056142431480    0.076211101412    0.000022908553    -0.000082843491    -0.069923664958    0.088952128448
0.525     -0.006655080927    0.145777238857    -0.000007337235    -0.000062700991    -0.009050245361    0.129650016770    -0.000010561506    -0.000065401530
            -0.000007337236    -0.000062700993    -0.045177442457    0.111866152897    -0.000004156512    -0.000081927551    -0.038657321896    0.095967618378
            -0.009050250583    0.129650026430    -0.000004156517    -0.000081927545    -0.009099321097    0.145052414281    -0.000001109037    -0.000088023555
            -0.000010561507    -0.000065401526    -0.038657321896    0.095967618378    -0.000001109058    -0.000088023594    -0.046727224564    0.110525559452
0.550     0.029216623585    0.151012267134    -0.000024520511    -0.000059681384    0.021387067024    0.137471393503    -0.000028679064    -0.000060971497
            -0.000024520449    -0.000059681322    -0.016466825631    0.126123387823    -0.000027307265    -0.000079128934    -0.016138302748    0.110516568699
            0.021387067024    0.137471393503    -0.000027307277    -0.000079128924    0.026711689685    0.150824432250    -0.000025932648    -0.000086205863
            -0.000028679062    -0.000060971491    -0.016138306606    0.110516568136    -0.000025932649    -0.000086205864    -0.018295137667    0.125142880540
0.575     0.065139511674    0.146091252256    -0.000040455422    -0.000052023245    0.053050809898    0.136678737083    -0.000044964656    -0.000051663951
            -0.000040455349    -0.000052023207    0.015240235214    0.132121865241    -0.000048975549    -0.000069898858    0.009789451780    0.118613692979
            0.053050809898    0.136678737083    -0.000048975557    -0.000069898843    0.062735615932    0.146450019964    -0.000049591547    -0.000077483882
            -0.000044964583    -0.000051663903    0.009789448462    0.118613703287    -0.000049591560    -0.000077483873    0.013240336825    0.131581154178
0.600     0.098281859580    0.131419947462    -0.000053977239    -0.000040237718    0.083522943502    0.127236497257    -0.000058226224    -0.000038208811
            -0.000053977244    -0.000040237721    0.047559504892    0.129322364839    -0.000067495719    -0.000054926007    0.037244327020    0.119523541355
            0.083522941281    0.127236498715    -0.000067495722    -0.000054925989    0.096142078581    0.132287050877    -0.000070283320    -0.000062444272
            -0.000058226222    -0.000038208810    0.037244324934    0.119523542005    -0.000070283402    -0.000062444301    0.045517256617    0.129269314505
0.625     0.126065151701    0.108125039458    -0.000064116513    -0.000025055433    0.110480882382    0.109721069026    -0.000067536525    -0.000021546459
            -0.000064116471    -0.000025055429    0.078071284934    0.117851433220    -0.000081478032    -0.000035247837    0.064230932941    0.113036647941
            0.110480882382    0.109721069026    -0.000081477937    -0.000035247830    0.124341016627    0.109415207302    -0.000086449497    -0.000042060458
            -0.000067536524    -0.000021546459    0.064230933935    0.113036658877    -0.000086449497    -0.000042060457    0.076129852508    0.118296675839
0.650     0.146311965432    0.077947336907    -0.000070091710    -0.000007384338    0.131823040080    0.085273132489    -0.000072221661    -0.000002754948
            -0.000070091716    -0.000007384351    0.104494426852    0.098469109959    -0.000089839026    -0.000012163813    0.088778283563    0.099470109280
            0.131823040080    0.085273132489    -0.000089839021    -0.000012163797    0.145130296238    0.079532122716    -0.000096815506    -0.000017618903
            -0.000072221658    -0.000002754948    0.088778288485    0.099470118290    -0.000096815501    -0.000017618902    0.102798682405    0.099382555450
0.675     0.157347793539    0.043127478524    -0.000071310349    0.000011727543    0.145757983086    0.055537364387    -0.000071839233    0.000016992733
            -0.000071310376    0.000011727535    0.124824174490    0.072499098904    -0.000091804131    0.000012826848    0.109047972415    0.079631603747
            0.145757992431    0.055537367947    -0.000091804111    0.000012826862    0.156799761178    0.044840780930    -0.000100405376    0.000009336896
            -0.000071839196    0.000016992711    0.109047979101    0.079631611547    -0.000100405376    0.000009336896    0.123510913064    0.073809667412
0.700     0.158101703109    0.006292868427    -0.000067385652    0.000031081655    0.150922679286    0.022611253734    -0.000066175578    0.000036434963
            -0.000067385596    0.000031081586    0.137458012717    0.041742013190    -0.000086929084    0.000038059156    0.123450261091    0.054781546527
            0.150922679286    0.022611253734    -0.000086929079    0.000038059154    0.158231075469    0.007940719614    -0.000096587269    0.000037034278
            -0.000066175576    0.000036434962    0.123450269276    0.054781552738    -0.000096587269    0.000037034278    0.136644053209    0.043340041315
0.725     0.148190197619    -0.029661731292    -0.000058177225    0.000049337421    0.146486517089    -0.011022495427    -0.000055269307    0.000054221639
            -0.000058177226    0.000049337422    0.141290997839    0.008372742659    -0.000075138851    0.000061727941    0.130731225983    0.026573430238
            0.146486517089    -0.011022495427    -0.000075138838    0.000061727952    0.148984910347    -0.028289842059    -0.000085125504    0.000063499097
            -0.000055269304    0.000054221636    0.130731235783    0.026573432230    -0.000085125504    0.000063499097    0.141062657347    0.010114803155
0.750     0.128014460349    -0.061728237357    -0.000043879656    0.000065028360    0.132300780969    -0.042609912716    -0.000039478672    0.000068930830
            -0.000043879656    0.000065028360    0.135804326369    -0.025181528898    -0.000056804961    0.000081937133    0.130082257278    -0.003020480999
            0.132300780969    -0.042609912716    -0.000056804961    0.000081937133    0.129399281126    -0.060842539189    -0.000066283873    0.000086612121
            -0.000039478672    0.000068930830    0.130082257278    -0.003020480999    -0.000066283873    0.000086612121    0.136207482083    -0.023463950757
0.775     0.098833264176    -0.086980345515    -0.000025112647    0.000076638101    0.109020690433    -0.069290295496    -0.000019566087    0.000079132300
            -0.000025112647    0.000076638100    0.121128878440    -0.056379464009    -0.000032833020    0.000096792051    0.121221231982    -0.031807678913
            0.109020694112    -0.069290252421    -0.000032833003    0.000096792057    0.100667526906    -0.086771977323    -0.000040931193    0.000104220699
