# GHz S RI R 45
0.000     0.021755964000    0.000000000000    0.000000270904    -0.000000000000    0.000606240040    0.000000000000    -0.000000398854    0.000000000000
            0.000000270959    -0.000000000000    0.021306846000    0.000000000000    -0.000001651584    0.000000000000    0.000603347050    -0.000000000000
            0.000606236510    0.000000000000    -0.000001651614    0.000000000000    0.021709563000    0.000000000000    0.000000152071    -0.000000000000
            -0.000000399013    0.000000000000    0.000603316560    -0.000000000000    0.000000151735    -0.000000000000    0.021272673000    0.000000000000
0.025     0.027686092176    0.010332329419    -0.000000898827    0.000011584175    0.003159645671    0.010770777771    0.000003570343    0.000016115286
            -0.000000898694    0.000011584138    0.027085837193    0.009900113016    0.000003070062    0.000017494499    0.003018417814    0.010350134381
            0.003159621213    0.010770826632    0.000003070095    0.000017494494    0.027623580389    0.010324017812    0.000006339744    0.000020556050
            0.000003570264    0.000016115306    0.003018365507    0.010350190260    0.000006339705    0.000020556061    0.027014972858    0.009837882356
0.050     0.036016556717    0.014841193489    0.000009104437    0.000024884631    0.010010887833    0.019416964867    0.000017069491    0.000028885526
            0.000009104535    0.000024884571    0.035154494861    0.014216314219    0.000016668200    0.000030821223    0.009615889467    0.018746970219
            0.010010874196    0.019416977523    0.000016668239    0.000030821202    0.035959053639    0.014863155600    0.000023096171    0.000035787389
            0.000017069417    0.000028885570    0.009615850393    0.018746994756    0.000023096134    0.000035787418    0.035076195829    0.014117651498
0.075     0.046088707522    0.015267249309    0.000026050288    0.000031096341    0.020003540002    0.024410764489    0.000037177786    0.000033834760
            0.000026050366    0.000031096256    0.045000104607    0.014672527418    0.000036448855    0.000036665858    0.019326791527    0.023682402167
            0.020003531065    0.024410769226    0.000036448885    0.000036665831    0.046065732773    0.015313267499    0.000047545992    0.000041804774
            0.000037177729    0.000033834822    0.019326763396    0.023682422543    0.000047545968    0.000041804812    0.044922454392    0.014538800639
0.100     0.056506182332    0.010813711521    0.000045832079    0.000028476734    0.031468403215    0.024748120788    0.000060096754    0.000028794604
            0.000045832130    0.000028476632    0.055354165192    0.010457199852    0.000059027009    0.000032850803    0.030592124911    0.024171274775
            0.031468402705    0.024748123053    0.000059027035    0.000032850761    0.056541524016    0.010873382227    0.000075481777    0.000035932121
            0.000060096717    0.000028794680    0.030592110871    0.024171295771    0.000075481778    0.000035932152    0.055287451451    0.010291587667
0.125     0.065228273395    0.001429111707    0.000064619189    0.000016652480    0.042485517995    0.020102604626    0.000081612576    0.000013128499
            0.000064619213    0.000016652365    0.064300354206    0.001444703815    0.000080366445    0.000018675911    0.041612977997    0.019844557682
            0.042485518750    0.020102607706    0.000080366459    0.000018675872    0.065344215140    0.001483332093    0.000101976462    0.000017209614
            0.000081612554    0.000013128587    0.041612966641    0.019844586141    0.000101976466    0.000017209651    0.064258300551    0.001244674104
0.150     0.070378117753    -0.012216728021    0.000078858981    -0.000003620049    0.051141937235    0.010862271186    0.000097592024    -0.000012302480
            0.000078858971    -0.000003620168    0.070051852844    -0.011836766910    0.000096437357    -0.000005120991    0.050577470533    0.010991776376
            0.051141937645    0.010862274072    0.000096437360    -0.000005121028    0.070595312887    -0.012192739452    0.000122041238    -0.000013494712
            0.000097592029    -0.000012302474    0.050577467901    0.010991802613    0.000122041261    -0.000013494682    0.070052886646    -0.012078149962
0.175     0.070270075956    -0.028670728142    0.000085419676    -0.000030339967    0.055754740563    -0.001926009871    0.000104392892    -0.000045211635
            0.000085419637    -0.000030340074    0.070953008935    -0.028110026432    0.000103636761    -0.000036383839    0.055857379479    -0.001486888676
            0.055754742632    -0.001926007896    0.000103636754    -0.000036383889    0.070602140773    -0.028714538970    0.000131200485    -0.000053605510
            0.000104392914    -0.000045211584    0.055857382148    -0.001486863577    0.000131200504    -0.000053605491    0.071013658941    -0.028412195985
0.200     0.063862279107    -0.045924520058    0.000081982864    -0.000060575079    0.055083279573    -0.016662569314    0.000099300513    -0.000082160069
            0.000081982791    -0.000060575161    0.065916556247    -0.045562240773    0.000099225486    -0.000071796839    0.056204487957    -0.016165166615
            0.055083282069    -0.016662567970    0.000099225488    -0.000071796837    0.064311451118    -0.046082851419    0.000126013745    -0.000099086039
            0.000099300522    -0.000082160074    0.056204496933    -0.016165142644    0.000126013816    -0.000099085948    0.066047033439    -0.045954787749
0.225     0.050850814273    -0.061662734826    0.000067308910    -0.000090612967    0.048487336980    -0.031358434021    0.000080835386    -0.000118823994
            0.000067308824    -0.000090613030    0.054510009678    -0.062064194033    0.000081664182    -0.000107133046    0.050897885860    -0.031231140459
            0.048487339206    -0.031358434261    0.000081664123    -0.000107133116    0.051403000158    -0.061988434851    0.000104482083    -0.000144781488
            0.000080835453    -0.000118823924    0.050897906405    -0.031231112713    0.000104482149    -0.000144781452    0.054709696674    -0.062585022490
0.250     0.031765992182    -0.073513866398    0.000041455084    -0.000116397781    0.036048211956    -0.043850449430    0.000049030031    -0.000150438539
            0.000041454984    -0.000116397816    0.037053310068    -0.075386730009    0.000050894779    -0.000137686018    0.039860508535    -0.044674726733
            0.036048213991    -0.043850450346    0.000050894784    -0.000137686016    0.032387162534    -0.074059779554    0.000066405396    -0.000184907619
            0.000049030112    -0.000150438492    0.039860535045    -0.044674703079    0.000066405423    -0.000184907631    0.037306776130    -0.076078311424
0.275     0.007959386278    -0.079324204889    0.000005938501    -0.000133899257    0.018613185902    -0.052044990479    0.000005591153    -0.000172256494
            0.000005938398    -0.000133899271    0.014618202012    -0.083442784578    0.000008528044    -0.000158735842    0.023707804562    -0.054498378577
            0.018613192026    -0.052044990413    0.000008528005    -0.000158735854    0.008594390667    -0.080135691165    0.000013597921    -0.000213625743
            0.000005591246    -0.000172256471    0.023707815178    -0.054498371777    0.000013597993    -0.000213625759    0.014892184634    -0.084345811470
0.300     -0.018471159083    -0.077454412850    -0.000036300634    -0.000139679848    -0.002238804036    -0.054196759536    -0.000046101240    -0.000180169305
            -0.000036300734    -0.000139679832    -0.011019786167    -0.084548710857    -0.000042153333    -0.000166162439    0.003733374802    -0.058961263247
            -0.002238802226    -0.054196761613    -0.000042153333    -0.000166162439    -0.017898098094    -0.078560926553    -0.000050079054    -0.000225765583
            -0.000046101141    -0.000180169309    0.003733372555    -0.058961260384    -0.000050078936    -0.000225765609    -0.010777148149    -0.085695840932
0.325     -0.044879743465    -0.067025983201    -0.000081067675    -0.000131411042    -0.024333429565    -0.049160299497    -0.000101195589    -0.000171312825
            -0.000081067777    -0.000131411002    -0.037535822242    -0.077647684397    -0.000096384578    -0.000157068347    -0.018191124386    -0.056801432809
            -0.024333430452    -0.049160301290    -0.000096384643    -0.000157068331    -0.044459088324    -0.068432356805    -0.000118941755    -0.000217563363
            -0.000101195529    -0.000171312860    -0.018191133385    -0.056801426777    -0.000118941736    -0.000217563419    -0.037392214579    -0.079055268386
0.350     -0.068363118290    -0.048123182165    -0.000123406391    -0.000108372849    -0.045144085215    -0.036607187231    -0.000153884874    -0.000144649402
            -0.000123406463    -0.000108372798    -0.062286436897    -0.062505350673    -0.000148428920    -0.000130347007    -0.039803010881    -0.047440240609
            -0.045144085992    -0.036607187861    -0.000148428920    -0.000130347007    -0.068191739061    -0.049802697738    -0.000186047972    -0.000187361524
            -0.000153884801    -0.000144649435    -0.039803009595    -0.047440239077    -0.000186047993    -0.000187361545    -0.062320000095    -0.064166327420
0.375     -0.086120146012    -0.021850083714    -0.000158232088    -0.000071720158    -0.062103792816    -0.017123938030    -0.000198132156    -0.000101294980
            -0.000158232144    -0.000071720083    -0.082604590701    -0.039790477069    -0.000192296951    -0.000087034055    -0.058699234605    -0.031094626119
            -0.062103794744    -0.017123938561    -0.000192297009    -0.000087034000    -0.086289224336    -0.023741587339    -0.000244032481    -0.000136037966
            -0.000198132076    -0.000101295070    -0.058699197116    -0.031094645619    -0.000244032507    -0.000136037980    -0.082895130815    -0.041669884581
0.400     -0.095838773707    0.009740676630    -0.000181139993    -0.000024430954    -0.072965966464    0.007812766794    -0.000228575448    -0.000044515155
            -0.000181140026    -0.000024430862    -0.096132931088    -0.011061192324    -0.000222638898    -0.000030294996    -0.072640831579    -0.008801582511
            -0.072965967458    0.007812766901    -0.000222638958    -0.000030294925    -0.096420587690    0.007731377416    -0.000286139199    -0.000067057233
            -0.000228575403    -0.000044515229    -0.072640831130    -0.008801569592    -0.000286139238    -0.000067057242    -0.096751332580    -0.013094946469
0.425     -0.096011805819    0.043884990444    -0.000189076206    0.000029089180    -0.076105479073    0.036013709919    -0.000241320779    0.000020695744
            -0.000189076211    0.000029089282    -0.101117747924    0.021390758967    -0.000235537504    0.000034971544    -0.079827584583    0.017687424544
            -0.076105470813    0.036013657238    -0.000235537514    0.000034971545    -0.097048102628    0.041877948562    -0.000307173311    0.000013940278
            -0.000241320756    0.000020695657    -0.079827582630    0.017687424111    -0.000307173353    0.000013940226    -0.102114985802    0.019292796421
0.450     -0.086152055284    0.077451563329    -0.000180789924    0.000083710959    -0.070743699457    0.064863918702    -0.000234491187    0.000088364836
            -0.000180789914    0.000083711146    -0.096643119856    0.054794583454    -0.000229057917    0.000102871600    -0.079134971483    0.046109847611
            -0.070743700195    0.064863919378    -0.000229057926    0.000102871604    -0.087644516277    0.075581258963    -0.000304190745    0.000099938766
            -0.000234491190    0.000088364744    -0.079134949240    0.046109760647    -0.000304190810    0.000099938729    -0.098040646788    0.052741562262
0.475     -0.066830696558    0.107330253478    -0.000156880965    0.000134350677    -0.057011029210    0.091656933148    -0.000208350700    0.000152411383
            -0.000156880918    0.000134350779    -0.082729861496    0.086221149217    -0.000203378328    0.000167373038    -0.070226949287    0.073960655282
            -0.057011029210    0.091656933148    -0.000203378343    0.000167373051    -0.068737312157    0.105731123110    -0.000276745025    0.000183519306
            -0.000208350708    0.000152411389    -0.070226942401    0.073960648030    -0.000276745041    0.000183519317    -0.084513341077    0.084329898320
0.500     -0.039577514525    0.130796504592    -0.000119511682    0.000176660310    -0.035892082252    0.113919994711    -0.000165035463    0.000207437880
            -0.000119511607    0.000176660398    -0.060321261328    0.112912246526    -0.000160545488    0.000223086056    -0.053577081317    0.098783334476
            -0.035892085257    0.113920004249    -0.000160545443    0.000223086076    -0.041813504786    0.129588473935    -0.000226682462    0.000257774061
            -0.000165035476    0.000207437896    -0.053577081317    0.098783334476    -0.000226682508    0.000257774113    -0.062438673141    0.111295537193
0.525     -0.006655080927    0.145777238857    -0.000071891599    0.000207434436    -0.009050245361    0.129650016770    -0.000108025745    0.000249241684
            -0.000071891593    0.000207434417    -0.031143016404    0.132557664665    -0.000103955866    0.000265777789    -0.030367833854    0.118412085475
            -0.009050250583    0.129650026430    -0.000103955859    0.000265777771    -0.009099321097    0.145052414281    -0.000157639282    0.000316964623
            -0.000108025753    0.000249241703    -0.030367878465    0.118412001769    -0.000157639308    0.000316964676    -0.033507263920    0.131311742626
0.550     0.029216623585    0.151012267134    -0.000017706659    0.000224729186    0.021387067024    0.137471393503    -0.000041521246    0.000275007497
            -0.000017706647    0.000224729187    0.002503039247    0.143499061533    -0.000037755966    0.000292573789    -0.002338204607    0.131165440797
            0.021387067024    0.137471393503    -0.000037755961    0.000292573790    0.026711689685    0.150824432250    -0.000074396471    0.000356831344
            -0.000041521237    0.000275007539    -0.002338202139    0.131165430839    -0.000074396542    0.000356831370    0.000008811237    0.142692679728
0.575     0.065139511674    0.146091252256    0.000039336848    0.000227732551    0.053050809898    0.136678737083    0.000030068947    0.000283219095
            0.000039336852    0.000227732551    0.037982716950    0.144828557490    0.000033661832    0.000301887584    0.028409652113    0.135940761212
            0.053050809898    0.136678737083    0.000033661820    0.000301887565    0.062735615932    0.146450019964    0.000017690822    0.000374617179
            0.000030068954    0.000283219115    0.028409652440    0.135940750927    0.000017690805    0.000374617230    0.035495420638    0.144495223204
0.600     0.098281859580    0.131419947462    0.000095794727    0.000216492743    0.083522943502    0.127236497257    0.000102468993    0.000273407585
            0.000095794738    0.000216492717    0.072565508379    0.136415757598    0.000106001807    0.000293189130    0.059594929394    0.132264058632
            0.083522941281    0.127236498715    0.000106002684    0.000293189313    0.096142078581    0.132287050877    0.000113099952    0.000368893287
            0.000102469026    0.000273407615    0.059594845235    0.132264019775    0.000113099997    0.000368893388    0.070231175107    0.136548169466
0.625     0.126065151701    0.108125039458    0.000148564686    0.000191644770    0.110480882382    0.109721069026    0.000171655567    0.000245883530
            0.000148564659    0.000191644741    0.103626122973    0.118860132928    0.000175195035    0.000266750040    0.088917187483    0.120267665730
            0.110480882382    0.109721069026    0.000175195056    0.000266750051    0.124341016627    0.109415207302    0.000206345327    0.000339338922
            0.000171655594    0.000245883559    0.088917101435    0.120267654729    0.000206345370    0.000339338966    0.101588876291    0.119408786474
0.650     0.146311965432    0.077947336907    0.000194828684    0.000154213885    0.131823040080    0.085273132489    0.000233823985    0.000201530659
            0.000194828698    0.000154213885    0.128815315087    0.093415781463    0.000237377539    0.000223455259    0.114198473509    0.100664231123
            0.131823040080    0.085273132489    0.000237378325    0.000223455022    0.145130296238    0.079532122716    0.000292016443    0.000286579975
            0.000233824009    0.000201530694    0.114198467764    0.100664222517    0.000292016522    0.000286580022    0.127205351328    0.094289548028
0.675     0.157347793539    0.043127478524    0.000231915957    0.000105546614    0.145757983086    0.055537364387    0.000285269919    0.000141754264
            0.000231915935    0.000105546614    0.146184100497    0.061889581576    0.000288796901    0.000164748716    0.133486494564    0.074689682810
            0.145757992431    0.055537367947    0.000288796904    0.000164748711    0.156799761178    0.044840780930    0.000364741788    0.000212158346
            0.000285269516    0.000141754467    0.133486452740    0.074689696119    0.000364741796    0.000212158351    0.145106800617    0.062959415507
0.700     0.158101703109    0.006292868427    0.000257187746    0.000047400447    0.150922679286    0.022611253734    0.000322284745    0.000068590464
            0.000257187747    0.000047400442    0.154296400214    0.026535102006    0.000325728982    0.000092736939    0.145172826808    0.044055254880
            0.150922679286    0.022611253734    0.000325728982    0.000092736939    0.158231075469    0.007940719614    0.000419166037    0.000118660700
            0.000322284783    0.000068590478    0.145172826808    0.044055254880    0.000419166083    0.000118660682    0.153821503156    0.027640711025
0.725     0.148190197619    -0.029661731292    0.000268017180    -0.000017860698    0.146486517089    -0.011022495427    0.000341170491    -0.000015053430
            0.000268017150    -0.000017860699    0.152313096350    -0.010061865066    0.000344507282    0.000010406819    0.148085102071    0.010880848354
            0.146486517089    -0.011022495427    0.000344507303    0.000010406804    0.148984910347    -0.028289842059    0.000450053282    0.000009972669
            0.000341170550    -0.000015053461    0.148085092098    0.010880847621    0.000450053352    0.000009972656    0.152465810614    -0.009104056412
0.750     0.128014460349    -0.061728237357    0.000261947599    -0.000086993113    0.132300780969    -0.042609912716    0.000338452829    -0.000105081076
            0.000261947525    -0.000086993052    0.140080681161    -0.045118725255    0.000341746010    -0.000078084143    0.141613967259    -0.022394691361
            0.132300780969    -0.042609912716    0.000341746048    -0.000078084157    0.129399281126    -0.060842539189    0.000452612302    -0.000108410924
            0.000338452800    -0.000105081034    0.141613929130    -0.022394612368    0.000452612302    -0.000108410924    0.140833228738    -0.044502510410
0.775     0.098833264176    -0.086980345515    0.000237067752    -0.000155668583    0.109020690433    -0.069290295496    0.000311363319    -0.000195962701
            0.000237067732    -0.000155668576    0.118195921211    -0.075812827814    0.000314803895    -0.000167197158    0.125813196394    -0.053135560881
            0.109020694112    -0.069290252421    0.000314803889    -0.000167197169    0.100667526906    -0.086771977323    0.000423096124    -0.000229168274
            0.000311363326    -0.000195962728    0.125813196394    -0.053135560881    0.000423096151    -0.000229168308    0.119463210279    -0.075728271706
