# GHz S RI R 45
0.000     0.021755964000    0.000000000000    0.000000235402    -0.000000000000    0.000606240040    0.000000000000    -0.000016554732    0.000000000000
            0.000000235386    -0.000000000000    0.020344125000    0.000000000000    0.000005493863    -0.000000000000    0.000573212850    -0.000000000000
            0.000606236510    0.000000000000    0.000005493818    -0.000000000000    0.021709563000    0.000000000000    -0.000012205573    0.000000000000
            -0.000016554728    0.000000000000    0.000573233290    -0.000000000000    -0.000012205572    0.000000000000    0.020325973000    0.000000000000
0.025     0.027686092176    0.010332329419    -0.000000013476    -0.000001266397    0.003159645671    0.010770777771    0.000003198202    0.000009122381
            -0.000000013490    -0.000001266393    0.025576038051    0.008405632289    -0.000002450204    -0.000005561305    0.002552562044    0.008634469119
            0.003159621213    0.010770826632    -0.000002450262    -0.000005561292    0.027623580389    0.010324017812    0.000000504085    0.000004818511
            0.000003197887    0.000009122093    0.002552591941    0.008634567479    0.000000503540    0.000004817611    0.025511254855    0.008359004771
0.050     0.036016556717    0.014841193489    -0.000000997081    -0.000002428742    0.010010887833    0.019416964867    0.000006220250    -0.000001819115
            -0.000000997100    -0.000002428730    0.032685183562    0.011890354437    -0.000005764005    -0.000002946447    0.008068057073    0.015768733705
            0.010010874196    0.019416977523    -0.000005764047    -0.000002946427    0.035959053639    0.014863155600    0.000001003894    -0.000003103382
            0.000006220610    -0.000001818859    0.008068034762    0.015768719284    0.000001004498    -0.000003103131    0.032596652973    0.011829705526
0.075     0.046088707522    0.015267249309    -0.000002641514    -0.000003000170    0.020003540002    0.024410764489    0.000001406445    -0.000007601263
            -0.000002641528    -0.000003000158    0.041400328338    0.012146831554    -0.000006819198    -0.000001001834    0.016316279841    0.020141162286
            0.020003531065    0.024410769226    -0.000006819235    -0.000001001797    0.046065732773    0.015313267499    -0.000003979361    -0.000006678619
            0.000001406491    -0.000007601175    0.016316283463    0.020141145195    -0.000003979289    -0.000006678497    0.041294532306    0.012086367779
0.100     0.056506182332    0.010813711521    -0.000004628428    -0.000002770937    0.031468403215    0.024748120788    -0.000005190831    -0.000008494596
            -0.000004628443    -0.000002770919    0.050782671195    0.008476664919    -0.000007439523    0.000000688570    0.026106176879    0.020918792856
            0.031468402705    0.024748123053    -0.000007439548    0.000000688616    0.056541524016    0.010873382227    -0.000010053309    -0.000005962644
            -0.000005190883    -0.000008494584    0.026106191898    0.020918775712    -0.000010053387    -0.000005962602    0.050671678104    0.008432296536
0.125     0.065228273395    0.001429111707    -0.000006629485    -0.000001603302    0.042485517995    0.020102604626    -0.000010864371    -0.000005571139
            -0.000006629495    -0.000001603288    0.059302270086    0.000670282153    -0.000007878447    0.000002465789    0.036053879317    0.017709144717
            0.042485518750    0.020102607706    -0.000007878451    0.000002465839    0.065344215140    0.001483332093    -0.000014932743    -0.000001817597
            -0.000010864455    -0.000005571077    0.036053892857    0.017709121687    -0.000014932850    -0.000001817491    0.059212844727    0.000654606421
0.150     0.070378117753    -0.012216728021    -0.000008255168    0.000000515528    0.051141937235    0.010862271186    -0.000014291847    -0.000000058980
            -0.000008255174    0.000000515546    0.065531605094    -0.010984406723    -0.000008025695    0.000004541596    0.044729125368    0.010602522554
            0.051141937645    0.010862274072    -0.000008025694    0.000004541647    0.070595312887    -0.012192739452    -0.000017380082    0.000004608268
            -0.000014291808    -0.000000058930    0.044729126102    0.010602502115    -0.000017380028    0.000004608348    0.065484664514    -0.010968862304
0.175     0.070270075956    -0.028670728142    -0.000009111512    0.000003448930    0.055754740563    -0.001926009871    -0.000014764359    0.000006559478
            -0.000009111511    0.000003448950    0.068027380626    -0.025626889483    -0.000007669565    0.000006964327    0.050790453247    0.000152436956
            0.055754742632    -0.001926007896    -0.000007669552    0.000006964378    0.070602140773    -0.028714538970    -0.000016745426    0.000011895614
            -0.000014764378    0.000006559493    0.050790454311    0.000152415462    -0.000016745452    0.000011895650    0.068056108382    -0.025584883752
0.200     0.063862279107    -0.045924520058    -0.000008853630    0.000006895967    0.055083279573    -0.016662569314    -0.000012253975    0.000012944627
            -0.000008853626    0.000006895986    0.065747285719    -0.041930085709    -0.000006548897    0.000009598323    0.053133732955    -0.012668905449
            0.055083282069    -0.016662567970    -0.000006548876    0.000009598357    0.064311451118    -0.046082851419    -0.000013030890    0.000018707620
            -0.000012253952    0.000012944621    0.053133726587    -0.012668923532    -0.000013030857    0.000018707622    0.065887097841    -0.041882477092
0.225     0.050850814273    -0.061662734826    -0.000007258218    0.000010423164    0.048487336980    -0.031358434021    -0.000007224122    0.000017896354
            -0.000007258210    0.000010423180    0.058115951403    -0.058272006133    -0.000004461622    0.000012185951    0.051005346830    -0.026560398759
            0.048487339206    -0.031358434261    -0.000004461588    0.000012185984    0.051403000158    -0.061988434851    -0.000006718782    0.000023846040
            -0.000007224133    0.000017896343    0.051005337136    -0.026560415212    -0.000006718787    0.000023846041    0.058395424285    -0.058255863982
0.250     0.031765992182    -0.073513866398    -0.000004276564    0.000013505013    0.036048211956    -0.043850449430    -0.000000471673    0.000020605752
            -0.000004276544    0.000013505031    0.045109239150    -0.072882942137    -0.000001336507    0.000014325250    0.044097400171    -0.040014943099
            0.036048213991    -0.043850450346    -0.000001336465    0.000014325276    0.032387162534    -0.074059779554    0.000001361245    0.000026484133
            -0.000000471678    0.000020605736    0.044097386817    -0.040014954839    0.000001361239    0.000026484116    0.045544536661    -0.072948003476
0.275     0.007959386278    -0.079324204889    -0.000000068030    0.000015602045    0.018613185902    -0.052044990479    0.000006985384    0.000020610247
            -0.000000068013    0.000015602056    0.027267515499    -0.084016366019    0.000002738581    0.000015588318    0.032595031051    -0.051460176483
            0.018613192026    -0.052044990413    0.000002738628    0.000015588332    0.008594390667    -0.080135691165    0.000010157253    0.000026137908
            0.000006985389    0.000020610243    0.032595015248    -0.051460185310    0.000010157260    0.000026137907    0.027857354943    -0.084220468591
0.300     -0.018471159083    -0.077454412850    0.000004996402    0.000016244395    -0.002238804036    -0.054196759536    0.000014114744    0.000017870194
            0.000004996429    0.000016244404    0.005687477097    -0.090132311323    0.000007464975    0.000015563656    0.017186212808    -0.059421648511
            -0.002238802226    -0.054196761613    0.000007465026    0.000015563655    -0.017898098094    -0.078560926553    0.000018582038    0.000022749950
            0.000014114752    0.000017870197    0.017186195455    -0.059421654571    0.000018582047    0.000022749960    0.006409869074    -0.090535961995
0.325     -0.044879743465    -0.067025983201    0.000010368822    0.000015115960    -0.024333429565    -0.049160299497    0.000019933192    0.000012707746
            0.000010368840    0.000015115963    -0.018063097347    -0.090059402167    0.000012390418    0.000013964248    -0.000982277626    -0.062673042830
            -0.024333430452    -0.049160301290    0.000012390461    0.000013964238    -0.044459088324    -0.068432356805    0.000025588379    0.000016629752
            0.000019933192    0.000012707743    -0.000982296253    -0.062673044539    0.000025588422    0.000016629750    -0.017252152199    -0.090717971932
0.350     -0.068363118290    -0.048123182165    0.000015393272    0.000012122390    -0.045144085215    -0.036607187231    0.000023686576    0.000005752471
            0.000015393291    0.000012122388    -0.042070536106    -0.083148180310    0.000016930684    0.000010691782    -0.020397743256    -0.060384668377
            -0.045144085992    -0.036607187861    0.000016930682    0.000010691777    -0.068191739061    -0.049802697738    0.000030344081    0.000008415369
            0.000023686577    0.000005752466    -0.020397743256    -0.060384668377    0.000030344169    0.000008415341    -0.041235754361    -0.084103974782
0.375     -0.086120146012    -0.021850083714    0.000019400503    0.000007424377    -0.062103792816    -0.017123938030    0.000024884436    -0.000002139525
            0.000019400584    0.000007424330    -0.064249659086    -0.069358669737    0.000020485612    0.000005874626    -0.039315067556    -0.052223416192
            -0.062103794744    -0.017123938561    0.000020485647    0.000005874596    -0.086289224336    -0.023741587339    0.000032275264    -0.000001011541
            0.000024884422    -0.000002139530    -0.039315066954    -0.052223415393    0.000032275249    -0.000001011543    -0.063472084540    -0.070633408506
0.400     -0.095838773707    0.009740676630    0.000021813816    0.000001427758    -0.072965966464    0.007812766794    0.000023391847    -0.000010033632
            0.000021813882    0.000001427693    -0.082548937666    -0.049307395201    0.000022516427    -0.000000123192    -0.055931698522    -0.038418747224
            -0.072965967458    0.007812766901    0.000022516420    -0.000000123195    -0.096420587690    0.007731377416    0.000031165436    -0.000010660532
            0.000023391846    -0.000010033634    -0.055931770187    -0.038418695876    0.000031165436    -0.000010660525    -0.081918976623    -0.050896370668
0.425     -0.096011805819    0.043884990444    0.000022237993    -0.000005271654    -0.076105479073    0.036013709919    0.000019406551    -0.000017013680
            0.000022238022    -0.000005271693    -0.095153372288    -0.024229831650    0.000022648007    -0.000006760839    -0.068563132018    -0.019756600845
            -0.076105470813    0.036013657238    0.000022648020    -0.000006760882    -0.097048102628    0.041877948562    0.000027139103    -0.000019536329
            0.000019406532    -0.000017013641    -0.068563160619    -0.019756570206    0.000027139114    -0.000019536324    -0.094761641644    -0.026098573110
0.450     -0.086152055284    0.077451563329    0.000020517901    -0.000011976989    -0.070743699457    0.064863918702    0.000013418963    -0.000022336880
            0.000020517904    -0.000011976986    -0.100680856686    0.004115608117    0.000020720588    -0.000013386548    -0.075825471867    0.002479990240
            -0.070743700195    0.064863919378    0.000020720578    -0.000013386551    -0.087644516277    0.075581258963    0.000020635814    -0.000026789682
            0.000013418966    -0.000022336872    -0.075825512247    0.002480071049    0.000020635820    -0.000026789682    -0.100608132954    0.002031445716
0.475     -0.066830696558    0.107330253478    0.000016748987    -0.000017989588    -0.057011029210    0.091656933148    0.000006124392    -0.000025487447
            0.000016748992    -0.000017989590    -0.098321362565    0.033606666926    0.000016807162    -0.000019342318    -0.076769978763    0.026629553887
            -0.057011029210    0.091656933148    0.000016807156    -0.000019342360    -0.068737312157    0.105731123110    0.000012325023    -0.000031780561
            0.000006124398    -0.000025487444    -0.076770000874    0.026629636612    0.000012325032    -0.000031780559    -0.098628411452    0.031397190679
0.500     -0.039577514525    0.130796504592    0.000011249079    -0.000022699575    -0.035892082252    0.113919994711    -0.000001698947    -0.000026239730
            0.000011249084    -0.000022699580    -0.087927920296    0.061954025273    0.000011192786    -0.000024038443    -0.070985841352    0.050810752199
            -0.035892085257    0.113920004249    0.000011192754    -0.000024038523    -0.041813504786    0.129588473935    0.000002997033    -0.000034147697
            -0.000001698944    -0.000026239732    -0.070985842165    0.050810752781    0.000002997026    -0.000034147796    -0.088647755993    0.059729148867
0.525     -0.006655080927    0.145777238857    0.000004498816    -0.000025646752    -0.009050245361    0.129650016770    -0.000009280103    -0.000024631512
            0.000004498819    -0.000025646756    -0.070028200049    0.086909587207    0.000004318320    -0.000027020429    -0.058628145877    0.073093363844
            -0.009050250583    0.129650026430    0.000004318315    -0.000027020422    -0.009099321097    0.145052414281    -0.000006529304    -0.000033792565
            -0.000009280108    -0.000024631510    -0.058628116504    0.073093457911    -0.000006529304    -0.000033792565    -0.071160334973    0.084789294494
0.550     0.029216623585    0.151012267134    -0.000002926112    -0.000026551546    0.021387067024    0.137471393503    -0.000015957636    -0.000020926109
            -0.000002926169    -0.000026551619    -0.045777116026    0.106468367591    -0.000003275054    -0.000027994156    -0.040403625719    0.091676350287
            0.021387067024    0.137471393503    -0.000003275057    -0.000027994151    0.026711689685    0.150824432250    -0.000015502430    -0.000030854402
            -0.000015957634    -0.000020926113    -0.040403625719    0.091676350287    -0.000015502428    -0.000030854412    -0.047284487730    0.104572542126
0.575     0.065139511674    0.146091252256    -0.000010419093    -0.000025314773    0.053050809898    0.136678737083    -0.000021211636    -0.000015545024
            -0.000010419095    -0.000025314779    -0.016847410050    0.119031017927    -0.000011008462    -0.000026831799    -0.017494620064    0.105028051383
            0.053050809898    0.136678737083    -0.000011008501    -0.000026831813    0.062735615932    0.146450019964    -0.000023278464    -0.000025652066
            -0.000021211637    -0.000015545025    -0.017494620064    0.105028051383    -0.000023278499    -0.000025652105    -0.018657942958    0.117468282732
0.600     0.098281859580    0.131419947462    -0.000017390951    -0.000022002133    0.083522943502    0.127236497257    -0.000024698300    -0.000008996437
            -0.000017390955    -0.000022002138    0.014715394250    0.123529737010    -0.000018304214    -0.000023559624    0.008543787452    0.112010416529
            0.083522941281    0.127236498715    -0.000018304296    -0.000023559645    0.096142078581    0.132287050877    -0.000029358242    -0.000018626657
            -0.000024698299    -0.000008996437    0.008543787452    0.112010416529    -0.000029358327    -0.000018626697    0.012705336459    0.122386928710
0.625     0.126065151701    0.108125039458    -0.000023302304    -0.000016818798    0.110480882382    0.109721069026    -0.000026231869    -0.000001826223
            -0.000023302311    -0.000016818803    0.046657380103    0.119493186040    -0.000024618546    -0.000018337803    0.035910197726    0.111944267471
            0.110480882382    0.109721069026    -0.000024618538    -0.000018337797    0.124341016627    0.109415207302    -0.000033381099    -0.000010296369
            -0.000026231828    -0.000001826220    0.035910197726    0.111944267471    -0.000033381102    -0.000010296370    0.044576325811    0.118827532933
0.650     0.146311965432    0.077947336907    -0.000027684156    -0.000010088884    0.131823040080    0.085273132489    -0.000025772333    0.000005433408
            -0.000027684248    -0.000010088879    0.076689189338    0.107072398380    -0.000029458045    -0.000011448067    0.062692064781    0.104656522311
            0.131823040080    0.085273132489    -0.000029458040    -0.000011448065    0.145130296238    0.079532122716    -0.000035122896    -0.000001215980
            -0.000025772333    0.000005433408    0.062692064781    0.104656522311    -0.000035122900    -0.000001215981    0.074681341822    0.106904151721
0.675     0.157347793539    0.043127478524    -0.000030150512    -0.000002237517    0.145757983086    0.055537364387    -0.000023399421    0.000012276720
            -0.000030150562    -0.000002237505    0.102642901554    0.087014388800    -0.000032394958    -0.000003280735    0.086990962261    0.090474631321
            0.145757992431    0.055537367947    -0.000032394950    -0.000003280728    0.156799761178    0.044840780930    -0.000034483270    0.000008037890
            -0.000023399385    0.000012276706    0.086990962261    0.090474631321    -0.000034483277    0.000008037885    0.100858180605    0.087323379253
0.700     0.158101703109    0.006292868427    -0.000030414826    0.000006219079    0.150922679286    0.022611253734    -0.000019292002    0.000018247590
            -0.000030414834    0.000006219081    0.122621684632    0.060606476306    -0.000033086297    0.000005666213    0.107053409638    0.070210103079
            0.150922679286    0.022611253734    -0.000033086291    0.000005666206    0.158231075469    0.007940719614    -0.000031479821    0.000016886888
            -0.000019292007    0.000018247588    0.107053409638    0.070210103079    -0.000031479828    0.000016886891    0.121203942618    0.061330902501
0.725     0.148190197619    -0.029661731292    -0.000028309654    0.000014683967    0.146486517089    -0.011022495427    -0.000013721408    0.000022937012
            -0.000028309688    0.000014683997    0.135117731187    0.029588698829    -0.000031298635    0.000014794616    0.121372431222    0.045104598978
            0.146486517089    -0.011022495427    -0.000031298688    0.000014794675    0.148984910347    -0.028289842059    -0.000026252850    0.000024755946
            -0.000013721402    0.000022937011    0.121372431222    0.045104598978    -0.000026252855    0.000024755942    0.134194369064    0.030626214774
0.750     0.128014460349    -0.061728237357    -0.000023819235    0.000022495927    0.132300780969    -0.042609912716    -0.000007041564    0.000025998573
            -0.000023819240    0.000022495931    0.139117923248    -0.003957797393    -0.000026948796    0.000023416745    0.128799269367    0.016762253333
            0.132300780969    -0.042609912716    -0.000026948781    0.000023416740    0.129399281126    -0.060842539189    -0.000019071312    0.000031094272
            -0.000007041559    0.000025998572    0.128799269396    0.016762253108    -0.000019071321    0.000031094274    0.138787833319    -0.002744670959
0.775     0.098833264176    -0.086980345515    -0.000017112766    0.000028961735    0.109020690433    -0.069290295496    0.000000302993    0.000027161631
            -0.000017112768    0.000028961739    0.134173179318    -0.037738650737    -0.000020144980    0.000030787641    0.128617226381    -0.012940548014
            0.109020694112    -0.069290252421    -0.000020144969    0.000030787636    0.100667526906    -0.086771977323    -0.000010348272    0.000035402046
