# GHz S RI R 45
0.000     0.021755964000    0.000000000000    -0.000023650454    0.000000000000    0.000606240040    0.000000000000    -0.000029300070    0.000000000000
            -0.000023649851    0.000000000000    0.022162781000    0.000000000000    -0.000019071781    0.000000000000    0.000460732910    0.000000000000
            0.000606236510    0.000000000000    -0.000019071441    0.000000000000    0.021709563000    0.000000000000    -0.000028728567    0.000000000000
            -0.000029299681    0.000000000000    0.000460708140    0.000000000000    -0.000028728927    0.000000000000    0.022106549000    0.000000000000
0.025     0.027686092176    0.010332329419    -0.000038942683    -0.000060093487    0.003159645671    0.010770777771    -0.000043490318    -0.000068938060
            -0.000038942291    -0.000060093548    0.026965332273    0.010457884232    -0.000049998045    -0.000063452598    0.002066756775    0.011418597668
            0.003159621213    0.010770826632    -0.000049997371    -0.000063452722    0.027623580389    0.010324017812    -0.000055650644    -0.000068164811
            -0.000043489889    -0.000068938127    0.002066608250    0.011418426382    -0.000055651002    -0.000068164740    0.026888587570    0.010428076833
0.050     0.036016556717    0.014841193489    -0.000077763649    -0.000109658883    0.010010887833    0.019416964867    -0.000087642345    -0.000129758837
            -0.000077763179    -0.000109659032    0.032322537619    0.016170636522    -0.000091305964    -0.000099477245    0.006736899267    0.021692561892
            0.010010874196    0.019416977523    -0.000091305330    -0.000099477460    0.035959053639    0.014863155600    -0.000100221363    -0.000114208566
            -0.000087641887    -0.000129758990    0.006736904088    0.021692552018    -0.000100221741    -0.000114208434    0.032195045645    0.016152115533
0.075     0.046088707522    0.015267249309    -0.000136251439    -0.000140410142    0.020003540002    0.024410764489    -0.000156778351    -0.000168169915
            -0.000136251086    -0.000140410317    0.038066252227    0.019693704045    -0.000143942644    -0.000120497673    0.013697543298    0.029787458394
            0.020003531065    0.024410769226    -0.000143942131    -0.000120497927    0.046065732773    0.015313267499    -0.000161575889    -0.000141659294
            -0.000156777975    -0.000168170101    0.013697523115    0.029787461071    -0.000161576282    -0.000141659089    0.037885272389    0.019719153769
0.100     0.056506182332    0.010813711521    -0.000205551311    -0.000148547948    0.031468403215    0.024748120788    -0.000239506616    -0.000179605877
            -0.000205550956    -0.000148548183    0.043649249290    0.020894049792    -0.000204515153    -0.000122755765    0.021931164852    0.035161675745
            0.031468402705    0.024748123053    -0.000204514686    -0.000122756115    0.056541524016    0.010873382227    -0.000233227274    -0.000146346931
            -0.000239506269    -0.000179606140    0.021931139837    0.035161680740    -0.000233227588    -0.000146346731    0.043425628115    0.020998753445
0.125     0.065228273395    0.001429111707    -0.000277850610    -0.000132942847    0.042485517995    0.020102604626    -0.000326450185    -0.000162558365
            -0.000277850330    -0.000132943130    0.048157991866    0.020061896193    -0.000266997661    -0.000104638680    0.030328839128    0.037705035601
            0.042485518750    0.020102607706    -0.000266997218    -0.000104639097    0.065344215140    0.001483332093    -0.000307638638    -0.000126486352
            -0.000326449843    -0.000162558692    0.030328815750    0.037705041571    -0.000307638999    -0.000126485998    0.047917853437    0.020275334622
0.150     0.070378117753    -0.012216728021    -0.000346661521    -0.000095341933    0.051141937235    0.010862271186    -0.000409766228    -0.000118831594
            -0.000346661512    -0.000095341930    0.050755553547    0.017780045664    -0.000325759774    -0.000067520962    0.037859587809    0.037725401896
            0.051141937645    0.010862274072    -0.000325759772    -0.000067521021    0.070595312887    -0.012192739452    -0.000377971337    -0.000083646683
            -0.000409765672    -0.000118832363    0.037859560114    0.037725409855    -0.000377971332    -0.000083646751    0.050547822528    0.018121846650
0.175     0.070270075956    -0.028670728142    -0.000407277386    -0.000038265904    0.055754740563    -0.001926009871    -0.000483540003    -0.000051222571
            -0.000407276918    -0.000038266720    0.050985004060    0.015059725556    -0.000376709158    -0.000013466219    0.043690629956    0.035885779694
            0.055754742632    -0.001926007896    -0.000376708932    -0.000013466672    0.070602140773    -0.028714538970    -0.000439084587    -0.000020233915
            -0.000483539780    -0.000051223060    0.043690607531    0.035885788091    -0.000439084607    -0.000020233916    0.050865340795    0.015526456191
0.200     0.063862279107    -0.045924520058    -0.000456688897    0.000035710504    0.055083279573    -0.016662569314    -0.000543790462    0.000037243358
            -0.000456688577    0.000035709597    0.048784309688    0.013023333448    -0.000417106684    0.000055192147    0.047311029068    0.033116160053
            0.055083282069    -0.016662567970    -0.000417106363    0.000055191216    0.064311451118    -0.046082851419    -0.000487446914    0.000060940919
            -0.000543790472    0.000037243359    0.047311003727    0.033116171843    -0.000487447244    0.000060941910    0.048807147785    0.013586719828
0.225     0.050850814273    -0.061662734826    -0.000492281533    0.000124721622    0.048487336980    -0.031358434021    -0.000586991522    0.000144123003
            -0.000492281523    0.000124721619    0.044538243336    0.012764562464    -0.000444568465    0.000136754802    0.048605732425    0.030478244147
            0.048487339206    -0.031358434261    -0.000444568383    0.000136754353    0.051403000158    -0.061988434851    -0.000519933657    0.000157601738
            -0.000586991380    0.000144121991    0.048605711619    0.030478254739    -0.000519933686    0.000157601747    0.044746266460    0.013371949208
0.250     0.031765992182    -0.073513866398    -0.000511233253    0.000227513400    0.036048211956    -0.043850449430    -0.000609542391    0.000267480192
            -0.000511233253    0.000227513400    0.039056897073    0.015204518573    -0.000456536800    0.000229878018    0.047892390737    0.029016065781
            0.036048213991    -0.043850450346    -0.000456536800    0.000229878018    0.032387162534    -0.074059779554    -0.000533400046    0.000267760400
            -0.000609542389    0.000267479176    0.047892374430    0.029016075328    -0.000533400055    0.000267760405    0.039471397785    0.015784968343
0.275     0.007959386278    -0.079324204889    -0.000509431259    0.000342531685    0.018613185902    -0.052044990479    -0.000606593186    0.000404885952
            -0.000509431259    0.000342531685    0.033504377427    0.020915317516    -0.000449394487    0.000332928350    0.045892974291    0.029585248328
            0.018613192026    -0.052044990413    -0.000449394632    0.000332927364    0.008594390667    -0.080135691165    -0.000523679866    0.000388975435
            -0.000606593285    0.000404885407    0.045892951621    0.029585263194    -0.000523679871    0.000388975864    0.034117050310    0.021388584241
0.300     -0.018471159083    -0.077454412850    -0.000481677427    0.000466886971    -0.002238804036    -0.054196759536    -0.000572353691    0.000552394001
            -0.000481677406    0.000466886950    0.029256762191    0.030002819895    -0.000418716380    0.000442991203    0.043650232461    0.032704117374
            -0.002238802226    -0.054196761613    -0.000418716675    0.000442990277    -0.017898098094    -0.078560926553    -0.000485947642    0.000517404401
            -0.000572353698    0.000552394008    0.043650218985    0.032704128689    -0.000485947359    0.000517405367    0.030026990931    0.030291898390
0.325     -0.044879743465    -0.067025983201    -0.000422294884    0.000594918155    -0.024333429565    -0.049160299497    -0.000500768449    0.000703019628
            -0.000422295161    0.000594917665    0.027710276212    0.042016461891    -0.000359810072    0.000554770686    0.042370974787    0.038430124092
            -0.024333430452    -0.049160301290    -0.000359810466    0.000554769810    -0.044459088324    -0.068432356805    -0.000415301785    0.000646601833
            -0.000500768907    0.000703018712    0.042370938078    0.038430154146    -0.000415301785    0.000646601833    0.028566412361    0.042060962745
0.350     -0.068363118290    -0.048123182165    -0.000326886586    0.000717801014    -0.045144085215    -0.036607187231    -0.000387411850    0.000846459543
            -0.000326886574    0.000717800986    0.030059141487    0.055967473538    -0.000269302286    0.000660268421    0.043234712844    0.046319456003
            -0.045144085992    -0.036607187861    -0.000269302897    0.000660267610    -0.068191739061    -0.049802697738    -0.000308474245    0.000767328246
            -0.000387412393    0.000846458777    0.043234715952    0.046319454471    -0.000308474390    0.000767328220    0.030906238444    0.055736635207
0.375     -0.086120146012    -0.021850083714    -0.000194241122    0.000823767294    -0.062103792816    -0.017123938030    -0.000231497871    0.000969370289
            -0.000194241713    0.000823766580    0.037077021628    0.070418819308    -0.000146723421    0.000749116392    0.047175393035    0.055460070834
            -0.062103794744    -0.017123938561    -0.000146724096    0.000749115679    -0.086289224336    -0.023741587339    -0.000165490675    0.000867915181
            -0.000231497871    0.000969370289    0.047175360133    0.055460102760    -0.000165490673    0.000867915171    0.037809953823    0.069919313697
0.400     -0.095838773707    0.009740676630    -0.000027985058    0.000899981435    -0.072965966464    0.007812766794    -0.000037566927    0.001057477527
            -0.000027985010    0.000899981417    0.048961270600    0.083688591721    0.000004100522    0.000810265654    0.054713529838    0.064615386229
            -0.072965967458    0.007812766901    0.000004100593    0.000810265734    -0.096420587690    0.007731377416    0.000008913933    0.000936175063
            -0.000037566927    0.001057477527    0.054713533221    0.064615383364    0.000008913933    0.000936175043    0.049479885290    0.082968169253
0.425     -0.096011805819    0.043884990444    0.000162913393    0.000934848450    -0.076105479073    0.036013709919    0.000184036519    0.001098030200
            0.000162912979    0.000934848197    0.065262650988    0.094090133309    0.000174783473    0.000834035185    0.065847625553    0.072414045259
            -0.076105470813    0.036013657238    0.000174782662    0.000834034721    -0.097048102628    0.041877948562    0.000205062478    0.000961564380
            0.000184035711    0.001098029727    0.065847627408    0.072414042221    0.000205062865    0.000961564635    0.065488218199    0.093233017054
0.450     -0.086152055284    0.077451563329    0.000365118845    0.000920690390    -0.070743699457    0.064863918702    0.000418292616    0.001082679741
            0.000365118848    0.000920690303    0.084942700090    0.100192816655    0.000353330041    0.000814387815    0.080063039272    0.077578722715
            -0.070743700195    0.064863919378    0.000353329159    0.000814387533    -0.087644516277    0.075581258963    0.000409441837    0.000937644572
            0.000418292616    0.001082679741    0.080063034798    0.077578712962    0.000409441837    0.000937644572    0.084830430740    0.099309415503
0.475     -0.066830696558    0.107330253478    0.000563033884    0.000855288288    -0.057011029210    0.091656933148    0.000647797833    0.001009095081
            0.000563033395    0.000855288131    0.106515510090    0.101017999378    0.000526105571    0.000750150152    0.096413254021    0.079104109507
            -0.057011029210    0.091656933148    0.000526105102    0.000750150041    -0.068737312157    0.105731123110    0.000606829840    0.000863339116
            0.000647797353    0.001009094914    0.096413249051    0.079104099799    0.000606830754    0.000863339329    0.106062924132    0.100231027962
0.500     -0.039577514525    0.130796504592    0.000741507011    0.000742338518    -0.035892082252    0.113919994711    0.000855701912    0.000881406211
            0.000741506101    0.000742338436    0.128266418429    0.096161137118    0.000680193774    0.000645246737    0.113679802881    0.076387307287
            -0.035892085257    0.113920004249    0.000680192842    0.000645246688    -0.041813504786    0.129588473935    0.000782877336    0.000743157305
            0.000855701927    0.000881406196    0.113679802881    0.076387307287    0.000782877264    0.000743157236    0.127513495535    0.095588648726
0.525     -0.006655080927    0.145777238857    0.000888094859    0.000590409062    -0.009050245361    0.129650016770    0.001028154127    0.000709073117
            0.000888094797    0.000590408976    0.148463327386    0.085803519899    0.000805320951    0.000507617697    0.130529751558    0.069264298915
            -0.009050250583    0.129650026430    0.000805320041    0.000507617772    -0.009099321097    0.145052414281    0.000926176185    0.000586014894
            0.001028153212    0.000709073387    0.130529751558    0.069264298915    0.000926176825    0.000586015005    0.147490505737    0.085546013363
0.550     0.029216623585    0.151012267134    0.000994632391    0.000411241659    0.021387067024    0.137471393503    0.001155987861    0.000505012105
            0.000994632391    0.000411241659    0.165559745957    0.070658373689    0.000895057178    0.000347649125    0.145676848011    0.057998219754
            0.021387067024    0.137471393503    0.000895057184    0.000347649110    0.026711689685    0.150824432250    0.001029577249    0.000403495701
            0.001155987770    0.000505012065    0.145676840745    0.057998210970    0.001029578177    0.000403495526    0.164477470967    0.070784741076
0.575     0.065139511674    0.146091252256    0.001057610272    0.000217703116    0.053050809898    0.136678737083    0.001235150136    0.000283375392
            0.001057610178    0.000217703077    0.178323932806    0.051855300860    0.000946992390    0.000176351146    0.157985602742    0.043214321344
            0.053050809898    0.136678737083    0.000946991987    0.000176351344    0.062735615932    0.146450019964    0.001090384200    0.000207865409
            0.001235149340    0.000283375732    0.157985558561    0.043214407060    0.001090384295    0.000207865446    0.177262296028    0.052396082590
0.600     0.098281859580    0.131419947462    0.001077952530    0.000022038861    0.083522943502    0.127236497257    0.001266420949    0.000057613896
            0.001077952530    0.000022038839    0.185934909876    0.030812868983    0.000962370072    0.000003928539    0.166562740801    0.025832429349
            0.083522941281    0.127236498715    0.000962369290    0.000003928976    0.096142078581    0.132287050877    0.001109938490    0.000010473159
            0.001266420849    0.000057613901    0.166562732452    0.025832417932    0.001109939194    0.000010472746    0.185030318490    0.031755479275
0.625     0.126065151701    0.108125039458    0.001060080311    -0.000165459242    0.110480882382    0.109721069026    0.001254392078    -0.000160977454
            0.001060080307    -0.000165459266    0.188014706146    0.009108281497    0.000945163677    -0.000161272078    0.170799245310    0.006985861408
            0.110480882382    0.109721069026    0.000945163697    -0.000161272079    0.124341016627    0.109415207302    0.001092602508    -0.000179423712
            0.001254388713    -0.000160974603    0.170799245310    0.006985861408    0.001092603454    -0.000179424124    0.187396087793    0.010395261216
0.650     0.146311965432    0.077947336907    0.001010941347    -0.000337360533    0.131823040080    0.085273132489    0.001206324503    -0.000364234779
            0.001010941102    -0.000337359373    0.184650122454    -0.011643803609    0.000901205855    -0.000313361578    0.170424669231    -0.012045885708
            0.131823040080    0.085273132489    0.000901205837    -0.000313361572    0.145130296238    0.079532122716    0.001044744014    -0.000355311175
            0.001206325409    -0.000364234892    0.170424669000    -0.012045888980    0.001044744397    -0.000355310980    0.184426054831    -0.010109532634
0.675     0.157347793539    0.043127478524    0.000938729702    -0.000489572632    0.145757983086    0.055537364387    0.001130760273    -0.000547628787
            0.000938729667    -0.000489572697    0.176377243950    -0.029898135242    0.000837110201    -0.000449179205    0.165530170598    -0.029917324316
            0.145757992431    0.055537367947    0.000837109927    -0.000449178869    0.156799761178    0.044840780930    0.000973517703    -0.000513711958
            0.001130757700    -0.000547625153    0.165530158749    -0.029917277423    0.000973517711    -0.000513711941    0.176623397109    -0.028248855425
0.700     0.158101703109    0.006292868427    0.000851702262    -0.000621624166    0.150922679286    0.022611253734    0.001036153834    -0.000710424389
            0.000851702181    -0.000621624107    0.164175939107    -0.044293490910    0.000759358915    -0.000568389679    0.156617458870    -0.045306014234
            0.150922679286    0.022611253734    0.000759358497    -0.000568388870    0.158231075469    0.007940719614    0.000885825757    -0.000654216064
            0.001036153834    -0.000710424389    0.156617424164    -0.045305918290    0.000885825768    -0.000654216048    0.164923860470    -0.042684921030
0.725     0.148190197619    -0.029661731292    0.000756670995    -0.000736436528    0.146486517089    -0.011022495427    0.000929310079    -0.000855415646
            0.000756670982    -0.000736436542    0.149426632426    -0.053768420457    0.000673155578    -0.000673231621    0.144603427902    -0.057033303382
            0.146486517089    -0.011022495427    0.000673155583    -0.000673231602    0.148984910347    -0.028289842059    0.000787046376    -0.000779105007
            0.000929310064    -0.000855415663    0.144603402945    -0.057033203130    0.000787046318    -0.000779104923    0.150654524037    -0.052367614410
0.750     0.128014460349    -0.061728237357    0.000657541036    -0.000839721890    0.132300780969    -0.042609912716    0.000813863798    -0.000988075010
            0.000657541050    -0.000839721879    0.133854535515    -0.057699299141    0.000581345538    -0.000767980829    0.130820965599    -0.064211498998
            0.132300780969    -0.042609912716    0.000581345511    -0.000767980849    0.129399281126    -0.060842539189    0.000679959454    -0.000892692432
            0.000813863780    -0.000988075024    0.130820956576    -0.064211403903    0.000679959469    -0.000892692420    0.135483693927    -0.056664341005
0.775     0.098833264176    -0.086980345515    0.000553856279    -0.000938389406    0.109020690433    -0.069290295496    0.000688905839    -0.001114826266
            0.000553856279    -0.000938389406    0.119402724793    -0.056035189445    0.000483319859    -0.000857661709    0.116923742113    -0.066415789402
            0.109020694112    -0.069290252421    0.000483319859    -0.000857661709    0.100667526906    -0.086771977323    0.000563652278    -0.000999852559
            0.000688905839    -0.001114826266    0.116923735734    -0.066415739892    0.000563652295    -0.000999852549    0.121298114957    -0.055496049165
