# GHz S RI R 45
0.000     0.021755964000    0.000000000000    -0.000001918030    0.000000000000    0.000606240040    0.000000000000    -0.000002011323    0.000000000000
            -0.000001918046    0.000000000000    0.022594448000    0.000000000000    0.000033375535    -0.000000000000    0.000570466160    0.000000000000
            0.000606236510    0.000000000000    0.000033375437    -0.000000000000    0.021709563000    0.000000000000    -0.000002960986    0.000000000000
            -0.000002011324    0.000000000000    0.000570384460    0.000000000000    -0.000002960995    0.000000000000    0.022527916000    0.000000000000
0.025     0.027686092176    0.010332329419    0.000001671059    -0.000000169430    0.003159645671    0.010770777771    0.000000259651    -0.000001196333
            0.000001671050    -0.000000169425    0.027369792432    0.010006130627    -0.000010696124    -0.000027417651    0.002320989819    0.010889665689
            0.003159621213    0.010770826632    -0.000010696143    -0.000027417644    0.027623580389    0.010324017812    0.000003091063    0.000001525787
            0.000000259652    -0.000001196332    0.002320783330    0.010889504183    0.000003091052    0.000001525793    0.027312354274    0.010036408220
0.050     0.036016556717    0.014841193489    0.000001055193    -0.000004342558    0.010010887833    0.019416964867    -0.000000729062    -0.000004882528
            0.000001055177    -0.000004342554    0.032752813996    0.015063246236    -0.000025324269    -0.000009365466    0.006978357054    0.020445953975
            0.010010874196    0.019416977523    -0.000025324270    -0.000009365466    0.035959053639    0.014863155600    0.000003690863    -0.000003428129
            -0.000000729054    -0.000004882530    0.006978305987    0.020445950271    0.000003690854    -0.000003428126    0.032716390695    0.015142837621
0.075     0.046088707522    0.015267249309    -0.000001690851    -0.000006946970    0.020003540002    0.024410764489    -0.000003682812    -0.000007242750
            -0.000001690866    -0.000006946964    0.038410341779    0.017904209013    -0.000025141359    0.000002672076    0.013810967842    0.027805761969
            0.020003531065    0.024410769226    -0.000025141359    0.000002672076    0.046065732773    0.015313267499    0.000001419351    -0.000006783538
            -0.000003682812    -0.000007242750    0.013810893551    0.027805773188    0.000001419343    -0.000006783533    0.038424000569    0.018019380920
0.100     0.056506182332    0.010813711521    -0.000005331176    -0.000007997238    0.031468403215    0.024748120788    -0.000007454669    -0.000008100363
            -0.000005331187    -0.000007997231    0.043818996831    0.018400318166    -0.000021215916    0.000010012866    0.021813588175    0.032428618134
            0.031468402705    0.024748123053    -0.000021215916    0.000010012866    0.056541524016    0.010873382227    -0.000001962255    -0.000008623192
            -0.000007454672    -0.000008100361    0.021813509738    0.032428634740    -0.000001962255    -0.000008623192    0.043901272848    0.018525891401
0.125     0.065228273395    0.001429111707    -0.000009152028    -0.000007574558    0.042485517995    0.020102604626    -0.000011410499    -0.000007497578
            -0.000009152013    -0.000007574543    0.048056667825    0.016795341643    -0.000016352429    0.000013882556    0.029872837213    0.034198451968
            0.042485518750    0.020102607706    -0.000016352430    0.000013882556    0.065344215140    0.001483332093    -0.000005714205    -0.000009075440
            -0.000011410501    -0.000007497576    0.029872759810    0.034198471779    -0.000005714211    -0.000009075432    0.048214493550    0.016899031884
0.150     0.070378117753    -0.012216728021    -0.000012737424    -0.000005826416    0.051141937235    0.010862271186    -0.000015141622    -0.000005562716
            -0.000012737436    -0.000005826403    0.050269994994    0.013733172572    -0.000011746099    0.000015356826    0.036935318266    0.033423771724
            0.051141937645    0.010862274072    -0.000011746156    0.000015356906    0.070595312887    -0.012192739452    -0.000009485837    -0.000008259627
            -0.000015141623    -0.000005562714    0.036935233406    0.033423796942    -0.000009485840    -0.000008259621    0.050500109169    0.013782565386
0.175     0.070270075956    -0.028670728142    -0.000015744628    -0.000002972696    0.055754740563    -0.001926009871    -0.000018317767    -0.000002485293
            -0.000015744638    -0.000002972681    0.049968261062    0.010194843005    -0.000008110778    0.000015223899    0.042140243109    0.030775884812
            0.055754742632    -0.001926007896    -0.000008110823    0.000015223984    0.070602140773    -0.028714538970    -0.000012965210    -0.000006323146
            -0.000018317767    -0.000002485290    0.042140168095    0.030775911227    -0.000012965212    -0.000006323142    0.050254312918    0.010156473314
0.200     0.063862279107    -0.045924520058    -0.000017967852    0.000000780494    0.055083279573    -0.016662569314    -0.000020724566    0.000001552657
            -0.000017967861    0.000000780510    0.047039215614    0.007313734539    -0.000005666766    0.000014297770    0.044939899422    0.027208401222
            0.055083282069    -0.016662567970    -0.000005666799    0.000014297861    0.064311451118    -0.046082851419    -0.000015948728    -0.000003369225
            -0.000020724566    0.000001552661    0.044939825975    0.027208431784    -0.000015948731    -0.000003369217    0.047351560206    0.007159121204
0.225     0.050850814273    -0.061662734826    -0.000019234402    0.000005214424    0.048487336980    -0.031358434021    -0.000022168774    0.000006359951
            -0.000019234407    0.000005214436    0.041818291753    0.006224622272    -0.000004454993    0.000013282937    0.045185598172    0.023825205364
            0.048487339206    -0.031358434261    -0.000004455002    0.000013282986    0.051403000158    -0.061988434851    -0.000018225481    0.000000476834
            -0.000022168773    0.000006359955    0.045185526189    0.023825238969    -0.000018225482    0.000000476837    0.042115459506    0.005935028121
0.250     0.031765992182    -0.073513866398    -0.000019406415    0.000010143785    0.036048211956    -0.043850449430    -0.000022478039    0.000011763781
            -0.000019406418    0.000010143783    0.035073716004    0.007918407274    -0.000004146459    0.000012729027    0.043169061900    0.021733726571
            0.036048213991    -0.043850450346    -0.000004146458    0.000012729122    0.032387162534    -0.074059779554    -0.000019582926    0.000005110081
            -0.000022478037    0.000011763785    0.043168983726    0.021733768433    -0.000019582927    0.000005110078    0.035305538331    0.007489624462
0.275     0.007959386278    -0.079324204889    -0.000018334102    0.000015339201    0.018613185902    -0.052044990479    -0.000021459664    0.000017535455
            -0.000018334101    0.000015339200    0.027951591364    0.013062670679    -0.000004330682    0.000013050847    0.039607501499    0.021871972432
            0.018613192026    -0.052044990413    -0.000004330673    0.000013050895    0.008594390667    -0.080135691165    -0.000019776162    0.000010350144
            -0.000021459664    0.000017535455    0.039607433654    0.021872012546    -0.000019776161    0.000010350153    0.028064332089    0.012508814759
0.300     -0.018471159083    -0.077454412850    -0.000015874471    0.000020531188    -0.002238804036    -0.054196759536    -0.000018929283    0.000023385355
            -0.000015874446    0.000020531282    0.021843713632    0.021876409237    -0.000004433068    0.000014332024    0.035567808006    0.024853166563
            -0.002238802226    -0.054196761613    -0.000004433042    0.000014332116    -0.017898098094    -0.078560926553    -0.000018551495    0.000015941628
            -0.000018929278    0.000023385358    0.035567741724    0.024853210789    -0.000018551498    0.000015941624    0.021787002637    0.021232043100
0.325     -0.044879743465    -0.067025983201    -0.000011931939    0.000025341298    -0.024333429565    -0.049160299497    -0.000014756115    0.000028899903
            -0.000011931941    0.000025341291    0.018208942678    0.034026147636    -0.000003893454    0.000016494938    0.032320675880    0.030829956420
            -0.024333430452    -0.049160301290    -0.000003893430    0.000016494978    -0.044459088324    -0.068432356805    -0.000015707813    0.000021484051
            -0.000014756108    0.000028899902    0.032320612665    0.030830003857    -0.000015707817    0.000021484048    0.017943516830    0.033345081387
0.350     -0.068363118290    -0.048123182165    -0.000006518293    0.000029317042    -0.045144085215    -0.036607187231    -0.000008932825    0.000033578510
            -0.000006518297    0.000029317036    0.018351941795    0.048623573293    -0.000002292678    0.000019120314    0.031149001542    0.039436484137
            -0.045144085992    -0.036607187861    -0.000002292677    0.000019120306    -0.068191739061    -0.049802697738    -0.000011162202    0.000026468002
            -0.000008932824    0.000033578508    0.031148940216    0.039436533850    -0.000011162202    0.000026468002    0.017857345157    0.047975210316
0.375     -0.086120146012    -0.021850083714    0.000000172439    0.000031955184    -0.062103792816    -0.017123938030    -0.000001650544    0.000036865526
            0.000000172467    0.000031955216    0.023201987462    0.064293523158    0.000000628093    0.000021695752    0.033126834440    0.049802721281
            -0.062103794744    -0.017123938561    0.000000628092    0.000021695747    -0.086289224336    -0.023741587339    -0.000005040874    0.000030309239
            -0.000001650543    0.000036865521    0.033126761910    0.049802787540    -0.000005040873    0.000030309243    0.022483096997    0.063755430506
0.400     -0.095838773707    0.009740676630    0.000007746645    0.000032813472    -0.072965966464    0.007812766794    0.000006680465    0.000038268631
            0.000007746643    0.000032813477    0.033137443299    0.079357596475    0.000004788932    0.000023602615    0.038931976502    0.060681403750
            -0.072965967458    0.007812766901    0.000004788936    0.000023602611    -0.096420587690    0.007731377416    0.000002300018    0.000032466495
            0.000006680468    0.000038268630    0.038931907351    0.060681473066    0.000002300018    0.000032466493    0.032226600986    0.079005987203
0.425     -0.096011805819    0.043884990444    0.000015623658    0.000031600431    -0.076105479073    0.036013709919    0.000015450187    0.000037455246
            0.000015623652    0.000031600432    0.047892134840    0.092063079730    0.000009910374    0.000024336129    0.048717554734    0.070631113222
            -0.076105470813    0.036013657238    0.000009910414    0.000024336151    -0.097048102628    0.041877948562    0.000010282713    0.000032549365
            0.000015450189    0.000037455243    0.048717490130    0.070631185723    0.000010282713    0.000032549364    0.046848667088    0.091962457862
0.450     -0.086152055284    0.077451563329    0.000023136274    0.000028263916    -0.070743699457    0.064863918702    0.000023951875    0.000034345847
            0.000023136358    0.000028263954    0.066580594266    0.100848728229    0.000015471709    0.000023573460    0.062091608246    0.078249368919
            -0.070743700195    0.064863919378    0.000015471794    0.000023573494    -0.087644516277    0.075581258963    0.000018212319    0.000030414042
            0.000023951877    0.000034345845    0.062091547551    0.078249443889    0.000018212327    0.000030414043    0.065485782244    0.101041516897
0.475     -0.066830696558    0.107330253478    0.000029635007    0.000023008090    -0.057011029210    0.091656933148    0.000031495059    0.000029129950
            0.000029635016    0.000023008082    0.087818591045    0.104553804980    0.000020931774    0.000021235210    0.078181948286    0.082367532947
            -0.057011029210    0.091656933148    0.000020931770    0.000021235206    -0.068737312157    0.105731123110    0.000025387894    0.000026194038
            0.000031495060    0.000029129948    0.078181919231    0.082367574313    0.000025387897    0.000026194037    0.086766415544    0.105055171436
0.500     -0.039577514525    0.130796504592    0.000034609492    0.000016252596    -0.035892082252    0.113919994711    0.000037530110    0.000022225035
            0.000034609492    0.000016252598    0.109922209866    0.102567516098    0.000025767629    0.000017478873    0.095782507355    0.082203723308
            -0.035892085257    0.113920004249    0.000025767629    0.000017478872    -0.041813504786    0.129588473935    0.000031234386    0.000020260679
            0.000037530110    0.000022225035    0.095782462274    0.082203806546    0.000031234387    0.000020260678    0.109010314245    0.103359549006
0.525     -0.006655080927    0.145777238857    0.000037747953    0.000008546113    -0.009050245361    0.129650016770    0.000041711877    0.000014183590
            0.000037747951    0.000008546121    0.131122387813    0.094866342318    0.000029618564    0.000012606457    0.113514966158    0.077422844592
            -0.009050250583    0.129650026430    0.000029618605    0.000012606451    -0.009099321097    0.145052414281    0.000035372693    0.000013140277
            0.000041711877    0.000014183589    0.113514920368    0.077422929475    0.000035372692    0.000013140276    0.130440817427    0.095900605801
0.550     0.029216623585    0.151012267134    0.000038960698    0.000000463374    0.021387067024    0.137471393503    0.000043922736    0.000005589573
            0.000038960699    0.000000463376    0.149770902380    0.081984528854    0.000032277080    0.000007004500    0.129996741604    0.068143541974
            0.021387067024    0.137471393503    0.000032277169    0.000007004479    0.026711689685    0.150824432250    0.000037650363    0.000005404201
            0.000043922736    0.000005589572    0.129996696410    0.068143628191    0.000037650364    0.000005404201    0.149392144352    0.083183669362
0.575     0.065139511674    0.146091252256    0.000038344400    -0.000007475644    0.053050809898    0.136678737083    0.000044235055    -0.000003029263
            0.000038344445    -0.000007475659    0.164487438566    0.064913975944    0.000033702152    0.000001033094    0.143961156587    0.054883810197
            0.053050809898    0.136678737083    0.000033702236    0.000001033071    0.062735615932    0.146450019964    0.000038112918    -0.000002415407
            0.000044235053    -0.000003029265    0.143961112759    0.054883897088    0.000038112961    -0.000002415434    0.164459058629    0.066178447638
0.600     0.098281859580    0.131419947462    0.000036130587    -0.000014864740    0.083522943502    0.127236497257    0.000042858116    -0.000011256648
            0.000036130587    -0.000014864739    0.174269077262    0.044986605069    0.000033964356    -0.000004999261    0.154360159791    0.038499227739
            0.083522941281    0.127236498715    0.000033964356    -0.000004999254    0.096142078581    0.132287050877    0.000036952220    -0.000009893257
            0.000042858116    -0.000011256649    0.154360118211    0.038499311804    0.000036952216    -0.000009893260    0.174606265774    0.046203412050
0.625     0.126065151701    0.108125039458    0.000032621169    -0.000021428577    0.110480882382    0.109721069026    0.000040069711    -0.000018808816
            0.000032621169    -0.000021428577    0.178538988669    0.023748000938    0.000033198697    -0.000010887995    0.160419281697    0.020102096918
            0.110480882382    0.109721069026    0.000033198699    -0.000010887988    0.124341016627    0.109415207302    0.000034442796    -0.000016732486
            0.000040069711    -0.000018808818    0.160419240352    0.020102185583    0.000034442790    -0.000016732487    0.179222137231    0.024798244289
0.650     0.146311965432    0.077947336907    0.000028132801    -0.000027024857    0.131823040080    0.085273132489    0.000036162607    -0.000025531016
            0.000028132804    -0.000027024867    0.177180442491    0.002838626585    0.000031559046    -0.000016513340    0.161697792375    0.000996025048
            0.131823040080    0.085273132489    0.000031559118    -0.000016513398    0.145130296238    0.079532122716    0.000030881825    -0.000022772632
            0.000036162607    -0.000025531018    0.161697792372    0.000996025443    0.000030881816    -0.000022772640    0.178151672337    0.003609780880
0.675     0.157347793539    0.043127478524    0.000022953099    -0.000031621453    0.145757983086    0.055537364387    0.000031396560    -0.000031375267
            0.000022953104    -0.000031621451    0.170533537877    -0.016113941851    0.000029170307    -0.000021843321    0.158122022312    -0.017404082312
            0.145757992431    0.055537367947    0.000029170307    -0.000021843318    0.156799761178    0.044840780930    0.000026542073    -0.000027967610
            0.000031396559    -0.000031375269    0.158122007232    -0.017404036520    0.000026542094    -0.000027967644    0.171698865531    -0.015717794036
0.700     0.158101703109    0.006292868427    0.000017304546    -0.000035271406    0.150922679286    0.022611253734    0.000025969285    -0.000036371785
            0.000017304547    -0.000035271406    0.159401937370    -0.031605595048    0.000026106489    -0.000026897293    0.150040261282    -0.033655140933
            0.150922679286    0.022611253734    0.000026106494    -0.000026897296    0.158231075469    0.007940719614    0.000021630789    -0.000032362611
            0.000025969280    -0.000036371785    0.150040241049    -0.033655048380    0.000021630780    -0.000032362609    0.160634075213    -0.031651948532
0.725     0.148190197619    -0.029661731292    0.000011323448    -0.000038074588    0.146486517089    -0.011022495427    0.000019991834    -0.000040590735
            0.000011323471    -0.000038074638    0.145027560672    -0.042373554008    0.000022356919    -0.000031719753    0.138245283765    -0.046404517170
            0.146486517089    -0.011022495427    0.000022356934    -0.000031719795    0.148984910347    -0.028289842059    0.000016264761    -0.000036051992
            0.000019991837    -0.000040590737    0.138245272571    -0.046404424818    0.000016264757    -0.000036051987    0.146173895326    -0.042889688614
0.750     0.128014460349    -0.061728237357    0.000005043601    -0.000040133489    0.132300780969    -0.042609912716    0.000013480806    -0.000044098875
            0.000005043637    -0.000040133585    0.129055254710    -0.047535160245    0.000017825755    -0.000036330791    0.123992713018    -0.054534662362
            0.132300780969    -0.042609912716    0.000017825772    -0.000036330882    0.129399281126    -0.060842539189    0.000010450189    -0.000039132630
            0.000013480805    -0.000044098871    0.123992713018    -0.054534662362    0.000010450184    -0.000039132620    0.129950077660    -0.048496781636
0.775     0.098833264176    -0.086980345515    -0.000001596991    -0.000041498564    0.109020690433    -0.069290295496    0.000006361671    -0.000046904875
            -0.000001596994    -0.000041498576    0.113434817725    -0.046737451392    0.000012328088    -0.000040670910    0.108941025414    -0.057347151282
            0.109020694112    -0.069290252421    0.000012328089    -0.000040670955    0.100667526906    -0.086771977323    0.000004090262    -0.000041642643
            0.000006361668    -0.000046904878    0.108941026733    -0.057347105840    0.000004090261    -0.000041642637    0.113916460256    -0.048062649413
