# GHz S RI R 45
0.000     0.021755964000    0.000000000000    -0.000002669936    0.000000000000    0.000606240040    0.000000000000    -0.000007367897    0.000000000000
            -0.000002669973    0.000000000000    0.020378933000    0.000000000000    0.000017491738    0.000000000000    0.000524409070    -0.000000000000
            0.000606236510    0.000000000000    0.000017491719    0.000000000000    0.021709563000    0.000000000000    -0.000008202327    0.000000000000
            -0.000007368054    0.000000000000    0.000524404570    -0.000000000000    -0.000008202300    0.000000000000    0.020337094000    0.000000000000
0.025     0.027686092176    0.010332329419    -0.000003549358    0.000002013994    0.003159645671    0.010770777771    0.000002147174    0.000006544885
            -0.000003549391    0.000002014007    0.025871729952    0.009215028811    0.000034929851    0.000099261237    0.002805565037    0.009508911980
            0.003159621213    0.010770826632    0.000034929834    0.000099261244    0.027623580389    0.010324017812    0.000003294296    0.000008006765
            0.000002147025    0.000006544930    0.002805538736    0.009508961027    0.000003294329    0.000008006758    0.025798584315    0.009118293938
0.050     0.036016556717    0.014841193489    -0.000002180406    0.000005342837    0.010010887833    0.019416964867    0.000005973971    0.000003279588
            -0.000002180443    0.000005342861    0.033617402789    0.013202586105    0.000077949434    0.000194034742    0.009020563899    0.017248095838
            0.010010874196    0.019416977523    0.000077949417    0.000194034748    0.035959053639    0.014863155600    0.000007694331    0.000004551745
            0.000005973828    0.000003279674    0.009020548432    0.017248107313    0.000007694357    0.000004551735    0.033508921961    0.013042451212
0.075     0.046088707522    0.015267249309    0.000000403965    0.000007349488    0.020003540002    0.024410764489    0.000006898210    0.000000762047
            0.000000403944    0.000007349523    0.043213843944    0.013642439132    0.000143200925    0.000271814444    0.018262501952    0.021860931955
            0.020003531065    0.024410769226    0.000143200911    0.000271814463    0.046065732773    0.015313267499    0.000008538037    0.000002163698
            0.000006898100    0.000000762164    0.018262491635    0.021860936665    0.000008538063    0.000002163682    0.043064300490    0.013436308546
0.100     0.056506182332    0.010813711521    0.000003239695    0.000008203677    0.031468403215    0.024748120788    0.000006954724    -0.000001269270
            0.000003239682    0.000008203710    0.053587742738    0.009724420524    0.000224976500    0.000329620446    0.029185295385    0.022403575670
            0.031468402705    0.024748123053    0.000224976494    0.000329620463    0.056541524016    0.010873382227    0.000008388964    0.000000679837
            0.000006954646    -0.000001269125    0.029185293832    0.022403579335    0.000008388986    0.000000679813    0.053400574555    0.009496575688
0.125     0.065228273395    0.001429111707    0.000005958678    0.000008277404    0.042485517995    0.020102604626    0.000006533711    -0.000002914777
            0.000005958673    0.000008277441    0.063015978250    0.001205821789    0.000317804300    0.000365770573    0.040207549454    0.018442972121
            0.042485518750    0.020102607706    0.000317804293    0.000365770592    0.065344215140    0.001483332093    0.000007971905    0.000000019092
            0.000006533677    -0.000002914631    0.040207549075    0.018442975345    0.000007971924    0.000000019057    0.062814708620    0.000978597566
0.150     0.070378117753    -0.012216728021    0.000008580675    0.000007854110    0.051141937235    0.010862271186    0.000005837714    -0.000004196119
            0.000008580682    0.000007854143    0.069892859796    -0.011578537671    0.000417075327    0.000379286045    0.049699593017    0.010107482160
            0.051141937645    0.010862274072    0.000417075335    0.000379286066    0.070595312887    -0.012192739452    0.000007768469    0.000000004984
            0.000005837718    -0.000004195974    0.049699593468    0.010107484961    0.000007768479    0.000000004954    0.069694076270    -0.011792064809
0.175     0.070270075956    -0.028670728142    0.000011264877    0.000007005148    0.055754740563    -0.001926009871    0.000005087758    -0.000005156315
            0.000011264894    0.000007005178    0.072611808707    -0.027653950086    0.000518053128    0.000369605017    0.056142994299    -0.001944128236
            0.055754742632    -0.001926007896    0.000518053129    0.000369605032    0.070602140773    -0.028714538970    0.000008184292    0.000000299191
            0.000005087805    -0.000005156167    0.056142995393    -0.001944125527    0.000008184296    0.000000299153    0.072451448271    -0.027848373170
0.200     0.063862279107    -0.045924520058    0.000014146360    0.000005520326    0.055083279573    -0.016662569314    0.000004446067    -0.000005949198
            0.000014146382    0.000005520349    0.070024671220    -0.045526376766    0.000615894781    0.000336799577    0.058301415247    -0.016576584777
            0.055083282069    -0.016662567970    0.000615894784    0.000336799593    0.064311451118    -0.046082851419    0.000009369530    0.000000409095
            0.000004446146    -0.000005949068    0.058301417750    -0.016576583289    0.000009369526    0.000000409062    0.069942590701    -0.045714857549
0.225     0.050850814273    -0.061662734826    0.000017128701    0.000003035540    0.048487336980    -0.031358434021    0.000003946199    -0.000006833443
            0.000017128736    0.000003035562    0.061512512018    -0.063377471719    0.000705610058    0.000281775582    0.055348903960    -0.032284711206
            0.048487339206    -0.031358434261    0.000705610076    0.000281775590    0.051403000158    -0.061988434851    0.000011188783    -0.000000256932
            0.000003946314    -0.000006833345    0.055348906815    -0.032284710282    0.000011188772    -0.000000256968    0.061542752549    -0.063591385959
0.250     0.031765992182    -0.073513866398    0.000019782229    -0.000000817161    0.036048211956    -0.043850449430    0.000003419408    -0.000008051389
            0.000019782258    -0.000000817153    0.047078727003    -0.079234002423    0.000782184956    0.000206523018    0.046977486397    -0.047338653404
            0.036048213991    -0.043850450346    0.000782184972    0.000206523037    0.032387162534    -0.074059779554    0.000013160946    -0.000002139149
            0.000003419543    -0.000008051318    0.046977489458    -0.047338653183    0.000013160923    -0.000002139185    0.047243798780    -0.079519316385
0.275     0.007959386278    -0.079324204889    0.000021377858    -0.000006136526    0.018613185902    -0.052044990479    0.000002506748    -0.000009715561
            0.000021377894    -0.000006136527    0.027360180543    -0.091159841402    0.000840887058    0.000114309861    0.033447686736    -0.059947227939
            0.018613192026    -0.052044990413    0.000840887077    0.000114309866    0.008594390667    -0.080135691165    0.000014535229    -0.000005410951
            0.000002506883    -0.000009715531    0.033447689803    -0.059947228518    0.000014535198    -0.000005410979    0.027665417730    -0.091572832563
0.300     -0.018471159083    -0.077454412850    0.000021055334    -0.000012580259    -0.002238804036    -0.054196759536    0.000000773767    -0.000011665122
            0.000021055366    -0.000012580271    0.003613393857    -0.097465252128    0.000877720998    0.000009743748    0.015595504300    -0.068448096447
            -0.002238802226    -0.054196761613    0.000877721018    0.000009743748    -0.017898098094    -0.078560926553    0.000014501103    -0.000009779870
            0.000000773915    -0.000011665128    0.015595507356    -0.068448098828    0.000014501065    -0.000009779894    0.004042695577    -0.098066868599
0.325     -0.044879743465    -0.067025983201    0.000018136546    -0.000019281766    -0.024333429565    -0.049160299497    -0.000002122069    -0.000013443874
            0.000018136575    -0.000019281787    -0.022386137427    -0.096886242318    0.000889947065    -0.000101393882    -0.005223540262    -0.071479662042
            -0.024333430452    -0.049160301290    0.000889947084    -0.000101393887    -0.044459088324    -0.068432356805    0.000012415590    -0.000014508357
            -0.000002121935    -0.000013443914    -0.005223537913    -0.071479664219    0.000012415547    -0.000014508370    -0.021872081558    -0.097733960262
0.350     -0.068363118290    -0.048123182165    0.000012417421    -0.000024990276    -0.045144085215    -0.036607187231    -0.000006224894    -0.000014369121
            0.000012417447    -0.000024990300    -0.048490987489    -0.088755970714    0.000876547901    -0.000212573307    -0.027247376218    -0.068151206304
            -0.045144085992    -0.036607187861    0.000876547917    -0.000212573327    -0.068191739061    -0.049802697738    0.000008092074    -0.000018526883
            -0.000006224773    -0.000014369193    -0.027247376960    -0.068151208161    0.000008092027    -0.000018526887    -0.047953730526    -0.089894830635
0.375     -0.086120146012    -0.021850083714    0.000004388689    -0.000028379021    -0.062103792816    -0.017123938030    -0.000011176010    -0.000013736121
            0.000004388700    -0.000028379049    -0.072382297632    -0.073096930691    0.000838482341    -0.000317162900    -0.048466540811    -0.058152710313
            -0.062103794744    -0.017123938561    0.000838482360    -0.000317162907    -0.086289224336    -0.023741587339    0.000001919880    -0.000020721492
            -0.000011175916    -0.000013736220    -0.048466542092    -0.058152711850    0.000001919837    -0.000020721487    -0.071901065172    -0.074551653857
0.400     -0.095838773707    0.009740676630    -0.000004792886    -0.000028445892    -0.072965966464    0.007812766794    -0.000016216784    -0.000011068193
            -0.000004792879    -0.000028445930    -0.091804658216    -0.050666915747    0.000778630790    -0.000409164062    -0.066831109101    -0.041824949267
            -0.072965967458    0.007812766901    0.000778630792    -0.000409164080    -0.096420587690    0.007731377416    -0.000005139951    -0.000020267974
            -0.000016216722    -0.000011068308    -0.066831110796    -0.041824950328    -0.000005139999    -0.000020267956    -0.091469318689    -0.052435314909
0.425     -0.096011805819    0.043884990444    -0.000013541417    -0.000024864702    -0.076105479073    0.036013709919    -0.000020373868    -0.000006324055
            -0.000013541420    -0.000024864727    -0.104794808462    -0.022906410534    0.000701400383    -0.000483855511    -0.080453503191    -0.020142033188
            -0.076105470813    0.036013657238    0.000701400383    -0.000483855529    -0.097048102628    0.041877948562    -0.000011796435    -0.000016905579
            -0.000020373879    -0.000006324203    -0.080453501616    -0.020142047715    -0.000011796471    -0.000016905550    -0.104696274160    -0.024955475728
0.450     -0.086152055284    0.077451563329    -0.000020269068    -0.000018126522    -0.070743699457    0.064863918702    -0.000022721506    0.000000021859
            -0.000020269079    -0.000018126551    -0.109899081673    0.008181107833    0.000612101507    -0.000538176545    -0.087818309916    0.005367136429
            -0.070743700195    0.064863919378    0.000612101505    -0.000538176562    -0.087644516277    0.075581258963    -0.000016763623    -0.000011051650
            -0.000022721514    0.000000021740    -0.087818311913    0.005367136551    -0.000016763652    -0.000011051607    -0.110118249627    0.005914678089
0.475     -0.066830696558    0.107330253478    -0.000023817393    -0.000009440929    -0.057011029210    0.091656933148    -0.000022665259    0.000007081155
            -0.000023817411    -0.000009440946    -0.106320402617    0.040217252905    0.000516255141    -0.000570774668    -0.087928115475    0.032765312709
            -0.057011029210    0.091656933148    0.000516255138    -0.000570774684    -0.068737312157    0.105731123110    -0.000019124408    -0.000003690885
            -0.000022665297    0.000007081036    -0.087928116413    0.032765313058    -0.000019124427    -0.000003690833    -0.106917901114    0.037823712404
0.500     -0.039577514525    0.130796504592    -0.000023760451    -0.000000393920    -0.035892082252    0.113919994711    -0.000020108137    0.000013779425
            -0.000023760476    -0.000000393933    -0.094008173681    0.070676486824    0.000419035978    -0.000581755312    -0.080412943982    0.059896315700
            -0.035892085257    0.113920004249    0.000419035969    -0.000581755343    -0.041813504786    0.129588473935    -0.000018557755    0.000003898015
            -0.000020108201    0.000013779319    -0.080412943982    0.059896315700    -0.000018557767    0.000003898071    -0.095016214583    0.068265867570
0.525     -0.006655080927    0.145777238857    -0.000020479869    0.000007474580    -0.009050245361    0.129650016770    -0.000015469688    0.000019150179
            -0.000020479890    0.000007474576    -0.073654586688    0.097120747944    0.000324945740    -0.000572264501    -0.065547511234    0.084583209335
            -0.009050250583    0.129650026430    0.000324945730    -0.000572264507    -0.009099321097    0.145052414281    -0.000015385200    0.000010500031
            -0.000015469770    0.000019150097    -0.065547522383    0.084583162741    -0.000015385197    0.000010500087    -0.075070973411    0.094812705004
0.550     0.029216623585    0.151012267134    -0.000014992927    0.000013067151    0.021387067024    0.137471393503    -0.000009541284    0.000022566812
            -0.000014992956    0.000013067143    -0.046626689895    0.117419958702    0.000237759687    -0.000544075147    -0.044223356740    0.104829081670
            0.021387067024    0.137471393503    0.000237759678    -0.000544075151    0.026711689685    0.150824432250    -0.000010418035    0.000015263220
            -0.000009541383    0.000022566760    -0.044223356740    0.104829081670    -0.000010418019    0.000015263271    -0.048412308144    0.115333224366
0.575     0.065139511674    0.146091252256    -0.000008631469    0.000015956612    0.053050809898    0.136678737083    -0.000003252095    0.000023871517
            -0.000008631491    0.000015956618    -0.014830507026    0.129921842383    0.000160646982    -0.000499288578    -0.017849722236    0.118969338827
            0.053050809898    0.136678737083    0.000160646964    -0.000499288583    0.062735615932    0.146450019964    -0.000004685817    0.000017872392
            -0.000003252193    0.000023871489    -0.017849725796    0.118969348405    -0.000004685786    0.000017872438    -0.016911173450    0.128162955224
0.600     0.098281859580    0.131419947462    -0.000002649792    0.000016415390    0.083522943502    0.127236497257    0.000002584244    0.000023347049
            -0.000002649839    0.000016415488    0.019457134419    0.133578518335    0.000096372627    -0.000440230143    0.011769618335    0.125804185760
            0.083522941281    0.127236498715    0.000096372604    -0.000440230149    0.096142078581    0.132287050877    0.000000870020    0.000018542040
            0.000002584147    0.000023347042    0.011769616140    0.125804185966    0.000000870057    0.000018542077    0.017186735214    0.132231346990
0.625     0.126065151701    0.108125039458    0.000002095425    0.000015254969    0.110480882382    0.109721069026    0.000007465945    0.000021584074
            0.000002095412    0.000015254985    0.053774469890    0.128001071941    0.000047449821    -0.000369493802    0.042582864994    0.124658948540
            0.110480882382    0.109721069026    0.000047449808    -0.000369493804    0.124341016627    0.109415207302    0.000005639246    0.000017871031
            0.000007465853    0.000021584099    0.042582862818    0.124658949283    0.000005639301    0.000017871061    0.051443850116    0.127118706353
0.650     0.146311965432    0.077947336907    0.000005350609    0.000013527300    0.131823040080    0.085273132489    0.000011295461    0.000019260754
            0.000005350597    0.000013527317    0.085662490057    0.113473959540    0.000016176654    -0.000290105575    0.072442354655    0.115429113758
            0.131823040080    0.085273132489    0.000016176648    -0.000290105565    0.145130296238    0.079532122716    0.000009470534    0.000016592587
            0.000011295378    0.000019260796    0.072442348611    0.115429117551    0.000009470588    0.000016592599    0.083415029587    0.113072184571
0.675     0.157347793539    0.043127478524    0.000007487448    0.000012184106    0.145757983086    0.055537364387    0.000014359033    0.000016923360
            0.000007487451    0.000012184121    0.112829733005    0.090912303557    0.000004524664    -0.000205683989    0.099241058484    0.098563946705
            0.145757992431    0.055537367947    0.000004524660    -0.000205683979    0.156799761178    0.044840780930    0.000012657501    0.000015312825
            0.000014358961    0.000016923419    0.099241063859    0.098563955484    0.000012657561    0.000015312822    0.110813585617    0.090966219532
0.700     0.158101703109    0.006292868427    0.000009359391    0.000011750551    0.150922679286    0.022611253734    0.000017186908    0.000014793277
            0.000009359400    0.000011750563    0.133307772094    0.061792943752    0.000013879888    -0.000120552123    0.121055614259    0.075043823123
            0.150922679286    0.022611253734    0.000013879882    -0.000120552114    0.158231075469    0.007940719614    0.000015789581    0.000014282259
            0.000017186890    0.000014793331    0.121055622758    0.075043828392    0.000015789684    0.000014282215    0.131663625776    0.062236396679
0.725     0.148190197619    -0.029661731292    0.000012010110    0.000012119639    0.146486517089    -0.011022495427    0.000020343909    0.000012673013
            0.000012010145    0.000012119683    0.145568101903    0.028052144683    0.000044700220    -0.000039695857    0.136253138404    0.046314088627
            0.146486517089    -0.011022495427    0.000044700200    -0.000039695826    0.148984910347    -0.028289842059    0.000019511079    0.000013279574
            0.000020343900    0.000012673065    0.136253137595    0.046314091005    0.000019511137    0.000013279540    0.144418571901    0.028779241164
0.750     0.128014460349    -0.061728237357    0.000016289651    0.000012500010    0.132300780969    -0.042609912716    0.000024167675    0.000009967230
            0.000016289662    0.000012500022    0.148627820552    -0.008036426110    0.000096129835    0.000031453287    0.143612773318    0.014209524785
            0.132300780969    -0.042609912716    0.000096129846    0.000031453286    0.129399281126    -0.060842539189    0.000024228449    0.000011627692
            0.000024167682    0.000009967282    0.143612783146    0.014209527023    0.000024228524    0.000011627600    0.148066015859    -0.007165750262
0.775     0.098833264176    -0.086980345515    0.000022479005    0.000011584487    0.109020690433    -0.069290295496    0.000028551789    0.000005845261
            0.000022479016    0.000011584491    0.142114335555    -0.044001338524    0.000165703162    0.000087447812    0.142403397516    -0.019147998681
            0.109020694112    -0.069290252421    0.000165703177    0.000087447805    0.100667526906    -0.086771977323    0.000029860794    0.000008371332
            0.000028551789    0.000005845347    0.142403397650    -0.019147997687    0.000029860822    0.000008371278    0.142194727884    -0.043153907718
