# GHz S RI R 45
0.000     0.021755964000    0.000000000000    0.000000512930    -0.000000000000    0.000606240040    0.000000000000    -0.000003130229    0.000000000000
            0.000000513070    -0.000000000000    0.022063993000    0.000000000000    -0.000014526497    0.000000000000    0.000614813180    0.000000000000
            0.000606236510    0.000000000000    -0.000014526406    0.000000000000    0.021709563000    0.000000000000    -0.000004496538    0.000000000000
            -0.000003130179    0.000000000000    0.000614890850    0.000000000000    -0.000004496680    0.000000000000    0.022028346000    0.000000000000
0.025     0.027686092176    0.010332329419    -0.000011735296    -0.000026516604    0.003159645671    0.010770777771    -0.000013961509    -0.000029528743
            -0.000011735158    -0.000026516629    0.026558030785    0.009469163607    -0.000009775815    -0.000014546687    0.002136526952    0.010302261089
            0.003159621213    0.010770826632    -0.000009775769    -0.000014546695    0.027623580389    0.010324017812    -0.000014013583    -0.000027273524
            -0.000013961465    -0.000029528744    0.002136484920    0.010302090061    -0.000014013735    -0.000027273492    0.026503500599    0.009500495521
0.050     0.036016556717    0.014841193489    -0.000028004133    -0.000042006926    0.010010887833    0.019416964867    -0.000031991305    -0.000049998450
            -0.000028004038    -0.000042006959    0.031354813840    0.014426034891    -0.000018787361    -0.000036586794    0.006238422121    0.019522987369
            0.010010874196    0.019416977523    -0.000018787318    -0.000036586806    0.035959053639    0.014863155600    -0.000030598055    -0.000047017425
            -0.000031991323    -0.000049998440    0.006238530272    0.019522968557    -0.000030598254    -0.000047017355    0.031305527177    0.014512034914
0.075     0.046088707522    0.015267249309    -0.000048606376    -0.000052230370    0.020003540002    0.024410764489    -0.000056749370    -0.000063730322
            -0.000048606240    -0.000052230443    0.036374528417    0.017524233124    -0.000039170551    -0.000050989176    0.012345139651    0.026902238078
            0.020003531065    0.024410769226    -0.000039170508    -0.000050989194    0.046065732773    0.015313267499    -0.000054147633    -0.000060353355
            -0.000056749328    -0.000063730341    0.012345222908    0.026902226279    -0.000054147813    -0.000060353258    0.036352388753    0.017662639981
0.100     0.056506182332    0.010813711521    -0.000072839581    -0.000055528540    0.031468403215    0.024748120788    -0.000086372301    -0.000068832400
            -0.000072839502    -0.000055528601    0.041249967755    0.018652234847    -0.000064681318    -0.000056467588    0.019632469829    0.031954690860
            0.031468402705    0.024748123053    -0.000064681327    -0.000056467575    0.056541524016    0.010873382227    -0.000082600293    -0.000065335691
            -0.000086372230    -0.000068832442    0.019632545870    0.031954675831    -0.000082600458    -0.000065335563    0.041271117302    0.018833874997
0.125     0.065228273395    0.001429111707    -0.000098605399    -0.000051099761    0.042485517995    0.020102604626    -0.000118171173    -0.000064352809
            -0.000098605292    -0.000051099880    0.045235158044    0.017999798872    -0.000091919184    -0.000052675705    0.027181232733    0.034537657764
            0.042485518750    0.020102607706    -0.000091919112    -0.000052675770    0.065344215140    0.001483332093    -0.000113274063    -0.000060917073
            -0.000118171113    -0.000064352856    0.027181308583    0.034537638791    -0.000113274142    -0.000060916989    0.045313132124    0.018210250541
0.150     0.070378117753    -0.012216728021    -0.000123846537    -0.000039075090    0.051141937235    0.010862271186    -0.000149569041    -0.000050407975
            -0.000123846474    -0.000039075189    0.047626976037    0.016065880018    -0.000118232311    -0.000040144518    0.034108559412    0.034852113663
            0.051141937645    0.010862274072    -0.000118232245    -0.000040144588    0.070595312887    -0.012192739452    -0.000143544287    -0.000047134781
            -0.000149569032    -0.000050407972    0.034108634472    0.034852090577    -0.000143544339    -0.000047134687    0.047772543508    0.016288383892
0.175     0.070270075956    -0.028670728142    -0.000146918278    -0.000019921264    0.055754740563    -0.001926009871    -0.000178461201    -0.000027522460
            -0.000146918234    -0.000019921362    0.048011792482    0.013642615101    -0.000141469112    -0.000019815971    0.039670942206    0.033395649080
            0.055754742632    -0.001926007896    -0.000141469062    -0.000019816040    0.070602140773    -0.028714538970    -0.000171183489    -0.000024513071
            -0.000178461201    -0.000027522460    0.039671015756    0.033395622267    -0.000171183532    -0.000024512985    0.048230326716    0.013854308007
0.200     0.063862279107    -0.045924520058    -0.000166534975    0.000005757502    0.055083279573    -0.016662569314    -0.000203159116    0.000003572261
            -0.000166534948    0.000005757414    0.046275311471    0.011641528986    -0.000160165645    0.000007196749    0.043362242649    0.030905554134
            0.055083282069    -0.016662567970    -0.000160165645    0.000007196749    0.064311451118    -0.046082851419    -0.000194415467    0.000006115255
            -0.000203159067    0.000003572189    0.043362314873    0.030905523440    -0.000194415521    0.000006115460    0.046564228258    0.011816623802
0.225     0.050850814273    -0.061662734826    -0.000181502441    0.000037462156    0.048487336980    -0.031358434021    -0.000222096856    0.000042196567
            -0.000181502441    0.000037462057    0.042657943474    0.010978753758    -0.000173096706    0.000039787990    0.044984927682    0.028255908094
            0.048487339206    -0.031358434261    -0.000173096671    0.000039787918    0.051403000158    -0.061988434851    -0.000211650772    0.000043882778
            -0.000222096831    0.000042196482    0.044984998262    0.028255874689    -0.000211650798    0.000043882899    0.043005117703    0.011091280641
0.250     0.031765992182    -0.073513866398    -0.000190532476    0.000074712635    0.036048211956    -0.043850449430    -0.000233651132    0.000087641989
            -0.000190532465    0.000074712554    0.037742376837    0.012467692829    -0.000179237412    0.000076993981    0.044686424224    0.026347228795
            0.036048213991    -0.043850450346    -0.000179237415    0.000076993872    0.032387162534    -0.074059779554    -0.000221372664    0.000087880620
            -0.000233651097    0.000087641883    0.044686492710    0.026347191396    -0.000221372618    0.000087880736    0.038125522573    0.012495193536
0.275     0.007959386278    -0.079324204889    -0.000191999221    0.000116839596    0.018613185902    -0.052044990479    -0.000235886562    0.000138945752
            -0.000191999245    0.000116839518    0.032415580407    0.016676553036    -0.000177393163    0.000117728575    0.042953869289    0.025972866138
            0.018613192026    -0.052044990413    -0.000177393122    0.000117728547    0.008594390667    -0.080135691165    -0.000221867691    0.000136982653
            -0.000235886519    0.000138945727    0.042953926942    0.025972836500    -0.000221867659    0.000136982686    0.032803222637    0.016604359902
0.300     -0.018471159083    -0.077454412850    -0.000184024875    0.000162652002    -0.002238804036    -0.054196759536    -0.000226650135    0.000194556329
            -0.000184024925    0.000162651932    0.027769045406    0.023834507130    -0.000166255380    0.000160654504    0.040564261103    0.027700306266
            -0.002238802226    -0.054196761613    -0.000166255337    0.000160654520    -0.017898098094    -0.078560926553    -0.000211291927    0.000189588659
            -0.000226650135    0.000194556329    0.040564324011    0.027700262022    -0.000211291960    0.000189588623    0.028123664373    0.023659574692
0.325     -0.044879743465    -0.067025983201    -0.000164667989    0.000210087395    -0.024333429565    -0.049160299497    -0.000203790106    0.000251959009
            -0.000164667989    0.000210087395    0.024968187253    0.033745429781    -0.000144496656    0.000203749275    0.038483186043    0.031761164443
            -0.024333430452    -0.049160301290    -0.000144496645    0.000203749259    -0.044459088324    -0.068432356805    -0.000187835615    0.000243276328
            -0.000203790043    0.000251959021    0.038483246828    0.031761117501    -0.000187835603    0.000243276312    0.025250351365    0.033478806168
0.350     -0.068363118290    -0.048123182165    -0.000132459109    0.000256086469    -0.045144085215    -0.036607187231    -0.000165724504    0.000307572865
            -0.000132459109    0.000256086469    0.025088141607    0.045781478025    -0.000111183092    0.000244274125    0.037729867649    0.037997865563
            -0.045144085992    -0.036607187861    -0.000111183092    0.000244274125    -0.068191739061    -0.049802697738    -0.000150210726    0.000294704435
            -0.000165724504    0.000307572865    0.037729926258    0.037997815823    -0.000150210726    0.000294704435    0.025261937946    0.045449274833
0.375     -0.086120146012    -0.021850083714    -0.000086937282    0.000296684424    -0.062103792816    -0.017123938030    -0.000112014605    0.000356851175
            -0.000086937291    0.000296684453    0.028946109888    0.058917370438    -0.000066257336    0.000278742772    0.039213422206    0.045853484413
            -0.062103794744    -0.017123938561    -0.000066257282    0.000278742764    -0.086289224336    -0.023741587339    -0.000098168995    0.000339686522
            -0.000112014602    0.000356851166    0.039213483630    0.045853426621    -0.000098168989    0.000339686503    0.028985769979    0.058559255000
0.400     -0.095838773707    0.009740676630    -0.000029171869    0.000327551225    -0.072965966464    0.007812766794    -0.000043919390    0.000394877448
            -0.000029172613    0.000327550647    0.036960961624    0.071856619765    -0.000010958551    0.000303432989    0.043587479428    0.054447205589
            -0.072965967458    0.007812766901    -0.000010958540    0.000303432980    -0.096420587690    0.007731377416    -0.000033004080    0.000373726121
            -0.000043919304    0.000394877487    0.043587477528    0.054447207111    -0.000033004083    0.000373726080    0.036855116172    0.071522114661
0.425     -0.096011805819    0.043884990444    0.000038070630    0.000344671673    -0.076105479073    0.036013709919    0.000035440395    0.000417101433
            0.000038070630    0.000344671673    0.049062837829    0.083189837266    0.000051990811    0.000314939849    0.051132970458    0.062690227475
            -0.076105470813    0.036013657238    0.000051990811    0.000314939849    -0.097048102628    0.041877948562    0.000042290843    0.000392681284
            0.000035440396    0.000417101443    0.051133033823    0.062690157725    0.000042290836    0.000392681284    0.048818776569    0.082932188678
0.450     -0.086152055284    0.077451563329    0.000110560030    0.000345184816    -0.070743699457    0.064863918702    0.000121330241    0.000420241263
            0.000110560009    0.000345184854    0.064686277374    0.091594469209    0.000118624158    0.000310940898    0.061716684856    0.069453949542
            -0.070743700195    0.064863919378    0.000118624139    0.000310940863    -0.087644516277    0.075581258963    0.000123252007    0.000393596583
            0.000121330223    0.000420241227    0.061716743988    0.069453876932    0.000123252026    0.000393596546    0.064330560025    0.091463507668
0.475     -0.066830696558    0.107330253478    0.000183205460    0.000327893705    -0.057011029210    0.091656933148    0.000208061729    0.000402838196
            0.000183205485    0.000327893737    0.082832907144    0.096005830065    0.000184253311    0.000290633514    0.074806332766    0.073720831704
            -0.057011029210    0.091656933148    0.000184253325    0.000290633470    -0.068737312157    0.105731123110    0.000204550167    0.000375214223
            0.000208061713    0.000402838182    0.074806391264    0.073720758099    0.000204550175    0.000375214207    0.082409732299    0.096041653295
0.500     -0.039577514525    0.130796504592    0.000250878089    0.000293503120    -0.035892082252    0.113919994711    0.000289876203    0.000365513094
            0.000250878095    0.000293503116    0.102205755802    0.095756533341    0.000244231417    0.000254941473    0.089557881575    0.074723280299
            -0.035892085257    0.113920004249    0.000244231417    0.000254941473    -0.041813504786    0.129588473935    0.000280811282    0.000338207656
            0.000289876203    0.000365513094    0.089557933888    0.074723201991    0.000280811282    0.000338207656    0.101772153558    0.095982613376
0.525     -0.006655080927    0.145777238857    0.000309144962    0.000244355935    -0.009050245361    0.129650016770    0.000361744142    0.000310686953
            0.000309144958    0.000244355940    0.121365424299    0.090637541565    0.000294604320    0.000206262411    0.104925611914    0.072016209413
            -0.009050250583    0.129650026430    0.000294603836    0.000206262440    -0.009099321097    0.145052414281    0.000347359187    0.000284922393
            0.000361744142    0.000310686953    0.104925663448    0.072016134330    0.000347359182    0.000284922399    0.120986161358    0.091057628667
0.550     0.029216623585    0.151012267134    0.000354829064    0.000183964441    0.021387067024    0.137471393503    0.000419969244    0.000242078656
            0.000354829113    0.000183964498    0.138900954808    0.080905371285    0.000332621636    0.000148022832    0.119793055632    0.065513363278
            0.021387067024    0.137471393503    0.000332621585    0.000148022774    0.026711689685    0.150824432250    0.000400772020    0.000218903530
            0.000419969226    0.000242078646    0.119793101369    0.065513279647    0.000400772903    0.000218903331    0.138640675733    0.081500890112
0.575     0.065139511674    0.146091252256    0.000386190179    0.000116355798    0.053050809898    0.136678737083    0.000462390585    0.000164000311
            0.000386190181    0.000116355792    0.153562615212    0.067226479462    0.000356882797    0.000084076188    0.133078232032    0.055466382870
            0.053050809898    0.136678737083    0.000356882797    0.000084076188    0.062735615932    0.146450019964    0.000439071585    0.000144237607
            0.000462390576    0.000164000307    0.133078268819    0.055466294610    0.000439072003    0.000144237455    0.153479274666    0.067957522557
0.600     0.098281859580    0.131419947462    0.000402907637    0.000045516435    0.083522943502    0.127236497257    0.000488366361    0.000080757129
            0.000402907664    0.000045516463    0.164374129544    0.050594704230    0.000367315658    0.000018185153    0.143832533709    0.042430929747
            0.083522941281    0.127236498715    0.000367315608    0.000018185149    0.096142078581    0.132287050877    0.000461699984    0.000064998595
            0.000488366360    0.000080757131    0.143832578811    0.042430847543    0.000461699992    0.000064998604    0.164511946421    0.051403038199
0.625     0.126065151701    0.108125039458    0.000405793525    -0.000025068669    0.110480882382    0.109721069026    0.000498457637    -0.000003848056
            0.000405793194    -0.000025068348    0.170692415951    0.032230007395    0.000364895586    -0.000046392626    0.151298765682    0.027205440459
            0.110480882382    0.109721069026    0.000364895556    -0.000046392627    0.124341016627    0.109415207302    0.000469228465    -0.000015220633
            0.000498457607    -0.000003848057    0.151298784071    0.027205394697    0.000469228786    -0.000015220910    0.171076250872    0.033042088432
0.650     0.146311965432    0.077947336907    0.000396500966    -0.000092696246    0.131823040080    0.085273132489    0.000494116434    -0.000086809192
            0.000396501001    -0.000092696269    0.172251481583    0.013476113387    0.000351371260    -0.000107170983    0.154972692523    0.010778242707
            0.131823040080    0.085273132489    0.000351371212    -0.000107171002    0.145130296238    0.079532122716    0.000463060567    -0.000093575531
            0.000494116387    -0.000086809168    0.154972728903    0.010778152014    0.000463060525    -0.000093575540    0.172882309159    0.014211109958
0.675     0.157347793539    0.043127478524    0.000377107696    -0.000155591834    0.145757983086    0.055537364387    0.000477222340    -0.000166056925
            0.000377107693    -0.000155591840    0.169167262938    -0.004297080251    0.000328875038    -0.000162557423    0.154632292198    -0.005740786053
            0.145757992431    0.055537367947    0.000328875035    -0.000162557429    0.156799761178    0.044840780930    0.000445004573    -0.000168104880
            0.000477222314    -0.000166056907    0.154632300458    -0.005740833114    0.000445004564    -0.000168104877    0.170019561528    -0.003721684131
0.700     0.158101703109    0.006292868427    0.000349788572    -0.000212956027    0.150922679286    0.022611253734    0.000449757625    -0.000240482194
            0.000349788621    -0.000212956023    0.161944254183    -0.019790268773    0.000299618347    -0.000211901994    0.150384495797    -0.021185542059
            0.150922679286    0.022611253734    0.000299618306    -0.000211901965    0.158231075469    0.007940719614    0.000416963788    -0.000237751050
            0.000449757577    -0.000240482199    0.150384505847    -0.021185542404    0.000416963748    -0.000237751018    0.162964752083    -0.019449105772
0.725     0.148190197619    -0.029661731292    0.000316402456    -0.000264871381    0.146486517089    -0.011022495427    0.000413366406    -0.000309812762
            0.000316402476    -0.000264871388    0.151450916429    -0.031869726204    0.000265501359    -0.000255406271    0.142679320894    -0.034423377958
            0.146486517089    -0.011022495427    0.000265501344    -0.000255406257    0.148984910347    -0.028289842059    0.000380526050    -0.000302245082
            0.000413366411    -0.000309812755    0.142679330724    -0.034423422493    0.000380526056    -0.000302245076    0.152560053483    -0.031821891950
0.750     0.128014460349    -0.061728237357    0.000278168991    -0.000312131787    0.132300780969    -0.042609912716    0.000369069977    -0.000374406625
            0.000278168897    -0.000312130947    0.138891762103    -0.039672537444    0.000227800228    -0.000293968205    0.132330441330    -0.044454974227
            0.132300780969    -0.042609912716    0.000227799989    -0.000293967240    0.129399281126    -0.060842539189    0.000336694394    -0.000361914026
            0.000369069941    -0.000374406576    0.132330460795    -0.044455073295    0.000336694518    -0.000361914894    0.139988540755    -0.039950144579
0.775     0.098833264176    -0.086980345515    0.000235318624    -0.000355841214    0.109020690433    -0.069290295496    0.000316941164    -0.000434827175
            0.000235318630    -0.000355841222    0.125737235729    -0.042712676576    0.000186843229    -0.000328803301    0.120480818701    -0.050544262314
            0.109020694112    -0.069290252421    0.000186843219    -0.000328803284    0.100667526906    -0.086771977323    0.000285580091    -0.000417278290
            0.000316941142    -0.000434827129    0.120480822064    -0.050544357694    0.000285580090    -0.000417279163    0.126706806281    -0.043314313671
