# GHz S RI R 45
0.000     0.021755964000    0.000000000000    -0.000004508080    0.000000000000    0.000606240040    0.000000000000    0.000000049772    -0.000000000000
            -0.000004507991    0.000000000000    0.021446114000    0.000000000000    -0.000007880803    0.000000000000    0.000642163660    -0.000000000000
            0.000606236510    0.000000000000    -0.000007880454    0.000000000000    0.021709563000    0.000000000000    0.000015765611    -0.000000000000
            0.000000049767    -0.000000000000    0.000642163660    -0.000000000000    0.000015765632    -0.000000000000    0.021278907000    0.000000000000
0.025     0.027686092176    0.010332329419    -0.000002478765    -0.000005566298    0.003159645671    0.010770777771    -0.000001973146    -0.000009021363
            -0.000002478677    -0.000005566326    0.026777043194    0.009118233216    -0.000002042721    -0.000005047307    0.002761325376    0.009510808580
            0.003159621213    0.010770826632    -0.000002042596    -0.000005047335    0.027623580389    0.010324017812    -0.000010573641    -0.000022449340
            -0.000001973147    -0.000009021364    0.002761303966    0.009510856344    -0.000010573646    -0.000022449340    0.026724836880    0.009096605561
0.050     0.036016556717    0.014841193489    -0.000008809125    -0.000013528246    0.010010887833    0.019416964867    -0.000010555475    -0.000015913894
            -0.000008809053    -0.000013528285    0.034189056873    0.012982354587    -0.000008538529    -0.000016793898    0.008646018440    0.017340253253
            0.010010874196    0.019416977523    -0.000008538449    -0.000016793943    0.035959053639    0.014863155600    -0.000025842798    -0.000017988833
            -0.000010555478    -0.000015913892    0.008646006908    0.017340263472    -0.000025842794    -0.000017988836    0.034137394969    0.012955656868
0.075     0.046088707522    0.015267249309    -0.000020325840    -0.000015495670    0.020003540002    0.024410764489    -0.000022813562    -0.000017312363
            -0.000020325778    -0.000015495730    0.043139508662    0.013330832356    -0.000023169888    -0.000020607035    0.017350189487    0.022103475185
            0.020003531065    0.024410769226    -0.000023169821    -0.000020607098    0.046065732773    0.015313267499    -0.000036230344    -0.000012451793
            -0.000022813564    -0.000017312359    0.017350182234    0.022103477065    -0.000036230341    -0.000012451799    0.043103328056    0.013303255108
0.100     0.056506182332    0.010813711521    -0.000032679058    -0.000010603587    0.031468403215    0.024748120788    -0.000035906203    -0.000012012229
            -0.000032679012    -0.000010603660    0.052513587679    0.009465497026    -0.000039332728    -0.000015404675    0.027495511541    0.022926238890
            0.031468402705    0.024748123053    -0.000039332680    -0.000015404751    0.056541524016    0.010873382227    -0.000045775095    -0.000003861503
            -0.000035906199    -0.000012012234    0.027495511140    0.022926239370    -0.000045775095    -0.000003861503    0.052510231881    0.009437099498
0.125     0.065228273395    0.001429111707    -0.000042612057    0.000000671762    0.042485517995    0.020102604626    -0.000046754359    -0.000000146574
            -0.000042612033    0.000000671680    0.060604390104    0.001282849223    -0.000052702178    -0.000001840695    0.037501970953    0.019467804780
            0.042485518750    0.020102607706    -0.000052702152    -0.000001840777    0.065344215140    0.001483332093    -0.000053525743    0.000008937787
            -0.000046754357    -0.000000146574    0.037501971841    0.019467805241    -0.000053525741    0.000008937797    0.060653547295    0.001246380974
0.150     0.070378117753    -0.012216728021    -0.000047565064    0.000016784762    0.051141937235    0.010862271186    -0.000052666112    0.000017009402
            -0.000047565061    0.000016784667    0.065822380249    -0.010757173615    -0.000059960854    0.000018159743    0.045772006907    0.011957879163
            0.051141937645    0.010862274072    -0.000059960845    0.000018159660    0.070595312887    -0.012192739452    -0.000057475614    0.000025908931
            -0.000052666112    0.000017009402    0.045772006907    0.011957879163    -0.000057475620    0.000025908921    0.065945846797    -0.010815555705
0.175     0.070270075956    -0.028670728142    -0.000045786309    0.000035367440    0.055754740563    -0.001926009871    -0.000051622972    0.000037218514
            -0.000045786326    0.000035367351    0.066672521418    -0.025519029994    -0.000058799503    0.000041615084    0.050859235152    0.001162667661
            0.055754742632    -0.001926007896    -0.000058799516    0.000041615001    0.070602140773    -0.028714538970    -0.000055649330    0.000045976418
            -0.000051622972    0.000037218514    0.050859235152    0.001162667661    -0.000055649331    0.000045976419    0.066889238240    -0.025625060582
0.200     0.063862279107    -0.045924520058    -0.000036559102    0.000053662417    0.055083279573    -0.016662569314    -0.000042576038    0.000057665058
            -0.000036559150    0.000053662327    0.062165556532    -0.041384109983    -0.000048223384    0.000065060643    0.051641552495    -0.011686408332
            0.055083282069    -0.016662567970    -0.000048223427    0.000065060559    0.064311451118    -0.046082851419    -0.000046455216    0.000066999542
            -0.000042576038    0.000057665058    0.051641552495    -0.011686408332    -0.000046455217    0.000066999543    0.062487048573    -0.041573686449
0.225     0.050850814273    -0.061662734826    -0.000020203185    0.000068780977    0.048487336980    -0.031358434021    -0.000025551456    0.000075241700
            -0.000020203243    0.000068780906    0.051892780497    -0.056445892953    -0.000028543829    0.000084839391    0.047450692174    -0.025012809638
            0.048487339206    -0.031358434261    -0.000028543888    0.000084839322    0.051403000158    -0.061988434851    -0.000029138955    0.000086216689
            -0.000025551455    0.000075241699    0.047450692174    -0.025012809638    -0.000029138955    0.000086216688    0.052318486914    -0.056763497814
0.250     0.031765992182    -0.073513866398    0.000001955950    0.000078122481    0.036048211956    -0.043850449430    -0.000001700351    0.000086978168
            0.000001955876    0.000078122426    0.036115083256    -0.068699975912    -0.000001333346    0.000097654386    0.038176334986    -0.037055320212
            0.036048213991    -0.043850450346    -0.000001333418    0.000097654331    0.032387162534    -0.074059779554    -0.000004098919    0.000100407420
            -0.000001700346    0.000086978165    0.038176334986    -0.037055320212    -0.000004098845    0.000100407473    0.036628338471    -0.069194063424
0.275     0.007959386278    -0.079324204889    0.000027680131    0.000079618533    0.018613185902    -0.052044990479    0.000026752865    0.000090368073
            0.000027680048    0.000079618498    0.015764336616    -0.076257820194    0.000030690528    0.000100849786    0.024311832928    -0.046050582493
            0.018613192026    -0.052044990413    0.000030690444    0.000100849749    0.008594390667    -0.080135691165    0.000027027687    0.000106514735
            0.000026752869    0.000090368070    0.024311832928    -0.046050582493    0.000027027730    0.000106514755    0.016329950839    -0.076975141763
0.300     -0.018471159083    -0.077454412850    0.000054062782    0.000072084296    -0.002238804036    -0.054196759536    0.000056714100    0.000083786133
            0.000054062779    0.000072084296    -0.007594092861    -0.077579024041    0.000063978465    0.000092848750    0.006945327176    -0.050442964150
            -0.002238802226    -0.054196761613    0.000063978371    0.000092848741    -0.017898098094    -0.078560926553    0.000061311578    0.000102079432
            0.000056714103    0.000083786131    0.006945327176    -0.050442964150    0.000061311579    0.000102079431    -0.007030957418    -0.078557574798
0.325     -0.044879743465    -0.067025983201    0.000077803453    0.000055430728    -0.024333429565    -0.049160299497    0.000084519247    0.000066785461
            0.000077803360    0.000055430742    -0.031895339899    -0.071669849496    0.000094466208    0.000073396355    -0.012321316173    -0.049079317957
            -0.024333430452    -0.049160301290    0.000094466160    0.000073396352    -0.044459088324    -0.068432356805    0.000094903804    0.000085805355
            0.000084519248    0.000066785460    -0.012321316173    -0.049079317957    0.000094903808    0.000085805365    -0.031406231321    -0.072930724940
0.350     -0.068363118290    -0.048123182165    0.000095685375    0.000030802541    -0.045144085215    -0.036607187231    0.000106439923    0.000040314539
            0.000095685377    0.000030802536    -0.054772311629    -0.058259308739    0.000118151619    0.000043734136    -0.031528442710    -0.041387011926
            -0.045144085992    -0.036607187861    0.000118151619    0.000043734136    -0.068191739061    -0.049802697738    0.000123450602    0.000057938293
            0.000106439916    0.000040314530    -0.031528442710    -0.041387011926    0.000123450679    0.000057938247    -0.054440015699    -0.059800211498
0.375     -0.086120146012    -0.021850083714    0.000105023658    0.000000520931    -0.062103792816    -0.017123938030    0.000119214221    0.000006707175
            0.000105023618    0.000000520956    -0.073812880878    -0.037877556673    0.000131610559    0.000006546010    -0.048569624579    -0.027479035720
            -0.062103794744    -0.017123938561    0.000131610486    0.000006546065    -0.086289224336    -0.023741587339    0.000142821637    0.000020390002
            0.000119214221    0.000006707171    -0.048569624579    -0.027479035720    0.000142821637    0.000020390006    -0.073722829886    -0.039667409559
0.400     -0.095838773707    0.009740676630    0.000104147674    -0.000032210340    -0.072965966464    0.007812766794    0.000120616702    -0.000030584623
            0.000104147614    -0.000032210263    -0.086850635273    -0.011854376262    0.000132585828    -0.000034364181    -0.061451051904    -0.008184388055
            -0.072965967458    0.007812766901    0.000132585774    -0.000034364112    -0.096420587690    0.007731377416    0.000149758524    -0.000023395962
            0.000120616712    -0.000030584623    -0.061451051904    -0.008184388055    0.000149758524    -0.000023395962    -0.087080513200    -0.013832007239
0.425     -0.096011805819    0.043884990444    0.000092669334    -0.000063754439    -0.076105479073    0.036013709919    0.000109824819    -0.000067470265
            0.000092669303    -0.000063754361    -0.092228710380    0.017805294019    0.000120322008    -0.000074576299    -0.068531529722    0.015029594500
            -0.076105470813    0.036013657238    0.000120322006    -0.000074576301    -0.097048102628    0.041877948562    0.000142453719    -0.000068950091
            0.000109824818    -0.000067470267    -0.068531529722    0.015029594500    0.000142453719    -0.000068950091    -0.092837519301    0.015728309018
0.450     -0.086152055284    0.077451563329    0.000071546656    -0.000090618952    -0.070743699457    0.064863918702    0.000087562716    -0.000099857468
            0.000071546639    -0.000090618863    -0.089016182001    0.048633393556    0.000095693568    -0.000109725349    -0.068734965597    0.040221123836
            -0.070743700195    0.064863919378    0.000095693568    -0.000109725349    -0.087644516277    0.075581258963    0.000120831936    -0.000111413075
            0.000087562716    -0.000099857468    -0.068734965597    0.040221123836    0.000120831936    -0.000111413075    -0.090034208982    0.046566259925
0.475     -0.066830696558    0.107330253478    0.000042873314    -0.000109940614    -0.057011029210    0.091656933148    0.000055924984    -0.000124234389
            0.000042873321    -0.000109940568    -0.077113227750    0.077974619524    0.000061004248    -0.000136083554    -0.061663439394    0.065198550971
            -0.057011029210    0.091656933148    0.000061004248    -0.000136083554    -0.068737312157    0.105731123110    0.000086499994    -0.000146258480
            0.000055924984    -0.000124234389    -0.061663439394    0.065198550971    0.000086499994    -0.000146258480    -0.078535754900    0.076037152968
0.500     -0.039577514525    0.130796504592    0.000009490327    -0.000119838184    -0.035892082252    0.113919994711    0.000017989923    -0.000138116387
            0.000009490326    -0.000119838194    -0.057259042811    0.103279087018    0.000019576817    -0.000151022530    -0.047631889160    0.087771919107
            -0.035892085257    0.113920004249    0.000019576820    -0.000151022529    -0.041813504786    0.129588473935    0.000042440196    -0.000169844934
            0.000017989923    -0.000138116387    -0.047631889160    0.087771919107    0.000042440196    -0.000169844934    -0.059042743101    0.101589587006
0.525     -0.006655080927    0.145777238857    -0.000025462143    -0.000119513619    -0.009050245361    0.129650016770    -0.000022677807    -0.000140230074
            -0.000025462139    -0.000119513599    -0.030926702088    0.122357982433    -0.000024753605    -0.000153192197    -0.027597979741    0.105971202877
            -0.009050250583    0.129650026430    -0.000024753607    -0.000153192177    -0.009099321097    0.145052414281    -0.000007488364    -0.000179764558
            -0.000022677825    -0.000140230061    -0.027597979741    0.105971202877    -0.000007488345    -0.000179764569    -0.032991905528    0.121020898721
0.550     0.029216623585    0.151012267134    -0.000058951857    -0.000109178293    0.021387067024    0.137471393503    -0.000062497116    -0.000130489700
            -0.000058951857    -0.000109178293    -0.000152502540    0.133582242949    -0.000068132230    -0.000142501205    -0.003039028023    0.118227177362
            0.021387067024    0.137471393503    -0.000068132237    -0.000142501157    0.026711689685    0.150824432250    -0.000059034771    -0.000174939896
            -0.000062497116    -0.000130489700    -0.003039028023    0.118227177362    -0.000059034747    -0.000174939925    -0.002387457503    0.132677151200
0.575     0.065139511674    0.146091252256    -0.000088321144    -0.000089837068    0.053050809898    0.136678737083    -0.000098211268    -0.000109796959
            -0.000088321144    -0.000089837068    0.032675682749    0.135992576650    -0.000107036959    -0.000119916650    0.024211330733    0.123470745097
            0.053050809898    0.136678737083    -0.000107036959    -0.000119916650    0.062735615932    0.146450019964    -0.000107993875    -0.000155529032
            -0.000098211268    -0.000109796959    0.024211330733    0.123470745097    -0.000107993875    -0.000155529032    0.030405594357    0.135564992554
0.600     0.098281859580    0.131419947462    -0.000111419866    -0.000063048699    0.083522943502    0.127236497257    -0.000127094891    -0.000079794681
            -0.000111419836    -0.000063048630    0.065033911045    0.129342778106    -0.000138501496    -0.000087210000    0.052128104595    0.121190209435
            0.083522941281    0.127236498715    -0.000138501496    -0.000087210000    0.096142078581    0.132287050877    -0.000150482875    -0.000122755375
            -0.000127094868    -0.000079794605    0.052128104595    0.121190209435    -0.000150482875    -0.000122755375    0.062876154446    0.129398400695
0.625     0.126065151701    0.108125039458    -0.000126620235    -0.000030722783    0.110480882382    0.109721069026    -0.000147001940    -0.000042624168
            -0.000126620235    -0.000030722783    0.094453274138    0.114074929156    -0.000160179971    -0.000046716171    0.078641627483    0.111423666253
            0.110480882382    0.109721069026    -0.000160179971    -0.000046716171    0.124341016627    0.109415207302    -0.000183108407    -0.000078700890
            -0.000147001940    -0.000042624168    0.078641627483    0.111423666253    -0.000183108407    -0.000078700890    0.092557346755    0.114576598236
0.650     0.146311965432    0.077947336907    -0.000132777357    0.000005012046    0.131823040080    0.085273132489    -0.000156366612    -0.000000772454
            -0.000132777357    0.000005012046    0.118688557820    0.091260434143    -0.000170365657    -0.000001159095    0.101770951929    0.094740927372
            0.131823040080    0.085273132489    -0.000170365657    -0.000001159095    0.145130296238    0.079532122716    -0.000203067177    -0.000026168638
            -0.000156366612    -0.000000772454    0.101770951929    0.094740927372    -0.000203067177    -0.000026168638    0.117192972399    0.092128029036
0.675     0.157347793539    0.043127478524    -0.000129182495    0.000041857086    0.145757983086    0.055537364387    -0.000154161832    0.000043017960
            -0.000129182495    0.000041857086    0.135845921702    0.062513077117    -0.000167960090    0.000046448407    0.119725357118    0.072195971711
            0.145757992431    0.055537367947    -0.000167960090    0.000046448407    0.156799761178    0.044840780930    -0.000208204600    0.000031426175
            -0.000154161815    0.000043017984    0.119725357118    0.072195971711    -0.000208204581    0.000031426172    0.134867807027    0.063626549426
0.700     0.158101703109    0.006292868427    -0.000115573102    0.000077350900    0.150922679286    0.022611253734    -0.000139921812    0.000085773424
            -0.000115573102    0.000077350900    0.144498342306    0.029890943214    -0.000152501838    0.000092853279    0.131014487968    0.045282788224
            0.150922679286    0.022611253734    -0.000152501838    0.000092853279    0.158231075469    0.007940719614    -0.000197145407    0.000090107552
            -0.000139921812    0.000085773424    0.131014487968    0.045282788224    -0.000197145407    0.000090107552    0.144121372572    0.031095718083
0.725     0.148190197619    -0.029661731292    -0.000092200408    0.000108859613    0.146486517089    -0.011022495427    -0.000113819613    0.000124297127
            -0.000092200174    0.000108859222    0.143773086046    -0.004213006033    -0.000124246010    0.000134589616    0.134534837742    0.015873307039
            0.146486517089    -0.011022495427    -0.000124246003    0.000134589609    0.148984910347    -0.028289842059    -0.000169444641    0.000145412650
            -0.000113819606    0.000124297119    0.134534837742    0.015873307039    -0.000169444641    0.000145412650    0.144038338572    -0.003097959842
0.750     0.128014460349    -0.061728237357    -0.000059982318    0.000133639470    0.132300780969    -0.042609912716    -0.000076836255    0.000155247383
            -0.000059982297    0.000133639425    0.133438192156    -0.037200336171    -0.000084324334    0.000168085479    0.129683806936    -0.013863951571
            0.132300780969    -0.042609912716    -0.000084324334    0.000168085479    0.129399281126    -0.060842539189    -0.000125855040    0.000192551980
            -0.000076836214    0.000155247369    0.129683806936    -0.013863951571    -0.000125855040    0.000192551980    0.134334850639    -0.036370834681
0.775     0.098833264176    -0.086980345515    -0.000020675932    0.000148990597    0.109020690433    -0.069290295496    -0.000030959835    0.000175320162
            -0.000020675932    0.000148990597    0.113965519555    -0.066417289348    -0.000034930141    0.000189858733    0.116448837852    -0.041574025804
            0.109020694112    -0.069290252421    -0.000034930135    0.000189858703    0.100667526906    -0.086771977323    -0.000068570141    0.000226700939
