# GHz S RI R 45
0.000     0.021755964000    0.000000000000    -0.000055494384    0.000000000000    0.000606240040    0.000000000000    -0.000067891624    0.000000000000
            -0.000055494242    0.000000000000    0.021928542000    0.000000000000    -0.000045229353    0.000000000000    0.000522022250    0.000000000000
            0.000606236510    0.000000000000    -0.000045228965    0.000000000000    0.021709563000    0.000000000000    -0.000070650771    0.000000000000
            -0.000067891290    0.000000000000    0.000522023560    0.000000000000    -0.000070650957    0.000000000000    0.021911787000    0.000000000000
0.025     0.027686092176    0.010332329419    -0.000090904790    -0.000204281522    0.003159645671    0.010770777771    -0.000117755059    -0.000264994605
            -0.000090904711    -0.000204281536    0.026796177757    0.010391579963    -0.000076637344    -0.000163397968    0.002231726618    0.011284801000
            0.003159621213    0.010770826632    -0.000076637029    -0.000163398039    0.027623580389    0.010324017812    -0.000090052023    -0.000197505297
            -0.000117755270    -0.000264994829    0.002231604664    0.011284634496    -0.000090052205    -0.000197505148    0.026715977598    0.010335002365
0.050     0.036016556717    0.014841193489    -0.000218218278    -0.000389717718    0.010010887833    0.019416964867    -0.000279276465    -0.000501840539
            -0.000218218205    -0.000389717748    0.031995392126    0.016015391454    -0.000179211329    -0.000308460643    0.006711278085    0.021329781094
            0.010010874196    0.019416977523    -0.000179210971    -0.000308460771    0.035959053639    0.014863155600    -0.000212277110    -0.000394591903
            -0.000279276178    -0.000501840641    0.006711309129    0.021329769230    -0.000212277253    -0.000394591837    0.031849004616    0.015925167150
0.075     0.046088707522    0.015267249309    -0.000419528812    -0.000511000344    0.020003540002    0.024410764489    -0.000533223810    -0.000661617970
            -0.000419528806    -0.000511000336    0.037491602680    0.019614889411    -0.000339650051    -0.000402721158    0.013331633527    0.029388270902
            0.020003531065    0.024410769226    -0.000339649718    -0.000402721334    0.046065732773    0.015313267499    -0.000417690485    -0.000525764627
            -0.000533223407    -0.000661618180    0.013331639482    0.029388270396    -0.000417690485    -0.000525764627    0.037250670838    0.019536155355
0.100     0.056506182332    0.010813711521    -0.000661988136    -0.000554547100    0.031468403215    0.024748120788    -0.000842609330    -0.000726469771
            -0.000661988129    -0.000554547094    0.042854255979    0.021075813719    -0.000532755455    -0.000435204114    0.021209967437    0.034950002549
            0.031468402705    0.024748123053    -0.000532754662    -0.000435204706    0.056541524016    0.010873382227    -0.000669390333    -0.000576657409
            -0.000842609330    -0.000726469771    0.021209968566    0.034950003033    -0.000669391212    -0.000576656742    0.042515694819    0.021064203961
0.125     0.065228273395    0.001429111707    -0.000918669597    -0.000516505916    0.042485517995    0.020102604626    -0.001175908263    -0.000688879260
            -0.000918669597    -0.000516505916    0.047272029591    0.020658899962    -0.000737346439    -0.000402327910    0.029354431894    0.037886308366
            0.042485518750    0.020102607706    -0.000737346105    -0.000402328229    0.065344215140    0.001483332093    -0.000939674245    -0.000541659952
            -0.001175908263    -0.000688879260    0.029354433168    0.037886308645    -0.000939674521    -0.000541659674    0.046857378558    0.020767266372
0.150     0.070378117753    -0.012216728021    -0.001167493256    -0.000401883700    0.051141937235    0.010862271186    -0.001505640883    -0.000551603807
            -0.001167492692    -0.000401884418    0.049981724298    0.018877616959    -0.000935645723    -0.000307536539    0.036824966825    0.038445595148
            0.051141937645    0.010862274072    -0.000935645732    -0.000307536542    0.070595312887    -0.012192739452    -0.001204969594    -0.000423490933
            -0.001505640883    -0.000551603807    0.036824968188    0.038445595227    -0.001204969594    -0.000423490933    0.049543643514    0.019148613174
0.175     0.070270075956    -0.028670728142    -0.001392414261    -0.000218637375    0.055754740563    -0.001926009871    -0.001809935894    -0.000321161002
            -0.001392413987    -0.000218637830    0.050569451215    0.016643851814    -0.001114253761    -0.000156653682    0.042853182921    0.037195461616
            0.055754742632    -0.001926007896    -0.001114253607    -0.000156654057    0.070602140773    -0.028714538970    -0.001446174997    -0.000228279093
            -0.001809935683    -0.000321161616    0.042853183677    0.037195462271    -0.001446174997    -0.000228279093    0.050175257427    0.017094872793
0.200     0.063862279107    -0.045924520058    -0.001582998925    0.000025332011    0.055083279573    -0.016662569314    -0.002072148554    -0.000005326513
            -0.001582998925    0.000025332011    0.048967448058    0.014966507687    -0.001263850634    0.000044145900    0.046946310711    0.034949590699
            0.055083282069    -0.016662567970    -0.001263850634    0.000044145900    0.064311451118    -0.046082851419    -0.001648752957    0.000036489820
            -0.002072148554    -0.000005326513    0.046946302622    0.034949594865    -0.001648752957    0.000036489820    0.048689838889    0.015585547311
0.225     0.050850814273    -0.061662734826    -0.001730442036    0.000324614038    0.048487336980    -0.031358434021    -0.002276842751    0.000389263114
            -0.001730441937    0.000324614019    0.045507456749    0.014829850316    -0.001376169103    0.000290114693    0.048959896887    0.032647509717
            0.048487339206    -0.031358434261    -0.001376169008    0.000290114171    0.051403000158    -0.061988434851    -0.001799340597    0.000363622252
            -0.002276842720    0.000389262700    0.048959898289    0.032647509417    -0.001799340597    0.000363622252    0.045412785914    0.015574431878
0.250     0.031765992182    -0.073513866398    -0.001824991501    0.000676323168    0.036048211956    -0.043850449430    -0.002407681776    0.000856769230
            -0.001824991501    0.000676323168    0.040898211635    0.017070991477    -0.001442292171    0.000577747800    0.049129014669    0.031227110111
            0.036048213991    -0.043850450346    -0.001442292203    0.000577746644    0.032387162534    -0.074059779554    -0.001884517484    0.000746164454
            -0.002407681792    0.000856768289    0.049129016357    0.031227111184    -0.001884517484    0.000746164454    0.041034379976    0.017871896760
0.275     0.007959386278    -0.079324204889    -0.001852188244    0.001077180654    0.018613185902    -0.052044990479    -0.002444041964    0.001389016808
            -0.001852188244    0.001077180654    0.036168138411    0.022221700995    -0.001450104582    0.000902510533    0.048049898058    0.031473843552
            0.018613192026    -0.052044990413    -0.001450104728    0.000902509922    0.008594390667    -0.080135691165    -0.001888221066    0.001174823997
            -0.002444042033    0.001389016283    0.048049900281    0.031473843809    -0.001888221066    0.001174823997    0.036554071978    0.022991437599
0.300     -0.018471159083    -0.077454412850    -0.001792813560    0.001519724258    -0.002238804036    -0.054196759536    -0.002361717818    0.001971738370
            -0.001792813560    0.001519724258    0.032540242758    0.030407338689    -0.001384608055    0.001256070384    0.046610117819    0.033892456426
            -0.002238802226    -0.054196761613    -0.001384608055    0.001256070384    -0.017898098094    -0.078560926553    -0.001792643110    0.001635458818
            -0.002361717818    0.001971738370    0.046610121429    0.033892456563    -0.001792642623    0.001635460093    0.033159723751    0.031052523218
0.325     -0.044879743465    -0.067025983201    -0.001624649615    0.001987103180    -0.024333429565    -0.049160299497    -0.002135341138    0.002579512528
            -0.001624649615    0.001987103180    0.031268682172    0.041262711532    -0.001229606297    0.001622602314    0.045859312295    0.038593836335
            -0.024333430452    -0.049160301290    -0.001229606297    0.001622602314    -0.044459088324    -0.068432356805    -0.001580308603    0.002105350418
            -0.002135341138    0.002579512528    0.045859315846    0.038593835221    -0.001580308603    0.002105350418    0.032068608919    0.041698429784
0.350     -0.068363118290    -0.048123182165    -0.001328130112    0.002450707648    -0.045144085215    -0.036607187231    -0.001744837093    0.003174219573
            -0.001328130112    0.002450707648    0.033445729927    0.053945505283    -0.000972274368    0.001977522665    0.046847676776    0.045255580222
            -0.045144085992    -0.036607187861    -0.000972274368    0.001977522665    -0.068191739061    -0.049802697738    -0.001239091434    0.002552634613
            -0.001744837093    0.003174219573    0.046847681304    0.045255579853    -0.001239091434    0.002552634613    0.034341241894    0.054110224264
0.375     -0.086120146012    -0.021850083714    -0.000893213981    0.002870023918    -0.062103792816    -0.017123938030    -0.001182521750    0.003705593814
            -0.000893213981    0.002870023918    0.039811336170    0.067203266126    -0.000608311170    0.002287972305    0.050438926830    0.053136859761
            -0.062103794744    -0.017123938561    -0.000608311170    0.002287972305    -0.086289224336    -0.023741587339    -0.000767624809    0.002937312594
            -0.001182524931    0.003705590385    0.050438930301    0.053136857845    -0.000767624834    0.002937312691    0.040695754805    0.067070387714
0.400     -0.095838773707    0.009740676630    -0.000325999910    0.003197960439    -0.072965966464    0.007812766794    -0.000459837532    0.004117861142
            -0.000325999910    0.003197960439    0.050609175359    0.079545160745    -0.000146667966    0.002517644672    0.057160069346    0.061192636733
            -0.072965967458    0.007812766901    -0.000146667922    0.002517644675    -0.096420587690    0.007731377416    -0.000179846813    0.003217005450
            -0.000459837532    0.004117861142    0.057160072550    0.061192633740    -0.000179846813    0.003217005450    0.051370177688    0.079130010515
0.425     -0.096011805819    0.043884990444    0.000348014358    0.003388524782    -0.076105479073    0.036013709919    0.000389975841    0.004358253396
            0.000348014358    0.003388524782    0.065514808971    0.089441516531    0.000388820781    0.002632993460    0.067095606210    0.068226003081
            -0.076105470813    0.036013657238    0.000388820781    0.002632993460    -0.097048102628    0.041877948562    0.000493689226    0.003353794524
            0.000389975841    0.004358253396    0.067095607890    0.068226000026    0.000493689211    0.003353794425    0.066050053574    0.088802160263
0.450     -0.086152055284    0.077451563329    0.001085451872    0.003406557034    -0.070743699457    0.064863918702    0.001314288041    0.004387545095
            0.001085451872    0.003406557034    0.083668189777    0.095557323433    0.000961560104    0.002610727209    0.079878854436    0.073084688856
            -0.070743700195    0.064863919378    0.000961560104    0.002610727209    -0.087644516277    0.075581258963    0.001208826116    0.003322305646
            0.001314288041    0.004387545095    0.079878856987    0.073084686068    0.001208826116    0.003322305646    0.083901561373    0.094786604307
0.475     -0.066830696558    0.107330253478    0.001831106166    0.003234629802    -0.057011029210    0.091656933148    0.002248147488    0.004187195959
            0.001831106166    0.003234629802    0.103783177601    0.096929450791    0.001527775233    0.002442477595    0.094745342073    0.074819995306
            -0.057011029210    0.091656933148    0.001527775233    0.002442477595    -0.068737312157    0.105731123110    0.001914149211    0.003114363720
            0.002248147488    0.004187195959    0.094745344684    0.074819991999    0.001914149211    0.003114363720    0.103676180725    0.096144365500
0.500     -0.039577514525    0.130796504592    0.002526963250    0.002876774273    -0.035892082252    0.113919994711    0.003124431885    0.003762834189
            0.002526963218    0.002876774035    0.124329889399    0.093093249189    0.002043986402    0.002136575106    0.110660147706    0.072814738632
            -0.035892085257    0.113920004249    0.002043977226    0.002136574474    -0.041813504786    0.129588473935    0.002559324258    0.002740608806
            0.003124431949    0.003762834266    0.110660147706    0.072814738632    0.002559324142    0.002740608777    0.123887330277    0.092418741465
0.525     -0.006655080927    0.145777238857    0.003120909712    0.002356830821    -0.009050245361    0.129650016770    0.003883297362    0.003142079888
            0.003120909712    0.002356830821    0.143722226136    0.084111278443    0.002473522176    0.001715563187    0.126451304651    0.066830091162
            -0.009050250583    0.129650026430    0.002473522176    0.001715563187    -0.009099321097    0.145052414281    0.003102172802    0.002227382880
            0.003883297362    0.003142079888    0.126451299309    0.066830079868    0.003102172763    0.002227382935    0.142993087352    0.083665367137
0.550     0.029216623585    0.151012267134    0.003573893421    0.001713897333    0.021387067024    0.137471393503    0.004479793798    0.002369135875
            0.003573893421    0.001713897333    0.160504762234    0.070542411814    0.002791337728    0.001211685966    0.140954533672    0.057011013074
            0.021387067024    0.137471393503    0.002791337728    0.001211685966    0.026711689685    0.150824432250    0.003513688903    0.001611570124
            0.004479793798    0.002369135875    0.140954533672    0.057011013074    0.003513688903    0.001611570124    0.159575539315    0.070420852466
0.575     0.065139511674    0.146091252256    0.003863244221    0.000995441107    0.053050809898    0.136678737083    0.004887295648    0.001497149827
            0.003863243992    0.000995441192    0.173480917332    0.053348328504    0.002985354069    0.000661082561    0.153112492115    0.043838592196
            0.053050809898    0.136678737083    0.002985354287    0.000661082500    0.062735615932    0.146450019964    0.003779413955    0.000934142058
            0.004887295648    0.001497149827    0.153112501728    0.043838594948    0.003779413858    0.000934142034    0.172467635233    0.053614502159
0.600     0.098281859580    0.131419947462    0.003983780941    0.000250708860    0.083522943502    0.127236497257    0.005098277324    0.000580874310
            0.003983781044    0.000250708825    0.181814792269    0.033783445103    0.003056089804    0.000098789652    0.162066314926    0.028075714741
            0.083522941281    0.127236498715    0.003056089804    0.000098789641    0.096142078581    0.132287050877    0.003898698997    0.000234684560
            0.005098277324    0.000580874310    0.162066305955    0.028075707942    0.003898698993    0.000234684629    0.180850160636    0.034460527976
0.625     0.126065151701    0.108125039458    0.003945770308    -0.000475226600    0.110480882382    0.109721069026    0.005121829824    -0.000329706221
            0.003945770402    -0.000475226660    0.185070022811    0.013274479472    0.003014004062    -0.000445067925    0.167198643853    0.010694656149
            0.110480882382    0.109721069026    0.003014003964    -0.000445067900    0.124341016627    0.109415207302    0.003881673547    -0.000452707356
            0.005121829824    -0.000329706221    0.167198634154    0.010694651133    0.003881673451    -0.000452707310    0.184290811279    0.014340645150
0.650     0.146311965432    0.077947336907    0.003772289973    -0.001146067756    0.131823040080    0.085273132489    0.004980510312    -0.001194143468
            0.003772289973    -0.001146067756    0.183239194613    -0.006694418316    0.002876922995    -0.000947774042    0.168189064727    -0.007183931902
            0.131823040080    0.085273132489    0.002876922995    -0.000947774042    0.145130296238    0.079532122716    0.003746249911    -0.001101966983
            0.004980510312    -0.001194143468    0.168189064740    -0.007183931608    0.003746249911    -0.001101966983    0.182772025590    -0.005304007157
0.675     0.157347793539    0.043127478524    0.003494791220    -0.001737523019    0.145757983086    0.055537364387    0.004705251915    -0.001984636742
            0.003494791220    -0.001737523019    0.176730051033    -0.024685661684    0.002666549441    -0.001395254005    0.165033118341    -0.024364513454
            0.145757992431    0.055537367947    0.002666549417    -0.001395254051    0.156799761178    0.044840780930    0.003514236315    -0.001696134800
            0.004705251915    -0.001984636742    0.165033118341    -0.024364513454    0.003514236345    -0.001696134739    0.176678534326    -0.023076764841
0.700     0.158101703109    0.006292868427    0.003148675016    -0.002239678902    0.150922679286    0.022611253734    0.004330674520    -0.002688069417
            0.003148674572    -0.002239678835    0.166360909391    -0.039414416242    0.002405594696    -0.001782761233    0.158088075092    -0.039653965550
            0.150922679286    0.022611253734    0.002405595066    -0.001782761573    0.158231075469    0.007940719614    0.003208265394    -0.002227782777
            0.004330674520    -0.002688069417    0.158088075092    -0.039653965550    0.003208265394    -0.002227782777    0.166792790066    -0.037725415275
0.725     0.148190197619    -0.029661731292    0.002767252410    -0.002657504049    0.146486517089    -0.011022495427    0.003888800710    -0.003305967497
            0.002767252317    -0.002657504146    0.153317978597    -0.049853288903    0.002114084002    -0.002114469545    0.148074052950    -0.051964374989
            0.146486517089    -0.011022495427    0.002114084002    -0.002114469545    0.148984910347    -0.028289842059    0.002848020468    -0.002698187915
            0.003888799354    -0.003305963071    0.148074043514    -0.051964371678    0.002848020540    -0.002698187983    0.154253484661    -0.048244851315
0.750     0.128014460349    -0.061728237357    0.002375564164    -0.003009822113    0.132300780969    -0.042609912716    0.003403141313    -0.003852889755
            0.002375564164    -0.003009822113    0.139105687578    -0.055351735496    0.001805912050    -0.002402351797    0.136080800212    -0.060435047442
            0.132300780969    -0.042609912716    0.001805912008    -0.002402351829    0.129399281126    -0.060842539189    0.002446977058    -0.003115879918
            0.003403141313    -0.003852889755    0.136080800212    -0.060435047442    0.002446977112    -0.003115879876    0.140510830125    -0.053989430047
0.775     0.098833264176    -0.086980345515    0.001983737023    -0.003324596742    0.109020690433    -0.069290295496    0.002882449420    -0.004351287525
            0.001983737023    -0.003324596742    0.125438464561    -0.055748357574    0.001484958943    -0.002662838157    0.123496307387    -0.064575881476
            0.109020694112    -0.069290252421    0.001484958897    -0.002662838183    0.100667526906    -0.086771977323    0.002008963986    -0.003492924583
            0.002882449420    -0.004351287525    0.123496307387    -0.064575881476    0.002008963986    -0.003492924583    0.127221544904    -0.054785207355
