!$
! Info: Touchstone file created by Circ.  Input file=Intel_C2M_200G_2p0in_202208016_staggered.circ
!$
# Hz S RI R 50
0	0.01231367	1.745871e-24	3.352992e-05	3.421707e-23	7.710384e-05	2.552366e-22	3.34626e-05	3.413407e-23
	3.352992e-05	3.421707e-23	0.01232696	1.938631e-24	3.3512e-05	3.420559e-23	7.67155e-05	2.542278e-22
	7.716212e-05	2.553868e-22	3.351199e-05	3.42064e-23	0.01230844	1.691583e-24	3.347537e-05	3.412433e-23
	3.34626e-05	3.413487e-23	7.677377e-05	2.543796e-22	3.347537e-05	3.412433e-23	0.01232488	1.842232e-24
1e+07	0.01516021	0.004066334	3.53199e-05	2.987826e-06	0.0007072765	0.004000243	1.156174e-06	5.665104e-06
	3.53199e-05	2.987826e-06	0.01477569	0.004213432	3.481485e-05	1.592291e-05	0.0008583621	0.004111671
	0.0007072765	0.004000243	3.481485e-05	1.592291e-05	0.01525235	0.003936871	1.363348e-05	5.296682e-06
	1.156174e-06	5.665104e-06	0.0008583621	0.004111671	1.363348e-05	5.296682e-06	0.01485047	0.00392449
2e+07	0.01783779	0.005920873	2.442653e-05	2.084882e-05	0.001499012	0.007688821	1.494894e-05	2.034897e-05
	2.442653e-05	2.084882e-05	0.01770277	0.0062983	3.263473e-05	2.738001e-06	0.001675516	0.007837099
	0.001499025	0.00768881	3.263473e-05	2.737999e-06	0.01774487	0.005692657	7.72906e-06	1.095614e-05
	1.494894e-05	2.034897e-05	0.001675529	0.007837087	7.729059e-06	1.095613e-05	0.01744698	0.005817658
3e+07	0.02032835	0.006794056	1.690844e-05	2.951949e-05	0.002621963	0.01132958	2.561368e-05	2.341515e-05
	1.690844e-05	2.951949e-05	0.02038827	0.007211724	3.132452e-05	1.128701e-06	0.002821814	0.01152029
	0.00262193	0.01132961	3.132451e-05	1.128702e-06	0.02008725	0.006590495	3.953835e-06	1.639634e-05
	2.561369e-05	2.341515e-05	0.002821781	0.01152033	3.953834e-06	1.639634e-05	0.01987229	0.006741111
4e+07	0.02259615	0.007051251	1.109877e-05	3.506554e-05	0.004151959	0.0147846	3.439398e-05	2.304295e-05
	1.109877e-05	3.506554e-05	0.0228179	0.007448942	3.089372e-05	3.506767e-06	0.004374017	0.0150142
	0.004151949	0.01478463	3.089373e-05	3.506767e-06	0.02224072	0.006912367	8.150467e-06	1.826457e-05
	3.439398e-05	2.304295e-05	0.004374007	0.01501422	8.150467e-06	1.826457e-05	0.02209595	0.007057786
5e+07	0.02472371	0.006919091	1.48055e-05	3.665853e-05	0.006040308	0.0180499	4.162555e-05	2.057563e-05
	1.48055e-05	3.665853e-05	0.02508074	0.007259951	3.056142e-05	5.196524e-06	0.006283569	0.01831438
	0.006040309	0.01804991	3.056142e-05	5.196524e-06	0.02427771	0.006869777	1.304173e-05	1.83931e-05
	4.162555e-05	2.057563e-05	0.006283569	0.01831439	1.304173e-05	1.83931e-05	0.02419291	0.006992099
6e+07	0.02674221	0.006460458	2.281853e-05	3.507964e-05	0.008271118	0.02109651	4.744202e-05	1.66381e-05
	2.281853e-05	3.507964e-05	0.02721039	0.006717702	3.027767e-05	6.522751e-06	0.008534374	0.02139184
	0.00827114	0.0210965	3.027767e-05	6.52275e-06	0.02622722	0.006519189	1.718926e-05	1.751978e-05
	4.744202e-05	1.66381e-05	0.008534396	0.02139183	1.718926e-05	1.751978e-05	0.02619309	0.006605651
7e+07	0.02864597	0.005722646	2.952982e-05	3.210658e-05	0.01082111	0.02389436	5.190608e-05	1.161955e-05
	2.952982e-05	3.210658e-05	0.02920183	0.005875073	3.003404e-05	7.678321e-06	0.01110278	0.0242165
	0.01082112	0.02389435	3.003404e-05	7.678321e-06	0.02808328	0.005903667	2.061527e-05	1.588811e-05
	5.190608e-05	1.161955e-05	0.01110278	0.0242165	2.061527e-05	1.588811e-05	0.02809078	0.005944248
8e+07	0.03043078	0.004751198	3.491349e-05	2.797433e-05	0.01366467	0.02641597	5.498504e-05	5.715789e-06
	3.491349e-05	2.797433e-05	0.03105032	0.004780738	2.981216e-05	8.747233e-06	0.01396255	0.02676083
	0.01366467	0.02641597	2.981216e-05	8.747233e-06	0.02984229	0.005066694	2.329752e-05	1.363382e-05
	5.498504e-05	5.715789e-06	0.01396255	0.02676083	2.329752e-05	1.363382e-05	0.02988219	0.005052903
9e+07	0.0321006	0.003585361	3.883506e-05	2.272525e-05	0.01677487	0.02863649	5.654785e-05	-1.051386e-06
	3.883506e-05	2.272525e-05	0.0327576	0.003474224	2.959638e-05	9.790785e-06	0.01708592	0.02899983
	0.01677487	0.0286365	2.959638e-05	9.790785e-06	0.03150982	0.004047122	2.515911e-05	1.079045e-05
	5.654785e-05	-1.051387e-06	0.01708591	0.02899984	2.515911e-05	1.079045e-05	0.03157219	0.003970956
1e+08	0.03367661	0.002274605	4.050534e-05	1.542468e-05	0.02012568	0.03053495	5.577897e-05	-9.594197e-06
	4.050534e-05	1.542468e-05	0.03433172	0.001990306	2.934297e-05	1.089234e-05	0.02044424	0.03091097
	0.02012568	0.03053495	2.934297e-05	1.089234e-05	0.03311805	0.002907281	2.573836e-05	6.897587e-06
	5.577897e-05	-9.594197e-06	0.02044424	0.03091097	2.573836e-05	6.897587e-06	0.03318894	0.002756318
1.1e+08	0.03521024	0.000694893	3.718671e-05	1.15517e-05	0.02370697	0.03208123	4.998899e-05	-1.440457e-05
	3.718671e-05	1.15517e-05	0.03577629	0.0002917699	2.924105e-05	1.215068e-05	0.02402347	0.03247663
	0.02370697	0.03208123	2.924105e-05	1.215068e-05	0.03482112	0.001456837	2.358751e-05	4.948861e-06
	4.998899e-05	-1.440457e-05	0.02402347	0.03247663	2.358751e-05	4.94886e-06	0.03486962	0.001246443
1.2e+08	0.03654575	-0.001055242	3.5052e-05	9.99436e-06	0.0274305	0.03324922	4.642553e-05	-1.535067e-05
	3.5052e-05	9.99436e-06	0.0370363	-0.001538116	2.928221e-05	1.337684e-05	0.02774733	0.03366585
	0.0274305	0.03324921	2.928221e-05	1.337684e-05	0.03626519	-0.0002365365	2.211918e-05	4.261136e-06
	4.642553e-05	-1.535067e-05	0.02774733	0.03366585	2.211918e-05	4.261136e-06	0.03629301	-0.0004946069
1.3e+08	0.03771477	-0.00293164	3.346945e-05	9.310061e-06	0.03127472	0.03403541	4.584192e-05	-1.260341e-05
	3.346945e-05	9.310061e-06	0.03813284	-0.003477178	2.942995e-05	1.460323e-05	0.03159194	0.03447252
	0.03127472	0.0340354	2.942995e-05	1.460323e-05	0.03751274	-0.002067949	2.09883e-05	4.03664e-06
	4.584192e-05	-1.260341e-05	0.03159194	0.03447252	2.09883e-05	4.03664e-06	0.03751858	-0.002368788
1.4e+08	0.03872465	-0.004916246	3.22497e-05	9.27575e-06	0.03520836	0.03443395	4.52909e-05	-1.019525e-05
	3.22497e-05	9.27575e-06	0.0390715	-0.005512297	2.968462e-05	1.584305e-05	0.03552525	0.03489012
	0.03520836	0.03443395	2.968462e-05	1.584305e-05	0.0385923	-0.004008217	2.005479e-05	4.192274e-06
	4.52909e-05	-1.019525e-05	0.03552525	0.03489012	2.005479e-05	4.192274e-06	0.03857434	-0.00434833
1.5e+08	0.03957699	-0.006992852	3.136585e-05	9.722317e-06	0.03919695	0.03443982	4.485484e-05	-8.021205e-06
	3.136585e-05	9.722317e-06	0.03985341	-0.007629661	3.007058e-05	1.706115e-05	0.03951223	0.03491339
	0.03919695	0.03443982	3.007058e-05	1.706115e-05	0.03951455	-0.006042889	2.022936e-05	5.480735e-06
	4.485484e-05	-8.021205e-06	0.03951223	0.03491339	2.022936e-05	5.480735e-06	0.03947086	-0.006419311
1.6e+08	0.04027169	-0.009145509	3.081563e-05	1.054001e-05	0.04320463	0.03405037	4.455331e-05	-5.981157e-06
	3.081563e-05	1.054001e-05	0.04047838	-0.009814709	3.057431e-05	1.828292e-05	0.04351651	0.03453962
	0.04320463	0.03405037	3.057431e-05	1.828292e-05	0.04028251	-0.00815898	2.07716e-05	6.977743e-06
	4.455331e-05	-5.981157e-06	0.04351651	0.03453962	2.07716e-05	6.977743e-06	0.0402112	-0.008569012
1.7e+08	0.04080953	-0.01135818	3.14364e-05	1.225971e-05	0.04719501	0.03326567	4.442378e-05	-4.060492e-06
	3.14364e-05	1.225971e-05	0.04094727	-0.01205236	3.121216e-05	1.947857e-05	0.04750123	0.03376888
	0.04719501	0.03326567	3.121216e-05	1.947857e-05	0.04089666	-0.0103428	2.139793e-05	8.405358e-06
	4.442378e-05	-4.060492e-06	0.04750123	0.03376888	2.139793e-05	8.405358e-06	0.04079587	-0.0107838
1.8e+08	0.04119217	-0.01361564	3.309585e-05	1.452368e-05	0.05113171	0.03208883	4.448252e-05	-2.237433e-06
	3.309585e-05	1.452368e-05	0.04126193	-0.01432811	3.198526e-05	2.064368e-05	0.05142958	0.03260443
	0.05113171	0.03208883	3.198526e-05	2.064368e-05	0.04135726	-0.01258041	2.212314e-05	9.776732e-06
	4.448252e-05	-2.237433e-06	0.05142958	0.03260442	2.212314e-05	9.776732e-06	0.04122536	-0.01304978
1.9e+08	0.04142295	-0.01590326	3.496606e-05	1.664538e-05	0.05497884	0.03052648	4.47335e-05	-4.654834e-07
	3.496606e-05	1.664538e-05	0.04142595	-0.01662794	3.288693e-05	2.180859e-05	0.05526526	0.03105309
	0.05497884	0.03052648	3.288693e-05	2.180859e-05	0.04166604	-0.01485769	2.29597e-05	1.10981e-05
	4.47335e-05	-4.654833e-07	0.05526526	0.03105309	2.29597e-05	1.10981e-05	0.04150147	-0.01535283
2e+08	0.04150643	-0.01820806	3.706071e-05	1.862141e-05	0.05870139	0.02858835	4.519423e-05	1.255604e-06
	3.706071e-05	1.862141e-05	0.04144404	-0.01893931	3.392656e-05	2.296531e-05	0.05897289	0.02912489
	0.05870139	0.02858835	3.392656e-05	2.296531e-05	0.04182592	-0.01716109	2.391785e-05	1.237087e-05
	4.519423e-05	1.255604e-06	0.05897289	0.02912489	2.391785e-05	1.237087e-05	0.04162741	-0.01767943
2.1e+08	0.04144757	-0.02051807	3.938928e-05	2.044344e-05	0.06226529	0.02628727	4.587918e-05	2.919049e-06
	3.938928e-05	2.044344e-05	0.04132146	-0.02125074	3.511394e-05	2.410315e-05	0.06251812	0.02683297
	0.06226529	0.02628727	3.511394e-05	2.410315e-05	0.04184076	-0.01947843	2.500721e-05	1.359224e-05
	4.587918e-05	2.919049e-06	0.06251812	0.02683297	2.500721e-05	1.359224e-05	0.0416072	-0.0200174
2.2e+08	0.04125247	-0.02282327	4.195865e-05	2.209766e-05	0.06563796	0.02363906	4.680017e-05	4.513252e-06
	4.195865e-05	2.209766e-05	0.04106448	-0.02355263	3.645727e-05	2.52109e-05	0.06586805	0.02419354
	0.06563796	0.02363906	3.645727e-05	2.52109e-05	0.04171529	-0.02179858	2.623631e-05	1.475607e-05
	4.680017e-05	4.513252e-06	0.06586805	0.02419354	2.623631e-05	1.475607e-05	0.04144577	-0.02235567
2.3e+08	0.04092751	-0.0251145	4.477303e-05	2.356624e-05	0.06878881	0.02066238	4.796766e-05	6.020915e-06
	4.477303e-05	2.356624e-05	0.04067972	-0.02583625	3.796576e-05	2.627298e-05	0.06899188	0.02122565
	0.06878881	0.02066238	3.796576e-05	2.627298e-05	0.04145553	-0.02411141	2.761175e-05	1.585387e-05
	4.796766e-05	6.020915e-06	0.06899188	0.02122565	2.761175e-05	1.585387e-05	0.04114934	-0.02468414
2.4e+08	0.04047933	-0.02738419	4.783378e-05	2.482823e-05	0.07168889	0.01737859	4.938768e-05	7.422985e-06
	4.783378e-05	2.482823e-05	0.04017395	-0.02809441	3.964569e-05	2.72742e-05	0.07186048	0.01795115
	0.07168889	0.01737859	3.964569e-05	2.72742e-05	0.04106748	-0.0264088	2.914022e-05	1.687439e-05
	4.938768e-05	7.422985e-06	0.07186048	0.01795115	2.914022e-05	1.687439e-05	0.04072407	-0.02699478
2.5e+08	0.0399146	-0.02962605	5.113939e-05	2.586024e-05	0.07431149	0.0138113	5.106413e-05	8.696843e-06
	5.113939e-05	2.586024e-05	0.039554	-0.0303212	4.15028e-05	2.819635e-05	0.07444699	0.0143941
	0.07431149	0.0138113	4.15028e-05	2.819635e-05	0.04055745	-0.02868317	3.082556e-05	1.780544e-05
	5.106413e-05	8.696843e-06	0.07444699	0.0143941	3.082556e-05	1.780544e-05	0.04017643	-0.02928007
2.6e+08	0.03923991	-0.03183481	5.468494e-05	2.663692e-05	0.07663264	0.009986516	5.29978e-05	9.817739e-06
	5.468494e-05	2.663692e-05	0.03882652	-0.03251172	4.354094e-05	2.902054e-05	0.07672741	0.01058102
	0.07663264	0.009986516	4.354094e-05	2.902054e-05	0.03993196	-0.03092874	3.267111e-05	1.863237e-05
	5.29978e-05	9.817739e-06	0.07672741	0.01058102	3.267111e-05	1.863237e-05	0.0395131	-0.03153434
2.7e+08	0.0384618	-0.03400616	5.846335e-05	2.713082e-05	0.07863039	0.005931987	5.518709e-05	1.07585e-05
	5.846335e-05	2.713082e-05	0.03799815	-0.03466206	4.576224e-05	2.972552e-05	0.07867975	0.00654018
	0.07863039	0.005931987	4.576224e-05	2.972552e-05	0.03919749	-0.03314072	3.467901e-05	1.933822e-05
	5.518709e-05	1.07585e-05	0.07867975	0.00654018	3.467901e-05	1.933822e-05	0.03874065	-0.0337529
2.8e+08	0.03758622	-0.03613707	6.246262e-05	2.731509e-05	0.08028576	0.001677178	5.762638e-05	1.149131e-05
	6.246262e-05	2.731509e-05	0.03707488	-0.0367695	4.816739e-05	3.028806e-05	0.08028508	0.00230156
	0.08028576	0.001677178	4.816739e-05	3.028806e-05	0.03835999	-0.03531497	3.684864e-05	1.990617e-05
	5.762638e-05	1.149131e-05	0.08028508	0.00230156	3.684864e-05	1.990617e-05	0.03786515	-0.03593174
2.9e+08	0.0366192	-0.03822507	6.666789e-05	2.716158e-05	0.08158275	-0.002746957	6.030691e-05	1.198796e-05
	6.666789e-05	2.716158e-05	0.03606274	-0.03883196	5.075375e-05	3.06852e-05	0.08152748	-0.002103379
	0.08158275	-0.002746958	5.075375e-05	3.06852e-05	0.03742543	-0.03744895	3.91782e-05	2.031734e-05
	6.030691e-05	1.198796e-05	0.08152748	-0.002103379	3.91782e-05	2.031734e-05	0.03689261	-0.03806842
3e+08	0.03556593	-0.04026844	7.10622e-05	2.664009e-05	0.0825078	-0.007308442	6.321652e-05	1.221871e-05
	7.10622e-05	2.664009e-05	0.03496688	-0.04084801	5.351608e-05	3.089385e-05	0.08239358	-0.006642076
	0.0825078	-0.007308442	5.351608e-05	3.089385e-05	0.0363992	-0.03954026	4.166371e-05	2.055198e-05
	6.321652e-05	1.221871e-05	0.08239358	-0.006642077	4.166371e-05	2.055198e-05	0.03582851	-0.04016065
3.1e+08	0.03443139	-0.0422662	7.562253e-05	2.57252e-05	0.08305073	-0.01197439	6.633997e-05	1.21543e-05
	7.562253e-05	2.57252e-05	0.03379223	-0.04281699	5.644784e-05	3.0887e-05	0.0828734	-0.0112812
	0.08305073	-0.01197439	5.644784e-05	3.0887e-05	0.03528635	-0.04158783	4.429869e-05	2.059071e-05
	6.633997e-05	1.21543e-05	0.0828734	-0.0112812	4.429869e-05	2.059071e-05	0.03467789	-0.04220752
3.2e+08	0.03322007	-0.04421803	8.032464e-05	2.438756e-05	0.08320434	-0.01671143	6.965775e-05	1.176647e-05
	8.032464e-05	2.438756e-05	0.03254318	-0.04473886	5.953784e-05	3.064177e-05	0.08296001	-0.01598686
	0.08320434	-0.01671143	5.953784e-05	3.064177e-05	0.03409097	-0.04359066	4.70752e-05	2.041148e-05
	6.965775e-05	1.176647e-05	0.08296001	-0.01598686	4.70752e-05	2.041148e-05	0.03344487	-0.04420806
3.3e+08	0.03193566	-0.04612397	8.513948e-05	2.260161e-05	0.08296409	-0.02148568	7.314789e-05	1.102632e-05
	8.513948e-05	2.260161e-05	0.0312233	-0.04661394	6.277389e-05	3.013134e-05	0.0826492	-0.02072468
	0.08296409	-0.02148568	6.277389e-05	3.013134e-05	0.03281709	-0.04554862	4.998203e-05	1.999457e-05
	7.314789e-05	1.102632e-05	0.0826492	-0.02072468	4.998203e-05	1.999457e-05	0.0321334	-0.04616226
3.4e+08	0.03058142	-0.0479844	9.003502e-05	2.034176e-05	0.08232892	-0.02626355	7.678361e-05	9.909517e-06
	9.003502e-05	2.034176e-05	0.0298357	-0.04844281	6.613962e-05	2.933067e-05	0.08194026	-0.02546066
	0.08232892	-0.02626355	6.613962e-05	2.933067e-05	0.03146779	-0.04746161	5.300614e-05	1.931816e-05
	7.678361e-05	9.909517e-06	0.08194026	-0.02546066	5.300614e-05	1.931816e-05	0.03074658	-0.04807012
3.5e+08	0.02915964	-0.04980019	9.497569e-05	1.758816e-05	0.08130025	-0.03101141	8.053693e-05	8.387372e-06
	9.497569e-05	1.758816e-05	0.02838251	-0.05022658	6.961563e-05	2.821739e-05	0.08083507	-0.03016075
	0.08130025	-0.03101141	6.961563e-05	2.821739e-05	0.03004574	-0.04933022	5.613188e-05	1.836174e-05
	8.053693e-05	8.387372e-06	0.08083507	-0.03016075	5.613188e-05	1.836174e-05	0.02928699	-0.04993227
3.6e+08	0.02767244	-0.05157238	9.992254e-05	1.431656e-05	0.07988281	-0.03569614	8.437474e-05	6.438133e-06
	9.992254e-05	1.431656e-05	0.02686563	-0.05196644	7.318073e-05	2.676481e-05	0.07933882	-0.03479146
	0.07988281	-0.03569614	7.318073e-05	2.676481e-05	0.02855266	-0.05115493	5.93404e-05	1.710671e-05
	8.437474e-05	6.438133e-06	0.07933882	-0.03479146	5.93404e-05	1.710671e-05	0.02775627	-0.05174923
3.7e+08	0.026121	-0.05330158	0.0001048348	1.051389e-05	0.078084	-0.04028578	8.826136e-05	4.04169e-06
	0.0001048348	1.051389e-05	0.02528606	-0.05366314	7.680914e-05	2.495457e-05	0.07745938	-0.03932048
	0.078084	-0.04028578	7.680914e-05	2.495457e-05	0.02698983	-0.0529362	6.261142e-05	1.553101e-05
	8.826136e-05	4.04169e-06	0.07745938	-0.03932048	6.261142e-05	1.553101e-05	0.02615563	-0.05352149
3.8e+08	0.02450593	-0.05498904	0.0001096672	6.162222e-06	0.07591361	-0.04474889	9.215867e-05	1.180576e-06
	0.0001096672	6.162222e-06	0.0236442	-0.05531805	8.047349e-05	2.27642e-05	0.07520713	-0.0437161
	0.07591361	-0.04474889	8.047349e-05	2.27642e-05	0.02535799	-0.05467487	6.59213e-05	1.361956e-05
	9.215867e-05	1.180576e-06	0.07520713	-0.0437161	6.59213e-05	1.361956e-05	0.02448571	-0.05524987
3.9e+08	0.02282676	-0.05663558	0.0001143729	1.251459e-06	0.07338469	-0.04905556	9.602574e-05	-2.164366e-06
	0.0001143729	1.251459e-06	0.02193933	-0.05693206	8.414334e-05	2.017435e-05	0.07259568	-0.04794816
	0.07338469	-0.04905556	8.414334e-05	2.017435e-05	0.02365693	-0.05637118	6.92442e-05	1.135224e-05
	9.602574e-05	-2.164366e-06	0.07259568	-0.04794816	6.92442e-05	1.135224e-05	0.02274619	-0.05693458
4e+08	0.02108293	-0.05824208	0.0001189023	-4.223232e-06	0.07051207	-0.05317731	9.981957e-05	-6.000515e-06
	0.0001189023	-4.223232e-06	0.02017066	-0.05850603	8.778478e-05	1.717001e-05	0.06964046	-0.05198799
	0.07051207	-0.05317731	8.778478e-05	1.717001e-05	0.02188632	-0.05802562	7.255168e-05	8.717749e-06
	9.981957e-05	-6.000515e-06	0.06964046	-0.05198799	7.255168e-05	8.717749e-06	0.02093661	-0.05857606
4.1e+08	0.01927341	-0.05980837	0.0001232057	-1.026695e-05	0.06731312	-0.057087	0.0001034934	-1.034022e-05
	0.0001232057	-1.026695e-05	0.01833693	-0.06003978	9.136231e-05	1.373581e-05	0.06635945	-0.05580834
	0.06731312	-0.057087	9.136231e-05	1.373581e-05	0.02004482	-0.0596381	7.581309e-05	5.699691e-06
	0.0001034934	-1.034022e-05	0.06635945	-0.05580834	7.581309e-05	5.699691e-06	0.01905556	-0.06017412
4.2e+08	0.01739573	-0.06133462	0.0001272287	-1.687843e-05	0.06380739	-0.06075983	0.0001070013	-1.518471e-05
	0.0001272287	-1.687843e-05	0.01643548	-0.06153347	9.483972e-05	9.860007e-06	0.06277288	-0.05938431
	0.06380739	-0.06075983	9.483972e-05	9.860007e-06	0.0181307	-0.06120817	7.899499e-05	2.288259e-06
	0.0001070013	-1.518471e-05	0.06277288	-0.05938431	7.899499e-05	2.288259e-06	0.01710117	-0.06172818
4.3e+08	0.01544776	-0.06282017	0.0001309161	-2.405233e-05	0.06001599	-0.06417265	0.0001102939	-2.053395e-05
	0.0001309161	-2.405233e-05	0.01446391	-0.06298635	9.817271e-05	5.5364e-06	0.05890246	-0.06269276
	0.06001599	-0.06417265	9.817271e-05	5.5364e-06	0.01614184	-0.06273491	8.206323e-05	-1.524794e-06
	0.0001102939	-2.053395e-05	0.05890246	-0.06269276	8.206323e-05	-1.524794e-06	0.01507126	-0.06323718
4.4e+08	0.01342696	-0.06426404	0.0001342155	-3.177641e-05	0.05596196	-0.06730436	0.000113321	-2.638821e-05
	0.0001342155	-3.177641e-05	0.01241948	-0.06439733	0.0001013205	7.600546e-07	0.05477194	-0.06571267
	0.05596196	-0.06730436	0.0001013205	7.600546e-07	0.01407577	-0.06421693	8.498057e-05	-5.743596e-06
	0.000113321	-2.638821e-05	0.05477194	-0.06571267	8.498057e-05	-5.743596e-06	0.01296328	-0.06469955
4.5e+08	0.01133001	-0.06566424	0.0001370699	-4.003646e-05	0.05166982	-0.07013633	0.0001160325	-3.273555e-05
	0.0001370699	-4.003646e-05	0.01029867	-0.06576425	0.0001042412	-4.468538e-06	0.05040647	-0.06842547
	0.05166982	-0.07013633	0.0001042412	-4.468538e-06	0.01192943	-0.06565205	8.77075e-05	-1.037437e-05
	0.0001160325	-3.273555e-05	0.05040647	-0.06842547	8.77075e-05	-1.037437e-05	0.01077411	-0.06611287
4.6e+08	0.009153185	-0.06701837	0.0001394235	-4.881139e-05	0.04716532	-0.07265198	0.0001183767	-3.956174e-05
	0.0001394235	-4.881139e-05	0.008097589	-0.0670845	0.0001068882	-1.015111e-05	0.04583242	-0.07081479
	0.04716532	-0.07265198	0.0001068882	-1.015111e-05	0.009699878	-0.06703768	9.020527e-05	-1.54147e-05
	0.0001183767	-3.956174e-05	0.04583242	-0.07081479	9.020527e-05	-1.54147e-05	0.00850075	-0.06747435
4.7e+08	0.006893496	-0.06832286	0.0001412213	-5.807759e-05	0.04247494	-0.07483756	0.0001203028	-4.685377e-05
	0.0001412213	-5.807759e-05	0.005813092	-0.06835428	0.0001092147	-1.627715e-05	0.04107691	-0.07286708
	0.04247494	-0.07483756	0.0001092147	-1.627715e-05	0.007383591	-0.06837011	9.243143e-05	-2.085801e-05
	0.0001203028	-4.685377e-05	0.04107691	-0.07286708	9.243143e-05	-2.085801e-05	0.006139709	-0.06878
4.8e+08	0.004547212	-0.06957386	0.0001424105	-6.78016e-05	0.03762637	-0.07668121	0.0001217613	-5.458387e-05
	0.0001424105	-6.78016e-05	0.003441359	-0.06956948	0.0001111741	-2.283843e-05	0.03616826	-0.07457078
	0.03762637	-0.07668121	0.0001111741	-2.283843e-05	0.004977522	-0.06964505	9.434419e-05	-2.670011e-05
	0.0001217613	-5.458387e-05	0.03616826	-0.07457078	9.434419e-05	-2.670011e-05	0.003687937	-0.07002523
4.9e+08	0.002110496	-0.07076634	0.0001429391	-7.794562e-05	0.03264748	-0.07817428	0.0001227016	-6.272839e-05
	0.0001429391	-7.794562e-05	0.000978453	-0.07072478	0.0001127213	-2.981821e-05	0.03113488	-0.07591758
