!$
! Info: Touchstone file created by Circ.  Input file=Intel_C2M_200G_2p0in_202208016_staggered.circ
!$
# Hz S RI R 50
0	0.01232696	1.938631e-24	0.9874717	-3.604972e-24	7.67155e-05	2.542278e-22	-0.0002085985	2.554595e-20
	0.9874717	-3.603628e-24	0.01288405	4.122011e-24	-0.0002086537	2.555271e-20	0.0003025645	2.469763e-22
	7.677377e-05	2.543796e-22	-0.0002087918	2.556962e-20	0.01232488	1.842232e-24	0.987472	-3.611292e-24
	-0.0002087366	2.556286e-20	0.0003026344	2.471473e-22	0.987472	-3.612644e-24	0.01288547	4.169931e-24
1e+07	0.01477569	0.004213432	0.9837803	-0.05652811	0.0008583621	0.004111671	-0.0006726688	-0.0007587976
	0.9837803	-0.05652811	0.0147385	0.004247648	-0.000672603	-0.0007588161	0.00085004	0.004114094
	0.0008583621	0.004111671	-0.000672603	-0.0007588161	0.01485047	0.00392449	0.9837063	-0.05622143
	-0.0006726688	-0.0007587976	0.00085004	0.004114094	0.9837063	-0.05622143	0.01481512	0.003958334
2e+07	0.01770277	0.0062983	0.9766247	-0.1107608	0.001675516	0.007837099	-0.0009226653	-0.001210378
	0.9766247	-0.1107608	0.01772877	0.006536785	-0.0009223587	-0.001210603	0.001591522	0.007906337
	0.001675529	0.007837087	-0.0009223506	-0.001210714	0.01744698	0.005817658	0.9768869	-0.1102448
	-0.0009226566	-0.001210482	0.00159161	0.007906234	0.9768869	-0.1102448	0.01747072	0.006056642
3e+07	0.02038827	0.007211724	0.9671252	-0.1634184	0.002821814	0.01152029	-0.001198904	-0.001621218
	0.9671252	-0.1634184	0.02011852	0.007381849	-0.001198518	-0.001621612	0.002754496	0.01154183
	0.002821781	0.01152033	-0.001198561	-0.001621615	0.01987229	0.006741111	0.9676459	-0.1628901
	-0.001198915	-0.001621225	0.002754473	0.0115418	0.9676459	-0.1628901	0.01961545	0.006904291
4e+07	0.0228179	0.007448942	0.9551234	-0.2150129	0.004374017	0.0150142	-0.0015089	-0.001986798
	0.9551234	-0.2150129	0.02231205	0.007761312	-0.00150842	-0.001987386	0.004250698	0.01505077
	0.004374007	0.01501422	-0.001508426	-0.001987382	0.02209595	0.007057786	0.9558563	-0.2145425
	-0.001508903	-0.001986785	0.004250698	0.01505077	0.9558563	-0.2145425	0.02161051	0.007355768
5e+07	0.02508074	0.007259951	0.9405966	-0.2655766	0.006283569	0.01831438	-0.00185018	-0.002304034
	0.9405966	-0.2655766	0.02434421	0.007724801	-0.001849647	-0.00230495	0.006096402	0.01838121
	0.006283569	0.01831439	-0.001849644	-0.002304951	0.02419291	0.006992099	0.9415058	-0.2652094
	-0.001850177	-0.002304035	0.006096405	0.01838122	0.9415058	-0.2652094	0.02348442	0.007434518
6e+07	0.02721039	0.006717702	0.923569	-0.3150566	0.008534374	0.02139184	-0.002217109	-0.002574621
	0.923569	-0.3150566	0.02619441	0.007377813	-0.00221664	-0.002575904	0.008270478	0.02150152
	0.008534396	0.02139183	-0.002216638	-0.002575904	0.02619309	0.006605651	0.9246221	-0.3148263
	-0.002217107	-0.002574621	0.008270477	0.02150152	0.9246221	-0.3148263	0.02521337	0.007233667
7e+07	0.02920183	0.005875073	0.9040835	-0.3633743	0.01110278	0.0242165	-0.002605818	-0.002800535
	0.9040835	-0.3633743	0.02787503	0.006797602	-0.002605461	-0.00280226	0.01075114	0.02438441
	0.01110278	0.0242165	-0.002605403	-0.002802302	0.02809078	0.005944248	0.9052475	-0.3633086
	-0.002605815	-0.002800536	0.01075114	0.02438441	0.9052475	-0.3633086	0.02680803	0.006823123
8e+07	0.03105032	0.004780738	0.8821915	-0.4104375	0.01396255	0.02676083	-0.003012835	-0.002983152
	0.8821915	-0.4104375	0.02939699	0.006029213	-0.003012729	-0.00298538	0.01351381	0.02700422
	0.01396255	0.02676083	-0.00301273	-0.002985378	0.02988219	0.005052903	0.8834349	-0.4105619
	-0.003012837	-0.00298315	0.01351381	0.02700422	0.8834349	-0.4105619	0.02827943	0.006243977
9e+07	0.0327576	0.003474224	0.857953	-0.4561486	0.01708592	0.02899983	-0.003435209	-0.003123632
	0.857953	-0.4561486	0.03076125	0.005105945	-0.003435517	-0.003126357	0.01653242	0.02933826
	0.01708591	0.02899984	-0.003435518	-0.003126348	0.03157219	0.003970956	0.8592372	-0.4564899
	-0.003435213	-0.003123623	0.01653242	0.02933826	0.8592372	-0.4564899	0.02963174	0.005530529
1e+08	0.03433172	0.001990306	0.8314311	-0.5004132	0.02044424	0.03091097	-0.003871478	-0.003223714
	0.8314311	-0.5004132	0.03196752	0.004066407	-0.003872503	-0.003226789	0.01978093	0.03136672
	0.02044424	0.03091097	-0.003872503	-0.003226789	0.03318894	0.002756318	0.8326982	-0.5010258
	-0.003871477	-0.003223715	0.01978093	0.03136672	0.8326982	-0.5010258	0.03088429	0.004745537
1.1e+08	0.03577629	0.0002917699	0.8026938	-0.5430958	0.02402347	0.03247663	-0.004321452	-0.003274826
	0.8026938	-0.5430958	0.03306096	0.002932391	-0.004323575	-0.003277271	0.02322697	0.03306503
	0.02402347	0.03247663	-0.004323575	-0.003277272	0.03486962	0.001246443	0.8038055	-0.543892
	-0.004321451	-0.003274827	0.02322697	0.03306503	0.8038055	-0.543892	0.03215637	0.00379447
1.2e+08	0.0370363	-0.001538116	0.7718434	-0.584098	0.02774733	0.03366585	-0.004770528	-0.003287682
	0.7718434	-0.584098	0.03399688	0.00170439	-0.004772913	-0.003289737	0.02683351	0.03442055
	0.02774733	0.03366585	-0.004772912	-0.003289739	0.03629301	-0.0004946069	0.7728223	-0.5850161
	-0.004770527	-0.003287683	0.02683351	0.03442055	0.7728223	-0.5850161	0.03325395	0.002671186
1.3e+08	0.03813284	-0.003477178	0.7389703	-0.6233307	0.03159194	0.03447252	-0.00522091	-0.003263888
	0.7389703	-0.6233307	0.03478467	0.0004210861	-0.005223393	-0.003266261	0.03056871	0.03542345
	0.03159194	0.03447252	-0.005223393	-0.003266262	0.03751858	-0.002368788	0.7398229	-0.6243443
	-0.00522091	-0.003263889	0.03056871	0.03542345	0.7398229	-0.6243443	0.03419462	0.001454091
1.4e+08	0.0390715	-0.005512297	0.7041709	-0.6607029	0.03552525	0.03489012	-0.005672218	-0.003204699
	0.7041709	-0.6607029	0.03543527	-0.0008917198	-0.005675307	-0.003207442	0.03439905	0.036066
	0.03552525	0.03489012	-0.005675307	-0.003207443	0.03857434	-0.00434833	0.7048993	-0.6617908
	-0.005672218	-0.0032047	0.03439905	0.036066	0.7048993	-0.6617908	0.03498926	0.000181419
1.5e+08	0.03985341	-0.007629661	0.6675458	-0.6961271	0.03951223	0.03491339	-0.006123814	-0.003110764
	0.6675458	-0.6961271	0.03596112	-0.002214385	-0.006127774	-0.003113913	0.03829084	0.03634329
	0.03951223	0.03491339	-0.006127774	-0.003113913	0.03947086	-0.006419311	0.6681527	-0.6972725
	-0.006123814	-0.003110765	0.03829084	0.03634329	0.6681527	-0.6972725	0.03565101	-0.001120469
1.6e+08	0.04047838	-0.009814709	0.629199	-0.7295174	0.04351651	0.03453962	-0.006574809	-0.002982562
	0.629199	-0.7295174	0.03637505	-0.003531616	-0.006579915	-0.002985897	0.04221039	0.03625375
	0.04351651	0.03453962	-0.006579915	-0.002985897	0.0402112	-0.008569012	0.629686	-0.7307081
	-0.006574809	-0.002982563	0.04221039	0.03625375	0.629686	-0.7307081	0.03619333	-0.002432303
1.7e+08	0.04094727	-0.01205236	0.5892389	-0.7607962	0.04750123	0.03376888	-0.007024204	-0.002820466
	0.5892389	-0.7607962	0.03669002	-0.004831575	-0.007030677	-0.002823581	0.04612394	0.03579833
	0.04750123	0.03376888	-0.007030678	-0.002823581	0.04079587	-0.0107838	0.5896082	-0.7620203
	-0.007024205	-0.002820467	0.04612394	0.03579833	0.5896082	-0.7620203	0.03662999	-0.003739777
1.8e+08	0.04126193	-0.01432811	0.5477781	-0.7898911	0.05142958	0.03260443	-0.007470958	-0.002624707
	0.5477781	-0.7898911	0.03691937	-0.006104835	-0.007478841	-0.002627273	0.04999855	0.03498122
	0.05142958	0.03260442	-0.007478842	-0.002627274	0.04122536	-0.01304978	0.5480312	-0.7911374
	-0.007470958	-0.002624707	0.04999855	0.03498122	0.5480312	-0.7911374	0.03697409	-0.005032035
1.9e+08	0.04142595	-0.01662794	0.5049327	-0.8167326	0.05526526	0.03105309	-0.007914115	-0.002395058
	0.5049327	-0.8167326	0.03707566	-0.007344481	-0.007923372	-0.002396753	0.05380189	0.0338099
	0.05526526	0.03105309	-0.007923372	-0.002396753	0.04150147	-0.01535283	0.5050739	-0.817992
	-0.007914115	-0.002395059	0.05380189	0.0338099	0.5050739	-0.817992	0.03723871	-0.006300963
2e+08	0.04144404	-0.01893931	0.4608219	-0.8412576	0.05897289	0.02912489	-0.008352535	-0.00213125
	0.4608219	-0.8412576	0.03717226	-0.008545549	-0.008363028	-0.002131958	0.05750238	0.03229419
	0.05897289	0.02912489	-0.008363028	-0.002131958	0.04162741	-0.01767943	0.4608519	-0.8425208
	-0.008352535	-0.00213125	0.05750238	0.03229419	0.4608519	-0.8425208	0.03743611	-0.007540551
2.1e+08	0.04132146	-0.02125074	0.4155682	-0.8634116	0.06251812	0.02683297	-0.008784991	-0.001833142
	0.4155682	-0.8634116	0.03722121	-0.009705068	-0.00879667	-0.00183242	0.06107045	0.03044721
	0.06251812	0.02683297	-0.00879667	-0.00183242	0.0416072	-0.0200174	0.41549	-0.8646698
	-0.008784991	-0.001833142	0.06107045	0.03044721	0.41549	-0.8646698	0.03757895	-0.008747018
2.2e+08	0.04106448	-0.02355263	0.3692949	-0.8831436	0.06586805	0.02419354	-0.009210062	-0.00149989
	0.3692949	-0.8831436	0.03723515	-0.0108219	-0.009222721	-0.001497659	0.06447763	0.02828448
	0.06586805	0.02419354	-0.009222721	-0.001497659	0.04144577	-0.02235567	0.3691118	-0.884389
	-0.009210062	-0.00149989	0.06447763	0.02828448	0.3691118	-0.884389	0.03767874	-0.009918163
2.3e+08	0.04067972	-0.02583625	0.3221304	-0.9004081	0.06899188	0.02122565	-0.009625954	-0.001131302
	0.3221304	-0.9004081	0.03722581	-0.01189665	-0.009639566	-0.001127166	0.06769728	0.0258238
	0.06899188	0.02122565	-0.009639566	-0.001127166	0.04114934	-0.02468414	0.3218445	-0.9016335
	-0.009625954	-0.001131302	0.06769728	0.0258238	0.3218445	-0.9016335	0.03774704	-0.0110536
2.4e+08	0.04017395	-0.02809441	0.2742025	-0.9151695	0.07186048	0.01795115	-0.01003102	-0.0007263089
	0.2742025	-0.9151695	0.03720429	-0.01293166	-0.01004531	-0.0007202629	0.07070523	0.02308559
	0.07186048	0.01795115	-0.01004531	-0.000720263	0.04072407	-0.02699478	0.273818	-0.9163686
	-0.01003102	-0.0007263089	0.07070523	0.02308559	0.273818	-0.9163686	0.03779473	-0.01215467
2.5e+08	0.039554	-0.0303212	0.2256427	-0.9273972	0.07444699	0.0143941	-0.01042308	-0.0002843358
	0.2256427	-0.9273972	0.03718131	-0.01393096	-0.01043776	-0.000276194	0.07347926	0.02009196
	0.07444699	0.0143941	-0.01043776	-0.0002761941	0.04017643	-0.02928007	0.2251616	-0.9285617
	-0.01042308	-0.0002843358	0.07347926	0.02009196	0.2251616	-0.9285617	0.03783223	-0.01322416
2.6e+08	0.03882652	-0.03251172	0.1765812	-0.9370662	0.07672741	0.01058102	-0.01079982	0.0001949327
	0.1765812	-0.9370662	0.03716595	-0.0148997	-0.01081469	0.0002055935	0.07599965	0.01686666
	0.07672741	0.01058102	-0.01081469	0.0002055935	0.0395131	-0.03153434	0.1760089	-0.9381895
	-0.01079982	0.0001949327	0.07599965	0.01686666	0.1760089	-0.9381895	0.03786869	-0.01426651
2.7e+08	0.03799815	-0.03466206	0.1271503	-0.9441582	0.07867975	0.00654018	-0.01115866	0.0007120615
	0.1271503	-0.9441582	0.0371669	-0.01584468	-0.01117335	0.0007251398	0.07824927	0.01343525
	0.07867975	0.00654018	-0.01117335	0.0007251398	0.03874065	-0.0337529	0.1264905	-0.9452351
	-0.01115866	0.0007120614	0.07824927	0.01343525	0.1264905	-0.9452351	0.03791271	-0.01528732
2.8e+08	0.03707488	-0.0367695	0.07748268	-0.9486625	0.08028508	0.00230156	-0.01149664	0.001267138
	0.07748268	-0.9486625	0.03719137	-0.01677396	-0.01151086	0.001283003	0.08021372	0.009824081
	0.08028508	0.00230156	-0.01151086	0.001283002	0.03786515	-0.03593174	0.07673945	-0.9496878
	-0.01149664	0.001267138	0.08021372	0.009824081	0.07673945	-0.9496878	0.03797165	-0.0162934
2.9e+08	0.03606274	-0.03883196	0.02771205	-0.9505758	0.08152748	-0.002103379	-0.01181068	0.001860701
	0.02771205	-0.9505758	0.03724487	-0.0176962	-0.01182415	0.001879184	0.08188124	0.006060775
	0.08152748	-0.002103379	-0.01182415	0.001879184	0.03689261	-0.03806842	0.02688987	-0.9515436
	-0.01181068	0.0018607	0.08188124	0.006060775	0.02688987	-0.9515436	0.03805141	-0.01729277
3e+08	0.03496688	-0.04084801	-0.02202953	-0.9498989	0.08239358	-0.006642076	-0.01209754	0.002492118
	-0.02202953	-0.9498989	0.03733203	-0.01862118	-0.01210992	0.002513252	0.08324268	0.002173036
	0.08239358	-0.006642077	-0.01210992	0.002513252	0.03582851	-0.04016065	-0.02292618	-0.9508037
	-0.01209754	0.002492118	0.08324268	0.002173035	-0.02292618	-0.9508037	0.03815694	-0.01829412
3.1e+08	0.03379223	-0.04281699	-0.07161124	-0.946642	0.0828734	-0.0112812	-0.01235384	0.003160869
	-0.07161124	-0.946642	0.03745574	-0.01955922	-0.01236453	0.003184872	0.08429215	-0.001810419
	0.0828734	-0.0112812	-0.01236453	0.003184872	0.03467789	-0.04220752	-0.0725754	-0.9474777
	-0.01235384	0.003160869	0.08429215	-0.001810419	-0.0725754	-0.9474777	0.03829139	-0.01930712
3.2e+08	0.03254318	-0.04473886	-0.120899	-0.9408193	0.08296001	-0.01598686	-0.01257598	0.003866122
	-0.120899	-0.9408193	0.03761729	-0.02052117	-0.0125846	0.003892955	0.08502634	-0.005861423
	0.08296001	-0.01598686	-0.0125846	0.003892955	0.03344487	-0.04420806	-0.1219284	-0.941583
	-0.01257598	0.003866122	0.08502634	-0.005861423	-0.1219284	-0.941583	0.03845657	-0.02034186
3.3e+08	0.0312233	-0.04661394	-0.1697653	-0.9324519	0.0826492	-0.02072468	-0.01276019	0.004606947
	-0.1697653	-0.9324519	0.03781639	-0.02151803	-0.01276651	0.004635924	0.0854442	-0.009951795
	0.0826492	-0.02072468	-0.01276651	0.004635923	0.0321334	-0.04616226	-0.1708524	-0.9331394
	-0.01276019	0.004606947	0.0854442	-0.009951795	-0.1708524	-0.9331394	0.03865297	-0.02140857
3.4e+08	0.0298357	-0.04844281	-0.2180784	-0.9215683	0.08194026	-0.02546066	-0.0129029	0.005381176
	-0.2180784	-0.9215683	0.03805129	-0.02256091	-0.0129063	0.005412623	0.08554813	-0.01405366
	0.08194026	-0.02546066	-0.0129063	0.005412623	0.03074658	-0.04807012	-0.2192204	-0.9221772
	-0.0129029	0.005381176	0.08554813	-0.01405366	-0.2192204	-0.9221772	0.03887911	-0.02251775
3.5e+08	0.02838251	-0.05022658	-0.2657144	-0.9082038	0.08083507	-0.03016075	-0.01300042	0.006187054
	-0.2657144	-0.9082038	0.0383183	-0.02366063	-0.01300044	0.006220713	0.08534262	-0.01814039
	0.08083507	-0.03016075	-0.01300044	0.006220713	0.02928699	-0.04993227	-0.2669019	-0.9087286
	-0.01300042	0.006187054	0.08534262	-0.01814039	-0.2669019	-0.9087286	0.03913233	-0.02368014
3.6e+08	0.02686563	-0.05196644	-0.3125456	-0.8923985	0.07933882	-0.03479146	-0.0130491	0.007022166
	-0.3125456	-0.8923985	0.03861244	-0.02482821	-0.01304561	0.007057492	0.08483465	-0.02218594
	0.07933882	-0.03479146	-0.01304561	0.007057492	0.02775627	-0.05174923	-0.3137735	-0.8928368
	-0.0130491	0.007022166	0.08483465	-0.02218594	-0.3137735	-0.8928368	0.0394082	-0.02490564
3.7e+08	0.02528606	-0.05366314	-0.3584501	-0.8741979	0.07745938	-0.03932048	-0.01304567	0.007883369
	-0.3584501	-0.8741979	0.03892712	-0.02607348	-0.01303815	0.007920254	0.08403358	-0.02616563
	0.07745938	-0.03932048	-0.01303815	0.007920254	0.02615563	-0.05352149	-0.3597133	-0.874548
	-0.01304567	0.007883369	0.08403358	-0.02616563	-0.3597133	-0.874548	0.03970074	-0.02620432
3.8e+08	0.0236442	-0.05531805	-0.4033087	-0.8536553	0.07520713	-0.0437161	-0.01298651	0.008768065
	-0.4033087	-0.8536553	0.03925438	-0.02740571	-0.01297502	0.008805469	0.08295078	-0.03005626
	0.07520713	-0.0437161	-0.01297502	0.008805469	0.02448571	-0.05524987	-0.4045989	-0.8539136
	-0.01298651	0.008768065	0.08295078	-0.03005626	-0.4045989	-0.8539136	0.04000296	-0.0275854
3.9e+08	0.02193933	-0.05693206	-0.4470012	-0.8308292	0.07259568	-0.04794816	-0.01286915	0.009671781
	-0.4470012	-0.8308292	0.03958458	-0.02883394	-0.01285284	0.009710024	0.0815999	-0.03383627
	0.07259568	-0.04794816	-0.01285284	0.009710024	0.02274619	-0.05693458	-0.4483136	-0.8309969
	-0.01286915	0.009671781	0.0815999	-0.03383627	-0.4483136	-0.8309969	0.04030569	-0.02905708
4e+08	0.02017066	-0.05850603	-0.4894126	-0.8057857	0.06964046	-0.05198799	-0.01269038	0.01059104
	-0.4894126	-0.8057857	0.039907	-0.03036558	-0.01266948	0.01062923	0.079996	-0.03748587
	0.06964046	-0.05198799	-0.01266948	0.01062923	0.02093661	-0.05857606	-0.4907403	-0.8058589
	-0.01269038	0.01059104	0.079996	-0.03748587	-0.4907403	-0.8058589	0.04059927	-0.03062732
4.1e+08	0.01833693	-0.06003978	-0.5304342	-0.7785913	0.06635945	-0.05580834	-0.01244775	0.01152162
	-0.5304342	-0.7785913	0.04020994	-0.0320068	-0.01242215	0.01155899	0.07815576	-0.0409869
	0.06635945	-0.05580834	-0.01242215	0.01155899	0.01905556	-0.06017412	-0.5317717	-0.7785695
	-0.01244775	0.01152162	0.07815576	-0.0409869	-0.5317717	-0.7785695	0.04087241	-0.03230228
4.2e+08	0.01643548	-0.06153347	-0.5699561	-0.7493246	0.06277288	-0.05938431	-0.01213966	0.0124585
	-0.5699561	-0.7493246	0.04048027	-0.03376291	-0.01210901	0.01249467	0.07609732	-0.04432408
	0.06277288	-0.05938431	-0.01210901	0.01249467	0.01710117	-0.06172818	-0.5712954	-0.7492082
	-0.01213966	0.0124585	0.07609732	-0.04432408	-0.5712954	-0.7492082	0.04111296	-0.03408739
4.3e+08	0.01446391	-0.06298635	-0.6078755	-0.7180647	0.05890246	-0.06269276	-0.01176392	0.0133973
	-0.6078755	-0.7180647	0.04070439	-0.03563752	-0.01172862	0.0134316	0.07383969	-0.04748336
	0.05890246	-0.06269276	-0.01172862	0.0134316	0.01507126	-0.06323718	-0.609211	-0.7178534
	-0.01176392	0.0133973	0.07383969	-0.04748336	-0.609211	-0.7178534	0.04130746	-0.03598646
4.4e+08	0.01241948	-0.06439733	-0.6440935	-0.684897	0.05477194	-0.06571267	-0.01131953	0.01433283
	-0.6440935	-0.684897	0.04086771	-0.03763274	-0.01127932	0.0143647	0.07140254	-0.05045352
	0.05477194	-0.06571267	-0.01127932	0.0143647	0.01296328	-0.06469955	-0.6454181	-0.6845917
	-0.01131953	0.01433283	0.07140254	-0.05045352	-0.6454181	-0.6845917	0.04144247	-0.03800192
4.5e+08	0.01029867	-0.06576425	-0.6785128	-0.6499141	0.05040647	-0.06842547	-0.01080568	0.01525994
	-0.6785128	-0.6499141	0.04095507	-0.03974921	-0.01076075	0.01528887	0.06880665	-0.05322534
	0.05040647	-0.06842547	-0.01076075	0.01528887	0.01077411	-0.06611287	-0.67982	-0.6495157
	-0.01080568	0.01525994	0.06880665	-0.05322534	-0.67982	-0.6495157	0.04150322	-0.04013471
4.6e+08	0.008097589	-0.0670845	-0.7110418	-0.6132118	0.04583242	-0.07081479	-0.01022156	0.01617357
	-0.7110418	-0.6132118	0.04095095	-0.04198601	-0.0101725	0.01619884	0.06607278	-0.05579219
	0.04583242	-0.07081479	-0.0101725	0.01619884	0.00850075	-0.06747435	-0.7123259	-0.6127203
	-0.01022156	0.01617357	0.06607278	-0.05579219	-0.7123259	-0.6127203	0.04147464	-0.04238431
4.7e+08	0.005813092	-0.06835428	-0.7415994	-0.5748899	0.04107691	-0.07286708	-0.009567895	0.01706806
	-0.7415994	-0.5748899	0.04083962	-0.04433975	-0.009514714	0.01708924	0.06322162	-0.05814935
	0.04107691	-0.07286708	-0.009514714	0.01708924	0.006139709	-0.06878	-0.742852	-0.5743075
	-0.009567895	0.01706806	0.06322162	-0.05814935	-0.742852	-0.5743075	0.04134164	-0.04474815
4.8e+08	0.003441359	-0.06956948	-0.7701	-0.535051	0.03616826	-0.07457078	-0.008844534	0.01793862
	-0.7701	-0.535051	0.04060572	-0.04680624	-0.008788019	0.01795487	0.06027395	-0.06029452
	0.03616826	-0.07457078	-0.008788019	0.01795487	0.003687937	-0.07002523	-0.7713178	-0.5343816
	-0.008844534	0.01793862	0.06027395	-0.06029452	-0.7713178	-0.5343816	0.04108899	-0.04722218
4.9e+08	0.000978453	-0.07072478	-0.7964688	-0.4938088	0.03113488	-0.07591758	-0.008053163	0.0187796
	-0.7964688	-0.4938088	0.04023347	-0.04937881	-0.007993341	0.0187907	0.05725006	-0.06222774
	0.03113488	-0.07591758	-0.007993341	0.0187907	0.00114197	-0.07120453	-0.7976461	-0.4930518
	-0.008053163	0.0187796	0.05725006	-0.06222774	-0.7976461	-0.4930518	0.04070128	-0.04980068
5e+08	-0.001578533	-0.07181369	-0.8206403	-0.4512715	0.02600553	-0.076901	-0.007194279	0.01958602
	-0.8206403	-0.4512715	0.03970784	-0.05204941	-0.00713219	0.01959149	0.05416944	-0.06395084
	0.02600553	-0.076901	-0.00713219	0.01959149	-0.001500807	-0.07231163	-0.8217688	-0.4504327
	-0.007194279	0.01958602	0.05416944	-0.06395084	-0.8217688	-0.4504327	0.04016372	-0.05247622
5.1e+08	-0.004233037	-0.07282942	-0.8425458	-0.4075572	0.02080953	-0.07751718	-0.006270577	0.02035281
	-0.8425458	-0.4075572	0.03901431	-0.0548083	-0.006206714	0.0203522	0.05105079	-0.06546792
	0.02080953	-0.07751718	-0.006206714	0.0203522	-0.004243239	-0.07333938	-0.8436228	-0.4066396
	-0.006270577	0.02035281	0.05105079	-0.06546792	-0.8436228	-0.4066396	0.03946194	-0.05523942
5.2e+08	-0.006987526	-0.07376395	-0.8621295	-0.3627871	0.01557515	-0.07776533	-0.005283574	0.02107508
	-0.8621295	-0.3627871	0.03813918	-0.05764373	-0.005218219	0.02106832	0.04791196	-0.06678479
