!$
! Info: Touchstone file created by Circ.  Input file=Intel_C2M_200G_2p0in_202208016_staggered.circ
!$
# Hz S RI R 50
0	0.01288405	4.121673e-24	-5.558543e-05	6.807252e-21	0.0003025663	2.469715e-22	-5.12097e-05	6.27138e-21
	-5.558553e-05	6.807264e-21	0.01232696	1.938631e-24	-6.28424e-05	7.695974e-21	7.67155e-05	2.542278e-22
	0.0003026362	2.471409e-22	-6.284249e-05	7.695986e-21	0.01288527	4.171072e-24	-5.561104e-05	6.810388e-21
	-5.120969e-05	6.271379e-21	7.677377e-05	2.543796e-22	-5.561094e-05	6.810376e-21	0.01232488	1.842232e-24
1e+07	0.01524071	0.003912419	-0.0003243378	-0.000123556	0.0007051148	0.004068484	-3.965185e-05	-9.789091e-05
	-0.0003243378	-0.000123556	0.01477569	0.004213432	-0.000206166	-1.324907e-05	0.0008583621	0.004111671
	0.0007051148	0.004068484	-0.000206166	-1.324907e-05	0.01515358	0.004138431	-0.0002664714	-9.604053e-05
	-3.965185e-05	-9.789091e-05	0.0008583621	0.004111671	-0.0002664714	-9.604053e-05	0.01485047	0.00392449
2e+07	0.01779181	0.005811413	-0.0003166966	-0.0002390854	0.001430259	0.007887472	-6.077737e-05	-0.0001639818
	-0.0003166965	-0.0002390854	0.01770277	0.0062983	-0.0002874369	-0.0001078878	0.001675516	0.007837099
	0.001430346	0.007887369	-0.0002874369	-0.0001078878	0.01790695	0.006229267	-0.0002497495	-0.0002829737
	-6.077736e-05	-0.0001639817	0.001675529	0.007837087	-0.0002497495	-0.0002829737	0.01744698	0.005817658
3e+07	0.01984013	0.006572864	-0.0003317799	-0.0003513622	0.002581934	0.01154097	-9.031213e-05	-0.0002357797
	-0.0003317799	-0.0003513623	0.02038827	0.007211724	-0.0003660718	-0.000195595	0.002821814	0.01152029
	0.002581911	0.01154095	-0.0003660718	-0.000195595	0.02012716	0.007057246	-0.0002556627	-0.0004021973
	-9.031213e-05	-0.0002357797	0.002821781	0.01152033	-0.0002556628	-0.0004021973	0.01987229	0.006741111
4e+07	0.02174944	0.006968311	-0.0003626374	-0.000445994	0.004070773	0.01506883	-0.0001282748	-0.0003045856
	-0.0003626374	-0.000445994	0.0228179	0.007448942	-0.0004495528	-0.000279106	0.004374017	0.0150142
	0.004070773	0.01506884	-0.0004495528	-0.000279106	0.02218343	0.007474981	-0.0002791826	-0.0005029063
	-0.0001282748	-0.0003045856	0.004374007	0.01501422	-0.0002791826	-0.0005029063	0.02209595	0.007057786
5e+07	0.02354258	0.007009295	-0.0004066706	-0.0005286669	0.005912724	0.01841935	-0.0001739768	-0.0003681757
	-0.0004066706	-0.0005286669	0.02508074	0.007259951	-0.0005398079	-0.0003570308	0.006283569	0.01831438
	0.005912727	0.01841936	-0.0005398079	-0.0003570308	0.0241069	0.007509129	-0.0003169747	-0.0005911207
	-0.0001739768	-0.0003681757	0.006283569	0.01831439	-0.0003169747	-0.0005911207	0.02419291	0.006992099
6e+07	0.02519431	0.006784688	-0.0004620339	-0.0006008015	0.008086554	0.0215606	-0.0002269268	-0.0004262537
	-0.0004620339	-0.0006008015	0.02721039	0.006717702	-0.0006375635	-0.0004285687	0.008534374	0.02139184
	0.008086553	0.02156061	-0.0006375635	-0.0004285687	0.0258748	0.007254861	-0.0003667709	-0.0006684303
	-0.0002269268	-0.0004262537	0.008534396	0.02139183	-0.0003667709	-0.0006684303	0.02619309	0.006605651
7e+07	0.02671556	0.006362712	-0.0005271739	-0.000662567	0.01057048	0.02446492	-0.0002866119	-0.0004784189
	-0.000527174	-0.000662567	0.02920183	0.005875073	-0.00074319	-0.0004933106	0.01110278	0.0242165
	0.01057048	0.02446492	-0.00074319	-0.0004933106	0.02749801	0.006783344	-0.0004267266	-0.000735071
	-0.000286612	-0.0004784189	0.01110278	0.0242165	-0.0004267266	-0.000735071	0.02809078	0.005944248
8e+07	0.0281181	0.005783716	-0.0006005903	-0.0007136062	0.01334004	0.02710636	-0.000352119	-0.0005238752
	-0.0006005903	-0.0007136062	0.03105032	0.004780738	-0.0008567379	-0.0005509619	0.01396255	0.02676083
	0.01334004	0.02710636	-0.0008567379	-0.0005509619	0.02898719	0.006136206	-0.0005208252	-0.0007783477
	-0.000352119	-0.0005238752	0.01396255	0.02676083	-0.0005208252	-0.0007783477	0.02988219	0.005052903
9e+07	0.02940701	0.005081478	-0.0006806548	-0.0007530872	0.01636947	0.02946207	-0.0004228294	-0.0005623443
	-0.0006806549	-0.0007530872	0.0327576	0.003474224	-0.0009791153	-0.000602762	0.01708592	0.02899983
	0.01636947	0.02946207	-0.0009791153	-0.000602762	0.03034517	0.005347017	-0.0006346022	-0.0007987527
	-0.0004228293	-0.0005623443	0.01708591	0.02899984	-0.0006346022	-0.0007987527	0.03157219	0.003970956
1e+08	0.03060602	0.004323866	-0.0007644894	-0.0007776682	0.01963461	0.03151334	-0.0004982242	-0.0005937812
	-0.0007644894	-0.0007776682	0.03433172	0.001990306	-0.001116106	-0.000657506	0.02044424	0.03091097
	0.01963461	0.03151334	-0.001116106	-0.000657506	0.03158416	0.004469295	-0.0007456261	-0.0007991223
	-0.0004982242	-0.0005937812	0.02044424	0.03091097	-0.0007456261	-0.0007991223	0.03318894	0.002756318
1.1e+08	0.03185168	0.003372538	-0.0008637466	-0.0007862737	0.02310573	0.03322428	-0.0005781904	-0.0006176298
	-0.0008637466	-0.0007862737	0.03577629	0.0002917699	-0.001225944	-0.0007198239	0.02402347	0.03247663
	0.02310573	0.03322428	-0.001225944	-0.0007198239	0.03279572	0.003455597	-0.0008407729	-0.0008009228
	-0.0005781904	-0.0006176298	0.02402347	0.03247663	-0.0008407729	-0.0008009228	0.03486962	0.001246443
1.2e+08	0.03291051	0.002252951	-0.0009685883	-0.0007889314	0.02673451	0.03458676	-0.0006620317	-0.0006336719
	-0.0009685883	-0.0007889314	0.0370363	-0.001538116	-0.001333588	-0.0007557773	0.02774733	0.03366585
	0.02673451	0.03458676	-0.001333588	-0.0007557773	0.03384173	0.002292735	-0.0009430586	-0.000800826
	-0.0006620317	-0.0006336719	0.02774733	0.03366585	-0.0009430586	-0.000800826	0.03629301	-0.0004946069
1.3e+08	0.03381117	0.001046273	-0.001076504	-0.0007821584	0.03049069	0.03559326	-0.0007489649	-0.0006416456
	-0.001076504	-0.0007821584	0.03813284	-0.003477178	-0.001443542	-0.0007755796	0.03159194	0.03447252
	0.03049069	0.03559326	-0.001443542	-0.0007755796	0.03473408	0.001046298	-0.001049017	-0.000792943
	-0.0007489649	-0.0006416456	0.03159194	0.03447252	-0.001049017	-0.000792943	0.03751858	-0.002368788
1.4e+08	0.03456776	-0.0002117401	-0.001186204	-0.000765169	0.03434092	0.03623675	-0.0008382919	-0.0006413399
	-0.001186204	-0.000765169	0.0390715	-0.005512297	-0.001555872	-0.0007814642	0.03552525	0.03489012
	0.03434092	0.03623675	-0.001555872	-0.0007814642	0.03548266	-0.0002485505	-0.001157229	-0.0007759172
	-0.0008382919	-0.0006413399	0.03552525	0.03489012	-0.001157229	-0.0007759172	0.03857434	-0.00434833
1.5e+08	0.03519377	-0.001496461	-0.00129658	-0.0007376046	0.0382515	0.03651267	-0.0009293527	-0.0006325354
	-0.00129658	-0.0007376046	0.03985341	-0.007629661	-0.001670176	-0.0007743897	0.03951223	0.03491339
	0.0382515	0.03651267	-0.001670176	-0.0007743897	0.03610022	-0.001567025	-0.001266525	-0.0007491022
	-0.0009293527	-0.0006325354	0.03951223	0.03491339	-0.001266525	-0.0007491022	0.03947086	-0.006419311
1.6e+08	0.03570238	-0.002789461	-0.001406546	-0.0006993719	0.04218868	0.03641972	-0.001021428	-0.0006151389
	-0.001406546	-0.0006993719	0.04047838	-0.009814709	-0.001785812	-0.0007549023	0.04351651	0.03453962
	0.04218868	0.03641972	-0.001785812	-0.0007549023	0.03660006	-0.002890821	-0.001375844	-0.0007122068
	-0.001021428	-0.0006151389	0.04351651	0.03453962	-0.001375844	-0.0007122068	0.0402112	-0.008569012
1.7e+08	0.03610669	-0.00407673	-0.001515099	-0.0006504832	0.04611861	0.03595911	-0.001113835	-0.0005890661
	-0.001515099	-0.0006504832	0.04094727	-0.01205236	-0.001902056	-0.0007233928	0.04750123	0.03376888
	0.04611861	0.03595911	-0.001902056	-0.0007233928	0.03699584	-0.004206331	-0.001484154	-0.0006650972
	-0.001113835	-0.0005890661	0.04750123	0.03376888	-0.001484154	-0.0006650972	0.04079587	-0.0107838
1.8e+08	0.03641994	-0.005347113	-0.001621268	-0.0005911294	0.0500083	0.03513528	-0.001205875	-0.0005542839
	-0.001621268	-0.0005911294	0.04126193	-0.01432811	-0.002018233	-0.0006800247	0.05142958	0.03260443
	0.0500083	0.03513528	-0.002018233	-0.0006800247	0.0373006	-0.005503182	-0.001590533	-0.0006078802
	-0.001205875	-0.0005542839	0.05142958	0.03260442	-0.001590533	-0.0006078802	0.04122536	-0.01304978
1.9e+08	0.03665462	-0.006592332	-0.00172415	-0.0005215415	0.05382529	0.03395585	-0.001296881	-0.000510802
	-0.00172415	-0.0005215415	0.04142595	-0.01662794	-0.002133527	-0.000625079	0.05526526	0.03105309
	0.05382529	0.03395585	-0.002133527	-0.000625079	0.03752742	-0.006773696	-0.001694033	-0.0005406923
	-0.001296881	-0.000510802	0.05526526	0.03105309	-0.001694033	-0.0005406923	0.04150147	-0.01535283
2e+08	0.036824	-0.007806261	-0.001822884	-0.0004420782	0.05753796	0.03243086	-0.001386128	-0.0004586975
	-0.001822884	-0.0004420782	0.04144404	-0.01893931	-0.00224721	-0.0005586913	0.05897289	0.02912489
	0.05753796	0.03243086	-0.00224721	-0.0005586913	0.0376885	-0.008012151	-0.001793826	-0.0004637867
	-0.001386128	-0.0004586975	0.05897289	0.02912489	-0.001793826	-0.0004637867	0.04162741	-0.01767943
2.1e+08	0.03694002	-0.00898488	-0.001916663	-0.0003531574	0.06111672	0.03057367	-0.001472964	-0.0003980809
	-0.001916663	-0.0003531574	0.04132146	-0.02125074	-0.002358484	-0.0004810883	0.06251812	0.02683297
	0.06111672	0.03057367	-0.002358484	-0.0004810883	0.0377965	-0.009215049	-0.001889114	-0.0003775121
	-0.001472964	-0.0003980809	0.06251812	0.02683297	-0.001889114	-0.0003775121	0.0416072	-0.0200174
2.2e+08	0.03701529	-0.01012614	-0.002004747	-0.0002552339	0.064533	0.02839991	-0.001556716	-0.0003290991
	-0.002004747	-0.0002552339	0.04106448	-0.02355263	-0.002466598	-0.0003924125	0.06586805	0.02419354
	0.064533	0.02839991	-0.002466598	-0.0003924125	0.03786295	-0.01038042	-0.001979142	-0.0002822444
	-0.001556716	-0.0003290991	0.06586805	0.02419354	-0.001979142	-0.0002822444	0.04144577	-0.02235567
2.3e+08	0.03706147	-0.01122977	-0.002086441	-0.000148886	0.06776017	0.02592764	-0.001636741	-0.000251976
	-0.002086441	-0.000148886	0.04067972	-0.02583625	-0.002570761	-0.0002929502	0.06899188	0.02122565
	0.06776017	0.02592764	-0.002570761	-0.0002929502	0.03789937	-0.01150807	-0.00206323	-0.0001784634
	-0.001636741	-0.000251976	0.06899188	0.02122565	-0.00206323	-0.0001784634	0.04114934	-0.02468414
2.4e+08	0.03708967	-0.01229733	-0.002161155	-3.459221e-05	0.07077406	0.02317744	-0.001712405	-0.0001669806
	-0.002161155	-3.459221e-05	0.04017395	-0.02809441	-0.002670213	-0.0001829432	0.07186048	0.01795115
	0.07077406	0.02317744	-0.002670213	-0.0001829432	0.03791666	-0.0125995	-0.002140726	-6.665093e-05
	-0.001712405	-0.0001669806	0.07186048	0.01795115	-0.002140726	-6.665093e-05	0.04072407	-0.02699478
2.5e+08	0.03711063	-0.01333211	-0.002228341	8.699563e-05	0.07355245	0.02017161	-0.001783081	-7.436274e-05
	-0.002228341	8.699563e-05	0.039554	-0.0303212	-0.002764154	-6.265333e-05	0.07444699	0.0143941
	0.07355245	0.02017161	-0.002764154	-6.265333e-05	0.03792522	-0.01365765	-0.002211078	5.262824e-05
	-0.001783081	-7.436274e-05	0.07444699	0.0143941	-0.002211078	5.262824e-05	0.04017643	-0.02928007
2.6e+08	0.03713357	-0.01433857	-0.002287495	0.0002152727	0.07607562	0.01693406	-0.001848201	2.548447e-05
	-0.002287495	0.0002152727	0.03882652	-0.03251172	-0.002851832	6.759559e-05	0.07672741	0.01058102
	0.07607562	0.01693406	-0.002851832	6.759559e-05	0.03793421	-0.0146871	-0.002273766	0.0001788167
	-0.001848201	2.548447e-05	0.07672741	0.01058102	-0.002273766	0.0001788167	0.0395131	-0.03153434
2.7e+08	0.03716724	-0.01532288	-0.002338195	0.000349621	0.07832649	0.01349053	-0.001907183	0.0001322628
	-0.002338195	0.000349621	0.03799815	-0.03466206	-0.002932489	0.0002073401	0.07867975	0.00654018
	0.07832649	0.01349053	-0.002932489	0.0002073401	0.03795223	-0.01569355	-0.00232833	0.0003113374
	-0.001907183	0.0001322628	0.07867975	0.00654018	-0.00232833	0.0003113374	0.03874065	-0.0337529
2.8e+08	0.03721904	-0.01629249	-0.002380082	0.0004894083	0.08029074	0.009867533	-0.001959484	0.0002455074
	-0.002380082	0.0004894083	0.03707488	-0.0367695	-0.003005366	0.0003562205	0.08028508	0.00230156
	0.08029074	0.009867533	-0.003005366	0.0003562205	0.03798666	-0.01668391	-0.002374379	0.0004495579
	-0.001959484	0.0002455074	0.08028508	0.00230156	-0.002374379	0.0004495579	0.03786515	-0.03593174
2.9e+08	0.03729464	-0.01725547	-0.002412831	0.0006339615	0.08195667	0.006092861	-0.002004603	0.0003647764
	-0.002412831	0.0006339615	0.03606274	-0.03883196	-0.003069749	0.0005137686	0.08152748	-0.002103379
	0.08195667	0.006092861	-0.003069749	0.0005137686	0.0380434	-0.01766633	-0.002411557	0.000592923
	-0.002004603	0.0003647764	0.08152748	-0.002103379	-0.002411557	0.000592923	0.03689261	-0.03806842
3e+08	0.03739895	-0.01822114	-0.002436167	0.0007826466	0.08331521	0.002194342	-0.002042076	0.0004895965
	-0.002436167	0.0007826466	0.03496688	-0.04084801	-0.00312494	0.000679417	0.08239358	-0.006642076
	0.08331521	0.002194342	-0.00312494	0.000679417	0.03812741	-0.01864956	-0.002439552	0.0007408166
	-0.002042076	0.0004895965	0.08239358	-0.006642077	-0.002439552	0.0007408166	0.03582851	-0.04016065
3.1e+08	0.03753506	-0.01919932	-0.0024499	0.0009348282	0.08436057	-0.001799186	-0.002071429	0.0006195096
	-0.0024499	0.0009348282	0.03379223	-0.04281699	-0.003170223	0.0008526477	0.0828734	-0.0112812
	0.08436057	-0.001799186	-0.003170223	0.0008526477	0.03824187	-0.01964334	-0.002458144	0.0008925656
	-0.002071429	0.0006195096	0.0828734	-0.0112812	-0.002458144	0.0008925656	0.03467789	-0.04220752
3.2e+08	0.0377046	-0.02020042	-0.002453832	0.001089894	0.08508955	-0.005859419	-0.002092269	0.0007539124
	-0.002453832	0.001089894	0.03254318	-0.04473886	-0.003204992	0.001032726	0.08296001	-0.01598686
	0.08508955	-0.005859419	-0.003204992	0.001032726	0.03838861	-0.02065786	-0.002467095	0.001047588
	-0.002092269	0.0007539124	0.08296001	-0.01598686	-0.002467095	0.001047588	0.03344487	-0.04420806
3.3e+08	0.03790759	-0.02123508	-0.002447819	0.001247238	0.08550123	-0.009958068	-0.002104197	0.0008922709
	-0.002447819	0.001247238	0.0312233	-0.04661394	-0.003228593	0.001219083	0.0826492	-0.02072468
	0.08550123	-0.009958068	-0.003228593	0.001219083	0.03856814	-0.02170344	-0.002466231	0.001205295
	-0.002104197	0.0008922709	0.0826492	-0.02072468	-0.002466231	0.001205295	0.0321334	-0.04616226
3.4e+08	0.03814258	-0.02231404	-0.002431767	0.00140625	0.08559812	-0.01406717	-0.00210689	0.001034019
	-0.002431767	0.00140625	0.0298357	-0.04844281	-0.003240488	0.00141088	0.08194026	-0.02546066
	0.08559812	-0.01406717	-0.003240488	0.00141088	0.03877901	-0.02279065	-0.002455415	0.001365115
	-0.00210689	0.001034019	0.08194026	-0.02546066	-0.002455415	0.001365115	0.03074658	-0.04807012
3.5e+08	0.03840625	-0.02344785	-0.002405589	0.0015663	0.08538485	-0.01816002	-0.002100022	0.00117851
	-0.002405589	0.0015663	0.02838251	-0.05022658	-0.003240202	0.001607333	0.08083507	-0.03016075
	0.08538485	-0.01816002	-0.003240202	0.001607333	0.03901861	-0.02393028	-0.002434542	0.001526409
	-0.002100022	0.00117851	0.08083507	-0.03016075	-0.002434542	0.001526409	0.02928699	-0.04993227
3.6e+08	0.03869401	-0.02464727	-0.002369258	0.001726823	0.08486856	-0.02221052	-0.002083358	0.001325108
	-0.002369258	0.001726823	0.02686563	-0.05196644	-0.0032272	0.00180769	0.07933882	-0.03479146
	0.08486856	-0.02221052	-0.0032272	0.00180769	0.03928253	-0.02513236	-0.002403555	0.001688603
	-0.002083358	0.001325108	0.07933882	-0.03479146	-0.002403555	0.001688603	0.02775627	-0.05174923
3.7e+08	0.03899961	-0.02592192	-0.002322691	0.00188728	0.08405876	-0.02619393	-0.002056624	0.001473232
	-0.002322691	0.00188728	0.02528606	-0.05366314	-0.003201078	0.002011089	0.07745938	-0.03932048
	0.08405876	-0.02619393	-0.003201078	0.002011089	0.03956481	-0.02640702	-0.002362342	0.001851202
	-0.002056624	0.001473232	0.07745938	-0.03932048	-0.002362342	0.001851202	0.02615563	-0.05352149
3.8e+08	0.03931549	-0.02728093	-0.002265909	0.002047076	0.08296694	-0.03008706	-0.002019674	0.001622159
	-0.002265909	0.002047076	0.0236442	-0.05531805	-0.003161536	0.00221656	0.07520713	-0.0437161
	0.08296694	-0.03008706	-0.003161536	0.00221656	0.03985851	-0.02776358	-0.00231089	0.00201359
	-0.002019674	0.001622159	0.07520713	-0.0437161	-0.00231089	0.00201359	0.02448571	-0.05524987
3.9e+08	0.03963235	-0.0287332	-0.002198913	0.002205665	0.08160692	-0.03386831	-0.001972334	0.001771239
	-0.002198913	0.002205665	0.02193933	-0.05693206	-0.003108305	0.002423184	0.07259568	-0.04794816
	0.08160692	-0.03386831	-0.003108305	0.002423184	0.04015452	-0.02921033	-0.002249182	0.002175238
	-0.001972334	0.001771239	0.07259568	-0.04794816	-0.002249182	0.002175238	0.02274619	-0.05693458
4e+08	0.03993992	-0.03028608	-0.002121721	0.002362494	0.0799939	-0.03751791	-0.001914497	0.001919767
	-0.002121721	0.002362494	0.02017066	-0.05850603	-0.003041107	0.002630053	0.06964046	-0.05198799
	0.0799939	-0.03751791	-0.003041107	0.002630053	0.04044318	-0.03075534	-0.002177151	0.002335638
	-0.001914497	0.001919767	0.06964046	-0.05198799	-0.002177151	0.002335638	0.02093661	-0.05857606
4.1e+08	0.0402268	-0.03194581	-0.002034448	0.002516245	0.07814472	-0.04101771	-0.001846136	0.002067086
	-0.002034448	0.002516245	0.01833693	-0.06003978	-0.00295224	0.00284782	0.06635945	-0.05580834
	0.07814472	-0.04101771	-0.00295224	0.00284782	0.04071327	-0.03240474	-0.002095103	0.002493442
	-0.001846136	0.002067086	0.06635945	-0.05580834	-0.002095103	0.002493442	0.01905556	-0.06017412
4.2e+08	0.04048024	-0.03371765	-0.001937232	0.002666801	0.07607766	-0.04435249	-0.001767255	0.002212471
	-0.001937232	0.002666801	0.01643548	-0.06153347	-0.002844208	0.003068276	0.06277288	-0.05938431
	0.07607766	-0.04435249	-0.002844208	0.003068276	0.04095267	-0.03416416	-0.002003034	0.002648591
	-0.001767255	0.002212471	0.06277288	-0.05938431	-0.002003034	0.002648591	0.01710117	-0.06172818
4.3e+08	0.04068697	-0.0356052	-0.001830077	0.002814015	0.07381184	-0.04750822	-0.001677739	0.002355239
	-0.001830077	0.002814015	0.01446391	-0.06298635	-0.00272069	0.003284411	0.05890246	-0.06269276
	0.07381184	-0.04750822	-0.00272069	0.003284411	0.04114796	-0.03603759	-0.001900827	0.002800965
	-0.001677739	0.002355239	0.05890246	-0.06269276	-0.001900827	0.002800965	0.01507126	-0.06323718
4.4e+08	0.04083275	-0.03761064	-0.001713048	0.00295733	0.07136709	-0.05047379	-0.001577706	0.002494643
	-0.001713048	0.00295733	0.01241948	-0.06439733	-0.002581828	0.00349521	0.05477194	-0.06571267
	0.07136709	-0.05047379	-0.002581828	0.00349521	0.04128565	-0.03802761	-0.001788608	0.002949952
	-0.001577706	0.002494643	0.05477194	-0.06571267	-0.001788608	0.002949952	0.01296328	-0.06469955
4.5e+08	0.04090271	-0.03973472	-0.001586213	0.003096218	0.06876429	-0.05324002	-0.001467302	0.002629949
	-0.001586213	0.003096218	0.01029867	-0.06576425	-0.002427865	0.003699666	0.05040647	-0.06842547
	0.06876429	-0.05324002	-0.002427865	0.003699666	0.04135104	-0.04013528	-0.001666425	0.003095043
	-0.001467302	0.002629949	0.05040647	-0.06842547	-0.001666425	0.003095043	0.01077411	-0.06611287
4.6e+08	0.04088163	-0.04197669	-0.001449733	0.003230062	0.06602432	-0.05580042	-0.001346629	0.002760464
	-0.001449733	0.003230062	0.008097589	-0.0670845	-0.002259312	0.003896657	0.04583242	-0.07081479
	0.06602432	-0.05580042	-0.002259312	0.003896657	0.04132902	-0.04236022	-0.001534183	0.00323573
	-0.001346629	0.002760464	0.04583242	-0.07081479	-0.001534183	0.00323573	0.00850075	-0.06747435
4.7e+08	0.04075406	-0.04433329	-0.001303645	0.003358322	0.06316796	-0.05815035	-0.001215931	0.002885449
	-0.001303645	0.003358322	0.005813092	-0.06835428	-0.002076621	0.00408518	0.04107691	-0.07286708
	0.06316796	-0.05815035	-0.002076621	0.00408518	0.04120447	-0.04470002	-0.001392097	0.003371407
	-0.001215931	0.002885449	0.04107691	-0.07286708	-0.001392097	0.003371407	0.006139709	-0.06878
4.8e+08	0.04050487	-0.04680056	-0.001148096	0.003480418	0.06021608	-0.06028763	-0.001075396	0.003004216
	-0.001148096	0.003480418	0.003441359	-0.06956948	-0.001880177	0.004264387	0.03616826	-0.07457078
	0.06021608	-0.06028763	-0.001880177	0.004264387	0.04096216	-0.04715075	-0.001240167	0.003501511
	-0.001075396	0.003004216	0.03616826	-0.07457078	-0.001240167	0.003501511	0.003687937	-0.07002523
4.9e+08	0.04011847	-0.04937201	-0.0009833262	0.003595698	0.05718903	-0.06221241	-0.0009253021	0.003116085
