!$
! Info: Touchstone file created by Circ.  Input file=Intel_C2M_200G_9p5in_202208016_staggered.circ
!$
# Hz S RI R 50
0	0.02776	4.965595e-24	0.9720417	-8.448134e-24	0.0001349648	3.277058e-22	-0.0002647505	3.242259e-20
	0.9720417	-8.44474e-24	0.02831097	8.893142e-24	-0.0002648064	3.242943e-20	0.0003566207	1.020517e-21
	0.0001350214	3.278318e-22	-0.0002649414	3.244597e-20	0.02775798	4.697501e-24	0.972042	-8.627027e-24
	-0.0002648856	3.243913e-20	0.0003566863	1.02124e-21	0.972042	-8.630426e-24	0.0283124	9.109335e-24
1e+07	0.03373207	0.004145093	0.9570517	-0.1362711	0.002482066	0.007490858	-0.001429839	-0.0005954002
	0.9570517	-0.1362711	0.03398065	0.004150143	-0.001431683	-0.0005956019	0.002260871	0.007560656
	0.002482066	0.007490858	-0.001431683	-0.0005956019	0.03382741	0.003432872	0.9569831	-0.1355406
	-0.001429839	-0.0005954002	0.002260871	0.007560656	0.9569831	-0.1355406	0.03402658	0.003423609
2e+07	0.0401748	0.002213705	0.9235084	-0.2636936	0.005860661	0.01356718	-0.001761725	-0.0004428494
	0.9235084	-0.2636936	0.04119562	0.001979829	-0.001765874	-0.0004381889	0.004988714	0.0139758
	0.005860669	0.01356717	-0.001765884	-0.0004382977	0.03944953	0.001114388	0.924329	-0.2626163
	-0.001761734	-0.000442952	0.004988802	0.01397569	0.924329	-0.2626163	0.04030779	0.0009770211
3e+07	0.04403883	-0.00301597	0.8755036	-0.3826708	0.01079459	0.01852619	-0.001955132	-0.000242452
	0.8755036	-0.3826708	0.04558122	-0.00404989	-0.001957616	-0.0002306253	0.009070063	0.01947676
	0.01079458	0.01852623	-0.001957657	-0.0002306166	0.04271088	-0.004017157	0.8769775	-0.3817654
	-0.001955145	-0.0002424546	0.009070039	0.01947674	0.8769775	-0.3817654	0.04404679	-0.004779131
4e+07	0.04561174	-0.009380114	0.8134275	-0.4931096	0.01694199	0.02183074	-0.002022528	-3.331766e-05
	0.8134275	-0.4931096	0.04778381	-0.01136665	-0.002018269	-1.497644e-05	0.01415624	0.02382518
	0.016942	0.02183076	-0.002018273	-1.497126e-05	0.04383976	-0.01011393	0.8153814	-0.4925809
	-0.002022526	-3.330422e-05	0.01415624	0.02382518	0.8153814	-0.4925809	0.04582774	-0.01160842
5e+07	0.04522993	-0.01595042	0.7382849	-0.5936855	0.02380197	0.02325675	-0.001994172	0.0001312047
	0.7382849	-0.5936855	0.04794576	-0.019208	-0.001978935	0.0001524371	0.01994804	0.02680784
	0.02380198	0.02325676	-0.001978932	0.0001524358	0.04314723	-0.01631973	0.7405568	-0.593659
	-0.001994169	0.000131203	0.01994805	0.02680785	0.7405568	-0.593659	0.04578752	-0.01885663
6e+07	0.04318406	-0.02217252	0.6513874	-0.6830177	0.03084679	0.02267833	-0.001915961	0.0002108351
	0.6513874	-0.6830177	0.0462102	-0.02693294	-0.001887548	0.0002292752	0.02607681	0.02832296
	0.0308468	0.02267831	-0.001887547	0.0002292734	0.04091438	-0.0221203	0.6538157	-0.6835708
	-0.001915959	0.0002108339	0.02607681	0.02832296	0.6538157	-0.6835708	0.04406041	-0.02595704
7e+07	0.03979579	-0.02763702	0.554259	-0.7598419	0.03752916	0.02011258	-0.00184581	0.0001911243
	0.554259	-0.7598419	0.04282802	-0.03403718	-0.001804859	0.0001999387	0.03216635	0.02836855
	0.03752916	0.02011257	-0.001804833	0.0001998744	0.03745694	-0.02713473	0.5566782	-0.7610141
	-0.001845808	0.0001911216	0.03216635	0.02836854	0.5566782	-0.7610141	0.04088122	-0.0324649
8e+07	0.03543632	-0.0320729	0.4485868	-0.823073	0.04332523	0.01571842	-0.00184027	8.511466e-05
	0.4485868	-0.823073	0.03811539	-0.04014626	-0.001790821	7.786707e-05	0.03785652	0.02703793
	0.04332524	0.01571842	-0.001790821	7.786963e-05	0.03314267	-0.03111311	0.4508284	-0.8248727
	-0.001840271	8.511736e-05	0.03785652	0.02703793	0.4508284	-0.8248727	0.03654473	-0.03805471
9e+07	0.03049273	-0.0353482	0.3361802	-0.8718388	0.04777056	0.009784461	-0.001944794	-7.040481e-05
	0.3361802	-0.8718388	0.03242904	-0.04499576	-0.00189405	-9.845296e-05	0.04282868	0.0245121
	0.04777056	0.009784464	-0.001894045	-9.844543e-05	0.02836082	-0.03393741	0.3380614	-0.8742418
	-0.001944791	-7.039596e-05	0.04282868	0.0245121	0.3380614	-0.8742418	0.03138642	-0.04250161
1e+08	0.02534805	-0.03745754	0.2189067	-0.9055032	0.05049059	0.002706601	-0.002186973	-0.0002203213
	0.2189067	-0.9055032	0.02616402	-0.04840963	-0.002146026	-0.0002712421	0.04682851	0.02104191
	0.05049059	0.0027066	-0.002146027	-0.000271243	0.02354472	-0.03558712	0.2201697	-0.9084665
	-0.002186973	-0.0002203222	0.04682851	0.02104191	0.2201697	-0.9084665	0.02582804	-0.04567061
1.1e+08	0.02019765	-0.03854976	0.09878331	-0.9234983	0.05120752	-0.005044897	-0.002556863	-0.000303424
	0.09878331	-0.9234983	0.01975979	-0.05042248	-0.002533774	-0.0003669938	0.04965466	0.0169325
	0.05120752	-0.005044898	-0.002533774	-0.0003669951	0.01889199	-0.03658907	0.09928569	-0.9265822
	-0.002556864	-0.0003034253	0.04965466	0.0169325	0.09928569	-0.9265822	0.0200802	-0.0478469
1.2e+08	0.01533953	-0.03861937	-0.02208409	-0.9258061	0.04979589	-0.01287488	-0.00304582	-0.0002787114
	-0.02208409	-0.9258061	0.01346689	-0.05103976	-0.003042936	-0.0003485493	0.05122545	0.01254428
	0.04979589	-0.01287488	-0.003042937	-0.0003485504	0.01437916	-0.03664247	-0.02221014	-0.9288644
	-0.00304582	-0.0002787126	0.05122545	0.01254428	-0.02221014	-0.9288644	0.01425199	-0.04872137
1.3e+08	0.01100334	-0.03788742	-0.1417495	-0.9125518	0.04628748	-0.02024083	-0.003618686	-9.005086e-05
	-0.1417495	-0.9125518	0.00764855	-0.05035636	-0.003636898	-0.000159268	0.05155034	0.008222044
	0.04628748	-0.02024083	-0.003636899	-0.0001592688	0.01033934	-0.03593168	-0.1424385	-0.9154845
	-0.003618687	-9.005171e-05	0.05155034	0.008222044	-0.1424385	-0.9154845	0.008772894	-0.04834692
1.4e+08	0.007310397	-0.03659162	-0.2582762	-0.8840849	0.04084583	-0.02661406	-0.00422021	0.000299145
	-0.2582762	-0.8840849	0.002600758	-0.04856331	-0.004257637	0.0002373171	0.05072473	0.00429382
	0.04084583	-0.02661406	-0.004257638	0.0002373167	0.00690685	-0.03469917	-0.2594664	-0.8868065
	-0.004220211	0.0002991445	0.05072473	0.00429382	-0.2594664	-0.8868065	0.003956175	-0.04688339
1.5e+08	0.004301284	-0.03497032	-0.3697873	-0.8409818	0.03376163	-0.03151731	-0.004784149	0.000904091
	-0.3697873	-0.8409818	-0.001449705	-0.04591406	-0.004837148	0.0008546188	0.04892429	0.00104724
	0.03376163	-0.03151731	-0.004837149	0.0008546186	0.004117068	-0.03317867	-0.371415	-0.843423
	-0.00478415	0.0009040909	0.04892429	0.00104724	-0.371415	-0.843423	4.35096e-05	-0.04456067
1.6e+08	0.001944105	-0.03324373	-0.4744897	-0.7840399	0.02543791	-0.03455616	-0.005242039	0.001716622
	-0.4744897	-0.7840399	-0.004353473	-0.04270237	-0.0053059	0.001682834	0.04639108	-0.001288232
	0.02543791	-0.03455616	-0.005305901	0.001682834	0.001932649	-0.03157973	-0.4764894	-0.786143
	-0.00524204	0.001716622	0.04639108	-0.001288232	-0.4764894	-0.786143	-0.002800568	-0.04165464
1.7e+08	0.0001451827	-0.03159654	-0.5707043	-0.7142704	0.0163673	-0.03544482	-0.005531446	0.002706619
	-0.5707043	-0.7142704	-0.006042779	-0.03924085	-0.005601042	0.002690182	0.0434158	-0.002556799
	0.0163673	-0.03544482	-0.005601043	0.002690182	0.0002583411	-0.03007362	-0.573006	-0.7159897
	-0.005531446	0.002706619	0.0434158	-0.002556799	-0.573006	-0.7159897	-0.004492046	-0.03846536
1.8e+08	-0.00123588	-0.03016213	-0.6568879	-0.6328844	0.007103599	-0.03402581	-0.005602806	0.003826143
	-0.6568879	-0.6328844	-0.006530069	-0.03583964	-0.005673276	0.00382707	0.04031772	-0.002684825
	0.007103598	-0.03402581	-0.005673276	0.00382707	-0.001043856	-0.02878095	-0.6594185	-0.6341859
	-0.005602806	0.003826143	0.04031772	-0.002684825	-0.6594185	-0.6341859	-0.005027773	-0.03529523
1.9e+08	-0.0023678	-0.02901245	-0.7316556	-0.541279	-0.001770951	-0.03028272	-0.005423754	0.005015536
	-0.7316556	-0.541279	-0.005903231	-0.03278752	-0.00549083	0.005032596	0.03742249	-0.001684633
	-0.001770951	-0.03028272	-0.00549083	0.005032596	-0.00213694	-0.02776266	-0.7343414	-0.5421429
	-0.005423755	0.005015536	0.03742249	-0.001684633	-0.7343414	-0.5421429	-0.004479852	-0.03242946
2e+08	-0.00342594	-0.02815252	-0.7938084	-0.441019	-0.009681005	-0.02434386	-0.00498144	0.006210054
	-0.7938084	-0.441019	-0.004314587	-0.03033449	-0.005041856	0.006241039	0.03503958	0.0003464857
	-0.009681005	-0.02434386	-0.005041856	0.006241039	-0.003188867	-0.02701612	-0.7965748	-0.4414332
	-0.00498144	0.006210054	0.03503958	0.0003464858	-0.7965748	-0.4414332	-0.002987054	-0.03011783
2.1e+08	-0.004569942	-0.02752297	-0.8423563	-0.333814	-0.01609347	-0.01647768	-0.004282051	0.007346703
	-0.8423563	-0.333814	-0.001969389	-0.0286781	-0.004333181	0.007389043	0.03344232	0.003234155
	-0.01609347	-0.01647768	-0.004333181	0.007389043	-0.004350611	-0.02647608	-0.8451304	-0.3337807
	-0.004282051	0.007346703	0.03344232	0.003234155	-0.8451304	-0.3337807	-0.0007413858	-0.0285612
2.2e+08	-0.005923947	-0.02700789	-0.8765361	-0.2214923	-0.02055124	-0.007079593	-0.003347082	0.008369807
	-0.8765361	-0.2214923	0.0008924066	-0.02795375	-0.00338753	0.008420628	0.03284833	0.006738716
	-0.02055124	-0.007079593	-0.00338753	0.008420628	-0.005737127	-0.02602427	-0.8792484	-0.2210236
	-0.003347083	0.008369807	0.03284833	0.006738716	-0.8792484	-0.2210236	0.00202669	-0.02790025
2.3e+08	-0.007558953	-0.02645027	-0.8958294	-0.1059715	-0.02270333	0.003349605	-0.002210092	0.009234696
	-0.8958294	-0.1059715	0.004012208	-0.02822938	-0.00223894	0.009291355	0.03340542	0.01057163
	-0.02270333	0.003349605	-0.00223894	0.009291355	-0.007411213	-0.02550339	-0.8984153	-0.105088
	-0.002210092	0.009234696	0.03340542	0.01057163	-0.8984153	-0.105088	0.005066494	-0.02821017
2.4e+08	-0.009481188	-0.02567147	-0.8999797	0.01077986	-0.02232809	0.01423189	-0.0009100689	0.00990966
	-0.8999797	0.01077986	0.007131571	-0.02950498	-0.0009273838	0.009969672	0.03518145	0.01441577
	-0.02232809	0.01423189	-0.0009273839	0.009969671	-0.009370918	-0.02473609	-0.9023802	0.01204663
	-0.000910069	0.00990966	0.03518145	0.01441577	-0.9023802	0.01204663	0.008124584	-0.02949917
2.5e+08	-0.01162682	-0.02449363	-0.8889958	0.1267745	-0.01934964	0.02494606	0.0005121751	0.01037498
	-0.8889958	0.1267745	0.01000949	-0.03171714	0.0005060979	0.01043621	0.03815949	0.01794656
	-0.01934964	0.02494606	0.0005060978	0.01043621	-0.011546	-0.02354808	-0.891156	0.1283879
	0.0005121751	0.01037498	0.03815949	0.01794656	-0.891156	0.1283879	0.01096231	-0.03171221
2.6e+08	-0.01386468	-0.02276345	-0.8631506	0.2400512	-0.01384536	0.03486456	0.002018174	0.01062118
	-0.8631506	0.2400512	0.0124366	-0.03474705	0.002023096	0.01068184	0.04223913	0.0208543
	-0.01384536	0.03486456	0.002023096	0.01068184	-0.01379942	-0.02179046	-0.8650244	0.241965
	0.002018173	0.01062118	0.04223913	0.0208543	-0.8650244	0.241965	0.0133701	-0.03473884
2.7e+08	-0.01600562	-0.02037389	-0.8229769	0.3487085	-0.006042942	0.0433909	0.003574462	0.01064531
	-0.8229769	0.3487085	0.0142481	-0.03843302	0.003589636	0.01070399	0.04724353	0.02286577
	-0.006042942	0.0433909	0.003589636	0.01070399	-0.01593802	-0.01936199	-0.8245269	0.3508742
	0.003574462	0.01064531	0.04724353	0.02286577	-0.8245269	0.3508742	0.01518092	-0.03842412
2.8e+08	-0.01781843	-0.017283	-0.7692555	0.4509447	0.003690578	0.04999598	0.005152462	0.01044775
	-0.7692555	0.4509447	0.01533101	-0.04258414	0.005177604	0.010503	0.0529317	0.02376179
	0.003690578	0.04999598	0.005177603	0.010503	-0.01772848	-0.01622728	-0.7704513	0.4533087
	0.005152462	0.01044775	0.0529317	0.02376179	-0.7704513	0.4533087	0.01627776	-0.04258255
2.9e+08	-0.01905216	-0.01352626	-0.7029938	0.5450897	0.01486895	0.05424987	0.006728128	0.01002883
	-0.7029938	0.5450897	0.01562767	-0.04699528	0.006762632	0.0100795	0.05901472	0.02339256
	0.01486895	0.05424987	0.006762632	0.0100795	-0.01891876	-0.01242839	-0.7038135	0.5475954
	0.006728128	0.01002883	0.05901472	0.02339256	-0.7038135	0.5475954	0.01659806	-0.04701308
3e+08	-0.01946046	-0.009222423	-0.6253996	0.6296344	0.02691407	0.05584721	0.008278512	0.009387835
	-0.6253996	0.6296344	0.01513637	-0.05146285	0.008321886	0.009432513	0.06517582	0.02168617
	0.02691407	0.05584721	0.008321885	0.009432513	-0.01926373	-0.00809072	-0.625829	0.6322233
	0.008278512	0.009387835	0.06517582	0.02168617	-0.625829	0.6322233	0.01613442	-0.05151374
3.1e+08	-0.01882775	-0.004571331	-0.5378558	0.7032552	0.03918807	0.05462622	0.009779954	0.008521988
	-0.5378558	0.7032552	0.01390628	-0.05579827	0.009831476	0.008558775	0.07109184	0.01865398
	0.03918807	0.05462622	0.009831476	0.008558775	-0.0185501	-0.003420545	-0.5378903	0.7058661
	0.009779954	0.008521988	0.07109184	0.01865398	-0.5378903	0.7058661	0.01493026	-0.05589599
3.2e+08	-0.01699325	0.0001554527	-0.4418905	0.7648266	0.05102883	0.05057835	0.01120524	0.007427668
	-0.4418905	0.7648266	0.01203011	-0.05983994	0.01126382	0.007454864	0.07645411	0.01438742
	0.05102883	0.05057835	0.01126382	0.007454864	-0.01662231	0.001304918	-0.441533	0.7674036
	0.01120524	0.007427668	0.07645411	0.01438742	-0.441533	0.7674036	0.01307348	-0.05999652
3.3e+08	-0.01387301	0.004631475	-0.3391422	0.8134387	0.06178613	0.04384934	0.012522	0.006102594
	-0.3391422	0.8134387	0.009634395	-0.06346239	0.01258586	0.006119065	0.08098817	0.009051637
	0.06178613	0.04384934	0.01258586	0.006119065	-0.01340183	0.005754909	-0.3384059	0.8159235
	0.012522	0.006102594	0.08098817	0.009051637	-0.3384059	0.8159235	0.0106868	-0.06368659
3.4e+08	-0.009475703	0.008497352	-0.2313377	0.8484	0.07085764	0.0347329	0.013692	0.00454995
	-0.2313377	0.8484	0.006868031	-0.06658221	0.01375909	0.00455378	0.08447194	0.002873857
	0.07085764	0.0347329	0.01375909	0.00455378	-0.00890465	0.009567789	-0.2302407	0.8507407
	0.013692	0.00454995	0.08447194	0.002873857	-0.2302407	0.8507407	0.007916256	-0.06687861
3.5e+08	-0.003912098	0.01138778	-0.1202547	0.8692446	0.07772067	0.02365533	0.01467298	0.002779925
	-0.1202547	0.8692446	0.003889742	-0.06916091	0.01474054	0.00277016	0.08674791	-0.003873188
	0.07772067	0.02365533	0.01474054	0.00277016	-0.003248852	0.01237709	-0.1188268	0.8713875
	0.01467298	0.002779925	0.08674791	-0.003873188	-0.1188268	0.8713875	0.004919745	-0.06952976
3.6e+08	0.002603031	0.01295969	-0.007704366	0.8757255	0.08196106	0.01115452	0.01542053	0.0008131219
	-0.007704366	0.8757255	0.0008564161	-0.07120491	0.01548562	0.0007898159	0.08773259	-0.01088834
	0.08196106	0.01115452	0.01548562	0.000789816	0.003342404	0.01384135	-0.005979245	0.8776257
	0.01542053	0.0008131219	0.08773259	-0.01088834	-0.005979245	0.8776257	0.001854619	-0.07164113
3.7e+08	0.009756184	0.01292182	0.1045002	0.8678167	0.08329588	-0.002147722	0.015892	-0.001317928
	0.1045002	0.8678167	-0.002088427	-0.07276119	0.01595134	-0.001354435	0.08742044	-0.01786238
	0.08329588	-0.002147722	0.01595134	-0.001354435	0.01054812	0.01367281	0.106483	0.8694356
	0.015892	-0.001317928	0.08742044	-0.01786238	0.106483	0.8694356	-0.001133724	-0.073256
3.8e+08	0.01714908	0.01106114	0.2145633	0.8457098	0.08158885	-0.01557684	0.01605001	-0.003570234
	0.2145633	0.8457098	-0.004824201	-0.07391208	0.01610074	-0.003617758	0.08588245	-0.02449745
	0.08158885	-0.01557684	0.01610074	-0.003617758	0.01796329	0.01166363	0.2167567	0.8470124
	0.01605001	-0.003570234	0.08588245	-0.02449745	0.2167567	0.8470124	-0.003921287	-0.07445336
3.9e+08	0.02431792	0.007266507	0.3207248	0.8098074	0.07686033	-0.02843966	0.01586706	-0.005889462
	0.3207248	0.8098074	-0.007261526	-0.07476757	0.01590623	-0.005946385	0.08326104	-0.03052587
	0.07686033	-0.02843966	0.01590623	-0.005946385	0.02511882	0.007710908	0.3230803	0.8107706
	0.01586706	-0.005889461	0.08326104	-0.03052587	0.3230803	0.8107706	-0.006414657	-0.07534029
4e+08	0.03076142	0.001547784	0.4212869	0.7607231	0.06928739	-0.04006058	0.0153273	-0.008215998
	0.4212869	0.7607231	-0.009346958	-0.07545455	0.01535347	-0.008278786	0.07975916	-0.03572664
	0.06928739	-0.04006058	0.01535347	-0.008278786	0.03151033	0.001832545	0.4237524	0.7613259
	0.0153273	-0.008215997	0.07975916	-0.03572664	0.4237524	0.7613259	-0.008555346	-0.07604342
4.1e+08	0.03597231	-0.005953167	0.5146373	0.6992665	0.05919747	-0.04981612	0.01442916	-0.01048697
	0.5146373	0.6992665	-0.01106575	-0.07610675	0.0144417	-0.010552	0.07562677	-0.03993872
	0.05919747	-0.04981612	0.0144417	-0.010552	0.03662913	-0.005820103	0.5171595	0.6994989
	0.01442916	-0.01048697	0.07562677	-0.03993872	0.5171595	0.6994989	-0.01032395	-0.07669716
4.2e+08	0.03947077	-0.01495991	0.5992641	0.6264489	0.04705396	-0.05716902	0.01318573	-0.01264098
	0.5992641	0.6264489	-0.01244188	-0.07685463	0.01318478	-0.01270489	0.07114407	-0.04307188
	0.04705396	-0.05716902	0.01318478	-0.01270489	0.03999652	-0.01496018	0.6017867	0.6263089
	0.01318573	-0.01264098	0.07114407	-0.04307188	0.6017867	0.6263089	-0.01173972	-0.07743406
4.3e+08	0.04084226	-0.02506702	0.6737862	0.5434625	0.03343334	-0.06169698	0.01162169	-0.01462323
	0.6737862	0.5434625	-0.01353451	-0.07781453	0.01160904	-0.01468284	0.06660253	-0.04511019
	0.03343334	-0.06169698	0.01160904	-0.01468284	0.04120192	-0.02517245	0.6762562	0.5429548
	0.01162169	-0.01462323	0.06660253	-0.04511019	0.6762562	0.5429548	-0.01285856	-0.07837395
4.4e+08	0.03977118	-0.03575586	0.7369755	0.4516732	0.0189974	-0.06311654	0.009771903	-0.01638751
	0.7369755	0.4516732	-0.01443291	-0.07908	0.009749575	-0.01644034	0.06228529	-0.04611396
	0.0189974	-0.06311654	0.009749575	-0.01644034	0.0399358	-0.03592892	0.7393398	0.4508115
	0.009771903	-0.01638751	0.06228529	-0.04611396	0.7393398	0.4508115	-0.01376658	-0.07961497
4.5e+08	0.03607157	-0.04641834	0.787779	0.3526066	0.004459307	-0.06130025	0.007676576	-0.01789857
	0.787779	0.3526066	-0.01524854	-0.08071506	0.007647464	-0.01794327	0.05844867	-0.0462143
	0.004459307	-0.06130025	0.007647464	-0.01794327	0.03602108	-0.04661409	0.789988	0.3514108
	0.007676576	-0.01789857	0.05844867	-0.0462143	0.789988	0.3514108	-0.01457414	-0.08122643
4.6e+08	0.02971238	-0.05639157	0.8253464	0.2479217	-0.009453139	-0.05628479	0.005376766	-0.01913199
	0.8253464	0.2479217	-0.01610565	-0.08274975	0.005344277	-0.01916829	0.05530384	-0.04560434
	-0.009453139	-0.05628479	0.005344277	-0.01916829	0.02943757	-0.05656015	0.827354	0.2464175
	0.005376766	-0.01913199	0.05530384	-0.04560434	0.827354	0.2464175	-0.01540596	-0.08324393
4.7e+08	0.02083433	-0.06499907	0.8490545	0.1393835	-0.02203614	-0.04827101	0.002912242	-0.02007223
	0.8490545	0.1393835	-0.01713138	-0.0851775	0.002878825	-0.02010101	0.05300248	-0.04452461
	-0.02203614	-0.04827101	0.002878825	-0.02010101	0.02033739	-0.06508707	0.8508169	0.1376051
	0.002912242	-0.02007223	0.05300248	-0.04452461	0.8508169	0.1376051	-0.01639113	-0.08566663
4.8e+08	0.009751605	-0.07159416	0.8585117	0.02883624	-0.03264608	-0.03761442	0.0003164169	-0.02070986
	0.8585117	0.02883624	-0.01844555	-0.08795812	0.0002845657	-0.02073292	0.05162663	-0.04324682
	-0.03264608	-0.03761442	0.0002845657	-0.02073292	0.009048616	-0.07154886	0.8599953	0.02682276
	0.0003164168	-0.02070986	0.05162663	-0.04324682	0.8599953	0.02682276	-0.01765325	-0.08845864
4.9e+08	-0.003052241	-0.07560674	0.8535869	-0.08182969	-0.04073469	-0.02480756	-0.00238153	-0.02103733
	0.8535869	-0.08182969	-0.02015245	-0.09101976	-0.002411304	-0.02105711	0.05118252	-0.04205405
	-0.04073469	-0.02480756	-0.002411304	-0.02105711	-0.003933097	-0.07537906	0.8547597	-0.08403736
	-0.00238153	-0.02103733	0.05118252	-0.04205405	0.8547597	-0.08403736	-0.0193016	-0.09155209
5e+08	-0.01694645	-0.07658979	0.8344071	-0.1907302	-0.0458765	-0.01045429	-0.005158458	-0.02104479
	0.8344071	-0.1907302	-0.02233261	-0.09426627	-0.005186002	-0.0210641	0.05160045	-0.04121994
	-0.0458765	-0.01045429	-0.005186002	-0.0210641	-0.01796474	-0.07613664	0.835244	-0.1930812
	-0.005158458	-0.02104479	0.05160045	-0.04121994	0.835244	-0.1930812	-0.02142265	-0.0948528
5.1e+08	-0.03118524	-0.07425425	0.8013529	-0.2960081	-0.04779141	0.004760244	-0.007991436	-0.02071829
	0.8013529	-0.2960081	-0.02503788	-0.0975843	-0.008018269	-0.02073929	0.05274008	-0.04098985
	-0.04779141	0.004760244	-0.008018269	-0.02073929	-0.03229012	-0.07354314	0.8018387	-0.2984533
	-0.007991436	-0.02071829	0.05274008	-0.04098985	0.8018387	-0.2984533	-0.02407459	-0.09824756
5.2e+08	-0.04494906	-0.06850172	0.7550599	-0.3958842	-0.04635928	0.02010612	-0.010856	-0.02003684
	0.7550599	-0.3958842	-0.02828836	-0.1008518	-0.01088498	-0.02006076	0.05440067	-0.04156264
