!$
! Info: Touchstone file created by Circ.  Input file=Intel_C2M_200G_9p5in_202208016_staggered.circ
!$
# Hz S RI R 50
0	0.02774718	4.567856e-24	9.267717e-05	1.391435e-22	0.0001353647	3.303753e-22	9.267047e-05	1.38926e-22
	9.267717e-05	1.391435e-22	0.02776	4.965595e-24	9.268148e-05	1.392609e-22	0.0001349648	3.277058e-22
	0.0001354213	3.304998e-22	9.268146e-05	1.392626e-22	0.02774212	4.788001e-24	9.267272e-05	1.390305e-22
	9.267045e-05	1.389276e-22	0.0001350214	3.278318e-22	9.267272e-05	1.390305e-22	0.02775798	4.697501e-24
1e+07	0.03379882	0.003421545	8.925694e-06	3.8181e-05	0.002475619	0.007432101	1.40809e-05	2.670266e-05
	8.925697e-06	3.818101e-05	0.03373207	0.004145093	7.362091e-06	4.593939e-05	0.002482066	0.007490858
	0.002475619	0.007432101	7.362091e-06	4.593939e-05	0.03371278	0.00420255	9.091747e-06	3.993816e-05
	1.40809e-05	2.670266e-05	0.002482066	0.007490858	9.091747e-06	3.993816e-05	0.03382741	0.003432872
2e+07	0.03940708	0.001104846	1.737336e-05	3.02949e-05	0.005847149	0.01345175	1.020067e-05	1.595695e-05
	1.737337e-05	3.029492e-05	0.0401748	0.002213705	3.406328e-05	4.512481e-05	0.005860661	0.01356718
	0.005847156	0.01345174	3.406328e-05	4.512481e-05	0.04017575	0.002326914	1.93959e-05	3.291544e-05
	1.020067e-05	1.595695e-05	0.005860669	0.01356717	1.93959e-05	3.291544e-05	0.03944953	0.001114388
3e+07	0.04266606	-0.004024331	2.888023e-05	2.408313e-05	0.01076954	0.01835821	8.007027e-06	1.356601e-05
	2.888023e-05	2.408313e-05	0.04403883	-0.00301597	5.616406e-05	3.676568e-05	0.01079459	0.01852619
	0.01076952	0.01835825	5.616406e-05	3.676568e-05	0.04406743	-0.002846028	3.229458e-05	2.657082e-05
	8.00703e-06	1.356601e-05	0.01079458	0.01852623	3.229459e-05	2.657082e-05	0.04271088	-0.004017157
4e+07	0.04379387	-0.01011241	3.70424e-05	1.62291e-05	0.01690364	0.02161637	9.108033e-06	1.023102e-05
	3.70424e-05	1.62291e-05	0.04561174	-0.009380114	7.160974e-05	2.302546e-05	0.01694199	0.02183074
	0.01690364	0.02161639	7.160974e-05	2.302546e-05	0.04568467	-0.009167093	4.153439e-05	1.820453e-05
	9.108035e-06	1.023102e-05	0.016942	0.02183076	4.153439e-05	1.820453e-05	0.04383976	-0.01011393
5e+07	0.0431061	-0.01630735	4.211056e-05	7.193837e-06	0.02375127	0.0230027	1.096005e-05	6.021136e-06
	4.211056e-05	7.193836e-06	0.04522993	-0.01595042	8.088206e-05	6.251004e-06	0.02380197	0.02325675
	0.02375127	0.02300271	8.088206e-05	6.251004e-06	0.04535511	-0.01570986	4.74273e-05	8.415463e-06
	1.096005e-05	6.021136e-06	0.02380198	0.02325676	4.74273e-05	8.415463e-06	0.04314723	-0.01631973
6e+07	0.04088325	-0.0220971	4.431081e-05	-2.344504e-06	0.03078743	0.02239088	1.138913e-05	1.935972e-06
	4.431081e-05	-2.344503e-06	0.04318406	-0.02217252	8.436834e-05	-1.179798e-05	0.03084679	0.02267833
	0.03078744	0.02239086	8.436834e-05	-1.179798e-05	0.04336455	-0.02192138	5.021537e-05	-2.050304e-06
	1.138913e-05	1.935973e-06	0.0308468	0.02267831	5.021537e-05	-2.050302e-06	0.04091438	-0.0221203
7e+07	0.03744032	-0.02710143	4.386608e-05	-1.179117e-05	0.03746737	0.01979658	1.05574e-05	-1.715977e-06
	4.386608e-05	-1.179117e-05	0.03979579	-0.02763702	8.256473e-05	-2.96996e-05	0.03752916	0.02011258
	0.03746736	0.01979657	8.256473e-05	-2.96996e-05	0.04002926	-0.02739309	5.011944e-05	-1.255298e-05
	1.05574e-05	-1.715977e-06	0.03752916	0.02011257	5.011944e-05	-1.255298e-05	0.03745694	-0.02713473
8e+07	0.03314434	-0.03107083	4.10002e-05	-2.065139e-05	0.04326921	0.01537646	8.677513e-06	-4.645062e-06
	4.10002e-05	-2.065139e-05	0.03543632	-0.0320729	7.596703e-05	-4.634092e-05	0.04332523	0.01571842
	0.04326921	0.01537647	7.596703e-05	-4.634092e-05	0.0357151	-0.03185296	4.735007e-05	-2.256397e-05
	8.677513e-06	-4.645062e-06	0.04332524	0.01571842	4.735007e-05	-2.256397e-05	0.03314267	-0.03111311
9e+07	0.02838453	-0.03388762	3.589037e-05	-2.855571e-05	0.04772961	0.009416181	6.011403e-06	-6.624919e-06
	3.589037e-05	-2.855571e-05	0.03049273	-0.0353482	6.498842e-05	-6.09029e-05	0.04777056	0.009784461
	0.04772962	0.009416184	6.498842e-05	-6.09029e-05	0.0308038	-0.03516614	4.205557e-05	-3.169326e-05
	6.011402e-06	-6.624919e-06	0.04777056	0.009784464	4.205557e-05	-3.169326e-05	0.02836082	-0.03393741
1e+08	0.02359421	-0.03553142	2.792704e-05	-3.554446e-05	0.05047403	0.002308163	2.632445e-06	-7.476908e-06
	2.792704e-05	-3.554446e-05	0.02534805	-0.03745754	4.852977e-05	-7.328623e-05	0.05049059	0.002706601
	0.05047403	0.002308162	4.852977e-05	-7.328623e-05	0.02567397	-0.03732275	3.3482e-05	-4.00394e-05
	2.632445e-06	-7.476908e-06	0.05049059	0.0027066	3.3482e-05	-4.00394e-05	0.02354472	-0.03558712
1.1e+08	0.0189754	-0.03647311	1.813984e-05	-3.649602e-05	0.05122374	-0.005480071	-1.491838e-07	-6.124413e-06
	1.813984e-05	-3.649602e-05	0.02019765	-0.03854976	2.914434e-05	-7.376964e-05	0.05120752	-0.005044897
	0.05122374	-0.005480072	2.914434e-05	-7.376964e-05	0.02051928	-0.03852423	2.249296e-05	-4.168606e-05
	-1.491835e-07	-6.124413e-06	0.05120752	-0.005044898	2.249296e-05	-4.168606e-05	0.01889199	-0.03658907
1.2e+08	0.01453447	-0.03652532	1.087277e-05	-3.536118e-05	0.04985191	-0.01335671	-1.702916e-06	-4.428349e-06
	1.087277e-05	-3.536118e-05	0.01533953	-0.03861937	1.496744e-05	-7.071745e-05	0.04979589	-0.01287488
	0.04985191	-0.01335671	1.496744e-05	-7.071745e-05	0.01560307	-0.03864828	1.420435e-05	-4.091162e-05
	-1.702916e-06	-4.428349e-06	0.04979589	-0.01287488	1.420435e-05	-4.091162e-05	0.01437916	-0.03664247
1.3e+08	0.01055423	-0.03584671	6.817655e-06	-3.278091e-05	0.04638723	-0.02078196	-2.71445e-06	-2.841704e-06
	6.817655e-06	-3.278091e-05	0.01100334	-0.03788742	1.106274e-05	-6.410643e-05	0.04628748	-0.02024083
	0.04638723	-0.02078196	1.106274e-05	-6.410643e-05	0.01120541	-0.03793579	9.91911e-06	-3.825583e-05
	-2.71445e-06	-2.841705e-06	0.04628748	-0.02024083	9.91911e-06	-3.825583e-05	0.01033934	-0.03593168
1.4e+08	0.007164555	-0.0346536	5.216444e-06	-2.949911e-05	0.04098944	-0.02722878	-3.286606e-06	-1.328854e-06
	5.216444e-06	-2.949911e-05	0.007310397	-0.03659162	7.486452e-06	-5.786865e-05	0.04084583	-0.02661406
	0.04098944	-0.02722878	7.486452e-06	-5.786865e-05	0.007454147	-0.03664585	7.890059e-06	-3.492127e-05
	-3.286605e-06	-1.328854e-06	0.04084583	-0.02661406	7.890059e-06	-3.492127e-05	0.00690685	-0.03469917
1.5e+08	0.004409698	-0.03317002	3.870317e-06	-2.661202e-05	0.03394491	-0.03222051	-3.318039e-06	1.659973e-07
	3.870317e-06	-2.661202e-05	0.004301284	-0.03497032	4.509452e-06	-5.178577e-05	0.03376163	-0.03151731
	0.03394491	-0.03222051	4.509453e-06	-5.178577e-05	0.004384398	-0.03502299	6.168748e-06	-3.175168e-05
	-3.318039e-06	1.659971e-07	0.03376163	-0.03151731	6.168748e-06	-3.175168e-05	0.004117068	-0.03317867
1.6e+08	0.002260479	-0.03160502	2.822559e-06	-2.385811e-05	0.02565212	-0.03536204	-2.928378e-06	1.462565e-06
	2.822559e-06	-2.385811e-05	0.001944105	-0.03324373	2.227909e-06	-4.588709e-05	0.02543791	-0.03455616
	0.02565212	-0.03536204	2.227909e-06	-4.588709e-05	0.001960344	-0.03328572	4.69344e-06	-2.885456e-05
	-2.928377e-06	1.462565e-06	0.02543791	-0.03455616	4.69344e-06	-2.885456e-05	0.001932649	-0.03157973
1.7e+08	0.0006260175	-0.03013418	2.080731e-06	-2.125535e-05	0.01659924	-0.03636558	-2.312483e-06	2.442613e-06
	2.080731e-06	-2.125535e-05	0.0001451827	-0.03159654	6.441838e-07	-4.02416e-05	0.0163673	-0.03544482
	0.01659924	-0.03636558	6.441839e-07	-4.02416e-05	8.859782e-05	-0.03161389	3.52479e-06	-2.607531e-05
	-2.312483e-06	2.442613e-06	0.0163673	-0.03544482	3.52479e-06	-2.607531e-05	0.0002583411	-0.03007362
1.8e+08	-0.0006309438	-0.02888328	1.603309e-06	-1.882227e-05	0.00733609	-0.03507033	-1.041274e-06	3.156642e-06
	1.603309e-06	-1.882227e-05	-0.00123588	-0.03016213	-2.520891e-07	-3.491966e-05	0.007103599	-0.03402581
	0.00733609	-0.03507033	-2.52089e-07	-3.491966e-05	-0.001367414	-0.03013665	2.630937e-06	-2.342615e-05
	-1.041274e-06	3.156642e-06	0.007103598	-0.03402581	2.630937e-06	-2.342615e-05	-0.001043856	-0.02878095
1.9e+08	-0.001675677	-0.02791809	1.41036e-06	-1.65909e-05	-0.001558196	-0.0314553	3.640741e-07	3.547304e-06
	1.41036e-06	-1.65909e-05	-0.0023678	-0.02901245	-4.714633e-07	-3.000714e-05	-0.001770951	-0.03028272
	-0.001558196	-0.0314553	-4.714633e-07	-3.000714e-05	-0.002570244	-0.02892379	2.043387e-06	-2.093818e-05
	3.640741e-07	3.547304e-06	-0.001770951	-0.03028272	2.043387e-06	-2.093818e-05	-0.00213694	-0.02776266
2e+08	-0.002679939	-0.0272386	1.472757e-06	-1.459721e-05	-0.009510193	-0.02564325	1.783453e-06	3.605552e-06
	1.472757e-06	-1.459721e-05	-0.00342594	-0.02815252	-8.860689e-08	-2.559008e-05	-0.009681005	-0.02434386
	-0.009510193	-0.02564325	-8.860689e-08	-2.559008e-05	-0.00368874	-0.02798158	1.742779e-06	-1.864827e-05
	1.783453e-06	3.605552e-06	-0.009681005	-0.02434386	1.742779e-06	-1.864827e-05	-0.003188867	-0.02701612
2.1e+08	-0.003799565	-0.02678148	1.744681e-06	-1.286829e-05	-0.01598711	-0.01789645	3.149704e-06	3.333151e-06
	1.744681e-06	-1.286829e-05	-0.004569942	-0.02752297	7.99023e-07	-2.173869e-05	-0.01609347	-0.01647768
	-0.01598711	-0.01789645	7.99023e-07	-2.173869e-05	-0.00487652	-0.02725349	1.6924e-06	-1.658731e-05
	3.149704e-06	3.333151e-06	-0.01609347	-0.01647768	1.6924e-06	-1.658731e-05	-0.004350611	-0.02647608
2.2e+08	-0.005155086	-0.02642778	2.173361e-06	-1.14233e-05	-0.0205304	-0.008603849	4.394985e-06	2.74683e-06
	2.173361e-06	-1.14233e-05	-0.005923947	-0.02700789	2.077806e-06	-1.850533e-05	-0.02055124	-0.007079593
	-0.0205304	-0.008603849	2.077806e-06	-1.850533e-05	-0.006252926	-0.02662927	1.847366e-06	-1.478042e-05
	4.394985e-06	2.74683e-06	-0.02055124	-0.007079593	1.847366e-06	-1.478042e-05	-0.005737127	-0.02602427
2.3e+08	-0.006814	-0.02601815	2.701332e-06	-1.027077e-05	-0.02278582	0.001739812	5.454732e-06	1.87849e-06
	2.701332e-06	-1.027077e-05	-0.007558953	-0.02645027	3.623285e-06	-1.591987e-05	-0.02270333	0.003349605
	-0.02278582	0.001739813	3.623285e-06	-1.591987e-05	-0.007886934	-0.02595851	2.156625e-06	-1.324399e-05
	5.454732e-06	1.87849e-06	-0.02270333	0.003349605	2.156625e-06	-1.324399e-05	-0.007411213	-0.02550339
2.4e+08	-0.008779356	-0.02537215	3.269471e-06	-9.407627e-06	-0.0225267	0.01256179	6.271449e-06	7.744208e-07
	3.269471e-06	-9.407627e-06	-0.009481188	-0.02567147	5.306139e-06	-1.398764e-05	-0.02232809	0.01423189
	-0.0225267	0.01256179	5.306139e-06	-1.398764e-05	-0.009784212	-0.02506909	2.56546e-06	-1.198447e-05
	6.271449e-06	7.744208e-07	-0.02232809	0.01423189	2.56546e-06	-1.198447e-05	-0.009370918	-0.02473609
2.5e+08	-0.01098429	-0.02431042	3.819877e-06	-8.818888e-06	-0.0196706	0.02324477	6.798251e-06	-5.064681e-07
	3.819877e-06	-8.818888e-06	-0.01162682	-0.02449363	6.998055e-06	-1.268857e-05	-0.01934964	0.02494606
	-0.0196706	0.02324477	6.998055e-06	-1.268857e-05	-0.01188324	-0.02378979	3.018233e-06	-1.099724e-05
	6.798251e-06	-5.064681e-07	-0.01934964	0.02494606	3.018233e-06	-1.099724e-05	-0.011546	-0.02354808
2.6e+08	-0.01329479	-0.0226784	4.298933e-06	-8.477932e-06	-0.01428733	0.03316336	7.001973e-06	-1.89524e-06
	4.298933e-06	-8.477932e-06	-0.01386468	-0.02276345	8.577718e-06	-1.197779e-05	-0.01384536	0.03486456
	-0.01428733	0.03316336	8.577718e-06	-1.197779e-05	-0.01405615	-0.02197239	3.461148e-06	-1.026669e-05
	7.001973e-06	-1.89524e-06	-0.01384536	0.03486456	3.461148e-06	-1.026669e-05	-0.01379942	-0.02179046
2.7e+08	-0.01551883	-0.02036791	4.659902e-06	-8.3476e-06	-0.00659631	0.0417211	6.865421e-06	-3.31631e-06
	4.659902e-06	-8.3476e-06	-0.01600562	-0.02037389	9.936253e-06	-1.178744e-05	-0.006042942	0.0433909
	-0.00659631	0.0417211	9.936253e-06	-1.178744e-05	-0.01611873	-0.01951383	3.844893e-06	-9.766489e-06
	6.865421e-06	-3.31631e-06	-0.006042942	0.0433909	3.844894e-06	-9.766489e-06	-0.01593802	-0.01936199
2.8e+08	-0.01742226	-0.01733604	4.865455e-06	-8.381872e-06	0.003043622	0.04838675	6.388923e-06	-4.691356e-06
	4.865455e-06	-8.381872e-06	-0.01781843	-0.017283	1.098214e-05	-1.202978e-05	0.003690578	0.04999598
	0.003043622	0.04838675	1.098214e-05	-1.202978e-05	-0.01784567	-0.01637449	4.127196e-06	-9.460799e-06
	6.388923e-06	-4.691356e-06	0.003690578	0.04999598	4.127196e-06	-9.460799e-06	-0.01772848	-0.01622728
2.9e+08	-0.01875095	-0.01361745	4.889702e-06	-8.528143e-06	0.01415386	0.05272611	5.590749e-06	-5.943591e-06
	4.889702e-06	-8.528143e-06	-0.01905216	-0.01352626	1.164542e-05	-1.260142e-05	0.01486895	0.05424987
	0.01415386	0.05272611	1.164542e-05	-1.260142e-05	-0.01899135	-0.01259016	4.275037e-06	-9.306046e-06
	5.590749e-06	-5.943591e-06	0.01486895	0.05424987	4.275037e-06	-9.306046e-06	-0.01891876	-0.01242839
3e+08	-0.01925518	-0.009330499	4.719496e-06	-8.729958e-06	0.02616275	0.05442762	4.506367e-06	-7.002001e-06
	4.719496e-06	-8.729958e-06	-0.01946046	-0.009222423	1.188058e-05	-1.338826e-05	0.02691407	0.05584721
	0.02616275	0.05442762	1.188058e-05	-1.338826e-05	-0.01931495	-0.008278393	4.266338e-06	-9.253103e-06
	4.506367e-06	-7.002001e-06	0.02691407	0.05584721	4.266338e-06	-9.253103e-06	-0.01926373	-0.00809072
3.1e+08	-0.01871571	-0.004675027	4.355211e-06	-8.930198e-06	0.03843731	0.05332165	3.186796e-06	-7.805442e-06
	4.355211e-06	-8.930198e-06	-0.01882775	-0.004571331	1.166844e-05	-1.42713e-05	0.03918807	0.05462622
	0.03843731	0.05332165	1.166844e-05	-1.42713e-05	-0.01860499	-0.003636723	4.091062e-06	-9.250119e-06
	3.186796e-06	-7.805442e-06	0.03918807	0.05462622	4.091062e-06	-9.250119e-06	-0.0185501	-0.003420545
3.2e+08	-0.01696805	7.680362e-05	3.810493e-06	-9.074222e-06	0.05031833	0.04939071	1.695807e-06	-8.306078e-06
	3.810493e-06	-9.074222e-06	-0.01699325	0.0001554527	1.101645e-05	-1.513241e-05	0.05102883	0.05057835
	0.05031833	0.04939071	1.101645e-05	-1.513241e-05	-0.0167051	0.001066515	3.751634e-06	-9.245314e-06
	1.695807e-06	-8.306078e-06	0.05102883	0.05057835	3.751634e-06	-9.245314e-06	-0.01662231	0.001304918
3.3e+08	-0.01392444	0.004597332	3.111353e-06	-9.112943e-06	0.06115636	0.04277094	1.063761e-07	-8.471995e-06
	3.111353e-06	-9.112943e-06	-0.01387301	0.004631475	9.957617e-06	-1.586015e-05	0.06178613	0.04384934
	0.06115636	0.04277094	9.957617e-06	-1.586015e-05	-0.01353327	0.005508931	3.262404e-06	-9.189976e-06
	1.063761e-07	-8.471995e-06	0.06178613	0.04384934	3.262404e-06	-9.189976e-06	-0.01340183	0.005754909
3.4e+08	-0.009589883	0.00852523	2.29442e-06	-9.005676e-06	0.07034746	0.03374625	-1.503379e-06	-8.289033e-06
	2.29442e-06	-9.005676e-06	-0.009475703	0.008497352	8.54843e-06	-1.635526e-05	0.07085764	0.0347329
	0.07034746	0.03374625	8.54843e-06	-1.635526e-05	-0.009099646	0.009335966	2.648658e-06	-9.041216e-06
	-1.503379e-06	-8.289033e-06	0.07085764	0.0347329	2.648658e-06	-9.041216e-06	-0.00890465	0.009567789
3.5e+08	-0.004071702	0.01149263	1.404537e-06	-8.722273e-06	0.0773651	0.02273355	-3.054581e-06	-7.761225e-06
	1.404537e-06	-8.722273e-06	-0.003912098	0.01138778	6.865177e-06	-1.653524e-05	0.07772067	0.02365533
	0.0773651	0.02273355	6.865177e-06	-1.653524e-05	-0.003514428	0.01218636	1.944679e-06	-8.764171e-06
	-3.054581e-06	-7.761225e-06	0.07772067	0.02365533	1.944679e-06	-8.764171e-06	-0.003248852	0.01237709
3.6e+08	0.002418411	0.01315321	4.918989e-07	-8.244693e-06	0.0817891	0.01026231	-4.471912e-06	-6.910396e-06
	4.918989e-07	-8.244693e-06	0.002603031	0.01295969	4.999719e-06	-1.633818e-05	0.08196106	0.01115452
	0.0817891	0.01026231	4.999719e-06	-1.633818e-05	0.003008561	0.01372147	1.191623e-06	-8.33388e-06
	-4.471912e-06	-6.910396e-06	0.08196106	0.01115452	1.191623e-06	-8.33388e-06	0.003342404	0.01384135
3.7e+08	0.009569656	0.01321185	-3.910466e-07	-7.567638e-06	0.08332844	-0.00305288	-5.687652e-06	-5.774491e-06
	-3.910466e-07	-7.567638e-06	0.009756184	0.01292182	3.054387e-06	-1.572529e-05	0.08329588	-0.002147722
	0.08332844	-0.00305288	3.054387e-06	-1.572529e-05	0.01015855	0.01365353	4.348175e-07	-7.736291e-06
	-5.687652e-06	-5.774491e-06	0.08329588	-0.002147722	4.348175e-07	-7.736291e-06	0.01054812	0.01367281
3.8e+08	0.01698588	0.01145101	-1.192653e-06	-6.69843e-06	0.08183713	-0.01654272	-6.644979e-06	-4.405115e-06
	-1.192653e-06	-6.69843e-06	0.01714908	0.01106114	1.136637e-06	-1.468223e-05	0.08158885	-0.01557684
	0.08183713	-0.01654272	1.136637e-06	-1.468223e-05	0.01754081	0.01177166	-2.788399e-07	-6.968635e-06
	-6.644979e-06	-4.405115e-06	0.08158885	-0.01557684	-2.788399e-07	-6.968635e-06	0.01796329	0.01166363
3.9e+08	0.02420477	0.007754469	-1.864891e-06	-5.656159e-06	0.07732445	-0.02951717	-7.300627e-06	-2.864438e-06
	-1.864891e-06	-5.656159e-06	0.02431792	0.007266507	-6.46188e-07	-1.321944e-05	0.07686033	-0.02843966
	0.07732445	-0.02951717	-6.46188e-07	-1.321944e-05	0.02469582	0.007966775	-9.033473e-07	-6.039323e-06
	-7.300627e-06	-2.864438e-06	0.07686033	-0.02843966	-9.033473e-07	-6.039323e-06	0.02511882	0.007710908
4e+08	0.03072573	0.002126287	-2.36575e-06	-4.47022e-06	0.06995558	-0.04130114	-7.626508e-06	-1.221498e-06
	-2.36575e-06	-4.47022e-06	0.03076142	0.001547784	-2.192283e-06	-1.137112e-05	0.06928739	-0.04006058
	0.06995558	-0.04130114	-2.192283e-06	-1.137112e-05	0.03112716	0.002247643	-1.396086e-06	-4.967018e-06
	-7.626508e-06	-1.221498e-06	0.06928739	-0.04006058	-1.396086e-06	-4.967018e-06	0.03151033	0.001832545
4.1e+08	0.03604125	-0.00529837	-2.661219e-06	-3.178549e-06	0.06004582	-0.05126893	-7.610105e-06	4.5134e-07
	-2.661219e-06	-3.178549e-06	0.03597231	-0.005953167	-3.412416e-06	-9.192981e-06	0.05919747	-0.04981612
	0.06004582	-0.05126893	-3.412416e-06	-9.192981e-06	0.03633142	-0.005245905	-1.722355e-06	-3.779515e-06
	-7.610105e-06	4.5134e-07	0.05919747	-0.04981612	-1.722355e-06	-3.779515e-06	0.03662913	-0.005820103
4.2e+08	0.03966941	-0.0142498	-2.726161e-06	-1.825146e-06	0.04804683	-0.05887806	-7.25504e-06	2.082096e-06
	-2.726161e-06	-1.825146e-06	0.03947077	-0.01495991	-4.228982e-06	-6.758835e-06	0.04705396	-0.05716902
	0.04804683	-0.05887806	-4.228982e-06	-6.758835e-06	0.03983221	-0.01424076	-1.850987e-06	-2.510763e-06
	-7.25504e-06	2.082096e-06	0.04705396	-0.05716902	-1.850987e-06	-2.510763e-06	0.03999652	-0.01496018
4.3e+08	0.04119206	-0.02432934	-2.54537e-06	-4.582681e-07	0.0345245	-0.06369828	-6.579644e-06	3.6027e-06
	-2.54537e-06	-4.582681e-07	0.04084226	-0.02506702	-4.579889e-06	-4.159432e-06	0.03343334	-0.06169698
	0.0345245	-0.06369828	-4.579889e-06	-4.159432e-06	0.04121711	-0.02433687	-1.756342e-06	-1.202251e-06
	-6.579644e-06	3.6027e-06	0.03343334	-0.06169698	-1.756342e-06	-1.202251e-06	0.04120192	-0.02517245
4.4e+08	0.04028804	-0.035025	-2.113708e-06	8.715687e-07	0.02013191	-0.06543552	-5.614957e-06	4.95142e-06
	-2.113708e-06	8.715687e-07	0.03977118	-0.03575586	-4.425792e-06	-1.497533e-06	0.0189974	-0.06311654
	0.02013191	-0.06543552	-4.425792e-06	-1.497533e-06	0.04017011	-0.035021	-1.423896e-06	9.93051e-08
	-5.614957e-06	4.95142e-06	0.0189974	-0.06311654	-1.423896e-06	9.93051e-08	0.0399358	-0.03592892
4.5e+08	0.03676376	-0.0457345	-1.435915e-06	2.113408e-06	0.005576021	-0.06394962	-4.402882e-06	6.075025e-06
	-1.435915e-06	2.113408e-06	0.03607157	-0.04641834	-3.749913e-06	1.116503e-06	0.004459307	-0.06130025
	0.005576021	-0.06394962	-3.749913e-06	1.116503e-06	0.03650297	-0.04569102	-8.48676e-07	1.343944e-06
	-4.402882e-06	6.075025e-06	0.004459307	-0.06130025	-8.48676e-07	1.343944e-06	0.03602108	-0.04661409
4.6e+08	0.03057838	-0.05579915	-5.264437e-07	3.217388e-06	-0.008418623	-0.05926305	-2.993956e-06	6.930218e-06
	-5.264437e-07	3.217388e-06	0.02971238	-0.05639157	-2.559403e-06	3.569405e-06	-0.009453139	-0.05628479
	-0.008418623	-0.05926305	-2.559403e-06	3.569405e-06	0.03018007	-0.05568952	-3.593521e-08	2.480082e-06
	-2.993956e-06	6.930218e-06	-0.009453139	-0.05628479	-3.593521e-08	2.480082e-06	0.02943757	-0.05656015
4.7e+08	0.02186102	-0.06454417	5.907332e-07	4.136131e-06	-0.02114792	-0.05156164	-1.445142e-06	7.484538e-06
	5.907332e-07	4.136131e-06	0.02083433	-0.06499907	-8.857989e-07	5.749763e-06	-0.02203614	-0.04827101
	-0.02114792	-0.05156164	-8.857989e-07	5.749763e-06	0.0213346	-0.06434236	9.984562e-07	3.456188e-06
	-1.445142e-06	7.484538e-06	-0.02203614	-0.04827101	9.984562e-07	3.456188e-06	0.02033739	-0.06508707
4.8e+08	0.01091321	-0.07132142	1.882546e-06	4.826068e-06	-0.03196451	-0.04118607	1.821664e-07	7.71678e-06
