!$
! Info: Touchstone file created by Circ.  Input file=Intel_C2M_200G_9p5in_202208016_staggered.circ
!$
# Hz S RI R 50
0	0.02831098	8.892416e-24	-0.0001142885	1.399631e-20	0.0003566224	1.020511e-21	-0.0001100525	1.347754e-20
	-0.0001142886	1.399632e-20	0.02776	4.965595e-24	-0.0001213164	1.485698e-20	0.0001349648	3.277058e-22
	0.000356688	1.021233e-21	-0.0001213165	1.485699e-20	0.02831221	9.111738e-24	-0.0001143137	1.399939e-20
	-0.0001100525	1.347754e-20	0.0001350214	3.278318e-22	-0.0001143136	1.399938e-20	0.02775798	4.697501e-24
1e+07	0.03515505	0.003301106	-0.0008181251	-6.079434e-05	0.001859783	0.007483861	-6.695607e-05	-0.0001022095
	-0.0008181251	-6.079434e-05	0.03373207	0.004145093	-0.0005567571	0.0002580015	0.002482066	0.007490858
	0.001859783	0.007483861	-0.0005567571	0.0002580015	0.03493361	0.003804067	-0.0006489029	-1.403119e-05
	-6.695607e-05	-0.0001022095	0.002482066	0.007490858	-0.0006489029	-1.403119e-05	0.03382741	0.003432872
2e+07	0.04109769	0.0003851478	-0.0007700885	-0.0001884216	0.004568213	0.01401803	-9.840523e-05	-0.0001390057
	-0.0007700883	-0.0001884215	0.0401748	0.002213705	-0.000656575	0.0002418948	0.005860661	0.01356718
	0.004568301	0.01401792	-0.0006565749	0.0002418948	0.04147976	0.001204597	-0.0006119045	-0.0002926359
	-9.840523e-05	-0.0001390057	0.005860669	0.01356717	-0.0006119045	-0.0002926359	0.03944953	0.001114388
3e+07	0.04453913	-0.005517022	-0.0007862321	-0.0002777068	0.008651841	0.01960619	-0.0001491927	-0.0001863921
	-0.0007862321	-0.0002777068	0.04403883	-0.00301597	-0.0007267864	0.0002778788	0.01079459	0.01852619
	0.008651816	0.01960616	-0.0007267864	0.0002778788	0.04538545	-0.004760431	-0.0006272943	-0.0004028898
	-0.0001491927	-0.0001863921	0.01079458	0.01852623	-0.0006272944	-0.0004028898	0.04271088	-0.004017157
4e+07	0.04606096	-0.01238054	-0.0008325261	-0.0003162191	0.01376195	0.02403636	-0.0002172121	-0.0002207806
	-0.0008325261	-0.0003162191	0.04561174	-0.009380114	-0.0007817908	0.0003251776	0.01694199	0.02183074
	0.01376195	0.02403636	-0.0007817908	0.0003251776	0.04724745	-0.01183946	-0.0006766745	-0.0004611371
	-0.0002172121	-0.0002207806	0.016942	0.02183076	-0.0006766745	-0.0004611371	0.04383976	-0.01011393
5e+07	0.04580235	-0.01959058	-0.0008959549	-0.0003188883	0.01959764	0.02709269	-0.0002942795	-0.0002378063
	-0.0008959549	-0.0003188883	0.04522993	-0.01595042	-0.0008270502	0.0003776608	0.02380197	0.02325675
	0.01959764	0.0270927	-0.0008270502	0.0003776608	0.04720777	-0.01935341	-0.0007451398	-0.0004820455
	-0.0002942795	-0.0002378063	0.02380198	0.02325676	-0.0007451398	-0.0004820455	0.04314723	-0.01631973
6e+07	0.04390316	-0.02660289	-0.0009664409	-0.0002910749	0.0257875	0.02866925	-0.0003769831	-0.0002369666
	-0.0009664409	-0.0002910749	0.04318406	-0.02217252	-0.0008678232	0.0004324151	0.03084679	0.02267833
	0.0257875	0.02866925	-0.0008678231	0.0004324151	0.04540591	-0.02671455	-0.0008213007	-0.0004715536
	-0.0003769831	-0.0002369666	0.0308468	0.02267831	-0.0008213006	-0.0004715536	0.04091438	-0.0221203
7e+07	0.04060308	-0.03299066	-0.001043078	-0.0002270196	0.03195175	0.02876024	-0.0004621054	-0.0002178801
	-0.001043078	-0.0002270196	0.03979579	-0.02763702	-0.0009094272	0.0004889788	0.03752916	0.02011258
	0.03195175	0.02876024	-0.0009094272	0.0004889787	0.04208366	-0.03346032	-0.0008960941	-0.0004344287
	-0.0004621054	-0.0002178801	0.03752916	0.02011257	-0.0008960941	-0.0004344288	0.03745694	-0.02713473
8e+07	0.03619934	-0.03844491	-0.001116022	-0.0001265161	0.03772617	0.02745602	-0.000545298	-0.00018053
	-0.001116022	-0.0001265161	0.03543632	-0.0320729	-0.0009558327	0.0005483175	0.04332523	0.01571842
	0.03772617	0.02745602	-0.0009558327	0.0005483175	0.03754419	-0.03925034	-0.0009939892	-0.0003200407
	-0.000545298	-0.00018053	0.04332524	0.01571842	-0.0009939892	-0.0003200407	0.03314267	-0.03111311
9e+07	0.03102784	-0.04275765	-0.001167701	-5.733291e-06	0.04278779	0.02493544	-0.0006237873	-0.0001259555
	-0.001167701	-5.733291e-06	0.03049273	-0.0353482	-0.001016245	0.0006134385	0.04777056	0.009784461
	0.04278779	0.02493544	-0.001016245	0.0006134385	0.03213109	-0.04384782	-0.001077823	-0.0001433014
	-0.0006237873	-0.0001259555	0.04777056	0.009784464	-0.001077823	-0.0001433013	0.02836082	-0.03393741
1e+08	0.02551791	-0.04581251	-0.001184463	0.000132243	0.04688074	0.02144662	-0.0006954924	-5.55679e-05
	-0.001184463	0.000132243	0.02534805	-0.03745754	-0.001117002	0.0006870428	0.05049059	0.002706601
	0.04688074	0.02144662	-0.001117002	0.0006870428	0.02625579	-0.0471094	-0.001104525	5.914959e-05
	-0.0006954924	-5.55679e-05	0.05049059	0.0027066	-0.001104525	5.914957e-05	0.02354472	-0.03558712
1.1e+08	0.01982551	-0.04796772	-0.001186522	0.0002888391	0.04978001	0.01728367	-0.0007591214	2.974867e-05
	-0.001186522	0.0002888391	0.02019765	-0.03854976	-0.001205073	0.0007090483	0.05120752	-0.005044897
	0.04978001	0.01728367	-0.001205073	0.0007090483	0.02019463	-0.04921239	-0.001089433	0.0002069664
	-0.0007591214	2.974867e-05	0.05120752	-0.005044898	-0.001089433	0.0002069664	0.01889199	-0.03658907
1.2e+08	0.01403163	-0.04882053	-0.001185192	0.000444469	0.05139997	0.01283558	-0.0008128839	0.0001308566
	-0.001185192	0.000444469	0.01533953	-0.03861937	-0.00126927	0.0007718207	0.04979589	-0.01287488
	0.05139997	0.01283558	-0.00126927	0.0007718207	0.01413207	-0.04996567	-0.001080309	0.000345144
	-0.0008128839	0.0001308566	0.04979589	-0.01287488	-0.001080309	0.000345144	0.01437916	-0.03664247
1.3e+08	0.008585593	-0.04842958	-0.00117012	0.0006027118	0.05175546	0.008450776	-0.0008546423	0.0002467318
	-0.00117012	0.0006027118	0.01100334	-0.03788742	-0.001325311	0.0008693745	0.04628748	-0.02024083
	0.05175546	0.008450777	-0.00132531	0.0008693745	0.008471534	-0.0494419	-0.001064675	0.0004807211
	-0.0008546423	0.0002467318	0.04628748	-0.02024083	-0.001064675	0.0004807211	0.01033934	-0.03593168
1.4e+08	0.003802754	-0.04695932	-0.001139	0.0007638027	0.05094399	0.004460943	-0.0008800324	0.0003761139
	-0.001139	0.0007638027	0.007310397	-0.03659162	-0.001368975	0.001001166	0.04084583	-0.02661406
	0.05094399	0.004460944	-0.001368975	0.001001166	0.003520383	-0.04781265	-0.001041083	0.000616228
	-0.0008800324	0.0003761139	0.04084583	-0.02661406	-0.001041083	0.000616228	0.00690685	-0.03469917
1.5e+08	-7.720809e-05	-0.04464179	-0.001090043	0.0009275752	0.04914337	0.001156966	-0.0008861071	0.0005171421
	-0.001090043	0.0009275752	0.004301284	-0.03497032	-0.001392627	0.001165718	0.03376163	-0.03151731
	0.04914337	0.001156966	-0.001392627	0.001165718	-0.0004836572	-0.04531712	-0.001008395	0.0007540328
	-0.0008861071	0.0005171421	0.03376163	-0.03151731	-0.001008395	0.0007540328	0.004117068	-0.03317867
1.6e+08	-0.002892917	-0.04175337	-0.001021168	0.001093384	0.04659818	-0.001229192	-0.0008699667	0.000667275
	-0.001021168	0.001093384	0.001944105	-0.03324373	-0.001387679	0.001359294	0.02543791	-0.03455616
	0.04659818	-0.001229192	-0.001387679	0.001359294	-0.003379972	-0.04223886	-0.0009645974	0.0008963114
	-0.0008699667	0.000667275	0.02543791	-0.03455616	-0.0009645974	0.0008963114	0.001932649	-0.03157973
1.7e+08	-0.004564112	-0.03859303	-0.0009298051	0.00125992	0.04360186	-0.002539881	-0.0008288341	0.0008233093
	-0.0009298051	0.00125992	0.0001451827	-0.03159654	-0.001346011	0.0015757	0.0163673	-0.03544482
	0.04360186	-0.00253988	-0.001346011	0.0015757	-0.005088716	-0.03888442	-0.000906368	0.001044555
	-0.0008288341	0.0008233093	0.0163673	-0.03544482	-0.000906368	0.001044555	0.0002583411	-0.03007362
1.8e+08	-0.005090282	-0.03546075	-0.0008131387	0.001424811	0.04047654	-0.002700386	-0.000760284	0.0009812324
	-0.0008131387	0.001424811	-0.00123588	-0.03016213	-0.001260831	0.001806629	0.007103599	-0.03402581
	0.04047654	-0.002700386	-0.001260831	0.001806629	-0.005611285	-0.03556142	-0.0008293192	0.001199011
	-0.0007602839	0.0009812324	0.007103598	-0.03402581	-0.0008293192	0.001199011	-0.001043856	-0.02878095
1.9e+08	-0.004546211	-0.0326385	-0.0006683631	0.001584438	0.03755076	-0.001722683	-0.0006624994	0.001136275
	-0.0006683631	0.001584438	-0.0023678	-0.02901245	-0.001127534	0.002042024	-0.001770951	-0.03028272
	0.03755076	-0.001722683	-0.001127534	0.002042024	-0.005024671	-0.03255928	-0.0007282242	0.001358068
	-0.0006624994	0.001136275	-0.001770951	-0.03028272	-0.0007282242	0.001358068	-0.00213694	-0.02776266
2e+08	-0.003071392	-0.03037268	-0.0004934763	0.001733613	0.03513663	0.0002956347	-0.0005345549	0.001282912
	-0.0004934763	0.001733613	-0.00342594	-0.02815252	-0.0009367354	0.002275255	-0.009681005	-0.02434386
	0.03513663	0.0002956348	-0.0009367354	0.002275255	-0.003472744	-0.0301308	-0.0005977413	0.001517866
	-0.0005345549	0.001282912	-0.009681005	-0.02434386	-0.0005977413	0.001517866	-0.003188867	-0.02701612
2.1e+08	-0.0008590265	-0.02885989	-0.0002870725	0.001866304	0.03350984	0.003179211	-0.0003766408	0.001415162
	-0.0002870725	0.001866304	-0.004569942	-0.02752297	-0.0006958523	0.002488518	-0.01609347	-0.01647768
	0.03350984	0.003179211	-0.0006958523	0.002488518	-0.001152716	-0.028479	-0.0004334483	0.001672505
	-0.0003766407	0.001415162	-0.01609347	-0.01647768	-0.0004334483	0.001672505	-0.004350611	-0.02647608
2.2e+08	0.001861819	-0.02823706	-4.955614e-05	0.001975254	0.03288994	0.006686996	-0.0001902585	0.001526797
	-4.955614e-05	0.001975254	-0.005923947	-0.02700789	-0.0004085813	0.002671176	-0.02055124	-0.007079593
	0.03288994	0.006686996	-0.0004085813	0.002671176	0.001699734	-0.02774562	-0.0002323571	0.001813925
	-0.0001902585	0.001526797	-0.02055124	-0.007079593	-0.0002323571	0.001813925	-0.005737127	-0.02602427
2.3e+08	0.004841898	-0.02857576	0.000216612	0.002052749	0.03342609	0.01052867	2.163509e-05	0.001611718
	0.000216612	0.002052749	-0.007558953	-0.02645027	-8.094772e-05	0.002813839	-0.02270333	0.003349605
	0.03342609	0.01052867	-8.094772e-05	0.002813839	0.004828859	-0.02800595	6.145296e-06	0.00193255
	2.163509e-05	0.001611718	-0.02270333	0.003349605	6.145296e-06	0.00193255	-0.007411213	-0.02550339
2.4e+08	0.007830336	-0.02988105	0.0005069222	0.002091289	0.03518697	0.01438519	0.0002546602	0.001664325
	0.0005069222	0.002091289	-0.009481188	-0.02567147	0.0002794251	0.00290885	-0.02232809	0.01423189
	0.03518697	0.01438519	0.0002794251	0.00290885	0.007976411	-0.02926736	0.0002798263	0.00201803
	0.0002546602	0.001664325	-0.02232809	0.01423189	0.0002798263	0.00201803	-0.009370918	-0.02473609
2.5e+08	0.01059178	-0.03209557	0.0008145903	0.002084272	0.03815586	0.01793001	0.0005031854	0.001679869
	0.0008145903	0.002084272	-0.01162682	-0.02449363	0.0006638041	0.002950399	-0.01934964	0.02494606
	0.03815586	0.01793001	0.0006638041	0.002950399	0.01089944	-0.03147315	0.0005832749	0.002060294
	0.0005031854	0.001679869	-0.01934964	0.02494606	0.0005832749	0.002060294	-0.011546	-0.02354808
2.6e+08	0.0129206	-0.03510715	0.001131021	0.00202663	0.04223204	0.02085163	0.000760424	0.00165487
	0.001131021	0.00202663	-0.01386468	-0.02276345	0.001062865	0.002934621	-0.01384536	0.03486456
	0.04223204	0.02085163	0.001062865	0.002934621	0.01338465	-0.03451043	0.0009080425	0.002050501
	0.000760424	0.00165487	-0.01384536	0.03486456	0.0009080425	0.002050501	-0.01379942	-0.02179046
2.7e+08	0.01465382	-0.03876064	0.00144625	0.00191542	0.04723794	0.02287525	0.00101894	0.001587238
	0.00144625	0.00191542	-0.01600562	-0.02037389	0.001467043	0.002859449	-0.006042942	0.0433909
	0.04723794	0.02287525	0.001467043	0.002859449	0.0152619	-0.03822127	0.001243068	0.001982048
	0.00101894	0.001587238	-0.006042942	0.0433909	0.001243068	0.001982048	-0.01593802	-0.01936199
2.8e+08	0.01567863	-0.04287145	0.001749601	0.001750179	0.05293141	0.02378048	0.001270826	0.001476568
	0.001749601	0.001750179	-0.01781843	-0.017283	0.001867039	0.002724293	0.003690578	0.04999598
	0.05293141	0.02378048	0.001867039	0.002724293	0.01641194	-0.04241673	0.001575406	0.001851388
	0.001270826	0.001476568	0.003690578	0.04999598	0.001575406	0.001851388	-0.01772848	-0.01622728
2.9e+08	0.01593618	-0.0472399	0.00203039	0.001533049	0.05902223	0.02341673	0.001508283	0.001324113
	0.00203039	0.001533049	-0.01905216	-0.01352626	0.002253808	0.002529927	0.01486895	0.05424987
	0.05902223	0.02341673	0.002253808	0.002529927	0.01677076	-0.0468921	0.001891304	0.001658437
	0.001508283	0.001324113	0.01486895	0.05424987	0.001891304	0.001658437	-0.01891876	-0.01242839
3e+08	0.01542239	-0.05166699	0.002278749	0.00126863	0.06519218	0.02171179	0.00172398	0.001132708
	0.002278749	0.00126863	-0.01946046	-0.009222423	0.002618629	0.0022783	0.02691407	0.05584721
	0.06519218	0.02171179	0.002618629	0.0022783	0.01633036	-0.05144163	0.00217721	0.001406781
	0.00172398	0.001132708	0.02691407	0.05584721	0.00217721	0.001406781	-0.01926373	-0.00809072
3.1e+08	0.01418336	-0.05596755	0.00248626	0.0009636643	0.0711167	0.01867709	0.00191141	0.0009065171
	0.00248626	0.0009636643	-0.01882775	-0.004571331	0.002953193	0.001972313	0.03918807	0.05462622
	0.0711167	0.01867709	0.002953193	0.001972313	0.01513442	-0.05587309	0.002420902	0.001103501
	0.00191141	0.0009065171	0.03918807	0.05462622	0.002420902	0.001103501	-0.0185501	-0.003420545
3.2e+08	0.01230831	-0.05998231	0.002646415	0.000626418	0.0764859	0.01440455	0.002065125	0.0006509202
	0.002646415	0.000626418	-0.01699325	0.0001554527	0.003249509	0.001616058	0.05102883	0.05057835
	0.0764859	0.01440455	0.003249509	0.001616058	0.01327175	-0.06001975	0.002612481	0.0007584107
	0.002065125	0.0006509202	0.05102883	0.05057835	0.002612481	0.0007584107	-0.01662231	0.001304918
3.3e+08	0.009920179	-0.06358688	0.002754912	0.0002660816	0.08102429	0.00906015	0.002181003	0.000371966
	0.002754912	0.0002660816	-0.01387301	0.004631475	0.003500082	0.001214497	0.06178613	0.04384934
	0.08102429	0.00906015	0.003500082	0.001214497	0.01086676	-0.06374979	0.002745035	0.000383321
	0.002181003	0.000371966	0.06178613	0.04384934	0.002745035	0.000383321	-0.01340183	0.005754909
3.4e+08	0.007164516	-0.06669803	0.002809697	-0.0001079072	0.08450912	0.00287213	0.002256294	7.611874e-05
	0.002809697	-0.0001079072	-0.009475703	0.008497352	0.003697915	0.0007739221	0.07085764	0.0347329
	0.08450912	0.00287213	0.003697915	0.0007739221	0.008067721	-0.06697317	0.00281502	-9.012048e-06
	0.002256294	7.611874e-05	0.07085764	0.0347329	0.00281502	-9.012048e-06	-0.00890465	0.009567789
3.5e+08	0.004197065	-0.06927651	0.002810752	-0.0004865029	0.08678257	-0.003885607	0.002289495	-0.0002300969
	0.002810752	-0.0004865029	-0.003912098	0.01138778	0.003836851	0.0003017276	0.07772067	0.02365533
	0.08678257	-0.003885607	0.003836851	0.0003017276	0.005035214	-0.0696451	0.002822229	-0.0004058891
	0.002289495	-0.0002300969	0.07772067	0.02365533	0.002822229	-0.0004058891	-0.003248852	0.01237709
3.6e+08	0.00117237	-0.07132737	0.002759807	-0.0008616021	0.08776117	-0.01091075	0.002280316	-0.0005404266
	0.002759807	-0.0008616021	0.002603031	0.01295969	0.00391172	-0.0001936792	0.08196106	0.01115452
	0.08776117	-0.01091075	0.00391172	-0.0001936791	0.00192951	-0.07176546	0.002769538	-0.0007957495
	0.002280316	-0.0005404266	0.08196106	0.01115452	0.002769538	-0.0007957495	0.003342404	0.01384135
3.7e+08	-0.001767763	-0.07289582	0.002659726	-0.001226382	0.08743972	-0.01789294	0.002229349	-0.0008491953
	0.002659726	-0.001226382	0.009756184	0.01292182	0.003918717	-0.000702801	0.08329588	-0.002147722
	0.08743972	-0.01789294	0.003918717	-0.000702801	-0.001100847	-0.07337697	0.002662178	-0.001169025
	0.002229349	-0.0008491953	0.08329588	-0.002147722	0.002662178	-0.001169025	0.01054812	0.01367281
3.8e+08	-0.004503727	-0.07406214	0.002514073	-0.001575301	0.08588992	-0.02453346	0.002137874	-0.001151194
	0.002514073	-0.001575301	0.01714908	0.01106114	0.003855693	-0.00121533	0.08158885	-0.01557684
	0.08588992	-0.02453346	0.003855693	-0.00121533	-0.003928745	-0.07455889	0.002506966	-0.001518438
	0.002137874	-0.001151194	0.08158885	-0.01557684	0.002506966	-0.001518438	0.01796329	0.01166363
3.9e+08	-0.006946477	-0.07493434	0.002326526	-0.001904146	0.08325506	-0.03056388	0.002007527	-0.001441924
	0.002326526	-0.001904146	0.02431792	0.007266507	0.003722352	-0.001720676	0.07686033	-0.02843966
	0.08325506	-0.03056388	0.003722352	-0.001720676	-0.006457862	-0.07541916	0.00231133	-0.001839413
	0.002007527	-0.001441924	0.07686033	-0.02843966	0.00231133	-0.001839413	0.02511882	0.007710908
4e+08	-0.009042258	-0.07563753	0.002100458	-0.002209709	0.07973916	-0.03576284	0.001840108	-0.00171736
	0.002100458	-0.002209709	0.03076142	0.001547784	0.00352027	-0.002208356	0.06928739	-0.04006058
	0.07973916	-0.03576284	0.00352027	-0.002208356	-0.008627067	-0.07608599	0.002082305	-0.002129877
	0.001840108	-0.00171736	0.06928739	-0.04006058	0.002082305	-0.002129877	0.03151033	0.001832545
4.1e+08	-0.01077553	-0.07630407	0.001838377	-0.002488347	0.0755933	-0.03996923	0.001637475	-0.001973895
	0.001838377	-0.002488347	0.03597231	-0.005953167	0.003234514	-0.002694536	0.05919747	-0.04981612
	0.0755933	-0.03996923	0.003234514	-0.002694536	-0.01041483	-0.0766957	0.001826632	-0.002388772
	0.001637475	-0.001973895	0.05919747	-0.04981612	0.001826632	-0.002388772	0.03662913	-0.005820103
4.2e+08	-0.01216934	-0.07706327	0.0015429	-0.002738064	0.07109879	-0.04309307	0.001401347	-0.002208037
	0.0015429	-0.002738064	0.03947077	-0.01495991	0.002872318	-0.003149786	0.04705396	-0.05716902
	0.07109879	-0.04309307	0.002872318	-0.003149786	-0.01183868	-0.07738352	0.001548502	-0.002618128
	0.001401347	-0.002208037	0.04705396	-0.05716902	0.001548502	-0.002618128	0.03999652	-0.01496018
4.3e+08	-0.01328157	-0.07803073	0.001215818	-0.002956699	0.06654808	-0.045119	0.00113325	-0.002416204
	0.001215818	-0.002956699	0.04084226	-0.02506702	0.002449306	-0.003551348	0.03343334	-0.06169698
	0.06654808	-0.045119	0.002449306	-0.003551348	-0.01295354	-0.07827228	0.001249695	-0.00282024
	0.00113325	-0.002416204	0.03343334	-0.06169698	0.001249695	-0.00282024	0.04120192	-0.02517245
4.4e+08	-0.01420019	-0.07929978	0.0008584843	-0.003140922	0.06222512	-0.04610807	0.0008350145	-0.002594499
	0.0008584843	-0.003140922	0.03977118	-0.03575586	0.001974671	-0.003892219	0.0189974	-0.06311654
	0.06222512	-0.04610807	0.001974671	-0.003892219	-0.01384536	-0.07946317	0.0009304399	-0.002996301
	0.0008350145	-0.002594499	0.0189974	-0.06311654	0.0009304399	-0.002996301	0.0399358	-0.03592892
4.5e+08	-0.01503539	-0.08093466	0.000472417	-0.003286557	0.05838676	-0.04619253	0.0005088008	-0.00273868
	0.000472417	-0.003286557	0.03607157	-0.04641834	0.001458031	-0.004167391	0.004459307	-0.06130025
	0.05838676	-0.04619253	0.001458031	-0.004167391	-0.01462505	-0.0810285	0.000589328	-0.00314622
	0.0005088008	-0.00273868	0.004459307	-0.06130025	0.000589328	-0.00314622	0.03602108	-0.04661409
4.6e+08	-0.01591045	-0.08296597	5.991983e-05	-0.003388478	0.0552444	-0.04556655	0.0001572865	-0.002844134
	5.991983e-05	-0.003388478	0.02971238	-0.05639157	0.0009090323	-0.004373635	-0.009453139	-0.05628479
	0.0552444	-0.04556655	0.0009090323	-0.004373635	-0.01541864	-0.08300665	0.0002240188	-0.003267824
	0.0001572865	-0.002844134	-0.009453139	-0.05628479	0.0002240188	-0.003267824	0.02943757	-0.05656015
4.7e+08	-0.0169517	-0.08538801	-0.0003756264	-0.003440887	0.05294964	-0.04447188	-0.0002158549	-0.002905978
	-0.0003756264	-0.003440887	0.02083433	-0.06499907	0.0003365646	-0.004509258	-0.02203614	-0.04827101
	0.05294964	-0.04447188	0.0003365646	-0.004509258	-0.01635716	-0.08539919	-0.0001673728	-0.003356616
	-0.0002158549	-0.002905978	-0.02203614	-0.04827101	-0.0001673728	-0.003356616	0.02033739	-0.06508707
4.8e+08	-0.0182786	-0.08816155	-0.0008291046	-0.003437689	0.05158413	-0.04318129	-0.0006059072	-0.002919286
	-0.0008291046	-0.003437689	0.009751605	-0.07159416	-0.000251536	-0.00457355	-0.03264608	-0.03761442
	0.05158413	-0.04318129	-0.000251536	-0.00457355	-0.01756665	-0.088172	-0.0005857199	-0.003405802
	-0.0006059072	-0.002919286	-0.03264608	-0.03761442	-0.0005857199	-0.003405802	0.009048616	-0.07154886
4.9e+08	-0.01999543	-0.09121576	-0.00129339	-0.003373077	0.05115331	-0.04197886	-0.001006797	-0.002879444
	-0.00129339	-0.003373077	-0.003052241	-0.07560674	-0.000848017	-0.00456616	-0.04073469	-0.02480756
