!$
! Info: Touchstone file created by Circ.  Input file=Intel_C2M_200G_9p5in_202208016_staggered.circ
!$
# Hz S RI R 50
0	0.02774712	4.801087e-24	9.295099e-05	1.393929e-22	0.0001353428	3.30227e-22	9.288666e-05	1.391685e-22
	9.295099e-05	1.393929e-22	0.02776	4.965595e-24	9.293469e-05	1.392991e-22	0.0001349648	3.277058e-22
	0.0001353994	3.303515e-22	9.293468e-05	1.393008e-22	0.02774206	4.570544e-24	9.290006e-05	1.390786e-22
	9.288665e-05	1.391702e-22	0.0001350214	3.278318e-22	9.290006e-05	1.390786e-22	0.02775798	4.697501e-24
1e+07	0.03469165	0.00381386	8.302713e-05	3.014086e-09	0.002075495	0.007332816	3.689119e-06	1.414405e-05
	8.302713e-05	3.014016e-09	0.03373207	0.004145093	9.018062e-05	2.840346e-05	0.002482066	0.007490858
	0.002075495	0.007332816	9.018062e-05	2.840346e-05	0.0349542	0.003431005	3.573718e-05	1.21658e-05
	3.689119e-06	1.414405e-05	0.002482066	0.007490858	3.573718e-05	1.21658e-05	0.03382741	0.003432872
2e+07	0.04055665	0.001371244	6.027138e-05	3.829747e-05	0.00541381	0.01345165	3.818221e-05	3.844783e-05
	6.027138e-05	3.829747e-05	0.0401748	0.002213705	8.017398e-05	-5.485189e-06	0.005860661	0.01356718
	0.005413818	0.01345163	8.017398e-05	-5.485189e-06	0.0403111	0.0007212439	2.259229e-05	2.088503e-05
	3.818221e-05	3.844783e-05	0.005860669	0.01356717	2.25923e-05	2.088503e-05	0.03944953	0.001114388
3e+07	0.0439814	-0.003930569	5.016833e-05	5.227307e-05	0.01032234	0.01843087	6.398638e-05	3.670316e-05
	5.016833e-05	5.227307e-05	0.04403883	-0.00301597	7.50031e-05	-1.290151e-05	0.01079459	0.01852619
	0.01032232	0.01843091	7.500309e-05	-1.290151e-05	0.04336325	-0.004518712	1.569254e-05	3.02698e-05
	6.398639e-05	3.670316e-05	0.01079458	0.01852623	1.569253e-05	3.02698e-05	0.04271088	-0.004017157
4e+07	0.04520194	-0.01022699	4.239864e-05	5.773036e-05	0.01646089	0.02176063	8.371235e-05	2.646408e-05
	4.239864e-05	5.773036e-05	0.04561174	-0.009380114	7.326116e-05	-1.261844e-05	0.01694199	0.02183074
	0.01646089	0.02176066	7.326116e-05	-1.261844e-05	0.04431531	-0.01064545	2.575445e-05	2.910101e-05
	8.371235e-05	2.646408e-05	0.016942	0.02183076	2.575445e-05	2.910101e-05	0.04383976	-0.01011393
5e+07	0.04454098	-0.01664638	5.207668e-05	5.012648e-05	0.0233301	0.02321542	9.771292e-05	1.104302e-05
	5.207668e-05	5.012649e-05	0.04522993	-0.01595042	7.281415e-05	-1.868689e-05	0.02380197	0.02325675
	0.0233301	0.02321542	7.281415e-05	-1.868689e-05	0.04347302	-0.01683656	3.655917e-05	2.170001e-05
	9.771292e-05	1.104302e-05	0.02380198	0.02325676	3.655917e-05	2.170001e-05	0.04314723	-0.01631973
6e+07	0.0422845	-0.0226609	6.665891e-05	3.298825e-05	0.03040324	0.02266545	0.000105865	-7.579693e-06
	6.665891e-05	3.298825e-05	0.04318406	-0.02217252	6.974631e-05	-2.576167e-05	0.03084679	0.02267833
	0.03040325	0.02266543	6.974631e-05	-2.576167e-05	0.04111543	-0.02259232	4.370659e-05	1.193467e-05
	0.000105865	-7.579693e-06	0.0308468	0.02267831	4.37066e-05	1.193467e-05	0.04091438	-0.0221203
7e+07	0.03875312	-0.0278776	7.468664e-05	1.360249e-05	0.03713317	0.02012315	0.0001085573	-2.772183e-05
	7.468664e-05	1.360249e-05	0.03979579	-0.02763702	6.437919e-05	-3.248554e-05	0.03752916	0.02011258
	0.03713316	0.02012314	6.437919e-05	-3.248554e-05	0.03755733	-0.02754016	4.729324e-05	1.007439e-06
	0.0001085573	-2.772183e-05	0.03752916	0.02011257	4.729324e-05	1.007439e-06	0.03745694	-0.02713473
8e+07	0.03431968	-0.03203692	7.648538e-05	-6.424917e-06	0.04299531	0.01574258	0.0001059251	-4.820576e-05
	7.648538e-05	-6.424917e-06	0.03543632	-0.0320729	5.707072e-05	-3.794563e-05	0.04332523	0.01571842
	0.04299531	0.01574258	5.707072e-05	-3.794563e-05	0.03316656	-0.03143537	4.746105e-05	-1.020714e-05
	0.0001059251	-4.820576e-05	0.04332524	0.01571842	4.746105e-05	-1.020714e-05	0.03314267	-0.03111311
9e+07	0.02937759	-0.03501409	7.225817e-05	-2.59309e-05	0.04752332	0.009807497	9.798201e-05	-6.819865e-05
	7.225817e-05	-2.59309e-05	0.03049273	-0.0353482	4.83802e-05	-4.140079e-05	0.04777056	0.009784461
	0.04752332	0.0098075	4.83802e-05	-4.140079e-05	0.02833383	-0.03416291	4.432906e-05	-2.105482e-05
	9.798201e-05	-6.819865e-05	0.04777056	0.009784464	4.432906e-05	-2.105482e-05	0.02836082	-0.03393741
1e+08	0.02434552	-0.03679043	6.017721e-05	-4.49838e-05	0.05034206	0.002709736	8.288984e-05	-8.797288e-05
	6.017721e-05	-4.49838e-05	0.02534805	-0.03745754	3.891618e-05	-4.183176e-05	0.05049059	0.002706601
	0.05034206	0.002709735	3.891618e-05	-4.183176e-05	0.02350287	-0.03569739	3.702202e-05	-3.139524e-05
	8.288984e-05	-8.797288e-05	0.05049059	0.0027066	3.702202e-05	-3.139524e-05	0.02354472	-0.03558712
1.1e+08	0.01945308	-0.03771872	4.290764e-05	-5.091337e-05	0.05116106	-0.005098402	6.159182e-05	-9.53419e-05
	4.290764e-05	-5.091337e-05	0.02019765	-0.03854976	3.217344e-05	-3.976742e-05	0.05120752	-0.005044897
	0.05116106	-0.005098403	3.217344e-05	-3.976742e-05	0.01888847	-0.03662947	2.687179e-05	-3.457456e-05
	6.159182e-05	-9.53419e-05	0.05120752	-0.005044898	2.687179e-05	-3.457456e-05	0.01889199	-0.03658907
1.2e+08	0.01480613	-0.03770553	3.031411e-05	-5.300281e-05	0.04984139	-0.01300454	4.74457e-05	-9.689443e-05
	3.031411e-05	-5.300281e-05	0.01533953	-0.03861937	2.660085e-05	-3.798011e-05	0.04979589	-0.01287488
	0.04984138	-0.01300454	2.660085e-05	-3.798011e-05	0.01440377	-0.03663568	1.912758e-05	-3.573057e-05
	4.74457e-05	-9.689443e-05	0.04979589	-0.01287488	1.912758e-05	-3.573057e-05	0.01437916	-0.03664247
1.3e+08	0.01066337	-0.03693474	1.941423e-05	-5.40551e-05	0.04641617	-0.02046447	4.14232e-05	-9.443308e-05
	1.941423e-05	-5.40551e-05	0.01100334	-0.03788742	2.173349e-05	-3.615391e-05	0.04628748	-0.02024083
	0.04641616	-0.02046447	2.173349e-05	-3.615391e-05	0.01039052	-0.0358879	1.210173e-05	-3.605516e-05
	4.14232e-05	-9.443308e-05	0.04628748	-0.02024083	1.210173e-05	-3.605516e-05	0.01033934	-0.03593168
1.4e+08	0.007149182	-0.03563434	9.579261e-06	-5.421909e-05	0.04104643	-0.0269483	3.471325e-05	-9.240371e-05
	9.579261e-06	-5.421909e-05	0.007310397	-0.03659162	1.7369e-05	-3.434632e-05	0.04084583	-0.02661406
	0.04104643	-0.0269483	1.7369e-05	-3.434632e-05	0.00698435	-0.03462565	5.806725e-06	-3.541921e-05
	3.471325e-05	-9.240371e-05	0.04084583	-0.02661406	5.806725e-06	-3.541921e-05	0.00690685	-0.03469917
1.5e+08	0.004303875	-0.03403706	4.938597e-07	-5.3033e-05	0.03401967	-0.031977	2.729871e-05	-9.046868e-05
	4.938596e-07	-5.3033e-05	0.004301284	-0.03497032	1.316922e-05	-3.263789e-05	0.03376163	-0.03151731
	0.03401967	-0.031977	1.316922e-05	-3.263789e-05	0.004221192	-0.03308124	2.30834e-06	-3.374357e-05
	2.729871e-05	-9.046868e-05	0.03376163	-0.03151731	2.30834e-06	-3.374357e-05	0.004117068	-0.03317867
1.6e+08	0.002094349	-0.03235878	-7.913876e-06	-5.069969e-05	0.02573561	-0.03515348	1.936875e-05	-8.822224e-05
	-7.913876e-06	-5.069969e-05	0.001944105	-0.03324373	9.085379e-06	-3.09045e-05	0.02543791	-0.03455616
	0.02573561	-0.03515348	9.085379e-06	-3.09045e-05	0.002063972	-0.03146354	-5.642645e-07	-3.186639e-05
	1.936875e-05	-8.822224e-05	0.02543791	-0.03455616	-5.642645e-07	-3.186639e-05	0.001932649	-0.03157973
1.7e+08	0.0004254529	-0.03078043	-1.400052e-05	-4.742202e-05	0.01668388	-0.03618836	1.092092e-05	-8.53683e-05
	-1.400052e-05	-4.742202e-05	0.0001451827	-0.03159654	4.566966e-06	-2.928431e-05	0.0163673	-0.03544482
	0.01668388	-0.03618836	4.566966e-06	-2.928431e-05	0.0004176632	-0.02994362	-3.640005e-06	-2.992585e-05
	1.092092e-05	-8.53683e-05	0.0163673	-0.03544482	-3.640005e-06	-2.992585e-05	0.0002583411	-0.03007362
1.8e+08	-0.000844609	-0.02943184	-1.846374e-05	-4.364216e-05	0.007415913	-0.03491965	2.1351e-06	-8.159479e-05
	-1.846374e-05	-4.364216e-05	-0.00123588	-0.03016213	-3.69999e-07	-2.727185e-05	0.007103599	-0.03402581
	0.007415913	-0.03491965	-3.69999e-07	-2.727185e-05	-0.0008556666	-0.02864224	-6.948407e-06	-2.776131e-05
	2.1351e-06	-8.159479e-05	0.007103598	-0.03402581	-6.948407e-06	-2.776131e-05	-0.001043856	-0.02878095
1.9e+08	-0.001885791	-0.02838155	-2.302046e-05	-3.926761e-05	-0.001487404	-0.0313256	-6.622077e-06	-7.672058e-05
	-2.302046e-05	-3.926761e-05	-0.0023678	-0.02901245	-5.27668e-06	-2.455578e-05	-0.001770951	-0.03028272
	-0.001487404	-0.0313256	-5.27668e-06	-2.455578e-05	-0.001919213	-0.02762096	-1.028416e-05	-2.515735e-05
	-6.622077e-06	-7.672058e-05	-0.001770951	-0.03028272	-1.028416e-05	-2.515735e-05	-0.00213694	-0.02776266
2e+08	-0.002874512	-0.02763117	-2.750239e-05	-3.416083e-05	-0.009450922	-0.02552865	-1.510154e-05	-7.062514e-05
	-2.750239e-05	-3.416083e-05	-0.00342594	-0.02815252	-1.002596e-05	-2.108035e-05	-0.009681005	-0.02434386
	-0.009450922	-0.02552865	-1.002596e-05	-2.108035e-05	-0.002941538	-0.02687788	-1.3541e-05	-2.205087e-05
	-1.510154e-05	-7.062514e-05	-0.009681005	-0.02434386	-1.3541e-05	-2.205087e-05	-0.003188867	-0.02701612
2.1e+08	-0.00397112	-0.02711787	-3.170578e-05	-2.821612e-05	-0.01594009	-0.0177911	-2.301971e-05	-6.324684e-05
	-3.170578e-05	-2.821612e-05	-0.004569942	-0.02752297	-1.44701e-05	-1.680997e-05	-0.01609347	-0.01647768
	-0.01594009	-0.0177911	-1.44701e-05	-1.680997e-05	-0.004074733	-0.02634862	-1.659907e-05	-1.840164e-05
	-2.301971e-05	-6.324684e-05	-0.01609347	-0.01647768	-1.659907e-05	-1.840164e-05	-0.004350611	-0.02647608
2.2e+08	-0.005300274	-0.02672225	-3.539072e-05	-2.13858e-05	-0.02049487	-0.008502447	-3.007019e-05	-5.459504e-05
	-3.539072e-05	-2.13858e-05	-0.005923947	-0.02700789	-1.844206e-05	-1.174498e-05	-0.02055124	-0.007079593
	-0.02049487	-0.008502447	-1.844206e-05	-1.174498e-05	-0.005435425	-0.02591552	-1.932722e-05	-1.419518e-05
	-3.007019e-05	-5.459505e-05	-0.02055124	-0.007079593	-1.932722e-05	-1.419518e-05	-0.005737127	-0.02602427
2.3e+08	-0.0069331	-0.02628374	-3.829718e-05	-1.368588e-05	-0.02275965	0.001841784	-3.594071e-05	-4.475446e-05
	-3.829718e-05	-1.368588e-05	-0.007558953	-0.02645027	-2.176647e-05	-5.920552e-06	-0.02270333	0.003349605
	-0.02275965	0.001841784	-2.176647e-05	-5.920552e-06	-0.007088635	-0.02542149	-2.15861e-05	-9.446342e-06
	-3.594071e-05	-4.475446e-05	-0.02270333	0.003349605	-2.15861e-05	-9.446342e-06	-0.007411213	-0.02550339
2.4e+08	-0.008875594	-0.02561986	-4.016027e-05	-5.202704e-06	-0.02250679	0.01266774	-4.032985e-05	-3.389119e-05
	-4.016027e-05	-5.202704e-06	-0.009481188	-0.02567147	-2.426571e-05	5.856922e-07	-0.02232809	0.01423189
	-0.02250679	0.01266774	-2.426571e-05	5.856922e-07	-0.009034996	-0.02468871	-2.323458e-05	-4.200835e-06
	-4.032985e-05	-3.389119e-05	-0.02232809	0.01423189	-2.323458e-05	-4.200835e-06	-0.009370918	-0.02473609
2.5e+08	-0.01106317	-0.02454889	-4.072854e-05	3.90569e-06	-0.0196532	0.0233568	-4.296797e-05	-2.224674e-05
	-4.072854e-05	3.90569e-06	-0.01162682	-0.02449363	-2.576998e-05	7.656068e-06	-0.01934964	0.02494606
	-0.0196532	0.0233568	-2.576998e-05	7.656068e-06	-0.01120702	-0.0235415	-2.413397e-05	1.461146e-06
	-4.296797e-05	-2.224674e-05	-0.01934964	0.02494606	-2.413397e-05	1.461146e-06	-0.011546	-0.02354808
2.6e+08	-0.0133632	-0.02291346	-3.978093e-05	1.341263e-05	-0.01426841	0.03328223	-4.363444e-05	-1.013149e-05
	-3.978093e-05	1.341263e-05	-0.01386468	-0.02276345	-2.612588e-05	1.513137e-05	-0.01384536	0.03486456
	-0.01426841	0.03328223	-2.612588e-05	1.513137e-05	-0.01347022	-0.02182854	-2.415582e-05	7.426053e-06
	-4.363444e-05	-1.013149e-05	-0.01384536	0.03486456	-2.415582e-05	7.426053e-06	-0.01379942	-0.02179046
2.7e+08	-0.01558436	-0.02060263	-3.714348e-05	2.303141e-05	-0.006571963	0.04184623	-4.217314e-05	2.088615e-06
	-3.714348e-05	2.303141e-05	-0.01600562	-0.02037389	-2.520451e-05	2.281417e-05	-0.006042942	0.0433909
	-0.006571963	0.04184623	-2.520451e-05	2.281417e-05	-0.01563343	-0.0194453	-2.318839e-05	1.354715e-05
	-4.217314e-05	2.088615e-06	-0.006042942	0.0433909	-2.318839e-05	1.354715e-05	-0.01593802	-0.01936199
2.8e+08	-0.01749233	-0.01757072	-3.270328e-05	3.242337e-05	0.003076786	0.0485164	-3.850429e-05	1.400472e-05
	-3.270328e-05	3.242337e-05	-0.01781843	-0.017283	-2.290992e-05	3.047195e-05	0.003690578	0.04999598
	0.003076786	0.0485164	-2.290992e-05	3.047195e-05	-0.01746446	-0.01635219	-2.114549e-05	1.964382e-05
	-3.850429e-05	1.400472e-05	0.003690578	0.04999598	-2.114549e-05	1.964382e-05	-0.01772848	-0.01622728
2.9e+08	-0.01883219	-0.01384991	-2.641896e-05	4.121384e-05	0.01419846	0.0528575	-3.263338e-05	2.518276e-05
	-2.641896e-05	4.121384e-05	-0.01905216	-0.01352626	-1.918878e-05	3.783959e-05	0.01486895	0.05424987
	0.01419846	0.0528575	-1.918878e-05	3.783959e-05	-0.01871118	-0.01258655	-1.797414e-05	2.550768e-05
	-3.263338e-05	2.518276e-05	0.01486895	0.05424987	-1.797414e-05	2.550768e-05	-0.01891876	-0.01242839
3e+08	-0.01935281	-0.0095565	-1.832753e-05	4.90075e-05	0.02622046	0.05455726	-2.465445e-05	3.518119e-05
	-1.832753e-05	4.90075e-05	-0.01946046	-0.009222423	-1.403946e-05	4.46279e-05	0.02691407	0.05584721
	0.02622046	0.05455726	-1.403946e-05	4.46279e-05	-0.019127	-0.008268835	-1.366295e-05	3.090734e-05
	-2.465445e-05	3.518119e-05	0.02691407	0.05584721	-1.366295e-05	3.090734e-05	-0.01926373	-0.00809072
3.1e+08	-0.01883308	-0.004888761	-8.554504e-06	5.53995e-05	0.03850861	0.05344568	-1.475334e-05	4.356777e-05
	-8.554504e-06	5.53995e-05	-0.01882775	-0.004571331	-7.516393e-06	5.053378e-05	0.03918807	0.05462622
	0.03850862	0.05344568	-7.516393e-06	5.053378e-05	-0.01849569	-0.003600663	-8.250318e-06	3.559613e-05
	-1.475334e-05	4.356777e-05	0.03918807	0.05462622	-8.250317e-06	3.559613e-05	-0.0185501	-0.003420545
3.2e+08	-0.01710635	-0.0001179103	2.689629e-06	5.999697e-05	0.05040256	0.04950517	-3.206983e-06	4.993642e-05
	2.689629e-06	5.999697e-05	-0.01699325	0.0001554527	2.567529e-07	5.524874e-05	0.05102883	0.05057835
	0.05040256	0.04950517	2.567529e-07	5.524874e-05	-0.01665735	0.00114478	-1.827399e-06	3.932356e-05
	-3.206983e-06	4.993642e-05	0.05102883	0.05057835	-1.827399e-06	3.932356e-05	-0.01662231	0.001304918
3.3e+08	-0.01408252	0.004428718	1.510201e-05	6.243265e-05	0.06125166	0.04287214	9.62143e-06	5.392554e-05
	1.510201e-05	6.243265e-05	-0.01387301	0.004631475	9.089747e-06	5.847601e-05	0.06178613	0.04384934
	0.06125166	0.04287214	9.089747e-06	5.847601e-05	-0.01352785	0.005639729	5.454152e-06	4.184585e-05
	9.62143e-06	5.392554e-05	0.06178613	0.04384934	5.454152e-06	4.184585e-05	-0.01340183	0.005754909
3.4e+08	-0.009764266	0.008389447	2.829159e-05	6.238445e-05	0.07045099	0.03383101	2.328333e-05	5.523502e-05
	2.829159e-05	6.238445e-05	-0.009475703	0.008497352	1.871919e-05	5.994379e-05	0.07085764	0.0347329
	0.07045099	0.03383101	1.871919e-05	5.994379e-05	-0.009116613	0.009524142	1.338538e-05	4.294014e-05
	2.328333e-05	5.523502e-05	0.07085764	0.0347329	1.338538e-05	4.294014e-05	-0.00890465	0.009567789
3.5e+08	-0.004256755	0.01139542	4.177872e-05	5.959758e-05	0.07747312	0.02279954	3.726138e-05	5.364371e-05
	4.177872e-05	5.959758e-05	-0.003912098	0.01138778	2.88105e-05	5.942487e-05	0.07772067	0.02365533
	0.07747312	0.02279954	2.88105e-05	5.942487e-05	-0.003534461	0.01243144	2.169916e-05	4.241835e-05
	3.726138e-05	5.364371e-05	0.07772067	0.02365533	2.169916e-05	4.241835e-05	-0.003248852	0.01237709
3.6e+08	0.002230196	0.01309877	5.501031e-05	5.390141e-05	0.08189722	0.01030813	5.097146e-05	4.902838e-05
	5.501031e-05	5.390141e-05	0.002603031	0.01295969	3.897011e-05	5.675123e-05	0.08196106	0.01115452
	0.08189722	0.01030813	3.897011e-05	5.675123e-05	0.003002871	0.01401826	3.007539e-05	4.014173e-05
	5.097146e-05	4.902838e-05	0.08196106	0.01115452	3.007539e-05	4.014173e-05	0.003342404	0.01384135
3.7e+08	0.009387156	0.01320229	6.736401e-05	4.524126e-05	0.08343193	-0.003027493	6.378442e-05	4.138171e-05
	6.736401e-05	4.524126e-05	0.009756184	0.01292182	4.874634e-05	5.183555e-05	0.08329588	-0.002147722
	0.08343193	-0.003027493	4.874634e-05	5.183555e-05	0.01018172	0.01399288	3.815372e-05	3.603191e-05
	6.378442e-05	4.138171e-05	0.08329588	-0.002147722	3.815372e-05	3.603191e-05	0.01054812	0.01367281
3.8e+08	0.01681879	0.01148602	7.817662e-05	3.36891e-05	0.08193117	-0.01653679	7.504749e-05	3.082826e-05
	7.817662e-05	3.36891e-05	0.01714908	0.01106114	5.76541e-05	4.4681e-05	0.08158885	-0.01557684
	0.08193117	-0.01653679	5.76541e-05	4.4681e-05	0.01760367	0.01214152	4.55382e-05	3.008811e-05
	7.504749e-05	3.082826e-05	0.08158885	-0.01557684	4.55382e-05	3.008811e-05	0.01796329	0.01166363
3.9e+08	0.02406292	0.007831054	8.676692e-05	1.947264e-05	0.07740445	-0.0295285	8.411237e-05	1.763272e-05
	8.676692e-05	1.947264e-05	0.02431792	0.007266507	6.518818e-05	3.539636e-05	0.07686033	-0.02843966
	0.07740445	-0.0295285	6.518818e-05	3.539636e-05	0.02480504	0.008353338	5.181893e-05	2.238958e-05
	8.411237e-05	1.763272e-05	0.07686033	-0.02843966	5.181893e-05	2.238958e-05	0.02511882	0.007710908
4e+08	0.03061831	0.002238773	9.247251e-05	2.986539e-06	0.07001747	-0.04132641	9.036401e-05	2.217395e-06
	9.247251e-05	2.986539e-06	0.03076142	0.001547784	7.084575e-05	2.420625e-05	0.06928739	-0.04006058
	0.07001747	-0.04132641	7.084575e-05	2.420625e-05	0.0312851	0.002636528	5.658389e-05	1.311315e-05
	9.036401e-05	2.217395e-06	0.06928739	-0.04006058	5.658389e-05	1.311315e-05	0.03151033	0.001832545
4.1e+08	0.03597597	-0.005157917	9.469329e-05	-1.520805e-05	0.06008637	-0.05130378	9.326107e-05	-1.485256e-05
	9.469329e-05	-1.520805e-05	0.03597231	-0.005953167	7.415832e-05	1.145174e-05	0.05919747	-0.04981612
	0.06008637	-0.05130378	7.415832e-05	1.145174e-05	0.03653649	-0.004868754	5.944348e-05	2.526232e-06
	9.326107e-05	-1.485256e-05	0.05919747	-0.04981612	5.944348e-05	2.526232e-06	0.03662913	-0.005820103
4.2e+08	0.03965211	-0.01409143	9.293648e-05	-3.438191e-05	0.04806383	-0.05891739	9.237469e-05	-3.286513e-05
	9.293648e-05	-3.438191e-05	0.03947077	-0.01495991	7.470863e-05	-2.410578e-06	0.04705396	-0.05716902
	0.04806383	-0.05891739	7.470863e-05	-2.410578e-06	0.04007892	-0.0138878	6.004896e-05	-9.00314e-06
	9.237469e-05	-3.286513e-05	0.04705396	-0.05716902	6.004896e-05	-9.00314e-06	0.03999652	-0.01496018
4.3e+08	0.04122606	-0.024165	8.686542e-05	-5.366268e-05	0.03451701	-0.0637364	8.742577e-05	-5.099236e-05
	8.686542e-05	-5.366268e-05	0.04084226	-0.02506702	7.215996e-05	-1.680863e-05	0.03343334	-0.06169698
	0.03451701	-0.0637364	7.215996e-05	-1.680863e-05	0.04149689	-0.02401767	5.811949e-05	-2.101555e-05
	8.742577e-05	-5.099236e-05	0.03343334	-0.06169698	5.811949e-05	-2.101555e-05	0.04120192	-0.02517245
4.4e+08	0.04037357	-0.03486756	7.634427e-05	-7.206855e-05	0.02010038	-0.06546654	7.831976e-05	-6.832428e-05
	7.634427e-05	-7.206855e-05	0.03977118	-0.03575586	6.629739e-05	-3.107516e-05	0.0189974	-0.06311654
	0.02010038	-0.06546654	6.629739e-05	-3.107516e-05	0.04047235	-0.03474195	5.346483e-05	-3.296814e-05
	7.831976e-05	-6.832428e-05	0.0189974	-0.06311654	5.346483e-05	-3.296814e-05	0.0399358	-0.03592892
4.5e+08	0.03689763	-0.04559688	6.146682e-05	-8.855798e-05	0.005522294	-0.06396775	6.517738e-05	-8.390343e-05
	6.146682e-05	-8.855798e-05	0.03607157	-0.04641834	5.705061e-05	-4.446797e-05	0.004459307	-0.06130025
	0.005522294	-0.06396775	5.705061e-05	-4.446797e-05	0.03681611	-0.04545495	4.60076e-05	-4.425588e-05
	6.517738e-05	-8.390343e-05	0.004459307	-0.06130025	4.60076e-05	-4.425588e-05	0.03602108	-0.04661409
4.6e+08	0.03075412	-0.05569337	4.258416e-05	-0.0001020868	-0.008491248	-0.05926297	4.834693e-05	-9.678566e-05
	4.258416e-05	-0.0001020868	0.02971238	-0.05639157	4.451179e-05	-5.620339e-05	-0.009453139	-0.05628479
	-0.008491248	-0.05926297	4.451179e-05	-5.620339e-05	0.03049262	-0.0554957	3.581066e-05	-5.422864e-05
	4.834693e-05	-9.678566e-05	-0.009453139	-0.05628479	3.581066e-05	-5.422864e-05	0.02943757	-0.05656015
4.7e+08	0.02206906	-0.06448044	2.030683e-05	-0.000111678	-0.02123491	-0.05153889	2.840262e-05	-0.0001061007
	2.030683e-05	-0.000111678	0.02083433	-0.06499907	2.896498e-05	-6.548666e-05	-0.02203614	-0.04827101
	-0.02123491	-0.05153889	2.896498e-05	-6.548666e-05	0.02163616	-0.06418679	2.309074e-05	-6.222496e-05
	2.840262e-05	-0.0001061007	-0.02203614	-0.04827101	2.309074e-05	-6.222496e-05	0.02033739	-0.06508707
4.8e+08	0.01114149	-0.07130741	-4.504209e-06	-0.0001164876	-0.03206025	-0.04113729	6.139087e-06	-0.0001111023
	-4.504209e-06	-0.0001164876	0.009751605	-0.07159416	1.088755e-05	-7.156779e-05	-0.03264608	-0.03761442
