# GHz S RI R 45
0.000     0.071442158296    0.043882141612    -0.000034376169    -0.000035075083    0.024461145640    0.043512213464    -0.000042648114    -0.000034038669
            -0.000034375967    -0.000035075122    0.071176625219    0.039022599370    -0.000031653694    -0.000031329091    0.024818425045    0.044059560389
            0.024461145247    0.043512205655    -0.000031651907    -0.000031329685    0.071490136723    0.043253335697    -0.000035588212    -0.000036206294
            -0.000042647985    -0.000034038700    0.024818425045    0.044059560389    -0.000035588229    -0.000036206287    0.071189462276    0.038430825979
0.025     0.150618816351    0.029192927452    -0.000094512478    -0.000011652514    0.102241115224    0.046410620991    -0.000098824503    -0.000004907568
            -0.000094512164    -0.000011654284    0.137129341358    0.035664822580    -0.000088265822    -0.000012962899    0.098042300649    0.058515744282
            0.102246587105    0.046412017974    -0.000088265878    -0.000012961412    0.149637861153    0.028596119535    -0.000100441881    -0.000016622318
            -0.000098824281    -0.000004907436    0.098046127474    0.058520005631    -0.000100441674    -0.000016621365    0.136383745895    0.035029730670
0.050     0.151810168987    -0.101336600620    -0.000119874880    0.000071756537    0.126220743322    -0.076906152247    -0.000120068842    0.000081267078
            -0.000119874880    0.000071756537    0.155001287520    -0.062932408890    -0.000115826751    0.000071324770    0.143553382191    -0.047990208513
            0.126220961049    -0.076907716781    -0.000115826725    0.000071324755    0.150552138462    -0.100570670066    -0.000134608605    0.000084058280
            -0.000120068848    0.000081267052    0.143553401971    -0.047990307046    -0.000134607213    0.000084060546    0.153556189274    -0.062662825317
0.075     0.027902481625    -0.103511017697    -0.000061641320    0.000271720473    0.002668563100    -0.091052929507    -0.000051015167    0.000280029839
            -0.000061641322    0.000271720483    0.061732314219    -0.085583017246    -0.000049851455    0.000254698250    0.036400954849    -0.087276571420
            0.002668127813    -0.091052947265    -0.000049851507    0.000254698280    0.028012437746    -0.102334344716    -0.000051135009    0.000288852946
            -0.000051015257    0.000280030331    0.036400942696    -0.087276585157    -0.000051135008    0.000288852937    0.061022165498    -0.084316848735
0.100     0.052250002517    -0.019680670616    0.000351538438    0.000221032461    0.017344212516    0.003439924170    0.000366792694    0.000214915677
            0.000351538442    0.000221032455    0.051436274762    -0.009991263947    0.000326133713    0.000203324108    0.017463815494    0.007139991517
            0.017344120596    0.003439976414    0.000326133730    0.000203324118    0.052689642614    -0.019546399253    0.000363892347    0.000228462098
            0.000366792706    0.000214915675    0.017463783470    0.007139995856    0.000363892343    0.000228462104    0.051832895773    -0.009137627409
0.125     0.101389198491    -0.095638293096    0.000339899949    -0.000221619016    0.081002520280    -0.059139734802    0.000342581937    -0.000241460794
            0.000339899953    -0.000221618993    0.118333030258    -0.025605483889    0.000324734172    -0.000209032174    0.103843725904    -0.005598097929
            0.081002481909    -0.059139804318    0.000324734169    -0.000209032180    0.101198844653    -0.095374201220    0.000372547920    -0.000230627708
            0.000342581941    -0.000241460806    0.103843730682    -0.005598009302    0.000372547920    -0.000230627708    0.118426650303    -0.025671252703
0.150     -0.000409612949    -0.143422165075    0.000093886746    -0.000392845483    -0.009909770477    -0.115749828458    0.000073944274    -0.000404478225
            0.000093886739    -0.000392845485    0.098200152878    -0.099116080720    0.000075956168    -0.000381989150    0.078475821936    -0.094520616747
            -0.009909775371    -0.115749838076    0.000075956175    -0.000381989149    0.000038840914    -0.142609444711    0.000088186202    -0.000439291308
            0.000073944388    -0.000404479170    0.078475802140    -0.094520633183    0.000088186202    -0.000439291308    0.097400623774    -0.098699585768
0.175     -0.045950655422    -0.058664316924    -0.000340261391    -0.000470025733    -0.060157862031    -0.028624855429    -0.000357839105    -0.000458309380
            -0.000340261391    -0.000470025733    0.024517945142    -0.092343481581    -0.000332693012    -0.000422329180    -0.008167750965    -0.071687708277
            -0.060157813033    -0.028624935128    -0.000332693012    -0.000422329180    -0.044697352435    -0.058627458623    -0.000378224683    -0.000474268708
            -0.000357839105    -0.000458309380    -0.008167751078    -0.071687709270    -0.000378224683    -0.000474268708    0.024453228867    -0.090667766490
0.200     0.007666185763    -0.049025424948    -0.000719084691    0.000148070083    0.003312114180    -0.008993610810    -0.000723292319    0.000170634801
            -0.000719084681    0.000148070081    0.025311009705    -0.032691299252    -0.000663165376    0.000148419635    0.011427025971    -0.002225905333
            0.003312023128    -0.008993613331    -0.000663165350    0.000148419751    0.008524709473    -0.049829962097    -0.000742766948    0.000161125675
            -0.000723292319    0.000170634801    0.011427002955    -0.002225877044    -0.000742766948    0.000161125675    0.027009959989    -0.031764376495
0.225     -0.032463190342    -0.096301374139    -0.000182326641    0.000688954801    -0.022897586232    -0.062725200627    -0.000155911236    0.000707907758
            -0.000182326641    0.000688954801    0.076848106960    -0.048873110364    -0.000163316092    0.000655067444    0.065001316441    -0.034991635050
            -0.022897585890    -0.062725199688    -0.000163316092    0.000655067444    -0.032002499705    -0.097041750166    -0.000196151043    0.000733825637
            -0.000155911236    0.000707907758    0.065001316441    -0.034991635050    -0.000196151043    0.000733825637    0.077904326417    -0.049738849507
0.250     -0.094566224223    -0.043410726857    0.000383668672    0.000561331196    -0.083846331413    -0.017152183821    0.000408671803    0.000538704882
            0.000383668672    0.000561331196    0.046676951493    -0.115016873013    0.000391578562    0.000517177759    0.019265010537    -0.090847450313
            -0.083846331413    -0.017152183821    0.000391578562    0.000517177759    -0.093892734406    -0.044205207323    0.000437196386    0.000592830050
            0.000408671803    0.000538704882    0.019265010537    -0.090847450313    0.000437196386    0.000592830050    0.046179593249    -0.115037400973
0.275     -0.064776412541    0.013623482029    0.000842861170    0.000098761589    -0.047909681848    0.039729371674    0.000837162808    0.000076205265
            0.000842861170    0.000098761589    -0.036128862485    -0.086292498854    0.000779615487    0.000050115080    -0.044586991713    -0.043225519859
            -0.047909681848    0.039729371674    0.000779615487    0.000050115080    -0.064148471680    0.012172866609    0.000877424474    0.000060107054
            0.000837162808    0.000076205265    -0.044586991713    -0.043225519859    0.000877424474    0.000060107054    -0.035190670670    -0.084862682191
0.300     -0.043619618447    0.000999708806    0.000591062417    -0.000863043247    -0.020980680988    0.018916035653    0.000570683875    -0.000882926602
            0.000591062417    -0.000863043247    -0.009051650352    -0.004657771373    0.000521771874    -0.000805419031    -0.002803754687    0.017758001483
            -0.020980680988    0.018916035653    0.000521771874    -0.000805419031    -0.043691719156    -0.000855149705    0.000589530411    -0.000890850808
            0.000570683875    -0.000882926602    -0.002803754687    0.017758001483    0.000589530411    -0.000890850808    -0.006424189756    -0.005167548241
0.325     -0.071641037386    0.012605910144    -0.000512652109    -0.000901786180    -0.050078883584    0.025260822635    -0.000550624412    -0.000880828815
            -0.000512652109    -0.000901786180    0.058714490515    -0.052924174060    -0.000499807568    -0.000839164101    0.042636112536    -0.033750769414
            -0.050078883584    0.025260822635    -0.000499807568    -0.000839164101    -0.072362613870    0.011072157009    -0.000535939931    -0.000944922679
            -0.000550624412    -0.000880828815    0.042636113320    -0.033750770035    -0.000535939931    -0.000944922679    0.059496127924    -0.055127886806
0.350     -0.066751618225    0.061380549943    -0.000954699912    -0.000138671086    -0.040443424734    0.067886305565    -0.000939878880    -0.000101710840
            -0.000954699892    -0.000138671083    -0.021796094227    -0.117295894945    -0.000912379168    -0.000079846261    -0.029570483156    -0.069602888865
            -0.040443425246    0.067886306424    -0.000912379158    -0.000079846260    -0.067398956767    0.060260712143    -0.001021736558    -0.000113880463
            -0.000939878880    -0.000101710840    -0.029570483938    -0.069602890706    -0.001021736558    -0.000113880463    -0.022235894937    -0.117811333803
0.375     -0.027109640297    0.080778509954    -0.000858092488    0.000742367950    -0.002957884821    0.071241805306    -0.000836336051    0.000747221168
            -0.000858092488    0.000742367950    -0.087868448813    -0.018924209495    -0.000741038354    0.000719187786    -0.062309735756    0.017403204801
            -0.002957884821    0.071241805306    -0.000741038354    0.000719187786    -0.027790560112    0.079384475401    -0.000839435967    0.000792549732
            -0.000836336051    0.000747221168    -0.062309735756    0.017403204801    -0.000839435967    0.000792549732    -0.086446646825    -0.018901070456
0.400     -0.004953635186    0.068861895061    0.000289889447    0.001333625982    0.004217572048    0.058614547553    0.000322296403    0.001325966012
            0.000289889447    0.001333625982    0.013862208794    0.033340408698    0.000291188050    0.001212501510    0.025029426673    0.042068625156
            0.004217572048    0.058614547553    0.000291188050    0.001212501510    -0.006376650482    0.067532743519    0.000297185013    0.001342817743
            0.000322296403    0.001325966012    0.025029426673    0.042068625156    0.000297185013    0.001342817743    0.015578495426    0.031134865892
0.425     -0.007694426804    0.071804742407    0.001306527805    0.000326416509    0.006357542587    0.069186237841    0.001304083952    0.000278023630
            0.001306527805    0.000326416509    0.030495749082    -0.076751237841    0.001243134287    0.000279280127    0.024019177378    -0.045139147598
            0.006357542587    0.069186237841    0.001243134287    0.000279280127    -0.009275203941    0.071477184999    0.001357946822    0.000350488951
            0.001304083952    0.000278023630    0.024019177378    -0.045139147598    0.001357946828    0.000350488927    0.030239360104    -0.079438140974
0.450     0.011810053264    0.097385189989    0.000976203554    -0.000787385887    0.027595128378    0.076364022761    0.000936623797    -0.000789617075
            0.000976203554    -0.000787385887    -0.093959901949    -0.059708735605    0.000868293647    -0.000800762708    -0.067575934277    -0.015155370279
            0.027595128378    0.076364022761    0.000868293647    -0.000800762708    0.011044730324    0.097325787421    0.000996355208    -0.000856284098
            0.000936623797    -0.000789617075    -0.067575934277    -0.015155370279    0.000996355208    -0.000856284098    -0.094669592473    -0.061097723198
0.475     0.057914504673    0.089802082845    0.000010129411    -0.001435390559    0.045211036581    0.062018605844    -0.000003906693    -0.001421075430
            0.000010129411    -0.001435390559    -0.058057611738    0.064955029423    -0.000052902997    -0.001295912421    -0.017515990265    0.075539368967
            0.045211036581    0.062018605844    -0.000052902997    -0.001295912421    0.057132578598    0.089311046194    -0.000023212026    -0.001436543279
            -0.000003906693    -0.001421075430    -0.017515990265    0.075539368967    -0.000023212026    -0.001436543279    -0.057972703135    0.063634664996
0.500     0.064310353971    0.050239231504    -0.001449244925    -0.000805954385    0.045419432148    0.050405743088    -0.001459534571    -0.000775192408
            -0.001449244925    -0.000805954385    0.047432641497    0.011001424035    -0.001350717953    -0.000724033732    0.059704601501    0.012892464788
            0.045419432148    0.050405743088    -0.001350717953    -0.000724033732    0.063178678170    0.050264796823    -0.001450489050    -0.000836107474
            -0.001459534571    -0.000775192408    0.059704601501    0.012892464788    -0.001450489050    -0.000836107474    0.047414081936    0.008819800110
0.525     0.048636622536    0.055201707600    -0.001341382619    0.000880701817    0.052145941826    0.052044217067    -0.001302956907    0.000901745586
            -0.001341382619    0.000880701817    -0.035896757492    -0.068435253739    -0.001250001640    0.000886065923    -0.020698996294    -0.041178932948
            0.052145941826    0.052044217067    -0.001250001640    0.000886065923    0.048398038749    0.055776616653    -0.001408817112    0.000905442414
            -0.001302956907    0.000901745586    -0.020698996294    -0.041178932948    -0.001408817112    0.000905442414    -0.036828536348    -0.071065325316
0.550     0.084623642505    0.062797251451    -0.000116784556    0.001516454266    0.067632623304    0.039210928621    -0.000095476564    0.001489578987
            -0.000116784556    0.001516454266    -0.093331823732    0.037155867958    -0.000011630348    0.001415737029    -0.050874329671    0.054311280975
            0.067632623304    0.039210928621    -0.000011630348    0.001415737029    0.085057547807    0.062624152479    -0.000084012223    0.001562778154
            -0.000095476538    0.001489578989    -0.050874330354    0.054311281705    -0.000084012223    0.001562778154    -0.095534444616    0.035049928256
0.575     0.104445978267    0.012396632343    0.001292570643    0.001149036884    0.059418371293    0.019775093492    0.001287382817    0.001131623198
            0.001292570643    0.001149036884    0.012368631429    0.072945042232    0.001210128625    0.001007168772    0.049631580578    0.062893579772
            0.059418371293    0.019775093492    0.001210128625    0.001007168772    0.104489951257    0.011877504214    0.001288189571    0.001153062093
            0.001287382817    0.001131623198    0.049631580578    0.062893579772    0.001288189571    0.001153062093    0.010402602755    0.072404234599
0.600     0.062621273624    -0.006462532541    0.001792641663    -0.000657444120    0.051486367068    0.026846744732    0.001780714994    -0.000675286961
            0.001792641663    -0.000657444120    0.018162277547    -0.024381910287    0.001679092535    -0.000652527256    0.035735443284    -0.033345093090
            0.051486367068    0.026846744732    0.001679092535    -0.000652527256    0.063034538332    -0.006717623112    0.001851199239    -0.000623744178
            0.001780714994    -0.000675286961    0.035735443284    -0.033345093090    0.001851199239    -0.000623744178    0.017699352847    -0.025404878053
0.625     0.069787168163    0.015907239787    0.000308772090    -0.001773763250    0.072351765751    0.018096601728    0.000278617174    -0.001768314074
            0.000308772090    -0.001773763250    -0.071961901467    0.000677114550    0.000207692646    -0.001713671168    -0.049910454363    0.003073315821
            0.072351765751    0.018096601728    0.000207692646    -0.001713671168    0.070743568452    0.014921895732    0.000334961140    -0.001850836263
            0.000278617174    -0.001768314074    -0.049910454363    0.003073315821    0.000334961140    -0.001850836263    -0.073675148160    -0.002161852720
0.650     0.091157560348    -0.024454336861    -0.001170184575    -0.001329691426    0.057851704790    -0.017264342644    -0.001171675080    -0.001300024853
            -0.001170184575    -0.001329691426    -0.031363241482    0.078500186737    -0.001159025550    -0.001162767440    0.001387864331    0.072829780438
            0.057851704790    -0.017264342644    -0.001159025550    -0.001162767440    0.091650256046    -0.026115362883    -0.001204697543    -0.001344136197
            -0.001171675080    -0.001300024853    0.001387864331    0.072829780438    -0.001204697543    -0.001344136197    -0.035646129564    0.077541699823
0.675     0.042429252312    -0.042657452013    -0.002000153871    0.000226743432    0.024687951197    0.001019510061    -0.001983586639    0.000228275002
            -0.002000153871    0.000226743432    0.023836644384    0.032510575485    -0.001848798360    0.000258460326    0.055472441170    0.009661018669
            0.024687951197    0.001019510061    -0.001848798360    0.000258460326    0.048614881871    -0.060481916836    -0.002026749009    0.000186140395
            -0.001983586639    0.000228275002    0.055472441170    0.009661018669    -0.002026749009    0.000186140395    0.021771926462    0.034315603323
0.700     0.028250693440    -0.014636002013    -0.000789982534    0.001982294903    0.057334370226    0.020656353081    -0.000788593029    0.001991503733
            -0.000789982534    0.001982294903    -0.029158352202    0.002032317888    -0.000696411778    0.001922941701    -0.016828560330    -0.028284559107
            0.057334370226    0.020656353081    -0.000696411778    0.001922941701    0.028602135216    -0.016927782577    -0.000871044377    0.002029645024
            -0.000788593029    0.001991503733    -0.016828560330    -0.028284559107    -0.000871044377    0.002029645024    -0.028991520827    0.001288347577
0.725     0.052794359700    -0.037676045180    0.001189986863    0.001623818936    0.060439905928    -0.037530994926    0.001221248690    0.001618162255
            0.001189986863    0.001623818936    -0.044870354356    0.055744878540    0.001234349900    0.001487022958    -0.042568429268    0.039372494784
            0.060439905928    -0.037530994926    0.001234349900    0.001487022958    0.052210042376    -0.040329705357    0.001232389994    0.001699293807
            0.001221248602    0.001618162196    -0.042568423130    0.039372502893    0.001232389994    0.001699293807    -0.048039348098    0.053381536139
0.750     -0.002716270018    -0.065450944487    0.002023210439    0.000072477386    -0.014245968279    -0.031805864459    0.002009987618    0.000038754738
            0.002023210439    0.000072477386    -0.004705072148    0.064239386151    0.001895509481    -0.000044450478    0.012431358875    0.054067078161
            -0.014245968279    -0.031805864459    0.001895509481    -0.000044450481    -0.003600679985    -0.067551579125    0.002064769177    0.000074320176
            0.002009987618    0.000038754738    0.012431358875    0.054067078161    0.002064769177    0.000074320180    -0.009167050152    0.066101003759
0.775     -0.024407120601    -0.004088305707    0.001351674979    -0.001834136626    0.010360331932    0.036924607967    0.001347324474    -0.001829607285
            0.001351674979    -0.001834136626    -0.006212694782    0.040472270650    0.001214561574    -0.001772629686    0.005988504860    -0.000140328840
            0.010360331932    0.036924607967    0.001214561574    -0.001772629686    -0.024924207524    -0.006387955285    0.001416962150    -0.001852226021
