# GHz S RI R 45
0.000     0.071563056352    0.043810967977    0.890809567841    -0.300497119729    0.024384553918    0.043539492068    -0.013861887709    -0.005646221132
            0.890809567841    -0.300497119729    0.071176625219    0.039022599370    -0.013864581352    -0.005649874566    0.024818425045    0.044059560389
            0.024384553158    0.043539492493    -0.013864581352    -0.005649874566    0.071403257034    0.043277410994    0.890795582272    -0.300278870732
            -0.013861887709    -0.005646221132    0.024818425045    0.044059560389    0.890795582272    -0.300278870732    0.071189462276    0.038430825979
0.025     0.150312925580    0.029657400147    0.492021646919    -0.780600310219    0.102025175987    0.046824711877    -0.025414725417    0.007856698011
            0.492022995699    -0.780599460065    0.137129341358    0.035664822580    -0.025412670384    0.007849644144    0.098042300649    0.058515744282
            0.102024710209    0.046825343161    -0.025416103585    0.007850097221    0.149465530712    0.029183051214    0.492225387302    -0.780510820290
            -0.025415961173    0.007856438536    0.098046127474    0.058520005631    0.492225395590    -0.780510803241    0.136383745895    0.035029730670
0.050     0.152906441472    -0.100510087438    -0.364085242944    -0.832115650710    0.126942082359    -0.075971334148    -0.002767924892    0.028604224117
            -0.364084862136    -0.832114780374    0.155001287520    -0.062932408890    -0.002787688868    0.028615633568    0.143553382191    -0.047990208513
            0.126941481471    -0.075972455012    -0.002787706629    0.028614677340    0.151711831379    -0.099716506672    -0.363992103433    -0.832304639446
            -0.002768337657    0.028603214663    0.143553401971    -0.047990307046    -0.363992103433    -0.832304639446    0.153556189274    -0.062662825317
0.075     0.028933380872    -0.104592125961    -0.900051303416    -0.161995713497    0.003699171081    -0.091380851924    0.007732583036    0.020479607614
            -0.900051303416    -0.161995713497    0.061732314219    -0.085583017246    0.007749253805    0.020500191272    0.036400954849    -0.087276571420
            0.003698834648    -0.091380394157    0.007748841747    0.020500225157    0.029055512395    -0.103191135730    -0.900078790540    -0.162126679536
            0.007732161581    0.020479594647    0.036400942696    -0.087276585157    -0.900078800381    -0.162126681309    0.061022165498    -0.084316848735
0.100     0.051229544262    -0.019755837530    -0.623494981068    0.668370897657    0.016936552731    0.003794054820    0.032897596902    0.024911233478
            -0.623494981068    0.668370897657    0.051436274762    -0.009991263947    0.032901981853    0.024904686140    0.017463815494    0.007139991517
            0.016936495689    0.003794195085    0.032901742740    0.024904833030    0.052039165335    -0.019325288630    -0.623606616695    0.668158736531
            0.032897358990    0.024911380354    0.017463783470    0.007139995856    -0.623606616695    0.668158736531    0.051832895773    -0.009137627409
0.125     0.102608229877    -0.093954882308    0.212082251916    0.872619253455    0.082661444694    -0.057229101424    0.050636308137    -0.025849110474
            0.212082254277    0.872619263172    0.118333030258    -0.025605483889    0.050663155822    -0.025840128657    0.103843725904    -0.005598097929
            0.082661361022    -0.057229239846    0.050663244373    -0.025839924227    0.102852201403    -0.093793443203    0.211664472269    0.872652555481
            0.050636361466    -0.025848988412    0.103843730682    -0.005598009302    0.211664472269    0.872652555481    0.118426650303    -0.025671252703
0.150     0.002273127114    -0.144950347382    0.832686425524    0.311149115533    -0.006547842918    -0.116724248129    0.005070541651    -0.059156324772
            0.832686425524    0.311149115533    0.098200152878    -0.099116080720    0.005081720616    -0.059209273146    0.078475821936    -0.094520616747
            -0.006547869402    -0.116724246644    0.005081816208    -0.059209258919    0.002778790540    -0.144181514862    0.832548228842    0.311626748383
            0.005070541566    -0.059156323775    0.078475802140    -0.094520633183    0.832548228842    0.311626748383    0.097400623774    -0.098699585768
0.175     -0.047048416474    -0.060959776927    0.723737993220    -0.519618666893    -0.059977102476    -0.030756217009    -0.044013407813    -0.048151509769
            0.723737993220    -0.519618666893    0.024517945142    -0.092343481581    -0.044056710591    -0.048152689935    -0.008167750965    -0.071687708277
            -0.059977103366    -0.030756217466    -0.044056710591    -0.048152689935    -0.045413066897    -0.060614025435    0.724057199116    -0.519274440413
            -0.044013365793    -0.048151548178    -0.008167751078    -0.071687709270    0.724057199116    -0.519274440413    0.024453228867    -0.090667766490
0.200     0.007085913864    -0.047396546324    -0.037827104598    -0.888235207005    0.004009001238    -0.007789058245    -0.081645151649    0.006105139916
            -0.037827104598    -0.888235207005    0.025311009705    -0.032691299252    -0.081648577270    0.006103891420    0.011427025971    -0.002225905333
            0.004009001864    -0.007789101223    -0.081648578268    0.006103891494    0.008745848868    -0.048466261074    -0.037328926962    -0.888198762117
            -0.081645152646    0.006105139991    0.011427002955    -0.002225877044    -0.037328942464    -0.888198761466    0.027009959989    -0.031764376495
0.225     -0.029155430995    -0.096960513067    -0.752507324192    -0.451955230685    -0.018209457824    -0.064175967134    -0.043659853644    0.085833411203
            -0.752507324192    -0.451955230685    0.076848106960    -0.048873110364    -0.043706369576    0.085861177287    0.065001316441    -0.034991635050
            -0.018209457824    -0.064175967134    -0.043706369576    0.085861177287    -0.028575735330    -0.098408585253    -0.752052192863    -0.452473467621
            -0.043659853644    0.085833411203    0.065001316441    -0.034991635050    -0.752052192863    -0.452473467621    0.077904326417    -0.049738849507
0.250     -0.094668833365    -0.047841948737    -0.786319134126    0.367789358291    -0.082855566808    -0.023061656821    0.052812946075    0.088643340668
            -0.786319134126    0.367789358291    0.046676951493    -0.115016873013    0.052854409105    0.088699572140    0.019265010537    -0.090847450313
            -0.082855566808    -0.023061656821    0.052854409105    0.088699572140    -0.094209336233    -0.048653241177    -0.786651695691    0.367015623225
            0.052812946075    0.088643340668    0.019265010537    -0.090847450313    -0.786651695691    0.367015623225    0.046179593249    -0.115037400973
0.275     -0.067911993251    0.013331989104    -0.133178531458    0.855092287165    -0.050685458380    0.037778950676    0.109592903748    0.010225154889
            -0.133178531458    0.855092287165    -0.036128862485    -0.086292498854    0.109629204256    0.010214558168    -0.044586991713    -0.043225519859
            -0.050685458380    0.037778950676    0.109629204256    0.010214558168    -0.066751970855    0.011867620392    -0.134020378358    0.855048202031
            0.109592903748    0.010225154889    -0.044586991713    -0.043225519859    -0.134020378358    0.855048202031    -0.035190670670    -0.084862682191
0.300     -0.042086507353    0.002412660720    0.637177243759    0.581273940909    -0.019108490776    0.018611320390    0.081256446917    -0.092886910924
            0.637177243759    0.581273940909    -0.009051650352    -0.004657771373    0.081311806080    -0.092919607260    -0.002803754687    0.017758001483
            -0.019108490776    0.018611320390    0.081311806080    -0.092919607260    -0.041918243011    -0.000401418157    0.636665776236    0.581862311995
            0.081256446917    -0.092886910924    -0.002803754687    0.017758001483    0.636665776236    0.581862311995    -0.006424189756    -0.005167548241
0.325     -0.070207490962    0.008382685495    0.827222858471    -0.208027190887    -0.048873624967    0.018259421345    -0.038168086831    -0.131797828642
            0.827222858471    -0.208027190887    0.058714490515    -0.052924174060    -0.038212430250    -0.131894602275    0.042636112536    -0.033750769414
            -0.048873667874    0.018259417934    -0.038212430250    -0.131894602275    -0.071778744435    0.006367683745    0.827347546676    -0.207149233194
            -0.038168086831    -0.131797828642    0.042636113320    -0.033750770035    0.827347546676    -0.207149233194    0.059496127924    -0.055127886806
0.350     -0.071586321866    0.058197270765    0.285112002505    -0.792849434453    -0.047254889662    0.062241986089    -0.139554100617    -0.040761866174
            0.285112002505    -0.792849434453    -0.021796094227    -0.117295894945    -0.139631892865    -0.040723867271    -0.029570483156    -0.069602888865
            -0.047254889662    0.062241986089    -0.139631892865    -0.040723867271    -0.072514919487    0.057640191742    0.286116125293    -0.792406316958
            -0.139554093503    -0.040761890531    -0.029570483938    -0.069602890706    0.286116125293    -0.792406316958    -0.022235894937    -0.117811333803
0.375     -0.029920055253    0.083496656179    -0.494245300309    -0.675359674464    -0.008189683530    0.073155294716    -0.117406310629    0.096108168554
            -0.494245300309    -0.675359674464    -0.087868448813    -0.018924209495    -0.117436014528    0.096135188289    -0.062309735756    0.017403204801
            -0.008189683530    0.073155294716    -0.117436014528    0.096135188289    -0.030174116265    0.081881697295    -0.493384255255    -0.676111255403
            -0.117406310629    0.096108168554    -0.062309735756    0.017403204801    -0.493384255255    -0.676111255403    -0.086446646825    -0.018901070456
0.400     -0.002755757490    0.068489136517    -0.832595333764    0.035033066536    0.004635597076    0.057343915714    0.011939115032    0.161370841585
            -0.832595333764    0.035033066536    0.013862208794    0.033340408698    0.011953718798    0.161501650540    0.025029426673    0.042068625156
            0.004635597076    0.057343915714    0.011953718798    0.161501650540    -0.004888115394    0.066478036228    -0.832737408889    0.034037821277
            0.011939115032    0.161370841585    0.025029426673    0.042068625156    -0.832737408889    0.034037821277    0.015578495426    0.031134865892
0.425     -0.010887717860    0.067184061413    -0.427964608137    0.706527487171    -0.000203415777    0.063499848189    0.151686551088    0.085594168621
            -0.427964608137    0.706527487171    0.030495749082    -0.076751237841    0.151867106731    0.085541649968    0.024019177378    -0.045139147598
            -0.000203415777    0.063499848189    0.151867106731    0.085541649968    -0.013493120217    0.067667704120    -0.428789738548    0.705877834137
            0.151686551088    0.085594168621    0.024019177378    -0.045139147598    -0.428789738548    0.705877834137    0.030239360104    -0.079438140974
0.450     0.004355708154    0.099835010436    0.343636604603    0.739329237944    0.015771193857    0.080100965928    0.161935749395    -0.085394119271
            0.343636604603    0.739329237944    -0.093959901949    -0.059708735605    0.161859244129    -0.085519670881    -0.067575934277    -0.015155370279
            0.015771193857    0.080100965928    0.161859244129    -0.085519670881    0.004153821346    0.100800410184    0.342364325235    0.739750558831
            0.161935749395    -0.085394119271    -0.067575934277    -0.015155370279    0.342364325235    0.739750558831    -0.094669592473    -0.061097723198
0.475     0.058033235680    0.095486149006    0.797917717819    0.130054381979    0.043056410107    0.070999207902    0.020226856285    -0.186838786339
            0.797917717819    0.130054381979    -0.058057611738    0.064955029423    0.020210310659    -0.186831584648    -0.017515990265    0.075539368967
            0.043056410107    0.070999207902    0.020210310659    -0.186831584648    0.057675184028    0.094626318820    0.797759862863    0.131434682592
            0.020226856285    -0.186838786339    -0.017515990265    0.075539368967    0.797759862863    0.131434682592    -0.057972703135    0.063634664996
0.500     0.066375517234    0.048211097004    0.551927474549    -0.588235018881    0.046121713386    0.050550481486    -0.147223658310    -0.130078475403
            0.551927474549    -0.588235018881    0.047432641497    0.011001424035    -0.147358375978    -0.130114727649    0.059704601501    0.012892464788
            0.046121713386    0.050550481486    -0.147358375978    -0.130114727649    0.064337966994    0.048470548691    0.552854374378    -0.587432411736
            -0.147223658310    -0.130078475403    0.059704601501    0.012892464788    0.552854374378    -0.587432411736    0.047414081936    0.008819800110
0.525     0.041246612484    0.054571203533    -0.183430156691    -0.778643057788    0.042551337252    0.054538558245    -0.202493517678    0.052916153729
            -0.183430156691    -0.778643057788    -0.035896757492    -0.068435253739    -0.202470266673    0.053151980922    -0.020698996294    -0.041178932948
            0.042551337252    0.054538558245    -0.202470266673    0.053151980922    0.041275156454    0.056787467727    -0.182109348633    -0.778751227525
            -0.202493517678    0.052916153729    -0.020698996294    -0.041178932948    -0.182109348633    -0.778751227525    -0.036828536348    -0.071065325316
0.550     0.081091671721    0.073463053838    -0.737701734543    -0.279192370136    0.063238527070    0.055432234180    -0.067807485344    0.205892897096
            -0.737701734543    -0.279192370136    -0.093331823732    0.037155867958    -0.067599476012    0.205787744316    -0.050874329671    0.054311280975
            0.063238526854    0.055432235943    -0.067599476012    0.205787744316    0.083219560249    0.073529997933    -0.736967123150    -0.280607281748
            -0.067807521279    0.205892885261    -0.050874330354    0.054311281705    -0.736967123150    -0.280607281748    -0.095534444616    0.035049928256
0.575     0.111491846902    0.017357627888    -0.642381469686    0.450136775360    0.069811174505    0.029811569637    0.133509642898    0.176134312764
            -0.642381469686    0.450136775360    0.012368631429    0.072945042232    0.133425123581    0.176055328234    0.049631580578    0.062893579772
            0.069811174505    0.029811569637    0.133425123581    0.176055328234    0.111803179721    0.016029435274    -0.643302101630    0.448793124885
            0.133509642898    0.176134312764    0.049631580578    0.062893579772    -0.643302101630    0.448793124885    0.010402602755    0.072404234599
0.600     0.062957469912    -0.011510384502    0.017773308036    0.782436562717    0.054760845565    0.024526458349    0.232244749090    -0.008367063827
            0.017773308036    0.782436562717    0.018162277547    -0.024381910287    0.232265101875    -0.008426033637    0.035735443284    -0.033345093090
            0.054760845565    0.024526458349    0.232265101875    -0.008426033637    0.062972003636    -0.010958110212    0.016219522414    0.782430005314
            0.232244749090    -0.008367063827    0.035735443284    -0.033345093090    0.016219522414    0.782430005314    0.017699352847    -0.025404878053
0.625     0.063039452043    0.023375080870    0.653343455633    0.413847963036    0.068481940100    0.028494657079    0.126523577964    -0.208775953057
            0.653343455633    0.413847963036    -0.071961901467    0.000677114550    0.126306292512    -0.208757397453    -0.049910454363    0.003073315821
            0.068481940100    0.028494657079    0.126306292512    -0.208757397453    0.065728429221    0.023247927229    0.652320594925    0.415138070858
            0.126523577964    -0.208775953057    -0.049910454363    0.003073315821    0.652320594925    0.415138070858    -0.073675148160    -0.002161852720
0.650     0.101467178316    -0.012096483853    0.701711257504    -0.304955416501    0.073101868655    -0.001594993989    -0.105867788257    -0.225512549127
            0.701711257504    -0.304955416501    -0.031363241482    0.078500186737    -0.105758696129    -0.225253084609    0.001387864331    0.072829780438
            0.073101868655    -0.001594993989    -0.105758696129    -0.225253084609    0.103484334584    -0.015312226418    0.702254039782    -0.303232976874
            -0.105867788257    -0.225512549127    0.001387864331    0.072829780438    0.702254039782    -0.303232976874    -0.035646129564    0.077541699823
0.675     0.055301499825    -0.061573084698    0.138443478168    -0.749922634547    0.043919725995    -0.005584636314    -0.253241011184    -0.044115017308
            0.138443478168    -0.749922634547    0.023836644384    0.032510575485    -0.253078061479    -0.044206470891    0.055472441170    0.009661018669
            0.043919729351    -0.005584633703    -0.253078061479    -0.044206470891    0.054957276800    -0.063907837575    0.140288935857    -0.749454326520
            -0.253241011184    -0.044115017308    0.055472441170    0.009661018669    0.140288935857    -0.749454326520    0.021771926462    0.034315603323
0.700     0.021668799584    -0.019925308843    -0.543430495051    -0.525471239403    0.056310034493    0.012624346333    -0.187422688499    0.195102289548
            -0.543430495051    -0.525471239403    -0.029158352202    0.002032317888    -0.187391874604    0.195025309392    -0.016828560330    -0.028284559107
            0.056310034493    0.012624346333    -0.187391874604    0.195025309392    0.022175223295    -0.021284262097    -0.542070816169    -0.526810698404
            -0.187422688499    0.195102289548    -0.016828560330    -0.028284559107    -0.542070816169    -0.526810698404    -0.028991520827    0.001288347577
0.725     0.056255220878    -0.024925729848    -0.729816960439    0.155343603197    0.067701665556    -0.028030675204    0.062375764149    0.271712557934
            -0.729816940877    0.155343599033    -0.044870354356    0.055744878540    0.062285917603    0.271508247788    -0.042568429268    0.039372494784
            0.067701689415    -0.028030693388    0.062285917603    0.271508247788    0.057554166734    -0.028423654954    -0.730094635818    0.153507754512
            0.062375864834    0.271712996526    -0.042568423130    0.039372502893    -0.730094635818    0.153507754512    -0.048039348098    0.053381536139
0.750     0.018408050407    -0.070366298517    -0.277819324627    0.687003067649    0.011210393790    -0.039863037423    0.265439738744    0.103503940346
            -0.277819324627    0.687003067649    -0.004705072148    0.064239386151    0.265180512619    0.103642333755    0.012431358875    0.054067078161
            0.011210393790    -0.039863037423    0.265180512619    0.103642333755    0.017005087087    -0.074968962983    -0.279575734998    0.685990650013
            0.265439738744    0.103503940346    0.012431358875    0.054067078161    -0.279575734998    0.685990650013    -0.009167050152    0.066101003759
0.775     -0.026910838514    -0.020784268605    0.414586875164    0.607431677484    0.012624953800    0.012117998050    0.245118342337    -0.167190718626
            0.414586875164    0.607431677484    -0.006212694782    0.040472270650    0.245238296518    -0.167128958417    0.005988504860    -0.000140328840
            0.012624953800    0.012117998050    0.245238296518    -0.167128958417    -0.029597724205    -0.020283919449    0.412585230751    0.608552446639
