# GHz S RI R 45
0.000     0.072563643198    0.043967209602    -0.000014755698    -0.000010252617    0.024715090109    0.043120039629    -0.000013588718    -0.000006684304
            -0.000014755637    -0.000010252616    0.071176625219    0.039022599370    -0.000040041989    -0.000007968327    0.024818425045    0.044059560389
            0.024715090109    0.043120039629    -0.000040042292    -0.000007967973    0.072515940400    0.043331621432    -0.000013467696    -0.000011633776
            -0.000013588707    -0.000006684216    0.024818425045    0.044059560389    -0.000013474343    -0.000011631754    0.071189462276    0.038430825979
0.025     0.152291819819    0.027258564054    -0.000025362010    0.000010045565    0.102493944003    0.044704939777    -0.000021647626    0.000004194593
            -0.000025362280    0.000010045001    0.137129341358    0.035664822580    -0.000046843628    0.000026014980    0.098042300649    0.058515744282
            0.102492958240    0.044706049205    -0.000046843573    0.000026015002    0.151342905485    0.026728915456    -0.000034221903    -0.000003860860
            -0.000021646583    0.000004193992    0.098046127474    0.058520005631    -0.000034221863    -0.000003860341    0.136383745895    0.035029730670
0.050     0.149537066563    -0.106098264125    -0.000016978784    0.000000875255    0.123399663186    -0.080656996135    -0.000021170756    0.000016563007
            -0.000016979006    0.000000875085    0.155001287520    -0.062932408890    -0.000032166180    0.000036188376    0.143553382191    -0.047990208513
            0.123399034879    -0.080658067058    -0.000032166239    0.000036188405    0.148297516649    -0.105437757719    -0.000045975549    0.000028454894
            -0.000021170729    0.000016562974    0.143553401971    -0.047990307046    -0.000045975504    0.000028454889    0.153556189274    -0.062662825317
0.075     0.022425491954    -0.104359743888    -0.000045985805    0.000080608393    -0.003110657115    -0.091137755946    -0.000010820240    0.000060861988
            -0.000045985874    0.000080608514    0.061732314219    -0.085583017246    -0.000018762856    0.000128235894    0.036400954849    -0.087276571420
            -0.003111069504    -0.091137753877    -0.000018762856    0.000128235914    0.022341933060    -0.103181829901    -0.000016004374    0.000101936458
            -0.000010820260    0.000060862040    0.036400942696    -0.087276585157    -0.000016004379    0.000101936447    0.061022165498    -0.084316848735
0.100     0.050227200479    -0.018854436577    0.000120119849    0.000061611429    0.015599804900    0.005039321918    0.000084209882    0.000037993361
            0.000120119920    0.000061611420    0.051436274762    -0.009991263947    0.000182673558    0.000063609760    0.017463815494    0.007139991517
            0.015599767753    0.005039479201    0.000182673395    0.000063610014    0.050616786282    -0.018566299134    0.000127353807    0.000070960283
            0.000084209888    0.000037993357    0.017463783470    0.007139995856    0.000127353810    0.000070960276    0.051832895773    -0.009137627409
0.125     0.097816987272    -0.098719150641    0.000058363605    -0.000054873511    0.077545230675    -0.062485252326    0.000061216101    -0.000052303438
            0.000058363577    -0.000054873505    0.118333030258    -0.025605483889    0.000100802448    -0.000106973998    0.103843725904    -0.005598097929
            0.077545274592    -0.062485285482    0.000100802435    -0.000106973996    0.097614211597    -0.098494715621    0.000119687228    -0.000075122615
            0.000061216094    -0.000052303435    0.103843730682    -0.005598009302    0.000119687224    -0.000075122621    0.118426650303    -0.025671252703
0.150     -0.010257107712    -0.142033748027    0.000080670811    -0.000073592808    -0.021116996566    -0.113945663695    0.000020362074    -0.000081462173
            0.000080670813    -0.000073592807    0.098200152878    -0.099116080720    0.000059999913    -0.000146569860    0.078475821936    -0.094520616747
            -0.021116996566    -0.113945663695    0.000059999913    -0.000146569860    -0.010172163771    -0.141171274394    0.000036804417    -0.000148554830
            0.000020361912    -0.000081462202    0.078475802140    -0.094520633183    0.000036804417    -0.000148554830    0.097400623774    -0.098699585768
0.175     -0.050657245653    -0.048334556512    -0.000094889286    -0.000200373674    -0.065196361999    -0.015993433682    -0.000084895525    -0.000102984090
            -0.000094889286    -0.000200373674    0.024517945142    -0.092343481581    -0.000167632882    -0.000223330812    -0.008167750965    -0.071687708277
            -0.065196361028    -0.015993433443    -0.000167632882    -0.000223330812    -0.049668551756    -0.047726021794    -0.000134803127    -0.000163941012
            -0.000084895525    -0.000102984090    -0.008167751078    -0.071687709270    -0.000134803133    -0.000163941020    0.024453228867    -0.090667766490
0.200     0.011647191746    -0.043111608164    -0.000229388356    0.000060943660    0.009116483762    -0.001661639243    -0.000153875296    0.000053242356
            -0.000229388336    0.000060943655    0.025311009705    -0.032691299252    -0.000294268908    0.000101650297    0.011427025971    -0.002225905333
            0.009116467949    -0.001661673021    -0.000294268908    0.000101650297    0.012762185787    -0.043484770121    -0.000244712777    0.000061374665
            -0.000153875296    0.000053242356    0.011427002955    -0.002225877044    -0.000244712777    0.000061374665    0.027009959989    -0.031764376495
0.225     -0.033332618814    -0.095010535268    -0.000067269234    0.000167725188    -0.022467954889    -0.061615204562    -0.000023946670    0.000148154490
            -0.000067269223    0.000167725160    0.076848106960    -0.048873110364    -0.000075273220    0.000253210531    0.065001316441    -0.034991635050
            -0.022467970991    -0.061615248718    -0.000075273265    0.000253210518    -0.032926402645    -0.095690208506    -0.000068417500    0.000236322159
            -0.000023946675    0.000148154489    0.065001316441    -0.034991635050    -0.000068417500    0.000236322159    0.077904326417    -0.049738849507
0.250     -0.095971248332    -0.032652924096    0.000065258180    0.000228578118    -0.085003794201    -0.005236746083    0.000091556258    0.000120626778
            0.000065258199    0.000228578185    0.046676951493    -0.115016873013    0.000133060227    0.000281353036    0.019265010537    -0.090847450313
            -0.085003816076    -0.005236732538    0.000133060227    0.000281353036    -0.095626611109    -0.032724551448    0.000138752894    0.000208083649
            0.000091556262    0.000120626800    0.019265010537    -0.090847450313    0.000138752894    0.000208083649    0.046179593249    -0.115037400973
0.275     -0.051154616618    0.025198711808    0.000329808841    0.000052463296    -0.031791433487    0.053028837987    0.000199687208    0.000001033016
            0.000329808841    0.000052463296    -0.036128862485    -0.086292498854    0.000409378833    0.000042302305    -0.044586991713    -0.043225519859
            -0.031791433487    0.053028837987    0.000409378833    0.000042302305    -0.049899410846    0.024815771442    0.000302781453    0.000023320922
            0.000199687208    0.000001033016    -0.044586991713    -0.043225519859    0.000302781453    0.000023320922    -0.035190670670    -0.084862682191
0.300     -0.026489890843    -0.003375460263    0.000178458335    -0.000304465037    0.000055548773    0.013149117667    0.000101319166    -0.000217926887
            0.000178458335    -0.000304465037    -0.009051650352    -0.004657771373    0.000238537316    -0.000385273316    -0.002803754687    0.017758001483
            0.000055548773    0.013149117667    0.000238537316    -0.000385273316    -0.025668230267    -0.005146081330    0.000195730956    -0.000300554002
            0.000101319166    -0.000217926887    -0.002803754687    0.017758001483    0.000195730956    -0.000300554002    -0.006424189756    -0.005167548241
0.325     -0.065859121214    0.005134698016    -0.000144467279    -0.000287402520    -0.042777321564    0.013792520000    -0.000142954596    -0.000178393558
            -0.000144467279    -0.000287402520    0.058714490515    -0.052924174060    -0.000193483663    -0.000392522719    0.042636112536    -0.033750769414
            -0.042777321564    0.013792520000    -0.000193483663    -0.000392522719    -0.066557982141    0.003753972645    -0.000170936787    -0.000312102800
            -0.000142954596    -0.000178393558    0.042636113320    -0.033750770035    -0.000170936787    -0.000312102800    0.059496127924    -0.055127886806
0.350     -0.056254449859    0.062018149902    -0.000341750589    -0.000086564861    -0.030105051266    0.067273214824    -0.000218246115    -0.000005405665
            -0.000341750589    -0.000086564861    -0.021796094227    -0.117295894945    -0.000444844706    -0.000103401002    -0.029570483156    -0.069602888865
            -0.030105051266    0.067273214824    -0.000444844697    -0.000103401000    -0.056250280123    0.061949514111    -0.000336577438    -0.000054650445
            -0.000218246115    -0.000005405665    -0.029570483938    -0.069602890706    -0.000336577438    -0.000054650445    -0.022235894937    -0.117811333803
0.375     -0.004597530341    0.068418384184    -0.000306172618    0.000301290924    0.021442850400    0.057902621100    -0.000172255209    0.000207644578
            -0.000306172618    0.000301290924    -0.087868448813    -0.018924209495    -0.000406197069    0.000360918657    -0.062309735756    0.017403204801
            0.021442849736    0.057902622412    -0.000406197069    0.000360918657    -0.003525294165    0.067095682064    -0.000299440295    0.000261320317
            -0.000172255209    0.000207644578    -0.062309735756    0.017403204801    -0.000299440295    0.000261320317    -0.086446646825    -0.018901070456
0.400     0.003483541335    0.038439835904    0.000147578629    0.000440718249    0.013695714257    0.023341682411    0.000130491709    0.000289299876
            0.000147578629    0.000440718249    0.013862208794    0.033340408698    0.000145245652    0.000598045577    0.025029426673    0.042068625156
            0.013695714257    0.023341682411    0.000145245652    0.000598045577    0.002751305800    0.036166668971    0.000098845068    0.000460220485
            0.000130491709    0.000289299876    0.025029426673    0.042068625156    0.000098845068    0.000460220485    0.015578495426    0.031134865892
0.425     -0.017763183034    0.050676644281    0.000434217822    0.000092235531    -0.008088474679    0.042697276742    0.000303848318    0.000013729142
            0.000434218279    0.000092235644    0.030495749082    -0.076751237841    0.000580650853    0.000157487971    0.024019177378    -0.045139147598
            -0.008088474679    0.042697276742    0.000580650853    0.000157487971    -0.019245569090    0.050475887827    0.000448310056    0.000118823116
            0.000303848328    0.000013729138    0.024019177378    -0.045139147598    0.000448310056    0.000118823116    0.030239360104    -0.079438140974
0.450     0.011227228011    0.085107449780    0.000341571330    -0.000294129957    0.023032286365    0.064337783807    0.000187845616    -0.000220814173
            0.000341571330    -0.000294129957    -0.093959901949    -0.059708735605    0.000463715100    -0.000357545645    -0.067575934277    -0.015155370279
            0.023032286365    0.064337783807    0.000463715100    -0.000357545645    0.011945174229    0.085132260222    0.000338559378    -0.000265254442
            0.000187845616    -0.000220814173    -0.067575934277    -0.015155370279    0.000338559378    -0.000265254442    -0.094669592473    -0.061097723198
0.475     0.057897758317    0.058049834975    -0.000055691153    -0.000506403357    0.045072590085    0.030672980361    -0.000067672493    -0.000329171221
            -0.000055691153    -0.000506403357    -0.058057611738    0.064955029423    -0.000003811176    -0.000667771454    -0.017515990265    0.075539368967
            0.045072590085    0.030672980361    -0.000003811176    -0.000667771454    0.058226197815    0.055869538570    0.000019390131    -0.000491086137
            -0.000067672493    -0.000329171221    -0.017515990265    0.075539368967    0.000019390131    -0.000491086137    -0.057972703135    0.063634664996
0.500     0.034610021001    0.017215153253    -0.000516847366    -0.000219013942    0.012591548049    0.014526203748    -0.000374669279    -0.000113072376
            -0.000516847366    -0.000219013942    0.047432641497    0.011001424035    -0.000669664343    -0.000361958232    0.059704601501    0.012892464788
            0.012591548049    0.014526203748    -0.000669664343    -0.000361958232    0.032808107316    0.016050097040    -0.000499884642    -0.000298880872
            -0.000374669279    -0.000113072376    0.059704601501    0.012892464788    -0.000499884642    -0.000298880872    0.047414081936    0.008819800110
0.525     0.011888554054    0.054512256190    -0.000437628437    0.000342274953    0.007534457145    0.052566892012    -0.000263014602    0.000281167188
            -0.000437628437    0.000342274953    -0.035896757492    -0.068435253739    -0.000613075314    0.000416231323    -0.020698996294    -0.041178932948
            0.007534457145    0.052566892012    -0.000613075314    0.000416231323    0.011669258087    0.055214171018    -0.000468859998    0.000309953693
            -0.000263014602    0.000281167188    -0.020698996294    -0.041178932948    -0.000468859998    0.000309953693    -0.036828536348    -0.071065325316
0.550     0.071593711272    0.064871707725    0.000027207589    0.000532956094    0.052031610777    0.048037253034    0.000068455961    0.000346303775
            0.000027207589    0.000532956094    -0.093331823732    0.037155867958    -0.000028643517    0.000688606545    -0.050874329671    0.054311280975
            0.052031610673    0.048037254621    -0.000028643517    0.000688606545    0.072826222337    0.063571555410    -0.000038566400    0.000499517759
            0.000068455961    0.000346303775    -0.050874330354    0.054311281705    -0.000038566400    0.000499517759    -0.095534444616    0.035049928256
0.575     0.077413289749    -0.005385855915    0.000477267773    0.000335308551    0.036068546497    0.004875393380    0.000346016037    0.000195288754
            0.000477267773    0.000335308551    0.012368631429    0.072945042232    0.000579338385    0.000512812538    0.049631580578    0.062893579772
            0.036068546497    0.004875393380    0.000579338385    0.000512812538    0.076459201330    -0.007643825997    0.000406871142    0.000416643952
            0.000346016037    0.000195288754    0.049631580578    0.062893579772    0.000406871142    0.000416643952    0.010402602755    0.072404234599
0.600     0.011968052388    0.003895275134    0.000608944328    -0.000285352604    -0.000912171755    0.038398337980    0.000402575750    -0.000255279529
            0.000608944328    -0.000285352604    0.018162277547    -0.024381910287    0.000836150468    -0.000306495310    0.035735443284    -0.033345093090
            -0.000912171755    0.038398337980    0.000836150468    -0.000306495310    0.010744477338    0.003867579639    0.000651781812    -0.000210325879
            0.000402575750    -0.000255279529    0.035735443284    -0.033345093090    0.000651781812    -0.000210325879    0.017699352847    -0.025404878053
0.625     0.051348401676    0.059075507358    0.000016335363    -0.000658505538    0.051488341601    0.068817925960    -0.000061430046    -0.000451918546
            0.000016335363    -0.000658505538    -0.071961901467    0.000677114550    0.000094119122    -0.000839165449    -0.049910454363    0.003073315821
            0.051488341601    0.068817925960    0.000094119122    -0.000839165449    0.052234189176    0.058582898008    0.000086120267    -0.000618170537
            -0.000061430046    -0.000451918546    -0.049910454363    0.003073315821    0.000086120267    -0.000618170537    -0.073675148160    -0.002161852720
0.650     0.100551086137    -0.007290083542    -0.000473388805    -0.000368550598    0.073845927862    0.007717659084    -0.000346437641    -0.000204017118
            -0.000473388805    -0.000368550598    -0.031363241482    0.078500186737    -0.000543498235    -0.000535343843    0.001387864331    0.072829780438
            0.073845927862    0.007717659084    -0.000543498235    -0.000535343843    0.100515653422    -0.009700777142    -0.000363465326    -0.000424016439
            -0.000346437641    -0.000204017118    0.001387864331    0.072829780438    -0.000363465326    -0.000424016439    -0.035646129564    0.077541699823
0.675     0.021363524207    -0.045150546664    -0.000671025379    0.000141179732    0.011926631338    0.007688192326    -0.000454682340    0.000147119155
            -0.000671025379    0.000141179732    0.023836644384    0.032510575485    -0.000875945644    0.000086377622    0.055472441170    0.009661018669
            0.011926631338    0.007688192326    -0.000875945644    0.000086377622    0.019759741077    -0.046406025005    -0.000677653056    0.000016188826
            -0.000454682340    0.000147119155    0.055472441170    0.009661018669    -0.000677653056    0.000016188826    0.021771926462    0.034315603323
0.700     0.015819239642    0.035396300013    -0.000205520449    0.000769896739    0.047184060548    0.070084463293    -0.000074063692    0.000558286681
            -0.000205520449    0.000769896739    -0.029158352202    0.002032317888    -0.000359608086    0.000931407874    -0.016828560330    -0.028284559107
            0.047184060548    0.070084463293    -0.000359608086    0.000931407874    0.015479627200    0.035101707033    -0.000299882441    0.000694413813
            -0.000074063692    0.000558286681    -0.016828560330    -0.028284559107    -0.000299882441    0.000694413813    -0.028991520827    0.001288347577
0.725     0.096255423240    0.001115347766    0.000557078866    0.000492485601    0.109362852932    0.005789134967    0.000428975315    0.000291007554
            0.000557078866    0.000492485601    -0.044870354356    0.055744878540    0.000605576318    0.000689327664    -0.042568429268    0.039372494784
            0.109362852932    0.005789134967    0.000605576311    0.000689327657    0.096281182611    -0.000453365283    0.000408740293    0.000534374601
            0.000428975267    0.000291007554    -0.042568423130    0.039372502893    0.000408740158    0.000534374579    -0.048039348098    0.053381536139
0.750     0.034070196370    -0.081006307854    0.000674691254    -0.000108905227    0.034409813277    -0.049205869822    0.000463002475    -0.000129558315
            0.000674691254    -0.000108905227    -0.004705072148    0.064239386151    0.000844713401    -0.000021009408    0.012431358875    0.054067078161
            0.034409813277    -0.049205869822    0.000844713401    -0.000021009408    0.032888540257    -0.082571211066    0.000642887370    0.000048146776
            0.000463002475    -0.000129558315    0.012431358875    0.054067078161    0.000642887370    0.000048146776    -0.009167050152    0.066101003759
0.775     -0.029764674036    -0.002427892768    0.000393599843    -0.000712998415    0.016977143300    0.031167221681    0.000222784997    -0.000531673632
            0.000393599843    -0.000712998415    -0.006212694782    0.040472270650    0.000592607340    -0.000797070873    0.005988504860    -0.000140328840
            0.016977143300    0.031167221681    0.000592607340    -0.000797070873    -0.030773316906    -0.003048619873    0.000494708733    -0.000581584545
