# GHz S RI R 45
0.000     0.072557279232    0.043827761006    -0.000050251006    -0.000048280434    0.024686299424    0.043118797082    -0.000038205660    -0.000035442881
            -0.000050251190    -0.000048280374    0.071176625219    0.039022599370    -0.000069522142    -0.000068590247    0.024818425045    0.044059560389
            0.024686299921    0.043118797950    -0.000069520567    -0.000068590872    0.072426611198    0.043317242548    -0.000050600150    -0.000048704024
            -0.000038205558    -0.000035442923    0.024818425045    0.044059560389    -0.000050599895    -0.000048703999    0.071189462276    0.038430825979
0.025     0.151915468035    0.027883300971    -0.000126186510    -0.000014315588    0.102315168691    0.045005784863    -0.000093336530    -0.000008028923
            -0.000126186470    -0.000014315583    0.137129341358    0.035664822580    -0.000181361274    -0.000027443564    0.098042300649    0.058515744282
            0.102322866225    0.045011084834    -0.000181360836    -0.000027441911    0.151105381990    0.027379105026    -0.000127274579    -0.000014640884
            -0.000093336434    -0.000008027257    0.098046127474    0.058520005631    -0.000127274629    -0.000014640889    0.136383745895    0.035029730670
0.050     0.150758905583    -0.105266238805    -0.000159416552    0.000101259117    0.123954365145    -0.080004796008    -0.000114815206    0.000072409468
            -0.000159416543    0.000101259112    0.155001287520    -0.062932408890    -0.000239941120    0.000154698840    0.143553382191    -0.047990208513
            0.123954540690    -0.080006386491    -0.000239941095    0.000154698824    0.149487936967    -0.104530869995    -0.000161533957    0.000102634177
            -0.000114815184    0.000072409427    0.143553401971    -0.047990307046    -0.000161533940    0.000102634166    0.153556189274    -0.062662825317
0.075     0.023505339334    -0.105393575303    -0.000070253179    0.000358335367    -0.002314127794    -0.091459108281    -0.000055717080    0.000267129752
            -0.000070253274    0.000358335848    0.061732314219    -0.085583017246    -0.000083450495    0.000511150427    0.036400954849    -0.087276571420
            -0.002314448820    -0.091459107160    -0.000083450509    0.000511150455    0.023532631435    -0.103880220546    -0.000068769735    0.000362025809
            -0.000055717321    0.000267130673    0.036400942696    -0.087276585157    -0.000068769738    0.000362025828    0.061022165498    -0.084316848735
0.100     0.049471076294    -0.018849252698    0.000463030093    0.000283508641    0.015358608118    0.005163673371    0.000352536539    0.000207925985
            0.000463030096    0.000283508654    0.051436274762    -0.009991263947    0.000634576424    0.000400764577    0.017463815494    0.007139991517
            0.015358515057    0.005163752475    0.000634576458    0.000400764598    0.050346477921    -0.018407106416    0.000465499693    0.000282693395
            0.000352537345    0.000207926527    0.017463783470    0.007139995856    0.000465499671    0.000282693393    0.051832895773    -0.009137627409
0.125     0.099457224129    -0.097137328862    0.000446047975    -0.000296736303    0.078743956422    -0.061387387589    0.000321691481    -0.000228693618
            0.000446047978    -0.000296736317    0.118333030258    -0.025605483889    0.000657512082    -0.000390180848    0.103843725904    -0.005598097929
            0.078743965157    -0.061387387770    0.000657512471    -0.000390181094    0.099485278124    -0.097075179509    0.000448535892    -0.000295863251
            0.000321691465    -0.000228693623    0.103843730682    -0.005598009302    0.000448535890    -0.000295863272    0.118426650303    -0.025671252703
0.150     -0.007150430653    -0.143854580104    0.000112470443    -0.000518903446    -0.018914015127    -0.114885386480    0.000079708048    -0.000378392648
            0.000112470353    -0.000518903466    0.098200152878    -0.099116080720    0.000180054510    -0.000766325867    0.078475821936    -0.094520616747
            -0.018914020762    -0.114885395687    0.000180054510    -0.000766325867    -0.006939516987    -0.142796158322    0.000115420218    -0.000524864771
            0.000079708048    -0.000378392648    0.078475802140    -0.094520633183    0.000115420218    -0.000524864771    0.097400623774    -0.098699585768
0.175     -0.051236025008    -0.051032436607    -0.000452288675    -0.000609157799    -0.065128565149    -0.017589438376    -0.000340989941    -0.000454473231
            -0.000452288675    -0.000609157799    0.024517945142    -0.092343481581    -0.000641586014    -0.000860251277    -0.008167750965    -0.071687708277
            -0.065128566114    -0.017589438637    -0.000641586014    -0.000860251277    -0.049534202912    -0.050394054143    -0.000456944403    -0.000611406876
            -0.000340990026    -0.000454473180    -0.008167751078    -0.071687709270    -0.000456944409    -0.000611406884    0.024453228867    -0.090667766490
0.200     0.011734508372    -0.042357427911    -0.000943658382    0.000207267323    0.009645089853    -0.001330297576    -0.000706733489    0.000173512969
            -0.000943658382    0.000207267323    0.025311009705    -0.032691299252    -0.001316326222    0.000242213323    0.011427025971    -0.002225905333
            0.009645074431    -0.001330331078    -0.001316326222    0.000242213323    0.013190210031    -0.043480071411    -0.000946089145    0.000203962915
            -0.000706733499    0.000173512971    0.011427002955    -0.002225877044    -0.000946089145    0.000203962915    0.027009959989    -0.031764376495
0.225     -0.029969894487    -0.096860113043    -0.000220986560    0.000904940295    -0.020020880616    -0.063131321295    -0.000141040901    0.000678165174
            -0.000220986560    0.000904940295    0.076848106960    -0.048873110364    -0.000395564933    0.001263463158    0.065001316441    -0.034991635050
            -0.020020880616    -0.063131321295    -0.000395564933    0.001263463158    -0.029891891037    -0.097818802385    -0.000232577198    0.000910613724
            -0.000141040999    0.000678165644    0.065001316441    -0.034991635050    -0.000232577196    0.000910613714    0.077904326417    -0.049738849507
0.250     -0.096226549830    -0.037707033368    0.000502629488    0.000721669214    -0.085026192606    -0.008713401764    0.000381917960    0.000524132030
            0.000502629489    0.000721669189    0.046676951493    -0.115016873013    0.000692041948    0.001084951521    0.019265010537    -0.090847450313
            -0.085026192606    -0.008713401764    0.000692041929    0.001084951533    -0.095618886967    -0.037831962843    0.000507744762    0.000734489307
            0.000381917960    0.000524132030    0.019265010537    -0.090847450313    0.000507744767    0.000734489315    0.046179593249    -0.115037400973
0.275     -0.053809105219    0.023824658162    0.001104970163    0.000130190306    -0.033229214198    0.051867760945    0.000832843689    0.000084340431
            0.001104970163    0.000130190306    -0.036128862485    -0.086292498854    0.001558712114    0.000222024467    -0.044586991713    -0.043225519859
            -0.033229214198    0.051867760945    0.001558712114    0.000222024467    -0.052535395818    0.022462538868    0.001114009824    0.000136669567
            0.000832843689    0.000084340431    -0.044586991713    -0.043225519859    0.001114009824    0.000136669567    -0.035190670670    -0.084862682191
0.300     -0.025580519483    -0.004076864387    0.000771855469    -0.001145528220    0.000703631840    0.012053244522    0.000559720014    -0.000890604278
            0.000771855469    -0.001145528220    -0.009051650352    -0.004657771373    0.001154608883    -0.001538533858    -0.002803754687    0.017758001483
            0.000703631840    0.012053244522    0.001154608883    -0.001538533858    -0.025959190274    -0.006371735488    0.000796627075    -0.001155363917
            0.000559720014    -0.000890604278    -0.002803754687    0.017758001483    0.000796627075    -0.001155363917    -0.006424189756    -0.005167548241
0.325     -0.066072159372    0.000488067862    -0.000688133270    -0.001171942291    -0.043382845274    0.010230457233    -0.000562086884    -0.000860351952
            -0.000688133270    -0.001171942291    0.058714490515    -0.052924174060    -0.000855361768    -0.001726986813    0.042636112536    -0.033750769414
            -0.043382864572    0.010230501747    -0.000855361768    -0.001726986813    -0.067438627894    -0.000444686905    -0.000701654044    -0.001204843958
            -0.000562086884    -0.000860351952    0.042636113320    -0.033750770035    -0.000701654044    -0.001204843958    0.059496127924    -0.055127886806
0.350     -0.060683181603    0.059114380975    -0.001234237751    -0.000173602932    -0.033428239815    0.065312308566    -0.000924421973    -0.000092357084
            -0.001234237751    -0.000173602932    -0.021796094227    -0.117295894945    -0.001766071222    -0.000348182085    -0.029570483156    -0.069602888865
            -0.033428239815    0.065312308566    -0.001766071222    -0.000348182085    -0.061085207809    0.058739270540    -0.001257625415    -0.000168614085
            -0.000924422909    -0.000092357178    -0.029570483938    -0.069602890706    -0.001257625415    -0.000168614085    -0.022235894937    -0.117811333803
0.375     -0.007384302136    0.069079196235    -0.001139451440    0.000952959083    0.019360184569    0.058095413946    -0.000845938140    0.000750323502
            -0.001139451440    0.000952959083    -0.087868448813    -0.018924209495    -0.001663737869    0.001271608675    -0.062309735756    0.017403204801
            0.019360184569    0.058095413946    -0.001663737869    0.001271608675    -0.007995363429    0.067682224336    -0.001164649703    0.000962774531
            -0.000845938140    0.000750323502    -0.062309735756    0.017403204801    -0.001164649703    0.000962774531    -0.086446646825    -0.018901070456
0.400     0.002855647291    0.037297316259    0.000365558685    0.001794371903    0.012521383118    0.022297025333    0.000350798210    0.001373961055
            0.000365558685    0.001794371903    0.013862208794    0.033340408698    0.000355505414    0.002525421876    0.025029426673    0.042068625156
            0.012521383118    0.022297025333    0.000355505414    0.002525421876    0.000751669964    0.036550488676    0.000377268931    0.001855518745
            0.000350798210    0.001373961055    0.025029426673    0.042068625156    0.000377268898    0.001855518751    0.015578495426    0.031134865892
0.425     -0.021123542459    0.048305702336    0.001762169395    0.000419107530    -0.011323625120    0.041413727543    0.001370390518    0.000224100827
            0.001762169395    0.000419107530    0.030495749082    -0.076751237841    0.002424737096    0.000768889101    0.024019177378    -0.045139147598
            -0.011323625120    0.041413727543    0.002424737096    0.000768889101    -0.022791623636    0.049194925361    0.001830269131    0.000395938618
            0.001370390518    0.000224100827    0.024019177378    -0.045139147598    0.001830269131    0.000395938618    0.030239360104    -0.079438140974
0.450     0.006418146877    0.086187704041    0.001254494504    -0.001037924175    0.019221398512    0.065744813842    0.000891753308    -0.000834795913
            0.001254494504    -0.001037924175    -0.093959901949    -0.059708735605    0.001867124442    -0.001349614795    -0.067575934277    -0.015155370279
            0.019221398512    0.065744813842    0.001867124442    -0.001349614795    0.005952773851    0.086972706722    0.001240800570    -0.001076186550
            0.000891753308    -0.000834795913    -0.067575934277    -0.015155370279    0.001240800570    -0.001076186550    -0.094669592473    -0.061097723198
0.475     0.056288551343    0.061074536057    0.000081890779    -0.001884526986    0.043601464703    0.033187051846    -0.000004608809    -0.001453499093
            0.000081890779    -0.001884526986    -0.058057611738    0.064955029423    0.000269649822    -0.002611279629    -0.017515990265    0.075539368967
            0.043601464703    0.033187051846    0.000269649822    -0.002611279629    0.055517459661    0.061305450608    0.000078536831    -0.001920202782
            -0.000004608809    -0.001453499093    -0.017515990265    0.075539368967    0.000078536831    -0.001920202782    -0.057972703135    0.063634664996
0.500     0.034697477079    0.017674529153    -0.001973728853    -0.001176868961    0.011915327304    0.015361946267    -0.001611988011    -0.000806456126
            -0.001973728853    -0.001176868961    0.047432641497    0.011001424035    -0.002592526734    -0.001805189491    0.059704601501    0.012892464788
            0.011915327304    0.015361946267    -0.002592526734    -0.001805189491    0.033662705258    0.018859134220    -0.002070535056    -0.001178174812
            -0.001611988011    -0.000806456126    0.059704601501    0.012892464788    -0.002070535056    -0.001178174812    0.047414081936    0.008819800110
0.525     0.008911369661    0.054376601669    -0.001840571110    0.001265469136    0.004741256241    0.053756184385    -0.001313261675    0.001110238561
            -0.001840571110    0.001265469136    -0.035896757492    -0.068435253739    -0.002665033932    0.001527419185    -0.020698996294    -0.041178932948
            0.004741256241    0.053756184385    -0.002665033932    0.001527419185    0.009081117386    0.056131509129    -0.001816884907    0.001377465540
            -0.001313261675    0.001110238561    -0.020698996294    -0.041178932948    -0.001816884907    0.001377465540    -0.036828536348    -0.071065325316
0.550     0.068956539813    0.069469333037    -0.000104268841    0.001988767727    0.050369780883    0.052790396997    0.000039278350    0.001491877027
            -0.000104268841    0.001988767727    -0.093331823732    0.037155867958    -0.000365422276    0.002722696268    -0.050874329671    0.054311280975
            0.050369780652    0.052790398599    -0.000365422276    0.002722696268    0.070100734705    0.070532376516    -0.000039666543    0.001961339429
            0.000039278350    0.001491877027    -0.050874330354    0.054311281705    -0.000039666509    0.001961339429    -0.095534444616    0.035049928256
0.575     0.080753437282    -0.001269984984    0.001647992204    0.001613144460    0.038952485888    0.008427514486    0.001358394461    0.001169513397
            0.001647992204    0.001613144460    0.012368631429    0.072945042232    0.002072055047    0.002363361757    0.049631580578    0.062893579772
            0.038952485888    0.008427514486    0.002072055047    0.002363361757    0.081678583441    -0.001024151118    0.001676781285    0.001611461095
            0.001358394461    0.001169513397    0.049631580578    0.062893579772    0.001676781285    0.001611461095    0.010402602755    0.072404234599
0.600     0.014291599852    0.002008822183    0.002595781965    -0.000851240637    0.000074775973    0.037793792027    0.001970763638    -0.000871219602
            0.002595781965    -0.000851240637    0.018162277547    -0.024381910287    0.003571936536    -0.000835238353    0.035735443284    -0.033345093090
            0.000074775973    0.037793792027    0.003571936536    -0.000835238353    0.015075105078    0.002458556564    0.002618807248    -0.000963856615
            0.001970763638    -0.000871219602    0.035735443284    -0.033345093090    0.002618807248    -0.000963856615    0.017699352847    -0.025404878053
0.625     0.048495367142    0.060489119496    0.000360906944    -0.002560301519    0.049647827799    0.072160433046    0.000035764932    -0.001976720778
            0.000360906944    -0.002560301519    -0.071961901467    0.000677114550    0.000830145193    -0.003362514562    -0.049910454363    0.003073315821
            0.049647827799    0.072160433046    0.000830145193    -0.003362514562    0.050039451256    0.060986966599    0.000214307199    -0.002551372457
            0.000035764932    -0.001976720778    -0.049910454363    0.003073315821    0.000214307199    -0.002551372457    -0.073675148160    -0.002161852720
0.650     0.104276924200    -0.000966160124    -0.001631095991    -0.001718563619    0.078488774555    0.013414107240    -0.001323226790    -0.001176209060
            -0.001631095991    -0.001718563619    -0.031363241482    0.078500186737    -0.001939687980    -0.002533898010    0.001387864331    0.072829780438
            0.078488774555    0.013414107240    -0.001939687980    -0.002533898010    0.106511392323    -0.001747700645    -0.001598730977    -0.001620145986
            -0.001323226790    -0.001176209060    0.001387864331    0.072829780438    -0.001598730977    -0.001620145986    -0.035646129564    0.077541699823
0.675     0.029639021680    -0.047956913424    -0.002731445819    0.000197478768    0.018966608590    0.005256056557    -0.002118578602    0.000317184698
            -0.002731445819    0.000197478768    0.023836644384    0.032510575485    -0.003651820485    -0.000096322766    0.055472441170    0.009661018669
            0.018966608590    0.005256056557    -0.003651820485    -0.000096322766    0.030634557507    -0.049911784366    -0.002714756024    0.000209612138
            -0.002118578602    0.000317184698    0.055472441170    0.009661018669    -0.002714756024    0.000209612138    0.021771926462    0.034315603323
0.700     0.014395383842    0.030311273400    -0.001254792510    0.002860797659    0.045161869197    0.068303210298    -0.000719989710    0.002355528676
            -0.001254792510    0.002860797659    -0.029158352202    0.002032317888    -0.002046519976    0.003541959246    -0.016828560330    -0.028284559107
            0.045161869197    0.068303210298    -0.002046519976    0.003541959246    0.014499990735    0.029138560708    -0.001151864862    0.002897823458
            -0.000719989710    0.002355528676    -0.016828560330    -0.028284559107    -0.001151864862    0.002897823458    -0.028991520827    0.001288347577
0.725     0.096521090648    0.005877752940    0.001859254122    0.002355967197    0.112155799973    0.011550770463    0.001630421099    0.001596211613
            0.001859254060    0.002355967119    -0.044870354356    0.055744878540    0.002004081531    0.003368429220    -0.042568429268    0.039372494784
            0.112155791276    0.011550757302    0.002004081531    0.003368429220    0.097679583270    0.004928997993    0.001873097622    0.002200903274
            0.001630421000    0.001596211571    -0.042568423130    0.039372502893    0.001873097481    0.002200903263    -0.048039348098    0.053381536139
0.750     0.045438860657    -0.082282390425    0.002818567008    -0.000081004964    0.045145254938    -0.051823186935    0.002106677417    -0.000241859969
            0.002818567008    -0.000081004964    -0.004705072148    0.064239386151    0.003711834863    0.000407296956    0.012431358875    0.054067078161
            0.045145254938    -0.051823186935    0.003711834863    0.000407296956    0.046318864486    -0.085192924922    0.002696808095    -0.000059681391
            0.002106677417    -0.000241859969    0.012431358875    0.054067078161    0.002696808095    -0.000059681391    -0.009167050152    0.066101003759
0.775     -0.028453610457    -0.014520515429    0.001899033512    -0.002510971127    0.015700121039    0.022480476252    0.001329779004    -0.002092914812
            0.001899033512    -0.002510971127    -0.006212694782    0.040472270650    0.002882050474    -0.002976971183    0.005988504860    -0.000140328840
            0.015700121039    0.022480476252    0.002882050474    -0.002976971183    -0.030289955838    -0.017093049215    0.001898079535    -0.002471418851
