# GHz S RI R 45
0.000     0.069797047376    0.038692321754    0.000000959202    0.000000193753    0.024590382886    0.044321533869    0.000001241465    0.000000523388
            0.000000959177    0.000000193784    0.071176625219    0.039022599370    0.000001202296    0.000000428021    0.024818425045    0.044059560389
            0.024590382886    0.044321533869    0.000001202296    0.000000427968    0.069660038065    0.038144450924    0.000001515912    0.000000876430
            0.000001241462    0.000000523485    0.024818425045    0.044059560389    0.000001515929    0.000000876432    0.071189462276    0.038430825979
0.025     0.134074125279    0.037803229962    0.000001460032    -0.000000257620    0.097101978248    0.060613176314    0.000001894190    0.000000774203
            0.000001460032    -0.000000257608    0.137129341358    0.035664822580    0.000002339247    -0.000000817520    0.098042300649    0.058515744282
            0.097101365327    0.060613780506    0.000002339238    -0.000000817538    0.133296710363    0.037170413730    0.000002577184    0.000000134596
            0.000001894189    0.000000774192    0.098046127474    0.058520005631    0.000002577179    0.000000134588    0.136383745895    0.035029730670
0.050     0.156252514236    -0.054818042160    -0.000001096491    -0.000000083173    0.145989077116    -0.041414793166    -0.000000380073    0.000001412279
            -0.000001096491    -0.000000083174    0.155001287520    -0.062932408890    -0.000002070701    -0.000001340571    0.143553382191    -0.047990208513
            0.145988799889    -0.041416063513    -0.000002070708    -0.000001340577    0.154825400576    -0.054470421209    -0.000000820419    -0.000000252683
            -0.000000380087    0.000001412281    0.143553401971    -0.047990307046    -0.000000820420    -0.000000252685    0.153556189274    -0.062662825317
0.075     0.070648181979    -0.081355080108    -0.000000758625    0.000005070655    0.045242247791    -0.084061007204    -0.000000648868    0.000007332168
            -0.000000758625    0.000005070657    0.061732314219    -0.085583017246    -0.000001378324    0.000006931317    0.036400954849    -0.087276571420
            0.045241745615    -0.084060721018    -0.000001378325    0.000006931329    0.070056606440    -0.080088702052    -0.000001273869    0.000007592972
            -0.000000648870    0.000007332174    0.036400942696    -0.087276585157    -0.000001273870    0.000007592972    0.061022165498    -0.084316848735
0.100     0.055426376006    -0.012442607572    0.000005873490    0.000003642233    0.021073419915    0.004632805263    0.000006767554    0.000008318648
            0.000005873491    0.000003642233    0.051436274762    -0.009991263947    0.000009636586    0.000003756728    0.017463815494    0.007139991517
            0.021073299607    0.004632886775    0.000009636587    0.000003756728    0.055798411966    -0.011670297061    0.000009800726    0.000007965273
            0.000006767556    0.000008318648    0.017463783470    0.007139995856    0.000009800727    0.000007965272    0.051832895773    -0.009137627409
0.125     0.117575438530    -0.018552820465    0.000001981248    -0.000001801498    0.103491381716    0.002333678075    0.000005713484    0.000002046913
            0.000001981247    -0.000001801498    0.118333030258    -0.025605483889    0.000002916461    -0.000005864298    0.103843725904    -0.005598097929
            0.103491395441    0.002333513027    0.000002916460    -0.000005864299    0.117597866650    -0.018482076452    0.000008347737    -0.000002476118
            0.000005713484    0.000002046912    0.103843730682    -0.005598009302    0.000008347737    -0.000002476119    0.118426650303    -0.025671252703
0.150     0.113017022511    -0.085470285832    -0.000002093147    0.000003754666    0.094818976226    -0.080814221882    -0.000000607826    0.000005176482
            -0.000002093147    0.000003754666    0.098200152878    -0.099116080720    -0.000003580456    0.000003623398    0.078475821936    -0.094520616747
            0.094818959300    -0.080814241740    -0.000003580456    0.000003623399    0.112447766467    -0.084883476025    -0.000000820859    0.000001235893
            -0.000000607826    0.000005176482    0.078475802140    -0.094520633183    -0.000000820861    0.000001235895    0.097400623774    -0.098699585768
0.175     0.049501466478    -0.097541588319    0.000004435313    0.000007807436    0.017280473829    -0.077886687323    0.000003276252    0.000013893581
            0.000004435314    0.000007807436    0.024517945142    -0.092343481581    0.000008519190    0.000008467574    -0.008167750965    -0.071687708277
            0.017280474045    -0.077886688299    0.000008519190    0.000008467574    0.049717455300    -0.096049405576    0.000005597166    0.000012229240
            0.000003276252    0.000013893581    -0.008167751078    -0.071687709270    0.000005597166    0.000012229239    0.024453228867    -0.090667766490
0.200     0.030559674838    -0.046617109257    0.000007763360    0.000000708253    0.016492621405    -0.016307260117    0.000013373673    0.000009434217
            0.000007763360    0.000000708253    0.025311009705    -0.032691299252    0.000011682605    -0.000004728994    0.011427025971    -0.002225905333
            0.016492662229    -0.016307277142    0.000011682605    -0.000004728994    0.032146224102    -0.045769563725    0.000019093291    0.000004152478
            0.000013373673    0.000009434217    0.011427002955    -0.002225877044    0.000019093291    0.000004152479    0.027009959989    -0.031764376495
0.225     0.081113883339    -0.040726598003    0.000001008091    -0.000000410133    0.069850568734    -0.027062582562    0.000007493758    0.000000312670
            0.000001008091    -0.000000410133    0.076848106960    -0.048873110364    0.000000689860    -0.000004265799    0.065001316441    -0.034991635050
            0.069850568734    -0.027062582562    0.000000689860    -0.000004265799    0.082309650899    -0.041269878275    0.000011170586    -0.000008690637
            0.000007493758    0.000000312670    0.065001316441    -0.034991635050    0.000011170587    -0.000008690635    0.077904326417    -0.049738849507
0.250     0.080360710852    -0.111666812522    0.000001242673    0.000005091852    0.053158165065    -0.088223935915    -0.000001155330    0.000007546805
            0.000001242673    0.000005091852    0.046676951493    -0.115016873013    0.000004672269    0.000002879678    0.019265010537    -0.090847450313
            0.053158165065    -0.088223935915    0.000004672269    0.000002879678    0.080451794529    -0.111729980520    0.000000572844    -0.000000987424
            -0.000001155330    0.000007546805    0.019265010537    -0.090847450313    0.000000572844    -0.000000987424    0.046179593249    -0.115037400973
0.275     -0.007413050859    -0.118118008183    0.000006142460    0.000005569164    -0.016251451327    -0.075233194461    0.000007897959    0.000017558634
            0.000006142460    0.000005569164    -0.036128862485    -0.086292498854    0.000009888177    -0.000001569839    -0.044586991713    -0.043225519859
            -0.016251451327    -0.075233194461    0.000009888177    -0.000001569839    -0.006246332810    -0.117178173711    0.000011364615    0.000009786745
            0.000007897959    0.000017558634    -0.044586991713    -0.043225519859    0.000011364615    0.000009786745    -0.035190670670    -0.084862682191
0.300     -0.013538111358    -0.029921511750    0.000008200075    0.000000068847    -0.007495795788    -0.008367994287    0.000019287708    0.000005014257
            0.000008200075    0.000000068847    -0.009051650352    -0.004657771373    0.000008669922    -0.000006039833    -0.002803754687    0.017758001483
            -0.007495795788    -0.008367994287    0.000008669922    -0.000006039833    -0.010956449304    -0.030363818304    0.000025546102    -0.000005683218
            0.000019287708    0.000005014257    -0.002803754687    0.017758001483    0.000025546102    -0.000005683218    -0.006424189756    -0.005167548241
0.325     0.068896949200    -0.051981154832    0.000002005130    -0.000002712815    0.050490507381    -0.034384023663    0.000002965582    -0.000005269857
            0.000002005130    -0.000002712815    0.058714490515    -0.052924174060    0.000006293406    -0.000008701337    0.042636112536    -0.033750769414
            0.050490532347    -0.034384065173    0.000006293406    -0.000008701337    0.070276501994    -0.054010861547    0.000007800728    -0.000021430616
            0.000002965583    -0.000005269857    0.042636113320    -0.033750770035    0.000007800728    -0.000021430616    0.059496127924    -0.055127886806
0.350     0.014850815971    -0.141382263576    -0.000001453702    0.000003676641    0.004793435408    -0.092293408694    -0.000005485401    0.000012696583
            -0.000001453702    0.000003676641    -0.021796094227    -0.117295894945    0.000000636269    -0.000008619694    -0.029570483156    -0.069602888865
            0.004793437174    -0.092293411606    0.000000636269    -0.000008619694    0.015040094858    -0.142450766275    -0.000006081948    -0.000003804133
            -0.000005485401    0.000012696583    -0.029570483938    -0.069602890706    -0.000006081948    -0.000003804133    -0.022235894937    -0.117811333803
0.375     -0.080265154392    -0.073655970541    0.000007369368    0.000007831435    -0.054516556502    -0.035841147483    0.000015376668    0.000018995188
            0.000007369368    0.000007831435    -0.087868448813    -0.018924209495    0.000003711305    -0.000000465800    -0.062309735756    0.017403204801
            -0.054516556502    -0.035841147483    0.000003711305    -0.000000465800    -0.078795480552    -0.074192395978    0.000016323304    0.000006683902
            0.000015376668    0.000018995188    -0.062309735756    0.017403204801    0.000016323304    0.000006683902    -0.086446646825    -0.018901070456
0.400     -0.005472998993    0.004631922333    0.000010381680    -0.000006385184    0.004071383071    0.011852040064    0.000016978972    -0.000008018276
            0.000010381680    -0.000006385184    0.013862208794    0.033340408698    0.000014504709    -0.000012164898    0.025029426673    0.042068625156
            0.004071383071    0.011852040064    0.000014504709    -0.000012164898    -0.003408320063    0.002413021504    0.000024012145    -0.000025586223
            0.000016978972    -0.000008018276    0.025029426673    0.042068625156    0.000024012145    -0.000025586223    0.015578495426    0.031134865892
0.425     0.034612316866    -0.089089628574    -0.000007550672    -0.000006219118    0.021838592828    -0.056743419862    -0.000013171691    -0.000003372997
            -0.000007550672    -0.000006219118    0.030495749082    -0.076751237841    -0.000004150371    -0.000024150728    0.024019177378    -0.045139147598
            0.021838592828    -0.056743419862    -0.000004150371    -0.000024150728    0.035074534071    -0.092229133035    -0.000013148222    -0.000029866647
            -0.000013171691    -0.000003372997    0.024019177378    -0.045139147598    -0.000013148222    -0.000029866647    0.030239360104    -0.079438140974
0.450     -0.079523460914    -0.103064061003    -0.000004656010    0.000012445753    -0.055171336213    -0.053402154133    -0.000004725605    0.000024669850
            -0.000004656010    0.000012445753    -0.093959901949    -0.059708735605    -0.000015080148    -0.000002261227    -0.067575934277    -0.015155370279
            -0.055171336213    -0.053402154133    -0.000015080148    -0.000002261227    -0.079914990146    -0.105267743779    -0.000013241551    0.000004837343
            -0.000004725605    0.000024669850    -0.067575934277    -0.015155370279    -0.000013241551    0.000004837343    -0.094669592473    -0.061097723198
0.475     -0.079510053562    0.009933166590    0.000015126509    0.000004316056    -0.037836941842    0.022568942133    0.000020936890    0.000009703636
            0.000015126509    0.000004316056    -0.058057611738    0.064955029423    0.000012036579    0.000001731829    -0.017515990265    0.075539368967
            -0.037836941842    0.022568942133    0.000012036579    0.000001731829    -0.079275553675    0.007986178549    0.000020866533    -0.000005175682
            0.000020936890    0.000009703636    -0.017515990265    0.075539368967    0.000020866533    -0.000005175682    -0.057972703135    0.063634664996
0.500     0.010942068499    -0.015178221931    -0.000002159303    -0.000016426526    0.019546175437    -0.012841088588    -0.000004705661    -0.000014549766
            -0.000002159303    -0.000016426526    0.047432641497    0.011001424035    0.000004591743    -0.000033001867    0.059704601501    0.012892464788
            0.019546175437    -0.012841088588    0.000004591743    -0.000033001867    0.011364006720    -0.018001377113    -0.000001544284    -0.000042476708
            -0.000004705661    -0.000014549766    0.059704601501    0.012892464788    -0.000001544284    -0.000042476708    0.047414081936    0.008819800110
0.525     -0.051420691082    -0.080434075317    -0.000020174351    0.000007742665    -0.042384960214    -0.047740957534    -0.000024854880    0.000016773868
            -0.000020174351    0.000007742665    -0.035896757492    -0.068435253739    -0.000032665861    -0.000016098723    -0.020698996294    -0.041178932948
            -0.042384960214    -0.047740957534    -0.000032665861    -0.000016098723    -0.052125751715    -0.083935764150    -0.000037358256    -0.000013669036
            -0.000024854880    0.000016773868    -0.020698996294    -0.041178932948    -0.000037358256    -0.000013669036    -0.036828536348    -0.071065325316
0.550     -0.103254125324    0.000900274083    0.000006033536    0.000020559540    -0.060577023893    0.025013032308    0.000004535526    0.000030197517
            0.000006033536    0.000020559540    -0.093331823732    0.037155867958    -0.000009760986    0.000017136832    -0.050874329671    0.054311280975
            -0.060577025741    0.025013033071    -0.000009760986    0.000017136832    -0.105248277748    -0.001970373214    -0.000008840475    0.000013743800
            0.000004535526    0.000030197517    -0.050874330354    0.054311281705    -0.000008840475    0.000013743800    -0.095534444616    0.035049928256
0.575     -0.028407142335    0.030311711624    0.000011300894    -0.000009546012    0.010243589572    0.023315148813    0.000008200710    -0.000000385938
            0.000011300894    -0.000009546012    0.012368631429    0.072945042232    0.000015349652    -0.000016372909    0.049631580578    0.062893579772
            0.010243589572    0.023315148813    0.000015349652    -0.000016372909    -0.030193473142    0.028646817935    0.000006701507    -0.000020589813
            0.000008200710    -0.000000385938    0.049631580578    0.062893579772    0.000006701507    -0.000020589813    0.010402602755    0.072404234599
0.600     -0.037602182794    -0.033246418720    -0.000024394517    -0.000004937538    -0.022307211121    -0.037925053208    -0.000027062326    0.000005233478
            -0.000024394517    -0.000004937538    0.018162277547    -0.024381910287    -0.000031293080    -0.000031915191    0.035735443284    -0.033345093090
            -0.022307211121    -0.037925053208    -0.000031293080    -0.000031915191    -0.038303318227    -0.035334579544    -0.000036088910    -0.000028070594
            -0.000027062326    0.000005233478    0.035735443284    -0.033345093090    -0.000036088910    -0.000028070594    0.017699352847    -0.025404878053
0.625     -0.095591989535    0.009923427746    -0.000012312504    0.000029678049    -0.075918100541    0.019673371040    -0.000017917390    0.000038078065
            -0.000012312504    0.000029678049    -0.071961901467    0.000677114550    -0.000037274193    0.000019048940    -0.049910454363    0.003073315821
            -0.075918100541    0.019673371040    -0.000037274193    0.000019048940    -0.097498804441    0.006525004078    -0.000039575926    0.000014452444
            -0.000017917390    0.000038078065    -0.049910454363    0.003073315821    -0.000039575926    0.000014452444    -0.073675148160    -0.002161852720
0.650     -0.045663496233    0.057835910410    0.000016133054    0.000013662811    -0.011414364577    0.059514576159    0.000005705002    0.000028976258
            0.000016133054    0.000013662811    -0.031363241482    0.078500186737    0.000009557156    0.000015598704    0.001387864331    0.072829780438
            -0.011414364577    0.059514576159    0.000009557156    0.000015598704    -0.049608482958    0.055906089550    -0.000007166104    0.000014659090
            0.000005705002    0.000028976258    0.001387864331    0.072829780438    -0.000007166104    0.000014659090    -0.035646129564    0.077541699823
0.675     -0.031501897348    0.009589514610    -0.000008074892    -0.000008827371    0.003852435875    -0.009018834741    -0.000009918737    0.000012299526
            -0.000008074892    -0.000008827371    0.023836644384    0.032510575485    -0.000009740926    -0.000027144579    0.055472441170    0.009661018669
            0.003852434534    -0.009018839446    -0.000009740926    -0.000027144579    -0.033879876830    0.009486527190    -0.000018781584    -0.000011057477
            -0.000009918737    0.000012299526    0.055472441170    0.009661018669    -0.000018781584    -0.000011057477    0.021771926462    0.034315603323
0.700     -0.083636562791    0.026529730959    -0.000024770917    0.000024163381    -0.068442925292    0.001122898247    -0.000024976591    0.000033909455
            -0.000024770917    0.000024163381    -0.029158352202    0.002032317888    -0.000048332275    0.000007028234    -0.016828560330    -0.028284559107
            -0.068442925292    0.001122898247    -0.000048332275    0.000007028234    -0.084409453487    0.025279671068    -0.000043934439    0.000007189234
            -0.000024976591    0.000033909455    -0.016828560330    -0.028284559107    -0.000043934439    0.000007189234    -0.028991520827    0.001288347577
0.725     -0.051230146476    0.081408421147    0.000007503089    0.000035449037    -0.048698534030    0.070752315617    -0.000007902249    0.000048848358
            0.000007503097    0.000035449033    -0.044870354356    0.055744878540    -0.000009777266    0.000038305728    -0.042568429268    0.039372494784
            -0.048698532896    0.070752313970    -0.000009777266    0.000038305729    -0.054251013106    0.078890044049    -0.000028848319    0.000032426936
            -0.000007902247    0.000048848349    -0.042568423130    0.039372502893    -0.000028848312    0.000032426929    -0.048039348098    0.053381536139
0.750     -0.015020354683    0.049036999862    0.000013105219    0.000008193215    0.004582005094    0.047518049504    0.000004062898    0.000040441800
            0.000013105219    0.000008193215    -0.004705072148    0.064239386151    0.000009880876    0.000001256293    0.012431358875    0.054067078161
            0.004582005094    0.047518049504    0.000009880876    0.000001256293    -0.019441009993    0.049477722902    -0.000010083238    0.000026121413
            0.000004062898    0.000040441800    0.012431358875    0.054067078161    -0.000010083238    0.000026121413    -0.009167050152    0.066101003759
0.775     -0.051536443522    0.037958746811    -0.000013260517    0.000011420925    -0.029738339144    0.011972977541    -0.000005087050    0.000034054723
            -0.000013260517    0.000011420925    -0.006212694782    0.040472270650    -0.000029753504    -0.000002564021    0.005988504860    -0.000140328840
            -0.029738339144    0.011972977541    -0.000029753504    -0.000002564021    -0.049852588570    0.039020607922    -0.000018668126    0.000017773024
