!$
! Info: Touchstone file created by Circ.  Input file=Intel_C2M_200G_2p0in_202208016_staggered.circ
!$
# Hz S RI R 50
0	0.01230167	1.957522e-24	0.9874968	-3.617291e-24	7.697271e-05	2.238696e-22	-0.000208835	2.557492e-20
	0.9874968	-3.615958e-24	0.01285897	4.127021e-24	-0.0002088902	2.558168e-20	0.0003027803	2.76399e-22
	7.703109e-05	2.239965e-22	-0.0002090283	2.559859e-20	0.01229959	1.860891e-24	0.9874971	-3.622825e-24
	-0.0002089731	2.559183e-20	0.0003028502	2.765897e-22	0.9874971	-3.624166e-24	0.01286038	4.17457e-24
1e+07	0.01477685	0.003542506	0.9836283	-0.05645675	0.0008495338	0.004111079	-0.0006627741	-0.0007302284
	0.9836283	-0.05645675	0.01496734	0.003419418	-0.0006628597	-0.0007301851	0.0008469493	0.004114867
	0.0008495338	0.004111079	-0.0006628597	-0.0007301851	0.01468756	0.00352019	0.9837207	-0.05641022
	-0.0006627741	-0.0007302284	0.0008469493	0.004114867	0.9837207	-0.05641022	0.01487586	0.003398119
2e+07	0.01698462	0.005066903	0.9767575	-0.1106655	0.001655102	0.007844234	-0.0008952386	-0.001161863
	0.9767575	-0.1106655	0.01789211	0.004881876	-0.0008954206	-0.001161655	0.001588399	0.00791415
	0.001655114	0.007844223	-0.0008954129	-0.001161766	0.01686911	0.005074057	0.9768865	-0.1106291
	-0.0008952304	-0.001161968	0.001588488	0.007914046	0.9768865	-0.1106291	0.01776253	0.004900059
3e+07	0.0187835	0.00571301	0.9674487	-0.1634932	0.002790437	0.01154071	-0.001151647	-0.00155957
	0.9674487	-0.1634932	0.020431	0.00502913	-0.001151908	-0.001558935	0.002759402	0.01155837
	0.002790403	0.01154074	-0.00115195	-0.001558938	0.01864365	0.005760552	0.9676038	-0.1634766
	-0.001151659	-0.001559577	0.002759379	0.01155835	0.9676038	-0.1634766	0.02028655	0.00509471
4e+07	0.02014847	0.005881297	0.9555733	-0.2153232	0.004332311	0.01505212	-0.0014389	-0.001917107
	0.9555733	-0.2153232	0.0229475	0.004688112	-0.001439049	-0.001915955	0.004270555	0.01507477
	0.004332302	0.01505214	-0.001439055	-0.001915952	0.0199964	0.00597168	0.9557478	-0.215332
	-0.001438903	-0.001917094	0.004270555	0.01507477	0.9557478	-0.215332	0.02279613	0.004807222
5e+07	0.02118081	0.005828682	0.9411162	-0.2661611	0.006232799	0.01837364	-0.001755394	-0.002231626
	0.9411162	-0.2661611	0.02545259	0.003861055	-0.001755236	-0.00223003	0.006137545	0.01840957
	0.006232799	0.01837365	-0.001755233	-0.00223003	0.02102225	0.005963447	0.9413051	-0.2661994
	-0.001755391	-0.002231627	0.006137549	0.01840958	0.9413051	-0.2661994	0.02530456	0.004037196
6e+07	0.02193504	0.005646466	0.9241053	-0.3159406	0.008476437	0.02147607	-0.002096346	-0.002504928
	0.9241053	-0.3159406	0.02790513	0.002622113	-0.002095738	-0.002502941	0.00833852	0.02152977
	0.008476458	0.02147606	-0.002095736	-0.002502941	0.02177478	0.005827246	0.9243034	-0.3160117
	-0.002096344	-0.002504928	0.008338519	0.02152977	0.9243034	-0.3160117	0.02777098	0.00285669
7e+07	0.02243243	0.005407952	0.9045837	-0.3645752	0.01104026	0.02432912	-0.002458822	-0.002739069
	0.9045837	-0.3645752	0.03029734	0.001024188	-0.002457536	-0.002736856	0.01085088	0.0244069
	0.01104026	0.02432912	-0.002457478	-0.002736898	0.0222752	0.005636026	0.904785	-0.3646818
	-0.002458819	-0.00273907	0.01085088	0.0244069	0.904785	-0.3646818	0.03018714	0.001316656
8e+07	0.02269905	0.00518206	0.8826022	-0.4119685	0.01389885	0.02690501	-0.002840412	-0.002935413
	0.8826022	-0.4119685	0.03261974	-0.0009069196	-0.002838296	-0.002933186	0.01364919	0.02701432
	0.01389885	0.02690501	-0.002838298	-0.002933184	0.02254958	0.005458927	0.8828027	-0.4121131
	-0.002840414	-0.002935411	0.01364919	0.02701432	0.8828027	-0.4121131	0.03254334	-0.0005584772
9e+07	0.0227724	0.005028936	0.8582174	-0.4580214	0.01702532	0.02917832	-0.003239274	-0.003094893
	0.8582174	-0.4580214	0.03485359	-0.003150982	-0.003236211	-0.003092918	0.01670643	0.02932846
	0.01702531	0.02917833	-0.003236212	-0.003092909	0.0226352	0.005356388	0.8584092	-0.4582063
	-0.003239278	-0.003094884	0.01670643	0.02932845	0.8584092	-0.4582063	0.03482145	-0.002748856
1e+08	0.02271297	0.005022217	0.8314725	-0.5026609	0.02039278	0.03112596	-0.003655775	-0.00321881
	0.8314725	-0.5026609	0.03699292	-0.005659387	-0.003651734	-0.003217469	0.01999615	0.03132889
	0.02039278	0.03112596	-0.003651734	-0.003217469	0.0225934	0.005406583	0.8316479	-0.5028929
	-0.003655775	-0.003218811	0.01999615	0.03132889	0.8316479	-0.5028929	0.03701973	-0.0052043
1.1e+08	0.02263339	0.005017271	0.8023636	-0.5456229	0.02398561	0.03272483	-0.004088555	-0.003293717
	0.8023636	-0.5456229	0.03911941	-0.008539581	-0.004084458	-0.00329275	0.02348377	0.03298681
	0.02398561	0.03272482	-0.004084457	-0.003292751	0.02261526	0.005460215	0.802504	-0.545886
	-0.004088554	-0.003293719	0.02348377	0.03298681	0.802504	-0.545886	0.03922194	-0.008039875
1.2e+08	0.02237485	0.005120269	0.7711408	-0.5868251	0.02772488	0.03394792	-0.004521411	-0.003334583
	0.7711408	-0.5868251	0.04102205	-0.01177139	-0.004516698	-0.003334222	0.02712831	0.03429227
	0.02772489	0.03394792	-0.004516697	-0.003334223	0.02240962	0.005575694	0.7712482	-0.5871127
	-0.004521411	-0.003334584	0.02712831	0.03429227	0.7712482	-0.5871127	0.041202	-0.01125231
1.3e+08	0.02201113	0.005388248	0.7378808	-0.6262076	0.03158825	0.03478924	-0.004958295	-0.003342768
	0.7378808	-0.6262076	0.04269838	-0.01528634	-0.004952989	-0.003343813	0.03089729	0.03523593
	0.03158825	0.03478924	-0.004952989	-0.003343814	0.02207293	0.005856641	0.7379551	-0.6265167
	-0.004958295	-0.003342769	0.03089729	0.03523593	0.7379551	-0.6265167	0.04295325	-0.01476434
1.4e+08	0.02158924	0.005839836	0.7026799	-0.6636842	0.03554421	0.03524203	-0.005399718	-0.003319046
	0.7026799	-0.6636842	0.04413455	-0.01904937	-0.005394522	-0.003321629	0.03475586	0.03581042
	0.03554421	0.03524203	-0.005394521	-0.003321631	0.02167238	0.006329404	0.7027192	-0.664009
	-0.005399718	-0.003319047	0.03475586	0.03581042	0.7027192	-0.664009	0.04445952	-0.01853561
1.5e+08	0.02115002	0.006486138	0.66564	-0.6991683	0.03955816	0.03530068	-0.00584573	-0.003263464
	0.66564	-0.6991683	0.04531655	-0.02303213	-0.005841098	-0.003267683	0.03866903	0.03601133
	0.03955816	0.03530068	-0.005841098	-0.003267684	0.02125747	0.00700148	0.665644	-0.6995042
	-0.00584573	-0.003263465	0.03866903	0.03601133	0.665644	-0.6995042	0.04570681	-0.02253457
1.6e+08	0.02073201	0.007333025	0.6268676	-0.7325736	0.04359405	0.03496205	-0.006295956	-0.003175816
	0.6268676	-0.7325736	0.04623058	-0.02720884	-0.006292361	-0.003181488	0.04260174	0.03583773
	0.04359405	0.03496205	-0.006292361	-0.003181489	0.02086977	0.007874687	0.6268357	-0.7329183
	-0.006295956	-0.003175816	0.04260174	0.03583773	0.6268357	-0.7329183	0.04668169	-0.02673364
1.7e+08	0.02037316	0.008381763	0.5864744	-0.763822	0.04761532	0.03422576	-0.006749749	-0.003055705
	0.5864744	-0.763822	0.0468636	-0.03155484	-0.006747604	-0.003062445	0.04651896	0.0352915
	0.04761532	0.03422575	-0.006747604	-0.003062445	0.02054706	0.008947109	0.5864064	-0.7641719
	-0.006749749	-0.003055705	0.04651896	0.0352915	0.5864064	-0.7641719	0.04737178	-0.0311072
1.8e+08	0.02011086	0.009628528	0.5445764	-0.7928397	0.05158535	0.03309453	-0.007206301	-0.002902583
	0.5445764	-0.7928397	0.04720393	-0.03604524	-0.007205847	-0.002910042	0.05038656	0.03437783
	0.05158535	0.03309453	-0.007205847	-0.002910042	0.02032544	0.01021288	0.5444719	-0.7931913
	-0.007206301	-0.002902584	0.05038656	0.03437783	0.5444719	-0.7931913	0.04776507	-0.03563
1.9e+08	0.01998214	0.01106449	0.5012936	-0.8195562	0.05546803	0.03157464	-0.007664725	-0.002715414
	0.5012936	-0.8195562	0.04724041	-0.04065495	-0.007666105	-0.002723228	0.0541711	0.03310544
	0.05546803	0.03157464	-0.007666105	-0.002723228	0.02024021	0.01166198	0.5011549	-0.8199074
	-0.007664725	-0.002715414	0.0541711	0.03310544	0.5011549	-0.8199074	0.04785105	-0.04027662
2e+08	0.0200225	0.01267534	0.4567498	-0.8439086	0.05922804	0.02967547	-0.008123805	-0.00249312
	0.4567498	-0.8439086	0.04696436	-0.04535832	-0.008127052	-0.002501094	0.05784006	0.03148549
	0.05922804	0.02967547	-0.008127052	-0.002501094	0.02032573	0.01328026	0.4565753	-0.8442557
	-0.008123805	-0.00249312	0.05784006	0.03148549	0.4565753	-0.8442557	0.0476198	-0.04502116
2.1e+08	0.02026507	0.01444213	0.4110716	-0.8658414	0.06283109	0.02740957	-0.008582111	-0.002234814
	0.4110716	-0.8658414	0.04636795	-0.05012929	-0.008587331	-0.002242411	0.06136307	0.02953268
	0.06283109	0.02740957	-0.008587331	-0.002242411	0.02061384	0.01504835	0.4108626	-0.8661813
	-0.008582111	-0.002234814	0.06136307	0.02953268	0.4108626	-0.8661813	0.04706417	-0.04983725
2.2e+08	0.02074073	0.01634062	0.3643878	-0.885304	0.06624426	0.02479244	-0.009037887	-0.001938954
	0.3643878	-0.885304	0.0454461	-0.05494134	-0.009045023	-0.001945981	0.06471103	0.02726417
	0.06624426	0.02479244	-0.009045023	-0.001945981	0.0211342	0.0169427	0.364145	-0.8856341
	-0.009037887	-0.001938954	0.06471103	0.02726417	0.364145	-0.8856341	0.04617798	-0.05469789
2.3e+08	0.02147704	0.01834263	0.3168316	-0.9022514	0.06943662	0.02184248	-0.009488889	-0.001604719
	0.3168316	-0.9022514	0.04419531	-0.05976753	-0.009498043	-0.001610646	0.0678569	0.02469955
	0.06943662	0.02184248	-0.009498042	-0.001610646	0.02191401	0.01893571	0.3165548	-0.9025695
	-0.009488889	-0.001604719	0.0678569	0.02469955	0.3165548	-0.9025695	0.04495756	-0.05957569
2.4e+08	0.02249769	0.02041618	0.2685355	-0.9166492	0.07237888	0.01858081	-0.009932945	-0.001230542
	0.2685355	-0.9166492	0.04261435	-0.06458119	-0.009943942	-0.001235219	0.07077633	0.02186112
	0.07237888	0.01858081	-0.009943942	-0.001235219	0.02297621	0.02099543	0.2682268	-0.9169533
	-0.009932945	-0.001230542	0.07077633	0.02186112	0.2682268	-0.9169533	0.04340156	-0.06444327
2.5e+08	0.02382205	0.02252569	0.2196367	-0.9284687	0.07504395	0.01503082	-0.01036726	-0.0008154621
	0.2196367	-0.9284687	0.04070461	-0.06935559	-0.01037991	-0.0008185326	0.07344719	0.01877291
	0.07504395	0.01503082	-0.01037991	-0.0008185326	0.02434008	0.02308722	0.2192955	-0.928755
	-0.01036726	-0.0008154622	0.07344719	0.01877291	0.2192955	-0.928755	0.04151084	-0.06927312
2.6e+08	0.02546518	0.02463313	0.1702702	-0.9376873	0.07740748	0.01121827	-0.01078891	-0.0003588734
	0.1702702	-0.9376873	0.03846876	-0.07406411	-0.01080304	-0.0003597448	0.07585003	0.01546063
	0.07740748	0.01121827	-0.01080304	-0.0003597448	0.02602032	0.02517292	0.1698995	-0.9379527
	-0.01078891	-0.0003588734	0.07585003	0.01546063	0.1698995	-0.9379527	0.03928831	-0.07403811
2.7e+08	0.02743746	0.02669816	0.1205732	-0.9442895	0.07944703	0.007170779	-0.01119463	0.0001399143
	0.1205732	-0.9442895	0.03591233	-0.07868083	-0.01120992	0.0001413083	0.0779683	0.01195176
	0.07944703	0.007170779	-0.01120992	0.0001413083	0.02802715	0.02721265	0.1201739	-0.9445328
	-0.01119463	0.0001399143	0.0779683	0.01195176	0.1201739	-0.9445328	0.03673941	-0.07871162
2.8e+08	0.02974379	0.02867871	0.07068311	-0.9482686	0.08114322	0.002917625	-0.01158083	0.0006809936
	0.07068311	-0.9482686	0.03304284	-0.08318058	-0.01159699	0.0006851936	0.07978852	0.008274542
	0.08114322	0.002917625	-0.01159699	0.0006851936	0.03036536	0.02916495	0.07025674	-0.9484876
	-0.01158083	0.0006809936	0.07978852	0.008274542	0.07025674	-0.9484876	0.03387173	-0.08326748
2.9e+08	0.03238428	0.03053203	0.02073779	-0.9496252	0.08247953	-0.001510406	-0.0119438	0.00126478
	0.02073779	-0.9496252	0.02986948	-0.08753865	-0.01196054	0.001271796	0.08129996	0.004458445
	0.08247953	-0.001510406	-0.01196054	0.001271796	0.03303488	0.03098678	0.02028618	-0.9498177
	-0.0119438	0.00126478	0.08129996	0.004458445	0.02028618	-0.9498177	0.03069481	-0.08768061
3e+08	0.03535368	0.03221486	-0.0291268	-0.9483649	0.08344188	-0.006081368	-0.01227979	0.001890425
	-0.0291268	-0.9483649	0.02640379	-0.09173156	-0.01229673	0.001900453	0.08249485	0.0005327979
	0.08344188	-0.006081368	-0.01229673	0.001900453	0.03603052	0.03263526	-0.02960212	-0.9485284
	-0.01227979	0.001890425	0.08249485	0.0005327979	-0.02960212	-0.9485284	0.02722039	-0.09192666
3.1e+08	0.03864162	0.0336844	-0.07877643	-0.9445032	0.08401955	-0.01076254	-0.01258494	0.002557056
	-0.07877643	-0.9445032	0.02265903	-0.09573702	-0.0126014	0.002570467	0.08336888	-0.003472122
	0.08401955	-0.01076254	-0.0126014	0.002570467	0.03934163	0.03406719	-0.07927153	-0.9446343
	-0.01258494	0.002557056	0.08336888	-0.003472122	-0.07927153	-0.9446343	0.02346206	-0.09598278
3.2e+08	0.04223246	0.03489813	-0.1280745	-0.93806	0.08420476	-0.0155205	-0.01285529	0.003263435
	-0.1280745	-0.93806	0.01865032	-0.09953384	-0.01287082	0.003280336	0.08392053	-0.007526833
	0.08420476	-0.0155205	-0.01287082	0.003280336	0.04295217	0.03524105	-0.1285897	-0.9381585
	-0.01285529	0.003263435	0.08392053	-0.007526833	-0.1285897	-0.9381585	0.01943521	-0.09982765
3.3e+08	0.04610568	0.03581535	-0.1768909	-0.9290622	0.08399235	-0.0203214	-0.01308683	0.004008177
	-0.1768909	-0.9290622	0.01439407	-0.1031024	-0.01310112	0.004028006	0.08415076	-0.01160204
	0.08399235	-0.0203214	-0.01310112	0.004028006	0.04684136	0.03611566	-0.1774223	-0.9291266
	-0.01308683	0.004008177	0.08415076	-0.01160204	-0.1774223	-0.9291266	0.01515722	-0.1034408
3.4e+08	0.05023547	0.03639722	-0.2250928	-0.9175452	0.08338064	-0.02513158	-0.0132759	0.004788588
	-0.2250928	-0.9175452	0.009908811	-0.1064245	-0.01328821	0.004811786	0.0840641	-0.01566899
	0.08338064	-0.02513158	-0.01328821	0.004811786	0.05098338	0.03665285	-0.2256406	-0.9175752
	-0.0132759	0.004788588	0.0840641	-0.01566899	-0.2256406	-0.9175752	0.01064649	-0.106804
3.5e+08	0.05459162	0.03660749	-0.2725554	-0.9035503	0.08237038	-0.02991726	-0.01341885	0.005602437
	-0.2725554	-0.9035503	0.005213645	-0.1094839	-0.01342859	0.005628831	0.08366728	-0.01970047
	0.08237038	-0.02991726	-0.01342859	0.005628831	0.05534756	0.03681593	-0.2731133	-0.903543
	-0.01341885	0.005602437	0.08366728	-0.01970047	-0.2731133	-0.903543	0.005923393	-0.1099003
3.6e+08	0.05913942	0.03641255	-0.319151	-0.8871246	0.08096564	-0.03464518	-0.01351219	0.006446831
	-0.319151	-0.8871246	0.0003294911	-0.1122662	-0.01351911	0.00647596	0.08296966	-0.02367012
	0.08096564	-0.03464518	-0.01351911	0.00647596	0.05989894	0.03657215	-0.3197176	-0.8870794
	-0.01351219	0.006446831	0.08296966	-0.02367012	-0.3197176	-0.8870794	0.001009106	-0.112715
3.7e+08	0.06384032	0.03578289	-0.3647588	-0.8683205	0.07917311	-0.03928308	-0.01355296	0.007318215
	-0.3647588	-0.8683205	-0.004722066	-0.1147582	-0.0135564	0.007350024	0.08198302	-0.02755326
	0.07917311	-0.03928308	-0.0135564	0.007350024	0.06459869	0.03589214	-0.3653324	-0.8682373
	-0.01355296	0.007318215	0.08198302	-0.02755326	-0.3653324	-0.8682373	-0.004074295	-0.1152353
3.8e+08	0.06865205	0.03469239	-0.4092609	-0.8471975	0.07700192	-0.04379929	-0.01353797	0.008213669
	-0.4092609	-0.8471975	-0.009918416	-0.1169491	-0.01353784	0.008247155	0.08072107	-0.03132695
	0.07700192	-0.04379929	-0.01353784	0.008247155	0.06940418	0.03474982	-0.4098369	-0.8470745
	-0.01353797	0.008213668	0.08072107	-0.03132695	-0.4098369	-0.8470745	-0.009303209	-0.1174502
3.9e+08	0.07352821	0.03311941	-0.4525399	-0.8238207	0.07446438	-0.04816345	-0.01346527	0.009128516
	-0.4525399	-0.8238207	-0.01523634	-0.1188304	-0.01346059	0.009164011	0.07919985	-0.03497027
	0.07446438	-0.04816345	-0.01346059	0.009164011	0.07426922	0.03312477	-0.4531171	-0.8236604
	-0.01346527	0.009128516	0.07919985	-0.03497027	-0.4531171	-0.8236604	-0.01465416	-0.1193509
4e+08	0.07842031	0.0310471	-0.4944836	-0.7982626	0.07157468	-0.05234659	-0.01333226	0.0100592
	-0.4944836	-0.7982626	-0.02065194	-0.1203954	-0.01332312	0.01009582	0.07743672	-0.03846431
	0.07157468	-0.05234659	-0.01332312	0.01009582	0.07914519	0.03099977	-0.4950591	-0.7980621
	-0.01333226	0.0100592	0.07743672	-0.03846431	-0.4950591	-0.7980621	-0.02010239	-0.1209309
4.1e+08	0.08327817	0.02846357	-0.5349871	-0.7705951	0.06834947	-0.05632115	-0.01313716	0.01100158
	-0.5349871	-0.7705951	-0.02614141	-0.121639	-0.01312332	0.01103858	0.07545054	-0.04179204
	0.06834947	-0.05632115	-0.01312332	0.01103858	0.08398146	0.02836354	-0.5355596	-0.7703553
	-0.01313716	0.01100158	0.07545054	-0.04179204	-0.5355596	-0.7703553	-0.02562378	-0.1221854
4.2e+08	0.08804815	0.02536232	-0.5739455	-0.7409023	0.06480767	-0.06006159	-0.01287906	0.01195093
	-0.5739455	-0.7409023	-0.03168049	-0.1225589	-0.01286005	0.01198789	0.07326145	-0.04493965
	0.06480767	-0.06006159	-0.01286005	0.01198789	0.08872446	0.02521024	-0.5745107	-0.7406241
	-0.01287906	0.01195093	0.07326145	-0.04493965	-0.5745107	-0.7406241	-0.03119296	-0.1231124
4.3e+08	0.09267662	0.02174225	-0.6112611	-0.7092681	0.0609697	-0.06354414	-0.01255644	0.01290327
	-0.6112611	-0.7092681	-0.03724503	-0.1231544	-0.01253253	0.01293948	0.07089032	-0.04789473
	0.0609697	-0.06354414	-0.01253253	0.01293948	0.09332078	0.02153894	-0.6118176	-0.7089514
	-0.01255644	0.01290327	0.07089032	-0.04789473	-0.6118176	-0.7089514	-0.03678605	-0.1237112
4.4e+08	0.09710928	0.01760763	-0.6468405	-0.675782	0.05685806	-0.06674691	-0.01216893	0.01385405
	-0.6468405	-0.675782	-0.0428113	-0.1234266	-0.01213974	0.0138889	0.06835847	-0.05064795
	0.05685806	-0.06674691	-0.01213974	0.0138889	0.09771575	0.01735453	-0.6473854	-0.6754278
	-0.01216893	0.01385405	0.06835847	-0.05064795	-0.6473854	-0.6754278	-0.04237817	-0.1239837
4.5e+08	0.1012909	0.01296902	-0.6805926	-0.6405399	0.0524967	-0.06965039	-0.01171627	0.01479894
	-0.6805926	-0.6405399	-0.04835569	-0.1233792	-0.0116819	0.01483184	0.06568804	-0.05319216
	0.0524967	-0.06965039	-0.0116819	0.01483184	0.1018542	0.01266794	-0.6811239	-0.6401489
	-0.01171627	0.01479894	0.06568804	-0.05319216	-0.6811239	-0.6401489	-0.04794547	-0.1239338
4.6e+08	0.1051666	0.007842368	-0.712433	-0.6036405	0.0479108	-0.07223713	-0.01119808	0.01573387
	-0.712433	-0.6036405	-0.05385528	-0.1230179	-0.01115903	0.01576403	0.06290098	-0.05552294
	0.0479108	-0.07223713	-0.01115903	0.01576403	0.1056822	0.007495291	-0.7129487	-0.6032122
	-0.01119808	0.01573387	0.06290098	-0.05552294	-0.7129487	-0.6032122	-0.05346483	-0.1235675
4.7e+08	0.1086845	0.002249631	-0.7422866	-0.5651854	0.04312643	-0.0744923	-0.01061536	0.01665432
	-0.7422866	-0.5651854	-0.0592885	-0.1223493	-0.01057155	0.0166812	0.06001879	-0.05763792
	0.04312643	-0.0744923	-0.01057155	0.0166812	0.1091465	0.001859058	-0.7427828	-0.5647207
	-0.01061536	0.01665432	0.06001879	-0.05763792	-0.7427828	-0.5647207	-0.05891388	-0.1228923
4.8e+08	0.1117922	-0.003782466	-0.7700757	-0.525278	0.03817084	-0.07640297	-0.009968003	0.01755674
	-0.7700757	-0.525278	-0.06463338	-0.1213823	-0.009920193	0.01757946	0.05706288	-0.05953722
	0.03817084	-0.07640297	-0.009920193	0.01757946	0.112196	-0.004213071	-0.7705528	-0.5247796
	-0.009968003	0.01755674	0.05706288	-0.05953722	-0.7705528	-0.5247796	-0.06427109	-0.1219177
4.9e+08	0.1144402	-0.01022026	-0.7957318	-0.4840321	0.0330716	-0.07795937	-0.009257589	0.0184369
	-0.7957318	-0.4840321	-0.06986992	-0.120128	-0.009205725	0.01845514	0.05405382	-0.06122331
	0.0330716	-0.07795937	-0.009205725	0.01845514	0.1147812	-0.01068778	-0.7961887	-0.4834982
	-0.009257589	0.0184369	0.05405382	-0.06122331	-0.7961887	-0.4834982	-0.0695161	-0.1206549
5e+08	0.1165832	-0.01702593	-0.8191969	-0.4415554	0.02785658	-0.07915332	-0.008484199	0.01929127
	-0.8191969	-0.4415554	-0.07497963	-0.118598	-0.008429308	0.01930443	0.05101112	-0.06270052
	0.02785658	-0.07915332	-0.008429308	0.01930443	0.1168562	-0.01752635	-0.8196287	-0.4409895
	-0.008484199	0.01929127	0.05101112	-0.06270052	-0.8196287	-0.4409895	-0.07462985	-0.119117
5.1e+08	0.1181769	-0.02415629	-0.8404092	-0.3979642	0.02255453	-0.07997921	-0.007649836	0.02011623
	-0.8404092	-0.3979642	-0.07994422	-0.1168063	-0.007592391	0.02012382	0.04795318	-0.06397536
	0.02255453	-0.07997921	-0.007592391	0.02012382	0.1183782	-0.02468543	-0.8408169	-0.3973672
	-0.007649836	0.02011623	0.04795318	-0.06397536	-0.8408169	-0.3973672	-0.07959469	-0.117318
5.2e+08	0.1191828	-0.03156316	-0.8593194	-0.3533772	0.01719306	-0.08043439	-0.006755135	0.02090838
	-0.8593194	-0.3533772	-0.08474754	-0.1147677	-0.006695377	0.02091021	0.04489737	-0.06505605
	0.01719306	-0.08043439	-0.006695377	0.02091021	0.1193081	-0.03211662	-0.8596996	-0.352748
