!$
! Info: Touchstone file created by Circ.  Input file=Intel_C2M_200G_2p0in_202208016_staggered.circ
!$
# Hz S RI R 50
0	0.01228838	1.761748e-24	3.361774e-05	3.141051e-23	7.73611e-05	2.248722e-22	3.35505e-05	3.132752e-23
	3.361774e-05	3.141051e-23	0.01230167	1.957522e-24	3.359985e-05	3.139919e-23	7.697271e-05	2.238696e-22
	7.741949e-05	2.250007e-22	3.359985e-05	3.140001e-23	0.01228315	1.707831e-24	3.356326e-05	3.131795e-23
	3.355049e-05	3.132833e-23	7.703109e-05	2.239965e-22	3.356326e-05	3.131795e-23	0.01229959	1.860891e-24
1e+07	0.0148422	0.003561426	2.187757e-05	6.463462e-06	0.00070523	0.004032764	2.110427e-06	1.926573e-05
	2.187757e-05	6.463462e-06	0.01477685	0.003542506	2.578093e-05	1.652902e-05	0.0008495338	0.004111079
	0.00070523	0.004032764	2.578093e-05	1.652902e-05	0.01505966	0.003555787	1.328537e-05	1.424204e-05
	2.110427e-06	1.926573e-05	0.0008495338	0.004111079	1.328537e-05	1.424204e-05	0.01468756	0.00352019
2e+07	0.01704926	0.005064997	1.537605e-05	1.421312e-05	0.001515665	0.007747125	1.059861e-05	2.013246e-05
	1.537605e-05	1.421312e-05	0.01698462	0.005066903	2.730921e-05	1.892868e-05	0.001655102	0.007844234
	0.001515677	0.007747114	2.730921e-05	1.892868e-05	0.0171792	0.004990029	1.331389e-05	1.062591e-05
	1.059861e-05	2.013246e-05	0.001655114	0.007844223	1.331389e-05	1.062591e-05	0.01686911	0.005074057
3e+07	0.01884612	0.005700544	1.555469e-05	1.977004e-05	0.00265126	0.01140333	1.735344e-05	2.1156e-05
	1.555469e-05	1.977004e-05	0.0187835	0.00571301	2.919687e-05	2.211369e-05	0.002790437	0.01154071
	0.002651227	0.01140336	2.919687e-05	2.211369e-05	0.0189036	0.005640736	1.360841e-05	1.062073e-05
	1.735344e-05	2.1156e-05	0.002790403	0.01154074	1.360841e-05	1.062073e-05	0.01864365	0.005760552
4e+07	0.0202074	0.00585863	1.578504e-05	2.25187e-05	0.004190304	0.0148717	2.313527e-05	2.158801e-05
	1.578504e-05	2.25187e-05	0.02014847	0.005881297	3.113533e-05	2.399269e-05	0.004332311	0.01505212
	0.004190295	0.01487173	3.113533e-05	2.399269e-05	0.02021207	0.005835095	1.397739e-05	1.095691e-05
	2.313527e-05	2.158801e-05	0.004332302	0.01505214	1.397739e-05	1.095691e-05	0.0199964	0.00597168
5e+07	0.0212334	0.005795179	1.589107e-05	2.378147e-05	0.006085411	0.0181501	2.831632e-05	2.150584e-05
	1.589107e-05	2.378147e-05	0.02118081	0.005828682	3.731437e-05	2.311634e-05	0.006232799	0.01837364
	0.006085411	0.01815011	3.731437e-05	2.311634e-05	0.02119692	0.005819682	1.582968e-05	1.063463e-05
	2.831632e-05	2.150584e-05	0.006232799	0.01837365	1.582968e-05	1.063463e-05	0.02102225	0.005963447
6e+07	0.02197788	0.005601565	1.576249e-05	2.408499e-05	0.00832154	0.02121045	3.292029e-05	2.066405e-05
	1.576249e-05	2.408499e-05	0.02193504	0.005646466	4.262573e-05	2.119878e-05	0.008476437	0.02147607
	0.008321562	0.02121045	4.262573e-05	2.119878e-05	0.02191025	0.005682617	1.745939e-05	1.007951e-05
	3.292029e-05	2.066405e-05	0.008476458	0.02147606	1.745939e-05	1.007951e-05	0.02177478	0.005827246
7e+07	0.0224614	0.005351501	1.890829e-05	2.306887e-05	0.01087613	0.02402317	3.698671e-05	1.909104e-05
	1.890829e-05	2.306887e-05	0.02243243	0.005407952	4.703861e-05	1.830328e-05	0.01104026	0.02432912
	0.01087614	0.02402316	4.703861e-05	1.830328e-05	0.02237226	0.005495477	1.877715e-05	9.323671e-06
	3.698671e-05	1.909104e-05	0.01104026	0.02432912	1.877716e-05	9.323671e-06	0.0222752	0.005636026
8e+07	0.02270922	0.005114582	2.23118e-05	2.119673e-05	0.01372423	0.02656096	4.056544e-05	1.684875e-05
	2.23118e-05	2.119673e-05	0.02269905	0.00518206	5.055466e-05	1.458564e-05	0.01389885	0.02690501
	0.01372423	0.02656096	5.055466e-05	1.458564e-05	0.02260821	0.005327026	1.977636e-05	8.393187e-06
	4.056544e-05	1.684875e-05	0.01389885	0.02690501	1.977636e-05	8.393187e-06	0.02254958	0.005458927
9e+07	0.02275773	0.004951864	2.485661e-05	1.864888e-05	0.01683943	0.02879876	4.363525e-05	1.383887e-05
	2.485661e-05	1.864888e-05	0.0227724	0.005028936	5.306983e-05	1.004157e-05	0.01702532	0.02917832
	0.01683943	0.02879877	5.306983e-05	1.004157e-05	0.02265462	0.005238384	2.040796e-05	7.290374e-06
	4.363525e-05	1.383887e-05	0.01702531	0.02917833	2.040796e-05	7.290374e-06	0.0226352	0.005356388
1e+08	0.02266385	0.004939397	2.602711e-05	1.48549e-05	0.02019545	0.0307135	4.591444e-05	9.105806e-06
	2.602711e-05	1.48549e-05	0.02271297	0.005022217	5.400985e-05	3.865101e-06	0.02039278	0.03112596
	0.02019546	0.0307135	5.400985e-05	3.865101e-06	0.02257187	0.005312621	2.076158e-05	7.204349e-06
	4.591444e-05	9.105806e-06	0.02039278	0.03112596	2.076158e-05	7.204349e-06	0.0225934	0.005406583
1.1e+08	0.02255232	0.004943253	2.416689e-05	1.31074e-05	0.02377639	0.03228205	4.430247e-05	5.679799e-06
	2.416689e-05	1.31074e-05	0.02263339	0.005017271	5.2186e-05	4.872423e-06	0.02398561	0.03272483
	0.02377639	0.03228205	5.2186e-05	4.872423e-06	0.02257153	0.005394037	2.034006e-05	8.426112e-06
	4.430247e-05	5.679799e-06	0.02398561	0.03272482	2.034006e-05	8.426112e-06	0.02261526	0.005460215
1.2e+08	0.02226541	0.005055812	2.312214e-05	1.283237e-05	0.02750439	0.0334782	4.365343e-05	5.265446e-06
	2.312214e-05	1.283237e-05	0.02237485	0.005120269	5.108652e-05	6.695211e-06	0.02772488	0.03394792
	0.02750439	0.0334782	5.108652e-05	6.695211e-06	0.02234422	0.005530451	2.021787e-05	9.567524e-06
	4.365343e-05	5.265446e-06	0.02772489	0.03394792	2.021787e-05	9.567524e-06	0.02240962	0.005575694
1.3e+08	0.02187396	0.00533486	2.304448e-05	1.334768e-05	0.03135766	0.03429576	4.413689e-05	8.19461e-06
	2.304448e-05	1.334768e-05	0.02201113	0.005388248	5.022783e-05	8.430111e-06	0.03158825	0.03478924
	0.03135766	0.03429576	5.022783e-05	8.430111e-06	0.02198533	0.005830398	2.032656e-05	1.063825e-05
	4.413689e-05	8.19461e-06	0.03158825	0.03478924	2.032656e-05	1.063825e-05	0.02207293	0.005856641
1.4e+08	0.02142441	0.005799074	2.384985e-05	1.443024e-05	0.03530522	0.0347279	4.476378e-05	1.076808e-05
	2.384985e-05	1.443024e-05	0.02158924	0.005839836	4.95779e-05	1.014281e-05	0.03554421	0.03524203
	0.03530522	0.0347279	4.95779e-05	1.014282e-05	0.02156165	0.006321341	2.055227e-05	1.173743e-05
	4.476378e-05	1.076808e-05	0.03554421	0.03524203	2.055227e-05	1.173743e-05	0.02167238	0.006329404
1.5e+08	0.02095733	0.006459621	2.480673e-05	1.558279e-05	0.03931292	0.03476886	4.555225e-05	1.310201e-05
	2.480673e-05	1.558279e-05	0.02115002	0.006486138	4.91262e-05	1.186534e-05	0.03955816	0.03530068
	0.03931292	0.03476886	4.91262e-05	1.186534e-05	0.02112239	0.00701136	2.08989e-05	1.286168e-05
	4.555225e-05	1.310201e-05	0.03955816	0.03530068	2.08989e-05	1.286168e-05	0.02125747	0.00700148
1.6e+08	0.020511	0.007322379	2.593377e-05	1.678119e-05	0.04334521	0.03441534	4.651723e-05	1.525094e-05
	2.593377e-05	1.678119e-05	0.02073201	0.007333025	4.887186e-05	1.360408e-05	0.04359405	0.03496205
	0.0433452	0.03441534	4.887186e-05	1.360408e-05	0.02070883	0.007902661	2.137047e-05	1.400495e-05
	4.651723e-05	1.525094e-05	0.04359405	0.03496205	2.137047e-05	1.400495e-05	0.02086977	0.007874687
1.7e+08	0.02012323	0.008388761	2.724596e-05	1.799747e-05	0.04736595	0.03366669	4.767045e-05	1.724206e-05
	2.724596e-05	1.799747e-05	0.02037316	0.008381763	4.924694e-05	1.541132e-05	0.04761532	0.03422576
	0.04736595	0.03366669	4.924694e-05	1.541132e-05	0.02035848	0.008993699	2.209682e-05	1.516685e-05
	4.767045e-05	1.724206e-05	0.04761532	0.03422575	2.209682e-05	1.516685e-05	0.02054706	0.008947109
1.8e+08	0.0198313	0.009655068	2.875628e-05	1.921085e-05	0.05133897	0.03252534	4.902098e-05	1.908741e-05
	2.875628e-05	1.921085e-05	0.02011086	0.009628528	5.006299e-05	1.716617e-05	0.05158535	0.03309453
	0.05133897	0.03252534	5.006299e-05	1.716617e-05	0.02010724	0.010279	2.311895e-05	1.63156e-05
	4.902098e-05	1.908741e-05	0.05158535	0.03309453	2.311895e-05	1.63156e-05	0.02032544	0.01021288
1.9e+08	0.01967214	0.01111267	3.047484e-05	2.040579e-05	0.05522852	0.03099722	5.057614e-05	2.079418e-05
	3.047484e-05	2.040579e-05	0.01998214	0.01106449	5.101264e-05	1.881458e-05	0.05546803	0.03157464
	0.05522852	0.03099722	5.101264e-05	1.881458e-05	0.01999023	0.01174899	2.42498e-05	1.741348e-05
	5.057614e-05	2.079418e-05	0.05546803	0.03157464	2.42498e-05	1.741348e-05	0.02024021	0.01166198
2e+08	0.01968127	0.01274749	3.241188e-05	2.155956e-05	0.05899969	0.02909132	5.234184e-05	2.235944e-05
	3.241188e-05	2.155956e-05	0.0200225	0.01267534	5.21046e-05	2.036554e-05	0.05922804	0.02967547
	0.05899969	0.02909132	5.21046e-05	2.036554e-05	0.02004171	0.01338996	2.549598e-05	1.845782e-05
	5.234184e-05	2.235944e-05	0.05922804	0.02967547	2.549598e-05	1.845782e-05	0.02032573	0.01328026
2.1e+08	0.01989172	0.01454083	3.457475e-05	2.264822e-05	0.06261843	0.02681973	5.43218e-05	2.377511e-05
	3.457475e-05	2.264822e-05	0.02026507	0.01444213	5.334756e-05	2.181764e-05	0.06283109	0.02740957
	0.06261843	0.02681972	5.334756e-05	2.181764e-05	0.02029343	0.01518302	2.68637e-05	1.944346e-05
	5.43218e-05	2.377511e-05	0.06283109	0.02740957	2.68637e-05	1.944346e-05	0.02061384	0.01504835
2.2e+08	0.02033454	0.01646877	3.696878e-05	2.364693e-05	0.06605211	0.02419748	5.651797e-05	2.502981e-05
	3.696878e-05	2.364693e-05	0.02074073	0.01634062	5.474781e-05	2.31688e-05	0.06624426	0.02479244
	0.06605211	0.02419748	5.474781e-05	2.31688e-05	0.02077508	0.01710517	2.83585e-05	2.036304e-05
	5.651797e-05	2.502981e-05	0.06624426	0.02479244	2.83585e-05	2.036304e-05	0.0211342	0.0169427
2.3e+08	0.02103732	0.01850342	3.980248e-05	2.486973e-05	0.06926999	0.02124249	5.893488e-05	2.608032e-05
	3.980248e-05	2.486973e-05	0.02147704	0.01834263	5.631577e-05	2.438348e-05	0.06943662	0.02184248
	0.06926999	0.02124249	5.631577e-05	2.438348e-05	0.02151393	0.01912933	2.998307e-05	2.120911e-05
	5.893488e-05	2.608032e-05	0.06943662	0.02184248	2.998307e-05	2.120911e-05	0.02191401	0.01893571
2.4e+08	0.02202395	0.02061311	4.288614e-05	2.593335e-05	0.07224297	0.0179753	6.156333e-05	2.693603e-05
	4.288614e-05	2.593335e-05	0.02249769	0.02041618	5.804864e-05	2.547869e-05	0.07237888	0.01858081
	0.07224297	0.0179753	5.804864e-05	2.547869e-05	0.02253311	0.02122412	3.174319e-05	2.197001e-05
	6.156333e-05	2.693603e-05	0.07237888	0.01858081	3.174319e-05	2.197001e-05	0.02297621	0.02099543
2.5e+08	0.02331404	0.02276263	4.620271e-05	2.678688e-05	0.07494403	0.01441875	6.43989e-05	2.758046e-05
	4.620271e-05	2.678688e-05	0.02382205	0.02252569	5.994943e-05	2.644445e-05	0.07504395	0.01503082
	0.07494403	0.01441875	5.994943e-05	2.644445e-05	0.02385216	0.02335543	3.364097e-05	2.263445e-05
	6.43989e-05	2.758046e-05	0.07504395	0.01503082	3.364097e-05	2.263445e-05	0.02434008	0.02308722
2.6e+08	0.02492294	0.02491418	4.974758e-05	2.740511e-05	0.07734887	0.01059807	6.743525e-05	2.799388e-05
	4.974758e-05	2.740511e-05	0.02546518	0.02463313	6.201981e-05	2.726754e-05	0.07740748	0.01121827
	0.07734887	0.01059807	6.201981e-05	2.726754e-05	0.02548613	0.02548567	3.567814e-05	2.31893e-05
	6.743525e-05	2.799388e-05	0.07740748	0.01121827	3.567814e-05	2.31893e-05	0.02602032	0.02517292
2.7e+08	0.02686137	0.02702777	5.351423e-05	2.776104e-05	0.07943504	0.006540245	7.066439e-05	2.815481e-05
	5.351423e-05	2.776104e-05	0.02743746	0.02669816	6.425987e-05	2.793205e-05	0.07944703	0.007170779
	0.07943504	0.006540245	6.425987e-05	2.793205e-05	0.02744566	0.02757545	3.785573e-05	2.361954e-05
	7.066439e-05	2.815481e-05	0.07944703	0.007170779	3.785573e-05	2.361954e-05	0.02802715	0.02721265
2.8e+08	0.02913464	0.02906161	5.749159e-05	2.782852e-05	0.08118304	0.002273978	7.407515e-05	2.804186e-05
	5.749159e-05	2.782852e-05	0.02974379	0.02867871	6.666863e-05	2.841988e-05	0.08114322	0.002917625
	0.08118304	0.002273978	6.666863e-05	2.841988e-05	0.02973608	0.02958383	4.017234e-05	2.391055e-05
	7.407515e-05	2.804186e-05	0.08114322	0.002917625	4.017234e-05	2.391055e-05	0.03036536	0.02916495
2.9e+08	0.03174337	0.0309731	6.166603e-05	2.758027e-05	0.08257626	-0.002170528	7.765399e-05	2.763386e-05
	6.166603e-05	2.758027e-05	0.03238428	0.03053203	6.924198e-05	2.871306e-05	0.08247953	-0.001510406
	0.08257626	-0.002170528	6.924198e-05	2.871306e-05	0.03235794	0.0314682	4.26258e-05	2.404589e-05
	7.765399e-05	2.763386e-05	0.08247953	-0.001510406	4.26258e-05	2.404589e-05	0.03303488	0.03098678
3e+08	0.03468275	0.03271929	6.602216e-05	2.698704e-05	0.08360042	-0.006761926	8.138486e-05	2.690835e-05
	6.602216e-05	2.698704e-05	0.03535368	0.03221486	7.19737e-05	2.879329e-05	0.08344188	-0.006081368
	0.08360042	-0.006761926	7.19737e-05	2.879329e-05	0.03530672	0.03318604	4.521224e-05	2.400846e-05
	8.138486e-05	2.690835e-05	0.08344188	-0.006081368	4.521224e-05	2.400846e-05	0.03603052	0.03263526
3.1e+08	0.03794307	0.03425741	7.053881e-05	2.602434e-05	0.08424451	-0.01146802	8.52496e-05	2.584382e-05
	7.053881e-05	2.602434e-05	0.03864162	0.0336844	7.485663e-05	2.863828e-05	0.08401955	-0.01076254
	0.08424451	-0.01146802	7.485663e-05	2.863828e-05	0.03857256	0.03469445	4.792565e-05	2.378153e-05
	8.52496e-05	2.584382e-05	0.08401955	-0.01076254	4.792565e-05	2.378153e-05	0.03934163	0.03406719
3.2e+08	0.04150924	0.0355451	7.519398e-05	2.466374e-05	0.08450044	-0.016256	8.922663e-05	2.441997e-05
	7.519398e-05	2.466374e-05	0.04223246	0.03489813	7.787946e-05	2.822969e-05	0.08420476	-0.0155205
	0.08450044	-0.016256	7.787946e-05	2.822969e-05	0.04214023	0.03595218	5.075915e-05	2.334583e-05
	8.922663e-05	2.441997e-05	0.08420476	-0.0155205	5.075915e-05	2.334583e-05	0.04295217	0.03524105
3.3e+08	0.04536145	0.03654166	7.996117e-05	2.288045e-05	0.08436267	-0.02109247	9.329282e-05	2.26158e-05
	7.996117e-05	2.288045e-05	0.04610568	0.03581535	8.103029e-05	2.754511e-05	0.08399235	-0.0203214
	0.08436267	-0.02109247	8.103029e-05	2.754511e-05	0.04598985	0.03691816	5.370292e-05	2.268427e-05
	9.329282e-05	2.26158e-05	0.08399235	-0.0203214	5.370292e-05	2.268427e-05	0.04684136	0.03611566
3.4e+08	0.04947454	0.03720819	8.481128e-05	2.064964e-05	0.08382904	-0.02594432	9.742116e-05	2.041498e-05
	8.481128e-05	2.064964e-05	0.05023547	0.03639722	8.429208e-05	2.656515e-05	0.08338064	-0.02513158
	0.08382904	-0.02594432	8.429208e-05	2.656515e-05	0.05009657	0.03755428	5.674604e-05	2.17775e-05
	9.742116e-05	2.041498e-05	0.08338064	-0.02513158	5.674604e-05	2.17775e-05	0.05098338	0.03665285
3.5e+08	0.05381906	0.03750832	8.971182e-05	1.795157e-05	0.08289988	-0.03077824	0.0001015844	1.77967e-05
	8.971182e-05	1.795157e-05	0.05459162	0.03660749	8.764866e-05	2.526988e-05	0.08237038	-0.02991726
	0.08289988	-0.03077824	8.764866e-05	2.526988e-05	0.05443071	0.03782375	5.987497e-05	2.06074e-05
	0.0001015844	1.77967e-05	0.08237038	-0.02991726	5.987497e-05	2.06074e-05	0.05534756	0.03681593
3.6e+08	0.05836102	0.03740825	9.462724e-05	1.476206e-05	0.08157866	-0.03556131	0.000105751	1.474678e-05
	9.462724e-05	1.476206e-05	0.05913942	0.03641255	9.108079e-05	2.363613e-05	0.08096564	-0.03464518
	0.08157866	-0.03556131	9.108079e-05	2.363613e-05	0.05895827	0.03769369	6.307362e-05	1.915745e-05
	0.000105751	1.474678e-05	0.08096564	-0.03464518	6.307362e-05	1.915745e-05	0.05989894	0.03657215
3.7e+08	0.06306261	0.03687814	9.952038e-05	1.106768e-05	0.0798715	-0.04026168	0.0001098876	1.125231e-05
	9.952038e-05	1.106768e-05	0.06384032	0.03578289	9.456498e-05	2.164849e-05	0.07917311	-0.03928308
	0.0798715	-0.04026168	9.456498e-05	2.164849e-05	0.06364153	0.03713439	6.632491e-05	1.74073e-05
	0.0001098876	1.125231e-05	0.07917311	-0.03928308	6.632491e-05	1.74073e-05	0.06459869	0.03589214
3.8e+08	0.06788236	0.03589151	0.0001043496	6.84965e-06	0.07778686	-0.04484797	0.0001139594	7.302541e-06
	0.0001043496	6.84965e-06	0.06865205	0.03469239	9.807664e-05	1.928706e-05	0.07700192	-0.04379929
	0.07778686	-0.04484797	9.807664e-05	1.928706e-05	0.06843886	0.03611933	6.960866e-05	1.534318e-05
	0.0001139594	7.302541e-06	0.07700192	-0.04379929	6.960866e-05	1.534318e-05	0.06940418	0.03474982
3.9e+08	0.07277456	0.0344262	0.0001090724	2.096684e-06	0.07533642	-0.04929006	0.0001179293	2.884677e-06
	0.0001090724	2.096684e-06	0.07352821	0.03311941	0.0001015885	1.65345e-05	0.07446438	-0.04816345
	0.07533642	-0.04929006	0.0001015885	1.65345e-05	0.07330509	0.03462756	7.290291e-05	1.294584e-05
	0.0001179293	2.884677e-06	0.07446438	-0.04816345	7.290291e-05	1.294584e-05	0.07426922	0.03312477
4e+08	0.07769149	0.0324648	0.0001136426	-3.197907e-06	0.07253362	-0.05355919	0.0001217588	-2.003161e-06
	0.0001136426	-3.197907e-06	0.07842031	0.0310471	0.00010507	1.337717e-05	0.07157468	-0.05234659
	0.07253362	-0.05355919	0.00010507	1.337717e-05	0.07819265	0.03264113	7.618321e-05	1.020419e-05
	0.0001217588	-2.003161e-06	0.07157468	-0.05234659	7.618321e-05	1.020419e-05	0.07914519	0.03099977
4.1e+08	0.08258365	0.02999471	0.0001180138	-9.042257e-06	0.06939439	-0.05762786	0.0001254061	-7.368538e-06
	0.0001180138	-9.042257e-06	0.08327817	0.02846357	0.0001084885	9.801955e-06	0.06834947	-0.05632115
	0.06939439	-0.05762786	0.0001084885	9.801955e-06	0.08305183	0.03014799	7.942329e-05	7.101564e-06
	0.0001254061	-7.368538e-06	0.06834947	-0.05632115	7.942329e-05	7.101564e-06	0.08398146	0.02836354
4.2e+08	0.08739806	0.02700865	0.0001221356	-1.543743e-05	0.06593691	-0.06147058	0.0001288309	-1.320849e-05
	0.0001221356	-1.543743e-05	0.08804815	0.02536232	0.0001118124	5.796687e-06	0.06480767	-0.06006159
	0.06593691	-0.06147058	0.0001118124	5.796687e-06	0.08783001	0.02714125	8.259392e-05	3.627173e-06
	0.0001288309	-1.320849e-05	0.06480767	-0.06006159	8.259392e-05	3.627173e-06	0.08872446	0.02521024
4.3e+08	0.09208169	0.02350466	0.0001259576	-2.238124e-05	0.06218088	-0.06506357	0.0001319897	-1.951991e-05
	0.0001259576	-2.238124e-05	0.09267662	0.02174225	0.000115002	1.353575e-06	0.0609697	-0.06354414
	0.06218088	-0.06506357	0.000115002	1.353575e-06	0.09247458	0.02361893	8.566522e-05	-2.290113e-07
	0.0001319897	-1.951991e-05	0.0609697	-0.06354414	8.566522e-05	-2.290113e-07	0.09332078	0.02153894
4.4e+08	0.09658076	0.01948595	0.0001294305	-2.986564e-05	0.05814799	-0.06838476	0.0001348386	-2.630071e-05
	0.0001294305	-2.986564e-05	0.09710928	0.01760763	0.00011802	-3.533887e-06	0.05685806	-0.06674691
	0.05814799	-0.06838476	0.00011802	-3.533887e-06	0.09693161	0.01958472	8.860403e-05	-4.473422e-06
	0.0001348386	-2.630071e-05	0.05685806	-0.06674691	8.860403e-05	-4.473422e-06	0.09771575	0.01735453
4.5e+08	0.1008404	0.01496206	0.0001325004	-3.788127e-05	0.05386144	-0.07141449	0.0001373333	-3.353754e-05
	0.0001325004	-3.788127e-05	0.1012909	0.01296902	0.0001208282	-8.867619e-06	0.0524967	-0.06965039
	0.05386144	-0.07141449	0.0001208282	-8.867619e-06	0.1011466	0.01504815	9.137491e-05	-9.115386e-06
	0.0001373333	-3.353754e-05	0.0524967	-0.06965039	9.137491e-05	-9.115386e-06	0.1018542	0.01266794
4.6e+08	0.1048063	0.009947742	0.0001351143	-4.64125e-05	0.04934574	-0.07413502	0.0001394285	-4.121563e-05
	0.0001351143	-4.64125e-05	0.1051666	0.007842368	0.0001233833	-1.465245e-05	0.0479108	-0.07223713
	0.04934574	-0.07413502	0.0001233833	-1.465245e-05	0.1050661	0.01002389	9.394261e-05	-1.415619e-05
	0.0001394285	-4.121563e-05	0.0479108	-0.07223713	9.394261e-05	-1.415619e-05	0.1056822	0.007495291
4.7e+08	0.1084266	0.004463696	0.0001372191	-5.544166e-05	0.04462624	-0.07653115	0.0001410794	-4.932254e-05
	0.0001372191	-5.544166e-05	0.1086845	0.002249631	0.000125641	-2.088177e-05	0.04312643	-0.0744923
	0.04462624	-0.07653115	0.000125641	-2.088177e-05	0.1086372	0.004532871	9.626778e-05	-1.959381e-05
	0.0001410794	-4.932254e-05	0.04312643	-0.0744923	9.626778e-05	-1.959381e-05	0.1091465	0.001859058
4.8e+08	0.1116492	-0.001464637	0.0001387632	-6.494178e-05	0.03972952	-0.07858957	0.0001422419	-5.783173e-05
	0.0001387632	-6.494178e-05	0.1117922	-0.003782466	0.0001275568	-2.755188e-05	0.03817084	-0.07640297
	0.03972952	-0.07858957	0.0001275568	-2.755188e-05	0.1118092	-0.001398869	9.831126e-05	-2.542911e-05
	0.0001422419	-5.783173e-05	0.03817084	-0.07640297	9.831126e-05	-2.542911e-05	0.112196	-0.004213071
4.9e+08	0.1144243	-0.007805032	0.0001396953	-7.488196e-05	0.03468259	-0.08029996	0.0001428709	-6.672168e-05
	0.0001396953	-7.488196e-05	0.1144402	-0.01022026	0.0001290869	-3.465097e-05	0.0330716	-0.07795937
	0.03468259	-0.08029996	0.0001290869	-3.465097e-05	0.1145323	-0.007739746	0.000100032	-3.165586e-05
	0.0001428709	-6.672168e-05	0.0330716	-0.07795937	0.000100032	-3.165586e-05	0.1147812	-0.01068778
