!$
! Info: Touchstone file created by Circ.  Input file=Intel_C2M_200G_2p0in_202208016_staggered.circ
!$
# Hz S RI R 50
0	0.01228844	1.708471e-24	3.333443e-05	3.132342e-23	7.738367e-05	2.249397e-22	3.332665e-05	3.124361e-23
	3.333443e-05	3.132343e-23	0.01230167	1.957522e-24	3.333926e-05	3.135665e-23	7.697271e-05	2.238696e-22
	7.744205e-05	2.250682e-22	3.333926e-05	3.135746e-23	0.01228322	1.75815e-24	3.332938e-05	3.127122e-23
	3.332665e-05	3.124442e-23	7.703109e-05	2.239965e-22	3.332938e-05	3.127122e-23	0.01229959	1.860891e-24
1e+07	0.01465918	0.003484658	2.118496e-06	1.307146e-05	0.0008442248	0.004051351	4.671471e-06	1.105673e-05
	2.118499e-06	1.307148e-05	0.01477685	0.003542506	1.581889e-06	1.648977e-05	0.0008495338	0.004111079
	0.0008442248	0.004051351	1.581889e-06	1.648977e-05	0.01475204	0.003587471	2.105791e-06	1.322508e-05
	4.671471e-06	1.105673e-05	0.0008495338	0.004111079	2.105791e-06	1.322508e-05	0.01468756	0.00352019
2e+07	0.01682872	0.00500882	3.515964e-06	1.042281e-05	0.001643983	0.00772591	2.294538e-06	8.319144e-06
	3.515969e-06	1.042285e-05	0.01698462	0.005066903	1.377604e-05	2.198237e-05	0.001655102	0.007844234
	0.001643995	0.007725898	1.377604e-05	2.198237e-05	0.0169634	0.005158045	3.615839e-06	1.070735e-05
	2.294538e-06	8.319144e-06	0.001655114	0.007844223	3.615838e-06	1.070735e-05	0.01686911	0.005074057
3e+07	0.01859853	0.005663951	6.697416e-06	9.546631e-06	0.002770494	0.01136541	2.337609e-06	7.885527e-06
	6.697417e-06	9.546631e-06	0.0187835	0.00571301	2.387046e-05	2.321285e-05	0.002790437	0.01154071
	0.00277046	0.01136544	2.387046e-05	2.321285e-05	0.01875957	0.00585654	6.883616e-06	9.902477e-06
	2.33761e-06	7.885527e-06	0.002790403	0.01154074	6.883617e-06	9.902477e-06	0.01864365	0.005760552
4e+07	0.01994056	0.005846529	9.315062e-06	8.477309e-06	0.004300884	0.01482175	4.32136e-06	7.058429e-06
	9.315063e-06	8.477308e-06	0.02014847	0.005881297	3.221564e-05	2.18809e-05	0.004332311	0.01505212
	0.004300874	0.01482177	3.221565e-05	2.18809e-05	0.02013033	0.006076457	9.580095e-06	8.89305e-06
	4.32136e-06	7.058429e-06	0.004332302	0.01505214	9.580096e-06	8.89305e-06	0.0199964	0.00597168
5e+07	0.02095437	0.005811422	1.149471e-05	7.123936e-06	0.006187432	0.01809044	6.009561e-06	6.02093e-06
	1.149471e-05	7.123936e-06	0.02118081	0.005828682	3.924209e-05	1.891614e-05	0.006232799	0.01837364
	0.006187432	0.01809045	3.924209e-05	1.891614e-05	0.02117185	0.006074201	1.184021e-05	7.592301e-06
	6.009561e-06	6.020929e-06	0.006232799	0.01837365	1.184021e-05	7.592301e-06	0.02102225	0.005963447
6e+07	0.02169349	0.005648921	1.328807e-05	5.498765e-06	0.008414956	0.02114268	7.388936e-06	4.77987e-06
	1.328807e-05	5.498765e-06	0.02193504	0.005646466	4.513837e-05	1.472661e-05	0.008476437	0.02147607
	0.008414977	0.02114267	4.513837e-05	1.472661e-05	0.02193814	0.005941258	1.372238e-05	6.014236e-06
	7.388935e-06	4.77987e-06	0.008476458	0.02147606	1.372238e-05	6.014235e-06	0.02177478	0.005827246
7e+07	0.0221785	0.005431847	1.471407e-05	3.62112e-06	0.01096085	0.02394856	8.467432e-06	3.351861e-06
	1.471407e-05	3.62112e-06	0.02243243	0.005407952	4.997487e-05	9.503306e-06	0.01104026	0.02432912
	0.01096085	0.02394855	4.997487e-05	9.503306e-06	0.02245047	0.005750407	1.525013e-05	4.176872e-06
	8.467432e-06	3.351861e-06	0.01104026	0.02432912	1.525013e-05	4.176872e-06	0.0222752	0.005636026
8e+07	0.0224349	0.005229076	1.577214e-05	1.499853e-06	0.01380011	0.02648064	9.23744e-06	1.749299e-06
	1.577214e-05	1.499853e-06	0.02269905	0.00518206	5.375555e-05	3.316535e-06	0.01389885	0.02690501
	0.01380011	0.02648064	5.375555e-05	3.316534e-06	0.02273469	0.005570343	1.642448e-05	2.081465e-06
	9.23744e-06	1.749299e-06	0.01389885	0.02690501	1.642448e-05	2.081465e-06	0.02254958	0.005458927
9e+07	0.02249983	0.005101404	1.643038e-05	-9.00016e-07	0.01690632	0.02871381	9.666676e-06	-3.959346e-08
	1.643038e-05	-9.000163e-07	0.0227724	0.005028936	5.639325e-05	-3.941834e-06	0.01702532	0.02917832
	0.01690631	0.02871382	5.639325e-05	-3.941834e-06	0.02282749	0.005460592	1.72177e-05	-3.142233e-07
	9.666676e-06	-3.95937e-08	0.01702531	0.02917833	1.72177e-05	-3.142236e-07	0.0226352	0.005356388
1e+08	0.02243429	0.005127207	1.647725e-05	-3.922743e-06	0.02025315	0.03062522	9.574213e-06	-2.219679e-06
	1.647725e-05	-3.922743e-06	0.02271297	0.005022217	5.72601e-05	-1.346929e-05	0.02039278	0.03112596
	0.02025315	0.03062522	5.72601e-05	-1.346929e-05	0.02278839	0.005494392	1.74284e-05	-3.38536e-06
	9.574213e-06	-2.219679e-06	0.02039278	0.03112596	1.74284e-05	-3.38536e-06	0.0225934	0.005406583
1.1e+08	0.02236862	0.00514908	1.484448e-05	-6.030775e-06	0.02382579	0.0321916	8.360541e-06	-3.618857e-06
	1.484448e-05	-6.030774e-06	0.02263339	0.005017271	5.246862e-05	-2.044009e-05	0.02398561	0.03272483
	0.0238258	0.0321916	5.246862e-05	-2.044009e-05	0.02279367	0.005536155	1.587043e-05	-5.594104e-06
	8.360541e-06	-3.618857e-06	0.02398561	0.03272482	1.587043e-05	-5.594104e-06	0.02261526	0.005460215
1.2e+08	0.0221221	0.005268544	1.350532e-05	-7.372588e-06	0.02754566	0.03338601	7.370896e-06	-4.478805e-06
	1.350532e-05	-7.372588e-06	0.02237485	0.005120269	4.905582e-05	-2.374164e-05	0.02772488	0.03394792
	0.02754566	0.03338601	4.905582e-05	-2.374164e-05	0.02257252	0.005647141	1.459375e-05	-7.00636e-06
	7.370896e-06	-4.478804e-06	0.02772489	0.03394792	1.459375e-05	-7.00636e-06	0.02240962	0.005575694
1.3e+08	0.02176876	0.005547997	1.259233e-05	-7.815997e-06	0.03139094	0.03420248	6.502039e-06	-5.158232e-06
	1.259233e-05	-7.815996e-06	0.02201113	0.005388248	4.792693e-05	-2.210181e-05	0.03158825	0.03478924
	0.03139094	0.03420248	4.792693e-05	-2.210181e-05	0.02221971	0.005925643	1.380191e-05	-7.315238e-06
	6.502039e-06	-5.158232e-06	0.03158825	0.03478924	1.380191e-05	-7.315238e-06	0.02207293	0.005856641
1.4e+08	0.02135541	0.006007352	1.192811e-05	-7.53481e-06	0.03533066	0.03463419	5.70895e-06	-5.714087e-06
	1.192811e-05	-7.53481e-06	0.02158924	0.005839836	4.677256e-05	-2.096356e-05	0.03554421	0.03524203
	0.03533066	0.03463419	4.677256e-05	-2.096356e-05	0.0218017	0.006396976	1.322258e-05	-6.977277e-06
	5.70895e-06	-5.714086e-06	0.03554421	0.03524203	1.322258e-05	-6.977277e-06	0.02167238	0.006329404
1.5e+08	0.02092254	0.006658447	1.151928e-05	-7.227266e-06	0.03933074	0.03467537	5.092844e-06	-5.728977e-06
	1.151928e-05	-7.227266e-06	0.02115002	0.006486138	4.558113e-05	-2.012352e-05	0.03955816	0.03530068
	0.03933074	0.03467537	4.558113e-05	-2.012352e-05	0.02136752	0.007068325	1.266361e-05	-6.706946e-06
	5.092844e-06	-5.728977e-06	0.03955816	0.03530068	1.266361e-05	-6.706946e-06	0.02125747	0.00700148
1.6e+08	0.02050832	0.007507694	1.1103e-05	-6.981645e-06	0.04335566	0.0343227	4.603292e-06	-5.620224e-06
	1.1103e-05	-6.981645e-06	0.02073201	0.007333025	4.436871e-05	-1.948819e-05	0.04359405	0.03496205
	0.04335566	0.0343227	4.436871e-05	-1.948819e-05	0.02095827	0.007941416	1.227265e-05	-6.435809e-06
	4.603292e-06	-5.620224e-06	0.04359405	0.03496205	1.227265e-05	-6.435809e-06	0.02086977	0.007874687
1.7e+08	0.02015045	0.008556938	1.068051e-05	-6.778114e-06	0.04736934	0.03357552	4.323769e-06	-5.467354e-06
	1.068051e-05	-6.778114e-06	0.02037316	0.008381763	4.314384e-05	-1.899667e-05	0.04761532	0.03422576
	0.04736934	0.03357552	4.314384e-05	-1.899667e-05	0.02061132	0.009014461	1.187886e-05	-6.214086e-06
	4.323769e-06	-5.467354e-06	0.04761532	0.03422575	1.187886e-05	-6.214086e-06	0.02054706	0.008947109
1.8e+08	0.01988589	0.009802825	1.025463e-05	-6.600761e-06	0.05133564	0.03243622	4.04004e-06	-5.329194e-06
	1.025463e-05	-6.600761e-06	0.02011086	0.009628528	4.191275e-05	-1.860739e-05	0.05158535	0.03309453
	0.05133564	0.03243622	4.191275e-05	-1.860739e-05	0.02036248	0.01028188	1.14828e-05	-6.024688e-06
	4.04004e-06	-5.329194e-06	0.05158535	0.03309453	1.14828e-05	-6.024688e-06	0.02032544	0.01021288
1.9e+08	0.01975139	0.0112371	9.827457e-06	-6.440473e-06	0.05521886	0.03091067	3.754315e-06	-5.199682e-06
	9.827457e-06	-6.440473e-06	0.01998214	0.01106449	4.067959e-05	-1.829087e-05	0.05546803	0.03157464
	0.05521886	0.03091067	4.067959e-05	-1.829087e-05	0.02024678	0.01173404	1.108627e-05	-5.857716e-06
	3.754315e-06	-5.199682e-06	0.05546803	0.03157464	1.108627e-05	-5.857716e-06	0.02024021	0.01166198
2e+08	0.01978233	0.012846	9.400757e-06	-6.28972e-06	0.05898412	0.02900784	3.468423e-06	-5.074041e-06
	9.400757e-06	-6.28972e-06	0.0200225	0.01267534	3.944735e-05	-1.802517e-05	0.05922804	0.02967547
	0.05898412	0.02900784	3.944735e-05	-1.802517e-05	0.0202984	0.01335727	1.069059e-05	-5.705649e-06
	3.468423e-06	-5.074041e-06	0.05922804	0.02967547	1.069059e-05	-5.705649e-06	0.02032573	0.01328026
2.1e+08	0.02001155	0.01461123	8.976206e-06	-6.143646e-06	0.06259743	0.0267398	3.18394e-06	-4.948921e-06
	8.976206e-06	-6.143646e-06	0.02026507	0.01444213	3.821858e-05	-1.77941e-05	0.06283109	0.02740957
	0.06259743	0.0267398	3.821858e-05	-1.77941e-05	0.02054904	0.0151327	1.029706e-05	-5.563332e-06
	3.18394e-06	-4.948921e-06	0.06283109	0.02740957	1.029706e-05	-5.563332e-06	0.02061384	0.01504835
2.2e+08	0.02046994	0.01650918	8.555267e-06	-5.998247e-06	0.06602616	0.0241215	2.902272e-06	-4.82181e-06
	8.555267e-06	-5.998247e-06	0.02074073	0.01634062	3.699531e-05	-1.758484e-05	0.06624426	0.02479244
	0.06602616	0.0241215	3.699531e-05	-1.758484e-05	0.0210284	0.01703739	9.90676e-06	-5.426532e-06
	2.902272e-06	-4.82181e-06	0.06624426	0.02479244	9.90676e-06	-5.426532e-06	0.0211342	0.0169427
2.3e+08	0.02118502	0.01851236	8.139314e-06	-5.851471e-06	0.06923962	0.02117082	2.624647e-06	-4.690797e-06
	8.139314e-06	-5.851471e-06	0.02147704	0.01834263	3.57796e-05	-1.739003e-05	0.06943662	0.02184248
	0.06923962	0.02117082	3.57796e-05	-1.739003e-05	0.02176369	0.01904438	9.520562e-06	-5.291833e-06
	2.624647e-06	-4.690797e-06	0.06943662	0.02184248	9.520562e-06	-5.291833e-06	0.02191401	0.01893571
2.4e+08	0.02218058	0.02058944	7.729538e-06	-5.70003e-06	0.07220872	0.01790826	2.352324e-06	-4.554574e-06
	7.729538e-06	-5.70003e-06	0.02249769	0.02041618	3.457272e-05	-1.719904e-05	0.07237888	0.01858081
	0.07220872	0.01790826	3.457272e-05	-1.719904e-05	0.02277804	0.02112233	9.139584e-06	-5.156752e-06
	2.352324e-06	-4.554574e-06	0.07237888	0.01858081	9.139584e-06	-5.156752e-06	0.02297621	0.02099543
2.5e+08	0.02347618	0.02270553	7.327152e-06	-5.541946e-06	0.07490648	0.01435662	2.086396e-06	-4.412148e-06
	7.327152e-06	-5.541946e-06	0.02382205	0.02252569	3.33763e-05	-1.700712e-05	0.07504395	0.01503082
	0.07490648	0.01435662	3.33763e-05	-1.700712e-05	0.024091	0.02323725	8.764774e-06	-5.020037e-06
	2.086396e-06	-4.412148e-06	0.07504395	0.01503082	8.764774e-06	-5.020037e-06	0.02434008	0.02308722
2.6e+08	0.02508715	0.02482326	6.933488e-06	-5.376006e-06	0.07730859	0.01054104	1.82794e-06	-4.262925e-06
	6.933488e-06	-5.376006e-06	0.02546518	0.02463313	3.219188e-05	-1.680734e-05	0.07740748	0.01121827
	0.07730859	0.01054104	3.219188e-05	-1.680734e-05	0.02571768	0.02535167	8.396973e-06	-4.879548e-06
	1.82794e-06	-4.262925e-06	0.07740748	0.01121827	8.396973e-06	-4.879548e-06	0.02602032	0.02517292
2.7e+08	0.02702425	0.02690294	6.549763e-06	-5.201314e-06	0.07939262	0.006488472	1.577931e-06	-4.106561e-06
	6.549763e-06	-5.201314e-06	0.02743746	0.02669816	3.102112e-05	-1.659504e-05	0.07944703	0.007170779
	0.07939262	0.006488471	3.102112e-05	-1.659504e-05	0.02766873	0.02742629	8.037074e-06	-4.733982e-06
	1.577931e-06	-4.106561e-06	0.07944703	0.007170779	8.037074e-06	-4.733982e-06	0.02802715	0.02721265
2.8e+08	0.0292928	0.02890311	6.17718e-06	-5.01731e-06	0.08113911	0.002227566	1.337289e-06	-3.942933e-06
	6.17718e-06	-5.01731e-06	0.02974379	0.02867871	2.986583e-05	-1.636679e-05	0.08114322	0.002917625
	0.08113911	0.002227566	2.986583e-05	-1.636679e-05	0.02994956	0.02942025	7.686007e-06	-4.582508e-06
	1.337289e-06	-3.942933e-06	0.08114322	0.002917625	7.686007e-06	-4.582508e-06	0.03036536	0.02916495
2.9e+08	0.03189352	0.03078155	5.816854e-06	-4.823729e-06	0.0825314	-0.002211554	1.106855e-06	-3.772119e-06
	5.816854e-06	-4.823729e-06	0.03238428	0.03053203	2.87278e-05	-1.611985e-05	0.08247953	-0.001510406
	0.0825314	-0.002211554	2.87278e-05	-1.611985e-05	0.03256075	0.03129103	7.344599e-06	-4.424562e-06
	1.106855e-06	-3.772119e-06	0.08247953	-0.001510406	7.344599e-06	-4.424562e-06	0.03303488	0.03098678
3e+08	0.03482168	0.03249556	5.469869e-06	-4.620544e-06	0.08355523	-0.006797556	8.873967e-07	-3.594342e-06
	5.469869e-06	-4.620544e-06	0.03535368	0.03221486	2.760875e-05	-1.585207e-05	0.08344188	-0.006081368
	0.08355523	-0.006797556	2.760875e-05	-1.585207e-05	0.03549789	0.03299622	7.013682e-06	-4.25982e-06
	8.873967e-07	-3.594342e-06	0.08344188	-0.006081368	7.013682e-06	-4.25982e-06	0.03603052	0.03263526
3.1e+08	0.0380677	0.03400273	5.137211e-06	-4.407973e-06	0.08419959	-0.01149832	6.796097e-07	-3.409981e-06
	5.137211e-06	-4.407973e-06	0.03864162	0.0336844	2.65105e-05	-1.556184e-05	0.08401955	-0.01076254
	0.08419959	-0.01149832	2.65105e-05	-1.556184e-05	0.0387512	0.034493	6.694032e-06	-4.08818e-06
	6.796097e-07	-3.409981e-06	0.08401955	-0.01076254	6.694032e-06	-4.08818e-06	0.03934163	0.03406719
3.2e+08	0.04161668	0.035261	4.819812e-06	-4.186418e-06	0.08445637	-0.01628109	4.841037e-07	-3.219534e-06
	4.819812e-06	-4.186418e-06	0.04223246	0.03489813	2.543484e-05	-1.524801e-05	0.08420476	-0.0155205
	0.08445637	-0.01628109	2.543484e-05	-1.524801e-05	0.04230555	0.03574017	6.386366e-06	-3.909714e-06
	4.841037e-07	-3.219534e-06	0.08420476	-0.0155205	6.386366e-06	-3.909714e-06	0.04295217	0.03524105
3.3e+08	0.04544895	0.03622989	4.518496e-06	-3.956438e-06	0.08432	-0.02111253	3.014201e-07	-3.023582e-06
	4.518496e-06	-3.956438e-06	0.04610568	0.03581535	2.438355e-05	-1.490973e-05	0.08399235	-0.0203214
	0.08432	-0.02111253	2.438355e-05	-1.490973e-05	0.04614115	0.03669671	6.091354e-06	-3.724638e-06
	3.014201e-07	-3.023582e-06	0.08399235	-0.0203214	6.091354e-06	-3.724638e-06	0.04684136	0.03611566
3.4e+08	0.04953957	0.03687078	4.234005e-06	-3.718769e-06	0.08378833	-0.02595954	1.319997e-07	-2.822821e-06
	4.234005e-06	-3.718769e-06	0.05023547	0.03639722	2.335841e-05	-1.454664e-05	0.08338064	-0.02513158
	0.08378833	-0.02595954	2.335841e-05	-1.454664e-05	0.05023327	0.03732459	5.809614e-06	-3.533326e-06
	1.319997e-07	-2.822821e-06	0.08338064	-0.02513158	5.809614e-06	-3.533326e-06	0.05098338	0.03665285
3.5e+08	0.0538593	0.0371475	3.966959e-06	-3.474255e-06	0.08286163	-0.03078888	-2.378844e-08	-2.617987e-06
	3.966959e-06	-3.474255e-06	0.05459162	0.03660749	2.236115e-05	-1.415865e-05	0.08237038	-0.02991726
	0.08286163	-0.03078888	2.236115e-05	-1.415865e-05	0.05455231	0.03758703	5.541676e-06	-3.336257e-06
	-2.378844e-08	-2.617987e-06	0.08237038	-0.02991726	5.541676e-06	-3.336257e-06	0.05534756	0.03681593
3.6e+08	0.05837443	0.03702648	3.717882e-06	-3.223867e-06	0.08154338	-0.0355677	-1.656756e-07	-2.409899e-06
	3.717882e-06	-3.223867e-06	0.05913942	0.03641255	2.139349e-05	-1.374598e-05	0.08096564	-0.03464518
	0.08154338	-0.0355677	2.139349e-05	-1.374598e-05	0.05906445	0.03745118	5.28797e-06	-3.134031e-06
	-1.656756e-07	-2.409899e-06	0.08096564	-0.03464518	5.28797e-06	-3.134031e-06	0.05989894	0.03657215
3.7e+08	0.06304738	0.03647805	3.487156e-06	-2.96864e-06	0.07983963	-0.04026416	-2.934863e-07	-2.199395e-06
	3.487156e-06	-2.96864e-06	0.06384032	0.03578289	2.045705e-05	-1.330912e-05	0.07917311	-0.03928308
	0.07983963	-0.04026416	2.045705e-05	-1.330912e-05	0.06373203	0.03688736	5.048854e-06	-2.927315e-06
	-2.934863e-07	-2.199395e-06	0.07917311	-0.03928308	5.048854e-06	-2.927315e-06	0.06459869	0.03589214
3.8e+08	0.06783693	0.03547586	3.275065e-06	-2.709682e-06	0.07775883	-0.04484693	-4.071208e-07	-1.98735e-06
	3.275065e-06	-2.709682e-06	0.06865205	0.03469239	1.955338e-05	-1.28488e-05	0.07700192	-0.04379929
	0.07775883	-0.04484693	1.955338e-05	-1.28488e-05	0.06851356	0.03586905	4.824602e-06	-2.716841e-06
	-4.071208e-07	-1.98735e-06	0.07700192	-0.04379929	4.824602e-06	-2.716841e-06	0.06940418	0.03474982
3.9e+08	0.07269771	0.03399791	3.081741e-06	-2.448168e-06	0.07531261	-0.04928592	-5.065872e-07	-1.774674e-06
	3.081741e-06	-2.448168e-06	0.07352821	0.03311941	1.8684e-05	-1.236605e-05	0.07446438	-0.04816345
	0.07531261	-0.04928592	1.8684e-05	-1.236605e-05	0.07336398	0.03437523	4.615396e-06	-2.503424e-06
	-5.065872e-07	-1.774674e-06	0.07446438	-0.04816345	4.615396e-06	-2.503424e-06	0.07426922	0.03312477
4e+08	0.07758224	0.03202686	2.907201e-06	-2.185288e-06	0.07251437	-0.0535524	-5.919696e-07	-1.562267e-06
	2.907201e-06	-2.185288e-06	0.07842031	0.0310471	1.785028e-05	-1.186202e-05	0.07157468	-0.05234659
	0.07251437	-0.0535524	1.785028e-05	-1.186202e-05	0.07823584	0.03238803	4.421303e-06	-2.287876e-06
	-5.919696e-07	-1.562267e-06	0.07157468	-0.05234659	4.421303e-06	-2.287876e-06	0.07914519	0.03099977
4.1e+08	0.08244133	0.02955018	2.751331e-06	-1.922247e-06	0.06938	-0.05761889	-6.634505e-07	-1.351019e-06
	2.751331e-06	-1.922247e-06	0.08327817	0.02846357	1.705345e-05	-1.133808e-05	0.06834947	-0.05632115
	0.06938	-0.05761889	1.705345e-05	-1.133808e-05	0.08307951	0.02989526	4.242312e-06	-2.071056e-06
	-6.634505e-07	-1.351019e-06	0.06834947	-0.05632115	4.242312e-06	-2.071056e-06	0.08398146	0.02836354
4.2e+08	0.0872223	0.02656063	2.613873e-06	-1.660254e-06	0.06592765	-0.06145997	-7.212995e-07	-1.14183e-06
	2.613873e-06	-1.660254e-06	0.08804815	0.02536232	1.62947e-05	-1.079585e-05	0.06480767	-0.06006159
	0.06592765	-0.06145997	1.62947e-05	-1.079585e-05	0.0878425	0.02689006	4.078316e-06	-1.853836e-06
	-7.212995e-07	-1.14183e-06	0.06480767	-0.06006159	4.078316e-06	-1.853836e-06	0.08872446	0.02521024
4.3e+08	0.0918724	0.02305625	2.494471e-06	-1.400486e-06	0.06217693	-0.06505181	-7.658646e-07	-9.35549e-07
	2.494471e-06	-1.400486e-06	0.09267662	0.02174225	1.557502e-05	-1.023701e-05	0.0609697	-0.06354414
	0.06217693	-0.06505181	1.557502e-05	-1.023701e-05	0.09247229	0.02337037	3.929109e-06	-1.637059e-06
	-7.658646e-07	-9.35549e-07	0.0609697	-0.06354414	3.929109e-06	-1.637059e-06	0.09332078	0.02153894
4.4e+08	0.09633819	0.01904026	2.39262e-06	-1.144089e-06	0.05814951	-0.06837242	-7.975773e-07	-7.330045e-07
	2.39262e-06	-1.144089e-06	0.09710928	0.01760763	1.489524e-05	-9.663411e-06	0.05685806	-0.06674691
	0.05814951	-0.06837242	1.489524e-05	-9.663411e-06	0.09691504	0.01933981	3.794401e-06	-1.421576e-06
	-7.975773e-07	-7.330045e-07	0.05685806	-0.06674691	3.794401e-06	-1.421576e-06	0.09771575	0.01735453
4.5e+08	0.1005651	0.01452214	2.307719e-06	-8.921653e-07	0.05386855	-0.07140211	-8.169378e-07	-5.349889e-07
	2.307719e-06	-8.921653e-07	0.1012909	0.01296902	1.425607e-05	-9.077061e-06	0.0524967	-0.06965039
	0.05386855	-0.07140211	1.425607e-05	-9.077061e-06	0.1011164	0.01480788	3.673815e-06	-1.208199e-06
	-8.169378e-07	-5.349889e-07	0.0524967	-0.06965039	3.673815e-06	-1.208199e-06	0.1018542	0.01266794
4.6e+08	0.104499	0.009516547	2.23907e-06	-6.4575e-07	0.04935851	-0.07412314	-8.245165e-07	-3.422367e-07
	2.23907e-06	-6.4575e-07	0.1051666	0.007842368	1.365807e-05	-8.480019e-06	0.0479108	-0.07223713
	0.04935851	-0.07412314	1.365807e-05	-8.480019e-06	0.1050227	0.009789141	3.566899e-06	-9.977063e-07
	-8.245165e-07	-3.422367e-07	0.0479108	-0.07223713	3.566899e-06	-9.977063e-07	0.1056822	0.007495291
4.7e+08	0.1080884	0.004044102	2.18584e-06	-4.057818e-07	0.04464464	-0.07652033	-8.209598e-07	-1.55414e-07
	2.18584e-06	-4.057818e-07	0.1086845	0.002249631	1.310149e-05	-7.874421e-06	0.04312643	-0.0744923
	0.04464464	-0.07652033	1.310149e-05	-7.874421e-06	0.1085815	0.004304455	3.473119e-06	-7.908107e-07
	-8.209598e-07	-1.55414e-07	0.04312643	-0.0744923	3.473119e-06	-7.908107e-07	0.1091465	0.001859058
4.8e+08	0.1112814	-0.001869887	2.147156e-06	-1.731293e-07	0.03975353	-0.0785804	-8.069484e-07	2.486289e-08
	2.147156e-06	-1.731293e-07	0.1117922	-0.003782466	1.258656e-05	-7.262467e-06	0.03817084	-0.07640297
	0.03975353	-0.0785804	1.258656e-05	-7.262467e-06	0.1117419	-0.001620243	3.391884e-06	-5.881924e-07
	-8.069484e-07	2.486289e-08	0.03817084	-0.07640297	3.391884e-06	-5.881924e-07	0.112196	-0.004213071
4.9e+08	0.1140286	-0.008193342	2.122036e-06	5.145135e-08	0.03471208	-0.08029297	-7.832202e-07	1.980481e-07
