!$
! Info: Touchstone file created by Circ.  Input file=Intel_C2M_200G_7p0in_202208016_staggered.circ
!$
# Hz S RI R 50
0	0.02245272	3.834704e-24	7.365635e-05	1.04679e-22	0.0001165088	2.963876e-22	7.359104e-05	1.045008e-22
	7.365635e-05	1.04679e-22	0.02246574	4.009444e-24	7.363952e-05	1.046112e-22	0.0001161272	2.94386e-22
	0.000116566	2.965135e-22	7.363951e-05	1.046126e-22	0.02244761	3.660979e-24	7.360424e-05	1.044362e-22
	7.359103e-05	1.045022e-22	0.0001161844	2.945121e-22	7.360424e-05	1.044362e-22	0.0224637	3.796463e-24
1e+07	0.02796523	0.003652888	6.309317e-05	2.727754e-06	0.001560194	0.006273039	2.782541e-06	1.217712e-05
	6.309317e-05	2.727754e-06	0.0272302	0.003867307	6.968177e-05	2.406522e-05	0.001877999	0.006414461
	0.001560194	0.006273039	6.968177e-05	2.406522e-05	0.02818838	0.003379969	2.774449e-05	1.156273e-05
	2.782541e-06	1.217712e-05	0.001877999	0.006414461	2.774449e-05	1.156273e-05	0.0273088	0.003346523
2e+07	0.032695	0.002534734	4.440302e-05	3.348244e-05	0.003925753	0.01172718	2.745427e-05	3.148519e-05
	4.440302e-05	3.348244e-05	0.03235194	0.003137822	6.258859e-05	1.447176e-06	0.004275099	0.01185628
	0.003925762	0.01172717	6.258859e-05	1.447176e-06	0.03255187	0.002046821	1.72233e-05	1.844869e-05
	2.745427e-05	3.148519e-05	0.004275108	0.01185627	1.72233e-05	1.844869e-05	0.03185062	0.00230444
3e+07	0.03583476	-0.0007770357	3.65823e-05	4.537529e-05	0.007438851	0.01655743	4.651437e-05	3.271557e-05
	3.65823e-05	4.537529e-05	0.03579316	-9.410618e-05	5.925175e-05	-1.761757e-06	0.007812783	0.01669378
	0.007438829	0.01655747	5.925174e-05	-1.761754e-06	0.03541586	-0.001237426	1.117517e-05	2.599499e-05
	4.651437e-05	3.271557e-05	0.007812762	0.01669382	1.117517e-05	2.599498e-05	0.03485464	-0.0008965717
4e+07	0.0375302	-0.004988576	3.056947e-05	5.034372e-05	0.01198605	0.02040992	6.1991e-05	2.816644e-05
	3.056947e-05	5.034372e-05	0.03773772	-0.004318968	5.84283e-05	6.160384e-07	0.01237696	0.02054919
	0.01198605	0.02040994	5.84283e-05	6.160381e-07	0.03690494	-0.005344095	1.853469e-05	2.671002e-05
	6.1991e-05	2.816644e-05	0.01237696	0.02054922	1.853469e-05	2.671002e-05	0.03646275	-0.004973538
5e+07	0.03799912	-0.009500571	3.88295e-05	4.658252e-05	0.01731866	0.02312923	7.433392e-05	1.988087e-05
	3.88295e-05	4.658252e-05	0.03841542	-0.008900066	6.049246e-05	-2.568924e-06	0.01771783	0.02326625
	0.01731867	0.02312924	6.049246e-05	-2.568925e-06	0.03722212	-0.009706598	2.766972e-05	2.28695e-05
	7.433392e-05	1.988086e-05	0.01771783	0.02326626	2.766972e-05	2.28695e-05	0.03688294	-0.009335863
6e+07	0.03739527	-0.01398046	5.231076e-05	3.619927e-05	0.02318219	0.02457494	8.343545e-05	8.827465e-06
	5.231076e-05	3.619927e-05	0.03798475	-0.01348952	6.090957e-05	-7.161028e-06	0.02357959	0.02470559
	0.02318221	0.02457492	6.090957e-05	-7.161028e-06	0.03651649	-0.01400918	3.470377e-05	1.703464e-05
	8.343545e-05	8.827465e-06	0.02357961	0.02470558	3.470377e-05	1.703464e-05	0.03626651	-0.01365834
7e+07	0.03586959	-0.01816573	6.181014e-05	2.340286e-05	0.02929365	0.02466119	8.947411e-05	-4.060503e-06
	6.181014e-05	2.340286e-05	0.03659809	-0.01781709	5.972279e-05	-1.223745e-05	0.02967807	0.02478304
	0.02929365	0.02466118	5.972279e-05	-1.223745e-05	0.03493638	-0.01800095	3.961736e-05	9.900823e-06
	8.947411e-05	-4.060503e-06	0.02967807	0.02478304	3.961736e-05	9.900823e-06	0.034763	-0.01768532
8e+07	0.03360702	-0.02185595	6.73539e-05	9.061022e-06	0.03535915	0.02336187	9.239923e-05	-1.823975e-05
	6.73539e-05	9.061022e-06	0.03443947	-0.02167863	5.696739e-05	-1.717093e-05	0.03571817	0.02347458
	0.03535915	0.02336188	5.696739e-05	-1.717093e-05	0.03266559	-0.0214892	4.239696e-05	1.924124e-06
	9.239923e-05	-1.823975e-05	0.03571817	0.02347459	4.239696e-05	1.924124e-06	0.03255661	-0.02122176
9e+07	0.03081864	-0.02491783	6.87959e-05	-6.280891e-06	0.04108682	0.0207107	9.200421e-05	-3.343361e-05
	6.87959e-05	-6.28089e-06	0.03171538	-0.02494158	5.276293e-05	-2.138485e-05	0.04140713	0.02081632
	0.04108683	0.02071071	5.276293e-05	-2.138485e-05	0.02991614	-0.02434453	4.295713e-05	-6.590814e-06
	9.200421e-05	-3.343361e-05	0.04140714	0.02081633	4.295713e-05	-6.590813e-06	0.02985868	-0.02413799
1e+08	0.02775713	-0.02726096	6.443315e-05	-2.343033e-05	0.04620202	0.01679857	8.672343e-05	-5.06186e-05
	6.443315e-05	-2.343033e-05	0.0286551	-0.02753883	4.699753e-05	-2.405862e-05	0.04646749	0.01690085
	0.04620202	0.01679856	4.699753e-05	-2.405862e-05	0.02696188	-0.02646197	4.040505e-05	-1.594551e-05
	8.672343e-05	-5.06186e-05	0.04646749	0.01690085	4.040505e-05	-1.594551e-05	0.0269372	-0.02633678
1.1e+08	0.0245999	-0.02912503	5.336737e-05	-3.15031e-05	0.05044427	0.01173764	7.44038e-05	-6.013501e-05
	5.336737e-05	-3.150311e-05	0.02536317	-0.02957043	4.235753e-05	-2.396226e-05	0.05064148	0.01185845
	0.05044426	0.01173764	4.235753e-05	-2.396226e-05	0.02404304	-0.02827613	3.420031e-05	-2.046471e-05
	7.44038e-05	-6.013501e-05	0.05064148	0.01185845	3.420031e-05	-2.046471e-05	0.0240047	-0.02821119
1.2e+08	0.02134347	-0.03034686	4.541781e-05	-3.607363e-05	0.05355108	0.005782996	6.670991e-05	-6.42973e-05
	4.541781e-05	-3.607363e-05	0.02199286	-0.03089971	3.881105e-05	-2.390082e-05	0.05368033	0.005933905
	0.05355108	0.005782994	3.881105e-05	-2.390082e-05	0.0209226	-0.02948602	2.959657e-05	-2.32138e-05
	6.670991e-05	-6.42973e-05	0.05368033	0.005933903	2.959657e-05	-2.32138e-05	0.02087463	-0.02946383
1.3e+08	0.01820341	-0.0309648	3.893336e-05	-3.992049e-05	0.05536873	-0.0008269972	6.466258e-05	-6.375929e-05
	3.893336e-05	-3.992049e-05	0.01874268	-0.03159793	3.58125e-05	-2.378611e-05	0.05542769	-0.0006355052
	0.05536873	-0.0008269983	3.58125e-05	-2.378611e-05	0.01788933	-0.0300945	2.547643e-05	-2.547829e-05
	6.466258e-05	-6.375929e-05	0.05542769	-0.0006355064	2.547643e-05	-2.547829e-05	0.01783153	-0.03010855
1.4e+08	0.01531749	-0.03107342	3.33401e-05	-4.339793e-05	0.05578271	-0.007823312	6.221285e-05	-6.412012e-05
	3.33401e-05	-4.339793e-05	0.01574795	-0.03176677	3.322527e-05	-2.370427e-05	0.05576945	-0.007580034
	0.05578271	-0.007823313	3.322527e-05	-2.370427e-05	0.01510049	-0.03020418	2.167504e-05	-2.716124e-05
	6.221285e-05	-6.412012e-05	0.05576945	-0.007580035	2.167504e-05	-2.716124e-05	0.01503195	-0.03025052
1.5e+08	0.01278274	-0.0307907	2.789541e-05	-4.621171e-05	0.05473016	-0.01491737	5.931051e-05	-6.522932e-05
	2.789541e-05	-4.621171e-05	0.01310522	-0.03152741	3.086366e-05	-2.38378e-05	0.05464406	-0.01461025
	0.05473016	-0.01491737	3.086366e-05	-2.38378e-05	0.0126527	-0.02993839	1.986586e-05	-2.748371e-05
	5.931051e-05	-6.522932e-05	0.05464406	-0.01461025	1.986586e-05	-2.748371e-05	0.01257222	-0.03001431
1.6e+08	0.0106575	-0.03024846	2.251635e-05	-4.851829e-05	0.05220487	-0.02181204	5.5945e-05	-6.681925e-05
	2.251635e-05	-4.851829e-05	0.01087301	-0.03101359	2.864502e-05	-2.414375e-05	0.05204701	-0.02142827
	0.05220487	-0.02181204	2.864502e-05	-2.414375e-05	0.01059993	-0.02942908	1.849156e-05	-2.769184e-05
	5.5945e-05	-6.681925e-05	0.05204701	-0.02142827	1.849156e-05	-2.769184e-05	0.01050593	-0.02953267
1.7e+08	0.008961804	-0.02958424	1.865435e-05	-4.984573e-05	0.04825828	-0.02821289	5.198221e-05	-6.878971e-05
	1.865435e-05	-4.984573e-05	0.009071814	-0.0303641	2.635388e-05	-2.51139e-05	0.04803194	-0.02773919
	0.04825827	-0.02821289	2.635388e-05	-2.51139e-05	0.008957934	-0.0288098	1.692426e-05	-2.822212e-05
	5.198221e-05	-6.878971e-05	0.04803194	-0.02773919	1.692426e-05	-2.822212e-05	0.008848417	-0.02893956
1.8e+08	0.007677592	-0.02893171	1.588174e-05	-5.070566e-05	0.04299847	-0.03383916	4.734471e-05	-7.095467e-05
	1.588174e-05	-5.070566e-05	0.007684143	-0.02971348	2.368586e-05	-2.646576e-05	0.04270944	-0.03326219
	0.04299847	-0.03383916	2.368586e-05	-2.646576e-05	0.00770632	-0.02820866	1.504902e-05	-2.903255e-05
	4.734471e-05	-7.095467e-05	0.04270944	-0.03326219	1.504902e-05	-2.903255e-05	0.007578789	-0.0283633
1.9e+08	0.006751433	-0.02841256	1.256244e-05	-5.169066e-05	0.03658718	-0.03843468	4.208335e-05	-7.308822e-05
	1.256244e-05	-5.169066e-05	0.006657218	-0.02918406	2.065822e-05	-2.775476e-05	0.03624384	-0.03774158
	0.03658718	-0.03843468	2.065822e-05	-2.775476e-05	0.006791281	-0.02774116	1.282505e-05	-2.987e-05
	4.208335e-05	-7.308822e-05	0.03624384	-0.03774158	1.282505e-05	-2.987e-05	0.006642654	-0.02791921
2e+08	0.00609846	-0.02812727	8.652677e-06	-5.266909e-05	0.02923388	-0.0417776	3.617143e-05	-7.504233e-05
	8.652677e-06	-5.266909e-05	0.005906894	-0.02887683	1.72446e-05	-2.891302e-05	0.02884738	-0.04095649
	0.02923388	-0.0417776	1.72446e-05	-2.891302e-05	0.006129765	-0.02750276	1.023697e-05	-3.065796e-05
	3.617143e-05	-7.504233e-05	0.02884738	-0.04095649	1.023697e-05	-3.065796e-05	0.005956369	-0.02770229
2.1e+08	0.005609616	-0.02814791	4.117199e-06	-5.349347e-05	0.02118893	-0.04368885	2.960182e-05	-7.66594e-05
	4.117199e-06	-5.349347e-05	0.005324838	-0.02886436	1.342345e-05	-2.985987e-05	0.02077308	-0.04272955
	0.02118893	-0.04368885	1.342345e-05	-2.985987e-05	0.005614967	-0.02756079	7.277138e-06	-3.131608e-05
	2.960182e-05	-7.66594e-05	0.02077308	-0.04272955	7.277138e-06	-3.131608e-05	0.005412676	-0.02777911
2.2e+08	0.005158344	-0.02851316	-1.051885e-06	-5.400339e-05	0.01273486	-0.04403956	2.239381e-05	-7.777549e-05
	-1.051885e-06	-5.400339e-05	0.004785321	-0.02918557	9.191717e-06	-3.050534e-05	0.01230588	-0.04293412
	0.01273486	-0.04403956	9.191717e-06	-3.050534e-05	0.005124299	-0.02795033	3.948339e-06	-3.176018e-05
	2.239381e-05	-7.777549e-05	0.01230588	-0.04293412	3.948339e-06	-3.176018e-05	0.004888702	-0.02818367
2.3e+08	0.004610708	-0.02922442	-6.833125e-06	-5.402974e-05	0.004176191	-0.04275679	1.459517e-05	-7.822413e-05
	-6.833125e-06	-5.402974e-05	0.004155322	-0.02984219	4.56073e-06	-3.075264e-05	0.003752417	-0.04150014
	0.004176191	-0.04275679	4.56073e-06	-3.075264e-05	0.004527673	-0.0286709	2.66912e-07	-3.190299e-05
	1.459517e-05	-7.822413e-05	0.003752417	-0.04150014	2.669119e-07	-3.190299e-05	0.004254375	-0.02891413
2.4e+08	0.003834763	-0.03024477	-1.317051e-05	-5.34004e-05	-0.004170972	-0.03982673	6.289349e-06	-7.784225e-05
	-1.317051e-05	-5.34004e-05	0.003303964	-0.0307976	-4.362657e-07	-3.050159e-05	-0.00456964	-0.03841722
	-0.004170972	-0.03982673	-4.362657e-07	-3.050159e-05	0.003697073	-0.02968382	-3.737106e-06	-3.165708e-05
	6.289349e-06	-7.784225e-05	-0.00456964	-0.03841722	-3.737106e-06	-3.165708e-05	0.003382123	-0.02993026
2.5e+08	0.002710327	-0.03149982	-1.997104e-05	-5.194806e-05	-0.01199073	-0.03529639	-2.406729e-06	-7.647708e-05
	-1.997104e-05	-5.194806e-05	0.002112316	-0.03197769	-5.746473e-06	-2.965222e-05	-0.01234354	-0.03373624
	-0.01199073	-0.03529639	-5.746473e-06	-2.965222e-05	0.002516442	-0.0309148	-8.016241e-06	-3.093625e-05
	-2.406729e-06	-7.647708e-05	-0.01234354	-0.03373624	-8.016241e-06	-3.093625e-05	0.00215681	-0.03115617
2.6e+08	0.001138392	-0.0328817	-2.710352e-05	-4.951805e-05	-0.01897927	-0.02927329	-1.134193e-05	-7.399376e-05
	-2.710352e-05	-4.951805e-05	0.000482774	-0.03327513	-1.129494e-05	-2.810941e-05	-0.01926529	-0.02756888
	-0.01897927	-0.02927329	-1.129494e-05	-2.810941e-05	0.0008903932	-0.03225595	-1.250723e-05	-2.965865e-05
	-1.134193e-05	-7.399376e-05	-0.01926529	-0.02756888	-1.250723e-05	-2.965865e-05	0.000484529	-0.03248249
2.7e+08	-0.0009506209	-0.03425455	-3.440134e-05	-4.597709e-05	-0.02485557	-0.0219218	-2.033468e-05	-7.028236e-05
	-3.440134e-05	-4.597709e-05	-0.00165264	-0.0345547	-1.698578e-05	-2.578605e-05	-0.02505467	-0.02008381
	-0.02485557	-0.0219218	-1.698578e-05	-2.578605e-05	-0.001247075	-0.03357252	-1.713042e-05	-2.774895e-05
	-2.033468e-05	-7.028236e-05	-0.02505467	-0.02008381	-1.713042e-05	-2.774895e-05	-0.00169872	-0.03377313
2.8e+08	-0.003589403	-0.03546176	-4.166303e-05	-4.122259e-05	-0.02937291	-0.0134586	-2.917514e-05	-6.526545e-05
	-4.166303e-05	-4.122259e-05	-0.004324931	-0.03566086	-2.270294e-05	-2.260728e-05	-0.02946662	-0.01150194
	-0.02937291	-0.0134586	-2.270294e-05	-2.260728e-05	-0.003925489	-0.03470992	-2.178759e-05	-2.514304e-05
	-2.917514e-05	-6.526545e-05	-0.02946662	-0.01150194	-2.178759e-05	-2.514304e-05	-0.004419929	-0.03487267
2.9e+08	-0.006769362	-0.03633609	-4.866074e-05	-3.518905e-05	-0.03232827	-0.004145363	-3.763255e-05	-5.89045e-05
	-4.866074e-05	-3.518905e-05	-0.007523685	-0.03642779	-2.830945e-05	-1.851606e-05	-0.03230074	-0.002088954
	-0.03232827	-0.004145363	-2.830945e-05	-1.851606e-05	-0.007133593	-0.0355026	-2.636522e-05	-2.179023e-05
	-3.763255e-05	-5.89045e-05	-0.03230074	-0.002088954	-2.636522e-05	-2.179023e-05	-0.007664902	-0.03561529
3e+08	-0.01043748	-0.03670963	-5.514814e-05	-2.785301e-05	-0.03356998	0.005720354	-4.546274e-05	-5.120284e-05
	-5.514814e-05	-2.785301e-05	-0.01119422	-0.03668944	-3.365118e-05	-1.347732e-05	-0.03340886	0.007854135
	-0.03356998	0.005720354	-3.365118e-05	-1.347732e-05	-0.01081631	-0.0357853	-3.073493e-05	-1.765734e-05
	-4.546274e-05	-5.120284e-05	-0.03340886	0.007854135	-3.073493e-05	-1.765734e-05	-0.01137534	-0.0358362
3.1e+08	-0.01449658	-0.03642493	-6.086488e-05	-1.924278e-05	-0.03300466	0.01581552	-5.241627e-05	-4.221049e-05
	-6.086488e-05	-1.924278e-05	-0.01523776	-0.0362908	-3.856101e-05	-7.478459e-06	-0.0327018	0.0180015
	-0.03300466	0.01581552	-3.856101e-05	-7.478459e-06	-0.01487451	-0.03540298	-3.475547e-05	-1.273336e-05
	-5.241627e-05	-4.221049e-05	-0.0327018	0.0180015	-3.475547e-05	-1.273336e-05	-0.0154488	-0.03538163
3.2e+08	-0.01880741	-0.03534552	-6.555132e-05	-9.433322e-06	-0.03060079	0.0258031	-5.824652e-05	-3.202525e-05
	-6.555132e-05	-9.433322e-06	-0.0195139	-0.03509827	-4.28595e-05	-5.399462e-07	-0.03015294	0.02801416
	-0.03060079	0.0258031	-4.28595e-05	-5.399462e-07	-0.01916752	-0.03422304	-3.827722e-05	-7.029952e-06
	-5.824652e-05	-3.202525e-05	-0.03015294	0.02801416	-3.827722e-05	-7.029952e-06	-0.01974148	-0.03412123
3.3e+08	-0.02319414	-0.03336675	-6.895461e-05	1.44693e-06	-0.02639009	0.03534393	-6.271989e-05	-2.079018e-05
	-6.895461e-05	1.44693e-06	-0.02384605	-0.03301057	-4.636303e-05	7.288977e-06	-0.02579929	0.03755198
	-0.02639009	0.03534393	-4.636303e-05	7.288977e-06	-0.0235187	-0.03214374	-4.114473e-05	-5.886248e-07
	-6.271989e-05	-2.079018e-05	-0.02579929	0.03755198	-4.114473e-05	-5.886248e-07	-0.02407398	-0.03195626
3.4e+08	-0.02745123	-0.03042455	-7.083979e-05	1.322109e-05	-0.02046749	0.04410934	-6.562329e-05	-8.696301e-06
	-7.083979e-05	1.322109e-05	-0.02802864	-0.02996735	-4.888669e-05	1.59223e-05	-0.01974127	0.04628641
	-0.02046749	0.04410935	-4.888669e-05	1.59223e-05	-0.02772284	-0.02910483	-4.32028e-05	6.521165e-06
	-6.562329e-05	-8.696301e-06	-0.01974127	0.04628641	-4.32028e-05	6.521165e-06	-0.02823893	-0.02883038
3.5e+08	-0.03135385	-0.02650245	-7.09999e-05	2.566254e-05	-0.01298732	0.05179213	-6.677265e-05	4.030405e-06
	-7.09999e-05	2.566254e-05	-0.03183749	-0.02595606	-5.025285e-05	2.523532e-05	-0.0121387	0.05391141
	-0.01298732	0.05179213	-5.025285e-05	2.523532e-05	-0.03155526	-0.02509286	-4.430179e-05	1.419786e-05
	-6.677265e-05	4.030405e-06	-0.0121387	0.05391141	-4.430179e-05	1.419786e-05	-0.03201038	-0.02473467
3.6e+08	-0.03466831	-0.02163613	-6.926059e-05	3.850828e-05	-0.004158746	0.05811771	-6.601928e-05	1.712324e-05
	-6.926059e-05	3.850828e-05	-0.03504044	-0.02101633	-5.029675e-05	3.507075e-05	-0.003206009	0.06015473
	-0.004158746	0.05811771	-5.029675e-05	3.507075e-05	-0.03478371	-0.02014749	-4.43041e-05	2.230728e-05
	-6.601928e-05	1.712324e-05	-0.003206009	0.06015473	-4.43041e-05	2.230728e-05	-0.03515579	-0.01971369
3.7e+08	-0.03716487	-0.01591609	-6.549452e-05	5.145325e-05	0.005762002	0.06285384	-6.325689e-05	3.028637e-05
	-6.549452e-05	5.145325e-05	-0.03741015	-0.01524247	-4.887679e-05	4.522868e-05	0.00679578	0.06478741
	0.005762002	0.06285384	-4.887679e-05	4.522868e-05	-0.03718041	-0.01436225	-4.30893e-05	3.06889e-05
	-6.325689e-05	3.028637e-05	0.00679578	0.06478741	-4.30893e-05	3.06889e-05	-0.0374482	-0.0138662
3.8e+08	-0.03862957	-0.009486206	-5.961771e-05	6.416867e-05	0.01648002	0.06581759	-5.842647e-05	4.320113e-05
	-5.961771e-05	6.416867e-05	-0.03873586	-0.008781773	-4.587924e-05	5.548068e-05	0.01756762	0.06763071
	0.01648002	0.06581759	-4.587924e-05	5.548068e-05	-0.03853361	-0.00788373	-4.056372e-05	3.914964e-05
	-5.842647e-05	4.320113e-05	0.01756762	0.06763071	-4.056372e-05	3.914964e-05	-0.0386779	-0.007343875
3.9e+08	-0.03887609	-0.002541384	-5.160304e-05	7.630162e-05	0.02767129	0.06688244	-5.151667e-05	5.553568e-05
	-5.160304e-05	7.630162e-05	-0.03883522	-0.001832039	-4.122727e-05	6.556802e-05	0.0287821	0.06856307
	0.02767129	0.06688244	-4.122727e-05	6.556802e-05	-0.03866094	-0.0009094806	-3.666079e-05	4.747735e-05
	-5.151667e-05	5.553568e-05	0.0287821	0.06856307	-3.666079e-05	4.747735e-05	-0.0386657	-0.0003490407
4e+08	-0.03775816	0.004679609	-4.148168e-05	8.748478e-05	0.0389941	0.06598136	-4.257534e-05	6.694462e-05
	-4.148168e-05	8.748478e-05	-0.03756664	0.005365815	-3.488847e-05	7.520724e-05	0.04009508	0.06752307
	0.0389941	0.06598136	-3.488847e-05	7.520724e-05	-0.03741917	0.006320631	-3.1354e-05	5.54364e-05
	-4.257534e-05	6.694462e-05	0.04009508	0.06752307	-3.1354e-05	5.54364e-05	-0.03727266	0.006874193
4.1e+08	-0.03517909	0.01190271	-2.934122e-05	9.734921e-05	0.05009925	0.06310918	-3.169926e-05	7.708623e-05
	-2.934122e-05	9.734921e-05	-0.03483856	0.01253639	-2.687932e-05	8.410399e-05	0.05115595	0.06451155
	0.05009925	0.06310918	-2.687932e-05	8.410399e-05	-0.03471526	0.01353131	-2.465204e-05	6.278304e-05
	-3.169926e-05	7.708623e-05	0.05115595	0.06451155	-2.465204e-05	6.278304e-05	-0.03441098	0.01404717
4.2e+08	-0.03109848	0.01882769	-1.533587e-05	0.000105528	0.06064186	0.0583231	-1.90492e-05	8.56244e-05
	-1.533587e-05	0.000105528	-0.03061601	0.01937917	-1.726757e-05	9.195592e-05	0.06161951	0.05959204
	0.06064186	0.0583231	-1.726757e-05	9.195592e-05	-0.03051302	0.02042205	-1.660929e-05	6.926437e-05
	-1.90492e-05	8.56244e-05	0.06161951	0.05959204	-1.660929e-05	6.926437e-05	-0.03005053	0.02086697
4.3e+08	-0.0255389	0.0251423	3.167927e-07	0.0001116689	0.07029192	0.05173993	-4.840179e-06	9.223999e-05
	3.167927e-07	0.0001116689	-0.02492717	0.02558253	-6.175972e-06	9.845707e-05	0.07115656	0.0528877
	0.07029192	0.05173993	-6.175972e-06	9.845707e-05	-0.02483901	0.02668127	-7.32494e-06	7.463094e-05
	-4.840179e-06	9.223999e-05	0.07115656	0.0528877	-7.32494e-06	7.463094e-05	-0.02422454	0.02702077
4.4e+08	-0.01858816	0.03053435	1.733406e-05	0.0001154454	0.07874422	0.04353303	1.066024e-05	9.664088e-05
	1.733406e-05	0.0001154454	-0.01786544	0.03083593	6.215713e-06	0.0001033204	0.07946381	0.04457812
	0.07874422	0.04353303	6.215713e-06	0.0001033204	-0.017785	0.03199761	3.055554e-06	7.864169e-05
	1.066024e-05	9.664088e-05	0.07946381	0.04457812	3.055554e-06	7.864169e-05	-0.01703183	0.03219731
4.5e+08	-0.01040016	0.0347043	3.537412e-05	0.0001165636	0.08572819	0.03392683	2.712323e-05	9.856872e-05
	3.537412e-05	0.0001165636	-0.0095901	0.0348425	1.967221e-05	0.0001062822	0.0862738	0.03489366
	0.08572819	0.03392683	1.967221e-05	0.0001062822	-0.009508525	0.03607375	1.434646e-05	8.107349e-05
	2.712323e-05	9.856872e-05	0.0862738	0.03489366	1.434646e-05	8.107349e-05	-0.00863716	0.03610063
4.6e+08	-0.001191973	0.0373801	5.40333e-05	0.0001147759	0.09101581	0.02318993	4.417114e-05	9.781028e-05
	5.40333e-05	0.0001147759	-0.0003232555	0.03733379	3.391286e-05	0.0001071088	0.09136267	0.02410833
	0.09101581	0.02318993	3.391286e-05	0.0001071088	-0.0002295964	0.03864073	2.631432e-05	8.172892e-05
	4.417114e-05	9.781028e-05	0.09136267	0.02410833	2.631432e-05	8.172892e-05	0.0007322874	0.03846459
4.7e+08	0.008761043	0.03833136	7.285516e-05	0.0001098932	0.09442906	0.01162684	6.138591e-05	9.420765e-05
	7.285516e-05	0.0001098932	0.009655221	0.03808403	4.860249e-05	0.0001056081	0.09455757	0.01253129
	0.09442906	0.01162684	4.860249e-05	0.0001056081	0.009773602	0.03947023	3.868562e-05	8.044172e-05
	6.138591e-05	9.420765e-05	0.09455757	0.01253129	3.868562e-05	8.044172e-05	0.01079151	0.03906516
4.8e+08	0.01913395	0.03737814	9.133121e-05	0.000101797	0.09584478	-0.0004306088	7.830184e-05	8.766826e-05
	9.133121e-05	0.000101797	0.02001651	0.0369187	6.337058e-05	0.000101639	0.09574135	0.0004981634
