!$
! Info: Touchstone file created by Circ.  Input file=Intel_C2M_200G_7p0in_202208016_staggered.circ
!$
# Hz S RI R 50
0	0.02245278	3.659347e-24	7.33793e-05	1.044834e-22	0.0001165309	2.96508e-22	7.337225e-05	1.043108e-22
	7.33793e-05	1.044834e-22	0.02246574	4.009444e-24	7.338378e-05	1.045733e-22	0.0001161272	2.94386e-22
	0.0001165881	2.966339e-22	7.338377e-05	1.045747e-22	0.02244767	3.82468e-24	7.337466e-05	1.043904e-22
	7.337224e-05	1.043122e-22	0.0001161844	2.945121e-22	7.337466e-05	1.043904e-22	0.0224637	3.796463e-24
1e+07	0.02728015	0.00332873	6.101036e-06	3.010493e-05	0.001871874	0.006355107	1.062572e-05	2.159563e-05
	6.101037e-06	3.010494e-05	0.0272302	0.003867307	4.663955e-06	3.4885e-05	0.001877999	0.006414461
	0.001871874	0.006355107	4.663955e-06	3.4885e-05	0.02720911	0.003921335	6.178987e-06	3.135562e-05
	1.062572e-05	2.159563e-05	0.001877999	0.006414461	6.178987e-06	3.135562e-05	0.0273088	0.003346523
2e+07	0.03180727	0.002279903	1.207051e-05	2.427198e-05	0.004262264	0.01173926	7.442535e-06	1.336808e-05
	1.207052e-05	2.427202e-05	0.03235194	0.003137822	2.454664e-05	3.610495e-05	0.004275099	0.01185628
	0.004262273	0.01173925	2.454664e-05	3.610495e-05	0.03234602	0.003245577	1.339985e-05	2.623021e-05
	7.442535e-06	1.336808e-05	0.004275108	0.01185627	1.339985e-05	2.623021e-05	0.03185062	0.00230444
3e+07	0.03480649	-0.0009274197	2.079174e-05	2.056703e-05	0.007788937	0.01652223	5.566066e-06	1.169542e-05
	2.079174e-05	2.056703e-05	0.03579316	-9.410618e-05	4.171837e-05	3.204286e-05	0.007812783	0.01669378
	0.007788916	0.01652227	4.171837e-05	3.204286e-05	0.03580579	7.109045e-05	2.308037e-05	2.256756e-05
	5.566068e-06	1.169542e-05	0.007812762	0.01669382	2.308037e-05	2.256756e-05	0.03485464	-0.0008965717
4e+07	0.03640821	-0.005004938	2.744084e-05	1.5778e-05	0.01233951	0.02032786	6.741394e-06	9.348397e-06
	2.744084e-05	1.5778e-05	0.03773772	-0.004318968	5.465887e-05	2.384889e-05	0.01237696	0.02054919
	0.01233951	0.02032789	5.465887e-05	2.384889e-05	0.03778424	-0.004104494	3.051092e-05	1.757565e-05
	6.741396e-06	9.348396e-06	0.01237696	0.02054922	3.051092e-05	1.757565e-05	0.03646275	-0.004973538
5e+07	0.03682499	-0.00936502	3.223396e-05	1.001787e-05	0.01766582	0.02300069	8.705694e-06	6.368597e-06
	3.223396e-05	1.001787e-05	0.03841542	-0.008900066	6.378127e-05	1.30191e-05	0.01771783	0.02326625
	0.01766582	0.0230007	6.378127e-05	1.30191e-05	0.03850439	-0.008645962	3.595697e-05	1.145135e-05
	8.705694e-06	6.368597e-06	0.01771783	0.02326626	3.595697e-05	1.145135e-05	0.03688294	-0.009335863
6e+07	0.03620782	-0.01368411	3.529404e-05	3.609237e-06	0.0235139	0.02440167	9.721887e-06	3.282702e-06
	3.529404e-05	3.609237e-06	0.03798475	-0.01348952	6.928804e-05	5.768947e-07	0.02357959	0.02470559
	0.02351391	0.02440165	6.928804e-05	5.768953e-07	0.03812227	-0.01320678	3.95582e-05	4.551436e-06
	9.721886e-06	3.282703e-06	0.02357961	0.02470558	3.95582e-05	4.551436e-06	0.03626651	-0.01365834
7e+07	0.03470558	-0.0177068	3.669709e-05	-3.155777e-06	0.02960148	0.02444645	9.831868e-06	2.547598e-07
	3.669709e-05	-3.155777e-06	0.03659809	-0.01781709	7.134986e-05	-1.267224e-05	0.02967807	0.02478304
	0.02960147	0.02444644	7.134986e-05	-1.267224e-05	0.03678747	-0.0175183	4.139178e-05	-2.816311e-06
	9.831868e-06	2.5476e-07	0.02967807	0.02478304	4.139178e-05	-2.816311e-06	0.034763	-0.01768532
8e+07	0.03250183	-0.02123815	3.648281e-05	-1.003625e-05	0.0356353	0.02311028	9.088474e-06	-2.538892e-06
	3.648281e-05	-1.003625e-05	0.03443947	-0.02167863	7.006516e-05	-2.611479e-05	0.03571817	0.02347458
	0.0356353	0.02311028	7.006516e-05	-2.611479e-05	0.03468094	-0.02137708	4.148861e-05	-1.040551e-05
	9.088475e-06	-2.538892e-06	0.03571817	0.02347459	4.148861e-05	-1.040551e-05	0.03255661	-0.02122176
9e+07	0.02980797	-0.02414827	3.462317e-05	-1.68731e-05	0.04132418	0.02042799	7.554363e-06	-4.93572e-06
	3.462317e-05	-1.68731e-05	0.03171538	-0.02494158	6.540342e-05	-3.933224e-05	0.04140713	0.02081632
	0.04132418	0.020428	6.540342e-05	-3.933224e-05	0.03200533	-0.02465033	3.979926e-05	-1.80658e-05
	7.554363e-06	-4.93572e-06	0.04140714	0.02081633	3.979926e-05	-1.806581e-05	0.02985868	-0.02413799
1e+08	0.02689212	-0.02633946	3.04678e-05	-2.397921e-05	0.04639184	0.01649035	5.077673e-06	-6.828314e-06
	3.04678e-05	-2.397921e-05	0.0286551	-0.02753883	5.608203e-05	-5.276502e-05	0.04646749	0.01690085
	0.04639184	0.01649035	5.608203e-05	-5.276502e-05	0.02898618	-0.02726971	3.557889e-05	-2.620573e-05
	5.077673e-06	-6.828314e-06	0.04646749	0.01690085	3.557889e-05	-2.620573e-05	0.0269372	-0.02633678
1.1e+08	0.02393888	-0.0281551	2.354116e-05	-2.697588e-05	0.05058122	0.01142595	2.339879e-06	-6.775319e-06
	2.354116e-05	-2.697588e-05	0.02536317	-0.02957043	4.169885e-05	-5.774802e-05	0.05064148	0.01185845
	0.05058121	0.01142595	4.169885e-05	-5.774802e-05	0.02575841	-0.02938373	2.804697e-05	-2.991788e-05
	2.339879e-06	-6.775318e-06	0.05064148	0.01185845	2.804697e-05	-2.991788e-05	0.0240047	-0.02821119
1.2e+08	0.02084693	-0.02937705	1.804263e-05	-2.80865e-05	0.05364434	0.005477262	4.012037e-07	-6.165517e-06
	1.804263e-05	-2.80865e-05	0.02199286	-0.03089971	3.063475e-05	-5.931443e-05	0.05368033	0.005933905
	0.05364434	0.00547726	3.063475e-05	-5.931443e-05	0.02238494	-0.03077579	2.201964e-05	-3.150857e-05
	4.012039e-07	-6.165516e-06	0.05368033	0.005933903	2.201964e-05	-3.150857e-05	0.02087463	-0.02946383
1.3e+08	0.01784813	-0.03002143	1.47051e-05	-2.743924e-05	0.05542446	-0.001120937	-1.156441e-06	-5.478591e-06
	1.47051e-05	-2.743924e-05	0.01874268	-0.03159793	2.707644e-05	-5.576224e-05	0.05542769	-0.0006355052
	0.05542445	-0.001120938	2.707644e-05	-5.576224e-05	0.0191151	-0.03151144	1.869469e-05	-3.083853e-05
	-1.156441e-06	-5.47859e-06	0.05542769	-0.0006355064	1.869469e-05	-3.083853e-05	0.01783153	-0.03010855
1.4e+08	0.01508269	-0.03017492	1.300105e-05	-2.565056e-05	0.05580661	-0.008101221	-2.426183e-06	-4.701428e-06
	1.300105e-05	-2.565056e-05	0.01574795	-0.03176677	2.353024e-05	-5.255029e-05	0.05576945	-0.007580034
	0.05580661	-0.008101221	2.353024e-05	-5.255029e-05	0.01610007	-0.03170743	1.683905e-05	-2.912605e-05
	-2.426183e-06	-4.701428e-06	0.05576945	-0.007580035	1.683905e-05	-2.912605e-05	0.01503195	-0.03025052
1.5e+08	0.01264863	-0.02994998	1.151675e-05	-2.415041e-05	0.05472779	-0.0151763	-3.382106e-06	-3.730811e-06
	1.151675e-05	-2.415041e-05	0.01310522	-0.03152741	2.011802e-05	-4.939309e-05	0.05464406	-0.01461025
	0.05472778	-0.0151763	2.011802e-05	-4.939309e-05	0.01343514	-0.03149397	1.508296e-05	-2.750578e-05
	-3.382106e-06	-3.730811e-06	0.05464406	-0.01461025	1.508296e-05	-2.750578e-05	0.01257222	-0.03001431
1.6e+08	0.01060514	-0.029474	1.012424e-05	-2.268699e-05	0.05218158	-0.02205014	-4.022785e-06	-2.715097e-06
	1.012424e-05	-2.268699e-05	0.01087301	-0.03101359	1.693594e-05	-4.622229e-05	0.05204701	-0.02142827
	0.05218158	-0.02205014	1.693594e-05	-4.622229e-05	0.01117453	-0.03100731	1.347907e-05	-2.608661e-05
	-4.022784e-06	-2.715097e-06	0.05204701	-0.02142827	1.347907e-05	-2.608661e-05	0.01050593	-0.02953267
1.7e+08	0.008973233	-0.02888071	8.845389e-06	-2.124263e-05	0.04821921	-0.02842927	-4.406232e-06	-1.817576e-06
	8.845389e-06	-2.124263e-05	0.009071814	-0.0303641	1.403017e-05	-4.302913e-05	0.04803194	-0.02773919
	0.04821921	-0.02842927	1.403017e-05	-4.302913e-05	0.009335075	-0.03038407	1.197023e-05	-2.468758e-05
	-4.406232e-06	-1.817576e-06	0.04803194	-0.02773919	1.197023e-05	-2.468758e-05	0.008848417	-0.02893956
1.8e+08	0.007736098	-0.02830054	7.672828e-06	-1.982468e-05	0.04294846	-0.03403381	-4.211082e-06	-7.662404e-07
	7.672828e-06	-1.982468e-05	0.007684143	-0.02971348	1.14393e-05	-3.980924e-05	0.04270944	-0.03326219
	0.04294846	-0.03403381	1.14393e-05	-3.980924e-05	0.007897855	-0.02975501	1.055009e-05	-2.330863e-05
	-4.211082e-06	-7.662404e-07	0.04270944	-0.03326219	1.055009e-05	-2.330863e-05	0.007578789	-0.0283633
1.9e+08	0.006841797	-0.02785231	6.642891e-06	-1.841382e-05	0.03653064	-0.03860837	-3.82902e-06	2.325866e-07
	6.642891e-06	-1.841382e-05	0.006657218	-0.02918406	9.213067e-06	-3.656349e-05	0.03624384	-0.03774158
	0.03653064	-0.03860837	9.213067e-06	-3.656349e-05	0.00681068	-0.02923808	9.258683e-06	-2.192466e-05
	-3.82902e-06	2.325866e-07	0.03624384	-0.03774158	9.258683e-06	-2.192466e-05	0.006642654	-0.02791921
2e+08	0.006207224	-0.02763421	5.767928e-06	-1.701705e-05	0.02917474	-0.04193176	-3.318566e-06	1.140724e-06
	5.767928e-06	-1.701705e-05	0.005906894	-0.02887683	7.369341e-06	-3.332343e-05	0.02884738	-0.04095649
	0.02917474	-0.04193176	7.369341e-06	-3.332343e-05	0.005992156	-0.02893116	8.111088e-06	-2.053806e-05
	-3.318566e-06	1.140724e-06	0.02884738	-0.04095649	8.111088e-06	-2.053806e-05	0.005956369	-0.02770229
2.1e+08	0.005725285	-0.02771641	5.05043e-06	-1.564705e-05	0.0211306	-0.04382551	-2.690487e-06	1.939632e-06
	5.05043e-06	-1.564705e-05	0.005324838	-0.02886436	5.913597e-06	-3.012618e-05	0.02077308	-0.04272955
	0.0211306	-0.04382551	5.913597e-06	-3.012618e-05	0.005337042	-0.02890419	7.113353e-06	-1.915788e-05
	-2.690487e-06	1.939632e-06	0.02077308	-0.04272955	7.113353e-06	-1.915788e-05	0.005412676	-0.02777911
2.2e+08	0.005271527	-0.02813608	4.489489e-06	-1.431844e-05	0.01268008	-0.04416116	-1.959691e-06	2.612164e-06
	4.489489e-06	-1.431844e-05	0.004785321	-0.02918557	4.842334e-06	-2.701244e-05	0.01230588	-0.04293412
	0.01268008	-0.04416116	4.842334e-06	-2.701244e-05	0.004724112	-0.02919501	6.268393e-06	-1.7796e-05
	-1.959691e-06	2.612164e-06	0.01230588	-0.04293412	6.268393e-06	-1.7796e-05	0.004888702	-0.02818367
2.3e+08	0.004714208	-0.02889366	4.080322e-06	-1.304676e-05	0.00412707	-0.0428661	-1.144682e-06	3.143431e-06
	4.080322e-06	-1.304676e-05	0.004155322	-0.02984219	4.142991e-06	-2.402385e-05	0.003752417	-0.04150014
	0.004127069	-0.0428661	4.142991e-06	-2.402385e-05	0.004024352	-0.02980603	5.575614e-06	-1.646603e-05
	-1.144682e-06	3.143431e-06	0.003752417	-0.04150014	5.575614e-06	-1.646603e-05	0.004254375	-0.02891413
2.4e+08	0.003923596	-0.02995168	3.81478e-06	-1.184751e-05	-0.00421301	-0.03992675	-2.669557e-07	3.521441e-06
	3.81478e-06	-1.184751e-05	0.003303964	-0.0307976	3.794918e-06	-2.120127e-05	-0.00456964	-0.03841722
	-0.00421301	-0.03992675	3.794918e-06	-2.120127e-05	0.003110487	-0.03070156	5.031271e-06	-1.518255e-05
	-2.669557e-07	3.521441e-06	-0.00456964	-0.03841722	5.031271e-06	-1.518255e-05	0.003382123	-0.02993026
2.5e+08	0.002781673	-0.0312356	3.681557e-06	-1.07356e-05	-0.012025	-0.03539016	6.496403e-07	3.737643e-06
	3.681557e-06	-1.07356e-05	0.002112316	-0.03197769	3.77002e-06	-1.858311e-05	-0.01234354	-0.03373624
	-0.012025	-0.03539016	3.77002e-06	-1.858311e-05	0.001866777	-0.03181044	4.628508e-06	-1.396031e-05
	6.496403e-07	3.737643e-06	-0.01234354	-0.03373624	4.628508e-06	-1.396031e-05	0.00215681	-0.03115617
2.6e+08	0.001191477	-0.0326379	3.666625e-06	-9.724519e-06	-0.01900573	-0.02936376	1.579598e-06	3.787384e-06
	3.666625e-06	-9.724519e-06	0.000482774	-0.03327513	4.0337e-06	-1.620401e-05	-0.01926529	-0.02756888
	-0.01900573	-0.02936376	4.0337e-06	-1.620401e-05	0.0001976995	-0.03302793	4.357688e-06	-1.281365e-05
	1.579598e-06	3.787384e-06	-0.01926529	-0.02756888	4.357688e-06	-1.281365e-05	0.000484529	-0.03248249
2.7e+08	-0.0009147295	-0.0340233	3.753507e-06	-8.826031e-06	-0.02487484	-0.02201173	2.496445e-06	3.670127e-06
	3.753507e-06	-8.826031e-06	-0.00165264	-0.0345547	4.545659e-06	-1.409363e-05	-0.02505467	-0.02008381
	-0.02487484	-0.02201173	4.545659e-06	-1.409363e-05	-0.001963355	-0.03422229	4.206495e-06	-1.175592e-05
	2.496445e-06	3.670127e-06	-0.02505467	-0.02008381	4.206495e-06	-1.175592e-05	-0.00169872	-0.03377313
2.8e+08	-0.00356802	-0.03523623	3.923691e-06	-8.049678e-06	-0.02938616	-0.01355042	3.373507e-06	3.389679e-06
	3.923691e-06	-8.049678e-06	-0.004324931	-0.03566086	5.260934e-06	-1.227583e-05	-0.02946662	-0.01150194
	-0.02938616	-0.01355042	5.260934e-06	-1.227583e-05	-0.004646984	-0.03524186	4.16018e-06	-1.079912e-05
	3.373508e-06	3.389679e-06	-0.02946662	-0.01150194	4.16018e-06	-1.079912e-05	-0.004419929	-0.03487267
2.9e+08	-0.006758481	-0.03611069	4.157007e-06	-7.40237e-06	-0.03233718	-0.004241088	4.184671e-06	2.95424e-06
	4.157007e-06	-7.40237e-06	-0.007523685	-0.03642779	6.130979e-06	-1.076769e-05	-0.03230074	-0.002088954
	-0.03233718	-0.004241088	6.130979e-06	-1.076769e-05	-0.007843455	-0.03592371	4.201879e-06	-9.953238e-06
	4.184671e-06	2.95424e-06	-0.03230074	-0.002088954	4.201879e-06	-9.953238e-06	-0.007664902	-0.03561529
3e+08	-0.01043214	-0.03648019	4.432018e-06	-6.888072e-06	-0.03357659	0.005619248	4.905098e-06	2.376267e-06
	4.432018e-06	-6.888072e-06	-0.01119422	-0.03668944	7.104784e-06	-9.578959e-06	-0.03340886	0.007854135
	-0.03357659	0.005619248	7.104785e-06	-9.578958e-06	-0.01149961	-0.03610495	4.312822e-06	-9.22595e-06
	4.905098e-06	2.376267e-06	-0.03340886	0.007854135	4.312822e-06	-9.22595e-06	-0.01137534	-0.0358362
3.1e+08	-0.01449114	-0.03618888	4.726572e-06	-6.50756e-06	-0.03301125	0.01570811	5.512041e-06	1.672351e-06
	4.726572e-06	-6.50756e-06	-0.01523776	-0.0362908	8.130213e-06	-8.711663e-06	-0.0327018	0.0180015
	-0.03301125	0.01570811	8.130213e-06	-8.711663e-06	-0.01551858	-0.03563244	4.472827e-06	-8.622173e-06
	5.512041e-06	1.672351e-06	-0.0327018	0.0180015	4.472827e-06	-8.622173e-06	-0.0154488	-0.03538163
3.2e+08	-0.01879602	-0.03510186	5.018271e-06	-6.258161e-06	-0.03060978	0.02568909	5.98551e-06	8.628491e-07
	5.018271e-06	-6.258161e-06	-0.0195139	-0.03509827	9.15521e-06	-8.159749e-06	-0.03015294	0.02801416
	-0.03060978	0.02568909	9.15521e-06	-8.159749e-06	-0.01976221	-0.03437509	4.660682e-06	-8.143629e-06
	5.98551e-06	8.628491e-07	-0.03015294	0.02801416	4.660682e-06	-8.143629e-06	-0.01974148	-0.03412123
3.3e+08	-0.02317101	-0.03311609	5.285038e-06	-6.133637e-06	-0.02640387	0.0352236	6.308906e-06	-2.856558e-08
	5.285038e-06	-6.133637e-06	-0.02384605	-0.03301057	1.012916e-05	-7.909243e-06	-0.02579929	0.03755198
	-0.02640387	0.0352236	1.012916e-05	-7.909243e-06	-0.02405653	-0.03223208	4.854747e-06	-7.788676e-06
	6.308906e-06	-2.856559e-08	-0.02579929	0.03755198	4.854747e-06	-7.788676e-06	-0.02407398	-0.03195626
3.4e+08	-0.02741102	-0.03016896	5.505826e-06	-6.124131e-06	-0.0204883	0.04398357	6.469745e-06	-9.754457e-07
	5.505826e-06	-6.124131e-06	-0.02802864	-0.02996735	1.100432e-05	-7.938273e-06	-0.01974127	0.04628641
	-0.0204883	0.04398357	1.100432e-05	-7.938273e-06	-0.02819911	-0.02914367	5.033609e-06	-7.55203e-06
	6.469745e-06	-9.754457e-07	-0.01974127	0.04628641	5.033609e-06	-7.55203e-06	-0.02823893	-0.02883038
3.5e+08	-0.03129194	-0.02624531	5.661234e-06	-6.216245e-06	-0.01301716	0.05166231	6.460041e-06	-1.949286e-06
	5.661234e-06	-6.216245e-06	-0.03183749	-0.02595606	1.173703e-05	-8.217681e-06	-0.0121387	0.05391141
	-0.01301716	0.05166231	1.173703e-05	-8.217681e-06	-0.03196795	-0.02509636	5.176725e-06	-7.424792e-06
	6.460041e-06	-1.949286e-06	-0.0121387	0.05391141	5.176725e-06	-7.424792e-06	-0.03201038	-0.02473467
3.6e+08	-0.03458105	-0.02138194	5.734251e-06	-6.393263e-06	-0.004199233	0.05798574	6.276808e-06	-2.920295e-06
	5.734251e-06	-6.393263e-06	-0.03504044	-0.02101633	1.228908e-05	-8.711608e-06	-0.003206009	0.06015473
	-0.004199233	0.05798574	1.228908e-05	-8.711608e-06	-0.03513345	-0.02012923	5.265217e-06	-7.394441e-06
	6.276808e-06	-2.920295e-06	-0.003206009	0.06015473	5.265217e-06	-7.394441e-06	-0.03515579	-0.01971369
3.7e+08	-0.03704981	-0.01567019	5.710907e-06	-6.635529e-06	0.005709686	0.06272195	5.922264e-06	-3.858341e-06
	5.710907e-06	-6.635529e-06	-0.03741015	-0.01524247	1.262875e-05	-9.378472e-06	0.00679578	0.06478741
	0.005709686	0.06272195	1.262875e-05	-9.378472e-06	-0.03747014	-0.01433483	5.282574e-06	-7.445185e-06
	5.922264e-06	-3.858341e-06	0.00679578	0.06478741	5.282574e-06	-7.445185e-06	-0.0374482	-0.0138662
3.8e+08	-0.03848553	-0.009254486	5.580879e-06	-6.920985e-06	0.01641526	0.06568828	5.403895e-06	-4.73384e-06
	5.580879e-06	-6.920985e-06	-0.03873586	-0.008781773	1.273181e-05	-1.01721e-05	0.01756762	0.06763071
	0.01641526	0.06568828	1.273181e-05	-1.01721e-05	-0.03876837	-0.007858358	5.215305e-06	-7.558367e-06
	5.403895e-06	-4.73384e-06	0.01756762	0.06763071	5.215305e-06	-7.558367e-06	-0.0386779	-0.007343875
3.9e+08	-0.03870328	-0.002330053	5.338022e-06	-7.225843e-06	0.02759402	0.06675835	4.734443e-06	-5.518774e-06
	5.338022e-06	-7.225843e-06	-0.03883522	-0.001832039	1.25823e-05	-1.104292e-05	0.0287821	0.06856307
	0.02759402	0.06675835	1.25823e-05	-1.104292e-05	-0.03884744	-0.0008956078	5.053605e-06	-7.71298e-06
	4.734443e-06	-5.518774e-06	0.0287821	0.06856307	5.053605e-06	-7.71298e-06	-0.0386657	-0.0003490407
4e+08	-0.03755823	0.004864358	4.980739e-06	-7.525411e-06	0.03890481	0.06586515	3.931501e-06	-6.187666e-06
	4.980739e-06	-7.525411e-06	-0.03756664	0.005365815	1.217306e-05	-1.193958e-05	0.04009508	0.06752307
	0.03890481	0.06586515	1.217306e-05	-1.193958e-05	-0.03756543	0.006315468	4.791743e-06	-7.886557e-06
	3.931501e-06	-6.187666e-06	0.04009508	0.06752307	4.791743e-06	-7.886557e-06	-0.03727266	0.006874193
4.1e+08	-0.03495489	0.01205518	4.512514e-06	-7.79508e-06	0.04999908	0.06300343	3.017039e-06	-6.718312e-06
	4.512514e-06	-7.79508e-06	-0.03483856	0.01253639	1.150675e-05	-1.281231e-05	0.05115595	0.06451155
	0.04999908	0.06300343	1.150675e-05	-1.281231e-05	-0.03483025	0.01350153	4.429588e-06	-8.057754e-06
	3.017039e-06	-6.718312e-06	0.05115595	0.06451155	4.429588e-06	-8.057754e-06	-0.03441098	0.01404717
4.2e+08	-0.03085409	0.0189426	3.940931e-06	-8.011111e-06	0.06053244	0.0582302	2.016859e-06	-7.09304e-06
	3.940931e-06	-8.011111e-06	-0.03061601	0.01937917	1.059342e-05	-1.361097e-05	0.06161951	0.05959204
	0.06053244	0.0582302	1.059342e-05	-1.361097e-05	-0.03060616	0.02036432	3.969265e-06	-8.203777e-06
	2.016859e-06	-7.09304e-06	0.06161951	0.05959204	3.969265e-06	-8.203777e-06	-0.03005053	0.02086697
4.3e+08	-0.02527969	0.02521506	3.278182e-06	-8.151738e-06	0.07017541	0.0516619	9.595076e-07	-7.299226e-06
	3.278182e-06	-8.151738e-06	-0.02492717	0.02558253	9.451521e-06	-1.428646e-05	0.07115656	0.0528877
	0.07017541	0.0516619	9.451521e-06	-1.428646e-05	-0.02491952	0.02659454	3.416966e-06	-8.30104e-06
	9.595076e-07	-7.299226e-06	0.07115656	0.0528877	3.416966e-06	-8.30104e-06	-0.02422454	0.02702077
4.4e+08	-0.0183205	0.03056132	2.540647e-06	-8.19803e-06	0.07862319	0.04347149	-1.246619e-07	-7.32953e-06
	2.540647e-06	-8.19803e-06	-0.01786544	0.03083593	8.108563e-06	-1.479548e-05	0.07946381	0.04457812
	0.07862319	0.04347149	8.108563e-06	-1.479548e-05	-0.01786159	0.03188286	2.784249e-06	-8.32925e-06
	-1.246619e-07	-7.32953e-06	0.07946381	0.04457812	2.784249e-06	-8.32925e-06	-0.01703183	0.03219731
4.5e+08	-0.01013129	0.03468313	1.748038e-06	-8.134597e-06	0.08560558	0.03388292	-1.204571e-06	-7.182306e-06
	1.748038e-06	-8.134597e-06	-0.0095901	0.0348425	6.599203e-06	-1.510037e-05	0.0862738	0.03489366
	0.08560558	0.03388292	6.599203e-06	-1.510037e-05	-0.009588964	0.03593368	2.086306e-06	-8.270766e-06
	-1.204571e-06	-7.182306e-06	0.0862738	0.03489366	2.086306e-06	-8.270766e-06	-0.00863716	0.03610063
4.6e+08	-0.0009297068	0.03730979	9.22592e-07	-7.95024e-06	0.09089483	0.0231642	-2.249558e-06	-6.861619e-06
	9.22592e-07	-7.95024e-06	-0.0003232555	0.03733379	4.964114e-06	-1.517041e-05	0.09136267	0.02410833
	0.09089483	0.0231642	4.964114e-06	-1.517041e-05	-0.0003204245	0.03847954	1.341376e-06	-8.111307e-06
	-2.249558e-06	-6.861619e-06	0.09136267	0.02410833	1.341376e-06	-8.111307e-06	0.0007322874	0.03846459
4.7e+08	0.009008572	0.03821241	8.817722e-08	-7.638392e-06	0.09431302	0.01161922	-3.230511e-06	-6.377018e-06
	8.817722e-08	-7.638392e-06	0.009655221	0.03808403	3.248687e-06	-1.498273e-05	0.09455757	0.01253129
	0.09431302	0.01161922	3.248687e-06	-1.498273e-05	0.009667336	0.03929326	5.699872e-07	-7.840357e-06
	-3.230511e-06	-6.377018e-06	0.09455757	0.01253129	5.699872e-07	-7.840357e-06	0.01079151	0.03906516
4.8e+08	0.01935857	0.03721269	-7.307641e-07	-7.197142e-06	0.09573703	-0.0004208035	-4.120846e-06	-5.743051e-06
	-7.307641e-07	-7.197142e-06	0.02001651	0.0369187	1.501491e-06	-1.452284e-05	0.09574135	0.0004981634
