!$
! Info: Touchstone file created by Circ.  Input file=Intel_C2M_200G_7p0in_202208016_staggered.circ
!$
# Hz S RI R 50
0	0.02246574	4.009444e-24	0.9773348	-6.8888e-24	0.0001161272	2.94386e-22	-0.0002466239	3.020272e-20
	0.9773348	-6.886076e-24	0.02301888	7.346298e-24	-0.0002466796	3.020953e-20	0.0003392046	7.657248e-22
	0.0001161844	2.945121e-22	-0.0002468157	3.02262e-20	0.0224637	3.796463e-24	0.9773351	-7.010951e-24
	-0.00024676	3.021938e-20	0.0003392716	7.662641e-22	0.9773351	-7.013682e-24	0.0230203	7.507676e-24
1e+07	0.0272302	0.003867307	0.9667699	-0.1101942	0.001877999	0.006414461	-0.00117059	-0.0006507883
	0.9667699	-0.1101942	0.02743074	0.003857273	-0.001171944	-0.0006510398	0.001726701	0.006458237
	0.001877999	0.006414461	-0.001171944	-0.0006510398	0.0273088	0.003346523	0.9667115	-0.1096534
	-0.00117059	-0.0006507883	0.001726701	0.006458237	0.9667115	-0.1096534	0.02747338	0.003324456
2e+07	0.03235194	0.003137822	0.944015	-0.2142784	0.004275099	0.01185628	-0.001493007	-0.000710534
	0.944015	-0.2142784	0.03323561	0.002993043	-0.001496493	-0.000707505	0.003652217	0.01212462
	0.004275108	0.01185627	-0.001496497	-0.000707615	0.03185062	0.00230444	0.9445896	-0.2134482
	-0.00149301	-0.0007106377	0.003652306	0.01212452	0.9445896	-0.2134482	0.03260854	0.002224954
3e+07	0.03579316	-9.410618e-05	0.9118191	-0.3130815	0.007812783	0.01669378	-0.001755092	-0.000715272
	0.9118191	-0.3130815	0.03716639	-0.0008728717	-0.001758484	-0.000706923	0.006585192	0.01724975
	0.007812762	0.01669382	-0.001758526	-0.0007069181	0.03485464	-0.0008965717	0.912869	-0.3123282
	-0.001755105	-0.0007152761	0.006585168	0.01724972	0.912869	-0.3123282	0.0360602	-0.001486657
4e+07	0.03773772	-0.004318968	0.8701718	-0.4069799	0.01237696	0.02054919	-0.00196138	-0.0006762268
	0.8701718	-0.4069799	0.03979103	-0.005817956	-0.001961441	-0.0006621073	0.01032544	0.02171246
	0.01237696	0.02054922	-0.001961446	-0.0006621028	0.03646275	-0.004973538	0.8715887	-0.4064462
	-0.00196138	-0.0006762133	0.01032544	0.02171247	0.8715887	-0.4064462	0.03834369	-0.00612212
5e+07	0.03841542	-0.008900066	0.8194579	-0.4953442	0.01771783	0.02326625	-0.002118364	-0.000619357
	0.8194579	-0.4953442	0.04118819	-0.01141225	-0.002111881	-0.0006007772	0.01474987	0.0253561
	0.01771783	0.02326626	-0.002111879	-0.0006007782	0.03688294	-0.009335863	0.8211444	-0.4951207
	-0.002118362	-0.0006193584	0.01474987	0.02535611	0.8211444	-0.4951207	0.03953443	-0.0113186
6e+07	0.03798475	-0.01348952	0.7602366	-0.5774267	0.02357959	0.02470559	-0.002238157	-0.0005708309
	0.7602366	-0.5774267	0.04138861	-0.01727054	-0.00222256	-0.0005504985	0.01967759	0.02807824
	0.02357961	0.02470558	-0.002222558	-0.0005504997	0.03626651	-0.01365834	0.7620968	-0.5775754
	-0.002238155	-0.0005708315	0.01967759	0.02807824	0.7620968	-0.5775754	0.03966122	-0.01673421
7e+07	0.03659809	-0.01781709	0.6931785	-0.6524878	0.02967807	0.02478304	-0.002341861	-0.0005482152
	0.6931785	-0.6524878	0.04048266	-0.02308504	-0.002315678	-0.0005301007	0.02491458	0.02981767
	0.02967807	0.02478304	-0.00231564	-0.0005301598	0.034763	-0.01768532	0.6951138	-0.6530505
	-0.002341859	-0.0005482176	0.02491458	0.02981767	0.6951138	-0.6530505	0.03881078	-0.02209562
8e+07	0.03443947	-0.02167863	0.6190411	-0.7198362	0.03571817	0.02347458	-0.002454218	-0.0005580234
	0.6190411	-0.7198362	0.03858871	-0.02861709	-0.002417724	-0.0005467792	0.03026001	0.03055375
	0.03571817	0.02347459	-0.002417724	-0.0005467767	0.03255661	-0.02122176	0.62095	-0.7208398
	-0.002454219	-0.0005580208	0.03026001	0.03055375	0.62095	-0.7208398	0.037097	-0.02719337
9e+07	0.03171538	-0.02494158	0.5386531	-0.7788512	0.04140713	0.02081632	-0.00260025	-0.0005957947
	0.5386531	-0.7788512	0.03584293	-0.03367381	-0.002555674	-0.0005962715	0.03551628	0.03030737
	0.04140714	0.02081633	-0.002555671	-0.0005962629	0.02985868	-0.02413799	0.5404201	-0.7803086
	-0.002600249	-0.0005957852	0.03551628	0.03030737	0.5404201	-0.7803086	0.03465456	-0.03185892
1e+08	0.0286551	-0.02753883	0.4528783	-0.8290066	0.04646749	0.01690085	-0.002803514	-0.0006460435
	0.4528783	-0.8290066	0.03241201	-0.03808293	-0.002755984	-0.0006634181	0.04050018	0.02913726
	0.04646749	0.01690085	-0.002755984	-0.000663419	0.0269372	-0.02633678	0.4543328	-0.830941
	-0.002803514	-0.0006460444	0.04050018	0.02913726	0.4543328	-0.830941	0.03169053	-0.03593868
1.1e+08	0.02536317	-0.02957043	0.3626697	-0.8697048	0.05064148	0.01185845	-0.003066398	-0.0006796364
	0.3626697	-0.8697048	0.02854045	-0.04181927	-0.003023704	-0.0007106715	0.04502766	0.02712959
	0.05064148	0.01185845	-0.003023704	-0.0007106728	0.0240047	-0.02821119	0.3636453	-0.8718434
	-0.003066398	-0.0006796378	0.04502766	0.02712959	0.3636453	-0.8718434	0.02834099	-0.03964727
1.2e+08	0.02199286	-0.03089971	0.2691308	-0.9006795	0.05368033	0.005933905	-0.003398854	-0.0006929229
	0.2691308	-0.9006795	0.02427659	-0.04480256	-0.003364086	-0.0007357498	0.04895454	0.02443015
	0.05368033	0.005933903	-0.003364086	-0.0007357512	0.02087463	-0.02946383	0.2697006	-0.9029136
	-0.003398855	-0.0006929243	0.04895454	0.02443015	0.2697006	-0.9029136	0.02448471	-0.04270498
1.3e+08	0.01874268	-0.03159793	0.173247	-0.9217137	0.05542769	-0.0006355052	-0.003806891	-0.0006538038
	0.173247	-0.9217137	0.01982301	-0.04696763	-0.00378333	-0.0007058869	0.05217587	0.02119301
	0.05542769	-0.0006355064	-0.00378333	-0.000705888	0.01783153	-0.03010855	0.173439	-0.923978
	-0.003806892	-0.0006538049	0.05217587	0.02119301	0.173439	-0.923978	0.02036846	-0.04500721
1.4e+08	0.01574795	-0.03176677	0.07603726	-0.9326736	0.05576945	-0.007580034	-0.004283063	-0.0005321698
	0.07603726	-0.9326736	0.01536666	-0.04831249	-0.004272735	-0.0005896195	0.05461926	0.0175889
	0.05576945	-0.007580035	-0.004272735	-0.0005896203	0.01503195	-0.03025052	0.07587494	-0.9349113
	-0.004283064	-0.0005321706	0.05461926	0.0175889	0.07587494	-0.9349113	0.01618565	-0.04653019
1.5e+08	0.01310522	-0.03152741	-0.02147453	-0.9335217	0.05464406	-0.01461025	-0.004809747	-0.0003006987
	-0.02147453	-0.9335217	0.011081	-0.0488768	-0.004813329	-0.0003598258	0.05625026	0.01379676
	0.05464406	-0.01461025	-0.00481333	-0.0003598264	0.01257222	-0.03001431	-0.02196659	-0.9356855
	-0.004809748	-0.0003006992	0.05625026	0.01379676	-0.02196659	-0.9356855	0.01211431	-0.04729751
1.6e+08	0.01087301	-0.03101359	-0.1182675	-0.9243165	0.05204701	-0.02142827	-0.005360945	6.211104e-05
	-0.1182675	-0.9243165	0.007120406	-0.0487345	-0.005378017	4.875678e-06	0.05707264	0.00999641
	0.05204701	-0.02142827	-0.005378017	4.875397e-06	0.01050593	-0.02953267	-0.1190649	-0.9263652
	-0.005360945	6.211077e-05	0.05707264	0.009996411	-0.1190649	-0.9263652	0.008313274	-0.04737031
1.7e+08	0.009071814	-0.0303641	-0.2133365	-0.9052158	0.04803194	-0.02773919	-0.00590456	0.0005699054
	-0.2133365	-0.9052158	0.0036153	-0.04798767	-0.005933819	0.0005177532	0.05712723	0.006359688
	0.04803194	-0.02773919	-0.005933819	0.0005177531	0.008848417	-0.02893956	-0.2144118	-0.9071128
	-0.00590456	0.0005699054	0.05712723	0.006359688	-0.2144118	-0.9071128	0.004918464	-0.04684033
1.8e+08	0.007684143	-0.02971348	-0.3056981	-0.8764725	0.04270944	-0.03326219	-0.006405084	0.00122723
	-0.3056981	-0.8764725	0.0006689489	-0.04675952	-0.006444637	0.001182619	0.05648963	0.003043796
	0.04270944	-0.03326219	-0.006444638	0.001182619	0.007578789	-0.0283633	-0.307021	-0.8781849
	-0.006405084	0.00122723	0.05648963	0.003043797	-0.307021	-0.8781849	0.002038428	-0.04582263
1.9e+08	0.006657218	-0.02918406	-0.3943967	-0.8384314	0.03624384	-0.03774158	-0.006826166	0.002029331
	-0.3943967	-0.8384314	-0.001645791	-0.04518854	-0.006873746	0.00199406	0.05526591	0.0001850099
	0.03624384	-0.03774158	-0.006873746	0.00199406	0.006642654	-0.02791921	-0.3959348	-0.8399341
	-0.006826167	0.002029331	0.05526591	0.0001850101	-0.3959348	-0.8399341	-0.0002473726	-0.04444919
2e+08	0.005906894	-0.02887683	-0.4785164	-0.791529	0.02884738	-0.04095649	-0.007133521	0.002962169
	-0.4785164	-0.791529	-0.003286528	-0.04342152	-0.007186771	0.002937221	0.05358689	-0.002107879
	0.02884738	-0.04095649	-0.007186771	0.002937221	0.005956369	-0.02770229	-0.480236	-0.7927971
	-0.007133522	0.002962169	0.05358689	-0.002107879	-0.480236	-0.7927971	-0.001890776	-0.04286161
2.1e+08	0.005324838	-0.02886436	-0.5571882	-0.7362898	0.02077308	-0.04272955	-0.007297503	0.004003558
	-0.5571882	-0.7362898	-0.004243304	-0.04160737	-0.007353858	0.003989571	0.05160318	-0.003757035
	0.02077308	-0.04272955	-0.007353858	0.003989571	0.005412676	-0.02777911	-0.559053	-0.7373061
	-0.007297503	0.004003558	0.05160318	-0.003757035	-0.559053	-0.7373061	-0.002874319	-0.04120556
2.2e+08	0.004785321	-0.02918557	-0.6295961	-0.6733211	0.01230588	-0.04293412	-0.007294202	0.005125269
	-0.6295961	-0.6733211	-0.004535462	-0.03989081	-0.007351447	0.005122061	0.04947683	-0.004719157
	0.01230588	-0.04293412	-0.007351447	0.005122061	0.004888702	-0.02818367	-0.6315696	-0.6740728
	-0.007294202	0.005125269	0.04947683	-0.004719157	-0.6315696	-0.6740728	-0.003211479	-0.03962354
2.3e+08	0.004155322	-0.02984219	-0.6949848	-0.6033114	0.003752417	-0.04150014	-0.007107675	0.006294404
	-0.6949848	-0.6033114	-0.00421117	-0.03840665	-0.007163625	0.006301617	0.04737478	-0.004987027
	0.003752417	-0.04150014	-0.007163625	0.006301617	0.004254375	-0.02891413	-0.6970308	-0.6037899
	-0.007107675	0.006294404	0.04737478	-0.004987027	-0.6970308	-0.6037899	-0.002943757	-0.03824964
2.4e+08	0.003303964	-0.0307976	-0.7526743	-0.5270234	-0.00456964	-0.03841722	-0.006729299	0.00747676
	-0.7526743	-0.5270234	-0.003343657	-0.03727442	-0.006782364	0.007493361	0.04546127	-0.004589331
	-0.00456964	-0.03841722	-0.006782364	0.00749336	0.003382123	-0.02993026	-0.754756	-0.5272269
	-0.006729299	0.00747676	0.04546127	-0.004589331	-0.754756	-0.5272269	-0.002138345	-0.03720403
2.5e+08	0.002112316	-0.03197769	-0.8020612	-0.4452909	-0.01234354	-0.03373624	-0.006158393	0.0086379
	-0.8020612	-0.4452909	-0.00202685	-0.03659429	-0.006207185	0.008662699	0.0438901	-0.003589572
	-0.01234354	-0.03373624	-0.006207185	0.008662699	0.00215681	-0.03115617	-0.8041418	-0.4452185
	-0.006158393	0.0086379	0.0438901	-0.003589572	-0.8041418	-0.4452185	-0.0008837258	-0.03658838
2.6e+08	0.000482774	-0.03327513	-0.8426299	-0.3590046	-0.01926529	-0.02756888	-0.005401321	0.009745574
	-0.8426299	-0.3590046	-0.0003714245	-0.03644301	-0.00544464	0.009777432	0.04279782	-0.002083123
	-0.01926529	-0.02756888	-0.00544464	0.009777432	0.000484529	-0.03248249	-0.8446734	-0.3586638
	-0.005401321	0.009745574	0.04279782	-0.002083123	-0.8446734	-0.3586638	0.0007140131	-0.03648252
2.7e+08	-0.00165264	-0.0345547	-0.8739583	-0.2691099	-0.02505467	-0.02008381	-0.004469606	0.01077107
	-0.8739583	-0.2691099	0.001501614	-0.0368724	-0.004507042	0.01080865	0.04229745	-0.000192368
	-0.02505467	-0.02008381	-0.004507042	0.01080865	-0.00169872	-0.03377313	-0.8759328	-0.2685102
	-0.004469606	0.01077107	0.04229745	-0.000192368	-0.8759328	-0.2685102	0.002537602	-0.03694131
2.8e+08	-0.004324931	-0.03566086	-0.8957278	-0.1765942	-0.02946662	-0.01150194	-0.003378984	0.01168989
	-0.8957278	-0.1765942	0.003465884	-0.03790769	-0.003409952	0.01173212	0.04247337	0.001937918
	-0.02946662	-0.01150194	-0.003409952	0.01173212	-0.004419929	-0.03487267	-0.8976023	-0.1757491
	-0.003378984	0.01168989	0.04247337	0.001937918	-0.8976023	-0.1757491	0.00446329	-0.03799378
2.9e+08	-0.007523685	-0.03642779	-0.9077265	-0.08247649	-0.03230074	-0.002088954	-0.002146911	0.01248227
	-0.9077265	-0.08247649	0.005395007	-0.03954732	-0.002171484	0.01252824	0.04337693	0.004147888
	-0.03230074	-0.002088954	-0.002171484	0.01252824	-0.007664902	-0.03561529	-0.9094723	-0.08140293
	-0.002146911	0.01248227	0.04337693	0.004147888	-0.9094723	-0.08140293	0.00636649	-0.03964289
3e+08	-0.01119422	-0.03668944	-0.909852	0.01220732	-0.03340886	0.007854135	-0.0007925002	0.01313268
	-0.909852	0.01220732	0.007169137	-0.04176485	-0.0008106068	0.01318167	0.04502416	0.006269153
	-0.03340886	0.007854135	-0.0008106069	0.01318167	-0.01137534	-0.0358362	-0.9114423	0.01349
	-0.0007925003	0.01313268	0.04502416	0.006269153	-0.9114423	0.01349	0.008127834	-0.0418663
3.1e+08	-0.01523776	-0.0362908	-0.9021169	0.1064167	-0.0327018	0.0180015	0.0006657867	0.01362921
	-0.9021169	0.1064167	0.008679054	-0.04451095	0.0006544607	0.0136804	0.0473951	0.008133477
	-0.0327018	0.0180015	0.0006544606	0.0136804	-0.0154488	-0.03538163	-0.9035274	0.1078842
	0.0006657867	0.01362921	0.0473951	0.008133477	-0.9035274	0.1078842	0.009637325	-0.04461885
3.2e+08	-0.0195139	-0.03509827	-0.8846457	0.1991156	-0.03015294	0.02801416	0.002210564	0.01396234
	-0.8846457	0.1991156	0.009830402	-0.04771681	0.002206235	0.01401524	0.05043397	0.009579245
	-0.03015294	0.02801416	0.002206235	0.01401524	-0.01974148	-0.03412123	-0.8858576	0.200746
	0.002210564	0.01396234	0.05043397	0.009579245	-0.8858576	0.200746	0.01079935	-0.04783534
3.3e+08	-0.02384605	-0.03301057	-0.8576742	0.289295	-0.02579929	0.03755198	0.003825887	0.01412374
	-0.8576742	0.289295	0.01054734	-0.05129825	0.003828367	0.0141781	0.05405147	0.01045963
	-0.02579929	0.03755198	0.003828367	0.0141781	-0.02407398	-0.03195626	-0.8586708	0.2910599
	0.003825887	0.01412374	0.05405147	0.01045963	-0.8586708	0.2910599	0.01153595	-0.05143454
3.4e+08	-0.02802864	-0.02996735	-0.8215485	0.3759761	-0.01974127	0.04628641	0.005495874	0.01410571
	-0.8215485	0.3759761	0.01077463	-0.05516012	0.005506077	0.01416066	0.05812939	0.01064929
	-0.01974127	0.04628641	0.005506077	0.01416066	-0.02823893	-0.02883038	-0.8223167	0.3778503
	0.005495873	0.01410571	0.05812939	0.01064929	-0.8223167	0.3778503	0.01178887	-0.05532355
3.5e+08	-0.03183749	-0.02595606	-0.7767155	0.4582334	-0.0121387	0.05391141	0.007205578	0.01389981
	-0.7767155	0.4582334	0.01047876	-0.05920123	0.007224039	0.01395451	0.06252498	0.01004933
	-0.0121387	0.05391141	0.007224038	0.01395451	-0.03201038	-0.02473467	-0.7772442	0.4601842
	0.007205578	0.01389981	0.06252498	0.01004933	-0.7772442	0.4601842	0.01152144	-0.05940296
3.6e+08	-0.03504044	-0.02101633	-0.7237178	0.5351954	-0.003206009	0.06015473	0.008938885	0.01349675
	-0.7237178	0.5351954	0.009648163	-0.06331956	0.008966014	0.01355041	0.06707755	0.0085927
	-0.003206009	0.06015473	0.008966014	0.01355041	-0.03515579	-0.01971369	-0.7240004	0.5371936
	0.008938885	0.01349675	0.06707755	0.0085927	-0.7240004	0.5371936	0.01071878	-0.06357067
3.7e+08	-0.03741015	-0.01524247	-0.6631822	0.6060623	0.00679578	0.06478741	0.01067745	0.01288681
	-0.6631822	0.6060623	0.008292283	-0.06741598	0.01071391	0.01293784	0.07161572	0.006246503
	0.00679578	0.06478741	0.01071391	0.01293784	-0.0374482	-0.0138662	-0.6632163	0.6080789
	0.01067744	0.01288681	0.07161572	0.006246503	-0.6632163	0.6080789	0.009386911	-0.06772769
3.8e+08	-0.03873586	-0.008781773	-0.5958132	0.6701122	0.01756762	0.06763071	0.0124005	0.01205941
	-0.5958132	0.6701122	0.006439879	-0.07139893	0.01244615	0.01210665	0.07596432	0.003013384
	0.01756762	0.06763071	0.01244615	0.01210665	-0.0386779	-0.007343875	-0.5955989	0.6721145
	0.0124005	0.01205941	0.07596432	0.003013384	-0.5955989	0.6721145	0.007551569	-0.07178146
3.9e+08	-0.03883522	-0.001832039	-0.5223823	0.7267035	0.0287821	0.06856307	0.0140824	0.01100627
	-0.5223823	0.7267035	0.004135896	-0.07518855	0.01413759	0.01104699	0.07995241	-0.001068508
	0.0287821	0.06856307	0.01413759	0.01104699	-0.0386657	-0.0003490407	-0.5219257	0.7286642
	0.0140824	0.01100627	0.07995241	-0.001068508	-0.5219257	0.7286642	0.005254989	-0.07564941
4e+08	-0.03756664	0.005365815	-0.4437172	0.7752867	0.04009508	0.06752307	0.01569406	0.009720138
	-0.4437172	0.7752867	0.001439047	-0.0787182	0.01575807	0.009752732	0.08341999	-0.005927466
	0.04009508	0.06752307	0.01575807	0.009752732	-0.03727266	0.006874193	-0.4430236	0.7771752
	0.01569406	0.009720138	0.08341999	-0.005927466	-0.4430236	0.7771752	0.002553949	-0.07926313
4.1e+08	-0.03483856	0.01253639	-0.3606831	0.8154039	0.05115595	0.06451155	0.01720193	0.008198291
	-0.3606831	0.8154039	-0.001582208	-0.08193759	0.0172736	0.008220735	0.08622509	-0.0114611
	0.05115595	0.06451155	0.0172736	0.008220735	-0.03441098	0.01404717	-0.3597636	0.8171935
	0.01720193	0.008198291	0.08622509	-0.0114611	-0.3597636	0.8171935	-0.0004845947	-0.08256903
4.2e+08	-0.03061601	0.01937917	-0.2741875	0.8466911	0.06161951	0.05959204	0.01856903	0.006444222
	-0.2741875	0.8466911	-0.004853549	-0.08481341	0.0186467	0.006454176	0.08824874	-0.01754173
	0.06161951	0.05959204	0.0186467	0.006454176	-0.03005053	0.02086697	-0.2730577	0.8483545
	0.01856903	0.006444222	0.08824874	-0.01754173	-0.2730577	0.8483545	-0.003786584	-0.0855307
4.3e+08	-0.02492717	0.02558253	-0.1851558	0.8688788	0.07115656	0.0528877	0.0197564	0.004467165
	-0.1851558	0.8688788	-0.00829813	-0.08732977	0.01983795	0.004463244	0.0894002	-0.02402049
	0.07115656	0.0528877	0.01983795	0.004463244	-0.02422454	0.02702077	-0.1838325	0.8703924
	0.0197564	0.004467165	0.0894002	-0.02402049	-0.1838325	0.8703924	-0.00727561	-0.08812924
4.4e+08	-0.01786544	0.03083593	-0.09452892	0.8817924	0.07946381	0.04457812	0.02072448	0.002285202
	-0.09452892	0.8817924	-0.01184105	-0.08948803	0.02080695	0.002265874	0.08961965	-0.03073476
	0.07946381	0.04457812	0.02080695	0.002265874	-0.01703183	0.03219731	-0.09303268	0.8831342
	0.02072448	0.002285202	0.08961965	-0.03073476	-0.09303268	0.8831342	-0.01087523	-0.09036284
4.5e+08	-0.0095901	0.0348425	-0.003256682	0.8853494	0.0862738	0.03489366	0.02143528	-7.544031e-05
	-0.003256682	0.8853494	-0.0154125	-0.09130559	0.02151556	-0.0001108145	0.08888088	-0.0375139
	0.0862738	0.03489366	0.02151556	-0.0001108145	-0.00863716	0.03610063	-0.001609965	0.8865008
	0.02143528	-7.544032e-05	0.08888088	-0.0375139	-0.001609965	0.8865008	-0.01451411	-0.0922461
4.6e+08	-0.0003232555	0.03733379	0.08771501	0.8795607	0.09136267	0.02410833	0.02185443	-0.00258067
	0.08771501	0.8795607	-0.01895101	-0.09281421	0.02192926	-0.002631623	0.08719134	-0.04418684
	0.09136267	0.02410833	0.02192926	-0.002631623	0.0007322874	0.03846459	0.08948902	0.8805049
	0.02185443	-0.00258067	0.08719134	-0.04418684	0.08948902	0.8805049	-0.01812859	-0.09380834
4.7e+08	0.009655221	0.03808403	0.1774544	0.8645294	0.09455757	0.01253129	0.0219538	-0.005187759
	0.1774544	0.8645294	-0.0224062	-0.0940566	0.0220196	-0.00525363	0.08459157	-0.05058804
	0.09455757	0.01253129	0.0220196	-0.00525363	0.01079151	0.03906516	0.179328	0.8652522
	0.0219538	-0.005187759	0.08459157	-0.05058804	0.179328	0.8652522	-0.02166518	-0.09509082
4.8e+08	0.02001651	0.0369187	0.2650414	0.84044	0.09574135	0.0004981634	0.02171267	-0.007849332
	0.2650414	0.84044	-0.02574035	-0.09508517	0.02176636	-0.007927844	0.08115314	-0.05656454
	0.09574135	0.0004981635	0.02176636	-0.007927844	0.02120676	0.03773275	0.266988	0.8409349
	0.02171267	-0.007849332	0.08115314	-0.05656454	0.266988	0.8409349	-0.02508319	-0.09614455
4.9e+08	0.03039095	0.03372747	0.3495784	0.8075713	0.09485726	-0.01163994	0.02112016	-0.01051228
	0.3495784	0.8075713	-0.02893075	-0.09595733	0.02115877	-0.01060132	0.07697551	-0.06198145
	0.09485726	-0.01163994	0.02115877	-0.01060132	0.03160535	0.03436136	0.3515724	0.8078302
	0.02112016	-0.01051228	0.07697551	-0.06198145	0.3515724	0.8078302	-0.02835641	-0.09702699
5e+08	0.04038323	0.02847326	0.4302074	0.7662822	0.09190965	-0.02352659	0.02017474	-0.01312298
	0.4302074	0.7662822	-0.03196968	-0.09673295	0.02019645	-0.01321897	0.07218154	-0.0667271
	0.09190965	-0.02352659	0.02019645	-0.01321897	0.04158847	0.02891895	0.4322171	0.7663025
	0.02017474	-0.01312298	0.07218154	-0.0667271	0.4322171	0.7663025	-0.03147361	-0.0977985
5.1e+08	0.04958422	0.02119522	0.5060977	0.7170123	0.08696497	-0.03481042	0.01888657	-0.01562731
	0.5060977	0.7170123	-0.03486439	-0.09747064	0.01888996	-0.01572653	0.06691239	-0.07071729
	0.08696497	-0.03481042	0.01888996	-0.01572653	0.05074562	0.02145151	0.5080973	0.7167957
	0.01888657	-0.01562731	0.06691239	-0.07071729	0.5080973	0.7167957	-0.03443872	-0.09851881
5.2e+08	0.05758745	0.01201565	0.5764679	0.6602842	0.08014957	-0.04515759	0.01727472	-0.01797512
	0.5764679	0.6602842	-0.03763644	-0.09822396	0.01725913	-0.01807388	0.06132186	-0.07389812
