!$
! Info: Touchstone file created by Circ.  Input file=Intel_C2M_200G_7p0in_202208016_staggered.circ
!$
# Hz S RI R 50
0	0.02301889	7.345711e-24	-9.523385e-05	1.166278e-20	0.0003392063	7.657194e-22	-9.095107e-05	1.113829e-20
	-9.523394e-05	1.166279e-20	0.02246574	4.009444e-24	-0.0001023384	1.253283e-20	0.0001161272	2.94386e-22
	0.0003392734	7.662591e-22	-0.0001023384	1.253284e-20	0.02302011	7.509665e-24	-9.525918e-05	1.166589e-20
	-9.095106e-05	1.113829e-20	0.0001161844	2.945121e-22	-9.525909e-05	1.166587e-20	0.0224637	3.796463e-24
1e+07	0.02836198	0.003259458	-0.0006503947	-8.789517e-05	0.001413917	0.006392341	-5.810218e-05	-0.0001021633
	-0.0006503947	-8.789517e-05	0.0272302	0.003867307	-0.0004787863	0.0001558007	0.001877999	0.006414461
	0.001413917	0.006392341	-0.0004787863	0.0001558007	0.02816934	0.003643817	-0.0005164217	-5.059547e-05
	-5.810218e-05	-0.0001021633	0.001877999	0.006414461	-0.0005164217	-5.059547e-05	0.0273088	0.003346523
2e+07	0.03326816	0.001797973	-0.0006146439	-0.0002322069	0.003323338	0.0121438	-8.687822e-05	-0.0001509297
	-0.0006146438	-0.0002322069	0.03235194	0.003137822	-0.0005689485	8.847174e-05	0.004275099	0.01185628
	0.003323426	0.01214369	-0.0005689484	8.847179e-05	0.03351566	0.002459515	-0.0004855446	-0.0002991585
	-8.687821e-05	-0.0001509297	0.004275108	0.01185627	-0.0004855447	-0.0002991585	0.03185062	0.00230444
3e+07	0.03651388	-0.002040617	-0.0006298996	-0.0003385616	0.006252934	0.01732821	-0.0001319732	-0.0002074783
	-0.0006298996	-0.0003385616	0.03579316	-9.410618e-05	-0.0006471066	7.132718e-05	0.007812783	0.01669378
	0.00625291	0.01732818	-0.0006471066	7.132718e-05	0.03711372	-0.00137924	-0.0004986224	-0.0004170596
	-0.0001319732	-0.0002074782	0.007812762	0.01669382	-0.0004986225	-0.0004170596	0.03485464	-0.0008965717
4e+07	0.03861383	-0.006727359	-0.0006735692	-0.0004048297	0.01000256	0.0218476	-0.0001934738	-0.0002540334
	-0.0006735692	-0.0004048297	0.03773772	-0.004318968	-0.0007228817	6.861383e-05	0.01237696	0.02054919
	0.01000255	0.02184761	-0.0007228817	6.861383e-05	0.03949029	-0.006176887	-0.0005422398	-0.0004947268
	-0.0001934738	-0.0002540334	0.01237696	0.02054922	-0.0005422398	-0.0004947268	0.03646275	-0.004973538
5e+07	0.03964201	-0.01192572	-0.0007365861	-0.0004426586	0.01444854	0.02554495	-0.0002647904	-0.0002871459
	-0.0007365861	-0.0004426586	0.03841542	-0.008900066	-0.0007984226	7.661536e-05	0.01771783	0.02326625
	0.01444855	0.02554497	-0.0007984226	7.661536e-05	0.04072413	-0.01155624	-0.0006062652	-0.0005431522
	-0.0002647904	-0.0002871459	0.01771783	0.02326626	-0.0006062652	-0.0005431522	0.03688294	-0.009335863
6e+07	0.03963007	-0.01730676	-0.0008119119	-0.0004552867	0.01940914	0.02831582	-0.000343538	-0.0003061445
	-0.0008119119	-0.0004552867	0.03798475	-0.01348952	-0.0008752712	9.367059e-05	0.02357959	0.02470559
	0.01940913	0.02831582	-0.0008752712	9.367059e-05	0.0408457	-0.01716364	-0.000682799	-0.0005656051
	-0.000343538	-0.0003061445	0.02357961	0.02470558	-0.000682799	-0.0005656051	0.03626651	-0.01365834
7e+07	0.0386685	-0.02260647	-0.0009024894	-0.0004359054	0.02468912	0.03009688	-0.000427424	-0.0003103522
	-0.0009024894	-0.0004359054	0.03659809	-0.01781709	-0.0009548794	0.0001190822	0.02967807	0.02478304
	0.02468912	0.03009688	-0.0009548794	0.0001190822	0.03994334	-0.02271574	-0.0007650192	-0.0005638613
	-0.0004274241	-0.0003103522	0.02967807	0.02478304	-0.0007650191	-0.0005638613	0.034763	-0.01768532
8e+07	0.03687455	-0.02762374	-0.001001115	-0.000381812	0.0300863	0.03086549	-0.000513403	-0.0002991088
	-0.001001115	-0.000381812	0.03443947	-0.02167863	-0.001037991	0.0001525376	0.03571817	0.02347458
	0.0300863	0.03086549	-0.001037991	0.0001525376	0.03813252	-0.02799435	-0.0008784316	-0.000503495
	-0.000513403	-0.0002991088	0.03571817	0.02347459	-0.0008784316	-0.000503495	0.03255661	-0.02122176
9e+07	0.03438597	-0.0321992	-0.001089071	-0.0003043195	0.03540172	0.03064081	-0.0005991487	-0.0002726621
	-0.001089071	-0.0003043195	0.03171538	-0.02494158	-0.001129692	0.0001930273	0.04140713	0.02081632
	0.03540172	0.03064081	-0.001129692	0.0001930273	0.03554829	-0.03282376	-0.0009956991	-0.0003898374
	-0.0005991487	-0.0002726621	0.04140714	0.02081633	-0.0009956991	-0.0003898374	0.02985868	-0.02413799
1e+08	0.03142029	-0.03618865	-0.001154721	-0.0002021215	0.04045349	0.02947965	-0.0006824236	-0.0002317611
	-0.001154721	-0.0002021215	0.0286551	-0.02753883	-0.001247907	0.000234775	0.04646749	0.01690085
	0.04045349	0.02947965	-0.001247907	0.000234775	0.03238201	-0.03704938	-0.001080042	-0.0002399317
	-0.0006824236	-0.0002317611	0.04646749	0.01690085	-0.001080042	-0.0002399317	0.0269372	-0.02633678
1.1e+08	0.02808565	-0.03987382	-0.001212022	-8.110595e-05	0.04504469	0.02745299	-0.0007621033	-0.0001775943
	-0.001212022	-8.110595e-05	0.02536317	-0.02957043	-0.001341867	0.0002414153	0.05064148	0.01185845
	0.04504469	0.02745299	-0.001341867	0.0002414153	0.02879154	-0.04078142	-0.001123948	-0.0001172923
	-0.0007621033	-0.0001775943	0.05064148	0.01185845	-0.001123948	-0.0001172923	0.0240047	-0.02821119
1.2e+08	0.02422861	-0.04290173	-0.001267431	4.374803e-05	0.04902175	0.02472578	-0.0008378172	-0.000109436
	-0.001267431	4.374803e-05	0.02199286	-0.03089971	-0.001421285	0.0002805657	0.05368033	0.005933905
	0.04902175	0.02472578	-0.001421285	0.0002805657	0.02473991	-0.04381646	-0.001168615	2.522318e-06
	-0.0008378172	-0.000109436	0.05368033	0.005933903	-0.001168615	2.522297e-06	0.02087463	-0.02946383
1.3e+08	0.02011418	-0.04517144	-0.001312461	0.0001765509	0.05228314	0.02145478	-0.000908251	-2.797419e-05
	-0.001312461	0.0001765509	0.01874268	-0.03159793	-0.001498871	0.0003432344	0.05542769	-0.0006355052
	0.05228314	0.02145479	-0.001498871	0.0003432344	0.02045493	-0.04606787	-0.001204296	0.0001255629
	-0.000908251	-2.797419e-05	0.05542769	-0.0006355064	-0.001204296	0.0001255629	0.01783153	-0.03010855
1.4e+08	0.01593934	-0.04666401	-0.00134492	0.0003168917	0.05475702	0.01781281	-0.0009702008	6.666021e-05
	-0.00134492	0.0003168917	0.01574795	-0.03176677	-0.001574481	0.0004287626	0.05576945	-0.007580034
	0.05475702	0.01781281	-0.001574481	0.0004287626	0.01612705	-0.0475192	-0.001229492	0.0002517915
	-0.0009702008	6.666021e-05	0.05576945	-0.007580035	-0.001229492	0.0002517915	0.01503195	-0.03025052
1.5e+08	0.01188173	-0.04740625	-0.001363623	0.0004638737	0.05640926	0.01398073	-0.00102194	0.0001736584
	-0.001363623	0.0004638737	0.01310522	-0.03152741	-0.001645634	0.0005376058	0.05464406	-0.01461025
	0.05640926	0.01398073	-0.001645634	0.0005376058	0.01193323	-0.04819938	-0.001243955	0.000380728
	-0.00102194	0.0001736584	0.05464406	-0.01461025	-0.001243955	0.000380728	0.01257222	-0.03001431
1.6e+08	0.008098732	-0.04746133	-0.001367755	0.0006164784	0.05724413	0.01014007	-0.001061786	0.0002919908
	-0.001367755	0.0006164784	0.01087301	-0.03101359	-0.001708623	0.0006700115	0.05204701	-0.02142827
	0.05724413	0.01014007	-0.001708623	0.0006700115	0.008031574	-0.04817384	-0.00124791	0.0005120273
	-0.001061786	0.0002919909	0.05204701	-0.02142827	-0.00124791	0.0005120273	0.01050593	-0.02953267
1.7e+08	0.004723835	-0.04692206	-0.001356591	0.0007737935	0.05730312	0.006464221	-0.001088078	0.0004205371
	-0.001356591	0.0007737935	0.009071814	-0.0303641	-0.001759071	0.0008255497	0.04803194	-0.02773919
	0.05730312	0.006464221	-0.001759071	0.0008255497	0.004557256	-0.04753809	-0.00124158	0.0006456798
	-0.001088078	0.0004205371	0.04803194	-0.02773919	-0.00124158	0.0006456798	0.008848417	-0.02893956
1.8e+08	0.001863819	-0.04590366	-0.001329391	0.0009348996	0.05666267	0.003111748	-0.001099161	0.0005579785
	-0.001329391	0.0009348996	0.007684143	-0.02971348	-0.001792232	0.001003026	0.04270944	-0.03326219
	0.05666267	0.003111748	-0.001792232	0.001003026	0.00161798	-0.04641046	-0.001225067	0.0007819798
	-0.001099161	0.0005579785	0.04270944	-0.03326219	-0.001225067	0.0007819798	0.007578789	-0.0283633
1.9e+08	-0.0004044345	-0.04453774	-0.001285227	0.001098888	0.0554299	0.0002200005	-0.001093426	0.0007028063
	-0.001285227	0.001098888	0.006657218	-0.02918406	-0.001803379	0.001200148	0.03624384	-0.03774158
	0.0554299	0.0002200007	-0.001803379	0.001200148	-0.000707829	-0.04492589	-0.001197946	0.0009214313
	-0.001093426	0.0007028063	0.03624384	-0.03774158	-0.001197946	0.0009214313	0.006642654	-0.02791921
2e+08	-0.002033962	-0.04296554	-0.001223148	0.001264246	0.05373677	-0.002101322	-0.001069307	0.00085319
	-0.001223148	0.001264246	0.005906894	-0.02887683	-0.001783938	0.001421214	0.02884738	-0.04095649
	0.05373677	-0.002101321	-0.001783938	0.001421214	-0.002373246	-0.04322845	-0.001159181	0.001064524
	-0.001069307	0.00085319	0.02884738	-0.04095649	-0.001159181	0.001064524	0.005956369	-0.02770229
2.1e+08	-0.003009962	-0.0413313	-0.001141822	0.001430137	0.0517351	-0.003773825	-0.001025346	0.001007057
	-0.001141822	0.001430137	0.005324838	-0.02886436	-0.001732929	0.001653078	0.02077308	-0.04272955
	0.0517351	-0.003773825	-0.001732929	0.001653078	-0.003362101	-0.04146622	-0.001107412	0.001211675
	-0.001025346	0.001007057	0.02077308	-0.04272955	-0.001107412	0.001211675	0.005412676	-0.02777911
2.2e+08	-0.003346685	-0.03977633	-0.001039808	0.001594838	0.04958822	-0.004753842	-0.0009602364	0.001161992
	-0.001039808	0.001594838	0.004785321	-0.02918557	-0.001647587	0.001890592	0.01230588	-0.04293412
	0.04958822	-0.004753842	-0.001647587	0.001890592	-0.003689356	-0.03978368	-0.001040558	0.001362853
	-0.0009602364	0.001161992	0.01230588	-0.04293412	-0.001040558	0.001362853	0.004888702	-0.02818367
2.3e+08	-0.003087069	-0.03843308	-0.0009157299	0.001756074	0.04746431	-0.005034105	-0.0008729479	0.001315246
	-0.0009157299	0.001756074	0.004155322	-0.02984219	-0.001526261	0.002128004	0.003752417	-0.04150014
	0.04746431	-0.005034105	-0.001526261	0.002128004	-0.003398174	-0.0383167	-0.0009561398	0.001517381
	-0.0008729479	0.001315246	0.003752417	-0.04150014	-0.0009561398	0.001517381	0.004254375	-0.02891413
2.4e+08	-0.002299223	-0.03741974	-0.0007682763	0.001911095	0.04552879	-0.004643456	-0.0007627805	0.001463743
	-0.0007682763	0.001911095	0.003303964	-0.0307976	-0.001368334	0.002359379	-0.00456964	-0.03841722
	0.04552879	-0.004643456	-0.001368334	0.002359379	-0.002557531	-0.03718694	-0.0008513725	0.001673768
	-0.0007627805	0.001463743	-0.00456964	-0.03841722	-0.0008513725	0.001673768	0.003382123	-0.02993026
2.5e+08	-0.001072172	-0.03683606	-0.0005966026	0.002056512	0.04393654	-0.003645815	-0.0006293967	0.001604134
	-0.0005966026	0.002056512	0.002112316	-0.03197769	-0.001174261	0.002578743	-0.01234354	-0.03373624
	0.04393654	-0.003645815	-0.001174261	0.002578743	-0.001257767	-0.03649725	-0.0007235089	0.001829604
	-0.0006293967	0.001604134	-0.01234354	-0.03373624	-0.0007235089	0.001829604	0.00215681	-0.03115617
2.6e+08	0.000487969	-0.03675923	-0.0004003376	0.002188424	0.04282501	-0.00213713	-0.0004730736	0.001732848
	-0.0004003376	0.002188424	0.000482774	-0.03327513	-0.0009455569	0.00278039	-0.01926529	-0.02756888
	0.04282501	-0.00213713	-0.0009455569	0.00278039	0.0003930858	-0.03632836	-0.0005700308	0.001981475
	-0.0004730736	0.001732848	-0.01926529	-0.02756888	-0.0005700308	0.001981475	0.000484529	-0.03248249
2.7e+08	0.00226429	-0.03724221	-0.0001798346	0.002302539	0.042308	-0.0002405229	-0.0002945391	0.001846178
	-0.0001798346	0.002302539	-0.00165264	-0.0345547	-0.0006847339	0.002959004	-0.02505467	-0.02008381
	0.042308	-0.0002405229	-0.0006847339	0.002959004	0.002275723	-0.03673578	-0.0003889872	0.00212501
	-0.0002945391	0.001846178	-0.02505467	-0.02008381	-0.0003889872	0.00212501	-0.00169872	-0.03377313
2.8e+08	0.004133951	-0.03831202	6.368635e-05	0.002394318	0.04247038	0.001898374	-9.528662e-05	0.001940375
	6.368635e-05	0.002394318	-0.004324931	-0.03566086	-0.0003949109	0.003109869	-0.02946662	-0.01150194
	0.04247038	0.001898374	-0.0003949109	0.003109869	0.004264382	-0.03774886	-0.0001793358	0.002255011
	-9.528662e-05	0.001940375	-0.02946662	-0.01150194	-0.0001793358	0.002255011	-0.004419929	-0.03487267
2.9e+08	0.005973516	-0.03996927	0.0003279993	0.002459167	0.04336386	0.004118817	0.0001225671	0.00201182
	0.0003279993	0.002459167	-0.007523685	-0.03642779	-7.984873e-05	0.003228916	-0.03230074	-0.002088954
	0.04336386	0.004118817	-7.984873e-05	0.003228916	0.006232479	-0.03937058	5.892155e-05	0.002365642
	0.0001225671	0.00201182	-0.03230074	-0.002088954	5.892155e-05	0.002365642	-0.007664902	-0.03561529
3e+08	0.007665408	-0.04219012	0.0006099015	0.002492701	0.04500456	0.006251502	0.0003562343	0.002057144
	0.0006099015	0.002492701	-0.01119422	-0.03668944	0.0002562385	0.003312752	-0.03340886	0.007854135
	0.04500456	0.006251502	0.0002562385	0.003312752	0.008058681	-0.04157833	0.0003244025	0.002450713
	0.0003562343	0.002057144	-0.03340886	0.007854135	0.0003244025	0.002450713	-0.01137534	-0.0358362
3.1e+08	0.009102045	-0.04492787	0.0009051936	0.002491032	0.04737243	0.008127318	0.0006023281	0.002073317
	0.0009051936	0.002491032	-0.01523776	-0.0362908	0.0006089679	0.003358594	-0.0327018	0.0180015
	0.04737243	0.008127318	0.0006089679	0.003358594	0.009631154	-0.0443264	0.000614212	0.002504075
	0.0006023281	0.002073317	-0.0327018	0.0180015	0.000614212	0.002504075	-0.0154488	-0.03538163
3.2e+08	0.01019005	-0.04811657	0.001208797	0.002450927	0.05041141	0.009583844	0.0008567667	0.002057875
	0.001208797	0.002450927	-0.0195139	-0.03509827	0.0009736433	0.003364341	-0.03015294	0.02801416
	0.05041141	0.009583844	0.0009736433	0.003364341	0.01085259	-0.04754874	0.0009240641	0.002519905
	0.0008567667	0.002057875	-0.03015294	0.02801416	0.0009240641	0.002519905	-0.01974148	-0.03412123
3.3e+08	0.01085396	-0.05167461	0.001514892	0.002370095	0.05403172	0.01047358	0.001115076	0.002008953
	0.001514892	0.002370095	-0.02384605	-0.03301057	0.001345682	0.003328322	-0.02579929	0.03755198
	0.05403172	0.01047358	0.001345682	0.003328322	0.01164348	-0.05116307	0.00124826	0.002493146
	0.001115076	0.002008953	-0.02579929	0.03755198	0.00124826	0.002493146	-0.02407398	-0.03195626
3.4e+08	0.01103842	-0.05550941	0.001817125	0.002247357	0.05811462	0.01067064	0.001372411	0.001925467
	0.001817125	0.002247357	-0.02802864	-0.02996735	0.001720241	0.00324942	-0.01974127	0.04628641
	0.05811462	0.01067064	0.001720241	0.00324942	0.01194427	-0.05507518	0.001579889	0.002419855
	0.001372411	0.001925467	-0.01974127	0.04628641	0.001579889	0.002419855	-0.02823893	-0.02883038
3.5e+08	0.01070929	-0.05952194	0.002108855	0.002082732	0.06251668	0.01007577	0.001623657	0.001807118
	0.002108855	0.002082732	-0.03183749	-0.02595606	0.002092504	0.00312693	-0.0121387	0.05391141
	0.06251668	0.01007577	0.002092504	0.00312693	0.01171728	-0.05918422	0.001911026	0.002297496
	0.001623657	0.001807118	-0.0121387	0.05391141	0.001911026	0.002297496	-0.03201038	-0.02473467
3.6e+08	0.009854041	-0.0636121	0.002383513	0.001877518	0.0670765	0.008621725	0.001863681	0.001654505
	0.002383513	0.001877518	-0.03504044	-0.02101633	0.002457605	0.002960425	-0.003206009	0.06015473
	0.0670765	0.008621725	0.002457605	0.002960425	0.01094684	-0.0633865	0.002233198	0.002125178
	0.001863681	0.001654505	-0.003206009	0.06015473	0.002233198	0.002125178	-0.03515579	-0.01971369
3.7e+08	0.008480866	-0.06768222	0.002634824	0.001634149	0.07162199	0.006275604	0.002087511	0.001468986
	0.002634824	0.001634149	-0.03741015	-0.01524247	0.002810477	0.002749965	0.00679578	0.06478741
	0.07162199	0.006275604	0.002810477	0.002749965	0.009638462	-0.06758135	0.002537772	0.00190366
	0.002087511	0.001468986	0.00679578	0.06478741	0.002537772	0.00190366	-0.0374482	-0.0138662
3.8e+08	0.006617131	-0.07164183	0.00285704	0.001356273	0.07597734	0.003040171	0.002290361	0.001252853
	0.00285704	0.001356273	-0.03873586	-0.008781773	0.003145835	0.002496149	0.01756762	0.06763071
	0.07597734	0.003040171	0.003145835	0.002496149	0.007817737	-0.07167454	0.002816223	0.00163557
	0.002290361	0.001252853	0.01756762	0.06763071	0.002816223	0.00163557	-0.0386779	-0.007343875
3.9e+08	0.004306303	-0.0754117	0.003045229	0.001048448	0.07997098	-0.001046059	0.002467934	0.001009054
	0.003045229	0.001048448	-0.03883522	-0.001832039	0.003458303	0.002200088	0.0287821	0.06856307
	0.07997098	-0.001046059	0.003458303	0.002200088	0.005526996	-0.0755818	0.003060708	0.001325171
	0.002467934	0.001009054	0.0287821	0.06856307	0.003060708	0.001325171	-0.0386657	-0.0003490407
4e+08	0.001605656	-0.07892555	0.003195409	0.0007159738	0.08344245	-0.005910986	0.00261646	0.0007412144
	0.003195409	0.0007159738	-0.03756664	0.005365815	0.00374236	0.001863479	0.04009508	0.06752307
	0.08344245	-0.005910986	0.00374236	0.001863479	0.002823433	-0.0792331	0.003264346	0.0009781442
	0.00261646	0.0007412144	0.04009508	0.06752307	0.003264346	0.0009781442	-0.03727266	0.006874193
4.1e+08	-0.001417596	-0.08213281	0.003303899	0.0003648773	0.08624942	-0.01145167	0.002732826	0.0004534604
	0.003303899	0.0003648773	-0.03483856	0.01253639	0.004002806	0.001467042	0.05115595	0.06451155
	0.08624942	-0.01145167	0.004002806	0.001467042	-0.0002253864	-0.08257352	0.003421421	0.0006020845
	0.002732826	0.0004534604	0.05115595	0.06451155	0.003421421	0.0006020845	-0.03441098	0.01404717
4.2e+08	-0.004690287	-0.08499999	0.003369347	1.230638e-06	0.08827269	-0.01753986	0.002814706	0.0001503511
	0.003369347	1.230638e-06	-0.03061601	0.01937917	0.004222851	0.001023559	0.06161951	0.05959204
	0.08827269	-0.01753986	0.004222851	0.001023559	-0.003544504	-0.08556518	0.003527953	0.000204492
	0.002814706	0.0001503511	0.06161951	0.05959204	0.003527953	0.000204492	-0.03005053	0.02086697
4.3e+08	-0.008136557	-0.08751071	0.003391424	-0.0003690615	0.0894215	-0.02402609	0.002860487	-0.000163532
	0.003391424	-0.0003690615	-0.02492717	0.02558253	0.004390995	0.0005486618	0.07115656	0.0528877
	0.0894215	-0.02402609	0.004390995	0.0005486618	-0.007056316	-0.08818797	0.003581547	-0.0002066069
	0.002860487	-0.000163532	0.07115656	0.0528877	0.003581547	-0.0002066069	-0.02422454	0.02702077
4.4e+08	-0.01168222	-0.08966558	0.003370423	-0.0007402109	0.08963608	-0.03074708	0.002869319	-0.000483393
	0.003370423	-0.0007402109	-0.01786544	0.03083593	0.004502446	4.870269e-05	0.07946381	0.04457812
	0.08963608	-0.03074708	0.004502446	4.870269e-05	-0.01068305	-0.09043919	0.003581433	-0.0006226333
	0.002869319	-0.000483393	0.07946381	0.04457812	0.003581433	-0.0006226333	-0.01703183	0.03219731
4.5e+08	-0.0152579	-0.09148123	0.003307529	-0.001106894	0.0888905	-0.0375317	0.002841069	-0.000804545
	0.003307529	-0.001106894	-0.0095901	0.0348425	0.004553268	-0.0004690492	0.0862738	0.03489366
	0.0888905	-0.0375317	0.004553268	-0.0004690492	-0.01435191	-0.09233281	0.003528499	-0.00103544
	0.002841069	-0.000804545	0.0862738	0.03489366	0.003528499	-0.00103544	-0.00863716	0.03610063
4.6e+08	-0.01880237	-0.09298852	0.003204618	-0.001464262	0.08719253	-0.04420833	0.002776198	-0.001122599
	0.003204618	-0.001464262	-0.0003232555	0.03733379	0.004540623	-0.0009963399	0.09136267	0.02410833
	0.08719253	-0.04420833	0.004540623	-0.0009963399	-0.01799764	-0.09389782	0.003424972	-0.001437631
	0.002776198	-0.001122599	0.09136267	0.02410833	0.003424972	-0.001437631	0.0007322874	0.03846459
4.7e+08	-0.02226512	-0.09422938	0.003064029	-0.001808286	0.08458319	-0.05061113	0.002675736	-0.001433367
	0.003064029	-0.001808286	0.009655221	0.03808403	0.004462945	-0.001524493	0.09455757	0.01253129
	0.08458319	-0.05061113	0.004462945	-0.001524493	-0.02156523	-0.09517548	0.003274408	-0.001822484
	0.002675736	-0.001433367	0.09455757	0.01253129	0.003274408	-0.001822484	0.01079151	0.03906516
4.8e+08	-0.02560816	-0.09525551	0.002888424	-0.002135548	0.08113461	-0.05658678	0.002541097	-0.001733105
	0.002888424	-0.002135548	0.02001651	0.0369187	0.004320045	-0.002044685	0.09574135	0.0004981634
	0.08113461	-0.05658678	0.004320045	-0.002044685	-0.02501238	-0.09621706	0.003081145	-0.002184586
	0.002541097	-0.001733105	0.09574135	0.0004981635	0.003081145	-0.002184586	0.02120676	0.03773275
4.9e+08	-0.02880837	-0.09612377	0.002680584	-0.002443206	0.07694678	-0.06200032	0.002374038	-0.002018424
	0.002680584	-0.002443206	0.03039095	0.03372747	0.004113328	-0.002547757	0.09485726	-0.01163994
