# GHz S RI R 45
0.000     0.065568246000    0.000000000000    0.000001812390    -0.000000000000    0.008729791000    0.000000000000    0.000002627552    -0.000000000000
            0.000001812355    -0.000000000000    0.064955474000    0.000000000000    0.000002503988    -0.000000000000    0.008125618300    0.000000000000
            0.008729790800    0.000000000000    0.000002504003    -0.000000000000    0.059738218000    0.000000000000    0.000003461467    0.000000000000
            0.000002627518    -0.000000000000    0.008125599700    0.000000000000    0.000003461483    0.000000000000    0.059278752000    0.000000000000
0.025     0.161855501819    0.036068951482    0.000000652206    -0.000001510222    0.071441674279    0.035918760424    0.000001420939    -0.000000919662
            0.000000652205    -0.000001510218    0.163564113739    0.034209700287    0.000001639371    -0.000002581109    0.070945851464    0.035427668546
            0.071441674279    0.035918760424    0.000001639369    -0.000002581113    0.153864904374    0.036022995063    0.000002245581    -0.000002076726
            0.000001420941    -0.000000919662    0.070945838320    0.035427663530    0.000002245577    -0.000002076728    0.155741011408    0.034477538502
0.050     0.169419344257    -0.082240138504    -0.000001808638    -0.000000018845    0.079640016391    -0.037398373223    -0.000001570461    0.000001157539
            -0.000001808638    -0.000000018845    0.167793195239    -0.087810060884    -0.000003571347    -0.000000975612    0.078845434452    -0.038708161947
            0.079640016391    -0.037398373223    -0.000003571347    -0.000000975612    0.160580854835    -0.078457265523    -0.000002755554    -0.000000262906
            -0.000001570461    0.000001157539    0.078845427058    -0.038708149778    -0.000002755554    -0.000000262906    0.159312257517    -0.083836734364
0.075     0.059201229081    -0.081565467193    0.000000941917    0.000003201215    0.010758894742    -0.016356845122    0.000000631933    0.000006840394
            0.000000941917    0.000003201215    0.054181797376    -0.084072226064    0.000001289508    0.000006332344    0.009145709617    -0.018261911333
            0.010758894742    -0.016356845122    0.000001289509    0.000006332344    0.053592576259    -0.075460811929    0.000000755709    0.000008763341
            0.000000631933    0.000006840394    0.009145713503    -0.018261907150    0.000000755709    0.000008763341    0.048876801675    -0.077615272217
0.100     0.084109864869    -0.001320502545    0.000002548789    -0.000002046335    0.058014010974    0.034140011363    0.000005995286    0.000003153069
            0.000002548789    -0.000002046335    0.083480439780    -0.003611408533    0.000007262766    -0.000003365721    0.056065372358    0.031813888665
            0.058014010974    0.034140011363    0.000007262766    -0.000003365721    0.080317225102    0.003278685494    0.000010886461    0.000001914483
            0.000005995286    0.000003153069    0.056065368324    0.031813887669    0.000010886461    0.000001914483    0.080420693651    0.001438277385
0.125     0.146640017006    -0.057541491276    -0.000003738542    -0.000001291351    0.083462290594    -0.027331346228    -0.000000296523    -0.000000356193
            -0.000003738542    -0.000001291351    0.142218095105    -0.068550239193    -0.000004770045    -0.000004908157    0.080064281090    -0.030324691152
            0.083462290594    -0.027331346228    -0.000004770045    -0.000004908157    0.141574978209    -0.051765500719    0.000000637249    -0.000005882692
            -0.000000296523    -0.000000356193    0.080064276132    -0.030324684480    0.000000637249    -0.000005882692    0.138051937343    -0.062746880871
0.150     0.082859896889    -0.125496559463    -0.000001655529    0.000004857395    0.025422488915    -0.033773028218    -0.000003870419    0.000008739532
            -0.000001655529    0.000004857395    0.065288391076    -0.131086753035    -0.000001558738    0.000007460531    0.020215389684    -0.035419184033
            0.025422488326    -0.033773028662    -0.000001558738    0.000007460531    0.079997621392    -0.116543795434    -0.000004414333    0.000008432137
            -0.000003870419    0.000008739532    0.020215393883    -0.035419177031    -0.000004414333    0.000008432137    0.063183836054    -0.122051357722
0.175     0.023756697604    -0.070717209684    0.000003065356    0.000000225638    0.046621938960    0.003975212536    0.000007031519    0.000011086136
            0.000003065356    0.000000225638    0.013170274119    -0.064566164995    0.000009078894    -0.000001019329    0.042937158069    0.004024373193
            0.046621938967    0.003975212454    0.000009078894    -0.000001019329    0.024929046961    -0.062747467538    0.000013992085    0.000010147255
            0.000007031519    0.000011086136    0.042937159891    0.004024375178    0.000013992085    0.000010147255    0.015649766196    -0.056560777530
0.200     0.078929776820    -0.035452154717    -0.000004728225    -0.000001319671    0.082580535428    -0.014542527803    0.000005153867    0.000000046273
            -0.000004728225    -0.000001319671    0.074253028469    -0.041962012041    -0.000002093541    -0.000006437612    0.075919448068    -0.019474716470
            0.082580535428    -0.014542527803    -0.000002093541    -0.000006437612    0.080200605063    -0.029763008292    0.000011769584    -0.000008996537
            0.000005153867    0.000000046273    0.075919447151    -0.019474711998    0.000011769584    -0.000008996537    0.076876354564    -0.037097616265
0.225     0.093051056032    -0.115484676232    -0.000004045393    0.000005593947    0.046061278618    -0.046372936726    -0.000006736897    0.000005634099
            -0.000004045393    0.000005593947    0.067146220651    -0.122060848000    -0.000002502323    0.000003086700    0.034234112217    -0.045982346702
            0.046061278618    -0.046372936726    -0.000002502323    0.000003086700    0.094219241710    -0.108326702738    -0.000006597273    -0.000002224094
            -0.000006736897    0.000005634099    0.034234116640    -0.045982340916    -0.000006597273    -0.000002224094    0.069059511427    -0.115749898033
0.250     -0.009098773902    -0.127587817309    0.000000372074    0.000003993258    0.023793191969    -0.013598084465    0.000001646493    0.000018578711
            0.000000372074    0.000003993258    -0.032423263250    -0.108626695302    0.000004182851    0.000000832152    0.018419520186    -0.008809966520
            0.023793191732    -0.013598084880    0.000004182851    0.000000832152    -0.004264342217    -0.119794815024    0.000006648008    0.000014995260
            0.000001646493    0.000018578711    0.018419525927    -0.008809966106    0.000006648008    0.000014995260    -0.026324864609    -0.101592664669
0.275     -0.005455799916    -0.030671751935    -0.000003492490    0.000001337922    0.063823658416    -0.001878260118    0.000011935906    0.000005892410
            -0.000003492490    0.000001337922    -0.009264345522    -0.020801201377    0.000001681078    -0.000002703134    0.057575583211    -0.007435200847
            0.063823658419    -0.001878260007    0.000001681078    -0.000002703134    0.002031982561    -0.027023095941    0.000022688318    -0.000004395616
            0.000011935906    0.000005892410    0.057575584125    -0.007435201578    0.000022688318    -0.000004395616    -0.000862915803    -0.019151841854
0.300     0.077828502766    -0.071192934343    -0.000005249406    0.000006144508    0.070329779223    -0.054588004856    -0.000005218478    0.000000579554
            -0.000005249406    0.000006144508    0.054501279767    -0.073417091969    0.000000955076    -0.000003707117    0.049883693356    -0.053351187220
            0.070329779223    -0.054588004856    0.000000955076    -0.000003707117    0.083236893795    -0.068899848903    -0.000000586358    -0.000017669610
            -0.000005218478    0.000000579554    0.049883696149    -0.053351184608    -0.000000586358    -0.000017669610    0.059769321467    -0.073287220238
0.325     -0.011728720180    -0.146219034202    -0.000003800034    0.000008023990    0.012464834831    -0.053756084905    -0.000007681473    0.000021183129
            -0.000003800034    0.000008023990    -0.042078762503    -0.118171415911    -0.000005603437    -0.000001774329    0.002568270887    -0.038271798484
            0.012464834118    -0.053756086097    -0.000005603437    -0.000001774329    -0.005592833781    -0.142688023044    -0.000009139586    0.000009812252
            -0.000007681473    0.000021183129    0.002568276231    -0.038271798125    -0.000009139586    0.000009812252    -0.035943159622    -0.116103831846
0.350     -0.072542501074    -0.032704990501    -0.000001007516    0.000008517026    0.028062905686    0.004095134665    0.000015207024    0.000017951795
            -0.000001007516    0.000008517026    -0.071966000285    -0.002868311399    0.000002379533    0.000006931655    0.027899014324    0.003389340447
            0.028062905679    0.004095134714    0.000002379533    0.000006931655    -0.063155379212    -0.031380627630    0.000024481026    0.000007948164
            0.000015207024    0.000017951795    0.027899017693    0.003389337595    0.000024481026    0.000007948164    -0.062487050796    -0.004137021447
0.375     0.041618745285    -0.020813426771    -0.000003493609    0.000006426244    0.085592695913    -0.045019570199    0.000001130019    -0.000002201793
            -0.000003493609    0.000006426244    0.031200422625    -0.012496537221    0.000008651242    -0.000008442600    0.060561675598    -0.046875103539
            0.085592695913    -0.045019570199    0.000008651242    -0.000008442600    0.049216032364    -0.023573713995    0.000011163180    -0.000027849113
            0.000001130019    -0.000002201793    0.060561676389    -0.046875104151    0.000011163180    -0.000027849113    0.037345282416    -0.018080280060
0.400     -0.004128879035    -0.128207682750    -0.000007183472    0.000011402094    0.008162976305    -0.098815772558    -0.000015039633    0.000018470412
            -0.000007183472    0.000011402094    -0.030454310385    -0.097165856481    -0.000014439662    -0.000009544909    -0.011702086829    -0.071617310867
            0.008162976305    -0.098815772558    -0.000014439662    -0.000009544909    0.001321377632    -0.130978344797    -0.000022394741    -0.000006513090
            -0.000015039633    0.000018470412    -0.011702084168    -0.071617310288    -0.000022394741    -0.000006513090    -0.027250062528    -0.101481580836
0.425     -0.101290784898    -0.037360230246    0.000000857462    0.000018622371    -0.021187535325    -0.008196452356    0.000010744147    0.000031737293
            0.000000857462    0.000018622371    -0.096392160717    0.005836901667    -0.000003729996    0.000018903441    -0.014068202053    0.004665184507
            -0.021187535325    -0.008196452356    -0.000003729996    0.000018903441    -0.094061547373    -0.039977665555    0.000010249009    0.000022235134
            0.000010744147    0.000031737293    -0.014068198121    0.004665180478    0.000010249009    0.000022235134    -0.091003988897    0.001490739158
0.450     0.008133678999    0.019324362149    0.000003226181    0.000007169154    0.081576070935    -0.020486129079    0.000011184367    0.000001153671
            0.000003226181    0.000007169154    0.014955273414    0.035502692107    0.000019096109    -0.000007729163    0.061521092520    -0.027359615815
            0.081576070935    -0.020486129079    0.000019096109    -0.000007729163    0.015470064475    0.012515413131    0.000024185047    -0.000025708908
            0.000011184367    0.000001153671    0.061521091565    -0.027359617962    0.000024185047    -0.000025708908    0.019088908296    0.026763612805
0.475     -0.000240939766    -0.091613022168    -0.000007908840    0.000013378559    0.015757552486    -0.127488284322    -0.000016505242    0.000014124671
            -0.000007908840    0.000013378559    -0.012641909223    -0.063165589106    -0.000017920534    -0.000018497846    -0.016563584136    -0.095797960866
            0.015757552486    -0.127488284322    -0.000017920534    -0.000018497846    0.003196767797    -0.099766223786    -0.000026885935    -0.000024000991
            -0.000016505242    0.000014124671    -0.016563584307    -0.095797961851    -0.000026885936    -0.000024000991    -0.013442513514    -0.071847536533
0.500     -0.102730164225    -0.033228505697    0.000001800887    0.000027625756    -0.077501123428    -0.032305700745    0.000000860533    0.000039602997
            0.000001800887    0.000027625756    -0.092930090284    0.012854103054    -0.000015002727    0.000025905649    -0.067444834647    0.004881504221
            -0.077501123428    -0.032305700745    -0.000015002727    0.000025905649    -0.100327452464    -0.039623149807    -0.000014091981    0.000025566092
            0.000000860533    0.000039602997    -0.067444831655    0.004881504005    -0.000014091981    0.000025566091    -0.094324921239    0.006945360371
0.525     -0.014584788700    0.040182236008    0.000014813827    0.000011337874    0.035501866104    0.001747754748    0.000020718476    0.000013961896
            0.000014813828    0.000011337875    0.006373004674    0.060647878022    0.000028673823    0.000001173076    0.030649128259    0.004309186898
            0.035501866101    0.001747754810    0.000028673823    0.000001173076    -0.011650692374    0.031926905644    0.000029969944    -0.000006272743
            0.000020718476    0.000013961896    0.030649128657    0.004309184063    0.000029969944    -0.000006272744    0.005295319490    0.053376886786
0.550     0.000963961732    -0.059405890554    -0.000005581366    0.000012103891    0.026837146988    -0.128260175309    -0.000010896778    0.000010760104
            -0.000005581366    0.000012103891    0.000971422425    -0.038394580972    -0.000015066505    -0.000025365477    -0.013277977833    -0.102647616595
            0.026837146988    -0.128260175309    -0.000015066505    -0.000025365477    0.000840283433    -0.069278117233    -0.000020066439    -0.000034750474
            -0.000010896778    0.000010760104    -0.013277979624    -0.102647616364    -0.000020066439    -0.000034750474    -0.003335652927    -0.046603601815
0.575     -0.093463224962    -0.022671508629    0.000004264571    0.000031780871    -0.113866852628    -0.064163606622    -0.000006250925    0.000039412585
            0.000004264571    0.000031780871    -0.081232832332    0.017363462701    -0.000023259092    0.000025255013    -0.112571213597    -0.004054338790
            -0.113866852628    -0.064163606622    -0.000023259092    0.000025255013    -0.096133637635    -0.030899599998    -0.000034667180    0.000018249453
            -0.000006250925    0.000039412585    -0.112571213597    -0.004054338790    -0.000034667180    0.000018249453    -0.088241591826    0.012160404442
0.600     -0.027640960079    0.050424131485    0.000026193079    0.000018587620    -0.023013425756    0.044275241690    0.000021812864    0.000032270959
            0.000026193079    0.000018587620    0.001890171874    0.071964455263    0.000030302437    0.000015043181    0.001197471188    0.058186936490
            -0.023013425756    0.044275241690    0.000030302437    0.000015043181    -0.030543364765    0.043136600027    0.000019160324    0.000019822664
            0.000021812864    0.000032270959    0.001197471126    0.058186933491    0.000019160324    0.000019822664    -0.004375444077    0.069165254306
0.625     -0.000657769850    -0.032723904886    0.000003634927    0.000007025877    0.022809651182    -0.083722784716    0.000003228469    0.000010301887
            0.000003634927    0.000007025877    0.009751647373    -0.022265141953    -0.000005083597    -0.000028452882    -0.004088358921    -0.071127490870
            0.022809652643    -0.083722784318    -0.000005083597    -0.000028452882    -0.004634880832    -0.040380938009    -0.000002200470    -0.000030636597
            0.000003228469    0.000010301887    -0.004088361519    -0.071127492724    -0.000002200470    -0.000030636597    0.004093174349    -0.025174575734
0.650     -0.084605428798    -0.014228993229    0.000007689405    0.000031679032    -0.123122337158    -0.083614621009    -0.000006921653    0.000034206678
            0.000007689405    0.000031679032    -0.076613857952    0.018265632037    -0.000024075963    0.000020064036    -0.138324435470    -0.012076179790
            -0.123122337158    -0.083614621009    -0.000024075963    0.000020064036    -0.090726350218    -0.020995153244    -0.000041606661    0.000004983825
            -0.000006921653    0.000034206678    -0.138324435470    -0.012076179790    -0.000041606661    0.000004983825    -0.085089790018    0.016043508303
0.675     -0.042486269052    0.053195689866    0.000032516411    0.000021717735    -0.094861026877    0.053534362078    0.000014837125    0.000043799032
            0.000032516411    0.000021717735    -0.011997212518    0.081273281459    0.000023735202    0.000021785745    -0.052190746684    0.101856010697
            -0.094861026877    0.053534362078    0.000023735203    0.000021785745    -0.049806515602    0.048119621990    -0.000003253221    0.000037203815
            0.000014837125    0.000043799032    -0.052190746684    0.101856010697    -0.000003253221    0.000037203815    -0.020259318915    0.083124404836
0.700     -0.006606946580    -0.002230289069    0.000018862337    -0.000001936897    -0.000025644491    -0.004354977596    0.000022301491    0.000018794589
            0.000018862337    -0.000001936897    0.013940616885    0.001925951663    0.000008940284    -0.000022696634    0.009416587861    -0.002266204970
            -0.000025644491    -0.004354977596    0.000008940284    -0.000022696634    -0.013921719753    -0.005248917684    0.000017003850    -0.000007987514
            0.000022301491    0.000018794589    0.009416585345    -0.002266206451    0.000017003850    -0.000007987515    0.008374187176    0.005634426807
0.725     -0.070425915770    -0.004657276837    0.000010908480    0.000022419556    -0.097084175787    -0.060364640585    -0.000002209688    0.000023928488
            0.000010908480    0.000022419556    -0.071717272479    0.017950221503    -0.000018611407    0.000011274759    -0.121000218038    -0.003436928512
            -0.097084175787    -0.060364640585    -0.000018611407    0.000011274759    -0.077584173311    -0.007058214371    -0.000030852971    -0.000007902000
            -0.000002209688    0.000023928488    -0.121000218038    -0.003436928512    -0.000030852971    -0.000007902000    -0.076881270055    0.019965271362
0.750     -0.061798212758    0.049182568864    0.000036654599    0.000018632148    -0.143351687455    0.045313976384    0.000008122984    0.000044747834
            0.000036654599    0.000018632148    -0.038018321855    0.090977811575    0.000017536516    0.000016762210    -0.098308476813    0.130255822953
            -0.143351687455    0.045313976384    0.000017536516    0.000016762210    -0.070148114967    0.047924421121    -0.000023114705    0.000036958828
            0.000008122984    0.000044747834    -0.098308476813    0.130255822953    -0.000023114705    0.000036958828    -0.045052278295    0.095838419617
0.775     -0.033503155627    0.036578604226    0.000030099043    -0.000005287647    -0.056230738993    0.079933909420    0.000032443024    0.000033802519
            0.000030099043    -0.000005287647    0.012625020498    0.051833035034    0.000013691820    -0.000009944651    0.008124878793    0.092807287754
            -0.056230738993    0.079933909420    0.000013691820    -0.000009944651    -0.040678866042    0.038747262453    0.000022927412    0.000025407437
