# GHz S RI R 45
0.000     0.059725915000    0.000000000000    -0.000012530669    0.000000000000    0.007991446400    0.000000000000    -0.000012467039    0.000000000000
            -0.000012530622    0.000000000000    0.064955474000    0.000000000000    -0.000036222062    -0.000000000000    0.008125618300    0.000000000000
            0.007991304700    0.000000000000    -0.000036222553    -0.000000000000    0.062405779000    -0.000000000000    -0.000010494765    0.000000000000
            -0.000012467080    0.000000000000    0.008125599700    0.000000000000    -0.000010501619    0.000000000000    0.059278752000    0.000000000000
0.025     0.168670482295    0.023132141228    -0.000013853919    0.000011505066    0.072912663501    0.027754531678    -0.000015119331    0.000007081624
            -0.000013853921    0.000011505068    0.163564113739    0.034209700287    -0.000020413148    0.000034789556    0.070945851464    0.035427668546
            0.072912605009    0.027754556036    -0.000020413159    0.000034789561    0.171758252839    0.022851889650    -0.000022206900    0.000001828128
            -0.000015119333    0.000007081635    0.070945838320    0.035427663530    -0.000022206991    0.000001828041    0.155741011408    0.034477538502
0.050     0.146084699572    -0.124995164211    -0.000015794273    0.000003129542    0.068738925194    -0.054730592002    -0.000015076952    0.000016698785
            -0.000015794257    0.000003129547    0.167793195239    -0.087810060884    -0.000006009132    0.000015506328    0.078845434452    -0.038708161947
            0.068738964531    -0.054730540990    -0.000006009129    0.000015506329    0.149225119725    -0.127156069374    -0.000028961388    0.000026582063
            -0.000015076952    0.000016698785    0.078845427058    -0.038708149778    -0.000028961390    0.000026582065    0.159312257517    -0.083836734364
0.075     0.015070992304    -0.087576686638    0.000002681336    0.000066123409    -0.002214177075    -0.021882888676    0.000011559659    0.000048877617
            0.000002681327    0.000066123400    0.054181797376    -0.084072226064    0.000018328683    0.000078386973    0.009145709617    -0.018261911333
            -0.002214166485    -0.021882909850    0.000018328686    0.000078386969    0.016461760960    -0.090317989400    0.000015519323    0.000071896802
            0.000011559659    0.000048877615    0.009145713503    -0.018261907150    0.000015519322    0.000071896804    0.048876801675    -0.077615272217
0.100     0.085482261236    -0.024647009155    0.000067932267    -0.000014342910    0.060363652281    0.010274287203    0.000062843987    -0.000002685498
            0.000067932274    -0.000014342918    0.083480439780    -0.003611408533    0.000094119476    -0.000035250137    0.056065372358    0.031813888665
            0.060363651115    0.010274311938    0.000094119476    -0.000035250137    0.086807624007    -0.026611488961    0.000092239734    0.000007125743
            0.000062843986    -0.000002685498    0.056065368324    0.031813887669    0.000092239734    0.000007125743    0.080420693651    0.001438277385
0.125     0.086800835031    -0.139863541879    0.000029459474    -0.000016450076    0.050867119429    -0.069948708887    0.000029961884    -0.000045835562
            0.000029459451    -0.000016450066    0.142218095105    -0.068550239193    0.000013064689    -0.000035804521    0.080064281090    -0.030324691152
            0.050867160224    -0.069948718787    0.000013064685    -0.000035804519    0.088205638954    -0.143449923954    0.000055681589    -0.000074177864
            0.000029961882    -0.000045835563    0.080064276132    -0.030324684480    0.000055681590    -0.000074177866    0.138051937343    -0.062746880871
0.150     -0.043204185457    -0.123426685920    0.000017137331    -0.000109311025    -0.022653817952    -0.038236424491    -0.000015804200    -0.000077801822
            0.000017137360    -0.000109311020    0.065288391076    -0.131086753035    0.000014624705    -0.000116665688    0.020215389684    -0.035419184033
            -0.022653830139    -0.038236460278    0.000014624709    -0.000116665688    -0.044423091375    -0.127523601803    -0.000030924692    -0.000115324195
            -0.000015804199    -0.000077801818    0.020215393883    -0.035419177031    -0.000030924692    -0.000115324195    0.063183836054    -0.122051357722
0.175     -0.013219480119    -0.034511501842    -0.000123872828    -0.000014218155    0.032636196524    -0.011635915355    -0.000108559771    -0.000010265628
            -0.000123872828    -0.000014218155    0.013170274119    -0.064566164995    -0.000168483338    -0.000016353220    0.042937158069    0.004024373193
            0.032636195711    -0.011635917633    -0.000168483338    -0.000016353220    -0.014863716396    -0.036621750924    -0.000152309149    -0.000019245765
            -0.000108559771    -0.000010265628    0.042937159891    0.004024375178    -0.000152309149    -0.000019245765    0.015649766196    -0.056560777530
0.200     0.013037164439    -0.097151543791    -0.000045818250    0.000063189049    0.025561618251    -0.072467521078    -0.000043715239    0.000094069524
            -0.000045818241    0.000063189038    0.074253028469    -0.041962012041    -0.000043456177    0.000105408411    0.075919448068    -0.019474716470
            0.025561638419    -0.072467529870    -0.000043456177    0.000105408411    0.012384746639    -0.100006679306    -0.000076627011    0.000134751984
            -0.000043715239    0.000094069524    0.075919447151    -0.019474711998    -0.000076627011    0.000134751984    0.076876354564    -0.037097616265
0.225     -0.085397412201    -0.090128265821    -0.000011443545    0.000136038182    -0.049353919280    -0.037382897821    0.000043335176    0.000093895753
            -0.000011443571    0.000136038180    0.067146220651    -0.122060848000    -0.000000977242    0.000138990805    0.034234112217    -0.045982346702
            -0.049353942397    -0.037382915331    -0.000000977244    0.000138990805    -0.088882254450    -0.093474530346    0.000067592576    0.000141758166
            0.000043335176    0.000093895753    0.034234116640    -0.045982340916    0.000067592579    0.000141758165    0.069059511427    -0.115749898033
0.250     -0.079500210005    0.005026929721    0.000186279408    0.000049286392    -0.004427785990    0.011019804100    0.000138987986    0.000018498927
            0.000186279414    0.000049286407    -0.032423263250    -0.108626695302    0.000221497998    0.000076065919    0.018419520186    -0.008809966520
            -0.004427801454    0.011019825907    0.000221497996    0.000076065923    -0.083691293578    0.005213205575    0.000189168376    0.000025826597
            0.000138987985    0.000018498932    0.018419525927    -0.008809966106    0.000189168376    0.000025826596    -0.026324864609    -0.101592664669
0.275     -0.031831017680    -0.012801543733    0.000086840767    -0.000134616658    -0.001932436900    -0.048983113455    0.000067832894    -0.000144856199
            0.000086840755    -0.000134616666    -0.009264345522    -0.020801201377    0.000121136320    -0.000198421875    0.057575583211    -0.007435200847
            -0.001932414554    -0.048983111335    0.000121136324    -0.000198421873    -0.033580165302    -0.012794834555    0.000110178526    -0.000188995604
            0.000067832892    -0.000144856189    0.057575584125    -0.007435201578    0.000110178521    -0.000188995595    -0.000862915803    -0.019151841854
0.300     -0.077970066797    -0.021367674992    -0.000029781767    -0.000160885950    -0.072136316307    -0.019588417960    -0.000091930857    -0.000111374788
            -0.000029781765    -0.000160885940    0.054501279767    -0.073417091969    -0.000079418309    -0.000181153054    0.049883693356    -0.053351187220
            -0.072136327363    -0.019588434481    -0.000079418309    -0.000181153054    -0.081591511451    -0.022523218695    -0.000119132831    -0.000174129179
            -0.000091930850    -0.000111374780    0.049883696149    -0.053351184608    -0.000119132831    -0.000174129179    0.059769321467    -0.073287220238
0.325     -0.082346083127    0.051866975518    -0.000222256011    -0.000059920920    -0.031499411085    0.039560545417    -0.000155630812    -0.000000093738
            -0.000222256020    -0.000059920923    -0.042078762503    -0.118171415911    -0.000250586159    -0.000070369303    0.002568270887    -0.038271798484
            -0.031499416638    0.039560566561    -0.000250586150    -0.000070369300    -0.086724375514    0.054732529380    -0.000214670099    -0.000007221489
            -0.000155630802    -0.000000093738    0.002568276231    -0.038271798125    -0.000214670099    -0.000007221489    -0.035943159622    -0.116103831846
0.350     -0.020937729942    0.065795646389    -0.000134999383    0.000205244990    -0.010698218267    -0.003521885555    -0.000088853951    0.000180853151
            -0.000134999388    0.000205244998    -0.071966000285    -0.002868311399    -0.000191618330    0.000272701655    0.027899014324    0.003389340447
            -0.010698198990    -0.003521883348    -0.000191618330    0.000272701655    -0.021050301839    0.069401481376    -0.000143583372    0.000224723606
            -0.000088853946    0.000180853142    0.027899017693    0.003389337595    -0.000143583372    0.000224723606    -0.062487050796    -0.004137021447
0.375     -0.023220889161    0.039276174801    0.000104643131    0.000202129696    -0.068385412432    0.014173340272    0.000145440244    0.000141796183
            0.000104643127    0.000202129687    0.031200422625    -0.012496537221    0.000189049103    0.000257282380    0.060561675598    -0.046875103539
            -0.068385417380    0.014173316401    0.000189049103    0.000257282380    -0.023917698426    0.040156995602    0.000171258582    0.000226911813
            0.000145440244    0.000141796183    0.060561676389    -0.046875104151    0.000171258576    0.000226911805    0.037345282416    -0.018080280060
0.400     -0.039388571807    0.070552044925    0.000254418900    0.000030633179    -0.038552394104    0.078838042574    0.000176745907    -0.000043093100
            0.000254418898    0.000030633190    -0.030454310385    -0.097165856481    0.000288059086    -0.000009849867    -0.011702086829    -0.071617310867
            -0.038552399815    0.078838054253    0.000288059086    -0.000009849868    -0.041429297600    0.074273673900    0.000255207911    -0.000036170919
            0.000176745907    -0.000043093096    -0.011702084168    -0.071617310288    0.000255207912    -0.000036170916    -0.027250062528    -0.101481580836
0.425     0.012925609185    0.098481342185    0.000157319080    -0.000250803679    0.004260834513    0.050047132344    0.000082153601    -0.000197907659
            0.000157319085    -0.000250803688    -0.096392160717    0.005836901667    0.000192907841    -0.000300440411    -0.014068202053    0.004665184507
            0.004260847954    0.050047135214    0.000192907846    -0.000300440408    0.015705604956    0.103240908888    0.000144110414    -0.000246479875
            0.000082153604    -0.000197907647    -0.014068198121    0.004665180478    0.000144110414    -0.000246479875    -0.091003988897    0.001490739158
0.450     0.044617447759    0.054734166180    -0.000176290385    -0.000253063758    -0.031272862451    0.044622233949    -0.000180962038    -0.000175167683
            -0.000176290385    -0.000253063758    0.014955273414    0.035502692107    -0.000263606410    -0.000326410089    0.061521092520    -0.027359615815
            -0.031272864500    0.044622220302    -0.000263606410    -0.000326410089    0.048386103743    0.055048503727    -0.000205697112    -0.000284781570
            -0.000180962038    -0.000175167683    0.061521091565    -0.027359617962    -0.000205697112    -0.000284781570    0.019088908296    0.026763612805
0.475     0.014190277771    0.048843539648    -0.000300792329    0.000035255519    -0.015087510380    0.100847798794    -0.000218048993    0.000093144754
            -0.000300792329    0.000035255519    -0.012641909223    -0.063165589106    -0.000356016061    0.000115935740    -0.016563584136    -0.095797960866
            -0.015087520941    0.100847797214    -0.000356016061    0.000115935740    0.015641989455    0.049801320331    -0.000324128014    0.000087651232
            -0.000218048993    0.000093144754    -0.016563584307    -0.095797961851    -0.000324128014    0.000087651232    -0.013442513514    -0.071847536533
0.500     0.041450577679    0.088105085804    -0.000127374137    0.000288699341    0.045923582241    0.089927543624    -0.000041442051    0.000221712215
            -0.000127374137    0.000288699341    -0.092930090284    0.012854103054    -0.000115734823    0.000325901944    -0.067444834647    0.004881504221
            0.045923588358    0.089927551728    -0.000115734823    0.000325901944    0.045904675333    0.090512687011    -0.000104049709    0.000285466913
            -0.000041442051    0.000221712215    -0.067444831655    0.004881504005    -0.000104049709    0.000285466913    -0.094324921239    0.006945360371
0.525     0.091013422036    0.041697688791    0.000210012157    0.000280025695    0.034507429325    0.055280722381    0.000188389661    0.000184771900
            0.000210012157    0.000280025695    0.006373004674    0.060647878022    0.000270483881    0.000337613639    0.030649128259    0.004309186898
            0.034507430007    0.055280714882    0.000270483876    0.000337613643    0.097122848741    0.039258789286    0.000213487771    0.000308723811
            0.000188389658    0.000184771903    0.030649128657    0.004309184063    0.000213487776    0.000308723808    0.005295319490    0.053376886786
0.550     0.043219391049    0.005218471640    0.000365437429    -0.000092900961    0.023898551922    0.085755454057    0.000274820559    -0.000122770989
            0.000365437431    -0.000092900954    0.000971422425    -0.038394580972    0.000438784715    -0.000173382761    -0.013277977833    -0.102647616595
            0.023898543479    0.085755458486    0.000438784718    -0.000173382753    0.045454086885    0.000985359251    0.000408730909    -0.000118933724
            0.000274820561    -0.000122770984    -0.013277979624    -0.102647616364    0.000408730907    -0.000118933731    -0.003335652927    -0.046603601815
0.575     0.046042853823    0.056431301100    0.000063723642    -0.000345943705    0.087081366574    0.091118449548    -0.000006712236    -0.000278338118
            0.000063723642    -0.000345943705    -0.081232832332    0.017363462701    0.000018294291    -0.000393787778    -0.112571213597    -0.004054338790
            0.087081371892    0.091118458297    0.000018294291    -0.000393787778    0.048417099078    0.054171019873    0.000051184702    -0.000364726694
            -0.000006712236    -0.000278338118    -0.112571213597    -0.004054338790    0.000051184702    -0.000364726694    -0.088241591826    0.012160404442
0.600     0.108295119760    0.016690134102    -0.000229133083    -0.000243191702    0.102736319041    0.023491169211    -0.000204828983    -0.000150078012
            -0.000229133076    -0.000243191695    0.001890171874    0.071964455263    -0.000266862787    -0.000267571782    0.001197471188    0.058186936490
            0.102736329610    0.023491167854    -0.000266862780    -0.000267571774    0.112453992184    0.011774148020    -0.000234924348    -0.000275077209
            -0.000204828975    -0.000150078007    0.001197471126    0.058186933491    -0.000234924348    -0.000275077209    -0.004375444077    0.069165254306
0.625     0.048572492982    -0.041447961061    -0.000409892119    0.000093382534    0.067251052534    0.026937257310    -0.000311906606    0.000115548595
            -0.000409892109    0.000093382532    0.009751647373    -0.022265141953    -0.000478531876    0.000145524130    -0.004088358921    -0.071127490870
            0.067251053920    0.026937259227    -0.000478531876    0.000145524130    0.049071919080    -0.049312352026    -0.000462074783    0.000107646687
            -0.000311906606    0.000115548595    -0.004088361519    -0.071127492724    -0.000462074783    0.000107646687    0.004093174349    -0.025174575734
0.650     0.028633925155    0.026910867787    -0.000017771949    0.000436726047    0.097456952474    0.057966458645    0.000031903722    0.000365572061
            -0.000017771949    0.000436726047    -0.076613857952    0.018265632037    0.000027214635    0.000505209662    -0.138324435470    -0.012076179790
            0.097456952474    0.057966458645    0.000027214626    0.000505209662    0.025601725853    0.021917227103    -0.000023472254    0.000475579976
            0.000031903721    0.000365572051    -0.138324435470    -0.012076179790    -0.000023472254    0.000475579976    -0.085089790018    0.016043508303
0.675     0.102591274318    -0.004401260740    0.000288137165    0.000177783590    0.133809353148    -0.026080395108    0.000278289967    0.000106290126
            0.000288137157    0.000177783585    -0.011997212518    0.081273281459    0.000336303039    0.000174327130    -0.052190746684    0.101856010697
            0.133809362963    -0.026080397021    0.000336303039    0.000174327130    0.101331221375    -0.008224100875    0.000321228240    0.000224146464
            0.000278289965    0.000106290131    -0.052190746684    0.101856010697    0.000321228240    0.000224146464    -0.020259318915    0.083124404836
0.700     0.034316366863    -0.079899874502    0.000388245152    -0.000070792943    0.044446036885    -0.064913428072    0.000295830584    -0.000121064461
            0.000388245153    -0.000070792936    0.013940616885    0.001925951663    0.000433631854    -0.000103905969    0.009416587861    -0.002266204970
            0.044446037444    -0.064913433749    0.000433631854    -0.000103905969    0.031596066425    -0.086382720506    0.000448344038    -0.000105913267
            0.000295830586    -0.000121064456    0.009416585345    -0.002266206451    0.000448344036    -0.000105913275    0.008374187176    0.005634426807
0.725     -0.009840538677    0.010402422294    0.000050664599    -0.000521717785    0.046767831013    0.002353097636    -0.000014539073    -0.000439103236
            0.000050664609    -0.000521717784    -0.071717272479    0.017950221503    0.000024916464    -0.000596361832    -0.121000218038    -0.003436928512
            0.046767833166    0.002353094635    0.000024916464    -0.000596361832    -0.014977886988    0.007579001141    0.000051090580    -0.000564865402
            -0.000014539073    -0.000439103236    -0.121000218038    -0.003436928512    0.000051090580    -0.000564865402    -0.076881270055    0.019965271362
0.750     0.082965722520    -0.014460651917    -0.000407315133    -0.000143389400    0.115691904427    -0.061666764960    -0.000401320625    -0.000091375236
            -0.000407315123    -0.000143389397    -0.038018321855    0.090977811575    -0.000479148828    -0.000134993121    -0.098308476813    0.130255822953
            0.115691902274    -0.061666768999    -0.000479148828    -0.000134993121    0.077108752134    -0.013314612267    -0.000460467689    -0.000205992680
            -0.000401320616    -0.000091375234    -0.098308476813    0.130255822953    -0.000460467689    -0.000205992680    -0.045052278295    0.095838419617
0.775     0.004948166316    -0.103288383707    -0.000326933754    0.000131384970    -0.004368225450    -0.126757675121    -0.000252946095    0.000223255378
            -0.000326933777    0.000131384912    0.012625020498    0.051833035034    -0.000341015098    0.000178754816    0.008124878793    0.092807287754
            -0.004368228007    -0.126757685039    -0.000341015098    0.000178754816    0.002350665635    -0.103799156486    -0.000395651161    0.000207406252
