# GHz S RI R 45
0.000     0.065489876000    0.000000000000    0.000031630990    -0.000000000000    0.008755605200    0.000000000000    0.000037436378    -0.000000000000
            0.000031630783    -0.000000000000    0.064955474000    0.000000000000    0.000037443445    -0.000000000000    0.008125618300    0.000000000000
            0.008755605000    0.000000000000    0.000037443633    -0.000000000000    0.059766978000    0.000000000000    0.000045294994    -0.000000000000
            0.000037436383    -0.000000000000    0.008125599700    0.000000000000    0.000045294971    -0.000000000000    0.059278752000    0.000000000000
0.025     0.163152236601    0.034521531638    0.000055231789    0.000001411505    0.071708524026    0.035307027284    0.000066525278    0.000001189478
            0.000055231785    0.000001411506    0.163564113739    0.034209700287    0.000066676425    0.000000867771    0.070945851464    0.035427668546
            0.071708524026    0.035307027284    0.000066676428    0.000000867770    0.155262575131    0.034506602984    0.000083510078    0.000000939736
            0.000066525274    0.000001189478    0.070945838320    0.035427663530    0.000083510077    0.000000939737    0.155741011408    0.034477538502
0.050     0.167784598548    -0.086938632136    -0.000030879278    0.000006553387    0.078861839535    -0.038680255755    -0.000038775493    0.000005435821
            -0.000030879278    0.000006553387    0.167793195239    -0.087810060884    -0.000039250299    0.000004650004    0.078845434452    -0.038708161947
            0.078861840433    -0.038680256196    -0.000039250299    0.000004650004    0.158955870474    -0.083182093127    -0.000050789600    0.000002096632
            -0.000038775493    0.000005435821    0.078845427058    -0.038708149778    -0.000050789600    0.000002096641    0.159312257517    -0.083836734364
0.075     0.055236960224    -0.082919095801    0.000003049564    0.000229805407    0.010147720235    -0.016301690395    -0.000000062456    0.000275286303
            0.000003049564    0.000229805407    0.054181797376    -0.084072226064    -0.000000882265    0.000275347097    0.009145709617    -0.018261911333
            0.010147720235    -0.016301690395    -0.000000882265    0.000275347097    0.049687224214    -0.076588242234    -0.000006469954    0.000341268325
            -0.000000062451    0.000275286303    0.009145713503    -0.018261907150    -0.000006469954    0.000341268325    0.048876801675    -0.077615272217
0.100     0.084847846717    -0.003625800637    0.000303313033    0.000142216103    0.059257468979    0.032447411175    0.000364233394    0.000173930077
            0.000303313024    0.000142216098    0.083480439780    -0.003611408533    0.000364530666    0.000173583705    0.056065372358    0.031813888665
            0.059257468979    0.032447411175    0.000364530666    0.000173583705    0.081480632211    0.001034729111    0.000453109426    0.000220763897
            0.000364233394    0.000173930077    0.056065368324    0.031813887669    0.000453109426    0.000220763897    0.080420693651    0.001438277385
0.125     0.143284536765    -0.067012596061    0.000141309225    -0.000095050352    0.081926074110    -0.031049532099    0.000169764718    -0.000122358664
            0.000141309223    -0.000095050355    0.142218095105    -0.068550239193    0.000168739823    -0.000124497655    0.080064281090    -0.030324691152
            0.081926075045    -0.031049532453    0.000168739823    -0.000124497655    0.138470717641    -0.061493442553    0.000209893229    -0.000166141373
            0.000169764718    -0.000122358664    0.080064276132    -0.030324684480    0.000209893229    -0.000166141373    0.138051937343    -0.062746880871
0.150     0.070492603237    -0.129958330063    -0.000021320872    0.000186486245    0.022607513151    -0.034494570839    -0.000037422865    0.000221691524
            -0.000021320872    0.000186486245    0.065288391076    -0.131086753035    -0.000040275507    0.000221718586    0.020215389684    -0.035419184033
            0.022607513151    -0.034494570839    -0.000040275507    0.000221718586    0.067750042983    -0.120964060465    -0.000066344002    0.000273829408
            -0.000037422865    0.000221691524    0.020215393883    -0.035419177031    -0.000066344002    0.000273829408    0.063183836054    -0.122051357722
0.175     0.017529312379    -0.068271293510    0.000442551793    0.000315189350    0.046704820365    0.002812280846    0.000526690680    0.000387903944
            0.000442551793    0.000315189350    0.013170274119    -0.064566164995    0.000526504394    0.000389011280    0.042937158069    0.004024373193
            0.046704820370    0.002812280765    0.000526504386    0.000389011274    0.019366493821    -0.060347638275    0.000649068391    0.000496784348
            0.000526690680    0.000387903944    0.042937159891    0.004024375178    0.000649068391    0.000496784348    0.015649766196    -0.056560777530
0.200     0.076025280897    -0.042026211346    0.000525076080    -0.000226884159    0.080858718966    -0.020934902419    0.000635962754    -0.000276221445
            0.000525076071    -0.000226884155    0.074253028469    -0.041962012041    0.000635161107    -0.000278040198    0.075919448068    -0.019474716470
            0.080858718966    -0.020934902419    0.000635161107    -0.000278040198    0.077852008501    -0.037112619926    0.000797052717    -0.000350773675
            0.000635962763    -0.000276221449    0.075919447151    -0.019474711998    0.000797052717    -0.000350773675    0.076876354564    -0.037097616265
0.225     0.076441996477    -0.122780393500    0.000036249575    -0.000175274185    0.039879455474    -0.049114408787    0.000013541688    -0.000217912506
            0.000036249572    -0.000175274186    0.067146220651    -0.122060848000    0.000005231051    -0.000218079271    0.034234112217    -0.045982346702
            0.039879455474    -0.049114408787    0.000005231055    -0.000218079271    0.077563428689    -0.116240327597    -0.000030390779    -0.000276586610
            0.000013541691    -0.000217912506    0.034234116640    -0.045982340916    -0.000030390779    -0.000276586610    0.069059511427    -0.115749898033
0.250     -0.025976394694    -0.118889845177    0.000316445039    0.000303557542    0.022103161712    -0.013591778377    0.000367943146    0.000380317884
            0.000316445039    0.000303557542    -0.032423263250    -0.108626695302    0.000366455906    0.000384164284    0.018419520186    -0.008809966520
            0.022103160860    -0.013591777853    0.000366455899    0.000384164277    -0.020737322564    -0.111391467327    0.000442934914    0.000499921935
            0.000367943153    0.000380317878    0.018419525927    -0.008809966106    0.000442934914    0.000499921935    -0.026324864609    -0.101592664669
0.275     -0.008870509306    -0.025762895920    0.000860176452    -0.000237188969    0.062589041496    -0.009200049295    0.001037784826    -0.000275292233
            0.000860176452    -0.000237188969    -0.009264345522    -0.020801201377    0.001038058020    -0.000275494384    0.057575583211    -0.007435200847
            0.062589041496    -0.009200049295    0.001038058020    -0.000275494384    -0.001059134464    -0.023501548320    0.001297318949    -0.000331146078
            0.001037784826    -0.000275292233    0.057575584125    -0.007435201578    0.001297318949    -0.000331146078    -0.000862915803    -0.019151841854
0.300     0.065176671800    -0.077274898450    0.000194470337    -0.000742490808    0.059839248337    -0.060944921562    0.000226758780    -0.000896481460
            0.000194470337    -0.000742490808    0.054501279767    -0.073417091969    0.000223045987    -0.000896507500    0.049883693356    -0.053351187220
            0.059839248337    -0.060944921562    0.000223045987    -0.000896507500    0.070089112112    -0.076459274494    0.000268045440    -0.001119103183
            0.000226758780    -0.000896481460    0.049883696149    -0.053351184608    0.000268045440    -0.001119103183    0.059769321467    -0.073287220238
0.325     -0.035089609202    -0.135699037995    0.000045503036    -0.000127187631    0.004523734051    -0.051440517093    0.000059504661    -0.000144532764
            0.000045503036    -0.000127187631    -0.042078762503    -0.118171415911    0.000060397326    -0.000144700659    0.002568270887    -0.038271798484
            0.004523734051    -0.051440517093    0.000060397326    -0.000144700659    -0.029594800325    -0.132789642279    0.000089798129    -0.000172110778
            0.000059504659    -0.000144532765    0.002568276231    -0.038271798125    0.000089798132    -0.000172110777    -0.035943159622    -0.116103831846
0.350     -0.076742075903    -0.012867418007    0.000861885273    -0.000113710525    0.027281587096    0.000153868042    0.001032999002    -0.000112739726
            0.000861885274    -0.000113710520    -0.071966000285    -0.002868311399    0.001035791380    -0.000109467996    0.027899014324    0.003389340447
            0.027281587095    0.000153868175    0.001035791380    -0.000109467999    -0.067334244044    -0.012566500826    0.001287119169    -0.000108298932
            0.001032999001    -0.000112739731    0.027899017693    0.003389337595    0.001287119169    -0.000108298934    -0.062487050796    -0.004137021447
0.375     0.038639144488    -0.018601603753    0.000403436037    -0.001220594808    0.072778104817    -0.055196425585    0.000499578335    -0.001450503178
            0.000403436037    -0.001220594808    0.031200422625    -0.012496537221    0.000498906914    -0.001450407910    0.060561675598    -0.046875103539
            0.072778104817    -0.055196425585    0.000498906914    -0.001450407910    0.045261637873    -0.022926147278    0.000639981120    -0.001781712809
            0.000499578335    -0.001450503178    0.060561676389    -0.046875104151    0.000639981089    -0.001781712820    0.037345282416    -0.018080280060
0.400     -0.025195485701    -0.119685168460    -0.000554681077    -0.000562864876    -0.010103712259    -0.093980278082    -0.000671176192    -0.000675511073
            -0.000554681077    -0.000562864876    -0.030454310385    -0.097165856481    -0.000674697652    -0.000671313810    -0.011702086829    -0.071617310867
            -0.010103712259    -0.093980278082    -0.000674697652    -0.000671313810    -0.021768154878    -0.123263118964    -0.000841269605    -0.000833236291
            -0.000671176192    -0.000675511073    -0.011702084168    -0.071617310288    -0.000841269605    -0.000833236291    -0.027250062528    -0.101481580836
0.425     -0.107606866766    -0.009749269278    0.000335252653    -0.000019779505    -0.024027644001    -0.003476713718    0.000399553581    0.000016121485
            0.000335252654    -0.000019779502    -0.096392160717    0.005836901667    0.000407177075    0.000032795706    -0.014068202053    0.004665184507
            -0.024027644001    -0.003476713718    0.000407177076    0.000032795700    -0.101586689914    -0.012375184041    0.000507123691    0.000124483727
            0.000399553582    0.000016121480    -0.014068198121    0.004665180478    0.000507123691    0.000124483727    -0.091003988897    0.001490739158
0.450     0.016415301817    0.029808252908    0.000534280446    -0.001347667124    0.070503559635    -0.031563855083    0.000674456725    -0.001567919857
            0.000534280446    -0.001347667124    0.014955273414    0.035502692107    0.000679790488    -0.001568856542    0.061521092520    -0.027359615815
            0.070503559635    -0.031563855083    0.000679790488    -0.001568856542    0.022598154276    0.021985847530    0.000887828813    -0.001884893721
            0.000674456725    -0.001567919857    0.061521091565    -0.027359617962    0.000887828813    -0.001884893721    0.019088908296    0.026763612805
0.475     -0.010446335765    -0.085501554114    -0.000992085494    -0.001073644741    -0.012775758257    -0.122340687166    -0.001151688883    -0.001313130195
            -0.000992085494    -0.001073644741    -0.012641909223    -0.063165589106    -0.001153960937    -0.001312829606    -0.016563584136    -0.095797960866
            -0.012775758257    -0.122340687166    -0.001153960937    -0.001312829606    -0.009772467888    -0.094477115352    -0.001378210298    -0.001664937371
            -0.001151688883    -0.001313130195    -0.016563584307    -0.095797961851    -0.001378210298    -0.001664937371    -0.013442513514    -0.071847536533
0.500     -0.108928889523    -0.006415154254    -0.000474237847    0.000116031490    -0.086046234026    -0.012065490554    -0.000594039875    0.000149230249
            -0.000474237847    0.000116031490    -0.092930090284    0.012854103054    -0.000592145162    0.000158459913    -0.067444834647    0.004881504221
            -0.086046234026    -0.012065490554    -0.000592145162    0.000158459913    -0.109034590237    -0.011495881706    -0.000767434584    0.000206107296
            -0.000594039875    0.000149230249    -0.067444831655    0.004881504005    -0.000767434584    0.000206107296    -0.094324921239    0.006945360371
0.525     -0.001005110768    0.056673803873    0.000359742415    -0.000913651271    0.030628296729    0.001363013787    0.000467879282    -0.001021202294
            0.000359742415    -0.000913651271    0.006373004674    0.060647878022    0.000482237447    -0.001020466581    0.030649128259    0.004309186898
            0.030628296727    0.001363013840    0.000482237447    -0.001020466581    0.000931527246    0.049706308065    0.000649775991    -0.001168799431
            0.000467879282    -0.001021202294    0.030649128657    0.004309184063    0.000649775991    -0.001168799431    0.005295319490    0.053376886786
0.550     0.001000353250    -0.055772016317    -0.001239239320    -0.001318159910    -0.006547986628    -0.124935935215    -0.001377691024    -0.001618561683
            -0.001239239320    -0.001318159910    0.000971422425    -0.038394580972    -0.001378969721    -0.001625936111    -0.013277977833    -0.102647616595
            -0.006547986628    -0.124935935215    -0.001378969721    -0.001625936111    -0.001073857162    -0.065403036725    -0.001566009866    -0.002071770870
            -0.001377691024    -0.001618561683    -0.013277979624    -0.102647616364    -0.001566009866    -0.002071770870    -0.003335652927    -0.046603601815
0.575     -0.096581527502    -0.002286273810    -0.001256508715    0.000165177326    -0.132020797316    -0.029178921765    -0.001541799910    0.000151703785
            -0.001256508715    0.000165177326    -0.081232832332    0.017363462701    -0.001543479184    0.000159090860    -0.112571213597    -0.004054338790
            -0.132020797316    -0.029178921765    -0.001543479184    0.000159090860    -0.102064115955    -0.008358720247    -0.001965131236    0.000130367474
            -0.001541799910    0.000151703785    -0.112571213597    -0.004054338790    -0.001965131236    0.000130367474    -0.088241591826    0.012160404442
0.600     -0.013119888604    0.067924882229    -0.000121954033    -0.000085453766    -0.016341075036    0.059191103779    -0.000136642249    -0.000029708349
            -0.000121954025    -0.000085453760    0.001890171874    0.071964455263    -0.000121138845    -0.000025743089    0.001197471188    0.058186936490
            -0.016341075036    0.059191103779    -0.000121138855    -0.000025743091    -0.016669943635    0.064154965071    -0.000136519758    0.000064549153
            -0.000136642259    -0.000029708351    0.001197471126    0.058186933491    -0.000136519767    0.000064549157    -0.004375444077    0.069165254306
0.625     0.008079193364    -0.031394887562    -0.001108886832    -0.001014065047    -0.001409930749    -0.080519980776    -0.001175120470    -0.001236335660
            -0.001108886832    -0.001014065047    0.009751647373    -0.022265141953    -0.001171286086    -0.001253900653    -0.004088358921    -0.071127490870
            -0.001409930749    -0.080519980776    -0.001171286086    -0.001253900653    0.004977231863    -0.036562308508    -0.001246248274    -0.001590310880
            -0.001175120470    -0.001236335660    -0.004088361519    -0.071127492724    -0.001246248274    -0.001590310880    0.004093174349    -0.025174575734
0.650     -0.085604387955    0.001095159463    -0.001720338550    0.000290978427    -0.150140346998    -0.040167444102    -0.002082319111    0.000211759910
            -0.001720338550    0.000290978427    -0.076613857952    0.018265632037    -0.002091037180    0.000216715478    -0.138324435470    -0.012076179790
            -0.150140346998    -0.040167444102    -0.002091037180    0.000216715478    -0.093042007671    -0.003738368120    -0.002627372325    0.000079941177
            -0.002082319111    0.000211759910    -0.138324435470    -0.012076179790    -0.002627372325    0.000079941177    -0.085089790018    0.016043508303
0.675     -0.028966808070    0.070726877179    -0.000735448077    0.000746838169    -0.080351667247    0.093927375853    -0.000919291830    0.000938044846
            -0.000735448077    0.000746838169    -0.011997212518    0.081273281459    -0.000906260676    0.000944840164    -0.052190746684    0.101856010697
            -0.080351667247    0.093927375853    -0.000906260676    0.000944840164    -0.036286893609    0.070275193829    -0.001177591353    0.001233680502
            -0.000919291830    0.000938044846    -0.052190746684    0.101856010697    -0.001177591353    0.001233680502    -0.020259318915    0.083124404836
0.700     0.004703643600    0.000522165289    -0.000644907313    -0.000136853305    0.002622205728    0.002417004668    -0.000639706827    -0.000154697551
            -0.000644907313    -0.000136853305    0.013940616885    0.001925951663    -0.000628599999    -0.000174885418    0.009416587861    -0.002266204970
            0.002622205728    0.002417004668    -0.000628599999    -0.000174885418    0.000489572743    0.000616129493    -0.000599208984    -0.000212319328
            -0.000639706837    -0.000154697553    0.009416585345    -0.002266206451    -0.000599208984    -0.000212319328    0.008374187176    0.005634426807
0.725     -0.071262120232    0.006548545593    -0.001580064434    0.000437905559    -0.121380716467    -0.023172153201    -0.001864790867    0.000331301551
            -0.001580064434    0.000437905559    -0.071717272479    0.017950221503    -0.001883508051    0.000328675321    -0.121000218038    -0.003436928512
            -0.121380716467    -0.023172153201    -0.001883508051    0.000328675321    -0.076564219532    0.004778778356    -0.002306867528    0.000141083555
            -0.001864790867    0.000331301551    -0.121000218038    -0.003436928512    -0.002306867528    0.000141083555    -0.076881270055    0.019965271362
0.750     -0.050050125972    0.069867042583    -0.001051369919    0.001384087074    -0.126580528142    0.107957319990    -0.001377699193    0.001628991713
            -0.001051369919    0.001384087074    -0.038018321855    0.090977811575    -0.001367229448    0.001639544552    -0.098308476813    0.130255822953
            -0.126580528142    0.107957319990    -0.001367229448    0.001639544552    -0.057594480276    0.071340594798    -0.001861045921    0.002001161432
            -0.001377699193    0.001628991713    -0.098308476813    0.130255822953    -0.001861045921    0.002001161432    -0.045052278295    0.095838419617
0.775     -0.008620008005    0.046425286538    -0.000154688802    0.001082003679    -0.018240579693    0.101505664475    -0.000127534561    0.001323671071
            -0.000154688802    0.001082003679    0.012625020498    0.051833035034    -0.000113706275    0.001308450572    0.008124878793    0.092807287754
            -0.018240579693    0.101505664475    -0.000113706275    0.001308450572    -0.011922808172    0.050633207228    -0.000057999994    0.001656510023
