# GHz S RI R 45
0.000     0.065139444000    0.000000000000    0.931370370000    -0.000000000000    0.008117474300    0.000000000000    -0.008528544500    -0.000000000000
            0.931370370000    -0.000000000000    0.064955474000    0.000000000000    -0.008530007900    -0.000000000000    0.008125618300    0.000000000000
            0.008117456400    0.000000000000    -0.008530026000    -0.000000000000    0.059297183000    -0.000000000000    0.936199690000    -0.000000000000
            -0.008528562600    -0.000000000000    0.008125599700    0.000000000000    0.936199690000    -0.000000000000    0.059278752000    0.000000000000
0.025     0.178670877836    0.022349707383    0.414415503616    -0.809696335299    0.072904472467    0.027031149784    -0.009842849552    0.013261428523
            0.414415503616    -0.809696335299    0.163564113739    0.034209700287    -0.009851980194    0.013261819165    0.070945851464    0.035427668546
            0.072904459806    0.027031146537    -0.009851977738    0.013261811024    0.171130326348    0.023666520998    0.416738956008    -0.814199485248
            -0.009842847098    0.013261420381    0.070945838320    0.035427663530    0.416738956008    -0.814199485248    0.155741011408    0.034477538502
0.050     0.153472942864    -0.132361104678    -0.505329050991    -0.745719532468    0.066569457683    -0.054096808720    0.017245873158    0.008495013712
            -0.505329050991    -0.745719532468    0.167793195239    -0.087810060884    0.017249700812    0.008514109563    0.078845434452    -0.038708161947
            0.066569453867    -0.054096795974    0.017249693197    0.008514109174    0.146463806867    -0.126599110234    -0.508808842458    -0.749656965999
            0.017245865693    0.008495013027    0.078845427058    -0.038708149778    -0.508808842458    -0.749656965999    0.159312257517    -0.083836734364
0.075     0.018102074463    -0.093034969148    -0.902134287156    0.095407501376    -0.001369436754    -0.018480980971    0.003728713829    -0.009939173418
            -0.902134287156    0.095407501376    0.054181797376    -0.084072226064    0.003750707503    -0.009947846295    0.009145709617    -0.018261911333
            -0.001369431371    -0.018480978361    0.003750706607    -0.009947841289    0.015532375064    -0.085250993683    -0.906795691453    0.097072901794
            0.003728712940    -0.009939168411    0.009145713503    -0.018261907150    -0.906795691453    0.097072901794    0.048876801675    -0.077615272217
0.100     0.089534818428    -0.031823986852    -0.329483037147    0.837709013286    0.061983944553    0.009111916701    0.001895484430    -0.006460068045
            -0.329483037147    0.837709013286    0.083480439780    -0.003611408533    0.001893228023    -0.006480638460    0.056065372358    0.031813888665
            0.061983941299    0.009111918212    0.001893230289    -0.006480636132    0.089375065523    -0.025942322249    -0.330122958741    0.842258103135
            0.001895486686    -0.006460065716    0.056065368324    0.031813887669    -0.330122958741    0.842258103135    0.080420693651    0.001438277385
0.125     0.084286091642    -0.148805095188    0.571629287386    0.678814408694    0.046738166491    -0.067823853008    -0.012898255724    -0.006098404275
            0.571629287386    0.678814408694    0.142218095105    -0.068550239193    -0.012936644216    -0.006114120993    0.080064281090    -0.030324691152
            0.046738167821    -0.067823844805    -0.012936640437    -0.006114121969    0.084490446459    -0.141868282640    0.575461981469    0.681643454261
            -0.012898251947    -0.006098405243    0.080064276132    -0.030324684480    0.575461981469    0.681643454261    0.138051937343    -0.062746880871
0.150     -0.047455009810    -0.126434624423    0.868704493640    -0.176054143401    -0.019765335109    -0.030599985720    -0.004104490201    0.013166806124
            0.868704493640    -0.176054143401    0.065288391076    -0.131086753035    -0.004123520212    0.013242428541    0.020215389684    -0.035419184033
            -0.019765326512    -0.030599984129    -0.004123519022    0.013242424722    -0.042880583158    -0.118613392910    0.872999929960    -0.178554614224
            -0.004104491309    0.013166801589    0.020215393883    -0.035419177031    0.872999929960    -0.178554614224    0.063183836054    -0.122051357722
0.175     -0.015897118180    -0.039336370403    0.252881121494    -0.850053615601    0.030851434021    -0.012625124806    0.005836493586    0.003707144308
            0.252881121494    -0.850053615601    0.013170274119    -0.064566164995    0.005926881388    0.003707909614    0.042937158069    0.004024373193
            0.030851436313    -0.012625124487    0.005926878731    0.003707908959    -0.008139301499    -0.036054544796    0.252274292215    -0.854767277138
            0.005836490854    0.003707143573    0.042937159891    0.004024375178    0.252274292215    -0.854767277138    0.015649766196    -0.056560777530
0.200     0.003841007082    -0.098975483789    -0.625637828318    -0.616793647463    0.019901226183    -0.070240631196    0.006440078326    0.001780849269
            -0.625637828318    -0.616793647463    0.074253028469    -0.041962012041    0.006450950595    0.001709684455    0.075919448068    -0.019474716470
            0.019901228090    -0.070240628577    0.006450948861    0.001709685923    0.009729126978    -0.098581914729    -0.629812822018    -0.618362426903
            0.006440076544    0.001780850834    0.075919447151    -0.019474711998    -0.629812822018    -0.618362426903    0.076876354564    -0.037097616265
0.225     -0.090734003009    -0.084244882603    -0.833547358410    0.253498336143    -0.043362497506    -0.026420342633    0.004282602870    -0.009913493153
            -0.833547358410    0.253498336143    0.067146220651    -0.122060848000    0.004217305297    -0.010000353379    0.034234112217    -0.045982346702
            -0.043362487771    -0.026420347079    0.004217305741    -0.010000351021    -0.083999271236    -0.083576001926    -0.837075093732    0.256448894330
            0.004282603461    -0.009913490719    0.034234116640    -0.045982340916    -0.837075093732    0.256448894330    0.069059511427    -0.115749898033
0.250     -0.080952412105    0.006728291216    -0.174194990267    0.851459543499    0.006027839568    0.005976017314    -0.008823961439    -0.003028827622
            -0.174194990267    0.851459543499    -0.032423263250    -0.108626695302    -0.008987665174    -0.002908735822    0.018419520186    -0.008809966520
            0.006027841623    0.005976012259    -0.008987662701    -0.002908735021    -0.072223779709    0.003285220490    -0.172945932758    0.856172154511
            -0.008823958980    -0.003028826778    0.018419525927    -0.008809966106    -0.172945932758    0.856172154511    -0.026324864609    -0.101592664669
0.275     -0.037838643165    -0.007763599856    0.665993398463    0.553585878278    -0.007369690525    -0.050178617317    -0.002274648640    0.002579440722
            0.665993398463    0.553585878278    -0.009264345522    -0.020801201377    -0.002105428888    0.002732333967    0.057575583211    -0.007435200847
            -0.007369690816    -0.050178619296    -0.002105428022    0.002732331857    -0.033590878324    -0.015689664938    0.670753033651    0.554271235182
            -0.002274647701    0.002579438750    0.057575584125    -0.007435201578    0.670753033651    0.554271235182    -0.000862915803    -0.019151841854
0.300     -0.077520566097    -0.010160591031    0.796395708840    -0.321698301166    -0.065594545831    -0.007466607946    -0.003789394748    0.004452311218
            0.796395708840    -0.321698301166    0.054501279767    -0.073417091969    -0.003658107367    0.004361123628    0.049883693356    -0.053351187220
            -0.065594542850    -0.007466607607    -0.003658108504    0.004361121891    -0.076243686516    -0.016238435326    0.799063739896    -0.325426163542
            -0.003789395913    0.004452309438    0.049883696149    -0.053351184608    0.799063739896    -0.325426163542    0.059769321467    -0.073287220238
0.325     -0.076937180142    0.055756633359    0.097151239126    -0.847759083008    -0.017337516531    0.031043076227    0.006708669918    0.004873878365
            0.097151239126    -0.847759083008    -0.042078762503    -0.118171415911    0.006761078053    0.004663384712    0.002568270887    -0.038271798484
            -0.017337519999    0.031043069708    0.006761075674    0.004663384639    -0.074857636405    0.049271853382    0.095189945080    -0.852042582699
            0.006708667696    0.004873878361    0.002568276231    -0.038271798125    0.095189945080    -0.852042582699    -0.035943159622    -0.116103831846
0.350     -0.021750735244    0.068606429734    -0.697101551364    -0.487627990914    -0.019396036416    -0.012891727234    0.002317909245    -0.004329584076
            -0.697101551364    -0.487627990914    -0.071966000285    -0.002868311399    0.001959518881    -0.004433518832    0.027899014324    0.003389340447
            -0.019396039748    -0.012891729448    0.001959517951    -0.004433516728    -0.023063354195    0.059098085585    -0.702171429259    -0.487701680006
            0.002317908566    -0.004329581718    0.027899017693    0.003389337595    -0.702171429259    -0.487701680006    -0.062487050796    -0.004137021447
0.375     -0.020179175118    0.045689689800    -0.755394286573    0.380316156979    -0.068138614613    0.024800602606    0.002025968384    -0.001188667472
            -0.755394286573    0.380316156979    0.031200422625    -0.012496537221    0.001971833634    -0.000822772861    0.060561675598    -0.046875103539
            -0.068138615552    0.024800602948    0.001971835169    -0.000822771522    -0.026488616431    0.039558723106    -0.757403328389    0.384938862652
            0.002025969942    -0.001188666200    0.060561676389    -0.046875104151    -0.757403328389    0.384938862652    0.037345282416    -0.018080280060
0.400     -0.031046268312    0.072049476174    -0.025690945823    0.839385512580    -0.024760546546    0.071161385147    -0.002641847736    -0.006386132423
            -0.025690931173    0.839385513029    -0.030454310385    -0.097165856481    -0.002423949749    -0.006307917461    -0.011702086829    -0.071617310867
            -0.024760545560    0.071161382314    -0.002423947440    -0.006307918027    -0.036213305261    0.069700376106    -0.022637842117    0.843062370020
            -0.002641845392    -0.006386133068    -0.011702084168    -0.071617310288    -0.022637842117    0.843062370020    -0.027250062528    -0.101481580836
0.425     0.015191839640    0.094341749235    0.722116948585    0.421656546515    -0.009873348533    0.035674136550    -0.005138688816    0.002795507070
            0.722116948585    0.421656546515    -0.096392160717    0.005836901667    -0.004842775113    0.002705347670    -0.014068202053    0.004665184507
            -0.009873348799    0.035674137514    -0.004842774747    0.002705345248    0.010265094657    0.090689494692    0.726959583216    0.420818809674
            -0.005138688474    0.002795504560    -0.014068198121    0.004665180478    0.726959583216    0.420818809674    -0.091003988897    0.001490739158
0.450     0.040713271497    0.056336601943    0.711206660071    -0.433125761906    -0.045564690695    0.055772309681    -0.000587087763    0.001545226967
            0.711206660071    -0.433125761906    0.014955273414    0.035502692107    -0.000735096679    0.001058117838    0.061521092520    -0.027359615815
            -0.045564691960    0.055772311230    -0.000735098583    0.001058116637    0.031902519705    0.055148441268    0.712555308019    -0.438187068482
            -0.000587089509    0.001545225876    0.061521091565    -0.027359617962    0.712555308019    -0.438187068482    0.019088908296    0.026763612805
0.475     0.015626775294    0.054505357025    -0.041692655287    -0.825766506301    -0.006719010700    0.104492782626    -0.000328877611    0.005911475719
            -0.041692655287    -0.825766506301    -0.012641909223    -0.063165589106    -0.000748881286    0.006143721716    -0.016563584136    -0.095797960866
            -0.006719010700    0.104492782626    -0.000748882944    0.006143722823    0.009233859672    0.058938708817    -0.045688847386    -0.828915927791
            -0.000328879214    0.005911476631    -0.016563584307    -0.095797961851    -0.045688847386    -0.828915927791    -0.013442513514    -0.071847536533
0.500     0.043734486745    0.081889520118    -0.740907626936    -0.357275462749    0.035523913660    0.075379044099    0.008112104998    0.000015807964
            -0.740907626936    -0.357275462749    -0.092930090284    0.012854103054    0.008205040900    0.000240939161    -0.067444834647    0.004881504221
            0.035523911029    0.075379045340    0.008205040843    0.000240941109    0.041817652953    0.085548433739    -0.745325486716    -0.355351775222
            0.008112104894    0.000015809917    -0.067444831655    0.004881504005    -0.745325486716    -0.355351775222    -0.094324921239    0.006945360371
0.525     0.074859478684    0.040084896456    -0.666090964484    0.480609406468    0.015939298413    0.075786930877    0.001481746442    -0.004675135611
            -0.666090964484    0.480609406468    0.006373004674    0.060647878022    0.001723647968    -0.004474341151    0.030649128259    0.004309186898
            0.015939295973    0.075786932412    0.001723649771    -0.004474340242    0.071213438116    0.043013052010    -0.666558925822    0.485581445821
            0.001481748310    -0.004675134704    0.030649128657    0.004309184063    -0.666558925822    0.485581445821    0.005295319490    0.053376886786
0.550     0.038078757384    0.027004149353    0.107405618876    0.808193693887    0.028653875064    0.113608464647    0.001585974933    -0.004856478700
            0.107405618876    0.808193693887    0.000971422425    -0.038394580972    0.001923222042    -0.005293717682    -0.013277977833    -0.102647616595
            0.028653879493    0.113608473844    0.001923223581    -0.005293719038    0.036178769279    0.034359447819    0.111808993957    0.810766302191
            0.001585976424    -0.004856480107    -0.013277979624    -0.102647616364    0.111808993957    0.810766302191    -0.003335652927    -0.046603601815
0.575     0.057242072538    0.058666123607    0.753491924086    0.291952989666    0.091830675125    0.086376942758    -0.009534335239    -0.003224240164
            0.753491924086    0.291952989666    -0.081232832332    0.017363462701    -0.010030140528    -0.003381093788    -0.112571213597    -0.004054338790
            0.091830673617    0.086376944361    -0.010030140885    -0.003381095858    0.061719413156    0.064322637696    0.757558537967    0.289257842209
            -0.009534335623    -0.003224242148    -0.112571213597    -0.004054338790    0.757558537967    0.289257842209    -0.088241591826    0.012160404442
0.600     0.086365580353    0.015284964889    0.619421025255    -0.521355721728    0.072263587614    0.036316059153    -0.001340939598    0.007558935762
            0.619421025255    -0.521355721728    0.001890171874    0.071964455263    -0.001374641002    0.007808792690    0.001197471188    0.058186936490
            0.072263587874    0.036316060863    -0.001374642994    0.007808792035    0.090072604174    0.016066446836    0.619075279175    -0.526148728306
            -0.001340940882    0.007558935331    0.001197471126    0.058186933491    0.619075279175    -0.526148728306    -0.004375444077    0.069165254306
0.625     0.040408473742    0.004828808014    -0.169554639746    -0.789501238821    0.060292216681    0.074949686532    -0.001459465739    0.003457096066
            -0.169554639746    -0.789501238821    0.009751647373    -0.022265141953    -0.001465700728    0.003685897559    -0.004088358921    -0.071127490870
            0.060292218561    0.074949688870    -0.001465702074    0.003685899069    0.043130185749    0.007465280577    -0.174011900730    -0.791474565930
            -0.001459467081    0.003457097561    -0.004088361519    -0.071127492724    -0.174011900730    -0.791474565930    0.004093174349    -0.025174575734
0.650     0.066233997485    0.039298800001    -0.762158812575    -0.224409783256    0.135677158409    0.062034496017    0.010171121461    0.006986930659
            -0.762158812575    -0.224409783256    -0.076613857952    0.018265632037    0.010692713591    0.006914161681    -0.138324435470    -0.012076179790
            0.135677158409    0.062034496017    0.010692713828    0.006914163157    0.073732114863    0.040626423390    -0.765938470667    -0.221329944817
            0.010171122499    0.006986932679    -0.138324435470    -0.012076179790    -0.765938470667    -0.221329944817    -0.085089790018    0.016043508303
0.675     0.094613337730    -0.013884922231    -0.567319347922    0.555613495604    0.115614544030    -0.028906422181    0.004152437370    -0.010942935262
            -0.567319347922    0.555613495604    -0.011997212518    0.081273281459    0.003865326358    -0.011274473647    -0.052190746684    0.101856010697
            0.115614544030    -0.028906422181    0.003865328326    -0.011274472972    0.097697628447    -0.019770903937    -0.566537599441    0.560397942857
            0.004152439443    -0.010942935545    -0.052190746684    0.101856010697    -0.566537599441    0.560397942857    -0.020259318915    0.083124404836
0.700     0.027211514492    -0.018444916527    0.225510976200    0.768413483658    0.049271379280    0.001979427691    0.000295287468    -0.001486863570
            0.225510976200    0.768413483658    0.013940616885    0.001925951663    0.000039942777    -0.001235909523    0.009416587861    -0.002266204970
            0.049271382253    0.001979428413    0.000039944034    -0.001235910983    0.028981117651    -0.023192938201    0.230104013313    0.769847682128
            0.000295288708    -0.001486865057    0.009416585345    -0.002266206451    0.230104013313    0.769847682128    0.008374187176    0.005634426807
0.725     0.067882201599    0.022917170791    0.771370291066    0.157116568479    0.125756824591    0.018588685187    -0.007744626605    -0.011490383864
            0.771370291066    0.157116568479    -0.071717272479    0.017950221503    -0.007824199907    -0.011252954522    -0.121000218038    -0.003436928512
            0.125756824818    0.018588683651    -0.007824201048    -0.011252956164    0.071416037160    0.019002298184    0.774868189997    0.153757294164
            -0.007744627164    -0.011490384693    -0.121000218038    -0.003436928512    0.774868192681    0.153757280640    -0.076881270055    0.019965271362
0.750     0.083433534357    -0.058200420187    0.507942549641    -0.587868750238    0.111291881724    -0.102911531095    -0.011580503345    0.012462297722
            0.507942549641    -0.587868750238    -0.038018321855    0.090977811575    -0.011080543968    0.012724703859    -0.098308476813    0.130255822953
            0.111291881724    -0.102911531095    -0.011080544625    0.012724704614    0.085867647686    -0.066803401050    0.506543423810    -0.592579296981
            -0.011580504707    0.012462299188    -0.098308476813    0.130255822953    0.506543423810    -0.592579296981    -0.045052278295    0.095838419617
0.775     -0.009298690951    -0.053013044956    -0.274041048546    -0.736956847431    -0.012861274182    -0.071978065968    0.004315809574    0.004700410326
            -0.274041048546    -0.736956847431    0.012625020498    0.051833035034    0.004475593611    0.004044850633    0.008124878793    0.092807287754
            -0.012861274006    -0.071978064984    0.004475592492    0.004044852319    -0.012605441010    -0.061892750177    -0.278731211219    -0.737961307966
