# GHz S RI R 45
0.000     0.064945711000    0.000000000000    -0.000021253276    0.000000000000    0.008202365000    0.000000000000    -0.000028395316    0.000000000000
            -0.000021253077    0.000000000000    0.064955474000    0.000000000000    -0.000021375517    0.000000000000    0.008125618300    0.000000000000
            0.008202454500    0.000000000000    -0.000021373642    0.000000000000    0.059193315000    -0.000000000000    -0.000021750002    0.000000000000
            -0.000028395187    0.000000000000    0.008125599700    0.000000000000    -0.000021750016    0.000000000000    0.059278752000    0.000000000000
0.025     0.180173502081    0.020876084060    -0.000055834686    0.000002462947    0.073394685698    0.026409205920    -0.000054888948    0.000010723962
            -0.000055834677    0.000002462956    0.163564113739    0.034209700287    -0.000059467016    -0.000000450165    0.070945851464    0.035427668546
            0.073394705442    0.026409139236    -0.000059467021    -0.000000450165    0.172579689526    0.022214313754    -0.000061040889    -0.000000900778
            -0.000054888947    0.000010723961    0.070945838320    0.035427663530    -0.000061040889    -0.000000900778    0.155741011408    0.034477538502
0.050     0.150230313371    -0.136444746278    -0.000074205057    0.000058988541    0.065266732705    -0.055285480488    -0.000065807328    0.000060290552
            -0.000074205060    0.000058988543    0.167793195239    -0.087810060884    -0.000079996387    0.000066986276    0.078845434452    -0.038708161947
            0.065266688497    -0.055285501734    -0.000079996387    0.000066986276    0.143288483813    -0.130420249319    -0.000081962861    0.000070154941
            -0.000065807332    0.000060290556    0.078845427058    -0.038708149778    -0.000081962861    0.000070154941    0.159312257517    -0.083836734364
0.075     0.014441077965    -0.091079841418    0.000029580990    0.000188131475    -0.001827426281    -0.016974264276    0.000033063038    0.000181303154
            0.000029580996    0.000188131474    0.054181797376    -0.084072226064    0.000032581432    0.000193570872    0.009145709617    -0.018261911333
            -0.001827438889    -0.016974258896    0.000032581438    0.000193570871    0.012237239310    -0.083239782388    0.000035106325    0.000196759720
            0.000033063041    0.000181303154    0.009145713503    -0.018261907150    0.000035106322    0.000196759721    0.048876801675    -0.077615272217
0.100     0.091144983107    -0.034467936052    0.000240772189    0.000020787085    0.064083222943    0.007162946912    0.000239371484    0.000011896838
            0.000240772189    0.000020787082    0.083480439780    -0.003611408533    0.000252201976    0.000031148567    0.056065372358    0.031813888665
            0.064083193529    0.007162940001    0.000252201976    0.000031148564    0.091148944424    -0.028657361558    0.000257766679    0.000031776770
            0.000239371484    0.000011896838    0.056065368324    0.031813887669    0.000257766679    0.000031776771    0.080420693651    0.001438277385
0.125     0.075338380179    -0.154909491256    0.000141645907    -0.000183163850    0.043260171258    -0.070947597780    0.000122580300    -0.000185344648
            0.000141645907    -0.000183163850    0.142218095105    -0.068550239193    0.000156869042    -0.000202252893    0.080064281090    -0.030324691152
            0.043260145031    -0.070947557553    0.000156869045    -0.000202252904    0.076079585980    -0.147851874407    0.000160390919    -0.000210471932
            0.000122580305    -0.000185344656    0.080064276132    -0.030324684480    0.000160390919    -0.000210471932    0.138051937343    -0.062746880871
0.150     -0.058330303195    -0.118484096434    -0.000066873533    -0.000305395744    -0.022261561090    -0.027689213068    -0.000065870435    -0.000282582506
            -0.000066873533    -0.000305395744    0.065288391076    -0.131086753035    -0.000078211312    -0.000317864465    0.020215389684    -0.035419184033
            -0.022261534773    -0.027689180335    -0.000078211312    -0.000317864465    -0.052837521329    -0.111343261039    -0.000086149262    -0.000323377483
            -0.000065870437    -0.000282582516    0.020215393883    -0.035419177031    -0.000086149262    -0.000323377483    0.063183836054    -0.122051357722
0.175     -0.013933100483    -0.034262419495    -0.000406930362    -0.000055322850    0.031061861407    -0.013843786251    -0.000400374940    -0.000054285168
            -0.000406930362    -0.000055322850    0.013170274119    -0.064566164995    -0.000426653469    -0.000065361918    0.042937158069    0.004024373193
            0.031061875267    -0.013843784631    -0.000426653469    -0.000065361918    -0.006133351162    -0.032197641234    -0.000435410903    -0.000061947680
            -0.000400374940    -0.000054285168    0.042937159891    0.004024375178    -0.000435410913    -0.000061947681    0.015649766196    -0.056560777530
0.200     -0.003795343591    -0.102005507286    -0.000197738960    0.000360544976    0.013657928761    -0.074606422389    -0.000178649347    0.000367406134
            -0.000197738960    0.000360544976    0.074253028469    -0.041962012041    -0.000223924509    0.000387256663    0.075919448068    -0.019474716470
            0.013657933332    -0.074606403253    -0.000223924509    0.000387256663    0.001948355856    -0.102237816683    -0.000225411020    0.000400343940
            -0.000178649351    0.000367406143    0.075919447151    -0.019474711998    -0.000225411020    0.000400343940    0.076876354564    -0.037097616265
0.225     -0.102410833407    -0.069962154388    0.000175303280    0.000381069636    -0.048735131390    -0.021152074496    0.000178300363    0.000341261832
            0.000175303280    0.000381069636    0.067146220651    -0.122060848000    0.000197349380    0.000405791180    0.034234112217    -0.045982346702
            -0.048735096510    -0.021152069466    0.000197349392    0.000405791186    -0.095521266240    -0.070514562359    0.000211690588    0.000410534230
            0.000178300368    0.000341261841    0.034234116640    -0.045982340916    0.000211690577    0.000410534224    0.069059511427    -0.115749898033
0.250     -0.072478079168    0.022344298600    0.000526756899    0.000063532466    0.008144751864    0.006751331696    0.000497574183    0.000072403406
            0.000526756900    0.000063532456    -0.032423263250    -0.108626695302    0.000549151547    0.000066307647    0.018419520186    -0.008809966520
            0.008144762304    0.006751300298    0.000549151539    0.000066307626    -0.064874036495    0.017133398070    0.000558765180    0.000055498316
            0.000497574184    0.000072403397    0.018419525927    -0.008809966106    0.000558765179    0.000055498325    -0.026324864609    -0.101592664669
0.275     -0.034996716499    -0.008206594977    0.000277925413    -0.000534876493    -0.014910548007    -0.053050620029    0.000272430280    -0.000538151374
            0.000277925408    -0.000534876484    -0.009264345522    -0.020801201377    0.000309914536    -0.000562939152    0.057575583211    -0.007435200847
            -0.014910550443    -0.053050628694    0.000309914527    -0.000562939158    -0.032748522353    -0.016385400312    0.000305205428    -0.000578889644
            0.000272430280    -0.000538151374    0.057575584125    -0.007435201578    0.000305205438    -0.000578889639    -0.000862915803    -0.019151841854
0.300     -0.083495002214    0.002452155684    -0.000342879270    -0.000461127348    -0.073035647207    0.002657621936    -0.000359723148    -0.000419716360
            -0.000342879270    -0.000461127348    0.054501279767    -0.073417091969    -0.000375093063    -0.000506065245    0.049883693356    -0.053351187220
            -0.073035635679    0.002657608753    -0.000375093069    -0.000506065253    -0.083308792699    -0.003653336069    -0.000394590295    -0.000506928309
            -0.000359723148    -0.000419716360    0.049883696149    -0.053351184608    -0.000394590289    -0.000506928301    0.059769321467    -0.073287220238
0.325     -0.061519569212    0.073070373391    -0.000614887377    0.000008432082    -0.013629445966    0.037320343585    -0.000567109575    0.000007323489
            -0.000614887377    0.000008432082    -0.042078762503    -0.118171415911    -0.000661942958    0.000021268108    0.002568270887    -0.038271798484
            -0.013629457960    0.037320315784    -0.000661942958    0.000021268108    -0.061210184729    0.066044061025    -0.000650335712    0.000038654033
            -0.000567109575    0.000007323489    0.002568276231    -0.038271798125    -0.000650335702    0.000038654032    -0.035943159622    -0.116103831846
0.350     -0.004899968410    0.062917179512    -0.000339753666    0.000677185976    -0.024064613201    -0.012567688404    -0.000345148548    0.000662831264
            -0.000339753666    0.000677185976    -0.071966000285    -0.002868311399    -0.000364540386    0.000704311570    0.027899014324    0.003389340447
            -0.024064640169    -0.012567686451    -0.000364540381    0.000704311561    -0.008897215812    0.054492766192    -0.000351123565    0.000718740215
            -0.000345148427    0.000662831315    0.027899017693    0.003389337595    -0.000351123569    0.000718740224    -0.062487050796    -0.004137021447
0.375     -0.019433766414    0.046425773718    0.000532546818    0.000572115759    -0.073122261486    0.039542766177    0.000553905263    0.000544566269
            0.000532546811    0.000572115752    0.031200422625    -0.012496537221    0.000565112342    0.000635700602    0.060561675598    -0.046875103539
            -0.073122267643    0.039542769507    0.000565112336    0.000635700595    -0.026316598463    0.042423163505    0.000585847439    0.000628561637
            0.000553905256    0.000544566262    0.060561676389    -0.046875104151    0.000585847446    0.000628561644    0.037345282416    -0.018080280060
0.400     -0.015848279036    0.083152125296    0.000712332840    -0.000152743387    -0.013676532543    0.082931239395    0.000655336247    -0.000173320704
            0.000712332840    -0.000152743387    -0.030454310385    -0.097165856481    0.000777022185    -0.000190489215    -0.011702086829    -0.071617310867
            -0.013676540414    0.082931233030    0.000777022182    -0.000190489229    -0.021277198604    0.082041815606    0.000778124897    -0.000213195955
            0.000655336256    -0.000173320706    -0.011702084168    -0.071617310288    0.000778124897    -0.000213195955    -0.027250062528    -0.101481580836
0.425     0.036234500476    0.082014746266    0.000316796552    -0.000786715324    -0.005637846291    0.037305255586    0.000313448745    -0.000745886469
            0.000316796539    -0.000786715329    -0.096392160717    0.005836901667    0.000316008371    -0.000823228922    -0.014068202053    0.004665184507
            -0.005637869368    0.037305267268    0.000316008357    -0.000823228927    0.030196616198    0.080334143187    0.000296539393    -0.000829381037
            0.000313448732    -0.000745886475    -0.014068198121    0.004665180478    0.000296539393    -0.000829381037    -0.091003988897    0.001490739158
0.450     0.038337551751    0.043007812713    -0.000710852216    -0.000675735798    -0.043616817856    0.069911904140    -0.000717106284    -0.000658750629
            -0.000710852202    -0.000675735784    0.014955273414    0.035502692107    -0.000735289754    -0.000742704062    0.061521092520    -0.027359615815
            -0.043616813594    0.069911924479    -0.000735289684    -0.000742703991    0.030352770063    0.045209292858    -0.000752661644    -0.000726782321
            -0.000717106277    -0.000658750623    0.061521091565    -0.027359617962    -0.000752661644    -0.000726782321    0.019088908296    0.026763612805
0.475     0.021469572812    0.057503062800    -0.000836762164    0.000353146241    0.014816130096    0.114998742882    -0.000790497711    0.000385888516
            -0.000836762155    0.000353146237    -0.012641909223    -0.063165589106    -0.000933179369    0.000401417766    -0.016563584136    -0.095797960866
            0.014816137395    0.114998752025    -0.000933179369    0.000401417766    0.017406204151    0.063719727880    -0.000925969263    0.000423079834
            -0.000790497711    0.000385888516    -0.016563584307    -0.095797961851    -0.000925969354    0.000423079875    -0.013442513514    -0.071847536533
0.500     0.060719795578    0.067580350985    -0.000206293622    0.000881233526    0.051718685356    0.067288602508    -0.000173661408    0.000830580102
            -0.000206293622    0.000881233526    -0.092930090284    0.012854103054    -0.000167369819    0.000938759417    -0.067444834647    0.004881504221
            0.051718681922    0.067288610193    -0.000167369819    0.000938759417    0.060047351607    0.071591930282    -0.000143716523    0.000942938378
            -0.000173661408    0.000830580102    -0.067444831655    0.004881504005    -0.000143716523    0.000942938378    -0.094324921239    0.006945360371
0.525     0.067919636895    0.020313932878    0.000823600916    0.000720048645    0.024593747367    0.075952278633    0.000810932500    0.000689818665
            0.000823600916    0.000720048645    0.006373004674    0.060647878022    0.000849732224    0.000760647301    0.030649128259    0.004309186898
            0.024593751773    0.075952287718    0.000849732237    0.000760647286    0.066517894312    0.024817633258    0.000862336104    0.000738249668
            0.000810932512    0.000689818651    0.030649128657    0.004309184063    0.000862336104    0.000738249668    0.005295319490    0.053376886786
0.550     0.033520430568    0.028835946256    0.000973771087    -0.000561995572    0.055839016749    0.113911441397    0.000937052030    -0.000583120167
            0.000973771087    -0.000561995572    0.000971422425    -0.038394580972    0.001089911137    -0.000603840558    -0.013277977833    -0.102647616595
            0.055839035067    0.113911443555    0.001089911137    -0.000603840558    0.035606815230    0.035531692123    0.001073766143    -0.000621087287
            0.000937052030    -0.000583120167    -0.013277979624    -0.102647616364    0.001073766143    -0.000621087287    -0.003335652927    -0.046603601815
0.575     0.067764789984    0.048003923757    0.000012750687    -0.001001003095    0.111612525282    0.060438716441    -0.000037838420    -0.000957370913
            0.000012750687    -0.001001003095    -0.081232832332    0.017363462701    -0.000052183431    -0.001094827280    -0.112571213597    -0.004054338790
            0.111612527392    0.060438712545    -0.000052183431    -0.001094827280    0.073980529286    0.050671530427    -0.000072724553    -0.001092069493
            -0.000037838420    -0.000957370903    -0.112571213597    -0.004054338790    -0.000072724553    -0.001092069493    -0.088241591826    0.012160404442
0.600     0.076313242409    -0.004791307743    -0.000904107474    -0.000673930890    0.070847514979    0.018595389789    -0.000870327948    -0.000612704844
            -0.000904107474    -0.000673930890    0.001890171874    0.071964455263    -0.000933540810    -0.000671339060    0.001197471188    0.058186936490
            0.070847521107    0.018595390075    -0.000933540810    -0.000671339060    0.080555425007    -0.005388886939    -0.000943955911    -0.000646350024
            -0.000870327948    -0.000612704844    0.001197471126    0.058186933491    -0.000943955911    -0.000646350024    -0.004375444077    0.069165254306
0.625     0.029458567771    0.007860406597    -0.001105299600    0.000691308827    0.076309297529    0.062863145843    -0.001052279324    0.000689567949
            -0.001105299600    0.000691308827    0.009751647373    -0.022265141953    -0.001208189039    0.000719365504    -0.004088358921    -0.071127490870
            0.076309306306    0.062863135188    -0.001208189039    0.000719365504    0.034053551150    0.008064384984    -0.001183660089    0.000734055373
            -0.001052279324    0.000689567949    -0.004088361519    -0.071127492724    -0.001183660089    0.000734055373    0.004093174349    -0.025174575734
0.650     0.072372743547    0.030797506038    0.000202448836    0.001172614795    0.144407204656    0.019757658643    0.000246162482    0.001135791963
            0.000202448836    0.001172614795    -0.076613857952    0.018265632037    0.000270760763    0.001299261418    -0.138324435470    -0.012076179790
            0.144407196058    0.019757647710    0.000270760763    0.001299261418    0.079476909578    0.027473615239    0.000285855987    0.001286984610
            0.000246162482    0.001135791963    -0.138324435470    -0.012076179790    0.000285855987    0.001286984610    -0.085089790018    0.016043508303
0.675     0.075726632941    -0.035209515694    0.001020737385    0.000512910314    0.089015153968    -0.059933495730    0.000992219020    0.000429276361
            0.001020737385    0.000512910314    -0.011997212518    0.081273281459    0.001084736428    0.000469152945    -0.052190746684    0.101856010697
            0.089015151876    -0.059933498837    0.001084736428    0.000469152945    0.078971366501    -0.042616700542    0.001090733406    0.000448238240
            0.000992219020    0.000429276361    -0.052190746684    0.101856010697    0.001090733406    0.000448238240    -0.020259318915    0.083124404836
0.700     0.011813613705    -0.014846686933    0.001159866348    -0.000742740106    0.037495310180    -0.005309446023    0.001070722052    -0.000726527890
            0.001159866348    -0.000742740106    0.013940616885    0.001925951663    0.001218542025    -0.000766981848    0.009416587861    -0.002266204970
            0.037495308393    -0.005309451510    0.001218542025    -0.000766981848    0.012074519679    -0.020668790904    0.001189189773    -0.000783139880
            0.001070722052    -0.000726527890    0.009416585345    -0.002266206451    0.001189189773    -0.000783139880    0.008374187176    0.005634426807
0.725     0.068261119270    0.014640895727    -0.000335453763    -0.001405749590    0.114537051857    -0.018830263901    -0.000358077345    -0.001346674840
            -0.000335453763    -0.001405749590    -0.071717272479    0.017950221503    -0.000387433064    -0.001534207603    -0.121000218038    -0.003436928512
            0.114537041036    -0.018830268076    -0.000387433064    -0.001534207603    0.069128170815    0.008144874805    -0.000401093233    -0.001509362274
            -0.000358077345    -0.001346674840    -0.121000218038    -0.003436928512    -0.000401093233    -0.001509362274    -0.076881270055    0.019965271362
0.750     0.059132500107    -0.073869560367    -0.001261631738    -0.000304663592    0.053452928582    -0.126639055788    -0.001234195514    -0.000223157772
            -0.001261631738    -0.000304663592    -0.038018321855    0.090977811575    -0.001368673497    -0.000242306598    -0.098308476813    0.130255822953
            0.053452918062    -0.126639049374    -0.001368673497    -0.000242306598    0.056299682205    -0.082636207850    -0.001363548514    -0.000228107106
            -0.001234195514    -0.000223157772    -0.098308476813    0.130255822953    -0.001363548514    -0.000228107106    -0.045052278295    0.095838419617
0.775     -0.035984719495    -0.032768646261    -0.001025852285    0.000868717040    -0.051716044461    -0.048615087586    -0.000911717332    0.000858504544
            -0.001025852285    0.000868717040    0.012625020498    0.051833035034    -0.001027369176    0.000917687142    0.008124878793    0.092807287754
            -0.051716052946    -0.048615078560    -0.001027369176    0.000917687142    -0.041006086483    -0.036537298593    -0.001002107469    0.000931311228
