# GHz S RI R 45
0.000     0.060486807000    0.000000000000    -0.000176354030    0.000000000000    0.007967059300    0.000000000000    -0.000040672761    0.000000000000
            -0.000176354240    0.000000000000    0.064955474000    0.000000000000    -0.000369493690    0.000000000000    0.008125618300    0.000000000000
            0.007967332500    0.000000000000    -0.000369491990    0.000000000000    0.063060332000    -0.000000000000    -0.000436886910    0.000000000000
            -0.000040672619    0.000000000000    0.008125599700    0.000000000000    -0.000436886740    0.000000000000    0.059278752000    0.000000000000
0.025     0.168058285402    0.024199878028    -0.000362459446    0.000045007632    0.072506509895    0.028464293138    -0.000299673618    -0.000043442009
            -0.000362459271    0.000045007417    0.163564113739    0.034209700287    -0.000540339700    0.000225552442    0.070945851464    0.035427668546
            0.072506581026    0.028464259721    -0.000540339694    0.000225551885    0.171269730363    0.023855210291    -0.000555536560    0.000296506674
            -0.000299674280    -0.000043444348    0.070945838320    0.035427663530    -0.000555536996    0.000296506408    0.155741011408    0.034477538502
0.050     0.148597521415    -0.121122061112    -0.000468142742    0.000339372303    0.069967952466    -0.053306180785    -0.000398135242    0.000281409910
            -0.000468143009    0.000339372122    0.167793195239    -0.087810060884    -0.000398925324    0.000558066955    0.078845434452    -0.038708161947
            0.069967939370    -0.053306255727    -0.000398925757    0.000558067149    0.151593163059    -0.123452269347    -0.000292660334    0.000656278116
            -0.000398136851    0.000281410943    0.078845427058    -0.038708149778    -0.000292660484    0.000656278761    0.159312257517    -0.083836734364
0.075     0.020057681085    -0.087822566309    0.000060036569    0.001289982286    -0.001092371564    -0.022363566885    0.000047173575    0.000986142146
            0.000060036420    0.001289982493    0.054181797376    -0.084072226064    0.000251147910    0.001467798957    0.009145709617    -0.018261911333
            -0.001092395813    -0.022363574711    0.000251148063    0.001467799235    0.021336185791    -0.090341470165    0.000404362263    0.001237624511
            0.000047174308    0.000986143392    0.009145713503    -0.018261907150    0.000404362853    0.001237624634    0.048876801675    -0.077615272217
0.100     0.086543167134    -0.023681467061    0.001729960894    0.000246773565    0.059856363760    0.012043989860    0.001299593044    0.000226653094
            0.001729960970    0.000246773736    0.083480439780    -0.003611408533    0.002118610176    0.000067810328    0.056065372358    0.031813888665
            0.059856365023    0.012043968375    0.002118610479    0.000067810241    0.088085747029    -0.025776516835    0.001844856877    -0.000010366076
            0.001299594224    0.000226652730    0.056065368324    0.031813887669    0.001844857175    -0.000010366509    0.080420693651    0.001438277385
0.125     0.094405874765    -0.135439507226    0.000917041806    -0.001238739568    0.054828234129    -0.067256354570    0.000758084862    -0.000947797026
            0.000917042060    -0.001238739504    0.142218095105    -0.068550239193    0.000797668785    -0.001613281548    0.080064281090    -0.030324691152
            0.054828205777    -0.067256372522    0.000797668789    -0.001613281769    0.095332786289    -0.139317468945    0.000773728568    -0.001539895546
            0.000758084779    -0.000947798245    0.080064276132    -0.030324684480    0.000773728165    -0.001539896084    0.138051937343    -0.062746880871
0.150     -0.031791596794    -0.129078724075    -0.000184453293    -0.001954035875    -0.018664004743    -0.040724983027    -0.000170297422    -0.001509400414
            -0.000184453176    -0.001954036087    0.065288391076    -0.131086753035    -0.000362380771    -0.002028565430    0.020215389684    -0.035419184033
            -0.018664025233    -0.040724971437    -0.000362381143    -0.002028565466    -0.033445449155    -0.132622184785    -0.000588685847    -0.001899334268
            -0.000170298536    -0.001509400591    0.020215393883    -0.035419177031    -0.000588686812    -0.001899333865    0.063183836054    -0.122051357722
0.175     -0.011057715581    -0.041970927957    -0.002816547587    -0.000785002343    0.033377669513    -0.011413993072    -0.002091003420    -0.000599644431
            -0.002816547780    -0.000785002396    0.013170274119    -0.064566164995    -0.003178139835    -0.000824792471    0.042937158069    0.004024373193
            0.033377664583    -0.011413992037    -0.003178140076    -0.000824791941    -0.012446189300    -0.043898904321    -0.002830967496    -0.000460501022
            -0.002091003726    -0.000599643729    0.042937159891    0.004024375178    -0.002830967478    -0.000460500512    0.015649766196    -0.056560777530
0.200     0.019384654318    -0.097993349709    -0.001530543463    0.002537504273    0.031519316685    -0.070428404488    -0.001240726746    0.001853360091
            -0.001530543906    0.002537504006    0.074253028469    -0.041962012041    -0.001668819999    0.003070066657    0.075919448068    -0.019474716470
            0.031519297437    -0.070428404338    -0.001668820046    0.003070066745    0.018166752800    -0.100974262112    -0.001418211635    0.002699317902
            -0.001240726210    0.001853360690    0.075919447151    -0.019474711998    -0.001418211164    0.002699318149    0.076876354564    -0.037097616265
0.225     -0.074231593143    -0.102683598331    0.000962269207    0.002441112953    -0.043187638251    -0.043683192558    0.000708033891    0.001935899246
            0.000962269153    0.002441113189    0.067146220651    -0.122060848000    0.001331729931    0.002572103385    0.034234112217    -0.045982346702
            -0.043187651390    -0.043683175349    0.001331730110    0.002572103292    -0.078219168748    -0.105117765628    0.001313979033    0.002450790810
            0.000708034668    0.001935898855    0.034234116640    -0.045982340916    0.001313979499    0.002450790446    0.069059511427    -0.115749898033
0.250     -0.082921851298    -0.012621101686    0.003279381435    0.001052307626    -0.005728837994    0.006367485653    0.002499415114    0.000804777457
            0.003279381721    0.001052307717    -0.032423263250    -0.108626695302    0.003467817551    0.001134712629    0.018419520186    -0.008809966520
            -0.005728838246    0.006367490403    0.003467817591    0.001134712508    -0.086726860942    -0.011874581607    0.003315290252    0.000694316444
            0.002499414958    0.000804776636    0.018419525927    -0.008809966106    0.003315290055    0.000694315920    -0.026324864609    -0.101592664669
0.275     -0.036182155615    -0.019273506192    0.002557378425    -0.003443399718    0.002322347239    -0.049318994593    0.002006648287    -0.002530791722
            0.002557378485    -0.003443399798    -0.009264345522    -0.020801201377    0.003105664436    -0.003835529856    0.057575583211    -0.007435200847
            0.002322336628    -0.049318989086    0.003105664239    -0.003835529887    -0.038239878373    -0.019079110038    0.002444695881    -0.003513703507
            0.002006647571    -0.002530791908    0.057575584125    -0.007435201578    0.002444695403    -0.003513703474    -0.000862915803    -0.019151841854
0.300     -0.075331868810    -0.033969728995    -0.002130573397    -0.003358444803    -0.066223292795    -0.029980074670    -0.001516102735    -0.002678968246
            -0.002130573504    -0.003358444972    0.054501279767    -0.073417091969    -0.002652598307    -0.004020712421    0.049883693356    -0.053351187220
            -0.066223293473    -0.029980061050    -0.002652598307    -0.004020712421    -0.079174493219    -0.034072256914    -0.002362086243    -0.003509576616
            -0.001516103104    -0.002678967808    0.049883696149    -0.053351184608    -0.002362086131    -0.003509576450    0.059769321467    -0.073287220238
0.325     -0.094427353820    0.032654574152    -0.003848322786    -0.000514783705    -0.036912855115    0.029866125288    -0.003006998016    -0.000466412369
            -0.003848322984    -0.000514783732    -0.042078762503    -0.118171415911    -0.004243399638    -0.000343619344    0.002568270887    -0.038271798484
            -0.036912849903    0.029866131731    -0.004243399538    -0.000343619336    -0.098220773397    0.036152689560    -0.004006087182    -0.000194130564
            -0.003006997702    -0.000466411783    0.002568276231    -0.038271798125    -0.004006086882    -0.000194130550    -0.035943159622    -0.116103831846
0.350     -0.040403524182    0.062722627089    -0.003250706215    0.003791083600    -0.012604740623    -0.004891744707    -0.002554344303    0.002878072204
            -0.003250706281    0.003791083676    -0.071966000285    -0.002868311399    -0.003841048957    0.004025370914    0.027899014324    0.003389340447
            -0.012604740466    -0.004891739583    -0.003841048888    0.004025370841    -0.040533030931    0.066606082972    -0.003133000702    0.003961059612
            -0.002554343469    0.002878072276    0.027899017693    0.003389337595    -0.003133000392    0.003961059220    -0.062487050796    -0.004137021447
0.375     -0.031393641410    0.037258968850    0.002914162016    0.004803328268    -0.066178149184    0.003512309264    0.002141590245    0.003778149688
            0.002914162068    0.004803328354    0.031200422625    -0.012496537221    0.003283867241    0.006001057132    0.060561675598    -0.046875103539
            -0.066178143578    0.003512320549    0.003283867298    0.006001056987    -0.031883823753    0.039181689464    0.003179415339    0.005026875498
            0.002141590262    0.003778149103    0.060561676389    -0.046875104151    0.003179415442    0.005026875078    0.037345282416    -0.018080280060
0.400     -0.054687783014    0.060769882358    0.004939877786    -0.000556470497    -0.050469417424    0.066514936156    0.003883354806    -0.000319332311
            0.004939877887    -0.000556470491    -0.030454310385    -0.097165856481    0.006060919798    -0.000951102761    -0.011702086829    -0.071617310867
            -0.050469403397    0.066514941778    0.006060919783    -0.000951102856    -0.056085181444    0.064841574546    0.005323197906    -0.000916105847
            0.003883354382    -0.000319332590    -0.011702084168    -0.071617310288    0.005323197548    -0.000916106158    -0.027250062528    -0.101481580836
0.425     -0.012152767550    0.104450854514    0.002902472411    -0.004365876035    -0.007122492280    0.051173451378    0.002330830965    -0.003385545581
            0.002902472390    -0.004365876168    -0.096392160717    0.005836901667    0.003096048770    -0.004927925455    -0.014068202053    0.004665184507
            -0.007122487952    0.051173452990    0.003096048631    -0.004927925425    -0.009432966460    0.109510815650    0.002712178681    -0.004694992527
            0.002330830561    -0.003385545373    -0.014068198121    0.004665180478    0.002712178317    -0.004694992276    -0.091003988897    0.001490739158
0.450     0.035401331024    0.070950530720    -0.003098472100    -0.005896530088    -0.033734676868    0.040294244730    -0.002397751712    -0.004638280721
            -0.003098472146    -0.005896530176    0.014955273414    0.035502692107    -0.003374769114    -0.007087574431    0.061521092520    -0.027359615815
            -0.033734667910    0.040294248318    -0.003374769071    -0.007087574341    0.039602640745    0.072105499279    -0.003599036069    -0.006107422834
            -0.002397751528    -0.004638280365    0.061521091565    -0.027359617962    -0.003599035866    -0.006107422490    0.019088908296    0.026763612805
0.475     0.007051760067    0.053833216823    -0.006715889582    0.001252311412    -0.031133922526    0.091744932900    -0.005214238084    0.000952111228
            -0.006715889680    0.001252311430    -0.012641909223    -0.063165589106    -0.008349631933    0.001574762012    -0.016563584136    -0.095797960866
            -0.031133920597    0.091744927218    -0.008349631835    0.001574761994    0.009068781000    0.054801766772    -0.007129333178    0.001886332293
            -0.005214237690    0.000952111156    -0.016563584307    -0.095797961851    -0.007129332888    0.001886332216    -0.013442513514    -0.071847536533
0.500     0.023433376928    0.101082728248    -0.001887111709    0.005398236302    0.026188848579    0.098944327293    -0.001539292303    0.004154828273
            -0.001887111742    0.005398236397    -0.092930090284    0.012854103054    -0.001808229507    0.006641131744    -0.067444834647    0.004881504221
            0.026188852928    0.098944315797    -0.001808229481    0.006641131648    0.027491753272    0.103844648733    -0.001461876424    0.005840263395
            -0.001539292199    0.004154827991    -0.067444831655    0.004881504005    -0.001461876351    0.005840263104    -0.094324921239    0.006945360371
0.525     0.088944958811    0.068813591858    0.003288377104    0.005707794277    0.029627830015    0.065292768705    0.002561970643    0.004539218074
            0.003288377253    0.005707794306    0.006373004674    0.060647878022    0.003873112699    0.006446248574    0.030649128259    0.004309186898
            0.029627836026    0.065292763781    0.003873112760    0.006446248421    0.095599447793    0.067377014177    0.003915733082    0.005776147124
            0.002561970525    0.004539217681    0.030649128657    0.004309184063    0.003915733014    0.005776146807    0.005295319490    0.053376886786
0.550     0.053475502454    0.016688490663    0.008250323554    -0.001151283156    0.011623119317    0.084742489476    0.006396244594    -0.001057357726
            0.008250323556    -0.001151283142    0.000971422425    -0.038394580972    0.009805193439    -0.001433861793    -0.013277977833    -0.102647616595
            0.011623124146    0.084742480739    0.009805193340    -0.001433861779    0.056308085267    0.012181235335    0.008571845923    -0.002196053297
            0.006396244185    -0.001057357750    -0.013277979624    -0.102647616364    0.008571845632    -0.002196053222    -0.003335652927    -0.046603601815
0.575     0.043213021882    0.066510726308    0.001307568821    -0.007420749564    0.066838765417    0.109179056339    0.000910744560    -0.005570631672
            0.001307568708    -0.007420749685    -0.081232832332    0.017363462701    0.001221535746    -0.008978603344    -0.112571213597    -0.004054338790
            0.066838764007    0.109179045477    0.001221535746    -0.008978603344    0.044883072607    0.064706000051    0.000362428998    -0.007640437105
            0.000910744414    -0.005570631392    -0.112571213597    -0.004054338790    0.000362428855    -0.007640436912    -0.088241591826    0.012160404442
0.600     0.115781261213    0.042638504101    -0.004170283710    -0.004767661151    0.104965699799    0.049887756012    -0.003099271146    -0.003780558723
            -0.004170283776    -0.004767661227    0.001890171874    0.071964455263    -0.005129098697    -0.005251290338    0.001197471188    0.058186936490
            0.104965701541    0.049887752348    -0.005129098697    -0.005251290338    0.120508880520    0.039121634037    -0.004540899597    -0.004495362872
            -0.003099270955    -0.003780558491    0.001197471126    0.058186933491    -0.004540899384    -0.004495362661    -0.004375444077    0.069165254306
0.625     0.075318782973    -0.032239358951    -0.008354619286    0.000657723803    0.068995910684    0.035609337458    -0.006568767830    0.000685407540
            -0.008354619286    0.000657723803    0.009751647373    -0.022265141953    -0.009564959220    0.001040477243    -0.004088358921    -0.071127490870
            0.068995908106    0.035609331552    -0.009564959220    0.001040477243    0.076154373122    -0.040588999580    -0.008587534182    0.001718871966
            -0.006568767532    0.000685407509    -0.004088361519    -0.071127492724    -0.008587533888    0.001718871907    0.004093174349    -0.025174575734
0.650     0.037268641087    0.024527565989    -0.001868657744    0.009461832947    0.086615861908    0.078002275672    -0.001054157436    0.007058970461
            -0.001868657744    0.009461832947    -0.076613857952    0.018265632037    -0.001855802061    0.010903754101    -0.138324435470    -0.012076179790
            0.086615854477    0.078002268981    -0.001855802061    0.010903754101    0.033259707179    0.019827028253    -0.000364426225    0.009419449648
            -0.001054157392    0.007058970164    -0.138324435470    -0.012076179790    -0.000364426053    0.009419449455    -0.085089790018    0.016043508303
0.675     0.114224106300    0.010293983512    0.006544116593    0.004447556871    0.149069278718    0.008846410638    0.004604845985    0.003310313960
            0.006544116675    0.004447556927    -0.011997212518    0.081273281459    0.007555430271    0.004947671018    -0.052190746684    0.101856010697
            0.149069268798    0.008846409005    0.007555430271    0.004947671018    0.113371069034    0.007995488175    0.006268842407    0.003553649210
            0.004604845823    0.003310313843    -0.052190746684    0.101856010697    0.006268842233    0.003553649111    -0.020259318915    0.083124404836
0.700     0.068091468882    -0.080246796203    0.007379423583    -0.001326188575    0.075482675094    -0.058664787686    0.005868788936    -0.000890367076
            0.007379423560    -0.001326188704    0.013940616885    0.001925951663    0.008537447762    -0.001675794771    0.009416587861    -0.002266204970
            0.075482669098    -0.058664787253    0.008537447762    -0.001675794771    0.066296626965    -0.087141385249    0.007465045126    -0.001656451909
            0.005868788746    -0.000890366994    0.009416585345    -0.002266206451    0.007465044862    -0.001656451714    0.008374187176    0.005634426807
0.725     0.003113718890    -0.013395378903    0.003207684374    -0.009959354908    0.053817678334    0.007529646279    0.002006234213    -0.007626031013
            0.003207684374    -0.009959354908    -0.071717272479    0.017950221503    0.003388659924    -0.011360830305    -0.121000218038    -0.003436928512
            0.053817669368    0.007529645407    0.003388659924    -0.011360830305    -0.005203430481    -0.017591062175    0.001753756517    -0.010045613156
            0.002006234270    -0.007626030688    -0.121000218038    -0.003436928512    0.001753756517    -0.010045613156    -0.076881270055    0.019965271362
0.750     0.090498203689    -0.012444657222    -0.009314605165    -0.005733012351    0.141300597939    -0.033509300890    -0.006506464741    -0.003912056909
            -0.009314605165    -0.005733012351    -0.038018321855    0.090977811575    -0.010326524104    -0.006460148742    -0.098308476813    0.130255822953
            0.141300589379    -0.033509293650    -0.010326524104    -0.006460148742    0.084719343268    -0.009644518802    -0.008586176420    -0.004223988188
            -0.006506464569    -0.003912056806    -0.098308476813    0.130255822953    -0.008586176240    -0.004223988100    -0.045052278295    0.095838419617
0.775     0.037089035712    -0.113568259450    -0.007268870735    0.004466821563    0.047410771341    -0.134438734350    -0.005574339788    0.002767160256
            -0.007268870735    0.004466821563    0.012625020498    0.051833035034    -0.008572275195    0.004729364915    0.008124878793    0.092807287754
            0.047410768015    -0.134438724919    -0.008572275195    0.004729364915    0.034835036169    -0.114062546539    -0.006857091346    0.003684051720
