# GHz S RI R 45
0.000     0.022429594562    0.001894973095    -0.000002125158    -0.000004675876    0.000831152834    0.001620271317    -0.000003053143    -0.000006788354
            -0.000002125159    -0.000004675876    0.022677174418    0.001364087961    -0.000001448018    -0.000003080360    0.000862650541    0.001393471333
            0.000831152721    0.001620271375    -0.000001448018    -0.000003080360    0.022375003312    0.001882704488    -0.000002175082    -0.000004749450
            -0.000003053138    -0.000006788354    0.000862650269    0.001393471383    -0.000002175080    -0.000004749450    0.022627603900    0.001373971428
0.025     0.028207388857    0.009896861909    -0.000005264066    -0.000009989146    0.003167120951    0.010258088436    -0.000007535818    -0.000014525021
            -0.000005263979    -0.000009989176    0.027000562588    0.009160111437    -0.000003554218    -0.000006569628    0.002286456473    0.010158739018
            0.003164852715    0.010261040523    -0.000003554279    -0.000006569609    0.028131730949    0.009856823859    -0.000005346172    -0.000010155937
            -0.000007535816    -0.000014525018    0.002288816550    0.010157136340    -0.000005346168    -0.000010155940    0.026941082743    0.009216018955
0.050     0.036433041732    0.013700996982    -0.000011883800    -0.000016533527    0.009690991025    0.018496890933    -0.000016978577    -0.000024176894
            -0.000011883800    -0.000016533527    0.031941673791    0.013731694426    -0.000007994342    -0.000010818669    0.006471168576    0.019263218064
            0.009690964008    0.018496926537    -0.000007994342    -0.000010818669    0.036323517566    0.013630547386    -0.000012032655    -0.000016862336
            -0.000016978577    -0.000024176894    0.006471299619    0.019263278479    -0.000012032655    -0.000016862336    0.031891929319    0.013852700564
0.075     0.045918640873    0.013393224146    -0.000020282793    -0.000020288529    0.019144705518    0.023187109150    -0.000029042953    -0.000029967773
            -0.000020282793    -0.000020288529    0.037022293988    0.016250114144    -0.000013610150    -0.000013160450    0.012704723662    0.026413449554
            0.019144698347    0.023187111181    -0.000013610150    -0.000013160450    0.045778355453    0.013327582119    -0.000020571866    -0.000020801875
            -0.000029042953    -0.000029967773    0.012704722602    0.026413455612    -0.000020571866    -0.000020801875    0.037002886814    0.016437807814
0.100     0.055340293224    0.008484913870    -0.000029800087    -0.000021166964    0.029889954889    0.023452950029    -0.000042902561    -0.000031725742
            -0.000029800087    -0.000021166964    0.041800921931    0.016728063353    -0.000019930808    -0.000013539858    0.020082130868    0.031139565667
            0.029889954889    0.023452950029    -0.000019930808    -0.000013539858    0.055182935378    0.008446752187    -0.000030354481    -0.000021846743
            -0.000042902561    -0.000031725742    0.020082109138    0.031139572541    -0.000030354481    -0.000021846743    0.041828706404    0.016973814255
0.125     0.062811334720    -0.000903742415    -0.000039665690    -0.000019090916    0.040101074463    0.019041140534    -0.000057521638    -0.000029224100
            -0.000039665690    -0.000019090916    0.045452104716    0.015414674417    -0.000026419957    -0.000011918217    0.027643095085    0.033324838140
            0.040101074463    0.019041140534    -0.000026419957    -0.000011918217    0.062663144249    -0.000898184562    -0.000040625503    -0.000019839122
            -0.000057521638    -0.000029224100    0.027643095085    0.033324838140    -0.000040625503    -0.000019839122    0.045542774061    0.015706552714
0.150     0.066647924132    -0.014020968393    -0.000049214011    -0.000014223674    0.047987317287    0.010380467077    -0.000071929973    -0.000022545692
            -0.000049214011    -0.000014223674    0.047425521244    0.012908570815    -0.000032620635    -0.000008426370    0.034472283867    0.033206640959
            0.047987317287    0.010380467077    -0.000032620635    -0.000008426370    0.066546613266    -0.013965191785    -0.000050680178    -0.000014845821
            -0.000071929974    -0.000022545693    0.034472283867    0.033206640959    -0.000050680178    -0.000014845821    0.047589758312    0.013226546720
0.175     0.065368405401    -0.029393732456    -0.000057924720    -0.000006749947    0.051988589477    -0.001493281220    -0.000085282098    -0.000011838511
            -0.000057924720    -0.000006749947    0.047266816352    0.010020451818    -0.000038180115    -0.000003203967    0.039814671480    0.031331248271
            0.051988589477    -0.001493281220    -0.000038180115    -0.000003203967    0.065356407181    -0.029300386253    -0.000059899566    -0.000006982354
            -0.000085282100    -0.000011838512    0.039814671480    0.031331248271    -0.000059899566    -0.000006982354    0.047510366932    0.010340863019
0.200     0.058133839330    -0.045064111600    -0.000065384327    0.000003145072    0.050985787959    -0.015025780292    -0.000096830661    0.000002677816
            -0.000065384327    0.000003145072    0.044890802636    0.007714610476    -0.000042817559    0.000003607721    0.043173886213    0.028488252944
            0.050985787959    -0.015025780292    -0.000042817559    0.000003607721    0.058251184940    -0.044966105717    -0.000067731948    0.000003581901
            -0.000096830664    0.000002677816    0.043173886213    0.028488252944    -0.000067731948    0.000003581901    0.045211388101    0.008011543614
0.225     0.044823224809    -0.058830404345    -0.000071173604    0.000015348598    0.044449395116    -0.028311988236    -0.000105812230    0.000020798604
            -0.000071173604    0.000015348598    0.040603261908    0.006940935275    -0.000046246185    0.000011916789    0.044384182708    0.025597245041
            0.044449395116    -0.028311988236    -0.000046246185    0.000011916789    0.045097949854    -0.058780394672    -0.000073610181    0.000016672126
            -0.000105812230    0.000020798604    0.044384182708    0.025597245041    -0.000073610181    0.000016672126    0.040989048923    0.007188900623
0.250     0.026116746247    -0.068495132382    -0.000074788094    0.000029760845    0.032550866504    -0.039313103895    -0.000111385786    0.000042246657
            -0.000074788094    0.000029760845    0.035070583768    0.008515881598    -0.000048119502    0.000021633858    0.043646387069    0.023590509183
            0.032550866504    -0.039313103895    -0.000048119502    0.000021633858    0.026557263764    -0.068560411466    -0.000076915304    0.000032050367
            -0.000111385786    0.000042246657    0.043646387069    0.023590509183    -0.000076915304    0.000032050367    0.035499486021    0.008693457385
0.275     0.003461820384    -0.072133197841    -0.000075545928    0.000046200763    0.016190073463    -0.046097061457    -0.000112552270    0.000066579985
            -0.000075545928    0.000046200763    0.029261954235    0.012973913739    -0.000047972593    0.000032601492    0.041514373107    0.023266530087
            0.016190073463    -0.046097061457    -0.000047972593    0.000032601492    0.004049885871    -0.072388166445    -0.000076928399    0.000049335295
            -0.000112552270    0.000066579985    0.041514373107    0.023266530087    -0.000076928399    0.000049335295    0.029703347695    0.013068109515
0.300     -0.021023075924    -0.068375767533    -0.000072630978    0.000064243593    -0.003055932021    -0.047108400577    -0.000108237023    0.000093015306
            -0.000072630978    0.000064243593    0.024336709163    0.020475697269    -0.000045259851    0.000044483394    0.038834143745    0.025167320526
            -0.003055932021    -0.047108400577    -0.000045259851    0.000044483394    -0.020336043546    -0.068891119396    -0.000072897312    0.000067892855
            -0.000108237023    0.000093015306    0.038834143745    0.025167320526    -0.000072897312    0.000067892855    0.024754349551    0.020485563163
0.325     -0.044768365032    -0.056630109225    -0.000065188932    0.000083078846    -0.023085324898    -0.041400068967    -0.000097409380    0.000120303875
            -0.000065188932    0.000083078846    0.021497265475    0.030727339660    -0.000039430763    0.000056669145    0.036627045017    0.029466946795
            -0.023085324898    -0.041400068967    -0.000039430763    0.000056669145    -0.044059191683    -0.057460513238    -0.000064139405    0.000086742612
            -0.000097409380    0.000120303875    0.036627045017    0.029466946795    -0.000064139405    0.000086742612    0.021854038489    0.030665997933
0.350     -0.065052693424    -0.037244434869    -0.000052562646    0.000101454065    -0.041520993853    -0.028820307189    -0.000079358940    0.000146693256
            -0.000052562646    0.000101454065    0.021812918312    0.042988332283    -0.000030108858    0.000068243628    0.035940355032    0.035925752469
            -0.041520993853    -0.028820307189    -0.000030108858    0.000068243628    -0.064420886988    -0.038417263159    -0.000050251906    0.000104555999
            -0.000079358940    0.000146693256    0.035940355032    0.035925752469    -0.000050251906    0.000104555999    0.022077096973    0.042884126332
0.375     -0.079356293581    -0.011521557872    -0.000034529893    0.000117728032    -0.056015661701    -0.010077688016    -0.000053943249    0.000170029251
            -0.000034529893    0.000117728032    0.026047075140    0.056124849015    -0.000017252023    0.000078049539    0.037673855654    0.043894064258
            -0.056015661701    -0.010077688016    -0.000017252023    0.000078049539    -0.078912588826    -0.013028209882    -0.000031285241    0.000119749901
            -0.000053943249    0.000170029251    0.037673855654    0.043894064258    -0.000031285241    0.000119749901    0.026197717262    0.056018385500
0.400     -0.085718111847    0.018391581520    -0.000011518501    0.000130103038    -0.064586559917    0.013312880366    -0.000021825174    0.000188026771
            -0.000011518501    0.000130103038    0.034519657999    0.068756609108    -0.000001297137    0.000084871098    0.042431555359    0.052406040623
            -0.064586559917    0.013312880366    -0.000001297137    0.000084871098    -0.085571068419    0.016599436348    -0.000007894241    0.000130721381
            -0.000021825174    0.000188026771    0.042431555359    0.052406040623    -0.000007894241    0.000130721381    0.034551867640    0.068696931902
0.425     -0.083009324066    0.049764804189    0.000015333105    0.000136924165    -0.065880366971    0.039223163538    0.000015494769    0.000198622825
            0.000015333105    0.000136924165    0.047030310353    0.079432894483    0.000016827792    0.000087657675    0.050411782127    0.060311282162
            -0.065880366971    0.039223163538    0.000016827792    0.000087657675    -0.083249968648    0.047773228144    0.000018670803    0.000136105488
            0.000015494769    0.000198622825    0.050411782127    0.060311282162    0.000018670803    0.000136105488    0.046958058061    0.079470959675
0.450     -0.071095388053    0.079630582364    0.000044276066    0.000137021851    -0.059356076568    0.065193475957    0.000055813264    0.000200362988
            0.000044276066    0.000137021851    0.062871679575    0.086842739146    0.000035806482    0.000085766010    0.061377989035    0.066455153471
            -0.059356076568    0.065193475957    0.000035806482    0.000085766010    -0.071784166285    0.077555572425    0.000046699844    0.000135056117
            0.000055813264    0.000200362988    0.061377989035    0.066455153471    0.000046699844    0.000135056117    0.062728143313    0.087023876081
0.475     -0.050830638841    0.105152395094    0.000073214929    0.000129923303    -0.045315327893    0.088743997083    0.000096539215    0.000192624147
            0.000073214929    0.000129923303    0.080913035145    0.089985655045    0.000054157844    0.000079083671    0.074689571771    0.069833198152
            -0.045315327893    0.088743997083    0.000054157844    0.000079083671    -0.051988231859    0.103127849063    0.000074291596    0.000127378577
            0.000096539215    0.000192624147    0.074689571771    0.069833198152    0.000074291596    0.000127378577    0.080747124627    0.090343119918
0.500     -0.023927624194    0.123954582815    0.000100041184    0.000115950830    -0.024830209596    0.107667444724    0.000135063046    0.000175712337
            0.000100041184    0.000115950830    0.099752257684    0.088302626806    0.000070484271    0.000068057504    0.089404186593    0.069727423242
            -0.024830209596    0.107667444724    0.000070484271    0.000068057504    -0.025530784445    0.122117720293    0.000099650882    0.000113551715
            0.000135063046    0.000175712337    0.089404186593    0.069727423242    0.000099650882    0.000113551715    0.099624922613    0.088851451171
0.525     0.007279719216    0.134348858047    0.000122946319    0.000096102074    0.000432154362    0.120230523339    0.000169127005    0.000150725170
            0.000122946319    0.000096102074    0.117885983964    0.081722893041    0.000083689514    0.000053565384    0.104395451977    0.065771138549
            0.000432154362    0.120230523339    0.000083689514    0.000053565384    0.005297114377    0.132826367526    0.000121327780    0.000094576018
            0.000169127005    0.000150725170    0.104395451977    0.065771138549    0.000121327780    0.000094576018    0.117863249716    0.082457564915
0.550     0.040109604014    0.135461527794    0.000140650302    0.000071870749    0.028411505115    0.125308888069    0.000197065042    0.000119332264
            0.000140650302    0.000071870749    0.133883676605    0.070657951138    0.000093104483    0.000036748199    0.118492329548    0.057979347047
            0.028411505115    0.125308888069    0.000093104483    0.000036748199    0.037851067806    0.134355852196    0.000138376066    0.000071769776
            0.000197065042    0.000119332264    0.118492329548    0.057979347047    0.000138376066    0.000071769776    0.134028838428    0.071549894134
0.575     0.071798755791    0.127245463838    0.000152487550    0.000044966440    0.056857754318    0.122416215623    0.000217901126    0.000083466154
            0.000152487550    0.000044966440    0.146522202712    0.055930743265    0.000098508211    0.000018799848    0.130585260158    0.046720176014
            0.056857754318    0.122416215623    0.000098508211    0.000018799848    0.069396288026    0.126625542110    0.000150361240    0.000046527345
            0.000217901126    0.000083466154    0.130585260158    0.046720176014    0.000150361240    0.000046527345    0.146889344249    0.056930597554
0.600     0.099735590171    0.110429702924    0.000158415623    0.000017078274    0.083511086056    0.111704043583    0.000231344509    0.000045053517
            0.000158415623    0.000017078274    0.154896099652    0.038683413035    0.000100082529    0.000000806701    0.139730142971    0.032676335250
            0.083511086056    0.111704043583    0.000100082529    0.000000806701    0.097338831608    0.110323201525    0.000157307998    0.000020133223
            0.000231344509    0.000045053517    0.139730142971    0.032676335250    0.000157307998    0.000020133223    0.155522356854    0.039724287893
0.625     0.121637211988    0.086414556685    0.000158900376    -0.000010343021    0.106238739847    0.093907623343    0.000237658132    0.000005773909
            0.000158900376    -0.000010343021    0.158474035428    0.020266077539    0.000098296646    -0.000016371147    0.145209223171    0.016778479588
            0.106238739847    0.093907623343    0.000098296646    -0.000016371147    0.119401911203    0.086804352548    0.000159559891    -0.000006368682
            0.000237658132    0.000005773909    0.145209223171    0.016778479588    0.000159559891    -0.000006368682    0.159374798747    0.021268180113
0.650     0.135692659276    0.057153469568    0.000154784992    -0.000036220691    0.123165146226    0.070301617915    0.000237499462    -0.000033059537
            0.000154784992    -0.000036220691    0.157141299925    0.002125938387    0.000093802591    -0.000032168768    0.146599989069    0.000144211622
            0.123165146226    0.070301617915    0.000093802591    -0.000032168768    0.133767264466    0.057976716434    0.000157654773    -0.000032245839
            0.000237499462    -0.000033059537    0.146599989069    0.000144211548    0.000157654773    -0.000032245839    0.158305731809    0.003004468828
0.675     0.140664404967    0.025022604242    0.000147091481    -0.000059947359    0.132771827209    0.042634252021    0.000231711365    -0.000070605309
            0.000147091481    -0.000059947359    0.151201790422    -0.014302755019    0.000087295088    -0.000046329508    0.143808884119    -0.016002741905
            0.132771827209    0.042634252021    0.000087295088    -0.000046329508    0.139177943538    0.026172762680    0.000152165137    -0.000057072698
            0.000231711365    -0.000070605309    0.143808884119    -0.016002741905    0.000152165137    -0.000057072698    0.152590975219    -0.013629581507
0.700     0.135982682887    -0.007317216869    0.000136843352    -0.000081412201    0.134026944723    0.013057166260    0.000221128508    -0.000106486679
            0.000136843352    -0.000081412201    0.141378357103    -0.027707655813    0.000079411227    -0.000058894909    0.137120630242    -0.030416729195
            0.134026944723    0.013057166260    0.000079411227    -0.000058894909    0.135031769104    -0.005985218764    0.000143586498    -0.000080710793
            0.000221128508    -0.000106486679    0.137120630242    -0.030416729195    0.000143586498    -0.000080710793    0.142925504572    -0.027309192721
0.725     0.121818030224    -0.037075877217    0.000124833791    -0.000100940798    0.126493428850    -0.015976684895    0.000206346648    -0.000140731143
            0.000124833791    -0.000100940798    0.128777114200    -0.037012715467    0.000070595121    -0.000070146428    0.127204909897    -0.041943889866
            0.126493428850    -0.015976684895    0.000070595121    -0.000070146428    0.121455189364    -0.035736619558    0.000132210568    -0.000103214854
            0.000206346648    -0.000140731143    0.127204909897    -0.041943889866    0.000132210568    -0.000103214854    0.130390479545    -0.036937085811
0.750     0.099140408464    -0.061527572449    0.000111440161    -0.000119185762    0.110458856736    -0.041871682794    0.000187574696    -0.000173589022
            0.000111440161    -0.000119185762    0.114835957016    -0.041498275709    0.000061010382    -0.000080522900    0.115119292902    -0.049646617485
            0.110458856736    -0.041871682794    0.000061010382    -0.000080522900    0.099364072505    -0.060371956494    0.000118052647    -0.000124725864
            0.000187574696    -0.000173589022    0.115119292902    -0.049646617485    0.000118052647    -0.000124725864    0.116406689690    -0.041761389787
0.775     0.069732173932    -0.078240881986    0.000096462765    -0.000136861139    0.087011660277    -0.062100670833    0.000164486189    -0.000205304915
            0.000096462765    -0.000136861139    0.101220209266    -0.040916830378    0.000050457802    -0.000090443748    0.102237572141    -0.052951511211
            0.087011660277    -0.062100670833    0.000050457802    -0.000090443748    0.070480554164    -0.077459703172    0.000100805042    -0.000145287576
            0.000164486189    -0.000205304915    0.102237572141    -0.052951511211    0.000100805042    -0.000145287576    0.102631925106    -0.041496126404
