# GHz S RI R 45
0.000     0.022429594562    0.001894973095    -0.000001730204    -0.000003773240    0.000831152834    0.001620271317    -0.000001921323    -0.000004117066
            -0.000001730204    -0.000003773240    0.023146538223    0.001552665055    -0.000001562505    -0.000003453253    0.000847175713    0.001477491413
            0.000831152721    0.001620271375    -0.000001562505    -0.000003453253    0.022375003312    0.001882704488    -0.000001716106    -0.000003731049
            -0.000001921323    -0.000004117066    0.000847175816    0.001477491354    -0.000001716106    -0.000003731049    0.023101212519    0.001541588948
0.025     0.028207388857    0.009896861909    -0.000004214600    -0.000007988056    0.003167120951    0.010258088436    -0.000004628106    -0.000008719277
            -0.000004214606    -0.000007988064    0.028121258575    0.010200433966    -0.000003832933    -0.000007316059    0.002561791135    0.010939920750
            0.003164852715    0.010261040523    -0.000003832927    -0.000007316041    0.028131730949    0.009856823859    -0.000004166141    -0.000007906377
            -0.000004628102    -0.000008719263    0.002560413233    0.010939928024    -0.000004166135    -0.000007906367    0.028038567232    0.010143063690
0.050     0.036433041732    0.013700996982    -0.000009429367    -0.000013299339    0.009690991025    0.018496890933    -0.000010307151    -0.000014525266
            -0.000009429367    -0.000013299339    0.033963470033    0.015115947833    -0.000008607668    -0.000012189049    0.007435547002    0.020492412022
            0.009690964008    0.018496926537    -0.000008607668    -0.000012189049    0.036323517566    0.013630547386    -0.000009317701    -0.000013180439
            -0.000010307154    -0.000014525264    0.007435554507    0.020492317812    -0.000009317700    -0.000013180439    0.033815568673    0.015033453178
0.075     0.045918640873    0.013393224146    -0.000016130820    -0.000016434240    0.019144705518    0.023187109150    -0.000017608296    -0.000017975815
            -0.000016130820    -0.000016434240    0.039994138158    0.017475147378    -0.000014752218    -0.000015068377    0.014548832969    0.027656996571
            0.019144698347    0.023187111181    -0.000014752218    -0.000015068378    0.045778355453    0.013327582119    -0.000015950722    -0.000016313827
            -0.000017608297    -0.000017975816    0.014548836882    0.027656991122    -0.000015950722    -0.000016313827    0.039776495321    0.017411018928
0.100     0.055340293224    0.008484913870    -0.000023773091    -0.000017292843    0.029889954889    0.023452950029    -0.000025958951    -0.000018959388
            -0.000023773091    -0.000017292843    0.045577632701    0.017293750616    -0.000021763399    -0.000015857981    0.022777264021    0.031911114453
            0.029889954889    0.023452950029    -0.000021763400    -0.000015857982    0.055182935378    0.008446752187    -0.000023539066    -0.000017200695
            -0.000025958954    -0.000018959383    0.022777286467    0.031911107032    -0.000023539066    -0.000017200695    0.045299263745    0.017290108039
0.125     0.062811334720    -0.000903742415    -0.000031765778    -0.000015818517    0.040101074463    0.019041140534    -0.000034725073    -0.000017393608
            -0.000031765778    -0.000015818517    0.049675380269    0.014906377043    -0.000029099925    -0.000014503919    0.030930256637    0.033184102873
            0.040101074463    0.019041140534    -0.000029099925    -0.000014503919    0.062663144249    -0.000898184562    -0.000031504294    -0.000015766280
            -0.000034725073    -0.000017393608    0.030930256637    0.033184102873    -0.000031504294    -0.000015766280    0.049361251697    0.015005223076
0.150     0.066647924132    -0.014020968393    -0.000039587269    -0.000012108513    0.047987317287    0.010380467077    -0.000043334298    -0.000013360096
            -0.000039587269    -0.000012108513    0.051531526630    0.011129680880    -0.000036277771    -0.000011093935    0.037896098031    0.031856604639
            0.047987317287    0.010380467077    -0.000036277771    -0.000011093935    0.066546613266    -0.013965191785    -0.000039320600    -0.000012084645
            -0.000043334298    -0.000013360096    0.037896098031    0.031856604639    -0.000039320600    -0.000012084645    0.051237465713    0.011344507776
0.175     0.065368405401    -0.029393732456    -0.000046851520    -0.000006282049    0.051988589477    -0.001493281220    -0.000051342391    -0.000006971686
            -0.000046851520    -0.000006282049    0.050618131437    0.007019424492    -0.000042942036    -0.000005736900    0.042796051595    0.028695644977
            0.051988589477    -0.001493281220    -0.000042942036    -0.000005736900    0.065356407181    -0.029300386253    -0.000046584294    -0.000006260463
            -0.000051342391    -0.000006971686    0.042796051595    0.028695644977    -0.000046584294    -0.000006260463    0.050404228870    0.007347716003
0.200     0.058133839330    -0.045064111600    -0.000053238477    0.000001574343    0.050985787959    -0.015025780292    -0.000058369950    0.000001678279
            -0.000053238477    0.000001574343    0.046883075547    0.003830408720    -0.000048795208    0.000001488723    0.045109478719    0.024756764097
            0.050985787959    -0.015025780292    -0.000048795208    0.000001488723    0.058251184940    -0.044966105717    -0.000052948486    0.000001620368
            -0.000058369950    0.000001678279    0.045109478719    0.024756764097    -0.000052948486    0.000001620368    0.046806973568    0.004242803637
0.225     0.044823224809    -0.058830404345    -0.000058385397    0.000011448093    0.044449395116    -0.028311988236    -0.000063993254    0.000012555859
            -0.000058385397    0.000011448093    0.040788281573    0.002787536992    -0.000053499173    0.000010570631    0.044761343849    0.021229693419
            0.044449395116    -0.028311988236    -0.000053499173    0.000010570631    0.045097949854    -0.058780394672    -0.000058025214    0.000011526847
            -0.000063993254    0.000012555859    0.044761343849    0.021229693419    -0.000058025214    0.000011526847    0.040894936890    0.003228107998
0.250     0.026116746247    -0.068495132382    -0.000061811927    0.000023326839    0.032550866504    -0.039313103895    -0.000067674541    0.000025613471
            -0.000061811927    0.000023326839    0.033273215815    0.004913398718    -0.000056608239    0.000021491131    0.042158956511    0.019273452835
            0.032550866504    -0.039313103895    -0.000056608239    0.000021491131    0.026557263764    -0.068560411466    -0.000061321814    0.000023411251
            -0.000067674541    0.000025613471    0.042158956511    0.019273452835    -0.000061321814    0.000023411251    0.033583608535    0.005305299404
0.275     0.003461820384    -0.072133197841    -0.000062856042    0.000037093281    0.016190073463    -0.046097061457    -0.000068701363    0.000040681032
            -0.000062856042    0.000037093281    0.025667154130    0.010827081489    -0.000057512099    0.000034135316    0.038159717058    0.019820500702
            0.016190073463    -0.046097061457    -0.000057512099    0.000034135316    0.004049885871    -0.072388166445    -0.000062187151    0.000037113523
            -0.000068701363    0.000040681032    0.038159717058    0.019820500702    -0.000062187151    0.000037113523    0.026169871474    0.011083360380
0.300     -0.021023075924    -0.068375767533    -0.000060726134    0.000052372077    -0.003055932021    -0.047108400577    -0.000066246164    0.000057314241
            -0.000060726134    0.000052372077    0.019523951963    0.020616562673    -0.000055485402    0.000048146913    0.033968523391    0.023411017634
            -0.003055932021    -0.047108400577    -0.000055485402    0.000048146913    -0.020336043546    -0.068891119396    -0.000059867514    0.000052220112
            -0.000066246164    0.000057314241    0.033968523391    0.023411017634    -0.000059867514    0.000052220112    0.020171598170    0.020654329117
0.325     -0.044768365032    -0.056630109225    -0.000054622567    0.000068400436    -0.023085324898    -0.041400068967    -0.000059488264    0.000074674761
            -0.000054622567    0.000068400436    0.016403961766    0.033741975971    -0.000049800527    0.000062815599    0.030958248887    0.030057625082
            -0.023085324898    -0.041400068967    -0.000049800527    0.000062815599    -0.044059191683    -0.057460513238    -0.000053620868    0.000067955933
            -0.000059488264    0.000074674761    0.030958248887    0.030057625082    -0.000053620868    0.000067955933    0.017115364781    0.033497248568
0.350     -0.065052693424    -0.037244434869    -0.000043966695    0.000083999737    -0.041520993853    -0.028820307189    -0.000047854579    0.000091498312
            -0.000043966695    0.000083999737    0.017619870667    0.049065447138    -0.000039938909    0.000077050000    0.030445925935    0.039208321119
            -0.041520993853    -0.028820307189    -0.000039938909    0.000077050000    -0.064420886988    -0.038417263159    -0.000042937418    0.000083158348
            -0.000047854579    0.000091498312    0.030445925935    0.039208321119    -0.000042937418    0.000083158348    0.018288830394    0.048507249149
0.375     -0.079356293581    -0.011521557872    -0.000028628823    0.000097659984    -0.056015661701    -0.010077688016    -0.000031242331    0.000106194350
            -0.000028628823    0.000097659984    0.023997672071    0.064962182641    -0.000025801745    0.000089460040    0.033451988317    0.049794946925
            -0.056015661701    -0.010077688016    -0.000025801745    0.000089460040    -0.078912588826    -0.013028209882    -0.000027740891    0.000096373644
            -0.000031242331    0.000106194350    0.033451988317    0.049794946925    -0.000027740891    0.000096373644    0.024507113091    0.064100871563
0.400     -0.085718111847    0.018391581520    -0.000009103994    0.000107786035    -0.064586559917    0.013312880366    -0.000010194834    0.000117097974
            -0.000009103994    0.000107786035    0.035707102163    0.079556428522    -0.000007862462    0.000098588541    0.040514610923    0.060404297499
            -0.064586559917    0.013312880366    -0.000007862462    0.000098588541    -0.085571068419    0.016599436348    -0.000008554011    0.000106086594
            -0.000010194834    0.000117097974    0.040514610923    0.060404297499    -0.000008554011    0.000106086594    0.035947002733    0.078447282175
0.425     -0.083009324066    0.049764804189    0.000013473925    0.000112997353    -0.065880366971    0.039223163538    0.000014085080    0.000122773593
            0.000013473925    0.000112997353    0.052199251556    0.090992956288    0.000012814829    0.000103183418    0.051582039520    0.069496753780
            -0.065880366971    0.039223163538    0.000012814829    0.000103183418    -0.083249968648    0.047773228144    0.000013509293    0.000111007349
            0.000014085080    0.000122773593    0.051582039520    0.069496753780    0.000013509293    0.000111007349    0.052083113066    0.089730607844
0.450     -0.071095388053    0.079630582364    0.000037478356    0.000112424223    -0.059356076568    0.065193475957    0.000039899203    0.000122320758
            0.000037478356    0.000112424223    0.072279576682    0.097726064883    0.000034729456    0.000102474107    0.066031323959    0.075660442726
            -0.059356076568    0.065193475957    0.000034729456    0.000102474107    -0.071784166285    0.077555572425    0.000036879742    0.000110340841
            0.000039899203    0.000122320758    0.066031323959    0.075660442726    0.000036879742    0.000110340841    0.071758992605    0.096432666343
0.475     -0.050830638841    0.105152395094    0.000061071469    0.000105866534    -0.045315327893    0.088743997083    0.000065330790    0.000115526305
            0.000061071469    0.000105866534    0.094277576485    0.098727241121    0.000056192500    0.000096310545    0.082769655755    0.077804964132
            -0.045315327893    0.088743997083    0.000056192500    0.000096310545    -0.051988231859    0.103127849063    0.000059807574    0.000103932564
            0.000065330790    0.000115526305    0.082769655755    0.077804964132    0.000059807574    0.000103932564    0.093348788903    0.097537579944
0.500     -0.023927624194    0.123954582815    0.000082514362    0.000093815823    -0.024830209596    0.107667444724    0.000088568581    0.000102889654
            0.000082514362    0.000093815823    0.116288615422    0.093610429013    0.000075629040    0.000085170782    0.100413607927    0.075298388837
            -0.024830209596    0.107667444724    0.000075629040    0.000085170782    -0.025530784445    0.122117720293    0.000080659355    0.000092270675
            0.000088568581    0.000102889654    0.100413607927    0.075298388837    0.000080659355    0.000092270675    0.114994815591    0.092653818409
0.525     0.007279719216    0.134348858047    0.000100433531    0.000077300078    0.000432154362    0.120230523339    0.000108176894    0.000085458438
            0.000100433531    0.000077300078    0.136408919306    0.082638459577    0.000091805555    0.000070020723    0.117464564570    0.068002877612
            0.000432154362    0.120230523339    0.000091805555    0.000070020723    0.005297114377    0.132826367526    0.000098153258    0.000076341028
            0.000108176894    0.000085458438    0.117464564570    0.068002877612    0.000098153258    0.000076341028    0.134835368520    0.082024132538
0.550     0.040109604014    0.135461527794    0.000113975673    0.000057677272    0.028411505115    0.125308888069    0.000123247608    0.000064619761
            0.000113975673    0.000057677272    0.152952616929    0.066657969563    0.000103976065    0.000052108836    0.132484085423    0.056260438507
            0.028411505115    0.125308888069    0.000103976065    0.000052108836    0.037851067806    0.134355852196    0.000111502701    0.000057418902
            0.000123247608    0.000064619761    0.132484085423    0.056260438507    0.000111502701    0.000057418902    0.151216220712    0.066461459919
0.575     0.071798755791    0.127245463838    0.000122837054    0.000036383908    0.056857754318    0.122416215623    0.000133434876    0.000041842914
            0.000122837054    0.000036383908    0.164593348054    0.046973732068    0.000111897396    0.000032742378    0.144210019889    0.040823098140
            0.056857754318    0.122416215623    0.000111897396    0.000032742378    0.069396288026    0.126625542110    0.000120433873    0.000036837434
            0.000133434876    0.000041842914    0.144210019889    0.040823098140    0.000120433873    0.000036837434    0.162831602464    0.047229261524
0.600     0.099735590171    0.110429702924    0.000127223175    0.000014727895    0.083511086056    0.111704043583    0.000138907384    0.000018470926
            0.000127223175    0.000014727895    0.170468765777    0.025209448150    0.000115781261    0.000013094129    0.151660857407    0.022780849917
            0.083511086056    0.111704043583    0.000115781261    0.000013094129    0.097338831608    0.110323201525    0.000125131330    0.000015801855
            0.000138907384    0.000018470926    0.151660857407    0.022780849917    0.000125131330    0.000015801855    0.168824327437    0.025904988893
0.625     0.121637211988    0.086414556685    0.000127713202    -0.000006265920    0.106238739847    0.093907623343    0.000140211587    -0.000004439412
            0.000127713202    -0.000006265920    0.170223507830    0.003165590108    0.000116170515    -0.000005929284    0.154192697360    0.003473225702
            0.106238739847    0.093907623343    0.000116170515    -0.000005929284    0.119401911203    0.086804352548    0.000126114318    -0.000004757739
            0.000140211587    -0.000004439412    0.154192697360    0.003473225702    0.000126114318    -0.000004757739    0.168830252780    0.004242547218
0.650     0.135692659276    0.057153469568    0.000125125191    -0.000025961830    0.123165146226    0.070301617915    0.000138133454    -0.000026218354
            0.000125125191    -0.000025961830    0.164038645966    -0.017315745049    0.000113807978    -0.000023774208    0.151568958536    -0.015590458813
            0.123165146226    0.070301617915    0.000113807978    -0.000023774208    0.133767264466    0.057976716434    0.000124103544    -0.000024264638
            0.000138133454    -0.000026218354    0.151568958536    -0.015590458813    0.000124103544    -0.000024264638    0.163007226566    -0.015958019735
0.675     0.140664404967    0.025022604242    0.000120330615    -0.000044160826    0.132771827209    0.042634252021    0.000133512478    -0.000046623419
            0.000120330615    -0.000044160826    0.152628099829    -0.034482485774    0.000109474099    -0.000040284954    0.144001398461    -0.032834230835
            0.132771827209    0.042634252021    0.000109474099    -0.000040284954    0.139177943538    0.026172762680    0.000119853511    -0.000042527054
            0.000133512478    -0.000046623419    0.144001398461    -0.032834230835    0.000119853511    -0.000042527054    0.152032686644    -0.032980222208
0.700     0.135982682887    -0.007317216869    0.000114081908    -0.000061089820    0.134026944723    0.013057166260    0.000127067509    -0.000065837401
            0.000114081908    -0.000061089820    0.137232979857    -0.046815196699    0.000103830944    -0.000055680960    0.132206667142    -0.046735406154
            0.134026944723    0.013057166260    0.000103830944    -0.000055680960    0.135031769104    -0.005985218764    0.000113998735    -0.000059729757
            0.000127067509    -0.000065837401    0.132206667142    -0.046735406154    0.000113998735    -0.000059729757    0.137099178499    -0.045326969055
0.725     0.121818030224    -0.037075877217    0.000106803004    -0.000077324499    0.126493428850    -0.015976684895    0.000119189842    -0.000084383536
            0.000106803004    -0.000077324499    0.119571314072    -0.053184587409    0.000097239416    -0.000070485228    0.117409080728    -0.055992148414
            0.126493428850    -0.015976684895    0.000097239416    -0.000070485228    0.121455189364    -0.035736619558    0.000106874513    -0.000076352348
            0.000119189842    -0.000084383536    0.117409080728    -0.055992148414    0.000106874513    -0.000076352348    0.119867696852    -0.051876384463
0.750     0.099140408464    -0.061527572449    0.000098425007    -0.000093622096    0.110458856736    -0.041871682794    0.000109787823    -0.000102939428
            0.000098425007    -0.000093622096    0.101748433229    -0.053028928654    0.000089613141    -0.000085375194    0.101311560501    -0.059714659883
            0.110458856736    -0.041871682794    0.000089613141    -0.000085375194    0.099364072505    -0.060371956494    0.000098377138    -0.000093008199
            0.000109787823    -0.000102939428    0.101311560501    -0.059714659883    0.000098377138    -0.000093008199    0.102383651373    -0.052051711817
0.775     0.069732173932    -0.078240881986    0.000088280597    -0.000110624313    0.087011660277    -0.062100670833    0.000098179877    -0.000122067558
            0.000088280597    -0.000110624313    0.086074583900    -0.046520112034    0.000080331241    -0.000100912516    0.085950297505    -0.057637386066
            0.087011660277    -0.062100670833    0.000080331241    -0.000100912516    0.070480554164    -0.077459703172    0.000087873442    -0.000110192729
            0.000098179877    -0.000122067558    0.085950297505    -0.057637386066    0.000087873442    -0.000110192729    0.086901764210    -0.045988694806
