# GHz S RI R 45
0.000     0.022429594562    0.001894973095    0.000000431753    0.000000945206    0.000831152834    0.001620271317    0.000000454304    0.000001021362
            0.000000431750    0.000000945205    0.021399180694    0.001889010468    0.000000479859    0.000001029832    0.000767353260    0.001617346794
            0.000831152721    0.001620271375    0.000000479865    0.000001029833    0.022375003312    0.001882704488    0.000000493223    0.000001116612
            0.000000454345    0.000001021362    0.000767353076    0.001617346770    0.000000493211    0.000001116612    0.021354661409    0.001897621523
0.025     0.028207388857    0.009896861909    0.000001208483    0.000001934861    0.003167120951    0.010258088436    0.000001289446    0.000002066017
            0.000001208483    0.000001934855    0.026739855392    0.009080189027    0.000001326954    0.000002156384    0.002905133304    0.009311258261
            0.003164852715    0.010261040523    0.000001326954    0.000002156390    0.028131730949    0.009856823859    0.000001399928    0.000002243618
            0.000001289447    0.000002066015    0.002903905387    0.009311058245    0.000001399931    0.000002243620    0.026672844524    0.009051691203
0.050     0.036433041732    0.013700996982    0.000002944736    0.000002998963    0.009690991025    0.018496890933    0.000003154162    0.000003196342
            0.000002944736    0.000002998963    0.034501457601    0.012560011140    0.000003214504    0.000003362546    0.008934010324    0.016857329837
            0.009690964008    0.018496926537    0.000003214505    0.000003362547    0.036323517566    0.013630547386    0.000003427996    0.000003472943
            0.000003154162    0.000003196342    0.008934006085    0.016857333215    0.000003427996    0.000003472943    0.034442302370    0.012540531466
0.075     0.045918640873    0.013393224146    0.000005183752    0.000003078231    0.019144705518    0.023187109150    0.000005562208    0.000003273520
            0.000005183752    0.000003078232    0.043616769055    0.012335895140    0.000005647607    0.000003503263    0.017791581177    0.021267558730
            0.019144698347    0.023187111181    0.000005647607    0.000003503263    0.045778355453    0.013327582119    0.000006049536    0.000003559857
            0.000005562208    0.000003273520    0.017791539073    0.021267528764    0.000006049536    0.000003559857    0.043586656439    0.012316886798
0.100     0.055340293224    0.008484913870    0.000007512374    0.000002042078    0.029889954889    0.023452950029    0.000008074096    0.000002155349
            0.000007512374    0.000002042078    0.053008596631    0.007897687639    0.000008182155    0.000002438793    0.028098718251    0.021703501819
            0.029889954889    0.023452950029    0.000008182155    0.000002438793    0.055182935378    0.008446752187    0.000008790035    0.000002350443
            0.000008074096    0.000002155349    0.028098717873    0.021703502310    0.000008790035    0.000002350443    0.053028899581    0.007873801588
0.125     0.062811334720    -0.000903742415    0.000009471762    -0.000000105864    0.040101074463    0.019041140534    0.000010200058    -0.000000158734
            0.000009471762    -0.000000105864    0.061063396045    -0.000832670754    0.000010325512    0.000000171353    0.038290936691    0.017825576796
            0.040101074463    0.019041140534    0.000010325512    0.000000171353    0.062663144249    -0.000898184562    0.000011121286    -0.000000158812
            0.000010200058    -0.000000158734    0.038290936691    0.017825576796    0.000011121286    -0.000000158812    0.061156855958    -0.000875408362
0.150     0.066647924132    -0.014020968393    0.000010633428    -0.000003178264    0.047987317287    0.010380467077    0.000011480405    -0.000003473042
            0.000010633428    -0.000003178264    0.066190588249    -0.013290750000    0.000011616244    -0.000003099829    0.046788269375    0.009846964827
            0.047987317287    0.010380467077    0.000011616244    -0.000003099829    0.066546613266    -0.013965191785    0.000012545626    -0.000003759959
            0.000011480405    -0.000003473042    0.046788269375    0.009846964827    0.000012545626    -0.000003759959    0.066377837340    -0.013371379303
0.175     0.065368405401    -0.029393732456    0.000010651496    -0.000006856216    0.051988589477    -0.001493281220    0.000011541603    -0.000007451152
            0.000010651496    -0.000006856216    0.067029376877    -0.028399344567    0.000011680937    -0.000007035445    0.052145822982    -0.001497436865
            0.051988589477    -0.001493281220    0.000011680937    -0.000007035445    0.065356407181    -0.029300386253    0.000012657231    -0.000008094250
            0.000011541603    -0.000007451152    0.052145822982    -0.001497436865    0.000012657231    -0.000008094250    0.067326985677    -0.028549002176
0.200     0.058133839330    -0.045064111600    0.000009307008    -0.000010706016    0.050985787959    -0.015025780292    0.000010144181    -0.000011632867
            0.000009307008    -0.000010706016    0.062630491831    -0.044620924229    0.000010280442    -0.000011172816    0.053230285346    -0.015012729799
            0.050985787959    -0.015025780292    0.000010280442    -0.000011172816    0.058251184940    -0.044966105717    0.000011192599    -0.000012668906
            0.000010144181    -0.000011632867    0.053230285346    -0.015012729799    0.000011192599    -0.000012668906    0.063046071487    -0.044879603815
0.225     0.044823224809    -0.058830404345    0.000006535801    -0.000014226621    0.044449395116    -0.028311988236    0.000007211969    -0.000015483827
            0.000006535801    -0.000014226621    0.052583043215    -0.060125182692    0.000007339501    -0.000014975660    0.049344779593    -0.029160114905
            0.044449395116    -0.028311988236    0.000007339501    -0.000014975660    0.045097949854    -0.058780394672    0.000008061923    -0.000016909494
            0.000007211969    -0.000015483827    0.049344779593    -0.029160114905    0.000008061923    -0.000016909494    0.053111438264    -0.060539670352
0.250     0.026116746247    -0.068495132382    0.000002454652    -0.000016903139    0.032550866504    -0.039313103895    0.000002861706    -0.000018452516
            0.000002454652    -0.000016903139    0.037121661700    -0.072979620301    0.000002975977    -0.000017890902    0.040333602305    -0.042213090316
            0.032550866504    -0.039313103895    0.000002975977    -0.000017890902    0.026557263764    -0.068560411466    0.000003382191    -0.000020220780
            0.000002861706    -0.000018452516    0.040333602305    -0.042213090316    0.000003382191    -0.000020220780    0.037741119800    -0.073598773296
0.275     0.003461820384    -0.072133197841    -0.000002639749    -0.000018266210    0.016190073463    -0.046097061457    -0.000002597827    -0.000020033164
            -0.000002639749    -0.000018266210    0.017119998238    -0.081363446875    -0.000002500484    -0.000019410998    0.026622739504    -0.052431625529
            0.016190073463    -0.046097061457    -0.000002500484    -0.000019410998    0.004049885871    -0.072388166445    -0.000002523877    -0.000022053180
            -0.000002597827    -0.000020033164    0.026622739504    -0.052431625529    -0.000002523877    -0.000022053180    0.017790819002    -0.082232264183
0.300     -0.021023075924    -0.068375767533    -0.000008284267    -0.000017960259    -0.003055932021    -0.047108400577    -0.000008679284    -0.000019838436
            -0.000008284267    -0.000017960259    -0.005946381827    -0.083787385988    -0.000008600940    -0.000019146931    0.009213638698    -0.058264770609
            -0.003055932021    -0.047108400577    -0.000008600940    -0.000019146931    -0.020336043546    -0.068891119396    -0.000009140299    -0.000021980744
            -0.000008679284    -0.000019838436    0.009213638698    -0.058264770609    -0.000009140299    -0.000021980744    -0.005282342176    -0.084940409240
0.325     -0.044768365032    -0.056630109225    -0.000013893070    -0.000015799874    -0.023085324898    -0.041400068967    -0.000014762285    -0.000017659754
            -0.000013893070    -0.000015799874    -0.030135046910    -0.079273757085    -0.000014703128    -0.000016888238    -0.010395520630    -0.058528553706
            -0.023085324898    -0.041400068967    -0.000014703128    -0.000016888238    -0.044059191683    -0.057460513238    -0.000015805938    -0.000019765419
            -0.000014762285    -0.000017659754    -0.010395520630    -0.058528553706    -0.000015805938    -0.000019765419    -0.029550564734    -0.080727966787
0.350     -0.065052693424    -0.037244434869    -0.000018825788    -0.000011819777    -0.041520993853    -0.028820307189    -0.000020164917    -0.000013520657
            -0.000018825788    -0.000011819777    -0.053217505526    -0.067516020637    -0.000020121812    -0.000012656667    -0.030350515575    -0.052574949801
            -0.041520993853    -0.028820307189    -0.000020121812    -0.000012656667    -0.064420886988    -0.038417263159    -0.000021788468    -0.000015415201
            -0.000020164917    -0.000013520657    -0.030350515575    -0.052574949801    -0.000021788468    -0.000015415201    -0.052794360882    -0.069264528600
0.375     -0.079356293581    -0.011521557872    -0.000022472697    -0.000006285408    -0.056015661701    -0.010077688016    -0.000024233406    -0.000007689505
            -0.000022472697    -0.000006285408    -0.072912645936    -0.048943892726    -0.000024198749    -0.000006719659    -0.048630203360    -0.040387252753
            -0.056015661701    -0.010077688016    -0.000024198749    -0.000006719659    -0.078912588826    -0.013028209882    -0.000026379261    -0.000009199144
            -0.000024233406    -0.000007689505    -0.048630203360    -0.040387252753    -0.000026379261    -0.000009199144    -0.072733517741    -0.050952246784
0.400     -0.085718111847    0.018391581520    -0.000024348569    0.000000327007    -0.064586559917    0.013312880366    -0.000026440910    -0.000000659662
            -0.000024348569    0.000000327007    -0.087146138569    -0.024726713167    -0.000026401450    0.000000428538    -0.063279055267    -0.022619546942
            -0.064586559917    0.013312880366    -0.000026401450    0.000000428538    -0.085571068419    0.016599436348    -0.000028997821    -0.000001629521
            -0.000026440910    -0.000000659662    -0.063279055267    -0.022619546942    -0.000028997821    -0.000001629521    -0.087284442742    -0.026932215183
0.425     -0.083009324066    0.049764804189    -0.000024162624    0.000007395594    -0.065880366971    0.039223163538    -0.000026462193    0.000006917624
            -0.000024162624    0.000007395594    -0.094284841279    0.003333475337    -0.000026398776    0.000008133092    -0.072621622405    -0.000537702914
            -0.065880366971    0.039223163538    -0.000026398776    0.000008133092    -0.083249968648    0.047773228144    -0.000029272258    0.000006606769
            -0.000026462193    0.000006917624    -0.072621622405    -0.000537702914    -0.000029272258    0.000006606769    -0.094794950627    0.001018688466
0.450     -0.071095388053    0.079630582364    -0.000021861728    0.000014240702    -0.059356076568    0.065193475957    -0.000024220369    0.000014323744
            -0.000021861728    0.000014240702    -0.093337388207    0.032978839553    -0.000024109360    0.000015669038    -0.075465154073    0.024107573475
            -0.059356076568    0.065193475957    -0.000024109360    0.000015669038    -0.071784166285    0.077555572425    -0.000027092075    0.000014741698
            -0.000024220369    0.000014323744    -0.075465154073    0.024107573475    -0.000027092075    0.000014741698    -0.094245429402    0.030661518146
0.475     -0.050830638841    0.105152395094    -0.000017621891    0.000020218362    -0.045315327893    0.088743997083    -0.000019880416    0.000020871204
            -0.000017621891    0.000020218362    -0.084059654400    0.061734109704    -0.000019695897    0.000022340075    -0.071216349397    0.049269630084
            -0.045315327893    0.088743997083    -0.000019695897    0.000022340075    -0.051988231859    0.103127849063    -0.000022604747    0.000022029483
            -0.000019880416    0.000020871204    -0.071216349397    0.049269630084    -0.000022604747    0.000022029483    -0.085358303380    0.059529392704
0.500     -0.023927624194    0.123954582815    -0.000011809920    0.000024799644    -0.024830209596    0.107667444724    -0.000013811006    0.000025986616
            -0.000011809920    0.000024799644    -0.066985501478    0.087164895360    -0.000013529256    0.000027563245    -0.059944973323    0.072824792381
            -0.024830209596    0.107667444724    -0.000013529256    0.000027563245    -0.025530784445    0.122117720293    -0.000016180571    0.000027835670
            -0.000013811006    0.000025986616    -0.059944973323    0.072824792381    -0.000016180571    0.000027835670    -0.068630943024    0.085185693740
0.525     0.007279719216    0.134348858047    -0.000004914886    0.000027614653    0.000432154362    0.120230523339    -0.000006515057    0.000029258714
            -0.000004914886    0.000027614653    -0.043353648289    0.107114694937    -0.000006118206    0.000030918431    -0.042347388002    0.092774482267
            0.000432154362    0.120230523339    -0.000006118206    0.000030918431    0.005297114377    0.132826367526    -0.000008341264    0.000031690988
            -0.000006515057    0.000029258714    -0.042347388002    0.092774482267    -0.000008341264    0.000031690988    -0.045267404337    0.105460111869
0.550     0.040109604014    0.135461527794    0.000002517998    0.000028469146    0.028411505115    0.125308888069    0.000001438790    0.000030457375
            0.000002517998    0.000028469146    -0.014974922761    0.119905352631    0.000001959151    0.000032169443    -0.019666928137    0.107432692704
            0.028411505115    0.125308888069    0.000001959151    0.000032169443    0.037851067806    0.134355852196    0.000000309516    0.000033315496
            0.000001438790    0.000030457375    -0.019666928137    0.107432692704    0.000000309516    0.000033315496    -0.017049022915    0.118649491380
0.575     0.071798755791    0.127245463838    0.000009946586    0.000027326648    0.056857754318    0.122416215623    0.000009477220    0.000029517509
            0.000009946586    0.000027326648    0.015951518464    0.124460860970    0.000010117693    0.000031249185    0.006442454257    0.115542539273
            0.056857754318    0.122416215623    0.000010117693    0.000031249185    0.069396288026    0.126625542110    0.000009151701    0.000032606048
            0.000009477220    0.000029517509    0.006442454257    0.115542539273    0.000009151701    0.000032606048    0.013846471231    0.123645465146
0.600     0.099735590171    0.110429702924    0.000016869549    0.000024284173    0.083511086056    0.111704043583    0.000017062052    0.000026515719
            0.000016869549    0.000024284173    0.047037204586    0.120378606376    0.000017807311    0.000028237156    0.034061391791    0.116368348961
            0.083511086056    0.111704043583    0.000017807311    0.000028237156    0.097338831608    0.110323201525    0.000017592158    0.000029615557
            0.000017062052    0.000026515719    0.034061391791    0.116368348961    0.000017592158    0.000029615557    0.045041540394    0.120006742083
0.625     0.121637211988    0.086414556685    0.000022843690    0.000019537424    0.106238739847    0.093907623343    0.000023709334    0.000021635965
            0.000022843690    0.000019537424    0.075895704518    0.107927430293    0.000024533845    0.000023324748    0.061153932135    0.109713977091
            0.106238739847    0.093907623343    0.000024533845    0.000023324748    0.119401911203    0.086804352548    0.000025088185    0.000024518922
            0.000023709334    0.000021635965    0.061153932135    0.109713977091    0.000025088185    0.000024518922    0.074150263040    0.107961333371
0.650     0.135692659276    0.057153469568    0.000027490304    0.000013361177    0.123165146226    0.070301617915    0.000028997177    0.000015150188
            0.000027490304    0.000013361177    0.100320228927    0.088008424668    0.000029868483    0.000016795190    0.085712603475    0.095932959039
            0.123165146226    0.070301617915    0.000029868483    0.000016795190    0.133767264466    0.057976716434    0.000031158841    0.000017594589
            0.000028997177    0.000015150188    0.085712603475    0.095932959039    0.000031158841    0.000017594589    0.098953889067    0.088370079784
0.675     0.140664404967    0.025022604242    0.000030491237    0.000006093239    0.132771827209    0.042634252021    0.000032563064    0.000007403288
            0.000030491237    0.000006093239    0.118427719087    0.062073562291    0.000033446855    0.000009006368    0.105878335900    0.075888390568
            0.132771827209    0.042634252021    0.000033446855    0.000009006368    0.139177943538    0.026172762680    0.000035385574    0.000009207635
            0.000032563064    0.000007403288    0.105878335900    0.075888390568    0.000035385574    0.000009207635    0.117547058038    0.062648106842
0.700     0.135982682887    -0.007317216869    0.000031593932    -0.000001865406    0.134026944723    0.013057166260    0.000034110568    -0.000001186239
            0.000031593932    -0.000001865406    0.128786482894    0.032023763706    0.000034976057    0.000000390204    0.120070050990    0.050910545925
            0.134026944723    0.013057166260    0.000034976057    0.000000390204    0.135031769104    -0.005985218764    0.000037422169    -0.000000189296
            0.000034110568    -0.000001186239    0.120070050990    0.050910545925    0.000037422169    -0.000000189296    0.128465246719    0.032665890121
0.725     0.121818030224    -0.037075877217    0.000030618885    -0.000010048855    0.126493428850    -0.015976684895    0.000033418509    -0.000010123464
            0.000030618885    -0.000010048855    0.130507922067    0.000085387137    0.000034243699    -0.000008547552    0.127078766839    0.022721599673
            0.126493428850    -0.015976684895    0.000034243699    -0.000008547552    0.121455189364    -0.035736619558    0.000037006184    -0.000010055738
            0.000033418509    -0.000010123464    0.127078766839    0.022721599673    0.000037006184    -0.000010055738    0.130778191638    0.000628111533
0.750     0.099140408464    -0.061527572449    0.000027487379    -0.000017926417    0.110458856736    -0.041871682794    0.000030373053    -0.000018836180
            0.000027487379    -0.000017926417    0.123323172897    -0.031333110456    0.000031148507    -0.000017228426    0.126183115073    -0.006657311142
            0.110458856736    -0.041871682794    0.000031148507    -0.000017228426    0.099364072505    -0.060371956494    0.000033994330    -0.000019763825
            0.000030373053    -0.000018836180    0.126183115073    -0.006657311142    0.000033994330    -0.000019763825    0.124168992628    -0.031066326520
0.775     0.069732173932    -0.078240881986    0.000022252957    -0.000024914931    0.087011660277    -0.062100670833    0.000025002413    -0.000026688165
            0.000022252957    -0.000024914931    0.107622408577    -0.059798766498    0.000025732871    -0.000025016054    0.117215566851    -0.035027676098
            0.087011660277    -0.062100670833    0.000025732871    -0.000025016054    0.070480554164    -0.077459703172    0.000028398756    -0.000028614110
            0.000025002413    -0.000026688165    0.117215566851    -0.035027676098    0.000028398756    -0.000028614110    0.108976227147    -0.059980650721
