# GHz S RI R 45
0.000     0.022429594562    0.001894973095    -0.000000016312    -0.000000111091    0.000831152834    0.001620271317    -0.000000012753    -0.000000110136
            -0.000000016311    -0.000000111091    0.021213864621    0.001405068458    0.000000003280    -0.000000081311    0.000705484253    0.001209803007
            0.000831152721    0.001620271375    0.000000003280    -0.000000081311    0.022375003312    0.001882704488    0.000000009353    -0.000000077404
            -0.000000012753    -0.000000110136    0.000705484232    0.001209803019    0.000000009353    -0.000000077404    0.021138564657    0.001396883989
0.025     0.028207388857    0.009896861909    -0.000000098633    -0.000000237078    0.003167120951    0.010258088436    -0.000000092757    -0.000000235818
            -0.000000098633    -0.000000237078    0.026180296063    0.008237526626    -0.000000050080    -0.000000180852    0.002553640212    0.008437989921
            0.003164852715    0.010261040523    -0.000000050080    -0.000000180852    0.028131730949    0.009856823859    -0.000000038536    -0.000000174072
            -0.000000092757    -0.000000235818    0.002553475244    0.008438038695    -0.000000038537    -0.000000174072    0.026101221703    0.008141680712
0.050     0.036433041732    0.013700996982    -0.000000302150    -0.000000382396    0.009690991025    0.018496890933    -0.000000293811    -0.000000383062
            -0.000000302150    -0.000000382396    0.033146097587    0.011332224830    -0.000000199499    -0.000000306459    0.007826424837    0.015395392429
            0.009690964008    0.018496926537    -0.000000199499    -0.000000306459    0.036323517566    0.013630547386    -0.000000179554    -0.000000299989
            -0.000000293811    -0.000000383062    0.007826396960    0.015395402114    -0.000000179554    -0.000000299989    0.033036119960    0.011164599681
0.075     0.045918640873    0.013393224146    -0.000000573884    -0.000000416941    0.019144705518    0.023187109150    -0.000000564286    -0.000000420989
            -0.000000573884    -0.000000416941    0.041287379046    0.011167891808    -0.000000410215    -0.000000351301    0.015625650606    0.019647802738
            0.019144698347    0.023187111181    -0.000000410215    -0.000000351301    0.045778355453    0.013327582119    -0.000000382024    -0.000000349678
            -0.000000564286    -0.000000420989    0.015625642630    0.019647803971    -0.000000382024    -0.000000349678    0.041140644466    0.010944513199
0.100     0.055340293224    0.008484913870    -0.000000869902    -0.000000320854    0.029889954889    0.023452950029    -0.000000860482    -0.000000329196
            -0.000000869902    -0.000000320854    0.049696969771    0.007286212758    -0.000000648622    -0.000000295771    0.024768804673    0.020456621609
            0.029889954889    0.023452950029    -0.000000648622    -0.000000295771    0.055182935378    0.008446752187    -0.000000613541    -0.000000303189
            -0.000000860482    -0.000000329196    0.024768804673    0.020456621609    -0.000000613541    -0.000000303189    0.049515925287    0.007028349232
0.125     0.062811334720    -0.000903742415    -0.000001138246    -0.000000088330    0.040101074463    0.019041140534    -0.000001130935    -0.000000101395
            -0.000001138246    -0.000000088330    0.056981897788    -0.000400892824    -0.000000874630    -0.000000131746    0.033916366653    0.017506588709
            0.040101074463    0.019041140534    -0.000000874630    -0.000000131746    0.062663144249    -0.000898184562    -0.000000835650    -0.000000152045
            -0.000001130935    -0.000000101395    0.033916366653    0.017506588709    -0.000000835650    -0.000000152045    0.056779789912    -0.000674244025
0.150     0.066647924132    -0.014020968393    -0.000001326622    0.000000267446    0.047987317287    0.010380467077    -0.000001323458    0.000000250115
            -0.000001326622    0.000000267446    0.061727635447    -0.011427542503    -0.000001046582    0.000000134173    0.041710557974    0.010943914705
            0.047987317287    0.010380467077    -0.000001046582    0.000000134173    0.066546613266    -0.013965191785    -0.000001008271    0.000000098657
            -0.000001323458    0.000000250115    0.041710557974    0.010943914705    -0.000001008271    0.000000098657    0.061527775875    -0.011703394611
0.175     0.065368405401    -0.029393732456    -0.000001389212    0.000000715695    0.051988589477    -0.001493281220    -0.000001392266    0.000000695291
            -0.000001389212    0.000000715695    0.062733200153    -0.024877095733    -0.000001126755    0.000000481472    0.046892181341    0.001362342437
            0.051988589477    -0.001493281220    -0.000001126755    0.000000481472    0.065356407181    -0.029300386253    -0.000001094587    0.000000430086
            -0.000001392266    0.000000695291    0.046892181338    0.001362342518    -0.000001094587    0.000000430086    0.062565676899    -0.025154989177
0.200     0.058133839330    -0.045064111600    -0.000001291790    0.000001210392    0.050985787959    -0.015025780292    -0.000001302750    0.000001189100
            -0.000001291790    0.000001210392    0.059136034211    -0.039428895757    -0.000001084758    0.000000877046    0.048455709120    -0.010247225154
            0.050985787959    -0.015025780292    -0.000001084758    0.000000877046    0.058251184940    -0.044966105717    -0.000001064496    0.000000811234
            -0.000001302750    0.000001189100    0.048455709120    -0.010247225154    -0.000001064496    0.000000811234    0.059032034190    -0.039722064503
0.225     0.044823224809    -0.058830404345    -0.000001016333    0.000001694654    0.044449395116    -0.028311988236    -0.000001036172    0.000001675429
            -0.000001016333    0.000001694654    0.050528446535    -0.053495068538    -0.000000902054    0.000001277782    0.045755528228    -0.022591369236
            0.044449395116    -0.028311988236    -0.000000902054    0.000001277782    0.045097949854    -0.058780394672    -0.000000899016    0.000001201194
            -0.000001036172    0.000001675429    0.045755528228    -0.022591369236    -0.000000899016    0.000001201194    0.050514513815    -0.053831442767
0.250     0.026116746247    -0.068495132382    -0.000000564474    0.000002105431    0.032550866504    -0.039313103895    -0.000000593001    0.000002091786
            -0.000000564474    0.000002105431    0.037057194259    -0.065379272932    -0.000000574790    0.000001633952    0.038596662852    -0.034200930164
            0.032550866504    -0.039313103895    -0.000000574790    0.000001633952    0.026557263764    -0.068560411466    -0.000000592920    0.000001552281
            -0.000000593001    0.000002091786    0.038596662852    -0.034200930164    -0.000000592920    0.000001552281    0.037149243731    -0.065799086337
0.275     0.003461820384    -0.072133197841    0.000000040371    0.000002380704    0.016190073463    -0.046097061457    0.000000004734    0.000002376256
            0.000000040371    0.000002380704    0.019424486773    -0.073461025727    -0.000000116523    0.000001894894    0.027274628063    -0.043575272056
            0.016190073463    -0.046097061457    -0.000000116523    0.000001894894    0.004049885871    -0.072388166445    -0.000000157657    0.000001815307
            0.000000004734    0.000002376256    0.027274628063    -0.043575272056    -0.000000157657    0.000001815307    0.019622938462    -0.074013009355
0.300     -0.021023075924    -0.068375767533    0.000000753141    0.000002466369    -0.003055932021    -0.047108400577    0.000000713545    0.000002474215
            0.000000753141    0.000002466369    -0.001136194266    -0.076383782130    0.000000441467    0.000002014203    0.012576583333    -0.049349499423
            -0.003055932021    -0.047108400577    0.000000441467    0.000002014203    -0.020336043546    -0.068891119396    0.000000378223    0.000001944456
            0.000000713545    0.000002474215    0.012576583333    -0.049349499423    0.000000378223    0.000001944456    -0.000850145655    -0.077119554251
0.325     -0.044768365032    -0.056630109225    0.000001510375    0.000002324593    -0.023085324898    -0.041400068967    0.000001471098    0.000002346757
            0.000001510375    0.000002324593    -0.022967937318    -0.073213345995    0.000001051892    0.000001957148    -0.004275951660    -0.050446773975
            -0.023085324898    -0.041400068967    0.000001051892    0.000001957148    -0.044059191683    -0.057460513238    0.000000970172    0.000001904549
            0.000001471098    0.000002346757    -0.004275951660    -0.050446773975    0.000000970172    0.000001904549    -0.022633482520    -0.074179445946
0.350     -0.065052693424    -0.037244434869    0.000002235568    0.000001939821    -0.041520993853    -0.028820307189    0.000002201858    0.000001976648
            0.000002235568    0.000001939821    -0.044137218041    -0.063580072205    0.000001655504    0.000001705482    -0.021736291737    -0.046222749760
            -0.041520993853    -0.028820307189    0.000001655504    0.000001705482    -0.064420886988    -0.038417263159    0.000001561438    0.000001675803
            0.000002201858    0.000001976648    -0.021736291737    -0.046222749760    0.000001561438    0.000001675803    -0.043812276934    -0.064810264249
0.375     -0.079356293581    -0.011521557872    0.000002848453    0.000001323709    -0.056015661701    -0.010077688016    0.000002825733    0.000001373525
            0.000002848453    0.000001323709    -0.062627888388    -0.047745830380    0.000002188166    0.000001262423    -0.038083729301    -0.036555755864
            -0.056015661701    -0.010077688016    0.000002188166    0.000001262423    -0.078912588826    -0.013028209882    0.000002089707    0.000001259096
            0.000002825733    0.000001373525    -0.038083729301    -0.036555755864    0.000002089707    0.000001259096    -0.062384374539    -0.049254333656
0.400     -0.085718111847    0.018391581520    0.000003274440    0.000000514980    -0.064586559917    0.013312880366    0.000003267446    0.000000574160
            0.000003274440    0.000000514980    -0.076559618626    -0.026621077652    0.000002588136    0.000000652846    -0.051613151109    -0.021891974351
            -0.064586559917    0.013312880366    0.000002588136    0.000000652846    -0.085571068419    0.016599436348    0.000002494037    0.000000676427
            0.000003267446    0.000000574160    -0.051613151109    -0.021891974351    0.000002494037    0.000000676427    -0.076476039576    -0.028396918237
0.425     -0.083009324066    0.049764804189    0.000003455063    -0.000000423503    -0.065880366971    0.039223163538    0.000003467157    -0.000000360333
            0.000003455063    -0.000000423503    -0.084392747980    -0.001690311558    0.000002805071    -0.000000078367    -0.060816942405    -0.003212379311
            -0.065880366971    0.039223163538    0.000002805071    -0.000000078367    -0.083249968648    0.047773228144    0.000002723774    -0.000000030114
            0.000003467157    -0.000000360333    -0.060816942405    -0.003212379311    0.000002723774    -0.000000030114    -0.084545597744    -0.003695302668
0.450     -0.071095388053    0.079630582364    0.000003354562    -0.000001412274    -0.059356076568    0.065193475957    0.000003387130    -0.000001351524
            0.000003354562    -0.000001412274    -0.085111779841    0.025123801701    0.000002804911    -0.000000871937    -0.064562216790    0.018059575495
            -0.059356076568    0.065193475957    0.000002804911    -0.000000871937    -0.071784166285    0.077555572425    0.000002743726    -0.000000803859
            0.000003387130    -0.000001351524    -0.064562216790    0.018059575495    0.000002743726    -0.000000803859    -0.085564684633    0.022954104558
0.475     -0.050830638841    0.105152395094    0.000002964857    -0.000002364654    -0.045315327893    0.088743997083    0.000003017019    -0.000002313033
            0.000002964857    -0.000002364654    -0.078334037089    0.051653428422    0.000002574727    -0.000001661407    -0.062204332712    0.040204451743
            -0.045315327893    0.088743997083    0.000002574727    -0.000001661407    -0.051988231859    0.103127849063    0.000002539135    -0.000001580193
            0.000003017019    -0.000002313033    -0.062204332712    0.040204451743    0.000002539135    -0.000001580193    -0.079130058650    0.049404440523
0.500     -0.023927624194    0.123954582815    0.000002304443    -0.000003195824    -0.024830209596    0.107667444724    0.000002373222    -0.000003159428
            0.000002304443    -0.000003195824    -0.064358461307    0.075704179563    0.000002121636    -0.000002379819    -0.053658543788    0.061385972742
            -0.024830209596    0.107667444724    0.000002121636    -0.000002379819    -0.025530784445    0.122117720293    0.000002114856    -0.000002293505
            0.000002373222    -0.000003159428    -0.053658543788    0.061385972742    0.000002114856    -0.000002293505    -0.065512486121    0.073475545930
0.525     0.007279719216    0.134348858047    0.000001415820    -0.000003831838    0.000432154362    0.120230523339    0.000001496326    -0.000003815717
            0.000001415820    -0.000003831838    -0.044126299980    0.095266658141    0.000001471644    -0.000002966982    -0.039389219186    0.079825733375
            0.000432154362    0.120230523339    0.000001471644    -0.000002966982    0.005297114377    0.132826367526    0.000001494627    -0.000002884026
            0.000001496326    -0.000003815717    -0.039389219186    0.079825733375    0.000001494627    -0.000002884026    -0.045621899109    0.093162014864
0.550     0.040109604014    0.135461527794    0.000000359467    -0.000004214107    0.028411505115    0.125308888069    0.000000445562    -0.000004221567
            0.000000359467    -0.000004214107    -0.019125695557    0.108702546184    0.000000664837    -0.000003372318    -0.020358438172    0.093971157334
            0.028411505115    0.125308888069    0.000000664837    -0.000003372318    0.037851067806    0.134355852196    0.000000716219    -0.000003301151
            0.000000445562    -0.000004221567    -0.020358438172    0.093971157334    0.000000716219    -0.000003301151    -0.020914013204    0.106819666194
0.575     0.071798755791    0.127245463838    -0.000000792160    -0.000004303683    0.056857754318    0.122416215623    -0.000000707278    -0.000004336194
            -0.000000792160    -0.000004303683    0.008755382611    0.114874007499    -0.000000248048    -0.000003558415    0.002078631897    0.102610708263
            0.056857754318    0.122416215623    -0.000000248048    -0.000003558415    0.069396288026    0.126625542110    -0.000000171666    -0.000003506937
            -0.000000707278    -0.000004336194    0.002078631897    0.102610708263    -0.000000171666    -0.000003506937    0.006752386414    0.113295297657
0.600     0.099735590171    0.110429702924    -0.000001959746    -0.000004080594    0.083511086056    0.111704043583    -0.000001883275    -0.000004137722
            -0.000001959746    -0.000004080594    0.037398507991    0.113227772427    -0.000001209408    -0.000003500248    0.026293967584    0.104966645852
            0.083511086056    0.111704043583    -0.000001209408    -0.000003500248    0.097338831608    0.110323201525    -0.000001113464    -0.000003475420
            -0.000001883275    -0.000004137722    0.026293967584    0.104966645852    -0.000001113464    -0.000003475420    0.035282996816    0.112010941710
0.625     0.121637211988    0.086414556685    -0.000003062417    -0.000003544800    0.106238739847    0.093907623343    -0.000003001044    -0.000003624304
            -0.000003062417    -0.000003544800    0.064624570633    0.103814780523    -0.000002157477    -0.000003186722    0.050514483781    0.100728787123
            0.106238739847    0.093907623343    -0.000002157477    -0.000003186722    0.119401911203    0.086804352548    -0.000002049234    -0.000003194186
            -0.000003001044    -0.000003624304    0.050514483781    0.100728787123    -0.000002049234    -0.000003194186    0.062515627328    0.102987273840
0.650     0.135692659276    0.057153469568    -0.000004019758    -0.000002714220    0.123165146226    0.070301617915    -0.000003979715    -0.000002812147
            -0.000004019758    -0.000002714220    0.088360467753    0.087273588294    -0.000003027450    -0.000002619344    0.072952567939    0.090072540333
            0.123165146226    0.070301617915    -0.000003027450    -0.000002619344    0.133767264466    0.057976716434    -0.000002915741    -0.000002662926
            -0.000003979715    -0.000002812147    0.072952567939    0.090072540333    -0.000002915741    -0.000002662926    0.086383881285    0.086827917565
0.675     0.140664404967    0.025022604242    -0.000004755753    -0.000001625441    0.132771827209    0.042634252021    -0.000004742330    -0.000001736338
            -0.000004755753    -0.000001625441    0.106777206597    0.064771953087    -0.000003753691    -0.000001814634    0.091916351715    0.073634953859
            0.132771827209    0.042634252021    -0.000003753691    -0.000001814634    0.139177943538    0.026172762680    -0.000003648662    -0.000001895877
            -0.000004742330    -0.000001736338    0.091916351715    0.073634953859    -0.000003648662    -0.000001895877    0.105056781378    0.064663965529
0.700     0.135982682887    -0.007317216869    -0.000005200311    -0.000000333565    0.134026944723    0.013057166260    -0.000005217568    -0.000000450581
            -0.000005200311    -0.000000333565    0.118417355195    0.037924306260    -0.000004270680    -0.000000804736    0.105927977213    0.052482623741
            0.134026944723    0.013057166260    -0.000004270680    -0.000000804736    0.135031769104    -0.005985218764    -0.000004183220    -0.000000922374
            -0.000005217568    -0.000000450581    0.105927977213    0.052482623741    -0.000004183220    -0.000000922374    0.117063972299    0.038074349445
0.725     0.121818030224    -0.037075877217    -0.000005295017    0.000001087093    0.126493428850    -0.015976684895    -0.000005345506    0.000000972241
            -0.000005295017    0.000001087093    0.122289674108    0.008688103534    -0.000004518025    0.000000359513    0.113812720726    0.028051737067
            0.126493428850    -0.015976684895    -0.000004518025    0.000000359513    0.121455189364    -0.035736619558    -0.000004459037    0.000000209947
            -0.000005345506    0.000000972241    0.113812720726    0.028051737067    -0.000004459037    0.000000209947    0.121392000345    0.008983714421
0.750     0.099140408464    -0.061527572449    -0.000004997336    0.000002542772    0.110458856736    -0.041871682794    -0.000005081555    0.000002439326
            -0.000004997336    0.000002542772    0.117950808328    -0.020762235345    -0.000004444455    0.000001607109    0.114802385529    0.002070771952
            0.110458856736    -0.041871682794    -0.000004444455    0.000001607109    0.099364072505    -0.060371956494    -0.000004423839    0.000001433756
            -0.000005081555    0.000002439326    0.114802385529    0.002070771952    -0.000004423839    0.000001433756    0.117564985803    -0.020459141498
0.775     0.069732173932    -0.078240881986    -0.000004289812    0.000003923404    0.087011660277    -0.062100670833    -0.000004405796    0.000003841269
            -0.000004289812    0.000003923404    0.105553385799    -0.048173823892    -0.000004017620    0.000002847809    0.108603644525    -0.023539579673
            0.087011660277    -0.062100670833    -0.000004017620    0.000002847809    0.070480554164    -0.077459703172    -0.000004043000    0.000002662026
