# GHz S RI R 45
0.000     0.022429594562    0.001894973095    0.000000394267    0.000000513353    0.000831152834    0.001620271317    0.000000564094    0.000000784761
            0.000000394272    0.000000513353    0.021810392430    0.001403866984    0.000000586104    0.000000810023    0.000734169958    0.001210749460
            0.000831152721    0.001620271375    0.000000586369    0.000000810023    0.022375003312    0.001882704488    0.000000813690    0.000001180740
            0.000000564092    0.000000784761    0.000734169958    0.001210749460    0.000000813713    0.000001180740    0.021640261863    0.001399216990
0.025     0.028207388857    0.009896861909    0.000000911772    0.000000972767    0.003167120951    0.010258088436    0.000001333239    0.000001494473
            0.000000911770    0.000000972763    0.026941196231    0.008602198738    0.000001383038    0.000001558859    0.002673398209    0.008990614520
            0.003164852715    0.010261040523    0.000001383038    0.000001558862    0.028131730949    0.009856823859    0.000001948236    0.000002261161
            0.000001333243    0.000001494476    0.002673174793    0.008990902227    0.000001948237    0.000002261161    0.026875649484    0.008554275490
0.050     0.036433041732    0.013700996982    0.000001912941    0.000001273039    0.009690991025    0.018496890933    0.000002838877    0.000001998110
            0.000001912941    0.000001273039    0.034119462285    0.011829009932    0.000002936597    0.000002097055    0.008189294024    0.016377857828
            0.009690964008    0.018496926537    0.000002936597    0.000002097055    0.036323517566    0.013630547386    0.000004183759    0.000003073527
            0.000002838877    0.000001998110    0.008189282876    0.016377863402    0.000004183759    0.000003073527    0.034035909139    0.011762249893
0.075     0.045918640873    0.013393224146    0.000003013705    0.000000987614    0.019144705518    0.023187109150    0.000004521369    0.000001634538
            0.000003013705    0.000000987614    0.042395350263    0.011609408509    0.000004676609    0.000001742664    0.016283776484    0.020869265880
            0.019144698347    0.023187111181    0.000004676609    0.000001742664    0.045778355453    0.013327582119    0.000006713232    0.000002615704
            0.000004521369    0.000001634539    0.016283769790    0.020869268566    0.000006713232    0.000002615704    0.042300491552    0.011535615109
0.100     0.055340293224    0.008484913870    0.000004002549    0.000000127919    0.029889954889    0.023452950029    0.000006072503    0.000000407828
            0.000004002549    0.000000127919    0.050768802653    0.007507006064    0.000006285942    0.000000497353    0.025659296299    0.021703255482
            0.029889954889    0.023452950029    0.000006285942    0.000000497353    0.055182935378    0.008446752187    0.000009091935    0.000000878042
            0.000006072503    0.000000407828    0.025659297062    0.021703256128    0.000009091935    0.000000878042    0.050676311972    0.007438347894
0.125     0.062811334720    -0.000903742415    0.000004640082    -0.000001240179    0.040101074463    0.019041140534    0.000007137283    -0.000001601548
            0.000004640082    -0.000001240179    0.057715947051    -0.000475651636    0.000007398298    -0.000001558076    0.034855509778    0.018599909069
            0.040101074463    0.019041140534    0.000007398298    -0.000001558076    0.062663144249    -0.000898184562    0.000010800538    -0.000002044390
            0.000007137283    -0.000001601548    0.034855510011    0.018599910756    0.000010800538    -0.000002044390    0.057647528985    -0.000534193911
0.150     0.066647924132    -0.014020968393    0.000004729449    -0.000002951865    0.047987317287    0.010380467077    0.000007414924    -0.000004166072
            0.000004729449    -0.000002951865    0.061802484399    -0.011783860500    0.000007702491    -0.000004191182    0.042413174149    0.011795943459
            0.047987317287    0.010380467077    0.000007702491    -0.000004191182    0.066546613266    -0.013965191785    0.000011383241    -0.000005834844
            0.000007414924    -0.000004166072    0.042413175458    0.011795946216    0.000011383240    -0.000005834844    0.061784153271    -0.011832536829
0.175     0.065368405401    -0.029393732456    0.000004136922    -0.000004784226    0.051988589477    -0.001493281220    0.000006691462    -0.000006970042
            0.000004136922    -0.000004784226    0.061765541128    -0.025326126964    0.000006975790    -0.000007077599    0.047012366870    0.002019581799
            0.051988589477    -0.001493281220    0.000006975790    -0.000007077599    0.065356407181    -0.029300386253    0.000010510071    -0.000010047598
            0.000006691462    -0.000006970042    0.047012372209    0.002019597318    0.000010510071    -0.000010047598    0.061826673163    -0.025379750909
0.200     0.058133839330    -0.045064111600    0.000002817843    -0.000006468835    0.050985787959    -0.015025780292    0.000004878083    -0.000009624601
            0.000002817843    -0.000006468835    0.056784669301    -0.039590687388    0.000005124525    -0.000009816737    0.047643073237    -0.009575409937
            0.050985787959    -0.015025780292    0.000005124525    -0.000009816737    0.058251184940    -0.044966105717    0.000008025042    -0.000014124371
            0.000004878083    -0.000009624601    0.047643073237    -0.009575409937    0.000008025042    -0.000014124371    0.056951088615    -0.039678461748
0.225     0.044823224809    -0.058830404345    0.000000825526    -0.000007724864    0.044449395116    -0.028311988236    0.000002026449    -0.000011714842
            0.000000825526    -0.000007724864    0.046577836312    -0.052814644169    0.000002200165    -0.000011980884    0.043722598570    -0.021526073237
            0.044449395116    -0.028311988236    0.000002200165    -0.000011980884    0.045097949854    -0.058780394672    0.000003971849    -0.000017459253
            0.000002026449    -0.000011714842    0.043722598570    -0.021526073237    0.000003971849    -0.000017459253    0.046865303054    -0.052979302173
0.250     0.026116746247    -0.068495132382    -0.000001680250    -0.000008294825    0.032550866504    -0.039313103895    -0.000001656401    -0.000012850344
            -0.000001680250    -0.000008294825    0.031490461981    -0.063171404491    -0.000001585841    -0.000013167606    0.035189722111    -0.032212030007
            0.032550866504    -0.039313103895    -0.000001585841    -0.000013167606    0.026557263764    -0.068560411466    -0.000001380835    -0.000019471611
            -0.000001656401    -0.000012850344    0.035189722111    -0.032212030007    -0.000001380835    -0.000019471611    0.031899030246    -0.063464949795
0.275     0.003461820384    -0.072133197841    -0.000004444419    -0.000007981374    0.016190073463    -0.046097061457    -0.000005821847    -0.000012718632
            -0.000004444419    -0.000007981374    0.012483648467    -0.068979086714    -0.000005877010    -0.000013054643    0.022541144062    -0.040027936692
            0.016190073463    -0.046097061457    -0.000005877010    -0.000013054643    0.004049885871    -0.072388166445    -0.000007557865    -0.000019682094
            -0.000005821847    -0.000012718632    0.022541144062    -0.040027936692    -0.000007557865    -0.000019682094    0.012993534330    -0.069456966524
0.300     -0.021023075924    -0.068375767533    -0.000007136680    -0.000006687130    -0.003055932021    -0.047108400577    -0.000010005052    -0.000011142156
            -0.000007136680    -0.000006687130    -0.008914061774    -0.068916270040    -0.000010198175    -0.000011457574    0.006816722512    -0.043579724305
            -0.003055932021    -0.047108400577    -0.000010198175    -0.000011457574    -0.020336043546    -0.068891119396    -0.000013910393    -0.000017793882
            -0.000010005052    -0.000011142156    0.006816722512    -0.043579724305    -0.000013910393    -0.000017793882    -0.008344826559    -0.069630103454
0.325     -0.044768365032    -0.056630109225    -0.000009391733    -0.000004442462    -0.023085324898    -0.041400068967    -0.000013679189    -0.000008119774
            -0.000009391733    -0.000004442462    -0.030748985172    -0.062198788762    -0.000014010629    -0.000008371232    -0.010485690492    -0.041861873938
            -0.023085324898    -0.041400068967    -0.000014010629    -0.000008371232    -0.044059191683    -0.057460513238    -0.000019689132    -0.000013751377
            -0.000013679189    -0.000008119774    -0.010485690492    -0.041861873938    -0.000019689132    -0.000013751377    -0.030182937970    -0.063187041558
0.350     -0.065052693424    -0.037244434869    -0.000010863059    -0.000001421879    -0.041520993853    -0.028820307189    -0.000016327459    -0.000003853643
            -0.000010863059    -0.000001421879    -0.050835925154    -0.048728477924    -0.000016784873    -0.000003996848    -0.027561343890    -0.034414919207
            -0.041520993853    -0.028820307189    -0.000016784873    -0.000003996848    -0.064420886988    -0.038417263159    -0.000024139608    -0.000007780809
            -0.000016327459    -0.000003853643    -0.027561343890    -0.034414919207    -0.000024139608    -0.000007780809    -0.050352307218    -0.050008706111
0.375     -0.079356293581    -0.011521557872    -0.000011282685    0.000002069976    -0.056015661701    -0.010077688016    -0.000017525108    0.000001264166
            -0.000011282685    0.000002069976    -0.067003828366    -0.029145997482    -0.000018082380    0.000001271522    -0.042498767747    -0.021411748326
            -0.056015661701    -0.010077688016    -0.000018082380    0.000001271522    -0.078912588826    -0.013028209882    -0.000026612295    -0.000000378608
            -0.000017525108    0.000001264166    -0.042498767747    -0.021411748326    -0.000026612295    -0.000000378608    -0.066690125596    -0.030708403937
0.400     -0.085718111847    0.018391581520    -0.000010514334    0.000005636704    -0.064586559917    0.013312880366    -0.000017015760    0.000006696669
            -0.000010514334    0.000005636704    -0.077360983552    -0.004808908919    -0.000017632498    0.000006890710    -0.053516969234    -0.003672801029
            -0.064586559917    0.013312880366    -0.000017632498    0.000006890710    -0.085571068419    0.016599436348    -0.000026667103    0.000007739672
            -0.000017015760    0.000006696669    -0.053516969234    -0.003672801029    -0.000026667103    0.000007739672    -0.077303395464    -0.006612954710
0.425     -0.083009324066    0.049764804189    -0.000008581451    0.000008853332    -0.065880366971    0.039223163538    -0.000014756045    0.000011842491
            -0.000008581451    0.000008853332    -0.080528750613    0.022342195482    -0.000015378258    0.000012248093    -0.059180182355    0.017415968892
            -0.065880366971    0.039223163538    -0.000015378258    0.000012248093    -0.083249968648    0.047773228144    -0.000024141511    0.000015738157
            -0.000014756045    0.000011842491    -0.059180182355    0.017415968892    -0.000024141511    0.000015738157    -0.080800486316    0.020367101648
0.450     -0.071095388053    0.079630582364    -0.000005665713    0.000011335304    -0.059356076568    0.065193475957    -0.000010924628    0.000016126773
            -0.000005665713    0.000011335304    -0.075824190966    0.049991905422    -0.000011487531    0.000016751464    -0.058581960159    0.040059454064
            -0.059356076568    0.065193475957    -0.000011487531    0.000016751464    -0.071784166285    0.077555572425    -0.000019176794    0.000022776103
            -0.000010924628    0.000016126773    -0.058581960159    0.040059454064    -0.000019176794    0.000022776103    -0.076474860110    0.047941403463
0.475     -0.050830638841    0.105152395094    -0.000002070912    0.000012796647    -0.045315327893    0.088743997083    -0.000005884511    0.000019083130
            -0.000002070912    0.000012796647    -0.063338177277    0.075709469705    -0.000006318696    0.000019911988    -0.051438601097    0.062260627161
            -0.045315327893    0.088743997083    -0.000006318696    0.000019911988    -0.051988231859    0.103127849063    -0.000012184713    0.000028119258
            -0.000005884511    0.000019083130    -0.051438601097    0.062260627161    -0.000012184713    0.000028119258    -0.064385705988    0.073694687872
0.500     -0.023927624194    0.123954582815    0.000001829930    0.000013084560    -0.024830209596    0.107667444724    -0.000000121632    0.000020408322
            0.000001829930    0.000013084560    -0.043923722063    0.097216058673    -0.000000361826    0.000021401555    -0.038112092292    0.082047646833
            -0.024830209596    0.107667444724    -0.000000361826    0.000021401555    -0.025530784445    0.122117720293    -0.000003782650    0.000031223003
            -0.000000121632    0.000020408322    -0.038112092292    0.082047646833    -0.000003782650    0.000031223003    -0.045349842796    0.095353596200
0.525     0.007279719216    0.134348858047    0.000005653859    0.000012182728    0.000432154362    0.120230523339    0.000005830468    0.000019979074
            0.000005653859    0.000012182728    -0.019085620923    0.112613189533    0.000005835238    0.000021073202    -0.019540640357    0.097667058159
            0.000432154362    0.120230523339    0.000005835238    0.000021073202    0.005297114377    0.132826367526    0.000005296845    0.000031772399
            0.000005830468    0.000019979074    -0.019540640357    0.097667058159    0.000005296845    0.000031772399    -0.020835323617    0.111012671226
0.550     0.040109604014    0.135461527794    0.000009054660    0.000010193017    0.028411505115    0.125308888069    0.000011453518    0.000017840812
            0.000009054660    0.000010193017    0.009187944687    0.120557219664    0.000011730905    0.000018955041    0.002874697100    0.107746127957
            0.028411505115    0.125308888069    0.000011730905    0.000018955041    0.037851067806    0.134355852196    0.000014287796    0.000029689048
            0.000011453518    0.000017840812    0.002874697100    0.107746127957    0.000014287796    0.000029689048    0.007203313858    0.119309467619
0.575     0.071798755791    0.127245463838    0.000011751887    0.000007302424    0.056857754318    0.122416215623    0.000016289703    0.000014173376
            0.000011751887    0.000007302424    0.038626900712    0.120350110024    0.000016837815    0.000015219188    0.027419546625    0.111379319102
            0.056857754318    0.122416215623    0.000016837815    0.000015219188    0.069396288026    0.126625542110    0.000022458907    0.000025104412
            0.000016289703    0.000014173376    0.027419546625    0.111379319102    0.000022458907    0.000025104412    0.036522647343    0.119517925100
0.600     0.099735590171    0.110429702924    0.000013540579    0.000003750396    0.083511086056    0.111704043583    0.000019963967    0.000009256570
            0.000013540579    0.000003750396    0.066883909013    0.111970966030    0.000020750028    0.000010149602    0.052217046672    0.108182722151
            0.083511086056    0.111704043583    0.000020750028    0.000010149602    0.097338831608    0.110323201525    0.000029157791    0.000018329282
            0.000019963967    0.000009256570    0.052217046672    0.108182722151    0.000029157791    0.000018329282    0.064792705697    0.111581596350
0.625     0.121637211988    0.086414556685    0.000014288076    -0.000000196861    0.106238739847    0.093907623343    0.000022189046    0.000003436776
            0.000014288076    -0.000000196861    0.091714822489    0.096043843698    0.000023152958    0.000004108430    0.075364800504    0.098287515810
            0.106238739847    0.093907623343    0.000023152958    0.000004108430    0.119401911203    0.086804352548    0.000033836699    0.000009815856
            0.000022189046    0.000003436776    0.075364800504    0.098287515810    0.000033836699    0.000009815856    0.089777224635    0.096084721141
0.650     0.135692659276    0.057153469568    0.000013924964    -0.000004261197    0.123165146226    0.070301617915    0.000022764755    -0.000002890733
            0.000013924964    -0.000004261197    0.111139977141    0.073772467451    0.000023826949    -0.000002484645    0.095063243982    0.082325074422
            0.123165146226    0.070301617915    0.000023826949    -0.000002484645    0.133767264466    0.057976716434    0.000036070087    0.000000134036
            0.000022764755    -0.000002890733    0.095063243982    0.082325074422    0.000036070087    0.000000134036    0.109491726433    0.074189801201
0.675     0.140664404967    0.025022604242    0.000012438411    -0.000008157513    0.132771827209    0.042634252021    0.000021575562    -0.000009292660
            0.000012438411    -0.000008157513    0.123567509998    0.046847634967    0.000022647989    -0.000009166947    0.109718433009    0.061381373521
            0.132771827209    0.042634252021    0.000022647989    -0.000009166947    0.139177943538    0.026172762680    0.000035567502    -0.000010050578
            0.000021575562    -0.000009292660    0.109718433009    0.061381373521    0.000035567502    -0.000010050578    0.122328857559    0.047547521111
0.700     0.135982682887    -0.007317216869    0.000009873475    -0.000011593982    0.134026944723    0.013057166260    0.000018600466    -0.000015301064
            0.000009873475    -0.000011593982    0.127901658964    0.017337363927    0.000019598040    -0.000015441394    0.118053868935    0.036947162024
            0.134026944723    0.013057166260    0.000019598040    -0.000015441394    0.135031769104    -0.005985218764    0.000032198366    -0.000019992273
            0.000018600466    -0.000015301064    0.118053868935    0.036947162024    0.000032198366    -0.000019992273    0.127165436164    0.018190312709
0.725     0.121818030224    -0.037075877217    0.000006342112    -0.000014274309    0.126493428850    -0.015976684895    0.000013929696    -0.000020421541
            0.000006342112    -0.000014274309    0.123623309770    -0.012435193995    0.000014779795    -0.000020789386    0.119199298646    0.010846630899
            0.126493428850    -0.015976684895    0.000014779795    -0.000020789386    0.121455189364    -0.035736619558    0.000026019020    -0.000028889372
            0.000013929696    -0.000020421541    0.119199298646    0.010846630899    0.000026019020    -0.000028889372    0.123444905732    -0.011587719490
0.750     0.099140408464    -0.061527572449    0.000002040921    -0.000015910055    0.110458856736    -0.041871682794    0.000007793280    -0.000024155139
            0.000002040921    -0.000015910055    0.110858249587    -0.040039754128    0.000008442049    -0.000024696014    0.112797595917    -0.014861940828
            0.110458856736    -0.041871682794    0.000008442049    -0.000024696014    0.099364072505    -0.060371956494    0.000017312676    -0.000035925845
            0.000007793280    -0.000024155139    0.112797595917    -0.014861940828    0.000017312676    -0.000035925845    0.111245907813    -0.039373786494
0.775     0.069732173932    -0.078240881986    -0.000002733406    -0.000016247864    0.087011660277    -0.062100670833    0.000000585035    -0.000026040328
            -0.000002733406    -0.000016247864    0.090413590366    -0.063103892023    0.000000998111    -0.000026692535    0.099077866184    -0.038014203237
            0.087011660277    -0.062100670833    0.000000998111    -0.000026692535    0.070480554164    -0.077459703172    0.000006616681    -0.000040336611
            0.000000585035    -0.000026040328    0.099077866184    -0.038014203237    0.000006616681    -0.000040336611    0.091322611770    -0.062799626632
