# GHz S RI R 45
0.000     0.022429594562    0.001894973095    -0.000005132508    -0.000010695882    0.000831152834    0.001620271317    -0.000005987777    -0.000012916199
            -0.000005132280    -0.000010695880    0.023203679552    0.001678143403    -0.000003871169    -0.000009076403    0.000942238003    0.001643754885
            0.000831152721    0.001620271375    -0.000003871437    -0.000009076403    0.022375003312    0.001882704488    -0.000004867750    -0.000010764402
            -0.000005987805    -0.000012916198    0.000942237309    0.001643754938    -0.000004867734    -0.000010764401    0.023135595132    0.001664772815
0.025     0.028207388857    0.009896861909    -0.000011959277    -0.000023229016    0.003167120951    0.010258088436    -0.000014154598    -0.000027565782
            -0.000011959284    -0.000023229010    0.027951963519    0.010074435215    -0.000009655365    -0.000019462419    0.002570434167    0.011032808524
            0.003164852715    0.010261040523    -0.000009655370    -0.000019462428    0.028131730949    0.009856823859    -0.000011401512    -0.000021655188
            -0.000014154603    -0.000027565778    0.002571000736    0.011031810920    -0.000011401494    -0.000021655181    0.027889263050    0.010018205639
0.050     0.036433041732    0.013700996982    -0.000026992875    -0.000039507049    0.009690991025    0.018496890933    -0.000031878093    -0.000046731063
            -0.000026992876    -0.000039507050    0.033526319475    0.015145680169    -0.000022259596    -0.000033015227    0.007309961796    0.020806970224
            0.009690964008    0.018496926537    -0.000022259596    -0.000033015227    0.036323517566    0.013630547386    -0.000025592009    -0.000036551594
            -0.000031878093    -0.000046731064    0.007310025138    0.020806991427    -0.000025592009    -0.000036551593    0.033395391312    0.015051342393
0.075     0.045918640873    0.013393224146    -0.000046916056    -0.000049409873    0.019144705518    0.023187109150    -0.000055298634    -0.000058485560
            -0.000046916047    -0.000049409881    0.039296388564    0.017822289878    -0.000038959032    -0.000041212226    0.014299191870    0.028306351063
            0.019144698347    0.023187111181    -0.000038959032    -0.000041212226    0.045778355453    0.013327582119    -0.000044207654    -0.000045393296
            -0.000055298635    -0.000058485561    0.014299197218    0.028306350602    -0.000044207654    -0.000045393295    0.039101743902    0.017730481052
0.100     0.055340293224    0.008484913870    -0.000069927432    -0.000052428379    0.029889954889    0.023452950029    -0.000082403684    -0.000062236699
            -0.000069927432    -0.000052428379    0.044693139785    0.018129152987    -0.000058216240    -0.000043609578    0.022465817085    0.033016801460
            0.029889954889    0.023452950029    -0.000058216240    -0.000043609578    0.055182935378    0.008446752187    -0.000065567884    -0.000047777103
            -0.000082403684    -0.000062236699    0.022465816495    0.033016803071    -0.000065567884    -0.000047777103    0.044441345342    0.018077454923
0.125     0.062811334720    -0.000903742415    -0.000094161324    -0.000048290325    0.040101074463    0.019041140534    -0.000111064473    -0.000057617901
            -0.000094161324    -0.000048290325    0.048804688318    0.016420618120    -0.000078445091    -0.000039984775    0.030676101864    0.034851810385
            0.040101074463    0.019041140534    -0.000078445091    -0.000039984775    0.062663144249    -0.000898184562    -0.000087934699    -0.000043486544
            -0.000111064473    -0.000057617901    0.030676101864    0.034851810385    -0.000087934699    -0.000043486544    0.048519208457    0.016438865515
0.150     0.066647924132    -0.014020968393    -0.000117911879    -0.000037286307    0.047987317287    0.010380467077    -0.000139302943    -0.000044872806
            -0.000117911879    -0.000037286307    0.050821970489    0.013359854993    -0.000098204164    -0.000030610226    0.037875413994    0.034162211372
            0.047987317287    0.010380467077    -0.000098204164    -0.000030610226    0.066546613266    -0.013965191785    -0.000109720034    -0.000032829918
            -0.000139302943    -0.000044872806    0.037875413994    0.034162211372    -0.000109720034    -0.000032829918    0.050547440743    0.013470695016
0.175     0.065368405401    -0.029393732456    -0.000139941316    -0.000019798322    0.051988589477    -0.001493281220    -0.000165626985    -0.000024381197
            -0.000139941316    -0.000019798322    0.050323006660    0.010001650254    -0.000116454079    -0.000015815687    0.043226598612    0.031654949448
            0.051988589477    -0.001493281220    -0.000116454079    -0.000015815687    0.065356407181    -0.029300386253    -0.000129788257    -0.000016186824
            -0.000165626985    -0.000024381197    0.043226598612    0.031654949448    -0.000129788257    -0.000016186824    0.050112251094    0.010202762309
0.200     0.058133839330    -0.045064111600    -0.000159230644    0.000003857810    0.050985787959    -0.015025780292    -0.000188771705    0.000003525858
            -0.000159230644    0.000003857810    0.047296062836    0.007510361268    -0.000132335376    0.000004115342    0.046230439110    0.028311301583
            0.050985787959    -0.015025780292    -0.000132335376    0.000004115342    0.058251184940    -0.044966105717    -0.000147202388    0.000006136022
            -0.000188771705    0.000003525858    0.046230439110    0.028311301583    -0.000147202388    0.000006136022    0.047200076350    0.007773460966
0.225     0.044823224809    -0.058830404345    -0.000174675698    0.000033554471    0.044449395116    -0.028311988236    -0.000207358195    0.000038706363
            -0.000174675698    0.000033554471    0.042195450576    0.007000201378    -0.000144920713    0.000029061402    0.046807816136    0.025236326910
            0.044449395116    -0.028311988236    -0.000144920713    0.000029061402    0.045097949854    -0.058780394672    -0.000160932671    0.000034019836
            -0.000207358195    0.000038706363    0.046807816136    0.025236326910    -0.000160932671    0.000034019836    0.042252015553    0.007272647916
0.250     0.026116746247    -0.068495132382    -0.000184873711    0.000069179121    0.032550866504    -0.039313103895    -0.000219668289    0.000080983203
            -0.000184873711    0.000069179121    0.035908342854    0.009386869656    -0.000153032798    0.000058900774    0.045331014973    0.023502845088
            0.032550866504    -0.039313103895    -0.000153032798    0.000058900774    0.026557263764    -0.068560411466    -0.000169655830    0.000067346894
            -0.000219668289    0.000080983203    0.045331014973    0.023502845088    -0.000169655830    0.000067346894    0.036132394811    0.009598452545
0.275     0.003461820384    -0.072133197841    -0.000187916457    0.000110334682    0.016190073463    -0.046097061457    -0.000223423132    0.000129817771
            -0.000187916457    0.000110334682    0.029673594415    0.015201155765    -0.000155072664    0.000093270242    0.042588574721    0.023967189739
            0.016190073463    -0.046097061457    -0.000155072664    0.000093270242    0.004049885871    -0.072388166445    -0.000171566503    0.000105714711
            -0.000223423132    0.000129817771    0.042588574721    0.023967189739    -0.000171566503    0.000105714711    0.030049482070    0.015274223856
0.300     -0.021023075924    -0.068375767533    -0.000181524987    0.000155903049    -0.003055932021    -0.047108400577    -0.000215958714    0.000183821011
            -0.000181524987    0.000155903049    0.024921653181    0.024477284420    -0.000149140465    0.000131193194    0.039686774253    0.027118741562
            -0.003055932021    -0.047108400577    -0.000149140465    0.000131193194    -0.020336043546    -0.068891119396    -0.000164511484    0.000148022804
            -0.000215958714    0.000183821011    0.039686774253    0.027118741562    -0.000164511484    0.000148022804    0.025400751320    0.024339636581
0.325     -0.044768365032    -0.056630109225    -0.000163370692    0.000203667855    -0.023085324898    -0.041400068967    -0.000194600950    0.000240335230
            -0.000163370692    0.000203667855    0.023069798649    0.036668210122    -0.000133314598    0.000170760251    0.037879103883    0.032956419786
            -0.023085324898    -0.041400068967    -0.000133314598    0.000170760251    -0.044059191683    -0.057460513238    -0.000146323142    0.000192099531
            -0.000194600950    0.000240335230    0.037879103883    0.032956419786    -0.000146323142    0.000192099531    0.023573195376    0.036267487210
0.350     -0.065052693424    -0.037244434869    -0.000131746649    0.000250197631    -0.041520993853    -0.028820307189    -0.000157417692    0.000295334388
            -0.000131746649    0.000250197631    0.025288597715    0.050684878854    -0.000106220657    0.000209043639    0.038360936253    0.040961669888
            -0.041520993853    -0.028820307189    -0.000106220657    0.000209043639    -0.064420886988    -0.038417263159    -0.000115462655    0.000234624428
            -0.000157417692    0.000295334388    0.038360936253    0.040961669888    -0.000115462655    0.000234624428    0.025716453889    0.050000093080
0.375     -0.079356293581    -0.011521557872    -0.000086223620    0.000291074869    -0.056015661701    -0.010077688016    -0.000103961444    0.000343682332
            -0.000086223620    0.000291074869    0.032284881691    0.065002097465    -0.000067596163    0.000242304533    0.042047663708    0.050144813882
            -0.056015661701    -0.010077688016    -0.000067596163    0.000242304533    -0.078912588826    -0.013028209882    -0.000071645254    0.000271358546
            -0.000103961444    0.000343682332    0.042047663708    0.050144813882    -0.000071645254    0.000271358546    0.032529604496    0.064052343219
0.400     -0.085718111847    0.018391581520    -0.000028176253    0.000321596527    -0.064586559917    0.013312880366    -0.000035854978    0.000379938715
            -0.000028176253    0.000321596527    0.044153664066    0.077884486250    -0.000018717482    0.000266608088    0.049408586911    0.059206313223
            -0.064586559917    0.013312880366    -0.000018717482    0.000266608088    -0.085571068419    0.016599436348    -0.000016361072    0.000297839301
            -0.000035854978    0.000379938715    0.049408586911    0.059206313223    -0.000016361072    0.000297839301    0.044116741100    0.076729802512
0.425     -0.083009324066    0.049764804189    0.000039137123    0.000337621681    -0.065880366971    0.039223163538    0.000043139495    0.000399318107
            0.000039137123    0.000337621681    0.060327517130    0.087635642302    0.000037549924    0.000278554295    0.060369229928    0.066736814674
            -0.065880366971    0.039223163538    0.000037549924    0.000278554295    -0.083249968648    0.047773228144    0.000047112624    0.000310215300
            0.000043139495    0.000399318107    0.060369229928    0.066736814674    0.000047112624    0.000310215300    0.059935137395    0.086371166833
0.450     -0.071095388053    0.079630582364    0.000110981881    0.000336468700    -0.059356076568    0.065193475957    0.000127548341    0.000398695877
            0.000110981881    0.000336468700    0.079651023487    0.092861891027    0.000097128951    0.000276032956    0.074332367946    0.071451114344
            -0.059356076568    0.065193475957    0.000097128951    0.000276032956    -0.071784166285    0.077555572425    0.000114098014    0.000306106887
            0.000127548341    0.000398695877    0.074332367946    0.071451114344    0.000114098014    0.000306106887    0.078867028163    0.091606804920
0.475     -0.050830638841    0.105152395094    0.000181922045    0.000317383949    -0.045315327893    0.088743997083    0.000211088227    0.000377162394
            0.000181922045    0.000317383949    0.100541069332    0.092660544283    0.000155428656    0.000258598854    0.090269773980    0.072364093976
            -0.045315327893    0.088743997083    0.000155428656    0.000258598854    -0.051988231859    0.103127849063    0.000179310241    0.000285048941
            0.000211088227    0.000377162394    0.090269773980    0.072364093976    0.000179310241    0.000285048941    0.099372310338    0.091543295216
0.500     -0.023927624194    0.123954582815    0.000246745030    0.000281655645    -0.024830209596    0.107667444724    0.000287716246    0.000336151911
            0.000246745030    0.000281655645    0.121213834768    0.086732745853    0.000208134317    0.000227526039    0.106890160300    0.068918040100
            -0.024830209596    0.107667444724    0.000208134317    0.000227526039    -0.025530784445    0.122117720293    0.000237782651    0.000248567025
            0.000287716246    0.000336151911    0.106890160300    0.068918040100    0.000237782651    0.000248567025    0.119711149047    0.085873316158
0.525     0.007279719216    0.134348858047    0.000301231089    0.000232191827    0.000432154362    0.120230523339    0.000352500268    0.000278996330
            0.000301231089    0.000232191827    0.139902198113    0.075383156909    0.000251826545    0.000185417411    0.122798566771    0.061015212491
            0.000432154362    0.120230523339    0.000251826545    0.000185417411    0.005297114377    0.132826367526    0.000285592575    0.000199747622
            0.000352500268    0.000278996330    0.122798566771    0.061015212491    0.000285592575    0.000199747622    0.138156307590    0.074880254752
0.550     0.040109604014    0.135461527794    0.000342638006    0.000172949639    0.028411505115    0.125308888069    0.000402238302    0.000210240534
            0.000342638006    0.000172949639    0.155059275496    0.059458092909    0.000284406574    0.000135668864    0.136662986268    0.049005369288
            0.028411505115    0.125308888069    0.000284406574    0.000135668864    0.037851067806    0.134355852196    0.000320359020    0.000142621087
            0.000402238302    0.000210240534    0.136662986268    0.049005369288    0.000320359020    0.000142621087    0.153188899775    0.059375384353
0.575     0.071798755791    0.127245463838    0.000369830001    0.000108194503    0.056857754318    0.122416215623    0.000435569787    0.000134826115
            0.000369830001    0.000108194503    0.165488750959    0.040222829664    0.000305108821    0.000081861492    0.147321890386    0.033620778012
            0.056857754318    0.122416215623    0.000305108821    0.000081861492    0.069396288026    0.126625542110    0.000341312501    0.000081434834
            0.000435569787    0.000134826115    0.147321890386    0.033620778012    0.000341312501    0.000081434834    0.163629987027    0.040582825903
0.600     0.099735590171    0.110429702924    0.000383170300    0.000041929128    0.083511086056    0.111704043583    0.000452905473    0.000057364738
            0.000383170300    0.000041929128    0.170443509314    0.019228349187    0.000314403149    0.000027269015    0.153887042394    0.015907140731
            0.083511086056    0.111704043583    0.000314403149    0.000027269015    0.097338831608    0.110323201525    0.000349167413    0.000020053173
            0.000452905473    0.000057364738    0.153887042394    0.015907140731    0.000349167413    0.000020053173    0.168734440052    0.020008320748
0.625     0.121637211988    0.086414556685    0.000384174469    -0.000022602644    0.106238739847    0.093907623343    0.000455995899    -0.000018431973
            0.000384174469    -0.000022602644    0.169661226769    -0.001827601199    0.000313660402    -0.000025514485    0.155795042064    -0.002864300426
            0.106238739847    0.093907623343    0.000313660402    -0.000025514485    0.119401911203    0.086804352548    0.000345731747    -0.000038503122
            0.000455995899    -0.000018431973    0.155795042064    -0.002864300426    0.000345731747    -0.000038503122    0.168228520971    -0.000695825658
0.650     0.135692659276    0.057153469568    0.000375144256    -0.000083217750    0.123165146226    0.070301617915    0.000447471527    -0.000090097405
            0.000375144256    -0.000083217750    0.163389332457    -0.021233491953    0.000304841605    -0.000074779208    0.152875500862    -0.021276195981
            0.123165146226    0.070301617915    0.000304841605    -0.000074779208    0.133767264466    0.057976716434    0.000333508287    -0.000092359474
            0.000447471527    -0.000090097405    0.152875500824    -0.021276196248    0.000333508287    -0.000092359474    0.162334202543    -0.019858033044
0.675     0.140664404967    0.025022604242    0.000358654025    -0.000138938906    0.132771827209    0.042634252021    0.000430225673    -0.000156634656
            0.000358654025    -0.000138938906    0.152371598232    -0.037391081683    0.000290080273    -0.000119814032    0.145381399342    -0.037869167063
            0.132771827209    0.042634252021    0.000290080273    -0.000119814032    0.139177943538    0.026172762680    0.000315151126    -0.000140880504
            0.000430225673    -0.000156634656    0.145381399342    -0.037869167063    0.000315151126    -0.000140880504    0.151756557542    -0.035912407260
0.700     0.135982682887    -0.007317216869    0.000337068523    -0.000190063874    0.134026944723    0.013057166260    0.000406830831    -0.000218440297
            0.000337068523    -0.000190063874    0.137831663777    -0.048952027593    0.000271310480    -0.000160924835    0.134036011947    -0.051259580688
            0.134026944723    0.013057166260    0.000271310480    -0.000160924835    0.135031769104    -0.005985218764    0.000292983332    -0.000184679405
            0.000406830831    -0.000218440297    0.134036011947    -0.051259580688    0.000292983332    -0.000184679405    0.137669926215    -0.047529797797
0.725     0.121818030224    -0.037075877217    0.000311961948    -0.000237930545    0.126493428850    -0.015976684895    0.000378855106    -0.000277095735
            0.000311961948    -0.000237930545    0.121410900957    -0.054961615072    0.000249802801    -0.000199242240    0.120019672635    -0.060296014503
            0.126493428850    -0.015976684895    0.000249802801    -0.000199242240    0.121455189364    -0.035736619558    0.000268445712    -0.000225310956
            0.000378855106    -0.000277095735    0.120019672635    -0.060296014503    0.000268445712    -0.000225310956    0.121658540770    -0.053759218060
0.750     0.099140408464    -0.061527572449    0.000283621881    -0.000284538611    0.110458856736    -0.041871682794    0.000346362522    -0.000334780410
            0.000283621881    -0.000284538611    0.105070280224    -0.055013676257    0.000225781391    -0.000236414135    0.104931411595    -0.064233133265
            0.110458856736    -0.041871682794    0.000225781391    -0.000236414135    0.099364072505    -0.060371956494    0.000241647517    -0.000264900269
            0.000346362522    -0.000334780410    0.104931411595    -0.064233133265    0.000241647517    -0.000264900269    0.105624975035    -0.054175828461
0.775     0.069732173932    -0.078240881986    0.000250701122    -0.000331761433    0.087011660277    -0.062100670833    0.000307560233    -0.000393403259
            0.000250701122    -0.000331761433    0.090909206431    -0.049386059848    0.000198128883    -0.000273984187    0.090637770177    -0.062911796100
            0.087011660277    -0.062100670833    0.000198128883    -0.000273984187    0.070480554164    -0.077459703172    0.000211107029    -0.000305307353
            0.000307560233    -0.000393403259    0.090637770177    -0.062911796100    0.000211107029    -0.000305307353    0.091615736343    -0.049018529861
