# GHz S RI R 45
0.000     0.022429594562    0.001894973095    -0.000000014409    -0.000000094931    0.000831152834    0.001620271317    -0.000000017451    -0.000000098877
            -0.000000014409    -0.000000094931    0.020863497053    0.001545763313    -0.000000000772    -0.000000073078    0.000689961583    0.001374845080
            0.000831152721    0.001620271375    -0.000000000772    -0.000000073078    0.022375003312    0.001882704488    -0.000000003782    -0.000000077204
            -0.000000017451    -0.000000098877    0.000689961370    0.001374845075    -0.000000003782    -0.000000077204    0.020842399831    0.001529828689
0.025     0.028207388857    0.009896861909    -0.000000086042    -0.000000204072    0.003167120951    0.010258088436    -0.000000093398    -0.000000213592
            -0.000000086042    -0.000000204072    0.026008011240    0.008129182841    -0.000000051348    -0.000000163713    0.002628134127    0.008493024507
            0.003164852715    0.010261040523    -0.000000051348    -0.000000163713    0.028131730949    0.009856823859    -0.000000058465    -0.000000172927
            -0.000000093398    -0.000000213592    0.002628431834    0.008492261379    -0.000000058465    -0.000000172929    0.025941537656    0.008057662858
0.050     0.036433041732    0.013700996982    -0.000000261676    -0.000000327695    0.009690991025    0.018496890933    -0.000000277666    -0.000000341929
            -0.000000261676    -0.000000327695    0.033131714789    0.011075689446    -0.000000187143    -0.000000274499    0.008124665445    0.015432331009
            0.009690964008    0.018496926537    -0.000000187143    -0.000000274499    0.036323517566    0.013630547386    -0.000000202795    -0.000000288112
            -0.000000277666    -0.000000341929    0.008124692015    0.015432322671    -0.000000202795    -0.000000288112    0.033025405713    0.010985139590
0.075     0.045918640873    0.013393224146    -0.000000494494    -0.000000356539    0.019144705518    0.023187109150    -0.000000520993    -0.000000370713
            -0.000000494494    -0.000000356539    0.041531695563    0.010705829190    -0.000000375905    -0.000000313015    0.016262921815    0.019568778820
            0.019144698347    0.023187111181    -0.000000375905    -0.000000313015    0.045778355453    0.013327582119    -0.000000401883    -0.000000326247
            -0.000000520993    -0.000000370713    0.016262917673    0.019568783563    -0.000000401883    -0.000000326247    0.041388602888    0.010609457881
0.100     0.055340293224    0.008484913870    -0.000000748079    -0.000000273636    0.029889954889    0.023452950029    -0.000000785318    -0.000000282878
            -0.000000748079    -0.000000273636    0.050279517841    0.006518816407    -0.000000589214    -0.000000261601    0.025825533485    0.020124144162
            0.029889954889    0.023452950029    -0.000000589214    -0.000000261601    0.055182935378    0.008446752187    -0.000000625589    -0.000000269672
            -0.000000785318    -0.000000282878    0.025825533485    0.020124144162    -0.000000625589    -0.000000269672    0.050109245179    0.006441677572
0.125     0.062811334720    -0.000903742415    -0.000000978020    -0.000000073662    0.040101074463    0.019041140534    -0.000001024404    -0.000000073149
            -0.000000978020    -0.000000073662    0.057904082195    -0.001563914487    -0.000000790862    -0.000000112152    0.035427793701    0.016754492926
            0.040101074463    0.019041140534    -0.000000790862    -0.000000112152    0.062663144249    -0.000898184562    -0.000000836092    -0.000000110413
            -0.000001024404    -0.000000073149    0.035427793701    0.016754492926    -0.000000836092    -0.000000110413    0.057734567205    -0.001600383451
0.150     0.066647924132    -0.014020968393    -0.000001138900    0.000000232424    0.047987317287    0.010380467077    -0.000001191243    0.000000246793
            -0.000001138900    0.000000232424    0.063069292170    -0.013167541003    -0.000000942331    0.000000129154    0.043654590421    0.009596509873
            0.047987317287    0.010380467077    -0.000000942331    0.000000129154    0.066546613266    -0.013965191785    -0.000000993141    0.000000144583
            -0.000001191243    0.000000246793    0.043654590421    0.009596509873    -0.000000993141    0.000000144583    0.062925504815    -0.013151770548
0.175     0.065368405401    -0.029393732456    -0.000001190936    0.000000617718    0.051988589477    -0.001493281220    -0.000001244584    0.000000648905
            -0.000001190936    0.000000617718    0.064443028158    -0.027365163241    -0.000001008953    0.000000442890    0.049192580109    -0.000750911107
            0.051988589477    -0.001493281220    -0.000001008953    0.000000442890    0.065356407181    -0.029300386253    -0.000001060862    0.000000474736
            -0.000001244584    0.000000648905    0.049192580109    -0.000750911090    -0.000001060862    0.000000474736    0.064365465464    -0.027295423223
0.200     0.058133839330    -0.045064111600    -0.000001104597    0.000001041916    0.050985787959    -0.015025780292    -0.000001153878    0.000001091308
            -0.000001104597    0.000001041916    0.061113747365    -0.042800022958    -0.000000963388    0.000000797527    0.050984525903    -0.013275836314
            0.050985787959    -0.015025780292    -0.000000963388    0.000000797527    0.058251184940    -0.044966105717    -0.000001011032    0.000000847096
            -0.000001153878    0.000001091308    0.050984525903    -0.013275836314    -0.000001011032    0.000000847096    0.061146823181    -0.042693483023
0.225     0.044823224809    -0.058830404345    -0.000000864974    0.000001455104    0.044449395116    -0.028311988236    -0.000000903709    0.000001522243
            -0.000000864974    0.000001455104    0.052645573316    -0.057857135357    -0.000000790209    0.000001152402    0.048340308916    -0.026649793209
            0.044449395116    -0.028311988236    -0.000000790209    0.000001152402    0.045097949854    -0.058780394672    -0.000000827707    0.000001219337
            -0.000000903709    0.000001522243    0.048340308916    -0.026649793209    -0.000000827707    0.000001219337    0.052828011970    -0.057750538083
0.250     0.026116746247    -0.068495132382    -0.000000474990    0.000001802433    0.032550866504    -0.039313103895    -0.000000496987    0.000001884850
            -0.000000474990    0.000001802433    0.039158837394    -0.070815977117    -0.000000488627    0.000001461639    0.041031629893    -0.039358522864
            0.032550866504    -0.039313103895    -0.000000488627    0.000001461639    0.026557263764    -0.068560411466    -0.000000509963    0.000001543726
            -0.000000496987    0.000001884850    0.041031629893    -0.039358522864    -0.000000509963    0.000001543726    0.039516319233    -0.070761778204
0.275     0.003461820384    -0.072133197841    0.000000043202    0.000002031101    0.016190073463    -0.046097061457    0.000000043559    0.000002124264
            0.000000043202    0.000002031101    0.021329268556    -0.080025177424    -0.000000074297    0.000001680270    0.029331751978    -0.049849509602
            0.016190073463    -0.046097061457    -0.000000074297    0.000001680270    0.004049885871    -0.072388166445    -0.000000073934    0.000001773265
            0.000000043559    0.000002124264    0.029331751978    -0.049849509602    -0.000000073934    0.000001773265    0.021868964071    -0.080086993419
0.300     -0.021023075924    -0.068375767533    0.000000649016    0.000002096524    -0.003055932021    -0.047108400577    0.000000676006    0.000002193930
            0.000000649016    0.000002096524    0.000366875058    -0.084089108678    0.000000421545    0.000001769363    0.014016395005    -0.056702462391
            -0.003055932021    -0.047108400577    0.000000421545    0.000001769363    -0.020336043546    -0.068891119396    0.000000448038    0.000001867003
            0.000000676006    0.000002193930    0.014016395005    -0.056702462391    0.000000448038    0.000001867003    0.001072981764    -0.084335511623
0.325     -0.044768365032    -0.056630109225    0.000001287216    0.000001969525    -0.023085324898    -0.041400068967    0.000001343250    0.000002063005
            0.000001287216    0.000001969525    -0.022089296342    -0.082024105360    0.000000955025    0.000001702360    -0.003694301232    -0.058780365405
            -0.023085324898    -0.041400068967    0.000000955025    0.000001702360    -0.044059191683    -0.057460513238    0.000001010141    0.000001796639
            0.000001343250    0.000002063005    -0.003694301232    -0.058780365405    0.000001010141    0.000001796639    -0.021257450884    -0.082519599925
0.350     -0.065052693424    -0.037244434869    0.000001893652    0.000001640458    -0.041520993853    -0.028820307189    0.000001978385    0.000001720848
            0.000001893652    0.000001640458    -0.044113015832    -0.073400948481    0.000001474313    0.000001468185    -0.022242901866    -0.055374014518
            -0.041520993853    -0.028820307189    0.000001474313    0.000001468185    -0.064420886988    -0.038417263159    0.000001557898    0.000001549994
            0.000001978385    0.000001720848    -0.022242901866    -0.055374014518    0.000001557898    0.000001549994    -0.043219481736    -0.074197696162
0.375     -0.079356293581    -0.011521557872    0.000002403298    0.000001121993    -0.056015661701    -0.010077688016    0.000002513339    0.000001180026
            0.000002403298    0.000001121993    -0.063679504323    -0.058411921490    0.000001926328    0.000001073912    -0.039881472797    -0.046291997687
            -0.056015661701    -0.010077688016    0.000001926328    0.000001073912    -0.078912588826    -0.013028209882    0.000002035131    0.000001133927
            0.000002513339    0.000001180026    -0.039881472797    -0.046291997687    0.000002035131    0.000001133927    -0.062807686235    -0.059540797814
0.400     -0.085718111847    0.018391581520    0.000002757358    0.000000447772    -0.064586559917    0.013312880366    0.000002886146    0.000000475225
            0.000002757358    0.000000447772    -0.078877081028    -0.037892668953    0.000002262141    0.000000543224    -0.054855590962    -0.031910478980
            -0.064586559917    0.013312880366    0.000002262141    0.000000543224    -0.085571068419    0.016599436348    0.000002389614    0.000000573237
            0.000002886146    0.000000475225    -0.054855590962    -0.031910478980    0.000002389614    0.000000573237    -0.078121633927    -0.039356815063
0.425     -0.083009324066    0.049764804189    0.000002910972    -0.000000331135    -0.065880366971    0.039223163538    0.000003049202    -0.000000340251
            0.000002910972    -0.000000331135    -0.088106503454    -0.013256268680    0.000002443270    -0.000000085992    -0.065581008399    -0.013147746955
            -0.065880366971    0.039223163538    0.000002443270    -0.000000085992    -0.083249968648    0.047773228144    0.000002580069    -0.000000092005
            0.000003049202    -0.000000340251    -0.065581008399    -0.013147746955    0.000002580069    -0.000000092005    -0.087564038824    -0.015027058893
0.450     -0.071095388053    0.079630582364    0.000002836750    -0.000001152093    -0.059356076568    0.065193475957    0.000002973247    -0.000001200629
            0.000002836750    -0.000001152093    -0.090262154202    0.013629839280    0.000002443884    -0.000000766325    -0.070820854959    0.008614201556
            -0.059356076568    0.065193475957    0.000002443884    -0.000000766325    -0.071784166285    0.077555572425    0.000002578771    -0.000000811067
            0.000002973247    -0.000001200629    -0.070820854959    0.008614201556    0.000002578771    -0.000000811067    -0.090019652339    0.011612469073
0.475     -0.050830638841    0.105152395094    0.000002527823    -0.000001947678    -0.045315327893    0.088743997083    0.000002650763    -0.000002034766
            0.000002527823    -0.000001947678    -0.084847818684    0.040622697198    0.000002253469    -0.000001445789    -0.069806054638    0.031664123312
            -0.045315327893    0.088743997083    0.000002253469    -0.000001445789    -0.051988231859    0.103127849063    0.000002374669    -0.000001528110
            0.000002650763    -0.000002034766    -0.069806054638    0.031664123312    0.000002374669    -0.000001528110    -0.084973051606    0.038446621944
0.500     -0.023927624194    0.123954582815    0.000001996407    -0.000002651509    -0.024830209596    0.107667444724    0.000002094622    -0.000002772594
            0.000001996407    -0.000002651509    -0.072037589072    0.065511939731    0.000001875412    -0.000002071594    -0.062320955836    0.054129919823
            -0.024830209596    0.107667444724    0.000001875412    -0.000002071594    -0.025530784445    0.122117720293    0.000001971943    -0.000002186661
            0.000002094622    -0.000002772594    -0.062320955836    0.054129919823    0.000001971943    -0.000002186661    -0.072569785409    0.063286186024
0.525     0.007279719216    0.134348858047    0.000001272463    -0.000003204085    0.000432154362    0.120230523339    0.000001336744    -0.000003351311
            0.000001272463    -0.000003204085    -0.052654769812    0.086227060330    0.000001326853    -0.000002594410    -0.048710297668    0.074151182385
            0.000432154362    0.120230523339    0.000001326853    -0.000002594410    0.005297114377    0.132826367526    0.000001389832    -0.000002734142
            0.000001336744    -0.000003351311    -0.048710297668    0.074151182385    0.000001389832    -0.000002734142    -0.053599239973    0.084071640856
0.550     0.040109604014    0.135461527794    0.000000400178    -0.000003555397    0.028411505115    0.125308888069    0.000000423910    -0.000003718682
            0.000000400178    -0.000003555397    -0.028093949469    0.101029292543    0.000000636118    -0.000002969880    -0.029847172726    0.090053184707
            0.028411505115    0.125308888069    0.000000636118    -0.000002969880    0.037851067806    0.134355852196    0.000000659588    -0.000003124008
            0.000000423910    -0.000003718682    -0.029847172726    0.090053184707    0.000000659588    -0.000003124008    -0.029418890012    0.099064584915
0.575     0.071798755791    0.127245463838    -0.000000565162    -0.000003668704    0.056857754318    0.122416215623    -0.000000585338    -0.000003836563
            -0.000000565162    -0.000003668704    -0.000188525412    0.108653706445    -0.000000158160    -0.000003161637    -0.007041554478    0.100476721040
            0.056857754318    0.122416215623    -0.000000158160    -0.000003161637    0.069396288026    0.126625542110    -0.000000176847    -0.000003318851
            -0.000000585338    -0.000003836563    -0.007041554478    0.100476721040    -0.000000176847    -0.000003318851    -0.001826251605    0.106989314556
0.600     0.099735590171    0.110429702924    -0.000001560218    -0.000003520747    0.083511086056    0.111704043583    -0.000001624367    -0.000003681429
            -0.000001560218    -0.000003520747    0.028952996731    0.108410679393    -0.000001008800    -0.000003141606    0.018073028957    0.104490593420
            0.083511086056    0.111704043583    -0.000001008800    -0.000003141606    0.097338831608    0.110323201525    -0.000001069059    -0.000003290633
            -0.000001624367    -0.000003681429    0.018073028957    0.104490593420    -0.000001069059    -0.000003290633    0.027101389819    0.107134557570
0.625     0.121637211988    0.086414556685    -0.000002516719    -0.000003104161    0.106238739847    0.093907623343    -0.000002621950    -0.000003246472
            -0.000002516719    -0.000003104161    0.057119336532    0.100223812757    -0.000001861394    -0.000002893156    0.043672310781    0.101642802583
            0.106238739847    0.093907623343    -0.000001861394    -0.000002893156    0.119401911203    0.086804352548    -0.000001959886    -0.000003023563
            -0.000002621950    -0.000003246472    0.043672310781    0.101642802583    -0.000001959886    -0.000003023563    0.055178261135    0.099393912702
0.650     0.135692659276    0.057153469568    -0.000003363592    -0.000002427401    0.123165146226    0.070301617915    -0.000003504503    -0.000002541349
            -0.000003363592    -0.000002427401    0.082172556103    0.084626197408    -0.000002655578    -0.000002411709    0.067880497953    0.091995045647
            0.123165146226    0.070301617915    -0.000002655578    -0.000002411709    0.133767264466    0.057976716434    -0.000002786702    -0.000002514468
            -0.000003504503    -0.000002541349    0.067880497953    0.091995045647    -0.000002786702    -0.000002514468    0.080281191726    0.084263862242
0.675     0.140664404967    0.025022604242    -0.000004030792    -0.000001517043    0.132771827209    0.042634252021    -0.000004199869    -0.000001594222
            -0.000004030792    -0.000001517043    0.102200545612    0.062708422332    -0.000003327958    -0.000001708300    0.088897617742    0.076104105125
            0.132771827209    0.042634252021    -0.000003327958    -0.000001708300    0.139177943538    0.026172762680    -0.000003484279    -0.000001776162
            -0.000004199869    -0.000001594222    0.088897617742    0.076104105125    -0.000003484279    -0.000001776162    0.100502950237    0.062794762360
0.700     0.135982682887    -0.007317216869    -0.000004452130    -0.000000418267    0.134026944723    0.013057166260    -0.000004640168    -0.000000452124
            -0.000004452130    -0.000000418267    0.115656619235    0.036035032356    -0.000003814290    -0.000000811139    0.105131462497    0.054991057128
            0.134026944723    0.013057166260    -0.000003814290    -0.000000811139    0.135031769104    -0.005985218764    -0.000003987255    -0.000000838493
            -0.000004640168    -0.000000452124    0.105131462497    0.054991057128    -0.000003987255    -0.000000838493    0.114290409127    0.036509894141
0.725     0.121818030224    -0.037075877217    -0.000004571656    0.000000804094    0.126493428850    -0.015976684895    -0.000004768128    0.000000818228
            -0.000004571656    0.000000804094    0.121464546417    0.006532831826    -0.000004055933    0.000000231898    0.115297642216    0.030071597857
            0.126493428850    -0.015976684895    -0.000004055933    0.000000231898    0.121455189364    -0.035736619558    -0.000004235923    0.000000248957
            -0.000004768128    0.000000818228    0.115297642216    0.030071597857    -0.000004235923    0.000000248957    0.120548972402    0.007297176385
0.750     0.099140408464    -0.061527572449    -0.000004348833    0.000002066244    0.110458856736    -0.041871682794    -0.000004542008    0.000002130766
            -0.000004348833    0.000002066244    0.119100766627    -0.023644549632    -0.000004004866    0.000001353044    0.118527285937    0.003070091651
            0.110458856736    -0.041871682794    -0.000004004866    0.000001353044    0.099364072505    -0.060371956494    -0.000004181295    0.000001416476
            -0.000004542008    0.000002130766    0.118527285937    0.003070091651    -0.000004181295    0.000001416476    0.118725930520    -0.022722702982
0.775     0.069732173932    -0.078240881986    -0.000003767461    0.000003269218    0.087011660277    -0.062100670833    -0.000003944585    0.000003384100
            -0.000003767461    0.000003269218    0.108637717059    -0.052263699652    -0.000003633117    0.000002466992    0.114429793034    -0.024091010342
            0.087011660277    -0.062100670833    -0.000003633117    0.000002466992    0.070480554164    -0.077459703172    -0.000003794536    0.000002576663
