# GHz S RI R 45
0.000     0.022429594562    0.001894973095    0.000001852418    0.000003704782    0.000831152834    0.001620271317    0.000002015359    0.000004332818
            0.000001852363    0.000003704747    0.021901822784    0.001888993179    0.000002230966    0.000004354670    0.000796496350    0.001618941818
            0.000831152721    0.001620271375    0.000002230901    0.000004354671    0.022375003312    0.001882704488    0.000002436165    0.000005163539
            0.000002015287    0.000004332817    0.000796496535    0.001618941838    0.000002435875    0.000005163537    0.021867181168    0.001899644725
0.025     0.028207388857    0.009896861909    0.000005003161    0.000007969969    0.003167120951    0.010258088436    0.000005639249    0.000008804813
            0.000005003159    0.000007969961    0.027524647444    0.009484072223    0.000005992010    0.000009933857    0.003036882688    0.009860719204
            0.003164852715    0.010261040523    0.000005992019    0.000009933858    0.028131730949    0.009856823859    0.000006751632    0.000010715293
            0.000005639256    0.000008804804    0.003036093537    0.009860768640    0.000006751638    0.000010715293    0.027459588631    0.009440258331
0.050     0.036433041732    0.013700996982    0.000012010756    0.000012371954    0.009690991025    0.018496890933    0.000013709749    0.000013495739
            0.000012010756    0.000012371954    0.035518355768    0.013110439619    0.000014215456    0.000015603936    0.009328187160    0.017813792040
            0.009690964008    0.018496926537    0.000014215457    0.000015603937    0.036323517566    0.013630547386    0.000016330764    0.000016537687
            0.000013709749    0.000013495739    0.009328175212    0.017813788137    0.000016330764    0.000016537687    0.035459469933    0.013022353049
0.075     0.045918640873    0.013393224146    0.000020954141    0.000012740930    0.019144705518    0.023187109150    0.000024022554    0.000013557864
            0.000020954141    0.000012740930    0.044804247302    0.012826156179    0.000024672881    0.000016590103    0.018499335913    0.022416584945
            0.019144698347    0.023187111181    0.000024672881    0.000016590103    0.045778355453    0.013327582119    0.000028563354    0.000016909975
            0.000024022554    0.000013557865    0.018499328526    0.022416587151    0.000028563354    0.000016909975    0.044755854948    0.012699408260
0.100     0.055340293224    0.008484913870    0.000030124529    0.000008595375    0.029889954889    0.023452950029    0.000034631848    0.000008426956
            0.000030124529    0.000008595375    0.054184816817    0.008135396156    0.000035414433    0.000012338896    0.029037184758    0.022806162117
            0.029889954889    0.023452950029    0.000035414433    0.000012338896    0.055182935378    0.008446752187    0.000041193215    0.000011170441
            0.000034631849    0.000008426956    0.029037184758    0.022806162117    0.000041193215    0.000011170441    0.054157174936    0.007968144215
0.125     0.062811334720    -0.000903742415    0.000037639716    0.000000016040    0.040101074463    0.019041140534    0.000043384659    -0.000001829687
            0.000037639716    0.000000016040    0.061916608871    -0.000956465610    0.000044273632    0.000002927661    0.039239424060    0.018687912609
            0.040101074463    0.019041140534    0.000044273632    0.000002927661    0.062663144249    -0.000898184562    0.000051704507    -0.000000627295
            0.000043384659    -0.000001829687    0.039239424962    0.018687913039    0.000051704507    -0.000000627295    0.061919492814    -0.001171074179
0.150     0.066647924132    -0.014020968393    0.000041766920    -0.000012167842    0.047987317287    0.010380467077    0.000048287543    -0.000016290640
            0.000041766920    -0.000012167842    0.066333661095    -0.013749046353    0.000049244474    -0.000010705531    0.047412785336    0.010382304388
            0.047987317287    0.010380467077    0.000049244474    -0.000010705531    0.066546613266    -0.013965191785    0.000057753628    -0.000017433397
            0.000048287543    -0.000016290640    0.047412785336    0.010382304388    0.000057753628    -0.000017433397    0.066383364109    -0.014024540405
0.175     0.065368405401    -0.029393732456    0.000041135547    -0.000026576455    0.051988589477    -0.001493281220    0.000047747546    -0.000033404208
            0.000041135547    -0.000026576455    0.066040807998    -0.028976646070    0.000048727252    -0.000026986969    0.052047735223    -0.001217151516
            0.051988589477    -0.001493281220    0.000048727252    -0.000026986969    0.065356407181    -0.029300386253    0.000057449632    -0.000037459052
            0.000047747546    -0.000033404208    0.052047735223    -0.001217151516    0.000057449632    -0.000037459052    0.066146031908    -0.029337146340
0.200     0.058133839330    -0.045064111600    0.000034928762    -0.000041371492    0.050985787959    -0.015025780292    0.000040792874    -0.000051086877
            0.000034928762    -0.000041371492    0.060141265680    -0.044897227846    0.000041752711    -0.000043807829    0.052013014004    -0.014726971244
            0.050985787959    -0.015025780292    0.000041752711    -0.000043807829    0.058251184940    -0.044966105717    0.000049616961    -0.000058283485
            0.000040792874    -0.000051086877    0.052013014004    -0.014726971244    0.000049616961    -0.000058283485    0.060301759775    -0.045373142951
0.225     0.044823224809    -0.058830404345    0.000022993267    -0.000054456110    0.044449395116    -0.028311988236    0.000027199158    -0.000066948461
            0.000022993267    -0.000054456110    0.048363710697    -0.059488804981    0.000028109586    -0.000058753028    0.046692073251    -0.028414058804
            0.044449395116    -0.028311988236    0.000028109586    -0.000058753028    0.045097949854    -0.058780394672    0.000033945307    -0.000077116591
            0.000027199158    -0.000066948461    0.046692073251    -0.028414058804    0.000033945307    -0.000077116591    0.048567555527    -0.060114801941
0.250     0.026116746247    -0.068495132382    0.000005949884    -0.000063711310    0.032550866504    -0.039313103895    0.000007618813    -0.000078557201
            0.000005949884    -0.000063711310    0.031165256833    -0.070674783020    0.000008474240    -0.000069371737    0.036092276124    -0.040381805925
            0.032550866504    -0.039313103895    0.000008474240    -0.000069371737    0.026557263764    -0.068560411466    0.000011143211    -0.000091104780
            0.000007618813    -0.000078557201    0.036092276124    -0.040381805925    0.000011143211    -0.000091104780    0.031386547180    -0.071485434028
0.275     0.003461820384    -0.072133197841    -0.000014817647    -0.000067252687    0.016190073463    -0.046097061457    -0.000016428334    -0.000083728029
            -0.000014817647    -0.000067252687    0.009711892925    -0.076569635857    -0.000015601222    -0.000073469793    0.020880286752    -0.048777754173
            0.016190073463    -0.046097061457    -0.000015601222    -0.000073469793    0.004049885871    -0.072388166445    -0.000017071440    -0.000097664735
            -0.000016428334    -0.000083728029    0.020880286752    -0.048777754173    -0.000017071440    -0.000097664735    0.009909135370    -0.077593356028
0.300     -0.021023075924    -0.068375767533    -0.000037233254    -0.000063738579    -0.003055932021    -0.047108400577    -0.000042628223    -0.000080868142
            -0.000037233254    -0.000063738579    -0.014188471732    -0.075730847360    -0.000041767054    -0.000069459783    0.002355749819    -0.052029914857
            -0.003055932021    -0.047108400577    -0.000041767054    -0.000069459783    -0.020336043546    -0.068891119396    -0.000048051609    -0.000094880648
            -0.000042628223    -0.000080868142    0.002355749819    -0.052029914857    -0.000048051609    -0.000094880648    -0.014071150475    -0.076984401545
0.325     -0.044768365032    -0.056630109225    -0.000058743404    -0.000052615314    -0.023085324898    -0.041400068967    -0.000068104992    -0.000069254320
            -0.000058743404    -0.000052615314    -0.038261214343    -0.067361635167    -0.000067114944    -0.000056638663    -0.017661682193    -0.049054818658
            -0.023085324898    -0.041400068967    -0.000067114944    -0.000056638663    -0.044059191683    -0.057460513238    -0.000078482823    -0.000081821548
            -0.000068104992    -0.000069254320    -0.017661682193    -0.049054818658    -0.000078482823    -0.000081821548    -0.038290303014    -0.068843060848
0.350     -0.065052693424    -0.037244434869    -0.000076648894    -0.000034321680    -0.041520993853    -0.028820307189    -0.000089781905    -0.000049269801
            -0.000076648894    -0.000034321680    -0.060004715191    -0.051476094017    -0.000088546043    -0.000035423240    -0.037026147685    -0.039439766212
            -0.041520993853    -0.028820307189    -0.000088546043    -0.000035423240    -0.064420886988    -0.038417263159    -0.000104789063    -0.000058820248
            -0.000089781905    -0.000049269801    -0.037026147685    -0.039439766212    -0.000104789063    -0.000058820248    -0.060249787111    -0.053159378197
0.375     -0.079356293581    -0.011521557872    -0.000088505079    -0.000010297403    -0.056015661701    -0.010077688016    -0.000104825540    -0.000022429098
            -0.000088505079    -0.000010297403    -0.076983634799    -0.028943836779    -0.000103217505    -0.000007366637    -0.053513439378    -0.023529299619
            -0.056015661701    -0.010077688016    -0.000103217505    -0.000007366637    -0.078912588826    -0.013028209882    -0.000123627523    -0.000027505441
            -0.000104825540    -0.000022429098    -0.053513439378    -0.023529299619    -0.000123627523    -0.000027505441    -0.077508826491    -0.030777569538
0.400     -0.085718111847    0.018391581520    -0.000092542759    0.000017165971    -0.064586559917    0.013312880366    -0.000111113230    0.000008770324
            -0.000092542759    0.000017165971    -0.087141186830    -0.001443086365    -0.000109013962    0.000024992542    -0.065109413380    -0.002424186032
            -0.064586559917    0.013312880366    -0.000109013962    0.000024992542    -0.085571068419    0.016599436348    -0.000132421647    0.000009341927
            -0.000111113230    0.000008770324    -0.065109413380    -0.002424186032    -0.000132421647    0.000009341927    -0.087995256947    -0.003351721315
0.425     -0.083009324066    0.049764804189    -0.000087941737    0.000045276640    -0.065880366971    0.039223163538    -0.000107551585    0.000041219252
            -0.000087941737    0.000045276640    -0.089062764054    0.028719650095    -0.000104864035    0.000058510370    -0.070258968006    0.022140758243
            -0.065880366971    0.039223163538    -0.000104864035    0.000058510370    -0.083249968648    0.047773228144    -0.000129730664    0.000048190196
            -0.000107551585    0.000041219252    -0.070258968006    0.022140758243    -0.000129730664    0.000048190196    -0.090269959408    0.026830496640
0.450     -0.071095388053    0.079630582364    -0.000074956484    0.000071175691    -0.059356076568    0.065193475957    -0.000094242706    0.000071665766
            -0.000074956484    0.000071175691    -0.082167443475    0.058873629027    -0.000090899100    0.000089909398    -0.068069698735    0.048003266496
            -0.059356076568    0.065193475957    -0.000090899100    0.000089909398    -0.071784166285    0.077555572425    -0.000115460132    0.000085270117
            -0.000094242706    0.000071665766    -0.068069698735    0.048003266496    -0.000115460132    0.000085270117    -0.083720401457    0.057107509366
0.475     -0.050830638841    0.105152395094    -0.000054788370    0.000092353827    -0.045315327893    0.088743997083    -0.000072365366    0.000097178862
            -0.000054788370    0.000092353827    -0.066767951696    0.086293903327    -0.000068334479    0.000116245180    -0.058395002756    0.072831185018
            -0.045315327893    0.088743997083    -0.000068334479    0.000116245180    -0.051988231859    0.103127849063    -0.000090757747    0.000117093956
            -0.000072365366    0.000097178862    -0.058395002756    0.072831185018    -0.000090757747    0.000117093956    -0.068625427590    0.084752906450
0.500     -0.023927624194    0.123954582815    -0.000029332470    0.000106960662    -0.024830209596    0.107667444724    -0.000043926057    0.000115504971
            -0.000029332470    0.000106960662    -0.044024798294    0.108509855468    -0.000039213617    0.000135261013    -0.041833633210    0.094391350302
            -0.024830209596    0.107667444724    -0.000039213617    0.000135261013    -0.025530784445    0.122117720293    -0.000057775114    0.000140870004
            -0.000043926057    0.000115504971    -0.041833633210    0.094391350302    -0.000057775114    0.000140870004    -0.046111995982    0.107282884728
0.525     0.007279719216    0.134348858047    -0.000000828309    0.000113916289    0.000432154362    0.120230523339    -0.000011385627    0.000125219866
            -0.000000828309    0.000113916289    -0.015787823412    0.123550032176    -0.000006033029    0.000145537859    -0.019620932226    0.110764456810
            0.000432154362    0.120230523339    -0.000006033029    0.000145537859    0.005297114377    0.132826367526    -0.000019264838    0.000154701901
            -0.000011385627    0.000125219866    -0.019620932226    0.110764456810    -0.000019264838    0.000154701901    -0.018002042324    0.122701918449
0.550     0.040109604014    0.135461527794    0.000028439922    0.000112902352    0.028411505115    0.125308888069    0.000022666764    0.000125744277
            0.000028439922    0.000112902352    0.015617033427    0.130115921797    0.000028583941    0.000146510400    0.006521609513    0.120514942076
            0.028411505115    0.125308888069    0.000028583941    0.000146510400    0.037851067806    0.134355852196    0.000021772004    0.000157642092
            0.000022666764    0.000125744277    0.006521609513    0.120514942076    0.000021772004    0.000157642092    0.013398357367    0.129679122860
0.575     0.071798755791    0.127245463838    0.000056365351    0.000104198955    0.056857754318    0.122416215623    0.000055770215    0.000117194445
            0.000056365351    0.000104198955    0.047625077576    0.127653733841    0.000062144926    0.000138315558    0.034567246034    0.122768046703
            0.056857754318    0.122416215623    0.000062144926    0.000138315558    0.069396288026    0.126625542110    0.000062379900    0.000149567309
            0.000055770215    0.000117194445    0.034567246034    0.122768046703    0.000062379900    0.000149567309    0.045533917481    0.127623330656
0.600     0.099735590171    0.110429702924    0.000081124683    0.000088540302    0.083511086056    0.111704043583    0.000085726207    0.000100238921
            0.000081124683    0.000088540302    0.077661789319    0.116361561286    0.000092421572    0.000121653316    0.062358249001    0.117251630349
            0.083511086056    0.111704043583    0.000092421572    0.000121653316    0.097338831608    0.110323201525    0.000099818927    0.000131047634
            0.000085726207    0.000100238921    0.062358249001    0.117251630349    0.000099818927    0.000131047634    0.075828174371    0.116692768818
0.625     0.121637211988    0.086414556685    0.000101185779    0.000066950564    0.106238739847    0.093907623343    0.000110626582    0.000075925573
            0.000101185779    0.000066950564    0.103334949185    0.097129120536    0.000117483181    0.000097611839    0.087754804316    0.104271996277
            0.106238739847    0.093907623343    0.000117483181    0.000097611839    0.119401911203    0.086804352548    0.000131630046    0.000103172922
            0.000110626582    0.000075925573    0.087754804316    0.104271996277    0.000131630046    0.000103172922    0.101875836997    0.097738201904
0.650     0.135692659276    0.057153469568    0.000115284085    0.000040676905    0.123165146226    0.070301617915    0.000128849701    0.000045612199
            0.000115284085    0.000040676905    0.122597988321    0.071448507208    0.000135694549    0.000067601626    0.108774493680    0.084688167625
            0.123165146226    0.070301617915    0.000135694549    0.000067601626    0.133767264466    0.057976716434    0.000155663764    0.000067487332
            0.000128849701    0.000045612199    0.108774493680    0.084688167625    0.000155663764    0.000067487332    0.121605993856    0.072217296944
0.675     0.140664404967    0.025022604242    0.000122369277    0.000011161695    0.132771827209    0.042634252021    0.000139012518    0.000010929267
            0.000122369277    0.000011161695    0.133871172989    0.041301827616    0.000145675748    0.000033314547    0.123699079211    0.059853071681
            0.132771827209    0.042634252021    0.000145675748    0.000033314547    0.139177943538    0.026172762680    0.000170061454    0.000025937924
            0.000139012518    0.000010929267    0.123699079211    0.059853071681    0.000170061454    0.000025937924    0.133404972713    0.042083540727
0.700     0.135982682887    -0.007317216869    0.000121628193    -0.000019913841    0.134026944723    0.013057166260    0.000140012279    -0.000026175774
            0.000121628193    -0.000019913841    0.136147350648    0.009035584461    0.000146351530    -0.000003235915    0.131198949355    0.031555120818
            0.134026944723    0.013057166260    0.000146351530    -0.000003235915    0.135031769104    -0.005985218764    0.000173331421    -0.000019086629
            0.000140012279    -0.000026175774    0.131198949355    0.031555120818    0.000173331421    -0.000019086629    0.136223131096    0.009664640181
0.725     0.121818030224    -0.037075877217    0.000112536233    -0.000050586394    0.126493428850    -0.015976684895    0.000131087210    -0.000063396946
            0.000112536233    -0.000050586394    0.129068710290    -0.022777619128    0.000137015323    -0.000039686262    0.130428225065    0.001932446161
            0.126493428850    -0.015976684895    0.000137015323    -0.000039686262    0.121455189364    -0.035736619558    0.000164438518    -0.000064735829
            0.000131087210    -0.000063396946    0.130428225065    0.001932446139    0.000164438518    -0.000064735829    0.129653450728    -0.022474376468
0.750     0.099140408464    -0.061527572449    0.000095031091    -0.000078604424    0.110458856736    -0.041871682794    0.000112016435    -0.000098066567
            0.000095031091    -0.000078604424    0.112991907668    -0.051503153619    0.000117525730    -0.000073329261    0.121147507008    -0.026646188091
            0.110458856736    -0.041871682794    0.000117525730    -0.000073329261    0.099364072505    -0.060371956494    0.000143037134    -0.000107720521
            0.000112016435    -0.000098066567    0.121147507008    -0.026646188091    0.000143037134    -0.000107720521    0.114000216574    -0.051691297321
0.775     0.069732173932    -0.078240881986    0.000069686835    -0.000101508648    0.087011660277    -0.062100670833    0.000083323115    -0.000127245125
            0.000069686835    -0.000101508648    0.089016748143    -0.074630677248    0.000088504178    -0.000101222403    0.103797809686    -0.051736902380
            0.087011660277    -0.062100670833    0.000088504178    -0.000101222403    0.070480554164    -0.077459703172    0.000109695203    -0.000144439473
            0.000083323115    -0.000127245125    0.103797809686    -0.051736902380    0.000109695203    -0.000144439473    0.090311391770    -0.075452671925
