# GHz S RI R 45
0.000     0.022429594562    0.001894973095    -0.000014743011    -0.000038880370    0.000831152834    0.001620271317    -0.000020899592    -0.000053771271
            -0.000014742958    -0.000038880372    0.022699670502    0.001555667087    -0.000011090900    -0.000029046844    0.000878856186    0.001475265252
            0.000831152721    0.001620271375    -0.000011090906    -0.000029046845    0.022375003312    0.001882704488    -0.000014866322    -0.000038848691
            -0.000020899550    -0.000053771273    0.000878856494    0.001475265301    -0.000014866415    -0.000038848688    0.022677903040    0.001546514822
0.025     0.028207388857    0.009896861909    -0.000039168866    -0.000083674809    0.003167120951    0.010258088436    -0.000054646265    -0.000116318822
            -0.000039168876    -0.000083674755    0.027305066861    0.009701308388    -0.000029370646    -0.000062392479    0.002358313507    0.010389326463
            0.003164852715    0.010261040523    -0.000029370633    -0.000062392451    0.028131730949    0.009856823859    -0.000039097019    -0.000083636222
            -0.000054646824    -0.000116318957    0.002358330554    0.010388547359    -0.000039097026    -0.000083636161    0.027210695045    0.009608419382
0.050     0.036433041732    0.013700996982    -0.000093063800    -0.000141902346    0.009690991025    0.018496890933    -0.000128381194    -0.000197706247
            -0.000093063800    -0.000141902346    0.032548540926    0.014575558403    -0.000069774724    -0.000105778706    0.006674092804    0.019652348575
            0.009690964008    0.018496926537    -0.000069774742    -0.000105778694    0.036323517566    0.013630547386    -0.000092555803    -0.000142282203
            -0.000128381194    -0.000197706247    0.006674117072    0.019652344558    -0.000092555797    -0.000142282195    0.032380133878    0.014425432162
0.075     0.045918640873    0.013393224146    -0.000164211424    -0.000177248229    0.019144705518    0.023187109150    -0.000225964106    -0.000248758357
            -0.000164211424    -0.000177248229    0.037953416972    0.017268687100    -0.000123226288    -0.000131951347    0.013067094632    0.026897628728
            0.019144698347    0.023187111181    -0.000123226288    -0.000131951347    0.045778355453    0.013327582119    -0.000163617956    -0.000178701507
            -0.000225964106    -0.000248758357    0.013067109831    0.026897631350    -0.000163617956    -0.000178701507    0.037680687347    0.017104252246
0.100     0.055340293224    0.008484913870    -0.000246119847    -0.000188005036    0.029889954889    0.023452950029    -0.000339621278    -0.000266957411
            -0.000246119847    -0.000188005036    0.043043970949    0.017803284435    -0.000184803325    -0.000139527247    0.020606810878    0.031651677396
            0.029889954889    0.023452950029    -0.000184803325    -0.000139527247    0.055182935378    0.008446752187    -0.000246372361    -0.000190860168
            -0.000339621278    -0.000266957411    0.020606810878    0.031651677396    -0.000246372361    -0.000190860168    0.042661192074    0.017681125602
0.125     0.062811334720    -0.000903742415    -0.000331976681    -0.000173374273    0.040101074463    0.019041140534    -0.000460683713    -0.000250286407
            -0.000331976681    -0.000173374273    0.046970587226    0.016443743343    -0.000249335557    -0.000127841351    0.028304508505    0.033807792684
            0.040101074463    0.019041140534    -0.000249335557    -0.000127841351    0.062663144249    -0.000898184562    -0.000334302932    -0.000177250889
            -0.000460683713    -0.000250286407    0.028304490725    0.033807746272    -0.000334302932    -0.000177250889    0.046497789692    0.016417974924
0.150     0.066647924132    -0.014020968393    -0.000415903619    -0.000134513194    0.047987317287    0.010380467077    -0.000581080931    -0.000199122411
            -0.000415903619    -0.000134513194    0.049119048176    0.013852161198    -0.000312305593    -0.000097674751    0.035221983224    0.033624842279
            0.047987317287    0.010380467077    -0.000312305593    -0.000097674751    0.066546613266    -0.013965191785    -0.000421313760    -0.000138161020
            -0.000581080931    -0.000199122411    0.035221983947    0.033624842969    -0.000421313760    -0.000138161020    0.048604534704    0.013967363661
0.175     0.065368405401    -0.029393732456    -0.000493411871    -0.000073008387    0.051988589477    -0.001493281220    -0.000693889621    -0.000114552185
            -0.000493411871    -0.000073008387    0.049037040281    0.010870742777    -0.000370185364    -0.000050172743    0.040593732691    0.031680063486
            0.051988589477    -0.001493281220    -0.000370185364    -0.000050172743    0.065356407181    -0.029300386253    -0.000502162655    -0.000074474283
            -0.000693889621    -0.000114552185    0.040593732691    0.031680063486    -0.000502162655    -0.000074474283    0.048545469879    0.011146092717
0.200     0.058133839330    -0.045064111600    -0.000561044754    0.000009663484    0.050985787959    -0.015025780292    -0.000793029948    0.000001902308
            -0.000561044754    0.000009663484    0.046653423283    0.008513871012    -0.000420157323    0.000013548175    0.043928116109    0.028797022676
            0.050985787959    -0.015025780292    -0.000420157323    0.000013548175    0.058251184940    -0.044966105717    -0.000572222081    0.000012567864
            -0.000793029948    0.000001902308    0.043928115606    0.028797023442    -0.000572222081    0.000012567864    0.046255586723    0.008939612584
0.225     0.044823224809    -0.058830404345    -0.000615318731    0.000112820558    0.044449395116    -0.028311988236    -0.000872245758    0.000148954373
            -0.000615318731    0.000112820558    0.042307648587    0.007777789907    -0.000459336327    0.000092844397    0.045080138373    0.025926004732
            0.044449395116    -0.028311988236    -0.000459336327    0.000092844397    0.045097949854    -0.058780394672    -0.000626719345    0.000121819857
            -0.000872245758    0.000148954373    0.045080138373    0.025926004732    -0.000626719345    0.000121819857    0.042067866975    0.008313612480
0.250     0.026116746247    -0.068495132382    -0.000651887134    0.000236024245    0.032550866504    -0.039313103895    -0.000924446467    0.000324868521
            -0.000651887134    0.000236024245    0.036719379284    0.009510500249    -0.000484204481    0.000187107762    0.044285608631    0.024019148496
            0.032550866504    -0.039313103895    -0.000484204481    0.000187107762    0.026557263764    -0.068560411466    -0.000660294394    0.000251659394
            -0.000924446467    0.000324868521    0.044285608631    0.024019148496    -0.000660294394    0.000251659394    0.036683927127    0.010089764995
0.275     0.003461820384    -0.072133197841    -0.000664679468    0.000378247365    0.016190073463    -0.046097061457    -0.000940987288    0.000526539902
            -0.000664679468    0.000378247365    0.030924464857    0.014251122014    -0.000490047071    0.000295115309    0.042143289928    0.023878289075
            0.016190073463    -0.046097061457    -0.000490047071    0.000295115309    0.004049885871    -0.072388166445    -0.000666536863    0.000399345234
            -0.000940987288    0.000526539902    0.042143289928    0.023878289075    -0.000666536863    0.000399345234    0.031110732038    0.014789262817
0.300     -0.021023075924    -0.068375767533    -0.000646154434    0.000536329072    -0.003055932021    -0.047108400577    -0.000912268737    0.000747921040
            -0.000646154434    0.000536329072    0.026150980850    0.022134668622    -0.000471248467    0.000413904704    0.039546125673    0.026027059448
            -0.003055932021    -0.047108400577    -0.000471248467    0.000413904704    -0.020336043546    -0.068891119396    -0.000638505326    0.000559836850
            -0.000912268737    0.000747921040    0.039546125673    0.026027059448    -0.000638505326    0.000559836850    0.026541544391    0.022541135369
0.325     -0.044768365032    -0.056630109225    -0.000588194754    0.000703575088    -0.023085324898    -0.041400068967    -0.000828820204    0.000978780398
            -0.000588194754    0.000703575088    0.023657996835    0.032808641441    -0.000422016786    0.000537837980    0.037554120946    0.030598284358
            -0.023085324898    -0.041400068967    -0.000422016786    0.000537837980    -0.044059191683    -0.057460513238    -0.000569666312    0.000724948759
            -0.000828820204    0.000978780398    0.037554120946    0.030598284358    -0.000569666312    0.000724948759    0.024198974082    0.033001638293
0.350     -0.065052693424    -0.037244434869    -0.000484179180    0.000869145284    -0.041520993853    -0.028820307189    -0.000683749366    0.001204342751
            -0.000484179180    0.000869145284    0.024545055913    0.045448937324    -0.000338057015    0.000658213871    0.037234057073    0.037292522485
            -0.041520993853    -0.028820307189    -0.000338057015    0.000658213871    -0.064420886988    -0.038417263159    -0.000455702655    0.000883225028
            -0.000683749366    0.001204342751    0.037234057073    0.037292522485    -0.000455702655    0.000883225028    0.025151176759    0.045369714612
0.375     -0.079356293581    -0.011521557872    -0.000331271471    0.001018396499    -0.056015661701    -0.010077688016    -0.000475086621    0.001405924955
            -0.000331271471    0.001018396499    0.029568261153    0.058824332614    -0.000218161058    0.000763790083    0.039477127222    0.045391671818
            -0.056015661701    -0.010077688016    -0.000218161058    0.000763790083    -0.078912588826    -0.013028209882    -0.000296295984    0.001020626032
            -0.000475086621    0.001405924955    0.039477127222    0.045391671818    -0.000296295984    0.001020626032    0.030133406641    0.058449257354
0.400     -0.085718111847    0.018391581520    -0.000132443980    0.001134936911    -0.064586559917    0.013312880366    -0.000207812016    0.001563492873
            -0.000132443980    0.001134936911    0.038998173522    0.071463042828    -0.000065714333    0.000842422509    0.044848251386    0.053866143006
            -0.064586559917    0.013312880366    -0.000065714333    0.000842422509    -0.085571068419    0.016599436348    -0.000096466050    0.001122613063
            -0.000207812016    0.001563492873    0.044848251386    0.053866143006    -0.000096466050    0.001122613063    0.039410052049    0.070809712980
0.425     -0.083009324066    0.049764804189    0.000102760771    0.001203314484    -0.065880366971    0.039223163538    0.000105538698    0.001658666349
            0.000102760771    0.001203314484    0.052548255224    0.081845843419    0.000111041977    0.000883232241    0.053479835782    0.061521231588
            -0.065880366971    0.039223163538    0.000111041991    0.000883232229    -0.083249968648    0.047773228144    0.000133192850    0.001176477206
            0.000105538698    0.001658666349    0.053479839897    0.061521231985    0.000133192850    0.001176477206    0.052705139288    0.080973644202
0.450     -0.071095388053    0.079630582364    0.000359029395    0.001212209449    -0.059356076568    0.065193475957    0.000446050496    0.001678212407
            0.000359029395    0.001212209449    0.069401040173    0.088631223442    0.000299900212    0.000878948065    0.065054238361    0.067187440268
            -0.059356076568    0.065193475957    0.000299900212    0.000878948065    -0.071784166285    0.077555572425    0.000377779097    0.001173934272
            0.000446050496    0.001678212407    0.065054238361    0.067187440268    0.000377779097    0.001173934272    0.069226963794    0.087635116447
0.475     -0.050830638841    0.105152395094    0.000617509778    0.001156487799    -0.045315327893    0.088743997083    0.000791096004    0.001616198343
            0.000617509778    0.001156487799    0.088309364036    0.090832331856    0.000486581002    0.000827260846    0.078847855441    0.069878536703
            -0.045315327893    0.088743997083    0.000486581002    0.000827260846    -0.051988231859    0.103127849063    0.000620282697    0.001112503704
            0.000791096004    0.001616198343    0.078847855441    0.069878536703    0.000620282697    0.001112503704    0.087765126065    0.089830649017
0.500     -0.023927624194    0.123954582815    0.000858890993    0.001038280891    -0.024830209596    0.107667444724    0.001117678525    0.001474901006
            0.000858890993    0.001038280891    0.107767655894    0.087945579164    0.000657179256    0.000731260083    0.093848222419    0.068924483840
            -0.024830209596    0.107667444724    0.000657179256    0.000731260083    -0.025530784445    0.122117720293    0.000844275342    0.000995842482
            0.001117678525    0.001474901006    0.093848222419    0.068924483840    0.000844275342    0.000995842482    0.106857815467    0.087065312576
0.525     0.007279719216    0.134348858047    0.001066286453    0.000866088213    0.000432154362    0.120230523339    0.001405679925    0.001263849299
            0.001066286453    0.000866088213    0.126194151996    0.079988704563    0.000800246893    0.000598466550    0.108880376919    0.064028635258
            0.000432154362    0.120230523339    0.000800246893    0.000598466550    0.005297114377    0.132826367526    0.001036260718    0.000832559082
            0.001405679925    0.001263849299    0.108880376919    0.064028635258    0.001036260718    0.000832559082    0.124966741652    0.079350596011
0.550     0.040109604014    0.135461527794    0.001227385092    0.000653237601    0.028411505115    0.125308888069    0.001640165948    0.000997876368
            0.001227385092    0.000653237601    0.142115341713    0.067481453300    0.000908174066    0.000439336487    0.122751187726    0.055286592871
            0.028411505115    0.125308888069    0.000908174066    0.000439336487    0.037851067806    0.134355852196    0.001187092325    0.000634490466
            0.001640165948    0.000997876368    0.122751187726    0.055286592871    0.001187092325    0.000634490466    0.140657041095    0.067184194740
0.575     0.071798755791    0.127245463838    0.001335559557    0.000415356420    0.056857754318    0.122416215623    0.001812460358    0.000694372270
            0.001335559557    0.000415356420    0.154301129428    0.051361971166    0.000977619461    0.000265293358    0.134354987112    0.043149034362
            0.056857754318    0.122416215623    0.000977619461    0.000265293358    0.069396288026    0.126625542110    0.001292371848    0.000414548162
            0.001812460358    0.000694372270    0.134354987112    0.043149034362    0.001292371848    0.000414548162    0.152728558028    0.051472372331
0.600     0.099735590171    0.110429702924    0.001389979286    0.000168241138    0.083511086056    0.111704043583    0.001920196695    0.000370925369
            0.001389979286    0.000168241138    0.161873797609    0.032883720647    0.001009268021    0.000087190419    0.142775046536    0.028376364798
            0.083511086056    0.111704043583    0.001009268021    0.000087190419    0.097338831608    0.110323201525    0.001352130767    0.000184881670
            0.001920196695    0.000370925369    0.142775046536    0.028376364798    0.001352130767    0.000184881670    0.160320870760    0.033427909755
0.625     0.121637211988    0.086414556685    0.001394782693    -0.000074229100    0.106238739847    0.093907623343    0.001966287725    0.000042997992
            0.001394782693    -0.000074229098    0.164360833031    0.013496683032    0.001006882988    -0.000085994887    0.147341758913    0.011967296406
            0.106238739847    0.093907623343    0.001006882988    -0.000085994887    0.119401911203    0.086804352548    0.001369681345    -0.000044359915
            0.001966287725    0.000042997992    0.147341758913    0.011967296406    0.001369681345    -0.000044359915    0.162966659132    0.014455157611
0.650     0.135692659276    0.057153469568    0.001357970614    -0.000301694179    0.123165146226    0.070301617915    0.001957600794    -0.000277426643
            0.001357970614    -0.000301694179    0.161734108982    -0.005271352342    0.000976400062    -0.000247988067    0.147698991102    -0.004905458035
            0.123165146226    0.070301617915    0.000976400062    -0.000247988067    0.133767264466    0.057976716434    0.001350536222    -0.000265953916
            0.001957600794    -0.000277426643    0.147698991093    -0.004905458292    0.001350536222    -0.000265953916    0.160627282236    -0.003962091206
0.675     0.140664404967    0.025022604242    0.001289603482    -0.000508141703    0.132771827209    0.042634252021    0.001903010038    -0.000582941004
            0.001289603482    -0.000508141703    0.154407104119    -0.021929171586    0.000924583735    -0.000395559333    0.143836413443    -0.020979489743
            0.132771827209    0.042634252021    0.000924583735    -0.000395559333    0.139177943538    0.026172762680    0.001300944579    -0.000475748222
            0.001903010038    -0.000582941004    0.143836413443    -0.020979489743    0.001300944579    -0.000475748222    0.153693108598    -0.020374110722
0.700     0.135982682887    -0.007317216869    0.001200008205    -0.000692542176    0.134026944723    0.013057166260    0.001811505267    -0.000870793514
            0.001200008205    -0.000692542176    0.143232395980    -0.035139828472    0.000857936805    -0.000528590160    0.136138155569    -0.034993541150
            0.134026944723    0.013057166260    0.000857936805    -0.000528590160    0.135031769104    -0.005985218764    0.001226703000    -0.000672737414
            0.001811505267    -0.000870793514    0.136138155569    -0.034993541150    0.001226703000    -0.000672737414    0.142979225543    -0.033477304192
0.725     0.121818030224    -0.037075877217    0.001097522414    -0.000858497608    0.126493428850    -0.015976684895    0.001689927377    -0.001142598291
            0.001097522414    -0.000858497608    0.129458040098    -0.043842147873    0.000781291461    -0.000649752580    0.125384628875    -0.045807805405
            0.126493428850    -0.015976684895    0.000781291461    -0.000649752580    0.121455189364    -0.035736619558    0.001131798941    -0.000858336781
            0.001689927377    -0.001142598291    0.125384628875    -0.045807805405    0.001131798941    -0.000858336781    0.129685462017    -0.042232454952
0.750     0.099140408464    -0.061527572449    0.000986474325    -0.001013054907    0.110458856736    -0.041871682794    0.001541201546    -0.001402708836
            0.000986474325    -0.001013054907    0.114665972028    -0.047380989547    0.000696633456    -0.000763584020    0.112747754389    -0.052539277144
            0.110458856736    -0.041871682794    0.000696633456    -0.000763584020    0.099364072505    -0.060371956494    0.001017379097    -0.001035417593
            0.001541201546    -0.001402708836    0.112747754389    -0.052539277144    0.001017379097    -0.001035417593    0.115338276097    -0.045988133173
0.775     0.069732173932    -0.078240881986    0.000865429644    -0.001164445042    0.087011660277    -0.062100670833    0.001362732328    -0.001656008492
            0.000865429644    -0.001164445042    0.100648792496    -0.045628744164    0.000602190014    -0.000874846907    0.099703024512    -0.054715518446
            0.087011660277    -0.062100670833    0.000602190014    -0.000874846907    0.070480554164    -0.077459703172    0.000880953580    -0.001206602115
            0.001362732328    -0.001656008492    0.099703024512    -0.054715518446    0.000880953580    -0.001206602115    0.101672126287    -0.044602147553
