# GHz S RI R 45
0.000     0.022429594562    0.001894973095    0.977258190030    -0.008367317420    0.000831152834    0.001620271317    -0.000818242912    -0.000560585292
            0.977258190030    -0.008367317420    0.022483340684    0.001694381814    -0.000818078362    -0.000560556691    0.000829954735    0.001649896431
            0.000831152721    0.001620271375    -0.000818078592    -0.000560556639    0.022375003312    0.001882704488    0.977298210297    -0.008370960861
            -0.000818243117    -0.000560585223    0.000829954518    0.001649896428    0.977298210297    -0.008370960861    0.022449237356    0.001682070197
0.025     0.028207388857    0.009896861909    0.958559334475    -0.172893748789    0.003167120951    0.010258088436    -0.001322692110    -0.001990241889
            0.958559300493    -0.172893880854    0.027017314850    0.009847734281    -0.001319650118    -0.001989595139    0.002324281322    0.010579166412
            0.003164852715    0.010261040523    -0.001319395073    -0.001990462328    0.028131730949    0.009856823859    0.958684164283    -0.172552047014
            -0.001324001075    -0.001989470805    0.002316367653    0.010576979187    0.958684223117    -0.172551833038    0.026946661237    0.009782131879
0.050     0.036433041732    0.013700996982    0.911231823760    -0.335857713534    0.009690991025    0.018496890933    -0.002717380438    -0.003502190676
            0.911231823760    -0.335857713534    0.032188499534    0.014879195729    -0.002715400542    -0.003502313846    0.006558625740    0.020048499173
            0.009690964008    0.018496926537    -0.002715377391    -0.003502345841    0.036323517566    0.013630547386    0.911539969102    -0.335228619154
            -0.002717385295    -0.003502207032    0.006558685929    0.020048432136    0.911539969102    -0.335228619154    0.032069212118    0.014808758226
0.075     0.045918640873    0.013393224146    0.837233766042    -0.487396114726    0.019144705518    0.023187109150    -0.004618367138    -0.004279118487
            0.837233766042    -0.487396114726    0.037464279604    0.017818763042    -0.004614062376    -0.004280065518    0.012851282303    0.027592949679
            0.019144698347    0.023187111181    -0.004614061161    -0.004280068886    0.045778355453    0.013327582119    0.837819442463    -0.486542530303
            -0.004618362403    -0.004279118595    0.012851280534    0.027593001247    0.837819442463    -0.486542530303    0.037298944261    0.017754464192
0.100     0.055340293224    0.008484913870    0.738691101410    -0.623247362610    0.029889954889    0.023452950029    -0.006685112936    -0.004307719669
            0.738691101410    -0.623247362610    0.042436505118    0.018734889155    -0.006677566593    -0.004311179513    0.020322273945    0.032774239829
            0.029889954889    0.023452950029    -0.006677564248    -0.004311181301    0.055182935378    0.008446752187    0.739633267706    -0.622254418625
            -0.006685112357    -0.004307722599    0.020322273945    0.032774239829    0.739633267706    -0.622254418625    0.042231301759    0.018703180452
0.125     0.062811334720    -0.000903742415    0.618777108046    -0.739618283075    0.040101074463    0.019041140534    -0.008671391330    -0.003683884795
            0.618777108046    -0.739618283075    0.046380599552    0.017935771241    -0.008660519367    -0.003692234569    0.028053010701    0.035481625798
            0.040101074463    0.019041140534    -0.008660519734    -0.003692236512    0.062663144249    -0.000898184562    0.620133425323    -0.738589840723
            -0.008671390503    -0.003683886230    0.028053010701    0.035481625798    0.620133425323    -0.738589840723    0.046153394396    0.017956819844
0.150     0.066647924132    -0.014020968393    0.481176302734    -0.833309246858    0.047987317287    0.010380467077    -0.010446102005    -0.002570537809
            0.481176302734    -0.833309246858    0.048645337071    0.015962277372    -0.010432471829    -0.002586603229    0.035177135858    0.035948918335
            0.047987317287    0.010380467077    -0.010432471829    -0.002586603229    0.066546613266    -0.013965191785    0.482977076661    -0.832363209636
            -0.010446102005    -0.002570537809    0.035177135858    0.035948918335    0.482977076661    -0.832363209636    0.048429326780    0.016053027350
0.175     0.065368405401    -0.029393732456    0.330019183990    -0.901826974375    0.051988589477    -0.001493281220    -0.011992490620    -0.001103823131
            0.330019183990    -0.901826974375    0.048895337271    0.013664827295    -0.011978611215    -0.001130879911    0.040983679638    0.034688939676
            0.051988589477    -0.001493281220    -0.011978611215    -0.001130879911    0.065356407181    -0.029300386253    0.332267335730    -0.901088256997
            -0.011992490620    -0.001103823131    0.040983679638    0.034688939676    0.332267335730    -0.901088256997    0.048730428064    0.013823711108
0.200     0.058133839330    -0.045064111600    0.169723790957    -0.943342135427    0.050985787959    -0.015025780292    -0.013366328481    0.000653802031
            0.169723790957    -0.943342135427    0.047111588560    0.011977425085    -0.013356747929    0.000613214493    0.045010742907    0.032442647345
            0.050985787959    -0.015025780292    -0.013356747929    0.000613214493    0.058251184940    -0.044966105717    0.172395064336    -0.942940379470
            -0.013366328481    0.000653802031    0.045010742907    0.032442647345    0.172395064336    -0.942940379470    0.047036367178    0.012183395585
0.225     0.044823224809    -0.058830404345    0.004953625205    -0.956709255708    0.044449395116    -0.028311988236    -0.014626586947    0.002746627418
            0.004953625205    -0.956709255708    0.043639566199    0.011792670907    -0.014627547659    0.002692094706    0.047111420527    0.030064903678
            0.044449395116    -0.028311988236    -0.014627547659    0.002692094706    0.045097949854    -0.058780394672    0.007989935284    -0.956767758742
            -0.014626587426    0.002746624866    0.047111420527    0.030064903678    0.007989935284    -0.956767758742    0.043683790820    0.012006736055
0.250     0.026116746247    -0.068495132382    -0.159458243380    -0.941523110559    0.032550866504    -0.039313103895    -0.015761624524    0.005310041966
            -0.159458243380    -0.941523110559    0.039163330285    0.013855941359    -0.015780173454    0.005243694375    0.047484481085    0.028412743681
            0.032550866504    -0.039313103895    -0.015780173454    0.005243694375    0.026557263764    -0.068560411466    -0.156143650475    -0.942160056276
            -0.015761624524    0.005310041966    0.047484481085    0.028412743681    -0.156143650475    -0.942160056276    0.039340262279    0.014025433416
0.275     0.003461820384    -0.072133197841    -0.318586297459    -0.898176558120    0.016190073463    -0.046097061457    -0.016626166241    0.008511485052
            -0.318586297459    -0.898176558120    0.034646513469    0.018617766728    -0.016668701401    0.008439062494    0.046654276991    0.028204946679
            0.016190073463    -0.046097061457    -0.016668701401    0.008439062494    0.004049885871    -0.072388166445    -0.315109784436    -0.899493207440
            -0.016626166241    0.008511485052    0.046654276991    0.028204946679    -0.315109784436    -0.899493207440    0.034947936284    0.018683236559
0.300     -0.021023075924    -0.068375767533    -0.467552217674    -0.827933182265    -0.003055932021    -0.047108400577    -0.016924405615    0.012459419283
            -0.467552217674    -0.827933182265    0.031213444099    0.026152940415    -0.016995482148    0.012389189099    0.045408626458    0.029910174419
            -0.003055932021    -0.047108400577    -0.016995482148    0.012389189099    -0.020336043546    -0.068891119396    -0.464063584166    -0.830003138121
            -0.016924405615    0.012459419283    0.045408626458    0.029910174419    -0.464063584166    -0.830003138121    0.031607050462    0.026057397155
0.325     -0.044768365032    -0.056630109225    -0.601685924578    -0.732963881589    -0.023085324898    -0.041400068967    -0.016245642480    0.017104417973
            -0.601685924578    -0.732963881589    0.029998729960    0.036087845950    -0.016345958942    0.017047248636    0.044681086873    0.033645753879
            -0.023085324898    -0.041400068967    -0.016345958942    0.017047248636    -0.044059191683    -0.057460513238    -0.598353904545    -0.735831016952
            -0.016245642480    0.017104417973    0.044681086873    0.033645753879    -0.598353904545    -0.735831016952    0.030428780938    0.035785791251
0.350     -0.065052693424    -0.037244434869    -0.716755636073    -0.616348240690    -0.041520993853    -0.028820307189    -0.014159820078    0.022171799245
            -0.716755636073    -0.616348240690    0.031973349085    0.047623821661    -0.014285927084    0.022138531655    0.045409339437    0.039145287091
            -0.041520993853    -0.028820307189    -0.014285927084    0.022138531655    -0.064420886988    -0.038417263159    -0.713767707427    -0.620012929594
            -0.014159820078    0.022171799245    0.045409339437    0.039145287091    -0.713767707427    -0.620012929594    0.032366543353    0.047091170619
0.375     -0.079356293581    -0.011521557872    -0.809188589125    -0.481982036830    -0.056015661701    -0.010077688016    -0.010344570193    0.027148468961
            -0.809188589125    -0.481982036830    0.037778605780    0.059602002432    -0.010488248177    0.027148674475    0.048370700076    0.045770787133
            -0.056015661701    -0.010077688016    -0.010488248177    0.027148674475    -0.078912588826    -0.013028209882    -0.806733970097    -0.486401315609
            -0.010344570193    0.027148468961    0.048370700076    0.045770787133    -0.806733970097    -0.486401315609    0.038052491769    0.058842032921
0.400     -0.085718111847    0.018391581520    -0.876287879289    -0.334411702889    -0.064586559917    0.013312880366    -0.004711772453    0.031348765844
            -0.876287879289    -0.334411702889    0.047603237818    0.070660845240    -0.004861996241    0.031388101066    0.054052458262    0.052611737588
            -0.064586559917    0.013312880366    -0.004861996241    0.031388101066    -0.085571068419    0.016599436348    -0.874549474621    -0.339491987498
            -0.004711772453    0.031348765844    0.054052458262    0.052611737588    -0.874549474621    -0.339491987498    0.047677492116    0.069707170429
0.425     -0.083009324066    0.049764804189    -0.916371915960    -0.178585958496    -0.065880366971    0.039223163538    0.002510136669    0.034038469592
            -0.916371915960    -0.178585958496    0.061122961204    0.079413214400    0.002366529148    0.034117894370    0.062556232310    0.058613363174
            -0.065880366971    0.039223163538    0.002366529148    0.034117894370    -0.083249968648    0.047773228144    -0.915510189513    -0.184190047956
            0.002510136669    0.034038469592    0.062556232310    0.058613363174    -0.915510189513    -0.184190047956    0.060930816559    0.078327667254
0.450     -0.071095388053    0.079630582364    -0.928824800351    -0.019564119248    -0.059356076568    0.065193475957    0.010770372675    0.034596885878
            -0.928824800351    -0.019564119248    0.077531997551    0.084653026893    0.010645679176    0.034712424766    0.073586788620    0.062747185129
            -0.059356076568    0.065193475957    0.010645679176    0.034712424766    -0.071784166285    0.077555572425    -0.928966032050    -0.025518869708
            0.010770372675    0.034596885878    0.073586788620    0.062747185129    -0.928966032050    -0.025518869708    0.077029828124    0.083518988367
0.475     -0.050830638841    0.105152395094    -0.914034428796    0.137743747308    -0.045315327893    0.088743997083    0.019269493959    0.032661021305
            -0.914034428796    0.137743747308    0.095637995811    0.085512892460    0.019173191813    0.032804242414    0.086488532991    0.064148771983
            -0.045315327893    0.088743997083    0.019173191813    0.032804242414    -0.051988231859    0.103127849063    -0.915263684401    0.131637146859
            0.019269493959    0.032661021305    0.086488532991    0.064148771983    -0.915263684401    0.131637146859    0.094812010383    0.084426014795
0.500     -0.023927624194    0.123954582815    -0.873256980961    0.288802810461    -0.024830209596    0.107667444724    0.027098764870    0.028221372860
            -0.873256980961    0.288802810461    0.114024370509    0.081580651216    0.027036071564    0.028381507552    0.100352807234    0.062237291849
            -0.024830209596    0.107667444724    0.027036071564    0.028381507552    -0.025530784445    0.122117720293    -0.875615294049    0.282755110425
            0.027098764870    0.028221372860    0.100352807234    0.062237291849    -0.875615294049    0.282755110425    0.112892754915    0.080637554749
0.525     0.007279719216    0.134348858047    -0.808431932952    0.429581248024    0.000432154362    0.120230523339    0.033405571159    0.021637458621
            -0.808431932952    0.429581248024    0.131216669756    0.072931485834    0.033376718383    0.021803322619    0.114126423295    0.056764584518
            0.000432154362    0.120230523339    0.033376718383    0.021803322619    0.005297114377    0.132826367526    -0.811915123043    0.423809435343
            0.033405571159    0.021637458621    0.114126423295    0.056764584518    -0.811915123043    0.423809435343    0.129829271845    0.072218565791
0.550     0.040109604014    0.135461527794    -0.721989073406    0.556622168121    0.028411505115    0.125308888069    0.037548590326    0.013579686377
            -0.721989073406    0.556622168121    0.145858043061    0.060105654499    0.037549797192    0.013741807260    0.126744688836    0.047833236842
            0.028411505115    0.125308888069    0.037549797192    0.013741807260    0.037851067806    0.134355852196    -0.726553395808    0.551331960232
            0.037548590326    0.013579686377    0.126744688836    0.047833236842    -0.726553395808    0.551331960232    0.144289318136    0.059689796220
0.575     0.071798755791    0.127245463838    -0.616693863673    0.667010469248    0.056857754318    0.122416215623    0.039205253624    0.004909400799
            -0.616693863673    0.667010469248    0.156831852674    0.044030237117    0.039229045812    0.005062240060    0.137221981465    0.035863671217
            0.056857754318    0.122416215623    0.039229045812    0.005062240060    0.069396288026    0.126625542110    -0.622262342261    0.662397860395
            0.039205253624    0.004909400799    0.137221981465    0.035863671217    -0.622262342261    0.662397860395    0.155174769452    0.043951699908
0.600     0.099735590171    0.110429702924    -0.495529996904    0.758343561219    0.083511086056    0.111704043583    0.038420767966    -0.003471772492
            -0.495529996904    0.758343561219    0.163367022190    0.025917699885    0.038459391816    -0.003329740615    0.144748432723    0.021552975023
            0.083511086056    0.111704043583    0.038459391816    -0.003329740615    0.097338831608    0.110323201525    -0.501994961423    0.754583588159
            0.038420767966    -0.003471772492    0.144748432723    0.021552975023    -0.501994961423    0.754583588159    0.161722738356    0.026185631746
0.625     0.121637211988    0.086414556685    -0.361640322802    0.828649237207    0.106238739847    0.093907623343    0.035586279095    -0.010776172580
            -0.361640322802    0.828649237207    0.165084210550    0.007148945003    0.035633092314    -0.010641458431    0.148738106203    0.005808772524
            0.106238739847    0.093907623343    0.035633092314    -0.010641458431    0.119401911203    0.086804352548    -0.368868425495    0.825902767581
            0.035586279095    -0.010776172580    0.148738106203    0.005808772524    -0.368868425495    0.825902767581    0.163553033681    0.007739460155
0.650     0.135692659276    0.057153469568    -0.218307109625    0.876346920048    0.123165146226    0.070301617915    0.031361252578    -0.016461855874
            -0.218307109625    0.876346920048    0.162031056524    -0.010842639381    0.031413065361    -0.016328413342    0.148893765614    -0.010310266554
            0.123165146226    0.070301617915    0.031413065931    -0.016328412246    0.133767264466    0.057976716434    -0.226144494435    0.874753303887
            0.031361252578    -0.016461855874    0.148893765614    -0.010310266554    -0.226144494435    0.874753303887    0.160701239495    -0.009984123788
0.675     0.140664404967    0.025022604242    -0.068970933424    0.900208004722    0.132771827209    0.042634252021    0.026544416950    -0.020321358845
            -0.068970933424    0.900208004722    0.154671251821    -0.026685842609    0.026602778506    -0.020181342499    0.145230151617    -0.025674075124
            0.132771827209    0.042634252021    0.026602778506    -0.020181342499    0.139177943538    0.026172762680    -0.077244755695    0.899890157460
            0.026544416950    -0.020321358845    0.145230151617    -0.025674075124    -0.077244755695    0.899890157460    0.153610713853    -0.025640611173
0.700     0.135982682887    -0.007317216869    0.082731770823    0.899375027907    0.134026944723    0.013057166260    0.021920339156    -0.022513503638
            0.082731770823    0.899375027907    0.143872598417    -0.039184535261    0.021991800973    -0.022360671966    0.138117822700    -0.039165947281
            0.134026944723    0.013057166260    0.021991800973    -0.022360671966    0.135031769104    -0.005985218764    0.074219609671    0.900436224689
            0.021920339156    -0.022513503638    0.138117822700    -0.039165947281    0.074219609671    0.900436224689    0.143119526813    -0.038054385921
0.725     0.121818030224    -0.037075877217    0.232937776474    0.873420417923    0.126493428850    -0.015976684895    0.018097388403    -0.023526448611
            0.232937776474    0.873420417923    0.130852263040    -0.047431749925    0.018193047061    -0.023357753432    0.128274319305    -0.049791762207
            0.126493428850    -0.015976684895    0.018193047061    -0.023357753432    0.121455189364    -0.035736619558    0.224408574905    0.875940202092
            0.018097388403    -0.023526448611    0.128274319305    -0.049791762207    0.224408574905    0.875940202092    0.130408483949    -0.046328441540
0.750     0.099140408464    -0.061527572449    0.377556476563    0.822444616579    0.110458856736    -0.041871682794    0.015370480433    -0.024071519253
            0.377556476563    0.822444616579    0.117103461380    -0.050923205821    0.015503893748    -0.023890051324    0.116756709323    -0.056800862466
            0.110458856736    -0.041871682794    0.015503893748    -0.023890051324    0.099364072505    -0.060371956494    0.369255131482    0.826474325742
            0.015370480433    -0.024071519253    0.116756709323    -0.056800862466    0.369255131482    0.826474325742    0.116931944338    -0.049955922176
0.775     0.069732173932    -0.078240881986    0.512303383088    0.747224528992    0.087011660277    -0.062100670833    0.013637372052    -0.024915846663
            0.512303383088    0.747224528992    0.104269188984    -0.049655381366    0.013821813158    -0.024731902771    0.104871400745    -0.059816586599
            0.087011660277    -0.062100670833    0.013821813158    -0.024731902771    0.070480554164    -0.077459703172    0.504502502001    0.752778232538
            0.013637372052    -0.024915846663    0.104871400745    -0.059816586599    0.504502502001    0.752778232538    0.104293874377    -0.048917481610
