# GHz S RI R 45
0.000     0.022429594562    0.001894973095    0.000000584710    0.000001145668    0.000831152834    0.001620271317    0.000000658431    0.000001275603
            0.000000584710    0.000001145668    0.021769619978    0.001723713859    0.000000666755    0.000001279580    0.000771546582    0.001453418822
            0.000831152721    0.001620271375    0.000000666754    0.000001279580    0.022375003312    0.001882704488    0.000000756570    0.000001437081
            0.000000658432    0.000001275603    0.000771547230    0.001453418818    0.000000756581    0.000001437081    0.021695343464    0.001738148236
0.025     0.028207388857    0.009896861909    0.000001569156    0.000002273906    0.003167120951    0.010258088436    0.000001754775    0.000002533362
            0.000001569156    0.000002273905    0.027020164138    0.008887373367    0.000001767172    0.000002539744    0.002837103497    0.009206975460
            0.003164852715    0.010261040523    0.000001767172    0.000002539745    0.028131730949    0.009856823859    0.000001992862    0.000002853380
            0.000001754775    0.000002533362    0.002834698874    0.009205497775    0.000001992864    0.000002853383    0.026952502004    0.008892279354
0.050     0.036433041732    0.013700996982    0.000003688818    0.000003389011    0.009690991025    0.018496890933    0.000004112088    0.000003776390
            0.000003688818    0.000003389011    0.034520473094    0.012223259178    0.000004130500    0.000003783976    0.008641858698    0.016714552897
            0.009690964008    0.018496926537    0.000004130500    0.000003783976    0.036323517566    0.013630547386    0.000004643505    0.000004251630
            0.000004112088    0.000003776390    0.008641838390    0.016714546511    0.000004643505    0.000004251630    0.034484890134    0.012248162449
0.075     0.045918640873    0.013393224146    0.000006319624    0.000003294753    0.019144705518    0.023187109150    0.000007036195    0.000003679029
            0.000006319624    0.000003294753    0.043250137591    0.011975400590    0.000007060041    0.000003684272    0.017176292640    0.021180765258
            0.019144698347    0.023187111181    0.000007060041    0.000003684272    0.045778355453    0.013327582119    0.000007927100    0.000004148367
            0.000007036195    0.000003679029    0.017176284575    0.021180766648    0.000007927100    0.000004148367    0.043259402698    0.012012868737
0.100     0.055340293224    0.008484913870    0.000008975483    0.000001880988    0.029889954889    0.023452950029    0.000009992717    0.000002119814
            0.000008975483    0.000001880988    0.052161624605    0.007657508955    0.000010020380    0.000002120394    0.027082203592    0.021802002772
            0.029889954889    0.023452950029    0.000010020380    0.000002120394    0.055182935378    0.008446752187    0.000011251017    0.000002409851
            0.000009992717    0.000002119814    0.027082203592    0.021802002772    0.000011251017    0.000002409851    0.052238419512    0.007694537797
0.125     0.062811334720    -0.000903742415    0.000011116451    -0.000000817400    0.040101074463    0.019041140534    0.000012385603    -0.000000865692
            0.000011116451    -0.000000817400    0.059655707193    -0.000736550508    0.000012414841    -0.000000871313    0.036836300843    0.018265338567
            0.040101074463    0.019041140534    0.000012414841    -0.000000871313    0.062663144249    -0.000898184562    0.000013951502    -0.000000927348
            0.000012385603    -0.000000865692    0.036836300843    0.018265338567    0.000013951502    -0.000000927348    0.059821391179    -0.000719507921
0.150     0.066647924132    -0.014020968393    0.000012248771    -0.000004548418    0.047987317287    0.010380467077    0.000013667809    -0.000005002009
            0.000012248771    -0.000004548418    0.064264878370    -0.012707546611    0.000013696147    -0.000005014003    0.044904155809    0.010799627017
            0.047987317287    0.010380467077    0.000013696147    -0.000005014003    0.066546613266    -0.013965191785    0.000015417234    -0.000005558619
            0.000013667809    -0.000005002009    0.044904155809    0.010799627017    0.000015417234    -0.000005558619    0.064534813359    -0.012742177735
0.175     0.065368405401    -0.029393732456    0.000011984005    -0.000008911838    0.051988589477    -0.001493281220    0.000013407337    -0.000009850066
            0.000011984005    -0.000008911838    0.064620105121    -0.027138579070    0.000013432632    -0.000009867654    0.049894788074    0.000142652537
            0.051988589477    -0.001493281220    0.000013432632    -0.000009867654    0.065356407181    -0.029300386253    0.000015163635    -0.000010997850
            0.000013407337    -0.000009850066    0.049894788074    0.000142652554    0.000015163635    -0.000010997850    0.065001782146    -0.027262341258
0.200     0.058133839330    -0.045064111600    0.000010090527    -0.000013377426    0.050985787959    -0.015025780292    0.000011343557    -0.000014826094
            0.000010090527    -0.000013377426    0.059837325113    -0.042472419485    0.000011364495    -0.000014847939    0.050728259666    -0.012522552848
            0.050985787959    -0.015025780292    0.000011364495    -0.000014847939    0.058251184940    -0.044966105717    0.000012895761    -0.000016596799
            0.000011343557    -0.000014826094    0.050728259666    -0.012522552848    0.000012895761    -0.000016596799    0.060327045373    -0.042728356593
0.225     0.044823224809    -0.058830404345    0.000006525014    -0.000017342310    0.044449395116    -0.028311988236    0.000007422718    -0.000019264555
            0.000006525014    -0.000017342310    0.049582115792    -0.056897023639    0.000007438975    -0.000019289331    0.046758788950    -0.025682980306
            0.044449395116    -0.028311988236    0.000007438975    -0.000019289331    0.045097949854    -0.058780394672    0.000008547568    -0.000021614980
            0.000007422718    -0.000019264555    0.046758788950    -0.025682980306    0.000008547568    -0.000021614980    0.050161381431    -0.057331608115
0.250     0.026116746247    -0.068495132382    0.000001463918    -0.000020196842    0.032550866504    -0.039313103895    0.000001833173    -0.000022490288
            0.000001463918    -0.000020196842    0.034155325866    -0.068526013023    0.000001845114    -0.000022517305    0.037876397992    -0.037650849493
            0.032550866504    -0.039313103895    0.000001845114    -0.000022517305    0.026557263764    -0.068560411466    0.000002321497    -0.000025299322
            0.000001833173    -0.000022490288    0.037876397992    -0.037650849493    0.000002321497    -0.000025299322    0.034788547029    -0.069182883461
0.275     0.003461820384    -0.072133197841    -0.000004700801    -0.000021397579    0.016190073463    -0.046097061457    -0.000004999039    -0.000023898836
            -0.000004700801    -0.000021397579    0.014484668913    -0.075602102061    -0.000004991052    -0.000023928454    0.024545612366    -0.046738420884
            0.016190073463    -0.046097061457    -0.000004991052    -0.000023928454    0.004049885871    -0.072388166445    -0.000005316391    -0.000026973032
            -0.000004999039    -0.000023898836    0.024545612366    -0.046738420884    -0.000005316391    -0.000026973032    0.015118958393    -0.076516399673
0.300     -0.021023075924    -0.068375767533    -0.000011381187    -0.000020550869    -0.003055932021    -0.047108400577    -0.000012430290    -0.000023047850
            -0.000011381187    -0.000020550869    -0.007916123047    -0.076715262539    -0.000012426980    -0.000023081800    0.007795700504    -0.051458925140
            -0.003055932021    -0.047108400577    -0.000012426980    -0.000023081800    -0.020336043546    -0.068891119396    -0.000013658321    -0.000026136324
            -0.000012430290    -0.000023047850    0.007795700504    -0.051458925140    -0.000013658321    -0.000026136324    -0.007349090623    -0.077906682618
0.325     -0.044768365032    -0.056630109225    -0.000017851826    -0.000017481238    -0.023085324898    -0.041400068967    -0.000019663314    -0.000019733146
            -0.000017851826    -0.000017481238    -0.031083910979    -0.070982526685    -0.000019667503    -0.000019772982    -0.010861506453    -0.050706585068
            -0.023085324898    -0.041400068967    -0.000019667503    -0.000019772982    -0.044059191683    -0.057460513238    -0.000021824103    -0.000022549312
            -0.000019663314    -0.000019733146    -0.010861506453    -0.050706585068    -0.000021824103    -0.000022549312    -0.030662886703    -0.072448887106
0.350     -0.065052693424    -0.037244434869    -0.000023337498    -0.000012287440    -0.041520993853    -0.028820307189    -0.000025841791    -0.000014050839
            -0.000023337498    -0.000012287440    -0.052795536934    -0.058205191848    -0.000025858793    -0.000014096611    -0.029578981274    -0.043921331016
            -0.041520993853    -0.028820307189    -0.000025858793    -0.000014096611    -0.064420886988    -0.038417263159    -0.000028863875    -0.000016301100
            -0.000025841791    -0.000014050839    -0.029578981274    -0.043921331016    -0.000028863875    -0.000016301100    -0.052602338582    -0.059917817196
0.375     -0.079356293581    -0.011521557872    -0.000027122052    -0.000005350125    -0.056015661701    -0.010077688016    -0.000030169618    -0.000006406999
            -0.000027122052    -0.000005350125    -0.070809361124    -0.038928371166    -0.000030205611    -0.000006455062    -0.046370863299    -0.031181512199
            -0.056015661701    -0.010077688016    -0.000030205611    -0.000006455062    -0.078912588826    -0.013028209882    -0.000033886916    -0.000007821742
            -0.000030169618    -0.000006406999    -0.046370863299    -0.031181512199    -0.000033886916    -0.000007821742    -0.070919562369    -0.040830164963
0.400     -0.085718111847    0.018391581520    -0.000028661511    0.000002703123    -0.064586559917    0.013312880366    -0.000032034231    0.000002518105
            -0.000028661511    0.000002703123    -0.083130638289    -0.014431259819    -0.000032094394    0.000002475688    -0.059349880403    -0.013231840665
            -0.064586559917    0.013312880366    -0.000032094394    0.000002475688    -0.085571068419    0.016599436348    -0.000036196262    0.000002153187
            -0.000032034231    0.000002518105    -0.059349880403    -0.013231840665    -0.000036196262    0.000002153187    -0.083603017047    -0.016438675794
0.425     -0.083009324066    0.049764804189    -0.000027666353    0.000011085148    -0.065880366971    0.039223163538    -0.000031098327    0.000011863836
            -0.000027666353    0.000011085148    -0.088248537641    0.013394896016    -0.000031183570    0.000011838658    -0.066945072701    0.008588129646
            -0.065880366971    0.039223163538    -0.000031183570    0.000011838658    -0.083249968648    0.047773228144    -0.000035390114    0.000012681726
            -0.000031098327    0.000011863836    -0.066945072701    0.008588129646    -0.000035390114    0.000012681726    -0.089115746756    0.011386903317
0.450     -0.071095388053    0.079630582364    -0.000024143950    0.000018962419    -0.059356076568    0.065193475957    -0.000027348582    0.000020710993
            -0.000024143950    0.000018962419    -0.085328413904    0.042242849385    -0.000027453623    0.000020715884    -0.068097465822    0.032487448788
            -0.059356076568    0.065193475957    -0.000027453623    0.000020715884    -0.071784166285    0.077555572425    -0.000031419336    0.000022745169
            -0.000027348582    0.000020710993    -0.068097465822    0.032487448788    -0.000031419336    0.000022745169    -0.086589739336    0.040351261541
0.475     -0.050830638841    0.105152395094    -0.000018379192    0.000025570495    -0.045315327893    0.088743997083    -0.000021077519    0.000028208143
            -0.000018379192    0.000025570495    -0.074304290200    0.069641147322    -0.000021190006    0.000028253092    -0.062365771324    0.056424719574
            -0.045315327893    0.088743997083    -0.000021190006    0.000028253092    -0.051988231859    0.103127849063    -0.000024572992    0.000031384546
            -0.000021077519    0.000028208143    -0.062365771324    0.056424719574    -0.000024572992    0.000031384546    -0.075921445193    0.067983869139
0.500     -0.023927624194    0.123954582815    -0.000010876439    0.000030305350    -0.024830209596    0.107667444724    -0.000012823354    0.000033672289
            -0.000010876439    0.000030305350    -0.055885528086    0.093220810521    -0.000012926271    0.000033761009    -0.049969781480    0.078333653687
            -0.024830209596    0.107667444724    -0.000012926271    0.000033761009    -0.025530784445    0.122117720293    -0.000015419807    0.000037813038
            -0.000012823354    0.000033672289    -0.049969781480    0.078333653687    -0.000015419807    0.000037813038    -0.057783164777    0.091904032788
0.525     0.007279719216    0.134348858047    -0.000002272504    0.000032770637    0.000432154362    0.120230523339    -0.000003277175    0.000036643005
            -0.000002272504    0.000032770637    -0.031462699890    0.110949234867    -0.000003352304    0.000036770564    -0.031735385633    0.096323446017
            0.000432154362    0.120230523339    -0.000003352304    0.000036770564    0.005297114377    0.132826367526    -0.000004710759    0.000041479795
            -0.000003277175    0.000036643005    -0.031735385633    0.096323446017    -0.000004710759    0.000041479795    -0.033532632826    0.110056050511
0.550     0.040109604014    0.135461527794    0.000006746701    0.000032787471    0.028411505115    0.125308888069    0.000006806708    0.000036896790
            0.000006746701    0.000032787471    -0.002953531895    0.121317182667    0.000006774046    0.000037049889    -0.008996017772    0.108853983690
            0.028411505115    0.125308888069    0.000006774046    0.000037049889    0.037851067806    0.134355852196    0.000006716127    0.000042092559
            0.000006806708    0.000036896790    -0.008996017772    0.108853983690    0.000006716127    0.000042092559    -0.005062171004    0.120897956227
0.575     0.071798755791    0.127245463838    0.000015513307    0.000030368209    0.056857754318    0.122416215623    0.000016685074    0.000034421632
            0.000015513307    0.000030368209    0.027392988174    0.123445900473    0.000016702049    0.000034581123    0.016552165232    0.114837817592
            0.056857754318    0.122416215623    0.000016702049    0.000034581123    0.069396288026    0.126625542110    0.000018018056    0.000039596960
            0.000016685074    0.000034421632    0.016552165232    0.114837817592    0.000018018056    0.000039596960    0.025393781858    0.123511118635
0.600     0.099735590171    0.110429702924    0.000023419028    0.000025682343    0.083511086056    0.111704043583    0.000025671767    0.000029382288
            0.000023419028    0.000025682343    0.057199867405    0.117134981116    0.000025735878    0.000029527474    0.043000417096    0.113711079400
            0.083511086056    0.111704043583    0.000025735878    0.000029527474    0.097338831608    0.110323201525    0.000028402077    0.000034144780
            0.000025671767    0.000029382288    0.043000417096    0.113711079400    0.000028402077    0.000034144780    0.055461407763    0.117651257223
0.625     0.121637211988    0.086414556685    0.000029931745    0.000019017147    0.106238739847    0.093907623343    0.000033158810    0.000022079191
            0.000029931745    0.000019017147    0.084148585307    0.102842399466    0.000033258135    0.000022193134    0.068369495185    0.105439224288
            0.106238739847    0.093907623343    0.000033258135    0.000022193134    0.119401911203    0.086804352548    0.000037153462    0.000026052107
            0.000033158810    0.000022079191    0.068369495185    0.105439224288    0.000037153462    0.000026052107    0.082812908375    0.103732658249
0.650     0.135692659276    0.057153469568    0.000034600289    0.000010754683    0.123165146226    0.070301617915    0.000038623495    0.000012924881
            0.000034600289    0.000010754683    0.106147439288    0.081630086461    0.000038739806    0.000012998497    0.090746670802    0.090512392684
            0.123165146226    0.070301617915    0.000038739806    0.000012998497    0.133767264466    0.057976716434    0.000043650604    0.000015774900
            0.000038623495    0.000012924881    0.090746670802    0.090512392684    0.000043650604    0.000015774900    0.105334657561    0.082776080712
0.675     0.140664404967    0.025022604242    0.000037052033    0.000001359801    0.132771827209    0.042634252021    0.000041628431    0.000002430472
            0.000037052033    0.000001359801    0.121463109765    0.055075126921    0.000041741862    0.000002465107    0.108395611176    0.069902214445
            0.132771827209    0.042634252021    0.000041741862    0.000002465107    0.139177943538    0.026172762680    0.000047370022    0.000003891768
            0.000041628431    0.000002430472    0.108395611176    0.069902214445    0.000047370022    0.000003891768    0.121260533519    0.056323082745
0.700     0.135982682887    -0.007317216869    0.000037002391    -0.000008618791    0.134026944723    0.013057166260    0.000041834116    -0.000008792504
            0.000037002391    -0.000008618791    0.128835985147    0.025162923460    0.000041928790    -0.000008785746    0.119875040959    0.045016754116
            0.134026944723    0.013057166260    0.000041928790    -0.000008785746    0.135031769104    -0.005985218764    0.000047905526    -0.000008896991
            0.000041834116    -0.000008792504    0.119875040959    0.045016754116    0.000047905526    -0.000008896991    0.129287449924    0.026333074701
0.725     0.121818030224    -0.037075877217    0.000034274334    -0.000018544270    0.126493428850    -0.015976684895    0.000039021902    -0.000020028969
            0.000034274334    -0.000018544270    0.127563820337    -0.005834511211    0.000039091037    -0.000020032557    0.124129799097    0.017627997295
            0.126493428850    -0.015976684895    0.000039091037    -0.000020032557    0.121455189364    -0.035736619558    0.000044994436    -0.000021771173
            0.000039021902    -0.000020028969    0.124129799097    0.017627997295    0.000044994436    -0.000021771173    0.128661960362    -0.004937091752
0.750     0.099140408464    -0.061527572449    0.000028840085    -0.000027697894    0.110458856736    -0.041871682794    0.000033141768    -0.000030467382
            0.000028840085    -0.000027697894    0.117572059205    -0.035501683165    0.000033190127    -0.000030463435    0.120600733573    -0.010221625078
            0.110458856736    -0.041871682794    0.000033190127    -0.000030463435    0.099364072505    -0.060371956494    0.000038571202    -0.000033802568
            0.000033141768    -0.000030467382    0.120600733573    -0.010221625078    0.000038571202    -0.000033802568    0.119252951900    -0.035071732943
0.775     0.069732173932    -0.078240881986    0.000020869861    -0.000035306307    0.087011660277    -0.062100670833    0.000024367547    -0.000039231305
            0.000020869861    -0.000035306307    0.099451802040    -0.061438787617    0.000024410143    -0.000039208037    0.109297198725    -0.036341498117
            0.087011660277    -0.062100670833    0.000024410143    -0.000039208037    0.070480554164    -0.077459703172    0.000028824280    -0.000043993475
            0.000024367547    -0.000039231305    0.109297198725    -0.036341498117    0.000028824280    -0.000043993475    0.101593271324    -0.061654346575
