# GHz S RI R 45
0.000     0.022429594562    0.001894973095    -0.000000011106    0.000000499099    0.000831152834    0.001620271317    -0.000000218448    0.000000111592
            -0.000000011104    0.000000499099    0.022984428355    0.001216201542    0.000000141803    0.000000786215    0.000872589267    0.001228190057
            0.000831152721    0.001620271375    0.000000141785    0.000000786215    0.022375003312    0.001882704488    -0.000000011012    0.000000508729
            -0.000000218448    0.000000111592    0.000872589288    0.001228190042    -0.000000011013    0.000000508729    0.023009669383    0.001228101932
0.025     0.028207388857    0.009896861909    0.000000222459    0.000001116665    0.003167120951    0.010258088436    -0.000000249009    0.000000294529
            0.000000222460    0.000001116667    0.027447722158    0.009079521370    0.000000575160    0.000001726929    0.002338737457    0.010019759341
            0.003164852715    0.010261040523    0.000000575158    0.000001726917    0.028131730949    0.009856823859    0.000000231610    0.000001139179
            -0.000000249010    0.000000294529    0.002338698362    0.010018072055    0.000000231610    0.000001139178    0.027366900567    0.009038436872
0.050     0.036433041732    0.013700996982    0.000000844729    0.000002027329    0.009690991025    0.018496890933    -0.000000149984    0.000000685868
            0.000000844729    0.000002027329    0.032570501190    0.013466999333    0.000001595210    0.000003019765    0.006656650483    0.018934723897
            0.009690964008    0.018496926537    0.000001595210    0.000003019765    0.036323517566    0.013630547386    0.000000872849    0.000002058979
            -0.000000149984    0.000000685868    0.006656706976    0.018934688136    0.000000872849    0.000002058979    0.032424540774    0.013434378986
0.075     0.045918640873    0.013393224146    0.000001765224    0.000002707322    0.019144705518    0.023187109150    0.000000114944    0.000001036812
            0.000001765224    0.000002707322    0.037893331665    0.015661949091    0.000003002152    0.000003921490    0.013067083702    0.025765853481
            0.019144698347    0.023187111181    0.000003002151    0.000003921490    0.045778355453    0.013327582119    0.000001804901    0.000002729874
            0.000000114944    0.000001036812    0.013067090463    0.025765856779    0.000001804901    0.000002729874    0.037666810130    0.015665525285
0.100     0.055340293224    0.008484913870    0.000002916978    0.000003089617    0.029889954889    0.023452950029    0.000000499853    0.000001293950
            0.000002916978    0.000003089617    0.042894837252    0.015620922841    0.000004699216    0.000004368581    0.020591745242    0.030015313784
            0.029889954889    0.023452950029    0.000004699216    0.000004368581    0.055182935378    0.008446752187    0.000002946721    0.000003095590
            0.000000499853    0.000001293950    0.020591744719    0.030015314143    0.000002946721    0.000003095590    0.042586993119    0.015709896133
0.125     0.062811334720    -0.000903742415    0.000004219285    0.000003127602    0.040101074463    0.019041140534    0.000000963833    0.000001440213
            0.000004219285    0.000003127602    0.046709534351    0.013599215658    0.000006567485    0.000004311304    0.028187426896    0.031569207991
            0.040101074463    0.019041140534    0.000006567485    0.000004311304    0.062663144249    -0.000898184562    0.000004212411    0.000003128656
            0.000000963833    0.000001440213    0.028187426345    0.031569208483    0.000004212411    0.000003128656    0.046341311566    0.013813232945
0.150     0.066647924132    -0.014020968393    0.000005586008    0.000002793045    0.047987317287    0.010380467077    0.000001478815    0.000001463055
            0.000005586008    0.000002793045    0.048544499585    0.010210891093    0.000008489943    0.000003735146    0.034864273163    0.030704122045
            0.047987317287    0.010380467077    0.000008489943    0.000003735146    0.066546613266    -0.013965191785    0.000005524211    0.000002823342
            0.000001478814    0.000001463055    0.034864273163    0.030704122045    0.000005524211    0.000002823342    0.048163024269    0.010598151841
0.175     0.065368405401    -0.029393732456    0.000006933286    0.000002074947    0.051988589477    -0.001493281220    0.000002020033    0.000001361643
            0.000006933286    0.000002074947    0.047939556541    0.006389574635    0.000010361041    0.000002636654    0.039806634796    0.028034055719
            0.051988589477    -0.001493281220    0.000010361041    0.000002636654    0.065356407181    -0.029300386253    0.000006821177    0.000002184111
            0.000002020033    0.000001361643    0.039806634796    0.028034055719    0.000006821177    0.000002184111    0.047608690869    0.006966041227
0.200     0.058133839330    -0.045064111600    0.000008177015    0.000000974182    0.050985787959    -0.015025780292    0.000002570140    0.000001130554
            0.000008177015    0.000000974182    0.044792329115    0.003208046095    0.000012079953    0.000001022566    0.042485928337    0.024440599225
            0.050985787959    -0.015025780292    0.000012079953    0.000001022566    0.058251184940    -0.044966105717    0.000008051696    0.000001213076
            0.000002570140    0.000001130554    0.042485928337    0.024440599225    0.000008051696    0.000001213076    0.044579357358    0.003961899949
0.225     0.044823224809    -0.058830404345    0.000009232220    -0.000000496409    0.044449395116    -0.028311988236    0.000003112520    0.000000762393
            0.000009232220    -0.000000496409    0.039418565473    0.001737094817    0.000013544307    -0.000001096210    0.042740836614    0.020948362683
            0.044449395116    -0.028311988236    0.000013544307    -0.000001096210    0.045097949854    -0.058780394672    0.000009164235    -0.000000094922
            0.000003112520    0.000000762393    0.042740836614    0.020948362683    0.000009164235    -0.000000094922    0.039384930258    0.002629743489
0.250     0.026116746247    -0.068495132382    0.000010010269    -0.000002310076    0.032550866504    -0.039313103895    0.000003624243    0.000000242113
            0.000010010269    -0.000002310076    0.032538739586    0.002913514051    0.000014640596    -0.000003698891    0.040817444305    0.018592573894
            0.032550866504    -0.039313103895    0.000014640596    -0.000003698891    0.026557263764    -0.068560411466    0.000010093553    -0.000001750424
            0.000003624243    0.000000242113    0.040817444305    0.018592573894    0.000010093553    -0.000001750424    0.032729645190    0.003883184834
0.275     0.003461820384    -0.072133197841    0.000010420835    -0.000004421853    0.016190073463    -0.046097061457    0.000004071932    -0.000000444875
            0.000010420835    -0.000004421853    0.025225120418    0.007370686675    0.000015238829    -0.000006745374    0.037354810392    0.018257484800
            0.016190073463    -0.046097061457    0.000015238829    -0.000006745374    0.004049885871    -0.072388166445    0.000010752164    -0.000003758925
            0.000004071932    -0.000000444875    0.037354810392    0.018257484800    0.000010752164    -0.000003758925    0.025660674000    0.008339171592
0.300     -0.021023075924    -0.068375767533    0.000010373547    -0.000006762201    -0.003055932021    -0.047108400577    0.000004405005    -0.000001307876
            0.000010373547    -0.000006762201    0.018777899707    0.015326963897    0.000015195293    -0.000010158262    0.033316841837    0.020537317898
            -0.003055932021    -0.047108400577    0.000015195293    -0.000010158262    -0.020336043546    -0.068891119396    0.000011025171    -0.000006102748
            0.000004405005    -0.000001307876    0.033316841837    0.020537317898    0.000011025171    -0.000006102748    0.019447429690    0.016210442606
0.325     -0.044768365032    -0.056630109225    0.000009788155    -0.000009233362    -0.023085324898    -0.041400068967    0.000004560721    -0.000002338607
            0.000009788155    -0.000009233362    0.014561027607    0.026489324967    0.000014365946    -0.000013808730    0.029861589614    0.025611723995
            -0.023085324898    -0.041400068967    0.000014365946    -0.000013808730    -0.044059191683    -0.057460513238    0.000010780652    -0.000008722188
            0.000004560721    -0.000002338607    0.029861589614    0.025611723995    0.000010780652    -0.000008722188    0.015421593644    0.027210912303
0.350     -0.065052693424    -0.037244434869    0.000008603659    -0.000011706183    -0.041520993853    -0.028820307189    0.000004467563    -0.000003502347
            0.000008603659    -0.000011706183    0.013801032702    0.040055047443    0.000012630002    -0.000017505679    0.028171673695    0.033193164335
            -0.041520993853    -0.028820307189    0.000012630002    -0.000017505679    -0.064420886988    -0.038417263159    0.000009887629    -0.000011498582
            0.000004467563    -0.000003502347    0.028171673695    0.033193164335    0.000009887629    -0.000011498582    0.014781280149    0.040557530935
0.375     -0.079356293581    -0.011521557872    0.000006794260    -0.000014026709    -0.056015661701    -0.010077688016    0.000004062796    -0.000004732527
            0.000006794260    -0.000014026709    0.017388676833    0.054769724193    0.000009921136    -0.000021002588    0.029258589950    0.042533874364
            -0.056015661701    -0.010077688016    0.000009921136    -0.000021002588    -0.078912588826    -0.013028209882    0.000008247910    -0.000014252558
            0.000004062796    -0.000004732527    0.029258589950    0.042533874364    0.000008247910    -0.000014252558    0.018397982571    0.055025812953
0.400     -0.085718111847    0.018391581520    0.000004379822    -0.000016025292    -0.064586559917    0.013312880366    0.000003304804    -0.000005931441
            0.000004379822    -0.000016025292    0.025718191678    0.069089794307    0.000006254446    -0.000024015494    0.033793960897    0.052531619905
            -0.064586559917    0.013312880366    0.000006254446    -0.000024015494    -0.085571068419    0.016599436348    0.000005825329    -0.000016753826
            0.000003304804    -0.000005931441    0.033793960897    0.052531619905    0.000005825329    -0.000016753826    0.026659219280    0.069109070701
0.425     -0.083009324066    0.049764804189    0.000001434201    -0.000017537033    -0.065880366971    0.039223163538    0.000002191902    -0.000006983698
            0.000001434201    -0.000017537033    0.038597697287    0.081384125501    0.000001744202    -0.000026261102    0.041988543175    0.061883842358
            -0.065880366971    0.039223163538    0.000001744202    -0.000026261102    -0.083249968648    0.047773228144    0.000002671203    -0.000018754252
            0.000002191902    -0.000006983698    0.041988543175    0.061883842358    0.000002671203    -0.000018754252    0.039381710542    0.081212691944
0.450     -0.071095388053    0.079630582364    -0.000001917097    -0.000018419385    -0.059356076568    0.065193475957    0.000000767220    -0.000007771615
            -0.000001917097    -0.000018419385    0.055261623961    0.090171122515    -0.000003397835    -0.000027495610    0.053561008507    0.069290553844
            -0.059356076568    0.065193475957    -0.000003397835    -0.000027495610    -0.071784166285    0.077555572425    -0.000001069930    -0.000020023610
            0.000000767220    -0.000007771615    0.053561008507    0.069290553844    -0.000001069930    -0.000020023610    0.055821701790    0.089887316595
0.475     -0.050830638841    0.105152395094    -0.000005508121    -0.000018575353    -0.045315327893    0.088743997083    -0.000000881178    -0.000008200900
            -0.000005508121    -0.000018575353    0.074465544405    0.094314162368    -0.000008884570    -0.000027556530    0.067779177042    0.073630082768
            -0.045315327893    0.088743997083    -0.000008884570    -0.000027556530    -0.051988231859    0.103127849063    -0.000005173859    -0.000020393855
            -0.000000881178    -0.000008200900    0.067779177042    0.073630082768    -0.000005173859    -0.000020393855    0.074767177320    0.094017505866
0.500     -0.023927624194    0.123954582815    -0.000009151463    -0.000017961950    -0.024830209596    0.107667444724    -0.000002635082    -0.000008213879
            -0.000009151463    -0.000017961950    0.094657765712    0.093167771572    -0.000014390245    -0.000026383353    0.083576737129    0.074108451057
            -0.024830209596    0.107667444724    -0.000014390245    -0.000026383353    -0.025530784445    0.122117720293    -0.000009367914    -0.000019784459
            -0.000002635082    -0.000008213878    0.083576737129    0.074108451057    -0.000009367914    -0.000019784459    0.094704572502    0.092966073264
0.525     0.007279719216    0.134348858047    -0.000012662608    -0.000016596315    0.000432154362    0.120230523339    -0.000004365951    -0.000007803786
            -0.000012662608    -0.000016596315    0.114168316388    0.086631054124    -0.000019596101    -0.000024025696    0.099690020698    0.070329918924
            0.000432154362    0.120230523339    -0.000019596101    -0.000024025696    0.005297114377    0.132826367526    -0.000013373799    -0.000018217287
            -0.000004365951    -0.000007803786    0.099690020698    0.070329918924    -0.000013373799    -0.000018217287    0.114003331498    0.086626816049
0.550     0.040109604014    0.135461527794    -0.000015878792    -0.000014543661    0.028411505115    0.125308888069    -0.000005955911    -0.000007007722
            -0.000015878792    -0.000014543661    0.131404918003    0.075138276916    -0.000024227968    -0.000020624853    0.114812245583    0.062324357779
            0.028411505115    0.125308888069    -0.000024227968    -0.000020624853    0.037851067806    0.134355852196    -0.000016945893    -0.000015803324
            -0.000005955911    -0.000007007722    0.114812245583    0.062324357779    -0.000016945893    -0.000015803324    0.131105152154    0.075414789881
0.575     0.071798755791    0.127245463838    -0.000018675596    -0.000011905000    0.056857754318    0.122416215623    -0.000007316899    -0.000005900717
            -0.000018675596    -0.000011905000    0.144999615369    0.059582091399    -0.000028087126    -0.000016387477    0.127711819643    0.050513867828
            0.056857754318    0.122416215623    -0.000028087126    -0.000016387477    0.069396288026    0.126625542110    -0.000019905056    -0.000012722082
            -0.000007316899    -0.000005900717    0.127711819643    0.050513867828    -0.000019905056    -0.000012722082    0.144668738283    0.060193683096
0.600     0.099735590171    0.110429702924    -0.000020968360    -0.000008795414    0.083511086056    0.111704043583    -0.000008397628    -0.000004573951
            -0.000020968360    -0.000008795414    0.153928769331    0.041211623400    -0.000031058835    -0.000011547284    0.137343017167    0.035667462971
            0.083511086056    0.111704043583    -0.000031058835    -0.000011547284    0.097338831608    0.110323201525    -0.000022151324    -0.000009184847
            -0.000008397628    -0.000004573951    0.137343017167    0.035667462971    -0.000022151324    -0.000009184847    0.153686096131    0.042176434776
0.625     0.121637211988    0.086414556685    -0.000022712972    -0.000005329153    0.106238739847    0.093907623343    -0.000009188838    -0.000003121165
            -0.000022712972    -0.000005329153    0.157576828179    0.021514423144    -0.000033112701    -0.000006331896    0.142914002768    0.018827606573
            0.106238739847    0.093907623343    -0.000033112701    -0.000006331896    0.119401911203    0.086804352548    -0.000023669366    -0.000005401756
            -0.000009188838    -0.000003121165    0.142914002768    0.018827606573    -0.000023669366    -0.000005401756    0.157545691062    0.022809639105
0.650     0.135692659276    0.057153469568    -0.000023891432    -0.000001605171    0.123165146226    0.070301617915    -0.000009713006    -0.000001618724
            -0.000023891432    -0.000001605171    0.155783672991    0.002096540605    -0.000034282772    -0.000000932509    0.143959036650    0.001244987099
            0.123165146226    0.070301617915    -0.000034282772    -0.000000932509    0.133767264466    0.057976716434    -0.000024512019    -0.000001549184
            -0.000009713005    -0.000001618726    0.143959036650    0.001244987049    -0.000024512019    -0.000001549184    0.156077974756    0.003659913679
0.675     0.140664404967    0.025022604242    -0.000024503623    0.000002298507    0.132771827209    0.042634252021    -0.000010017779    -0.000000116206
            -0.000024503623    0.000002298507    0.148853359019    -0.015432600432    -0.000034646191    0.000004515509    0.140380106797    -0.015708758075
            0.132771827209    0.042634252021    -0.000034646191    0.000004515509    0.139177943538    0.026172762680    -0.000024782061    0.000002253870
            -0.000010017779    -0.000000116206    0.140380106797    -0.015708758075    -0.000024782061    0.000002253870    0.149565329939    -0.013700757924
0.700     0.135982682887    -0.007317216869    -0.000024547512    0.000006325144    0.134026944723    0.013057166260    -0.000010155437    0.000001371991
            -0.000024547512    0.000006325144    0.137561286132    -0.029582264813    -0.000034288055    0.000009940585    0.132501855314    -0.030633118492
            0.134026944723    0.013057166260    -0.000034288055    0.000009940585    0.135031769104    -0.005985218764    -0.000024597120    0.000005959291
            -0.000010155437    0.000001371991    0.132501855314    -0.030633118492    -0.000024597120    0.000005959291    0.138749405048    -0.027810827614
0.725     0.121818030224    -0.037075877217    -0.000024011693    0.000010433327    0.126493428850    -0.015976684895    -0.000010170488    0.000002865947
            -0.000024011693    0.000010433327    0.123125676497    -0.039106888857    -0.000033272822    0.000015330680    0.121087872326    -0.042225786286
            0.126493428850    -0.015976684895    -0.000033272822    0.000015330680    0.121455189364    -0.035736619558    -0.000024058749    0.000009591800
            -0.000010170488    0.000002865947    0.121087872326    -0.042225786286    -0.000024058749    0.000009591800    0.124804794923    -0.037443904830
0.750     0.099140408464    -0.061527572449    -0.000022861500    0.000014582900    0.110458856736    -0.041871682794    -0.000010077129    0.000004412190
            -0.000022861500    0.000014582900    0.107158004281    -0.043148544109    -0.000031610094    0.000020711567    0.107344183041    -0.049426009629
            0.110458856736    -0.041871682794    -0.000031610094    0.000020711567    0.099364072505    -0.060371956494    -0.000023211767    0.000013231684
            -0.000010077129    0.000004412190    0.107344183041    -0.049426009629    -0.000023211767    0.000013231684    0.109293266134    -0.041745234331
0.775     0.069732173932    -0.078240881986    -0.000021041871    0.000018720124    0.087011660277    -0.062100670833    -0.000009850963    0.000006068127
            -0.000021041871    0.000018720124    0.091554447358    -0.041378920443    -0.000029238859    0.000026114242    0.092846897831    -0.051588022680
            0.087011660277    -0.062100670833    -0.000029238859    0.000026114242    0.070480554164    -0.077459703172    -0.000022020178    0.000016984665
            -0.000009850963    0.000006068127    0.092846897831    -0.051588022680    -0.000022020178    0.000016984665    0.094058810473    -0.040372903856
