# GHz S RI R 45
0.000     0.022429594562    0.001894973095    0.000000323019    0.000001118780    0.000831152834    0.001620271317    0.000000314383    0.000001111253
            0.000000323019    0.000001118780    0.023191497715    0.001352185324    0.000000348990    0.000001154361    0.000831071374    0.001391729077
            0.000831152721    0.001620271375    0.000000348990    0.000001154361    0.022375003312    0.001882704488    0.000000350741    0.000001163412
            0.000000314383    0.000001111253    0.000831070735    0.001391729109    0.000000350741    0.000001163412    0.023123712360    0.001356513978
0.025     0.028207388857    0.009896861909    0.000001020488    0.000002418802    0.003167120951    0.010258088436    0.000000998966    0.000002406256
            0.000001020485    0.000002418804    0.027805833487    0.009637644128    0.000001074248    0.000002495638    0.002484008671    0.010698672409
            0.003164852715    0.010261040523    0.000001074246    0.000002495639    0.028131730949    0.009856823859    0.000001075145    0.000002517629
            0.000000998964    0.000002406256    0.002486402427    0.010698338104    0.000001075145    0.000002517628    0.027758182684    0.009703644965
0.050     0.036433041732    0.013700996982    0.000002542126    0.000004087882    0.009690991025    0.018496890933    0.000002506863    0.000004081957
            0.000002542126    0.000004087882    0.033322903988    0.014229585407    0.000002646147    0.000004209147    0.007218176245    0.020090328213
            0.009690964008    0.018496926537    0.000002646147    0.000004209147    0.036323517566    0.013630547386    0.000002655669    0.000004258384
            0.000002506863    0.000004081957    0.007218210382    0.020090335074    0.000002655669    0.000004258384    0.033304650980    0.014362225335
0.075     0.045918640873    0.013393224146    0.000004526298    0.000005146160    0.019144705518    0.023187109150    0.000004484204    0.000005151815
            0.000004526298    0.000005146160    0.039013017865    0.016412967159    0.000004687538    0.000005292603    0.014161415463    0.027166539922
            0.019144698347    0.023187111181    0.000004687538    0.000005292603    0.045778355453    0.013327582119    0.000004716854    0.000005365831
            0.000004484204    0.000005151815    0.014161430055    0.027166542465    0.000004716854    0.000005365831    0.039051227549    0.016602942351
0.100     0.055340293224    0.008484913870    0.000006830578    0.000005548116    0.029889954889    0.023452950029    0.000006786929    0.000005567877
            0.000006830578    0.000005548116    0.044277792150    0.016184952180    0.000007054453    0.000005702761    0.022223946107    0.031407511379
            0.029889954889    0.023452950029    0.000007054453    0.000005702761    0.055182935378    0.008446752187    0.000007112686    0.000005794468
            0.000006786929    0.000005567877    0.022223946107    0.031407511379    0.000007112686    0.000005794468    0.044392276041    0.016407070411
0.125     0.062811334720    -0.000903742415    0.000009286482    0.000005263600    0.040101074463    0.019041140534    0.000009247155    0.000005297977
            0.000009286487    0.000005263589    0.048119275389    0.013860160747    0.000009574243    0.000005409744    0.030248530579    0.032727979107
            0.040101074463    0.019041140534    0.000009574218    0.000005409740    0.062663144249    -0.000898184562    0.000009669430    0.000005511664
            0.000009247156    0.000005297977    0.030248530579    0.032727979107    0.000009669430    0.000005511664    0.048317895539    0.014081396818
0.150     0.066647924132    -0.014020968393    0.000011741824    0.000004303977    0.047987317287    0.010380467077    0.000011712328    0.000004351280
            0.000011741824    0.000004303977    0.049828962323    0.010176754386    0.000012094177    0.000004426779    0.037148655885    0.031479773959
            0.047987317287    0.010380467077    0.000012094177    0.000004426779    0.066546613266    -0.013965191785    0.000012232131    0.000004527857
            0.000011712328    0.000004351280    0.037148686558    0.031479760964    0.000012232131    0.000004527857    0.050110299727    0.010363566802
0.175     0.065368405401    -0.029393732456    0.000014078723    0.000002691888    0.051988589477    -0.001493281220    0.000014063481    0.000002748291
            0.000014078723    0.000002691888    0.048884357853    0.006147355800    0.000014493674    0.000002776415    0.042054743038    0.028390667677
            0.051988589477    -0.001493281220    0.000014493674    0.000002776415    0.065356407181    -0.029300386253    0.000014677151    0.000002863523
            0.000014063481    0.000002748291    0.042054760741    0.028390659327    0.000014677151    0.000002863523    0.049232584461    0.006265482847
0.200     0.058133839330    -0.045064111600    0.000016195682    0.000000441691    0.050985787959    -0.015025780292    0.000016197420    0.000000501917
            0.000016195682    0.000000441691    0.045212781004    0.002965469478    0.000016669864    0.000000473531    0.044435640095    0.024473939477
            0.050985787959    -0.015025780292    0.000016669864    0.000000473531    0.058251184940    -0.044966105717    0.000016897936    0.000000532385
            0.000016197420    0.000000501917    0.044435640095    0.024473939477    0.000016897936    0.000000532385    0.045598048078    0.002986245182
0.225     0.044823224809    -0.058830404345    0.000017979684    -0.000002450215    0.044449395116    -0.028311988236    0.000017999166    -0.000002392136
            0.000017979695    -0.000002450211    0.039227666728    0.001801605030    0.000018508463    -0.000002486267    0.044185741747    0.020883726832
            0.044449395116    -0.028311988236    0.000018508465    -0.000002486266    0.045097949854    -0.058780394672    0.000018775940    -0.000002470123
            0.000017999166    -0.000002392137    0.044185741747    0.020883726832    0.000018775940    -0.000002470123    0.039608287425    0.001707193089
0.250     0.026116746247    -0.068495132382    0.000019283232    -0.000005987135    0.032550866504    -0.039313103895    0.000019318755    -0.000005936936
            0.000019283226    -0.000005987132    0.031794697448    0.003645271880    0.000019859772    -0.000006108036    0.041663967429    0.018757870218
            0.032550866504    -0.039313103895    0.000019859775    -0.000006108029    0.026557263764    -0.068560411466    0.000020156983    -0.000006147691
            0.000019318756    -0.000005936937    0.041663967429    0.018757870218    0.000020156982    -0.000006147691    0.032120764387    0.003433636202
0.275     0.003461820384    -0.072133197841    0.000019907703    -0.000010144030    0.016190073463    -0.046097061457    0.000019955680    -0.000010106382
            0.000019907710    -0.000010144033    0.024154343617    0.009118873199    0.000020520646    -0.000010368494    0.037668347447    0.019031480506
            0.016190073463    -0.046097061457    0.000020520642    -0.000010368493    0.004049885871    -0.072388166445    0.000020834300    -0.000010474609
            0.000019955680    -0.000010106382    0.037668347447    0.019031480506    0.000020834300    -0.000010474610    0.024373814970    0.008807276607
0.300     -0.021023075924    -0.068375767533    0.000019613021    -0.000014823572    -0.003055932021    -0.047108400577    0.000019668493    -0.000014801467
            0.000019613021    -0.000014823572    0.017772781173    0.018354745058    0.000020244691    -0.000015170891    0.033344876492    0.022276951925
            -0.003055932021    -0.047108400577    0.000020244691    -0.000015170891    -0.020336043546    -0.068891119396    0.000020558279    -0.000015350271
            0.000019668493    -0.000014801467    0.033344876492    0.022276951925    0.000020558279    -0.000015350271    0.017838653492    0.017981235406
0.325     -0.044768365032    -0.056630109225    0.000018150452    -0.000019820680    -0.023085324898    -0.041400068967    0.000018208114    -0.000019815015
            0.000018150452    -0.000019820680    0.014142897637    0.030900222571    0.000018775053    -0.000020307807    0.030021656440    0.028568325223
            -0.023085324898    -0.041400068967    0.000018775053    -0.000020307807    -0.044059191683    -0.057460513238    0.000019070370    -0.000020562908
            0.000018208114    -0.000019815015    0.030021656440    0.028568325223    0.000019070370    -0.000020562908    0.014021778580    0.030521857339
0.350     -0.065052693424    -0.037244434869    0.000015323846    -0.000024805565    -0.041520993853    -0.028820307189    0.000015378652    -0.000024815545
            0.000015323846    -0.000024805565    0.014550240230    0.045735311005    0.000015907709    -0.000025443685    0.029001171402    0.037436877040
            -0.041520993853    -0.028820307189    0.000015907709    -0.000025443685    -0.064420886988    -0.038417263159    0.000016165889    -0.000025771976
            0.000015378652    -0.000024815545    0.029001171402    0.037436877040    0.000016165889    -0.000025771976    0.014229505844    0.045422821433
0.375     -0.079356293581    -0.011521557872    0.000011056007    -0.000029345795    -0.056015661701    -0.010077688016    0.000011103665    -0.000029369023
            0.000011056007    -0.000029345795    0.019846862881    0.061363683961    0.000011559002    -0.000030136094    0.031329267156    0.047904386877
            -0.056015661701    -0.010077688016    0.000011559002    -0.000030136094    -0.078912588826    -0.013028209882    0.000011762168    -0.000030530366
            0.000011103665    -0.000029369023    0.031329267156    0.047904386877    0.000011762168    -0.000030530366    0.019340639338    0.061193890243
0.400     -0.085718111847    0.018391581520    0.000005442667    -0.000032964861    -0.064586559917    0.013312880366    0.000005480242    -0.000032997841
            0.000005442667    -0.000032964861    0.030284943283    0.076023726195    0.000005822423    -0.000033895832    0.037609643559    0.058632972917
            -0.064586559917    0.013312880366    0.000005822423    -0.000033895832    -0.085571068419    0.016599436348    0.000005954762    -0.000034344498
            0.000005480242    -0.000032997841    0.037609643559    0.058632972917    0.000005954762    -0.000034344498    0.029635567986    0.076068718585
0.425     -0.083009324066    0.049764804189    -0.000001232759    -0.000035228311    -0.065880366971    0.039223163538    -0.000001206951    -0.000035267318
            -0.000001232759    -0.000035228311    0.045443114658    0.087935357538    -0.000001015927    -0.000036274573    0.047887672491    0.068126174682
            -0.065880366971    0.039223163538    -0.000001015927    -0.000036274573    -0.083249968648    0.047773228144    -0.000000967205    -0.000036762514
            -0.000001206951    -0.000035267318    0.047887672491    0.068126174682    -0.000000967205    -0.000036762514    0.044718868920    0.088251760395
0.450     -0.071095388053    0.079630582364    -0.000008530123    -0.000035827705    -0.059356076568    0.065193475957    -0.000008516529    -0.000035868784
            -0.000008530123    -0.000035827705    0.064277149757    0.095570856097    -0.000008507810    -0.000036951666    0.061649129072    0.074971279668
            -0.059356076568    0.065193475957    -0.000008507810    -0.000036951666    -0.071784166285    0.077555572425    -0.000008551694    -0.000037461069
            -0.000008516529    -0.000035868784    0.061649129072    0.074971279668    -0.000008551694    -0.000037461069    0.063566430568    0.096191412412
0.475     -0.050830638841    0.105152395094    -0.000015924404    -0.000034639288    -0.045315327893    0.088743997083    -0.000015922311    -0.000034678759
            -0.000015924404    -0.000034639288    0.085264086127    0.097861316912    -0.000016116012    -0.000035794854    0.077902529783    0.078033495786
            -0.045315327893    0.088743997083    -0.000016116012    -0.000035794854    -0.051988231859    0.103127849063    -0.000016257177    -0.000036306222
            -0.000015922311    -0.000034678759    0.077902529783    0.078033495786    -0.000016257177    -0.000036306222    0.084665318110    0.098788342268
0.500     -0.023927624194    0.123954582815    -0.000022893387    -0.000031737946    -0.024830209596    0.107667444724    -0.000022900999    -0.000031772416
            -0.000022893387    -0.000031737946    0.106621407034    0.094329710382    -0.000023303795    -0.000032875278    0.095340434343    0.076601884424
            -0.024830209596    0.107667444724    -0.000023303795    -0.000032875278    -0.025530784445    0.122117720293    -0.000023542443    -0.000033368521
            -0.000022900999    -0.000031772416    0.095340434343    0.076601884424    -0.000023542443    -0.000033368521    0.106232668729    0.095531624428
0.525     0.007279719216    0.134348858047    -0.000028998683    -0.000027369311    0.000432154362    0.120230523339    -0.000029013264    -0.000027396192
            -0.000028998687    -0.000027369314    0.126526940756    0.085112618109    -0.000029618461    -0.000028440676    0.112506709358    0.070439971276
            0.000432154362    0.120230523339    -0.000029618456    -0.000028440671    0.005297114377    0.132826367526    -0.000029950419    -0.000028896288
            -0.000029013264    -0.000027396192    0.112506709358    0.070439971276    -0.000029950419    -0.000028896287    0.126435540611    0.086526954548
0.550     0.040109604014    0.135461527794    -0.000033938600    -0.000021891616    0.028411505115    0.125308888069    -0.000033956581    -0.000021909292
            -0.000033938600    -0.000021891616    0.143329381632    0.070913930707    -0.000034746230    -0.000022855898    0.127969417655    0.059784978980
            0.028411505115    0.125308888069    -0.000034746230    -0.000022855898    0.037851067806    0.134355852196    -0.000035163035    -0.000023255834
            -0.000033956581    -0.000021909292    0.127969417655    0.059784978980    -0.000035163035    -0.000023255834    0.143600665639    0.072450367115
0.575     0.071798755791    0.127245463838    -0.000037570107    -0.000015707904    0.056857754318    0.122416215623    -0.000037587307    -0.000015716059
            -0.000037570108    -0.000015707905    0.155692134197    0.052894506507    -0.000038535650    -0.000016533950    0.140442267811    0.045289761907
            0.056857754318    0.122416215623    -0.000038535652    -0.000016533951    0.069396288026    0.126625542110    -0.000039025537    -0.000016862851
            -0.000037587307    -0.000015716059    0.140442267811    0.045289761907    -0.000039025537    -0.000016862851    0.156363099202    0.054442656039
0.600     0.099735590171    0.110429702924    -0.000039899138    -0.000009200734    0.083511086056    0.111704043583    -0.000039911235    -0.000009200977
            -0.000039899138    -0.000009200734    0.162701817544    0.032544603025    -0.000040989195    -0.000009868907    0.148893055022    0.027956446343
            0.083511086056    0.111704043583    -0.000040989191    -0.000009868906    0.097338831608    0.110323201525    -0.000041537435    -0.000010114699
            -0.000039911235    -0.000009200977    0.148893055022    0.027956446343    -0.000041537435    -0.000010114699    0.163774089351    0.033983159407
0.625     0.121637211988    0.086414556685    -0.000041053249    -0.000002681756    0.106238739847    0.093907623343    -0.000041056447    -0.000002677186
            -0.000041053247    -0.000002681756    0.163916565301    0.011549382240    -0.000042235016    -0.000003183325    0.152605752051    0.009051803387
            0.106238739847    0.093907623343    -0.000042235018    -0.000003183325    0.119401911203    0.086804352548    -0.000042825584    -0.000003337500
            -0.000041056447    -0.000002677186    0.152605752288    0.009051799392    -0.000042825584    -0.000003337500    0.165353420526    0.012755425810
0.650     0.135692659276    0.057153469568    -0.000041236738    0.000003644802    0.123165146226    0.070301617915    -0.000041228687    0.000003648891
            -0.000041236742    0.000003644802    0.159399974288    -0.008340294093    -0.000042482502    0.000003309763    0.151251884659    -0.009970419302
            0.123165146226    0.070301617915    -0.000042482499    0.000003309763    0.133767264466    0.057976716434    -0.000043098759    0.000003251536
            -0.000041228687    0.000003648891    0.151251884659    -0.009970419302    -0.000043098759    0.000003251536    0.161125755669    -0.007477722155
0.675     0.140664404967    0.025022604242    -0.000040681561    0.000009700382    0.132771827209    0.042634252021    -0.000040662029    0.000009697397
            -0.000040681560    0.000009700381    0.149720088343    -0.025432033487    -0.000041971519    0.000009526775    0.144931209903    -0.027567474132
            0.132771827209    0.042634252021    -0.000041971519    0.000009526775    0.139177943538    0.026172762680    -0.000042597510    0.000009565435
            -0.000040662029    0.000009697397    0.144931209903    -0.027567474132    -0.000042597509    0.000009565442    0.151622089363    -0.025000653196
0.700     0.135982682887    -0.007317216869    -0.000039588380    0.000015533984    0.134026944723    0.013057166260    -0.000039560534    0.000015516939
            -0.000039588380    0.000015533984    0.135947819872    -0.038223867130    -0.000040911372    0.000015516085    0.134229965778    -0.042219645042
            0.134026944723    0.013057166260    -0.000040911372    0.000015516085    0.135031769104    -0.005985218764    -0.000041533345    0.000015649931
            -0.000039560534    0.000015516939    0.134229965778    -0.042219645042    -0.000041533345    0.000015649931    0.137882569792    -0.038275461898
0.725     0.121818030224    -0.037075877217    -0.000038068272    0.000021300653    0.126493428850    -0.015976684895    -0.000038038811    0.000021263590
            -0.000038068276    0.000021300655    0.119615689195    -0.045548924548    -0.000039421113    0.000021437863    0.120229531319    -0.052584186117
            0.126493428850    -0.015976684895    -0.000039421114    0.000021437864    0.121455189364    -0.035736619558    -0.000040027552    0.000021663488
            -0.000038038811    0.000021263590    0.120229531319    -0.052584186117    -0.000040027552    0.000021663488    0.121419823576    -0.046087992891
0.750     0.099140408464    -0.061527572449    -0.000036086133    0.000027211085    0.110458856736    -0.041871682794    -0.000036065177    0.000027150858
            -0.000036086129    0.000027211091    0.102645317393    -0.046738598063    -0.000037469674    0.000027511970    0.104490595488    -0.057674086650
            0.110458856736    -0.041871682794    -0.000037469676    0.000027511972    0.099364072505    -0.060371956494    -0.000038051614    0.000027826355
            -0.000036065177    0.000027150858    0.104490595488    -0.057674086650    -0.000038051614    0.000027826355    0.104151956429    -0.047711972377
0.775     0.069732173932    -0.078240881986    -0.000033429662    0.000033449762    0.087011660277    -0.062100670833    -0.000033429752    0.000033368114
            -0.000033429661    0.000033449761    0.087195225981    -0.041780301863    -0.000034842651    0.000033935346    0.088935405148    -0.057060816211
            0.087011660277    -0.062100670833    -0.000034842650    0.000033935345    0.070480554164    -0.077459703172    -0.000035392774    0.000034336958
            -0.000033429752    0.000033368114    0.088935405148    -0.057060816211    -0.000035392774    0.000034336959    0.088253557535    -0.043075017912
