# GHz S RI R 45
0.000     0.022429594562    0.001894973095    0.000000496401    0.000000388522    0.000831152834    0.001620271317    0.000000224620    0.000000440873
            0.000000496401    0.000000388522    0.020993718760    0.001730693876    0.000021060503    0.000000373241    0.000695946460    0.001460221848
            0.000831152721    0.001620271375    0.000021060503    0.000000373241    0.022375003312    0.001882704488    0.000000528401    0.000000438240
            0.000000224619    0.000000440873    0.000695946656    0.001460221865    0.000000528401    0.000000438240    0.020944394819    0.001743720678
0.025     0.028207388857    0.009896861909    0.000001134338    0.000001669707    0.003167120951    0.010258088436    0.000000618473    0.000000881713
            0.000001134399    0.000001669641    0.026194684403    0.008407335246    0.000035330087    0.000097002333    0.002680411958    0.008631707393
            0.003164852715    0.010261040523    0.000035330090    0.000097002331    0.028131730949    0.009856823859    0.000001186524    0.000001791719
            0.000000618479    0.000000881714    0.002678769620    0.008630408853    0.000001186560    0.000001791753    0.026134102275    0.008372652849
0.050     0.036433041732    0.013700996982    0.000002502140    0.000002940759    0.009690991025    0.018496890933    0.000001437670    0.000001280658
            0.000002502141    0.000002940758    0.033526130014    0.011476697463    0.000077227250    0.000192690462    0.008280147403    0.015661454157
            0.009690964008    0.018496926537    0.000077227250    0.000192690462    0.036323517566    0.013630547386    0.000002588319    0.000003173674
            0.000001437670    0.000001280658    0.008280115877    0.015661409742    0.000002588319    0.000003173676    0.033477921083    0.011415631094
0.075     0.045918640873    0.013393224146    0.000004105090    0.000003321685    0.019144705518    0.023187109150    0.000002372874    0.000001192734
            0.000004105090    0.000003321685    0.042144096817    0.011134941243    0.000142304906    0.000270943923    0.016541386651    0.019841268607
            0.019144698347    0.023187111181    0.000142304906    0.000270943923    0.045778355453    0.013327582119    0.000004258372    0.000003652367
            0.000002372874    0.000001192734    0.016541379535    0.019841270634    0.000004258373    0.000003652367    0.042121092544    0.011045073627
0.100     0.055340293224    0.008484913870    0.000005505608    0.000003062939    0.029889954889    0.023452950029    0.000003209552    0.000000672938
            0.000005505608    0.000003062939    0.051114993910    0.006896799504    0.000224062502    0.000328932135    0.026242795060    0.020395414407
            0.029889954889    0.023452950029    0.000224062502    0.000328932135    0.055182935378    0.008446752187    0.000005760538    0.000003438904
            0.000003209552    0.000000672938    0.026242794704    0.020395414865    0.000005760538    0.000003438904    0.051131411761    0.006771722844
0.125     0.062811334720    -0.000903742415    0.000006571901    0.000002519662    0.040101074463    0.019041140534    0.000003806608    -0.000000152307
            0.000006571901    0.000002519662    0.058940889472    -0.001315636819    0.000316836653    0.000365059607    0.035987539986    0.016975653693
            0.040101074463    0.019041140534    0.000316836653    0.000365059607    0.062663144249    -0.000898184562    0.000006922330    0.000002847062
            0.000003806608    -0.000000152307    0.035987543199    0.016975639851    0.000006922329    0.000002847062    0.059018713212    -0.001489102013
0.150     0.066647924132    -0.014020968393    0.000007443940    0.000001959405    0.047987317287    0.010380467077    0.000004130234    -0.000001135163
            0.000007443940    0.000001959405    0.064274936500    -0.013122714393    0.000415913896    0.000378442071    0.044348420339    0.009718780963
            0.047987317287    0.010380467077    0.000415913896    0.000378442071    0.066546613266    -0.013965191785    0.000007808977    0.000002137889
            0.000004130234    -0.000001135163    0.044348420339    0.009718780963    0.000007808977    0.000002137889    0.064415703466    -0.013364507713
0.175     0.065368405401    -0.029393732456    0.000008377049    0.000001416765    0.051988589477    -0.001493281220    0.000004223475    -0.000002190413
            0.000008377049    0.000001416765    0.065759214699    -0.027586586839    0.000516476683    0.000368619842    0.049999415051    -0.000776030993
            0.051988589477    -0.001493281220    0.000516476683    0.000368619842    0.065356407181    -0.029300386253    0.000008593449    0.000001391909
            0.000004223475    -0.000002190413    0.049999415051    -0.000776030976    0.000008593449    0.000001391909    0.065970912058    -0.027919716286
0.200     0.058133839330    -0.045064111600    0.000009567721    0.000000688621    0.050985787959    -0.015025780292    0.000004137861    -0.000003320091
            0.000009567721    0.000000688621    0.062465768355    -0.043334368412    0.000613653004    0.000335808408    0.051869115066    -0.013493508570
            0.050985787959    -0.015025780292    0.000613653004    0.000335808408    0.058251184940    -0.044966105717    0.000009418655    0.000000509707
            0.000004137861    -0.000003320091    0.051869115066    -0.013493508570    0.000009418655    0.000000509707    0.062750054815    -0.043790374032
0.225     0.044823224809    -0.058830404345    0.000010997548    -0.000000580446    0.044449395116    -0.028311988236    0.000003855019    -0.000004592517
            0.000010997548    -0.000000580446    0.053945089740    -0.058732722346    0.000702493689    0.000281083846    0.049252937554    -0.027098034739
            0.044449395116    -0.028311988236    0.000702493689    0.000281083846    0.045097949854    -0.058780394672    0.000010277797    -0.000000722989
            0.000003855019    -0.000004592517    0.049252937554    -0.027098034739    0.000010277797    -0.000000722989    0.054290925895    -0.059347809485
0.250     0.026116746247    -0.068495132382    0.000012355943    -0.000002725498    0.032550866504    -0.039313103895    0.000003243992    -0.000006066675
            0.000012355943    -0.000002725498    0.040307351326    -0.072039269263    0.000778120934    0.000206592535    0.041909059278    -0.040063842430
            0.032550866504    -0.039313103895    0.000778120934    0.000206592535    0.026557263764    -0.068560411466    0.000010959689    -0.000002505235
            0.000003243992    -0.000006066675    0.041909059278    -0.040063842430    0.000010959689    -0.000002505235    0.040689560213    -0.072848292024
0.275     0.003461820384    -0.072133197841    0.000013078415    -0.000005859598    0.016190073463    -0.046097061457    0.000002074930    -0.000007693544
            0.000013078415    -0.000005859598    0.022222419948    -0.081576868983    0.000836032397    0.000115696858    0.030099085110    -0.050822439539
            0.016190073463    -0.046097061457    0.000836032397    0.000115696858    0.004049885871    -0.072388166445    0.000011080996    -0.000004872891
            0.000002074930    -0.000007693544    0.030099085110    -0.050822439539    0.000011080996    -0.000004872891    0.022602178547    -0.082609249218
0.300     -0.021023075924    -0.068375767533    0.000012516386    -0.000009717779    -0.003055932021    -0.047108400577    0.000000109098    -0.000009240308
            0.000012516386    -0.000009717779    0.000901109600    -0.085921171877    0.000872524168    0.000012981315    0.014591483728    -0.057932601571
            -0.003055932021    -0.047108400577    0.000872524168    0.000012981315    -0.020336043546    -0.068891119396    0.000010217237    -0.000007590497
            0.000000109098    -0.000009240308    0.014591483728    -0.057932601571    0.000010217237    -0.000007590497    0.001226147469    -0.087195717374
0.325     -0.044768365032    -0.056630109225    0.000010187487    -0.000013625114    -0.023085324898    -0.041400068967    -0.000002767660    -0.000010281795
            0.000010187487    -0.000013625114    -0.022009548258    -0.084058742943    0.000885147641    -0.000095949233    -0.003395599883    -0.060233085589
            -0.023085324898    -0.041400068967    0.000885147641    -0.000095949233    -0.044059191683    -0.057460513238    0.000008087381    -0.000010138927
            -0.000002767660    -0.000010281795    -0.003395599883    -0.060233085589    0.000008087381    -0.000010138927    -0.021800706057    -0.085577997922
0.350     -0.065052693424    -0.037244434869    0.000006024876    -0.000016631054    -0.041520993853    -0.028820307189    -0.000006413640    -0.000010290184
            0.000006024876    -0.000016631054    -0.044566121122    -0.075531294849    0.000873089576    -0.000204895089    -0.022299078797    -0.056988827579
            -0.041520993853    -0.028820307189    0.000873089576    -0.000204895089    -0.064420886988    -0.038417263159    0.000004730625    -0.000011828380
            -0.000006413640    -0.000010290184    -0.022299078797    -0.056988827579    0.000004730625    -0.000011828380    -0.044540231460    -0.077278205076
0.375     -0.079356293581    -0.011521557872    0.000000512927    -0.000017783076    -0.056015661701    -0.010077688016    -0.000010371573    -0.000008800456
            0.000000512927    -0.000017783076    -0.064718542251    -0.060505615308    0.000837346430    -0.000307654795    -0.040357505260    -0.047982701976
            -0.056015661701    -0.010077688016    0.000837346430    -0.000307654795    -0.078912588826    -0.013028209882    0.000000589569    -0.000012008823
            -0.000010371573    -0.000008800456    -0.040357505260    -0.047982701976    0.000000589569    -0.000012008823    -0.064940216360    -0.062440274918
0.400     -0.085718111847    0.018391581520    -0.000005361710    -0.000016456668    -0.064586559917    0.013312880366    -0.000013923173    -0.000005604420
            -0.000005361710    -0.000016456668    -0.080520726710    -0.039798252467    0.000780620670    -0.000398667167    -0.055794216667    -0.033569228147
            -0.064586559917    0.013312880366    0.000780620670    -0.000398667167    -0.085571068419    0.016599436348    -0.000003547830    -0.000010312491
            -0.000013923173    -0.000005604420    -0.055794216667    -0.033569228147    -0.000003547830    -0.000010312491    -0.081044975729    -0.041858326016
0.425     -0.083009324066    0.049764804189    -0.000010351020    -0.000012608262    -0.065880366971    0.039223163538    -0.000016257089    -0.000000884989
            -0.000010351020    -0.000012608262    -0.090333424601    -0.014812190120    0.000706944060    -0.000473538325    -0.066996166340    -0.014650587283
            -0.065880366971    0.039223163538    0.000706944060    -0.000473538325    -0.083249968648    0.047773228144    -0.000006746599    -0.000006825799
            -0.000016257089    -0.000000884989    -0.066996166340    -0.014650587283    -0.000006746599    -0.000006825799    -0.091197330109    -0.016915202209
0.450     -0.071095388053    0.079630582364    -0.000013303634    -0.000006853534    -0.059356076568    0.065193475957    -0.000016700280    0.000004764685
            -0.000013303634    -0.000006853534    -0.093007198204    0.012583728165    0.000621125538    -0.000529336094    -0.072692410089    0.007398707898
            -0.059356076568    0.065193475957    0.000621125538    -0.000529336094    -0.071784166285    0.077555572425    -0.000008199831    -0.000002122118
            -0.000016700280    0.000004764685    -0.072692410089    0.007398707898    -0.000008199831    -0.000002122118    -0.094222992415    0.010534583662
0.475     -0.050830638841    0.105152395094    -0.000013507168    -0.000000327655    -0.045315327893    0.088743997083    -0.000014923879    0.000010460767
            -0.000013507168    -0.000000327655    -0.088001629430    0.040233213401    0.000528181049    -0.000564599755    -0.072077383281    0.030865055328
            -0.045315327893    0.088743997083    0.000528181049    -0.000564599755    -0.051988231859    0.103127849063    -0.000007477319    0.000002871368
            -0.000014923879    0.000010460767    -0.072077383281    0.030865055328    -0.000007477319    0.000002871368    -0.089551532580    0.038340567399
0.500     -0.023927624194    0.123954582815    -0.000010901498    0.000005620516    -0.024830209596    0.107667444724    -0.000011054809    0.000015245146
            -0.000010901498    0.000005620516    -0.075450347428    0.065900369687    0.000432884736    -0.000579121699    -0.064899642288    0.053864401466
            -0.024830209596    0.107667444724    0.000432884736    -0.000579121699    -0.025530784445    0.122117720293    -0.000004662035    0.000007123354
            -0.000011054809    0.000015245146    -0.064899642288    0.053864401466    -0.000004662035    0.000007123354    -0.077284400994    0.064263501139
0.525     0.007279719216    0.134348858047    -0.000006087912    0.000009793554    0.000432154362    0.120230523339    -0.000005648706    0.000018323584
            -0.000006087912    0.000009793554    -0.056142112829    0.087477864203    0.000339528249    -0.000573618653    -0.051471169955    0.074514284070
            0.000432154362    0.120230523339    0.000339528249    -0.000573618653    0.005297114377    0.132826367526    -0.000000325126    0.000009777546
            -0.000005648706    0.000018323584    -0.051471169955    0.074514284070    -0.000000325126    0.000009777546    -0.058179768324    0.086182485420
0.550     0.040109604014    0.135461527794    -0.000000150288    0.000011453086    0.028411505115    0.125308888069    0.000000452571    0.000019251934
            -0.000000150288    0.000011453086    -0.031447068208    0.103181715983    0.000251877870    -0.000549421069    -0.032637917986    0.091110024558
            0.028411505115    0.125308888069    0.000251877870    -0.000549421069    0.037851067806    0.134355852196    0.000004638714    0.000010370323
            0.000000452571    0.000019251934    -0.032637917986    0.091110024558    0.000004638714    0.000010370323    -0.033580914759    0.102289922072
0.575     0.071798755791    0.127245463838    0.000005646703    0.000010480018    0.056857754318    0.122416215623    0.000006331559    0.000018013713
            0.000005646703    0.000010480018    -0.003184536975    0.111694861987    0.000173263366    -0.000508276588    -0.009689573449    0.102254808347
            0.056857754318    0.122416215623    0.000173263366    -0.000508276588    0.069396288026    0.126625542110    0.000009256586    0.000008923054
            0.000006331559    0.000018013713    -0.009689573449    0.102254808347    0.000009256586    0.000008923054    -0.005288300252    0.111237616529
0.600     0.099735590171    0.110429702924    0.000010185761    0.000007363255    0.083511086056    0.111704043583    0.000011205975    0.000014986529
            0.000010185761    0.000007363255    0.026537434081    0.112271714168    0.000106698578    -0.000452293318    0.015751464620    0.106974920419
            0.083511086056    0.111704043583    0.000106698578    -0.000452293318    0.097338831608    0.110323201525    0.000012724055    0.000005898434
            0.000011205975    0.000014986529    0.015751464620    0.106974920419    0.000012724055    0.000005898434    0.024599770686    0.112243305185
0.625     0.121637211988    0.086414556685    0.000012762988    0.000003030089    0.106238739847    0.093907623343    0.000014584213    0.000010811129
            0.000012762988    0.000003030089    0.055495015432    0.104778805122    0.000054947452    -0.000384002304    0.041862435191    0.104771821036
            0.106238739847    0.093907623343    0.000054947452    -0.000384002304    0.119401911203    0.086804352548    0.000014585014    0.000002043782
            0.000014584213    0.000010811129    0.041862435191    0.104771821036    0.000014585014    0.000002043782    0.053858815560    0.105134276597
0.650     0.135692659276    0.057153469568    0.000013234438    -0.000001421273    0.123165146226    0.070301617915    0.000016335427    0.000006212910
            0.000013234438    -0.000001421273    0.081523345791    0.089694213026    0.000020484903    -0.000306472528    0.066757859375    0.095658726981
            0.123165146226    0.070301617915    0.000020484903    -0.000306472528    0.133767264466    0.057976716434    0.000014807193    -0.000001823246
            0.000016335427    0.000006212910    0.066757859375    0.095658726981    0.000014807193    -0.000001823246    0.080311514744    0.090350162989
0.675     0.140664404967    0.025022604242    0.000012011386    -0.000005020376    0.132771827209    0.042634252021    0.000016661727    0.000001818699
            0.000012011386    -0.000005020376    0.102669284761    0.068058202653    0.000005336713    -0.000223411189    0.088615652044    0.080143602867
            0.132771827209    0.042634252021    0.000005336713    -0.000223411189    0.139177943538    0.026172762680    0.000013741299    -0.000005029885
            0.000016661727    0.000001818699    0.088615652044    0.080143602867    0.000013741299    -0.000005029885    0.101982288245    0.068895668480
0.700     0.135982682887    -0.007317216869    0.000009914161    -0.000007182512    0.134026944723    0.013057166260    0.000015988983    -0.000001985111
            0.000009914161    -0.000007182512    0.117331795447    0.041393741680    0.000010824868    -0.000139178442    0.105808189057    0.059202867991
            0.134026944723    0.013057166260    0.000010824868    -0.000139178442    0.135031769104    -0.005985218764    0.000011983994    -0.000007211040
            0.000015988983    -0.000001985111    0.105808189057    0.059202867991    0.000011983994    -0.000007211040    0.117236890782    0.042265248458
0.725     0.121818030224    -0.037075877217    0.000007914273    -0.000007861815    0.126493428850    -0.015976684895    0.000014800618    -0.000005118576
            0.000007914273    -0.000007861815    0.124366960522    0.011598075531    0.000037264151    -0.000058670493    0.117001673923    0.034213940924
            0.126493428850    -0.015976684895    0.000037264151    -0.000058670493    0.121455189364    -0.035736619558    0.000010178968    -0.000008379370
            0.000014800618    -0.000005118576    0.117001673923    0.034213940924    0.000010178968    -0.000008379370    0.124891008045    0.012336019658
0.750     0.099140408464    -0.061527572449    0.000006826472    -0.000007556312    0.110458856736    -0.041871682794    0.000013460679    -0.000007779554
            0.000006826472    -0.000007556312    0.123173817664    -0.019188059748    0.000083681739    0.000012955492    0.121265302308    0.006874449508
            0.110458856736    -0.041871682794    0.000083681739    0.000012955491    0.099364072505    -0.060371956494    0.000008809926    -0.000008885136
            0.000013460679    -0.000007779554    0.121265302308    0.006874449508    0.000008809926    -0.000008885136    0.124296872676    -0.018759901497
0.775     0.069732173932    -0.078240881986    0.000007030606    -0.000007147097    0.087011660277    -0.062100670833    0.000012074118    -0.000010319113
            0.000007030606    -0.000007147097    0.113740461489    -0.048724621090    0.000147639342    0.000070705820    0.118135396132    -0.020903613275
            0.087011660277    -0.062100670833    0.000147639342    0.000070705820    0.070480554164    -0.077459703172    0.000008041656    -0.000009269332
            0.000012074118    -0.000010319113    0.118135396132    -0.020903613275    0.000008041656    -0.000009269332    0.115392628640    -0.048778340497
