!$
! Info: Touchstone file created by Circ.  Input file=Intel_C2M_200G_12p0in_202208016_staggered.circ
!$
# Hz S RI R 50
0	0.03299721	5.880188e-24	0.9668056	-9.962843e-24	0.0001533862	3.599023e-22	-0.0002824686	3.459243e-20
	0.9668056	-9.958804e-24	0.03354604	1.040543e-23	-0.0002825247	3.45993e-20	0.000373636	1.272556e-21
	0.0001534422	3.600259e-22	-0.0002826587	3.461571e-20	0.03299521	5.558797e-24	0.9668058	-1.019754e-23
	-0.0002826027	3.460884e-20	0.0003737001	1.273459e-21	0.9668058	-1.020159e-23	0.03354747	1.067525e-23
1e+07	0.04015483	0.004059946	0.9467185	-0.1618912	0.003133172	0.008518449	-0.00167721	-0.0005114032
	0.9467185	-0.1618912	0.04045163	0.004077197	-0.001679527	-0.0005114964	0.002844505	0.008617723
	0.003133172	0.008518449	-0.001679527	-0.0005114964	0.0402556	0.003160616	0.9466511	-0.1609753
	-0.00167721	-0.0005114032	0.002844505	0.008617723	0.9466511	-0.1609753	0.04048958	0.003162063
2e+07	0.04772798	0.0004649378	0.9005643	-0.3115324	0.007592547	0.01507392	-0.0019773	-0.0001236617
	0.9005643	-0.3115324	0.04887346	0.0001289183	-0.001981723	-0.0001172395	0.006491917	0.01564667
	0.007592553	0.0150739	-0.001981739	-0.0001173469	0.04675814	-0.0008659531	0.9016516	-0.3102418
	-0.001977314	-0.0001237631	0.006492005	0.01564656	0.9016516	-0.3102418	0.04770849	-0.00107089
3e+07	0.05156463	-0.007158751	0.8340992	-0.4485176	0.01397503	0.01983604	-0.002032294	0.000275778
	0.8340992	-0.4485176	0.05323039	-0.008467398	-0.002032734	0.0002907725	0.01183133	0.02124829
	0.01397502	0.01983609	-0.002032774	0.0002907848	0.04983467	-0.008287322	0.8360115	-0.4475304
	-0.002032308	0.000275777	0.0118313	0.02124826	0.8360115	-0.4475304	0.0512698	-0.009237167
4e+07	0.05209378	-0.01587221	0.7484789	-0.5719317	0.02158745	0.02211318	-0.001883193	0.0006022205
	0.7484789	-0.5719317	0.05427711	-0.01835147	-0.00187287	0.0006230398	0.01827195	0.02505778
	0.02158746	0.0221132	-0.001872873	0.0006230456	0.04983891	-0.01657787	0.7509604	-0.5715173
	-0.00188319	0.0006022338	0.01827195	0.02505778	0.7509604	-0.5715173	0.05185686	-0.01842724
5e+07	0.04984279	-0.0243624	0.6457806	-0.6795067	0.02955538	0.02168344	-0.001613379	0.0007723972
	0.6457806	-0.6795067	0.05231074	-0.02830994	-0.00158807	0.0007921157	0.02524227	0.02684372
	0.02955539	0.02168345	-0.001588067	0.0007921141	0.04726851	-0.02453108	0.6485856	-0.6798201
	-0.001613377	0.0007723952	0.02524228	0.02684374	0.6485856	-0.6798201	0.04975373	-0.02758985
6e+07	0.04535229	-0.03181901	0.528581	-0.7690951	0.03698675	0.01857026	-0.001330967	0.0007473337
	0.528581	-0.7690951	0.04772483	-0.03737276	-0.001290778	0.0007569885	0.0321076	0.02659041
	0.03698675	0.01857024	-0.001290776	0.0007569863	0.04264823	-0.0314016	0.5314637	-0.7702166
	-0.001330965	0.000747332	0.0321076	0.02659041	0.5314637	-0.7702166	0.04532717	-0.03586947
7e+07	0.03924118	-0.03769779	0.399804	-0.8389019	0.04303787	0.01307887	-0.001147839	0.0005464846
	0.399804	-0.8389019	0.0410938	-0.04482482	-0.001097879	0.0005374149	0.03826916	0.02447835
	0.04303786	0.01307887	-0.001097866	0.0005373477	0.03658159	-0.03669342	0.4025167	-0.8408496
	-0.001147838	0.0005464817	0.03826916	0.02447835	0.4025167	-0.8408496	0.03910857	-0.04263947
8e+07	0.03218124	-0.04171511	0.2626192	-0.8875736	0.04700341	0.005764329	-0.001150984	0.0002406531
	0.2626192	-0.8875736	0.03309593	-0.05020563	-0.001100939	0.0002073529	0.04322004	0.0208595
	0.04700341	0.005764331	-0.001100938	0.0002073553	0.02972504	-0.04015996	0.2649152	-0.8903097
	-0.001150984	0.0002406558	0.04322004	0.0208595	0.2649152	-0.8903097	0.03172167	-0.04750569
9e+07	0.02482099	-0.0438303	0.1203496	-0.9142406	0.0483863	-0.002625632	-0.001384115	-6.599331e-05
	0.1203496	-0.9142406	0.0244503	-0.05328973	-0.001346477	-0.0001239362	0.04659396	0.0162186
	0.04838631	-0.002625633	-0.00134647	-0.0001239303	0.02271627	-0.04178793	0.1219754	-0.9176674
	-0.00138411	-6.598563e-05	0.04659396	0.0162186	0.1219754	-0.9176674	0.02382859	-0.0502888
1e+08	0.01773323	-0.04420704	-0.02364362	-0.9185302	0.04694377	-0.01122656	-0.001839396	-0.0002579663
	-0.02364362	-0.9185302	0.01587741	-0.05405817	-0.00182857	-0.0003342351	0.04819777	0.01111799
	0.04694377	-0.01122656	-0.001828571	-0.0003342359	0.01617347	-0.04174745	-0.02302047	-0.9224847
	-0.001839396	-0.0002579671	0.04819777	0.01111799	-0.02302047	-0.9224847	0.01614161	-0.05102022
1.1e+08	0.0112295	-0.04314605	-0.1658463	-0.9004098	0.04269139	-0.0191327	-0.002450146	-0.0002385627
	-0.1658463	-0.9004098	0.008053889	-0.05278706	-0.002468508	-0.0003151264	0.04800138	0.006156331
	0.04269139	-0.0191327	-0.002468509	-0.0003151274	0.01027091	-0.04073345	-0.1662748	-0.904267
	-0.002450147	-0.0002385638	0.04800138	0.006156331	-0.1662748	-0.904267	0.008993406	-0.05016492
1.2e+08	0.005695608	-0.04090505	-0.3028332	-0.8607082	0.03598642	-0.02544176	-0.003135137	5.017482e-05
	-0.3028332	-0.8607082	0.001417075	-0.049783	-0.00317942	-1.653008e-05	0.04620267	0.001904627
	0.03598642	-0.02544176	-0.003179421	-1.653092e-05	0.005151389	-0.0385981	-0.3040955	-0.8642922
	-0.003135138	5.017402e-05	0.04620267	0.001904627	-0.3040955	-0.8642922	0.002762166	-0.04762012
1.3e+08	0.00130726	-0.03792458	-0.4314699	-0.8005744	0.02741098	-0.02945693	-0.003780861	0.0006402121
	-0.4314699	-0.8005744	-0.003608373	-0.04550075	-0.00384508	0.0005916216	0.04314541	-0.001178298
	0.02741098	-0.02945693	-0.003845082	0.0005916211	0.001097506	-0.03576755	-0.4334343	-0.8037537
	-0.003780863	0.0006402117	0.04314541	-0.001178297	-0.4334343	-0.8037537	-0.002035064	-0.04380038
1.4e+08	-0.001926318	-0.03461059	-0.5487988	-0.7216006	0.01773734	-0.03067604	-0.004270769	0.001511363
	-0.5487988	-0.7216006	-0.006781761	-0.04048885	-0.004346426	0.00148588	0.03929195	-0.002763873
	0.01773734	-0.03067604	-0.004346427	0.00148588	-0.001876158	-0.03264457	-0.5513364	-0.7242691
	-0.00427077	0.001511363	0.03929195	-0.002763873	-0.5513364	-0.7242691	-0.005119677	-0.03921759
1.5e+08	-0.004118519	-0.0313073	-0.652129	-0.6257942	0.007861846	-0.02884667	-0.00450575	0.002599584
	-0.652129	-0.6257942	-0.008041406	-0.03532333	-0.004584249	0.002598211	0.03517808	-0.002685085
	0.007861846	-0.02884667	-0.00458425	0.002598211	-0.003885956	-0.02955502	-0.6551088	-0.6278741
	-0.004505751	0.002599585	0.03517808	-0.002685084	-0.6551088	-0.6278741	-0.006395654	-0.03442292
1.6e+08	-0.00547136	-0.02826853	-0.7390961	-0.5155431	-0.001273775	-0.02399568	-0.004419656	0.003809462
	-0.7390961	-0.5155431	-0.007496595	-0.03055336	-0.00449339	0.003830285	0.03136026	-0.0009485826
	-0.001273774	-0.02399568	-0.004493391	0.003830286	-0.005130792	-0.02673082	-0.742386	-0.5169809
	-0.004419656	0.003809462	0.03136026	-0.0009485822	-0.742386	-0.5169809	-0.005939526	-0.02995134
1.7e+08	-0.006236051	-0.02563974	-0.8077251	-0.3935683	-0.008767367	-0.01643317	-0.003987151	0.005031277
	-0.8077251	-0.3935683	-0.005406264	-0.02665382	-0.004050247	0.005070386	0.02836175	0.002267723
	-0.008767367	-0.01643317	-0.004050248	0.005070387	-0.005851275	-0.02429784	-0.8111914	-0.3943357
	-0.003987152	0.005031277	0.02836175	0.002267723	-0.8111914	-0.3943357	-0.003979395	-0.02627331
1.8e+08	-0.006669073	-0.02345308	-0.8564797	-0.2628655	-0.01383947	-0.006731172	-0.003223412	0.006158728
	-0.8564797	-0.2628655	-0.002145101	-0.02398695	-0.003272218	0.006211098	0.02662344	0.006634707
	-0.01383947	-0.006731172	-0.003272218	0.006211098	-0.006288766	-0.02227436	-0.8599904	-0.2629579
	-0.003223412	0.006158728	0.02662344	0.006634707	-0.8599904	-0.2629579	-0.0008637647	-0.02375476
1.9e+08	-0.006990814	-0.02163849	-0.8843048	-0.1266361	-0.01590793	0.004321793	-0.002176332	0.007103602
	-0.8843048	-0.1266361	0.001837684	-0.02277761	-0.002209215	0.007164055	0.02646222	0.01170515
	-0.01590793	0.004321793	-0.002209215	0.007164056	-0.006646294	-0.02058276	-0.887736	-0.1260736
	-0.002176333	0.007103603	0.02646222	0.01170515	-0.887736	-0.1260736	0.002980062	-0.02263015
2e+08	-0.007349612	-0.02004887	-0.8906625	0.0117929	-0.01464572	0.01578758	-0.0009146588	0.007804846
	-0.8906625	0.0117929	0.006066348	-0.02310178	-0.0009318155	0.007868723	0.02804119	0.01695702
	-0.01464572	0.01578758	-0.0009318156	0.007868723	-0.007055966	-0.01907462	-0.893897	0.01297297
	-0.0009146589	0.007804846	0.02804119	0.01695702	-0.893897	0.01297297	0.007091239	-0.02298906
2.1e+08	-0.007799233	-0.01849772	-0.8755501	0.1490579	-0.01001683	0.02665999	0.0004857022	0.008231225
	-0.8755501	0.1490579	0.01008307	-0.02489066	0.0004833136	0.008294748	0.03135594	0.02184489
	-0.01001683	0.02665999	0.0004833136	0.008294748	-0.007556383	-0.01756668	-0.8784839	0.1507974
	0.0004857021	0.008231225	0.03135594	0.02184489	-0.8784839	0.1507974	0.01102219	-0.02477859
2.2e+08	-0.008291615	-0.01680093	-0.8394966	0.2818481	-0.002286147	0.03595428	0.001954579	0.008377124
	-0.8394966	0.2818481	0.01349164	-0.02794855	0.001965106	0.00843757	0.03623517	0.02585205
	-0.002286146	0.03595428	0.001965106	0.00843757	-0.00808799	-0.0158825	-0.8420399	0.2840746
	0.001954579	0.008377124	0.03623517	0.02585205	-0.8420399	0.2840746	0.01437953	-0.02781877
2.3e+08	-0.008687244	-0.01482007	-0.7835459	0.4069942	0.007998131	0.04279636	0.003434479	0.008254942
	-0.7835459	0.4069942	0.01598853	-0.03198168	0.003456314	0.008310416	0.04235893	0.0285398
	0.007998131	0.04279636	0.003456314	0.008310416	-0.008503583	-0.013893	-0.7856248	0.409624
	0.003434479	0.008254942	0.04235893	0.0285398	-0.7856248	0.409624	0.01685831	-0.03183015
2.4e+08	-0.008781085	-0.01249756	-0.7092218	0.5215586	0.02004809	0.04650195	0.004884804	0.007884726
	-0.7092218	0.5215586	0.01738476	-0.0366347	0.004916143	0.007934016	0.04929076	0.02958949
	0.02004809	0.04650195	0.004916143	0.007934016	-0.008593628	-0.01155171	-0.7107805	0.5244971
	0.004884804	0.007884726	0.04929076	0.02958949	-0.7107805	0.5244971	0.01826386	-0.03646894
2.5e+08	-0.008340347	-0.009879831	-0.6184753	0.6229011	0.0329015	0.04663999	0.006278211	0.007285612
	-0.6184753	0.6229011	0.01761405	-0.04153039	0.006317629	0.0073277	0.05652038	0.02883075
	0.0329015	0.04663999	0.006317629	0.0073277	-0.008125428	-0.008915689	-0.6194725	0.6260482
	0.006278211	0.007285612	0.05652038	0.02883075	-0.6194725	0.6260482	0.01852153	-0.04136572
2.6e+08	-0.007149372	-0.007123741	-0.5136171	0.7087429	0.04550256	0.04307371	0.007595257	0.006470402
	-0.5136171	0.7087429	0.01672748	-0.0463077	0.007641658	0.00650414	0.06351338	0.02625584
	0.04550256	0.04307371	0.007641658	0.00650414	-0.006886183	-0.006152023	-0.5140329	0.7119934
	0.007595257	0.006470402	0.06351338	0.02625584	-0.5140329	0.7119934	0.0176729	-0.04616363
2.7e+08	-0.005053824	-0.004486357	-0.3972531	0.7772061	0.0567903	0.0359752	0.008817134	0.00544361
	-0.3972531	0.7772061	0.01487907	-0.05065581	0.008869065	0.005468143	0.06976206	0.02201811
	0.0567903	0.0359752	0.008869065	0.005468143	-0.004727849	-0.0035259	-0.3970848	0.7804568
	0.008817134	0.00544361	0.06976206	0.02201811	-0.3970848	0.7804568	0.01586269	-0.05055181
2.8e+08	-0.001999484	-0.002298755	-0.2722125	0.8268458	0.06578762	0.0258155	0.009918908	0.004204776
	-0.2722125	0.8268458	0.01230115	-0.05433968	0.009974879	0.004218835	0.0748326	0.01641396
	0.06578762	0.0258155	0.009974879	0.004218835	-0.001604842	-0.001373647	-0.2714748	0.8299954
	0.009918908	0.004204776	0.0748326	0.01641396	-0.2714748	0.8299954	0.01331522	-0.05429192
2.9e+08	0.00194096	-0.0009256951	-0.1414775	0.8566645	0.07168271	0.01332939	0.01086619	0.002753405
	-0.1414775	0.8566645	0.009274661	-0.05721629	0.01092421	0.002756325	0.07840377	0.009853083
	0.07168271	0.01332939	0.01092421	0.002756325	0.00240045	-6.278965e-05	-0.1402023	0.8596163
	0.01086619	0.002753405	0.07840377	0.009853083	-0.1402023	0.8596163	0.01030594	-0.05723574
3e+08	0.006556041	-0.000718346	-0.008116833	0.8661162	0.07389695	-0.0005409833	0.01161477	0.001097121
	-0.008116833	0.8661162	0.006098559	-0.05924177	0.01167249	0.001088449	0.08029451	0.002817295
	0.07389695	-0.0005409834	0.01167249	0.001088449	0.007066295	5.661331e-05	-0.00635104	0.8687806
	0.01161477	0.001097121	0.08029451	0.002817295	-0.00635104	0.8687806	0.007130911	-0.05933244
3.1e+08	0.01150105	-0.001963637	0.1247745	0.8551081	0.07213554	-0.01471832	0.0121145	-0.0007435159
	0.1247745	0.8551081	0.003058159	-0.06046804	0.01216907	-0.0007637566	0.08047837	-0.004184241
	0.07213555	-0.01471832	0.01216907	-0.0007637566	0.01203802	-0.001298429	0.1269676	0.8574057
	0.0121145	-0.0007435158	0.08047837	-0.004184241	0.1269676	0.8574057	0.004075312	-0.06062704
3.2e+08	0.01632032	-0.004837331	0.2541283	0.8239925	0.06641574	-0.02807379	0.01231532	-0.002731265
	0.2541283	0.8239925	0.0003977139	-0.06103117	0.01236416	-0.002762027	0.07908237	-0.01066392
	0.06641574	-0.02807379	0.01236416	-0.002762027	0.01685155	-0.004295276	0.2566776	0.8258586
	0.01231532	-0.002731265	0.07908237	-0.01066392	0.2566776	0.8258586	0.001386118	-0.06124938
3.3e+08	0.02048573	-0.009364297	0.3769664	0.7735592	0.05707143	-0.03951542	0.01217447	-0.00481233
	0.3769664	0.7735592	-0.001701649	-0.06113229	0.01221571	-0.004851285	0.07637238	-0.01619965
	0.05707143	-0.03951542	0.01221571	-0.004851285	0.02097303	-0.00894881	0.3797872	0.7749423
	0.01217447	-0.00481233	0.07637238	-0.01619965	0.3797872	0.7749423	-0.0007504841	-0.06139593
3.4e+08	0.02344737	-0.01539289	0.4904468	0.7050269	0.04473422	-0.04807599	0.01166364	-0.00691877
	0.4904468	0.7050269	-0.003136827	-0.06101358	0.01169561	-0.006963906	0.07272743	-0.02047329
	0.04473422	-0.04807599	0.01169561	-0.006963906	0.02385073	-0.0150948	0.4934521	0.7058912
	0.01166364	-0.00691877	0.07272743	-0.02047329	0.4934521	0.7058912	-0.00222552	-0.06130652
3.5e+08	0.02469356	-0.02258632	0.5919313	0.6200235	0.03028978	-0.05299217	0.01077261	-0.008976047
	0.5919313	0.6200235	-0.003889954	-0.06093114	0.01079483	-0.009024682	0.06860152	-0.0232999
	0.03028978	-0.05299217	0.01079483	-0.009024682	0.02497429	-0.02238371	0.5950233	0.6203487
	0.01077261	-0.008976047	0.06860152	-0.0232999	0.5950233	0.6203487	-0.003014199	-0.06123792
3.6e+08	0.02381255	-0.0304339	0.6790343	0.5205656	0.01481394	-0.05377113	0.009510605	-0.01090914
	0.6790343	0.5205656	-0.004026067	-0.06112831	0.009523913	-0.01095885	0.06448038	-0.02464324
	0.01481394	-0.05377113	0.009523913	-0.01095885	0.02393845	-0.03029187	0.6821191	0.5203488
	0.009510605	-0.01090914	0.06448038	-0.02464324	0.6821191	0.5203488	-0.00317554	-0.06143554
3.7e+08	0.02055199	-0.03828265	0.7496922	0.4090238	-0.0005095791	-0.05023655	0.00790438	-0.0126494
	0.7496922	0.4090238	-0.003683206	-0.06180962	0.007909765	-0.01269865	0.06083451	-0.02461872
	-0.0005095792	-0.05023655	0.007909765	-0.01269865	0.02050102	-0.03815572	0.7526778	0.4082783
	0.00790438	-0.0126494	0.06083451	-0.02461872	0.7526778	0.4082783	-0.002842997	-0.06210939
3.8e+08	0.01486616	-0.04538932	0.8022216	0.2880794	-0.01448143	-0.04254985	0.005992162	-0.0141395
	0.8022216	0.2880794	-0.003055064	-0.06312138	0.005991758	-0.0141874	0.05807332	-0.02348152
	-0.01448143	-0.04254985	0.005991758	-0.0141874	0.01462977	-0.04522447	0.8050173	0.2868343
	0.005992162	-0.0141395	0.05807332	-0.02348152	0.8050173	0.2868343	-0.002207502	-0.06341244
3.9e+08	0.006947402	-0.0509871	0.8353723	0.1606666	-0.02598358	-0.03120543	0.003820108	-0.01533405
	0.8353723	0.1606666	-0.002369019	-0.06513889	0.003814311	-0.015381	0.05650527	-0.02160113
	-0.02598358	-0.03120543	0.003814311	-0.015381	0.006533947	-0.05072852	0.8378992	0.1589662
	0.003820109	-0.01533405	0.05650527	-0.02160113	0.8378992	0.1589662	-0.001496615	-0.06542634
4e+08	-0.002765631	-0.05436525	0.8483791	0.02989732	-0.0340715	-0.01699589	0.001434006	-0.01619853
	0.8483791	0.02989732	-0.001860493	-0.06785989	0.001423831	-0.01624554	0.05630695	-0.01942423
	-0.0340715	-0.01699589	0.001423831	-0.01624554	-0.003331392	-0.05395925	0.8505631	0.0277961
	0.001434006	-0.01619853	0.05630695	-0.01942423	0.8505631	0.0277961	-0.0009480253	-0.06815641
4.1e+08	-0.01360662	-0.05494936	0.8409871	-0.10103	-0.03805284	-0.0009533132	-0.001121635	-0.0167047
	0.8409871	-0.10103	-0.001747798	-0.0712087	-0.001136679	-0.01675307	0.05750596	-0.01742947
	-0.03805284	-0.0009533132	-0.001136679	-0.01675307	-0.01428363	-0.05434931	0.8427679	-0.1034654
	-0.001121635	-0.0167047	0.05750596	-0.01742947	0.8427679	-0.1034654	-0.0007855928	-0.07153232
4.2e+08	-0.02472686	-0.05237336	0.8134708	-0.2289112	-0.03754726	0.01573113	-0.003803524	-0.0168264
	0.8134708	-0.2289112	-0.002211569	-0.07504697	-0.003825496	-0.01687676	0.05997799	-0.01608083
	-0.03754726	0.01573113	-0.003825496	-0.01687676	-0.02545963	-0.05154519	0.8147994	-0.2316032
	-0.003803524	-0.0168264	0.05997799	-0.01608083	0.8147994	-0.2316032	-0.001196327	-0.07541912
4.3e+08	-0.03516481	-0.04653834	0.7666195	-0.350643	-0.03251861	0.03180163	-0.006567789	-0.01653482
	0.7666195	-0.350643	-0.00337669	-0.07919017	-0.006599155	-0.0165871	0.06346026	-0.0157789
	-0.03251861	0.03180163	-0.006599155	-0.0165871	-0.03588771	-0.04546484	0.7674621	-0.3535099
	-0.006567789	-0.01653482	0.06346026	-0.0157789	0.7674621	-0.3535099	-0.002313274	-0.0796335
4.4e+08	-0.04393212	-0.03764457	0.7017131	-0.4633087	-0.02327995	0.04603634	-0.009362578	-0.01579845
	0.7017131	-0.4633087	-0.005302913	-0.08342878	-0.00940636	-0.01585044	0.06757791	-0.01682299
	-0.02327995	0.04603634	-0.00940636	-0.01585044	-0.0445743	-0.0363283	0.7020503	-0.4662633
	-0.009362578	-0.01579845	0.06757791	-0.01682299	0.7020503	-0.4662633	-0.004203471	-0.08396419
4.5e+08	-0.05010784	-0.02619613	0.620474	-0.5642567	-0.01047001	0.05734378	-0.01212313	-0.01458535
	0.620474	-0.5642567	-0.007981944	-0.08755049	-0.01218176	-0.01463346	0.07188247	-0.01938118
	-0.01047001	0.05734378	-0.01218176	-0.01463346	-0.05059991	-0.02466086	0.6203017	-0.5672114
	-0.01212313	-0.01458535	0.07188247	-0.01938118	0.6203017	-0.5672114	-0.006865778	-0.08819456
4.6e+08	-0.05293339	-0.01297432	0.5250046	-0.651173	0.004996571	0.06484718	-0.01476747	-0.01286939
	0.5250046	-0.651173	-0.0113419	-0.09136172	-0.01484183	-0.01290889	0.07589595	-0.02347564
	0.004996571	0.06484718	-0.01484183	-0.01290889	-0.05321404	-0.01126396	0.5243323	-0.6540417
	-0.01476747	-0.01286939	0.07589595	-0.02347564	0.5243323	-0.6540417	-0.01023368	-0.09212444
4.7e+08	-0.05189603	0.001017667	0.417714	-0.7221325	0.0219996	0.06795145	-0.01719484	-0.01064061
	0.417714	-0.7221325	-0.01525795	-0.09470481	-0.01728407	-0.01066531	0.07915748	-0.02898122
	0.0219996	0.06795145	-0.01728407	-0.01066531	-0.0519166	0.002841292	0.4165676	-0.7248303
	-0.01719484	-0.01064061	0.07915748	-0.02898122	0.4165676	-0.7248303	-0.01418498	-0.09558836
4.8e+08	-0.04678833	0.01463441	0.3012445	-0.7756186	0.03929783	0.06638714	-0.01929103	-0.007912555
	0.3012445	-0.7756186	-0.01956725	-0.09747314	-0.01939151	-0.007917022	0.08126678	-0.03564034
	0.03929783	0.06638714	-0.01939151	-0.007917022	-0.04651981	0.01649579	0.2996642	-0.7780716
	-0.01929103	-0.007912555	0.08126678	-0.03564034	0.2996642	-0.7780716	-0.01855713	-0.0984707
4.9e+08	-0.03774727	0.02668138	0.1784057	-0.8105533	0.05562278	0.0602305	-0.02093531	-0.004732608
	0.1784057	-0.8105533	-0.02408788	-0.09961756	-0.02104144	-0.004711653	0.08192056	-0.04308803
	0.05562278	0.0602305	-0.02104144	-0.004711653	-0.03718247	0.02849798	0.1764394	-0.8126936
	-0.02093531	-0.004732608	0.08192056	-0.04308803	0.1764394	-0.8126936	-0.02316548	-0.1007142
5e+08	-0.02526149	0.03602063	0.05208952	-0.826298	0.06977193	0.04989631	-0.02201335	-0.00118324
	0.05208952	-0.826298	-0.02863773	-0.1011494	-0.02211756	-0.001134595	0.0809393	-0.05088728
	0.06977193	0.04989631	-0.02211756	-0.001134595	-0.02441702	0.03770823	0.04980117	-0.8280661
	-0.02201335	-0.00118324	0.0809393	-0.05088728	0.04980117	-0.8280661	-0.02782245	-0.1023227
5.1e+08	-0.01014653	0.04166969	-0.07477375	-0.8226392	0.08069701	0.03610813	-0.02243091	0.002616359
	-0.07477375	-0.8226392	-0.03305316	-0.1021357	-0.02252448	0.00269269	0.07828134	-0.05856994
	0.08069701	0.03610813	-0.02252448	0.00269269	-0.009063274	0.04315076	-0.07731659	-0.8239915
	-0.02243091	0.002616359	0.07828134	-0.05856994	-0.07731659	-0.8239915	-0.03235685	-0.103358
5.2e+08	0.006503636	0.0428963	-0.1992809	-0.7997907	0.08758177	0.01984446	-0.02212585	0.006519961
