!$
! Info: Touchstone file created by Circ.  Input file=Intel_C2M_200G_12p0in_202208016_staggered.circ
!$
# Hz S RI R 50
0	0.03298447	5.725667e-24	0.0001118221	1.729526e-22	0.0001537606	3.629374e-22	0.0001117587	1.726833e-22
	0.0001118221	1.729526e-22	0.03299721	5.880188e-24	0.0001118063	1.72834e-22	0.0001533862	3.599023e-22
	0.0001538166	3.630606e-22	0.0001118063	1.728358e-22	0.03297946	5.440152e-24	0.0001117723	1.725691e-22
	0.0001117587	1.726852e-22	0.0001534422	3.600259e-22	0.0001117723	1.725691e-22	0.03299521	5.558797e-24
1e+07	0.04132601	0.00360258	0.0001021741	-3.824483e-06	0.002638872	0.008348872	4.630914e-06	1.596416e-05
	0.0001021741	-3.824483e-06	0.04015483	0.004059946	0.000110295	3.138222e-05	0.003133172	0.008518449
	0.002638872	0.008348872	0.000110295	3.138222e-05	0.04162061	0.003110643	4.349912e-05	1.226598e-05
	4.630914e-06	1.596416e-05	0.003133172	0.008518449	4.349912e-05	1.226598e-05	0.0402556	0.003160616
2e+07	0.04812119	-0.0006116956	7.597199e-05	4.112042e-05	0.007052292	0.01498224	4.922944e-05	4.391681e-05
	7.597199e-05	4.112042e-05	0.04772798	0.0004649378	9.627847e-05	-1.419797e-05	0.007592547	0.01507392
	0.007052297	0.01498223	9.627847e-05	-1.419797e-05	0.0477595	-0.001406567	2.796804e-05	2.257708e-05
	4.922944e-05	4.391681e-05	0.007592553	0.0150739	2.796804e-05	2.257708e-05	0.04675814	-0.0008659531
3e+07	0.05137678	-0.008277576	6.40309e-05	5.656733e-05	0.01341464	0.0197964	8.122043e-05	3.763999e-05
	6.40309e-05	5.656732e-05	0.05156463	-0.007158751	8.815317e-05	-2.617119e-05	0.01397503	0.01983604
	0.01341463	0.01979644	8.815317e-05	-2.617118e-05	0.05054894	-0.008955857	2.056907e-05	3.353328e-05
	8.122043e-05	3.763999e-05	0.01397502	0.01983609	2.056907e-05	3.353327e-05	0.04983467	-0.008287322
4e+07	0.05145841	-0.0168434	5.477695e-05	6.210195e-05	0.02103546	0.02212863	0.0001037229	2.025377e-05
	5.477695e-05	6.210195e-05	0.05209378	-0.01587221	8.434849e-05	-2.8332e-05	0.02158745	0.02211318
	0.02103547	0.02212866	8.434849e-05	-2.8332e-05	0.05031355	-0.01726725	3.286916e-05	2.976434e-05
	0.0001037229	2.025376e-05	0.02158746	0.0221132	3.286916e-05	2.976434e-05	0.04983891	-0.01657787
5e+07	0.04887887	-0.02507756	6.484323e-05	4.99737e-05	0.02904125	0.0217516	0.0001169943	-3.208276e-06
	6.484323e-05	4.99737e-05	0.04984279	-0.0243624	7.990733e-05	-3.697256e-05	0.02955538	0.02168344
	0.02904126	0.02175161	7.990733e-05	-3.697256e-05	0.04754614	-0.02517978	4.424706e-05	1.830375e-05
	0.0001169943	-3.208277e-06	0.02955539	0.02168345	4.424706e-05	1.830375e-05	0.04726851	-0.02453108
6e+07	0.04417329	-0.03221286	7.82249e-05	2.58273e-05	0.03653887	0.01868068	0.0001211331	-2.933702e-05
	7.82249e-05	2.58273e-05	0.04535229	-0.03181901	7.184017e-05	-4.553616e-05	0.03698675	0.01857026
	0.03653887	0.01868066	7.184016e-05	-4.553616e-05	0.04276991	-0.03196978	5.004771e-05	4.617448e-06
	0.0001211331	-2.933702e-05	0.03698675	0.01857024	5.004771e-05	4.617447e-06	0.04264823	-0.0314016
7e+07	0.03795742	-0.03773528	8.218502e-05	6.980459e-07	0.04268119	0.01321287	0.0001171068	-5.542351e-05
	8.218502e-05	6.980455e-07	0.03924118	-0.03769779	6.104305e-05	-5.224131e-05	0.04303787	0.01307887
	0.04268119	0.01321287	6.104305e-05	-5.224131e-05	0.03658741	-0.03715497	5.070092e-05	-9.424388e-06
	0.0001171068	-5.542351e-05	0.04303786	0.01307887	5.070092e-05	-9.424389e-06	0.03658159	-0.03669342
8e+07	0.03090116	-0.0413851	7.782781e-05	-2.292499e-05	0.04675735	0.005895852	0.0001057029	-7.946608e-05
	7.782781e-05	-2.292499e-05	0.03218124	-0.04171511	4.848487e-05	-5.600659e-05	0.04700341	0.005764329
	0.04675735	0.005895854	4.848487e-05	-5.600659e-05	0.02965468	-0.04049881	4.678386e-05	-2.244236e-05
	0.0001057029	-7.946608e-05	0.04700341	0.005764331	4.678386e-05	-2.244236e-05	0.02972504	-0.04015996
9e+07	0.02365489	-0.04314117	6.624923e-05	-4.327169e-05	0.04826229	-0.002528279	8.770881e-05	-0.0001000157
	6.624923e-05	-4.327169e-05	0.02482099	-0.0438303	3.541137e-05	-5.618692e-05	0.0483863	-0.002625632
	0.0482623	-0.00252828	3.541137e-05	-5.618692e-05	0.02261009	-0.04199557	3.893999e-05	-3.344326e-05
	8.770881e-05	-0.0001000157	0.04838631	-0.002625633	3.893999e-05	-3.344326e-05	0.02271627	-0.04178793
1e+08	0.01682841	-0.04317236	4.624599e-05	-5.963603e-05	0.04694587	-0.01119844	6.182162e-05	-0.0001165045
	4.624599e-05	-5.963603e-05	0.01773323	-0.04420704	2.337359e-05	-5.209456e-05	0.04694377	-0.01122656
	0.04694587	-0.01119844	2.337359e-05	-5.209456e-05	0.01608377	-0.04181691	2.676659e-05	-4.187887e-05
	6.182162e-05	-0.0001165045	0.04694377	-0.01122656	2.676659e-05	-4.187887e-05	0.01617347	-0.04174745
1.1e+08	0.0106969	-0.04201968	2.469944e-05	-5.982887e-05	0.04280163	-0.0192183	3.322322e-05	-0.0001163515
	2.469944e-05	-5.982887e-05	0.0112295	-0.04314605	1.568441e-05	-4.646982e-05	0.04269139	-0.0191327
	0.04280163	-0.0192183	1.568441e-05	-4.646982e-05	0.01024562	-0.04073618	1.384415e-05	-4.134537e-05
	3.322322e-05	-0.0001163515	0.04269139	-0.0191327	1.384415e-05	-4.134537e-05	0.01027091	-0.04073345
1.2e+08	0.005449162	-0.03978015	9.768166e-06	-5.646837e-05	0.03617712	-0.02566125	1.468982e-05	-0.0001108249
	9.768166e-06	-5.646837e-05	0.005695608	-0.04090505	9.390518e-06	-4.134375e-05	0.03598642	-0.02544176
	0.03617712	-0.02566125	9.390519e-06	-4.134375e-05	0.005171864	-0.03855961	4.433715e-06	-3.882924e-05
	1.468982e-05	-0.0001108249	0.03598642	-0.02544176	4.433715e-06	-3.882924e-05	0.005151389	-0.0385981
1.3e+08	0.001300649	-0.03685562	-2.640743e-06	-5.177572e-05	0.02765504	-0.02982514	6.351574e-06	-0.0001029211
	-2.640744e-06	-5.177572e-05	0.00130726	-0.03792458	4.196363e-06	-3.628013e-05	0.02741098	-0.02945693
	0.02765504	-0.02982514	4.196363e-06	-3.628013e-05	0.001157722	-0.03570107	-3.555502e-06	-3.521077e-05
	6.351574e-06	-0.0001029211	0.02741098	-0.02945693	-3.555503e-06	-3.521077e-05	0.001097506	-0.03576755
1.4e+08	-0.001735185	-0.0336371	-1.298241e-05	-4.584061e-05	0.01800531	-0.03120144	-2.124895e-06	-9.476997e-05
	-1.298241e-05	-4.584061e-05	-0.001926318	-0.03461059	-1.533598e-07	-3.129885e-05	0.01773734	-0.03067604
	0.01800531	-0.03120143	-1.533597e-07	-3.129885e-05	-0.001780299	-0.03255973	-9.885366e-06	-3.057464e-05
	-2.124895e-06	-9.476997e-05	0.01773734	-0.03067604	-9.885366e-06	-3.057464e-05	-0.001876158	-0.03264457
1.5e+08	-0.003771251	-0.03045755	-2.112244e-05	-3.850033e-05	0.008122788	-0.02953034	-1.051521e-05	-8.594743e-05
	-2.112244e-05	-3.850033e-05	-0.004118519	-0.0313073	-4.041693e-06	-2.630786e-05	0.007861846	-0.02884667
	0.008122788	-0.02953033	-4.041693e-06	-2.630786e-05	-0.003757907	-0.02945947	-1.269606e-05	-2.570503e-05
	-1.051521e-05	-8.594743e-05	0.007861846	-0.02884667	-1.269606e-05	-2.570503e-05	-0.003885956	-0.02955502
1.6e+08	-0.005009405	-0.02756087	-2.716066e-05	-3.018546e-05	-0.001050632	-0.02483055	-1.828234e-05	-7.619816e-05
	-2.716066e-05	-3.018546e-05	-0.00547136	-0.02826853	-7.40719e-06	-2.119531e-05	-0.001273775	-0.02399568
	-0.001050631	-0.02483055	-7.40719e-06	-2.119531e-05	-0.00497372	-0.02663112	-1.440383e-05	-2.084065e-05
	-1.828234e-05	-7.619816e-05	-0.001273774	-0.02399568	-1.440383e-05	-2.084065e-05	-0.005130792	-0.02673082
1.7e+08	-0.005700079	-0.0250834	-2.986715e-05	-2.18362e-05	-0.008610467	-0.01740376	-2.51013e-05	-6.532885e-05
	-2.986715e-05	-2.18362e-05	-0.006236051	-0.02563974	-1.071211e-05	-1.566616e-05	-0.008767367	-0.01643317
	-0.008610466	-0.01740376	-1.071211e-05	-1.566616e-05	-0.005668445	-0.02420005	-1.578838e-05	-1.585056e-05
	-2.51013e-05	-6.532885e-05	-0.008767367	-0.01643317	-1.578838e-05	-1.585056e-05	-0.005851275	-0.02429784
1.8e+08	-0.006098035	-0.02304892	-3.018899e-05	-1.377362e-05	-0.01377251	-0.00781412	-3.046454e-05	-5.335438e-05
	-3.018899e-05	-1.377362e-05	-0.006669073	-0.02345308	-1.349413e-05	-9.412977e-06	-0.01383947	-0.006731172
	-0.01377251	-0.007814119	-1.349413e-05	-9.412977e-06	-0.006083947	-0.0221843	-1.674655e-05	-1.0635e-05
	-3.046454e-05	-5.335438e-05	-0.01383947	-0.006731172	-1.674655e-05	-1.0635e-05	-0.006288766	-0.02227436
1.9e+08	-0.006420897	-0.02137965	-2.947843e-05	-5.569628e-06	-0.01594746	0.003156465	-3.387465e-05	-4.063229e-05
	-2.947843e-05	-5.569628e-06	-0.006990814	-0.02163849	-1.51616e-05	-2.695986e-06	-0.01590793	0.004321793
	-0.01594746	0.003156465	-1.51616e-05	-2.695986e-06	-0.006424356	-0.02050611	-1.699039e-05	-5.27061e-06
	-3.387465e-05	-4.063229e-05	-0.01590793	0.004321793	-1.699039e-05	-5.27061e-06	-0.006646294	-0.02058276
2e+08	-0.006813192	-0.01992153	-2.755092e-05	2.609443e-06	-0.01479921	0.01457441	-3.50448e-05	-2.752734e-05
	-2.755092e-05	2.609443e-06	-0.007349612	-0.02004887	-1.558114e-05	4.272408e-06	-0.01464572	0.01578758
	-0.01479921	0.01457441	-1.558114e-05	4.272408e-06	-0.006823368	-0.0190165	-1.642387e-05	1.265077e-07
	-3.50448e-05	-2.752734e-05	-0.01464572	0.01578758	-1.642387e-05	1.265077e-07	-0.007055966	-0.01907462
2.1e+08	-0.007323845	-0.01848208	-2.426092e-05	1.053496e-05	-0.01028118	0.02543521	-3.378513e-05	-1.449798e-05
	-2.426092e-05	1.053496e-05	-0.007799233	-0.01849772	-1.466118e-05	1.1245e-05	-0.01001683	0.02665999
	-0.01028118	0.02543521	-1.466118e-05	1.1245e-05	-0.007321538	-0.01753096	-1.497803e-05	5.410912e-06
	-3.378513e-05	-1.449798e-05	-0.01001683	0.02665999	-1.497803e-05	5.410912e-06	-0.007556383	-0.01756668
2.2e+08	-0.00789904	-0.01687214	-1.95295e-05	1.791123e-05	-0.002647287	0.03475268	-3.002814e-05	-2.068951e-06
	-1.95295e-05	1.791123e-05	-0.008291615	-0.01680093	-1.236546e-05	1.794134e-05	-0.002286147	0.03595428
	-0.002647287	0.03475268	-1.236546e-05	1.794134e-05	-0.007861185	-0.01587084	-1.261519e-05	1.041198e-05
	-3.002814e-05	-2.068951e-06	-0.002286146	0.03595428	-1.261519e-05	1.041198e-05	-0.00808799	-0.0158825
2.3e+08	-0.008392583	-0.01494943	-1.335807e-05	2.440049e-05	0.007564578	0.04164789	-2.384149e-05	9.20495e-06
	-1.335807e-05	2.440049e-05	-0.008687244	-0.01482007	-8.716421e-06	2.406545e-05	0.007998131	0.04279636
	0.007564578	0.04164789	-8.716421e-06	2.406545e-05	-0.00829642	-0.01390389	-9.334597e-06	1.493738e-05
	-2.384149e-05	9.20495e-06	0.007998131	0.04279636	-9.334597e-06	1.493738e-05	-0.008503583	-0.013893
2.4e+08	-0.00859206	-0.01265398	-5.838587e-06	2.964324e-05	0.01957528	0.04542875	-1.543572e-05	1.877173e-05
	-5.838587e-06	2.964324e-05	-0.008781085	-0.01249756	-3.802591e-06	2.931338e-05	0.02004809	0.04650195
	0.01957528	0.04542875	-3.802591e-06	2.931338e-05	-0.008418018	-0.01157955	-5.178758e-06	1.878054e-05
	-1.543572e-05	1.877173e-05	0.02004809	0.04650195	-5.178758e-06	1.878054e-05	-0.008593628	-0.01155171
2.5e+08	-0.008256813	-0.01003141	2.839841e-06	3.328016e-05	0.03242883	0.04565384	-5.159292e-06	2.611933e-05
	2.839841e-06	3.328016e-05	-0.008340347	-0.009879831	2.220125e-06	3.338755e-05	0.0329015	0.04663999
	0.03242883	0.04565384	2.220125e-06	3.338755e-05	-0.007992141	-0.008950461	-2.417809e-07	2.172644e-05
	-5.159292e-06	2.611933e-05	0.0329015	0.04663999	-2.417808e-07	2.172644e-05	-0.008125428	-0.008915689
2.6e+08	-0.007163183	-0.007239641	1.238805e-05	3.497357e-05	0.04507242	0.04217442	6.510297e-06	3.080653e-05
	1.238805e-05	3.497357e-05	-0.007149372	-0.007123741	9.123419e-06	3.600898e-05	0.04550256	0.04307371
	0.04507242	0.04217442	9.123419e-06	3.600898e-05	-0.00680317	-0.006179338	5.325278e-06	2.356465e-05
	6.510297e-06	3.080653e-05	0.04550256	0.04307371	5.325278e-06	2.356465e-05	-0.006886183	-0.006152023
2.7e+08	-0.00514917	-0.004538654	2.241665e-05	3.443162e-05	0.05644464	0.03514996	1.89818e-05	3.249255e-05
	2.241665e-05	3.443162e-05	-0.005053824	-0.004486357	1.660556e-05	3.693317e-05	0.0567903	0.0359752
	0.05644464	0.03514996	1.660556e-05	3.693317e-05	-0.004698607	-0.003527801	1.130981e-05	2.410337e-05
	1.89818e-05	3.249255e-05	0.0567903	0.0359752	1.130981e-05	2.410337e-05	-0.004727849	-0.0035259
2.8e+08	-0.002153657	-0.002264292	3.243563e-05	3.143452e-05	0.06556426	0.02503927	3.156716e-05	3.096436e-05
	3.243563e-05	3.143452e-05	-0.001999484	-0.002298755	2.429166e-05	3.596959e-05	0.06578762	0.0258155
	0.06556426	0.02503927	2.429166e-05	3.596959e-05	-0.001626977	-0.001329939	1.743432e-05	2.318811e-05
	3.156716e-05	3.096436e-05	0.06578762	0.0258155	1.743432e-05	2.318811e-05	-0.001604842	-0.001373647
2.9e+08	0.001756372	-0.0007877064	4.186464e-05	2.586576e-05	0.07161197	0.01256615	4.350635e-05	2.616444e-05
	4.186464e-05	2.586576e-05	0.00194096	-0.0009256951	3.173719e-05	3.300532e-05	0.07168271	0.01332939
	0.07161197	0.01256615	3.173719e-05	3.300532e-05	0.00233627	4.706175e-05	2.336353e-05	2.072237e-05
	4.350635e-05	2.616444e-05	0.07168271	0.01332939	2.336353e-05	2.072237e-05	0.00240045	-6.278965e-05
3e+08	0.006373537	-0.000467812	5.005062e-05	1.774542e-05	0.07399862	-0.00133594	5.399984e-05	1.821467e-05
	5.005062e-05	1.774542e-05	0.006556041	-0.000718346	3.844332e-05	2.803101e-05	0.07389695	-0.0005409833
	0.07399862	-0.00133594	3.844332e-05	2.803101e-05	0.006976744	0.0002512084	2.871486e-05	1.668877e-05
	5.399984e-05	1.821467e-05	0.07389695	-0.0005409834	2.871486e-05	1.668877e-05	0.007066295	5.661331e-05
3.1e+08	0.01135538	-0.001600269	5.629411e-05	7.269697e-06	0.07241655	-0.01559547	6.224939e-05	7.438991e-06
	5.629411e-05	7.269697e-06	0.01150105	-0.001963637	4.388148e-05	2.116077e-05	0.07213554	-0.01471832
	0.07241655	-0.01559547	4.388148e-05	2.116077e-05	0.01194685	-0.001004897	3.307718e-05	1.116911e-05
	6.224939e-05	7.438991e-06	0.07213555	-0.01471832	3.307718e-05	1.116911e-05	0.01203802	-0.001298429
3.2e+08	0.01624636	-0.004370194	5.990138e-05	-5.165152e-06	0.06686845	-0.02908574	6.750975e-05	-5.623669e-06
	5.990138e-05	-5.165152e-06	0.01632032	-0.004837331	4.752302e-05	1.265661e-05	0.06641574	-0.02807379
	0.06686845	-0.02908574	4.752302e-05	1.265661e-05	0.01678847	-0.003895597	3.60381e-05	4.356275e-06
	6.750975e-05	-5.623669e-06	0.06641574	-0.02807379	3.60381e-05	4.356275e-06	0.01685155	-0.004295276
3.3e+08	0.02051622	-0.008812053	6.024404e-05	-1.894037e-05	0.05767304	-0.04071285	6.915156e-05	-2.022204e-05
	6.024404e-05	-1.894037e-05	0.02048573	-0.009364297	4.888369e-05	2.930686e-06	0.05707143	-0.03951542
	0.05767304	-0.04071285	4.888369e-05	2.930686e-06	0.02097178	-0.008445061	3.721467e-05	-3.434383e-06
	6.915156e-05	-2.022204e-05	0.05707143	-0.03951542	3.721467e-05	-3.434383e-06	0.02097303	-0.00894881
3.4e+08	0.0236104	-0.01478347	5.683538e-05	-3.322218e-05	0.04544713	-0.04950322	6.672854e-05	-3.540889e-05
	5.683538e-05	-3.322218e-05	0.02344737	-0.01539289	4.756786e-05	-7.453087e-06	0.04473422	-0.04807599
	0.04544713	-0.04950322	4.756786e-05	-7.453087e-06	0.02394618	-0.0145002	3.62902e-05	-1.177082e-05
	6.672854e-05	-3.540889e-05	0.04473422	-0.04807599	3.62902e-05	-1.177082e-05	0.02385073	-0.0150948
3.5e+08	0.02500999	-0.02195616	4.941162e-05	-4.699094e-05	0.03106335	-0.05468294	6.004197e-05	-5.009309e-05
	4.941162e-05	-4.699094e-05	0.02469356	-0.02258632	4.331964e-05	-1.779745e-05	0.03028978	-0.05299217
	0.03106335	-0.05468294	4.331964e-05	-1.779745e-05	0.02519878	-0.02172356	3.305171e-05	-2.01142e-05
	6.004197e-05	-5.009309e-05	0.03028978	-0.05299217	3.305171e-05	-2.01142e-05	0.02497429	-0.02238371
3.6e+08	0.02429338	-0.02982629	3.799733e-05	-5.911041e-05	0.01558755	-0.05574459	4.919771e-05	-6.309952e-05
	3.799733e-05	-5.911041e-05	0.02381255	-0.0304339	3.6064e-05	-2.731108e-05	0.01481394	-0.05377113
	0.01558755	-0.05574459	3.6064e-05	-2.731108e-05	0.02431756	-0.02960328	2.74264e-05	-2.784359e-05
	4.919771e-05	-6.309952e-05	0.01481394	-0.05377113	2.74264e-05	-2.784359e-05	0.02393845	-0.03029187
3.7e+08	0.0211959	-0.03774526	2.296581e-05	-6.841359e-05	0.0001976496	-0.05249425	3.463942e-05	-7.326561e-05
	2.296581e-05	-6.841359e-05	0.02055199	-0.03828265	2.594954e-05	-3.515034e-05	-0.0005095791	-0.05023655
	0.0001976496	-0.05249425	2.594954e-05	-3.515034e-05	0.02104926	-0.03748593	1.950868e-05	-3.429576e-05
	3.463942e-05	-7.326561e-05	-0.0005095792	-0.05023655	1.950868e-05	-3.429576e-05	0.02050102	-0.03815572
3.8e+08	0.01565767	-0.04497073	5.044108e-06	-7.381971e-05	-0.01390749	-0.04507393	1.71512e-05	-7.954637e-05
	5.044108e-06	-7.381971e-05	0.01486616	-0.04538932	1.336377e-05	-4.049035e-05	-0.01448143	-0.04254985
	-0.01390749	-0.04507393	1.336377e-05	-4.049035e-05	0.01534656	-0.04462729	9.587469e-06	-3.880818e-05
	1.71512e-05	-7.954637e-05	-0.01448143	-0.04254985	9.587469e-06	-3.880818e-05	0.01462977	-0.04522447
3.9e+08	0.007855949	-0.05073246	-1.470012e-05	-7.445163e-05	-0.02560451	-0.03395855	-2.180557e-06	-8.112107e-05
	-1.470012e-05	-7.445163e-05	0.006947402	-0.0509871	-1.059499e-06	-4.259298e-05	-0.02598358	-0.03120543
	-0.02560451	-0.03395855	-1.059499e-06	-4.259298e-05	0.007400919	-0.05025942	-1.855797e-06	-4.077988e-05
	-2.180557e-06	-8.112107e-05	-0.02598358	-0.03120543	-1.855797e-06	-4.077988e-05	0.006533947	-0.05072852
4e+08	-0.001785063	-0.05431135	-3.49274e-05	-6.974642e-05	-0.03393764	-0.01992292	-2.202754e-05	-7.748849e-05
	-3.49274e-05	-6.974642e-05	-0.002765631	-0.05436525	-1.645792e-05	-4.08839e-05	-0.0340715	-0.01699589
	-0.03393764	-0.01992292	-1.645792e-05	-4.08839e-05	-0.002351464	-0.05366909	-1.414744e-05	-3.973187e-05
	-2.202754e-05	-7.748849e-05	-0.0340715	-0.01699589	-1.414744e-05	-3.973187e-05	-0.003331392	-0.05395925
4.1e+08	-0.01261126	-0.05511969	-5.413339e-05	-5.953766e-05	-0.03819815	-0.003984914	-4.093546e-05	-6.853364e-05
	-5.413339e-05	-5.953766e-05	-0.01360662	-0.05494936	-3.179195e-05	-3.502898e-05	-0.03805284	-0.0009533132
	-0.03819815	-0.003984914	-3.179195e-05	-3.502898e-05	-0.01324554	-0.05427784	-2.64652e-05	-3.536785e-05
	-4.093546e-05	-6.853364e-05	-0.03805284	-0.0009533132	-2.64652e-05	-3.536785e-05	-0.01428363	-0.05434931
4.2e+08	-0.02378172	-0.05277398	-7.077429e-05	-4.410533e-05	-0.03798522	0.01267341	-5.743286e-05	-5.456441e-05
	-7.077429e-05	-4.410533e-05	-0.02472686	-0.05237336	-4.590628e-05	-2.498504e-05	-0.03754726	0.01573113
	-0.03798522	0.01267341	-4.590628e-05	-2.498504e-05	-0.02443198	-0.0517148	-3.788161e-05	-2.762593e-05
	-5.743286e-05	-5.456441e-05	-0.03754726	0.01573113	-3.788161e-05	-2.762593e-05	-0.02545963	-0.05154519
4.3e+08	-0.03433722	-0.04715518	-8.34065e-05	-2.417074e-05	-0.03323995	0.02879912	-7.016458e-05	-3.629709e-05
	-8.34065e-05	-2.417074e-05	-0.03516481	-0.04653834	-5.761433e-05	-1.10426e-05	-0.03251861	0.03180163
	-0.03323995	0.02879912	-5.761433e-05	-1.10426e-05	-0.03494709	-0.0458759	-4.744091e-05	-1.67142e-05
	-7.016458e-05	-3.629709e-05	-0.03251861	0.03180163	-4.744091e-05	-1.67142e-05	-0.03588771	-0.04546484
4.4e+08	-0.04328511	-0.03844278	-9.081356e-05	-8.532695e-07	-0.02425232	0.04316649	-7.800683e-05	-1.480641e-05
	-9.081356e-05	-8.532695e-07	-0.04393212	-0.03764457	-6.581263e-05	6.159203e-06	-0.02327995	0.04603634
	-0.02425232	0.04316649	-6.581263e-05	6.159203e-06	-0.04379775	-0.03695666	-5.423986e-05	-3.120796e-06
	-7.800683e-05	-1.480641e-05	-0.02327995	0.04603634	-5.423986e-05	-3.120796e-06	-0.0445743	-0.0363283
4.5e+08	-0.04969346	-0.02712173	-9.210876e-05	2.441551e-05	-0.0116395	0.05467364	-8.015388e-05	8.546263e-06
	-9.210876e-05	2.441551e-05	-0.05010784	-0.02619613	-6.958108e-05	2.566162e-05	-0.01047001	0.05734378
	-0.0116395	0.05467364	-6.958107e-05	2.566162e-05	-0.05005692	-0.02545802	-5.751553e-05	1.240817e-05
	-8.015388e-05	8.546263e-06	-0.01047001	0.05734378	-5.751553e-05	1.240817e-05	-0.05059991	-0.02466086
4.6e+08	-0.05278688	-0.01395811	-8.680861e-05	4.999024e-05	0.003701814	0.06242738	-7.618366e-05	3.221921e-05
	-8.680861e-05	4.999024e-05	-0.05293339	-0.01297432	-6.827459e-05	4.625202e-05	0.004996571	0.06484718
	0.003701814	0.06242738	-6.827459e-05	4.625202e-05	-0.05295888	-0.01215998	-5.672052e-05	2.890617e-05
	-7.618366e-05	3.221921e-05	0.004996571	0.06484718	-5.672052e-05	2.890617e-05	-0.05321404	-0.01126396
4.7e+08	-0.05203162	5.448468e-05	-7.487076e-05	7.412998e-05	0.02066436	0.06581161	-6.608694e-05	5.46006e-05
	-7.487076e-05	7.412998e-05	-0.05189603	0.001017667	-6.159545e-05	6.653769e-05	0.0219996	0.06795145
	0.02066436	0.06581161	-6.159545e-05	6.653769e-05	-0.05198195	0.001932606	-5.158218e-05	4.52584e-05
	-6.608694e-05	5.46006e-05	0.0219996	0.06795145	-5.158218e-05	4.52584e-05	-0.0519166	0.002841292
