!$
! Info: Touchstone file created by Circ.  Input file=Intel_C2M_200G_12p0in_202208016_staggered.circ
!$
# Hz S RI R 50
0	0.03298453	5.436455e-24	0.0001115514	1.726507e-22	0.0001537823	3.631133e-22	0.0001115451	1.723894e-22
	0.0001115514	1.726507e-22	0.03299721	5.880188e-24	0.0001115556	1.727948e-22	0.0001533862	3.599023e-22
	0.0001538383	3.632365e-22	0.0001115556	1.727967e-22	0.03297952	5.709607e-24	0.0001115472	1.725182e-22
	0.000111545	1.723913e-22	0.0001534422	3.600259e-22	0.0001115472	1.725182e-22	0.03299521	5.558797e-24
1e+07	0.04022743	0.003155659	1.214287e-05	4.584983e-05	0.003126439	0.008460278	1.774845e-05	3.144934e-05
	1.214288e-05	4.584986e-05	0.04015483	0.004059946	1.061508e-05	5.650896e-05	0.003133172	0.008518449
	0.003126439	0.008460278	1.061508e-05	5.650896e-05	0.04013749	0.004120674	1.242367e-05	4.809623e-05
	1.774845e-05	3.144934e-05	0.003133172	0.008518449	1.242367e-05	4.809623e-05	0.0402556	0.003160616
2e+07	0.04671817	-0.0008609186	2.314204e-05	3.546208e-05	0.007578513	0.01496007	1.315102e-05	1.81003e-05
	2.314204e-05	3.546209e-05	0.04772798	0.0004649378	4.420754e-05	5.270251e-05	0.007592547	0.01507392
	0.007578519	0.01496005	4.420753e-05	5.27025e-05	0.0477362	0.0005827339	2.590478e-05	3.864403e-05
	1.315102e-05	1.81003e-05	0.007592553	0.0150739	2.590478e-05	3.864403e-05	0.04675814	-0.0008659531
3e+07	0.04979682	-0.008272074	3.711449e-05	2.606403e-05	0.01394929	0.01967169	1.061153e-05	1.488354e-05
	3.711449e-05	2.606403e-05	0.05156463	-0.007158751	7.062103e-05	3.885205e-05	0.01397503	0.01983604
	0.01394929	0.01967173	7.062104e-05	3.885205e-05	0.05160944	-0.006986766	4.167807e-05	2.883551e-05
	1.061154e-05	1.488354e-05	0.01397502	0.01983609	4.167808e-05	2.883551e-05	0.04983467	-0.008287322
4e+07	0.04980817	-0.01654662	4.607709e-05	1.457013e-05	0.02154959	0.02190568	1.144425e-05	1.048074e-05
	4.60771e-05	1.457013e-05	0.05209378	-0.01587221	8.724373e-05	1.860231e-05	0.02158745	0.02211318
	0.0215496	0.0219057	8.724373e-05	1.860231e-05	0.05219169	-0.01566614	5.194072e-05	1.641828e-05
	1.144425e-05	1.048074e-05	0.02158746	0.0221132	5.194072e-05	1.641828e-05	0.04983891	-0.01657787
5e+07	0.04725392	-0.02448377	5.037701e-05	1.995127e-06	0.02950878	0.02144002	1.281859e-05	5.053712e-06
	5.037701e-05	1.995127e-06	0.04984279	-0.0243624	9.475922e-05	-4.473889e-06	0.02955538	0.02168344
	0.02950879	0.02144003	9.475922e-05	-4.47389e-06	0.04999858	-0.02414399	5.711287e-05	2.618166e-06
	1.281859e-05	5.053711e-06	0.02955539	0.02168345	5.711287e-05	2.618166e-06	0.04726851	-0.02453108
6e+07	0.04265759	-0.03134129	5.049182e-05	-1.047727e-05	0.03693825	0.01829632	1.229272e-05	1.948884e-07
	5.049182e-05	-1.047727e-05	0.04535229	-0.03181901	9.402968e-05	-2.760403e-05	0.03698675	0.01857026
	0.03693825	0.0182963	9.402968e-05	-2.760403e-05	0.04556282	-0.03161034	5.769207e-05	-1.125906e-05
	1.229272e-05	1.948906e-07	0.03698675	0.01857024	5.769207e-05	-1.125906e-05	0.04264823	-0.0314016
7e+07	0.03662143	-0.03662448	4.699079e-05	-2.186582e-05	0.04299683	0.01277662	1.026719e-05	-3.638771e-06
	4.699079e-05	-2.186581e-05	0.03924118	-0.03769779	8.627059e-05	-4.861841e-05	0.04303787	0.01307887
	0.04299682	0.01277661	8.627059e-05	-4.861841e-05	0.03949522	-0.0375192	5.425394e-05	-2.413807e-05
	1.026719e-05	-3.63877e-06	0.04303786	0.01307887	5.425394e-05	-2.413807e-05	0.03658159	-0.03669342
8e+07	0.02980046	-0.04008775	4.051395e-05	-3.141228e-05	0.04698032	0.005431758	7.238379e-06	-6.096497e-06
	4.051395e-05	-3.141228e-05	0.03218124	-0.04171511	7.281932e-05	-6.59221e-05	0.04700341	0.005764329
	0.04698033	0.00543176	7.281932e-05	-6.59221e-05	0.03246054	-0.04158236	4.743944e-05	-3.518056e-05
	7.238379e-06	-6.096498e-06	0.04700341	0.005764331	4.743944e-05	-3.518056e-05	0.02972504	-0.04015996
9e+07	0.02283146	-0.04171881	3.169317e-05	-3.860634e-05	0.0483909	-0.002994985	3.774944e-06	-7.006997e-06
	3.169317e-05	-3.860634e-05	0.02482099	-0.0438303	5.499347e-05	-7.846906e-05	0.0483863	-0.002625632
	0.04839091	-0.002994986	5.499347e-05	-7.846906e-05	0.02510194	-0.04375182	3.786987e-05	-4.381021e-05
	3.774942e-06	-7.006997e-06	0.04838631	-0.002625633	3.786987e-05	-4.381021e-05	0.02271627	-0.04178793
1e+08	0.01633156	-0.0416885	2.029638e-05	-4.330348e-05	0.04698322	-0.01164353	2.799759e-07	-6.318465e-06
	2.029638e-05	-4.330348e-05	0.01773323	-0.04420704	3.249206e-05	-8.585565e-05	0.04694377	-0.01122656
	0.04698322	-0.01164353	3.249206e-05	-8.585565e-05	0.01798966	-0.04418237	2.516278e-05	-4.987147e-05
	2.799761e-07	-6.318465e-06	0.04694377	-0.01122656	2.516278e-05	-4.987147e-05	0.01617347	-0.04174745
1.1e+08	0.01050837	-0.04064787	9.110385e-06	-4.070118e-05	0.04276899	-0.01961059	-1.602691e-06	-3.754886e-06
	9.110385e-06	-4.070118e-05	0.0112295	-0.04314605	1.110765e-05	-7.928395e-05	0.04269139	-0.0191327
	0.04276898	-0.01961058	1.110765e-05	-7.928395e-05	0.01140637	-0.04321259	1.221019e-05	-4.760568e-05
	-1.602691e-06	-3.754886e-06	0.04269139	-0.0191327	1.221019e-05	-4.760568e-05	0.01027091	-0.04073345
1.2e+08	0.005468603	-0.03856195	1.741349e-06	-3.64107e-05	0.03610093	-0.02599615	-1.931017e-06	-1.39357e-06
	1.74135e-06	-3.64107e-05	0.005695608	-0.04090505	-2.884172e-06	-7.005874e-05	0.03598642	-0.02544176
	0.03610093	-0.02599615	-2.884172e-06	-7.005874e-05	0.005771695	-0.04098079	3.423998e-06	-4.324811e-05
	-1.931016e-06	-1.393571e-06	0.03598642	-0.02544176	3.423999e-06	-4.324811e-05	0.005151389	-0.0385981
1.3e+08	0.001461293	-0.0358059	-1.571035e-06	-3.154197e-05	0.02755502	-0.03010346	-1.674809e-06	4.79818e-07
	-1.571035e-06	-3.154197e-05	0.00130726	-0.03792458	-4.950704e-06	-6.014759e-05	0.02741098	-0.02945693
	0.02755502	-0.03010346	-4.950703e-06	-6.01476e-05	0.001299247	-0.03797138	-3.29101e-07	-3.8039e-05
	-1.674809e-06	4.798177e-07	0.02741098	-0.02945693	-3.291008e-07	-3.803901e-05	0.001097506	-0.03576755
1.4e+08	-0.001488277	-0.03275564	-1.915455e-06	-2.692944e-05	0.01789757	-0.03142812	-9.665465e-07	1.927099e-06
	-1.915455e-06	-2.692944e-05	-0.001926318	-0.03461059	-6.223787e-06	-5.104744e-05	0.01773734	-0.03067604
	0.01789757	-0.03142811	-6.223787e-06	-5.104744e-05	-0.002006025	-0.03461285	-1.265221e-06	-3.301583e-05
	-9.665464e-07	1.927099e-06	0.01773734	-0.03067604	-1.265221e-06	-3.301583e-05	-0.001876158	-0.03264457
1.5e+08	-0.00348299	-0.02973336	-1.954659e-06	-2.297733e-05	0.008019748	-0.02971333	2.791872e-07	2.894925e-06
	-1.954659e-06	-2.297733e-05	-0.004118519	-0.0313073	-6.420678e-06	-4.275741e-05	0.007861846	-0.02884667
	0.008019748	-0.02971333	-6.420678e-06	-4.275741e-05	-0.004263791	-0.03125168	-1.670893e-06	-2.850459e-05
	2.791872e-07	2.894924e-06	0.007861846	-0.02884667	-1.670893e-06	-2.850459e-05	-0.003885956	-0.02955502
1.6e+08	-0.004714966	-0.02697555	-1.568909e-06	-1.953708e-05	-0.001140482	-0.02497971	1.767849e-06	3.269038e-06
	-1.568909e-06	-1.953708e-05	-0.00547136	-0.02826853	-5.608467e-06	-3.541883e-05	-0.001273775	-0.02399568
	-0.001140482	-0.02497971	-5.608467e-06	-3.541883e-05	-0.005675887	-0.02813849	-1.737782e-06	-2.454988e-05
	1.767849e-06	3.269038e-06	-0.001273774	-0.02399568	-1.737782e-06	-2.454988e-05	-0.005130792	-0.02673082
1.7e+08	-0.005425092	-0.02461408	-8.451899e-07	-1.664323e-05	-0.00868245	-0.01752969	3.190705e-06	3.089132e-06
	-8.4519e-07	-1.664323e-05	-0.006236051	-0.02563974	-3.974785e-06	-2.913702e-05	-0.008767367	-0.01643317
	-0.00868245	-0.01752969	-3.974785e-06	-2.913702e-05	-0.006487546	-0.02541666	-1.396816e-06	-2.110061e-05
	3.190705e-06	3.089132e-06	-0.008767367	-0.01643317	-1.396816e-06	-2.110061e-05	-0.005851275	-0.02429784
1.8e+08	-0.005859045	-0.02267073	9.236134e-08	-1.428017e-05	-0.01382562	-0.007927045	4.828175e-06	2.243697e-06
	9.236129e-08	-1.428017e-05	-0.006669073	-0.02345308	-1.721957e-06	-2.39867e-05	-0.01383947	-0.006731172
	-0.01382562	-0.007927045	-1.721957e-06	-2.39867e-05	-0.006947327	-0.02312054	-7.56851e-07	-1.815e-05
	4.828175e-06	2.243697e-06	-0.01383947	-0.006731172	-7.56851e-07	-1.815e-05	-0.006288766	-0.02227436
1.9e+08	-0.006226228	-0.02106796	1.159071e-06	-1.247843e-05	-0.01598383	0.003047633	6.144941e-06	9.312426e-07
	1.15907e-06	-1.247843e-05	-0.006990814	-0.02163849	9.313715e-07	-2.002944e-05	-0.01590793	0.004321793
	-0.01598383	0.003047634	9.313714e-07	-2.002944e-05	-0.007268443	-0.02118655	1.08191e-07	-1.574557e-05
	6.144941e-06	9.312425e-07	-0.01590793	0.004321793	1.081909e-07	-1.574557e-05	-0.006646294	-0.02058276
2e+08	-0.006664042	-0.0196538	2.231955e-06	-1.121642e-05	-0.0148233	0.01446283	6.991875e-06	-7.154577e-07
	2.231955e-06	-1.121642e-05	-0.007349612	-0.02004887	3.719115e-06	-1.72465e-05	-0.01464572	0.01578758
	-0.0148233	0.01446283	3.719115e-06	-1.72465e-05	-0.007595883	-0.01947731	1.080812e-06	-1.388418e-05
	6.991874e-06	-7.154577e-07	-0.01464572	0.01578758	1.080812e-06	-1.388418e-05	-0.007055966	-0.01907462
2.1e+08	-0.007215713	-0.01823928	3.195416e-06	-1.043527e-05	-0.01029901	0.02531662	7.296299e-06	-2.555965e-06
	3.195416e-06	-1.043527e-05	-0.007799233	-0.01849772	6.387378e-06	-1.555504e-05	-0.01001683	0.02665999
	-0.01029901	0.02531662	6.387378e-06	-1.555504e-05	-0.007983352	-0.0178168	2.045173e-06	-1.252728e-05
	7.296299e-06	-2.555965e-06	-0.01001683	0.02665999	2.045173e-06	-1.252728e-05	-0.007556383	-0.01756668
2.2e+08	-0.007823255	-0.01663971	3.952398e-06	-1.005117e-05	-0.00266541	0.03462553	7.026039e-06	-4.432547e-06
	3.952398e-06	-1.005117e-05	-0.008291615	-0.01680093	8.710345e-06	-1.481657e-05	-0.002286147	0.03595428
	-0.00266541	0.03462553	8.710345e-06	-1.481657e-05	-0.008387382	-0.01603131	2.89839e-06	-1.161128e-05
	7.026039e-06	-4.432547e-06	-0.002286146	0.03595428	2.89839e-06	-1.161128e-05	-0.00808799	-0.0158825
2.3e+08	-0.00833808	-0.01471787	4.432037e-06	-9.960493e-06	0.00754006	0.04151325	6.193881e-06	-6.182901e-06
	4.432037e-06	-9.960493e-06	-0.008687244	-0.01482007	1.050612e-05	-1.484568e-05	0.007998131	0.04279636
	0.00754006	0.04151325	1.050612e-05	-1.484568e-05	-0.008676547	-0.01398976	3.558402e-06	-1.105131e-05
	6.193881e-06	-6.182901e-06	0.007998131	0.04279636	3.558402e-06	-1.105131e-05	-0.008503583	-0.013893
2.4e+08	-0.008546987	-0.01241884	4.594423e-06	-1.004812e-05	0.0195394	0.04528983	4.857676e-06	-7.653636e-06
	4.594423e-06	-1.004812e-05	-0.008781085	-0.01249756	1.164803e-05	-1.542357e-05	0.02004809	0.04650195
	0.0195394	0.04528983	1.164803e-05	-1.542357e-05	-0.008655328	-0.01163918	3.969199e-06	-1.074784e-05
	4.857676e-06	-7.653636e-06	0.02004809	0.04650195	3.969199e-06	-1.074784e-05	-0.008593628	-0.01155171
2.5e+08	-0.008210096	-0.009792955	4.432438e-06	-1.019649e-05	0.0323784	0.04551544	3.116056e-06	-8.713299e-06
	4.432438e-06	-1.019649e-05	-0.008340347	-0.009879831	1.207119e-05	-1.631404e-05	0.0329015	0.04663999
	0.0323784	0.04551544	1.207119e-05	-1.631404e-05	-0.008101938	-0.009026403	4.103918e-06	-1.059452e-05
	3.116056e-06	-8.713299e-06	0.0329015	0.04663999	4.103918e-06	-1.059452e-05	-0.008125428	-0.008915689
2.6e+08	-0.007105847	-0.007002041	3.970987e-06	-1.02949e-05	0.04500637	0.04204216	1.100452e-06	-9.263401e-06
	3.970987e-06	-1.02949e-05	-0.007149372	-0.007123741	1.177439e-05	-1.728057e-05	0.04550256	0.04307371
	0.04500637	0.04204216	1.177439e-05	-1.728057e-05	-0.006810363	-0.006305684	3.965224e-06	-1.048656e-05
	1.100452e-06	-9.263401e-06	0.04550256	0.04307371	3.965224e-06	-1.048656e-05	-0.006886183	-0.006152023
2.7e+08	-0.005075291	-0.004308958	3.263342e-06	-1.024774e-05	0.05636408	0.03502955	-1.035939e-06	-9.246232e-06
	3.263342e-06	-1.024774e-05	-0.005053824	-0.004486357	1.081711e-05	-1.810279e-05	0.0567903	0.0359752
	0.05636408	0.03502955	1.081711e-05	-1.810279e-05	-0.004634647	-0.003728318	3.583377e-06	-1.032841e-05
	-1.035939e-06	-9.246232e-06	0.0567903	0.0359752	3.583377e-06	-1.032841e-05	-0.004727849	-0.0035259
2.8e+08	-0.002061039	-0.00205111	2.385453e-06	-9.981512e-06	0.06547232	0.02493576	-3.130786e-06	-8.649134e-06
	2.385453e-06	-9.981512e-06	-0.001999484	-0.002298755	9.312186e-06	-1.859131e-05	0.06578762	0.0258155
	0.06547232	0.02493576	9.312186e-06	-1.859131e-05	-0.001526493	-0.00161716	3.012185e-06	-1.004073e-05
	-3.130786e-06	-8.649134e-06	0.06578762	0.0258155	3.012185e-06	-1.004073e-05	-0.001604842	-0.001373647
2.9e+08	0.00186603	-0.0005998466	1.428536e-06	-9.449615e-06	0.07151348	0.01248335	-5.02576e-06	-7.504638e-06
	1.428536e-06	-9.449615e-06	0.00194096	-0.0009256951	7.414938e-06	-1.859983e-05	0.07168271	0.01332939
	0.07151348	0.01248335	7.414938e-06	-1.859983e-05	0.002438807	-0.0003282863	2.323133e-06	-9.565588e-06
	-5.02576e-06	-7.504638e-06	0.07168271	0.01332939	2.323133e-06	-9.565588e-06	0.00240045	-6.278965e-05
3e+08	0.006494866	-0.0003129191	4.908983e-07	-8.634672e-06	0.07389961	-0.00139594	-6.578731e-06	-5.886772e-06
	4.908983e-07	-8.634672e-06	0.006556041	-0.000718346	5.309829e-06	-1.803359e-05	0.07389695	-0.0005409833
	0.07389961	-0.00139594	5.309829e-06	-1.803359e-05	0.007050136	-0.0002035829	1.598771e-06	-8.869753e-06
	-6.578731e-06	-5.886772e-06	0.07389695	-0.0005409834	1.598771e-06	-8.869753e-06	0.007066295	5.661331e-05
3.1e+08	0.01147998	-0.00148359	-3.304203e-07	-7.548652e-06	0.0723236	-0.01563255	-7.674194e-06	-3.904388e-06
	-3.304203e-07	-7.548652e-06	0.01150105	-0.001963637	3.195693e-06	-1.685398e-05	0.07213554	-0.01471832
	0.0723236	-0.01563255	3.195693e-06	-1.685398e-05	0.01196574	-0.001522221	9.254671e-07	-7.94599e-06
	-7.674194e-06	-3.904388e-06	0.07213555	-0.01471832	9.254671e-07	-7.94599e-06	0.01203802	-0.001298429
3.2e+08	0.01636384	-0.00429365	-9.471991e-07	-6.230483e-06	0.06678815	-0.02910193	-8.230929e-06	-1.691942e-06
	-9.471991e-07	-6.230483e-06	0.01632032	-0.004837331	1.27078e-06	-1.507928e-05	0.06641574	-0.02807379
	0.06678815	-0.02910193	1.27078e-06	-1.507928e-05	0.01673518	-0.004452666	3.86605e-07	-6.812492e-06
	-8.230929e-06	-1.691942e-06	0.06641574	-0.02807379	3.86605e-07	-6.812492e-06	0.01685155	-0.004295276
3.3e+08	0.02061547	-0.008773647	-1.286413e-06	-4.74217e-06	0.05761124	-0.04071214	-8.206626e-06	6.009431e-07
	-1.286413e-06	-4.74217e-06	0.02048573	-0.009364297	-2.814907e-07	-1.278151e-05	0.05707143	-0.03951542
	0.05761124	-0.04071214	-2.814907e-07	-1.278151e-05	0.02083731	-0.009016068	5.631187e-08	-5.510525e-06
	-8.206626e-06	6.009431e-07	0.05707143	-0.03951542	5.631186e-08	-5.510525e-06	0.02097303	-0.00894881
3.4e+08	0.02368103	-0.01477722	-1.295183e-06	-3.163585e-06	0.04540841	-0.04949145	-7.599649e-06	2.820347e-06
	-1.295183e-06	-3.163585e-06	0.02344737	-0.01539289	-1.305552e-06	-1.008058e-05	0.04473422	-0.04807599
	0.04540841	-0.04949145	-1.305552e-06	-1.008058e-05	0.02373033	-0.01505907	-5.82353e-09	-4.101156e-06
	-7.599649e-06	2.820347e-06	0.04473422	-0.04807599	-5.823537e-09	-4.101156e-06	0.02385073	-0.0150948
3.5e+08	0.02504372	-0.02197242	-9.440035e-07	-1.586603e-06	0.03105051	-0.05466722	-6.447622e-06	4.818433e-06
	-9.440035e-07	-1.586603e-06	0.02469356	-0.02258632	-1.684402e-06	-7.135223e-06	0.03028978	-0.05299217
	0.03105051	-0.05466722	-1.684402e-06	-7.135223e-06	0.02490945	-0.0222467	2.412072e-07	-2.660771e-06
	-6.447622e-06	4.818433e-06	0.03028978	-0.05299217	2.412072e-07	-2.660771e-06	0.02497429	-0.02238371
3.6e+08	0.02428531	-0.02985263	-2.286147e-07	-1.09033e-07	0.01560114	-0.05573281	-4.823989e-06	6.462729e-06
	-2.286147e-07	-1.09033e-07	0.02381255	-0.0304339	-1.34838e-06	-4.132225e-06	0.01481394	-0.05377113
	0.01560114	-0.05573281	-1.34838e-06	-4.132225e-06	0.02396923	-0.03007174	8.164823e-07	-1.276372e-06
	-4.823989e-06	6.462729e-06	0.01481394	-0.05377113	8.164823e-07	-1.276372e-06	0.02393845	-0.03029187
3.7e+08	0.02114531	-0.03776777	8.294654e-07	1.171372e-06	0.0002358806	-0.05249437	-2.832441e-06	7.643927e-06
	8.294654e-07	1.171372e-06	0.02055199	-0.03828265	-2.809529e-07	-1.27357e-06	-0.0005095791	-0.05023655
	0.0002358806	-0.05249437	-2.809529e-07	-1.27357e-06	0.02066101	-0.03788705	1.715057e-06	-4.007208e-08
	-2.832441e-06	7.643927e-06	-0.0005095792	-0.05023655	1.715057e-06	-4.007208e-08	0.02050102	-0.03815572
3.8e+08	0.01556845	-0.04497547	2.18337e-06	2.162743e-06	-0.01384882	-0.04509329	-6.002912e-07	8.281833e-06
	2.18337e-06	2.162743e-06	0.01486616	-0.04538932	1.478376e-06	1.237276e-06	-0.01448143	-0.04254985
	-0.01384882	-0.04509329	1.478376e-06	1.237276e-06	0.0149397	-0.04495555	2.90669e-06	9.565952e-07
	-6.002912e-07	8.281833e-06	-0.01448143	-0.04254985	2.90669e-06	9.565952e-07	0.01462977	-0.04522447
3.9e+08	0.007736509	-0.05070703	3.762176e-06	2.78487e-06	-0.02553173	-0.03400308	1.72897e-06	8.329878e-06
	3.762176e-06	2.78487e-06	0.006947402	-0.0509871	3.83413e-06	3.209923e-06	-0.02598358	-0.03120543
	-0.02553173	-0.03400308	3.83413e-06	3.209923e-06	0.006996487	-0.05051651	4.335409e-06	1.628916e-06
	1.72897e-06	8.329878e-06	-0.02598358	-0.03120543	4.335409e-06	1.628916e-06	0.006533947	-0.05072852
4e+08	-0.001922552	-0.05424632	5.473188e-06	2.975051e-06	-0.03385876	-0.01999655	4.003824e-06	7.777887e-06
	5.473188e-06	2.975051e-06	-0.002765631	-0.05436525	6.63884e-06	4.481855e-06	-0.0340715	-0.01699589
	-0.03385876	-0.01999655	6.63884e-06	4.481855e-06	-0.002734872	-0.05386326	5.920842e-06	1.905922e-06
	4.003824e-06	7.777887e-06	-0.0340715	-0.01699589	5.920842e-06	1.905922e-06	-0.003331392	-0.05395925
4.1e+08	-0.01275228	-0.05500976	7.205605e-06	2.69426e-06	-0.03812223	-0.004089091	6.07276e-06	6.653201e-06
	7.205605e-06	2.69426e-06	-0.01360662	-0.05494936	9.702331e-06	4.93445e-06	-0.03805284	-0.0009533132
	-0.03812223	-0.004089091	9.702331e-06	4.93445e-06	-0.01359336	-0.05442245	7.562703e-06	1.740144e-06
	6.07276e-06	6.653201e-06	-0.03805284	-0.0009533132	7.562703e-06	1.740144e-06	-0.01428363	-0.05434931
4.2e+08	-0.02391038	-0.05261836	8.835889e-06	1.931893e-06	-0.03792158	0.01254001	7.79395e-06	5.021375e-06
	8.835889e-06	1.931893e-06	-0.02472686	-0.05237336	1.280107e-05	4.499489e-06	-0.03754726	0.01573113
	-0.03792158	0.01254001	1.280107e-05	4.499489e-06	-0.02473544	-0.05182683	9.143923e-06	1.106922e-06
	7.79395e-06	5.021375e-06	-0.03754726	0.01573113	9.143923e-06	1.106922e-06	-0.02545963	-0.05154519
4.3e+08	-0.03443749	-0.04695808	1.023528e-05	7.112184e-07	-0.03319731	0.02864055	9.044532e-06	2.983193e-06
	1.023528e-05	7.112184e-07	-0.03516481	-0.04653834	1.569063e-05	3.170541e-06	-0.03251861	0.03180163
	-0.03319731	0.02864055	1.569063e-05	3.170541e-06	-0.0352041	-0.04597347	1.053499e-05	1.337115e-08
	9.044532e-06	2.983193e-06	-0.03251861	0.03180163	1.053499e-05	1.337115e-08	-0.03588771	-0.04546484
4.4e+08	-0.04334264	-0.0382132	1.127936e-05	-9.079969e-07	-0.02423798	0.04298936	9.729181e-06	6.699873e-07
	1.127936e-05	-9.079969e-07	-0.04393212	-0.03764457	1.812765e-05	1.011974e-06	-0.02327995	0.04603634
	-0.02423798	0.04298936	1.812765e-05	1.011974e-06	-0.04401248	-0.0370569	1.160777e-05	-1.493371e-06
	9.729181e-06	6.699873e-07	-0.02327995	0.04603634	1.160777e-05	-1.493371e-06	-0.0445743	-0.0363283
4.5e+08	-0.04969695	-0.02687283	1.185906e-05	-2.829944e-06	-0.01165867	0.05448656	9.788784e-06	-1.763426e-06
	1.185906e-05	-2.829944e-06	-0.05010784	-0.02619613	1.988856e-05	-1.843619e-06	-0.01047001	0.05734378
	-0.01165867	0.05448656	1.988856e-05	-1.843619e-06	-0.0502389	-0.02557492	1.224623e-05	-3.328283e-06
	9.788784e-06	-1.763426e-06	-0.01047001	0.05734378	1.224623e-05	-3.328283e-06	-0.05059991	-0.02466086
4.6e+08	-0.0527292	-0.01370608	1.189214e-05	-4.926802e-06	0.003646618	0.06224033	9.207022e-06	-4.14878e-06
	1.189214e-05	-4.926802e-06	-0.05293339	-0.01297432	2.078954e-05	-5.201741e-06	0.004996571	0.06484718
	0.003646618	0.06224033	2.078954e-05	-5.201741e-06	-0.05312163	-0.01230296	1.235848e-05	-5.371826e-06
	9.207022e-06	-4.14878e-06	0.004996571	0.06484718	1.235848e-05	-5.371826e-06	-0.05321404	-0.01126396
4.7e+08	-0.05191052	0.0002916049	1.133353e-05	-7.046891e-06	0.02057358	0.06563506	8.014047e-06	-6.316746e-06
	1.133353e-05	-7.046891e-06	-0.05189603	0.001017667	2.070411e-05	-8.818411e-06	0.0219996	0.06795145
	0.02057358	0.06563506	2.070411e-05	-8.818411e-06	-0.0521411	0.001759754	1.188751e-05	-7.477602e-06
	8.014047e-06	-6.316746e-06	0.0219996	0.06795145	1.188751e-05	-7.477602e-06	-0.0519166	0.002841292
