# GHz S RI R 45
0.000     0.070915679000    -0.000000000000    0.000002609871    0.000000000000    0.004403687400    -0.000000000000    0.000001517978    0.000000000000
            0.000002584321    0.000000000000    0.070708320000    -0.000000000000    -0.000000347249    0.000000000000    0.004427848700    -0.000000000000
            0.005162899600    0.000000000000    -0.000000346414    -0.000000000000    0.069106693000    -0.000000000000    0.000000353897    -0.000000000000
            0.000001554529    -0.000000000000    0.005271227300    0.000000000000    0.000000346154    0.000000000000    0.069974773000    -0.000000000000
0.025     0.155818975052    -0.001481729640    0.000004215584    0.000002378408    0.088338758864    0.026966259265    0.000001792820    -0.000000372936
            0.000004222140    0.000002381284    0.156231000900    -0.002130728215    0.000001349438    0.000003029725    0.088561710040    0.026543965184
            0.088981169069    0.026461715354    0.000001352063    0.000003025629    0.156676036744    -0.000517078732    0.000000408567    0.000000231833
            0.000001801376    -0.000000377625    0.089165624469    0.026000997685    0.000000414020    0.000000239125    0.156703140780    -0.001595205429
0.050     0.061753583800    -0.078904268569    -0.000010811339    0.000021939480    0.035140539662    -0.035971247888    -0.000005105901    0.000009625386
            -0.000010793757    0.000021937203    0.060712497889    -0.078429792285    -0.000003015364    0.000008464684    0.034286997881    -0.035632538096
            0.035117324600    -0.036890841991    -0.000003030556    0.000008467800    0.061969061425    -0.079850727117    -0.000001026781    0.000002797384
            -0.000005119512    0.000009627952    0.034253835834    -0.036526078586    -0.000001005137    0.000002791913    0.060951040947    -0.079118630674
0.075     0.089672350016    0.063856906961    0.000021153503    0.000030074363    0.068872890299    0.073230673149    0.000011718944    0.000009155306
            0.000021162971    0.000030059145    0.092046132199    0.063356795859    0.000004848620    0.000013900946    0.070669342969    0.072922033411
            0.068308200136    0.072722982228    0.000004872320    0.000013911978    0.089138178926    0.064595556326    0.000002670273    0.000002760625
            0.000011740742    0.000009166186    0.070105045293    0.072417092613    0.000002677567    0.000002744917    0.091570343745    0.063929454429
0.100     0.205891090376    -0.074598351263    -0.000008188101    0.000015514130    0.164072139594    -0.049053000041    -0.000005399870    0.000002286886
            -0.000008178829    0.000015488592    0.203723261075    -0.078301341909    0.000001598599    0.000015116590    0.162442110438    -0.052132959017
            0.163344451434    -0.049273979891    0.000001587014    0.000015084670    0.206698079611    -0.074290177047    0.000000838253    0.000003545555
            -0.000005411461    0.000002257195    0.161708562136    -0.052339707290    0.000000849071    0.000003523741    0.204529916054    -0.078044336816
0.125     0.032676155687    -0.115629391323    0.000001280487    0.000072998708    0.017029078966    -0.084333784729    -0.000001123109    0.000029567726
            0.000001253359    0.000072952223    0.030170439621    -0.113109731220    0.000005333367    0.000027211314    0.014554727568    -0.082263261651
            0.016052615171    -0.083839849215    0.000005324267    0.000027260049    0.033291157541    -0.115503354922    0.000001459668    0.000007222244
            -0.000001129379    0.000029610688    0.013591263995    -0.081742136526    0.000001433382    0.000007162142    0.030790746099    -0.113179540111
0.150     0.124029027714    0.010962453728    0.000031285715    0.000022055627    0.092028852027    0.019231260162    0.000012489791    0.000001950822
            0.000031227518    0.000022063937    0.125552098361    0.007357967386    0.000010805907    0.000016214750    0.093200644127    0.016715066817
            0.092056402780    0.020283563858    0.000010826866    0.000016170188    0.125432283379    0.010558383023    0.000003992002    0.000002315592
            0.000012506488    0.000001906634    0.093263234950    0.017765159690    0.000003932072    0.000002339124    0.126860044966    0.006848731019
0.175     0.153838863601    -0.177645152900    -0.000026451339    0.000062032357    0.107085721022    -0.130216443597    -0.000015920358    0.000019636658
            -0.000026475427    0.000062066028    0.145854330109    -0.180298366342    0.000007452012    0.000031444557    0.100739325556    -0.132058005037
            0.107615802641    -0.129758207058    0.000007414776    0.000031465564    0.154036793975    -0.178761338288    0.000003297079    0.000005146306
            -0.000015958153    0.000019660153    0.101285582535    -0.131619442307    0.000003276705    0.000005170719    0.146096501127    -0.181526339422
0.200     -0.040913786625    -0.151460324172    0.000049594296    0.000090988625    -0.042850408395    -0.100319964781    0.000012906950    0.000037741650
            0.000049569079    0.000091028259    -0.045029859539    -0.145723994986    0.000028229721    0.000028888561    -0.046016434431    -0.095188337036
            -0.042327863242    -0.100001080527    0.000028285494    0.000028912413    -0.039996861602    -0.151203690830    0.000005192469    0.000007527777
            0.000012960131    0.000037762456    -0.045475968805    -0.094892886429    0.000005157187    0.000007564086    -0.044127226719    -0.145793648451
0.225     0.041122308845    -0.063378680849    -0.000004413605    0.000017366578    0.026779383698    -0.038724562779    -0.000006911208    0.000005397565
            -0.000004395799    0.000017402665    0.037234912688    -0.064217193330    0.000006771498    0.000009107783    0.023760885164    -0.039145888587
            0.027207555592    -0.038871919579    0.000006740583    0.000009052502    0.042406096989    -0.064686810446    0.000003258139    0.000000788143
            -0.000006942629    0.000005347775    0.024176687132    -0.039318049280    0.000003287401    0.000000839002    0.038361400225    -0.065656754566
0.250     0.035413724144    -0.168150260372    -0.000003923507    0.000131946349    0.009379972917    -0.092666703803    -0.000007871585    0.000050354529
            -0.000003819093    0.000131976424    0.026687388727    -0.163736154270    0.000017652130    0.000046787172    0.003868449279    -0.088244561505
            0.009815131551    -0.093796566965    0.000017650114    0.000046817183    0.032989704964    -0.170053212152    0.000003008184    0.000007867986
            -0.000007870780    0.000050389447    0.004240907247    -0.089392325010    0.000003101066    0.000007885607    0.024294609594    -0.165776322976
0.275     -0.073676443693    -0.082820330043    0.000072339819    0.000051458803    -0.031605689422    -0.021450146289    0.000022155567    0.000022975531
            0.000072417383    0.000051394962    -0.075649231383    -0.076345678894    0.000036087551    0.000009421678    -0.031283057569    -0.017810775425
            -0.032210638183    -0.022298879613    0.000036111174    0.000009392734    -0.073069912367    -0.081513047128    0.000008172786    0.000004310396
            0.000022183261    0.000022943185    -0.031936029476    -0.018623839788    0.000008258610    0.000004264867    -0.075179223643    -0.075400826684
0.300     0.011305813545    -0.040272973833    -0.000052868974    0.000083681885    0.026076981422    -0.030460148968    -0.000022411838    0.000036619648
            -0.000052851940    0.000083602920    0.006542041979    -0.036146713769    -0.000011061413    0.000028961805    0.021480526699    -0.028164463009
            0.025378591342    -0.030642755500    -0.000011133979    0.000028968490    0.012263670183    -0.043624097238    0.000001198886    0.000005652863
            -0.000022482473    0.000036627149    0.020766918444    -0.028297914854    0.000001227185    0.000005562232    0.007348791305    -0.039619717597
0.325     -0.015962051597    -0.082857437394    0.000074076643    0.000151571446    -0.013483749406    -0.033234406093    0.000027387366    0.000055018531
            0.000074058759    0.000151484497    -0.017728835941    -0.075615830824    0.000038693787    0.000047660136    -0.013392541442    -0.027193715451
            -0.014242463687    -0.033166893658    0.000038754567    0.000047714289    -0.019268021642    -0.082582721942    0.000008534406    0.000007362221
            0.000027454029    0.000055068421    -0.014137591903    -0.027070100655    0.000008502117    0.000007278402    -0.021029378675    -0.075654460503
0.350     0.000258295475    -0.038522258062    0.000011143491    0.000026834121    0.042840780109    -0.012225542241    -0.000005528379    0.000010367248
            0.000011048720    0.000026756250    -0.003256449173    -0.036884961559    0.000010370944    0.000007546288    0.040358716647    -0.014033009854
            0.042154624163    -0.011505517377    0.000010346604    0.000007470962    0.003309911526    -0.036558076683    0.000003467260    0.000002615780
            -0.000005561994    0.000010281854    0.039726186868    -0.013268144562    0.000003395143    0.000002535090    -0.000351013705    -0.035282041962
0.375     0.011793919509    -0.111105939903    -0.000013812414    0.000182593230    0.015646935531    -0.105397900115    -0.000008305794    0.000070473830
            -0.000013959925    0.000182616722    0.003157981451    -0.103210017936    0.000016856928    0.000060382810    0.006362715460    -0.099062498913
            0.015743022927    -0.104321467092    0.000016842665    0.000060494678    0.012856543250    -0.114990386819    0.000008046284    0.000006363909
            -0.000008321027    0.000070594765    0.006549709663    -0.097989584779    0.000007886824    0.000006368616    0.004118996994    -0.107549653072
0.400     -0.072261887560    -0.077107364766    0.000107754291    0.000086311441    -0.062608676290    -0.041215980794    0.000027742204    0.000032823653
            0.000107669579    0.000086451883    -0.074759804031    -0.067489685060    0.000047891088    0.000014180072    -0.063647056383    -0.032758254337
            -0.061731372610    -0.040499749194    0.000047997554    0.000014088072    -0.073225491794    -0.075969233247    0.000005332889    0.000000729871
            0.000027849268    0.000032726012    -0.062706436376    -0.032133166142    0.000005230350    0.000000885343    -0.076006347914    -0.066850528367
0.425     -0.012139154048    -0.066456852575    -0.000058976246    0.000100063882    0.014685298787    -0.052846480699    -0.000032798538    0.000050145619
            -0.000058915861    0.000100174306    -0.020984861747    -0.058843211598    -0.000006867198    0.000032478591    0.006317587627    -0.048450840465
            0.015496569356    -0.053186302525    -0.000006967901    0.000032498951    -0.010516122560    -0.068076534546    0.000002279150    0.000007849983
            -0.000032914510    0.000050170119    0.007085567006    -0.048858997257    0.000002354383    0.000007944858    -0.019538284287    -0.060657357217
0.450     -0.073131124749    -0.178042884631    0.000083818508    0.000196978120    -0.066712786800    -0.114289680134    0.000014239582    0.000072738389
            0.000083933667    0.000197036636    -0.086218772190    -0.162121091659    0.000061868468    0.000041672669    -0.075470739996    -0.100212285568
            -0.066314839465    -0.114978679283    0.000061950594    0.000041660487    -0.075665830450    -0.183379813248    0.000004238134    -0.000002784194
            0.000014340585    0.000072736696    -0.075136086500    -0.100940529835    0.000004331103    -0.000002705214    -0.089276837172    -0.167999731545
0.475     -0.193356016199    -0.031480985370    0.000041081035    0.000048266598    -0.119793132855    0.009442608231    -0.000000260187    0.000050279778
            0.000041195183    0.000048287642    -0.194834505976    -0.007595945418    0.000015319160    -0.000017242802    -0.118606759152    0.025478795982
            -0.119576332465    0.008835420623    0.000015225398    -0.000017327624    -0.193572798344    -0.030596930504    -0.000001779673    0.000009017681
            -0.000000360817    0.000050184148    -0.118465772170    0.024849081830    -0.000001658685    0.000009047529    -0.195533503650    -0.007129290970
0.500     -0.041581590886    0.026803670009    -0.000039446504    0.000217007129    -0.014838137271    0.022890539461    0.000000483707    0.000093823366
            -0.000039262592    0.000216944414    -0.037802407957    0.041717645106    -0.000012105928    0.000064610677    -0.012948032962    0.033892884394
            -0.015062180273    0.021766752618    -0.000012102408    0.000064743825    -0.039594336732    0.020443241531    0.000007207807    0.000008764025
            0.000000490842    0.000093964562    -0.013288351886    0.032812403643    0.000007402143    0.000008695511    -0.036464943444    0.034832656775
0.525     -0.124395361103    -0.092195610413    0.000134539264    0.000130948588    -0.078685553736    -0.028355460922    0.000027128627    0.000052167820
            0.000134586966    0.000130686927    -0.129909781992    -0.072684871342    0.000058776428    0.000007020841    -0.079102397247    -0.014633289331
            -0.080055056707    -0.028750762753    0.000058754629    0.000006976347    -0.131131659801    -0.094238415240    -0.000004261084    -0.000002134174
            0.000027112795    0.000052115056    -0.080509951359    -0.014871063749    -0.000004204999    -0.000002361135    -0.136886315678    -0.074863408150
0.550     -0.193790695135    0.089959496805    -0.000042567949    0.000106031978    -0.075515272514    0.070843105300    -0.000003615068    0.000085789564
            -0.000042755253    0.000105887767    -0.183488535857    0.118043578131    -0.000033810311    -0.000000150748    -0.069179456395    0.084903506478
            -0.076371462911    0.071689087608    -0.000033789982    -0.000000076897    -0.192487899731    0.092393713101    0.000003727160    0.000016514525
            -0.000003606624    0.000085863760    -0.069922934906    0.085850512763    0.000003567138    0.000016324708    -0.181522276827    0.122107128914
0.575     -0.005121282931    0.104487830052    0.000071250874    0.000267883165    0.009238005605    0.036796347695    0.000055377151    0.000086809548
            0.000071101863    0.000267891095    0.013381035586    0.113712152592    0.000005710222    0.000082572240    0.017536055066    0.044429240896
            0.009164163271    0.037535645321    0.000005806062    0.000082558782    -0.005781188061    0.098923035000    0.000011037760    -0.000000285666
            0.000055483451    0.000086801136    0.017563327959    0.045166984362    0.000010864354    -0.000000272755    0.012296781386    0.107908778006
0.600     -0.060312575974    -0.005788678881    0.000076365709    0.000059872694    -0.043494763854    0.007126882525    -0.000001912000    0.000028895728
            0.000076217919    0.000059887989    -0.059891867496    0.004595957464    0.000014979008    0.000002525482    -0.042408176449    0.015810986241
            -0.043492592367    0.007849284126    0.000014930303    0.000002459702    -0.064719288927    -0.003554897444    -0.000014419453    0.000003352344
            -0.000001967968    0.000028822983    -0.042317392691    0.016522375341    -0.000014547028    0.000003367695    -0.064657476936    0.007603321910
0.625     -0.062783366752    0.082921802032    -0.000053672762    0.000243721577    -0.011008487617    0.042494937173    0.000005675231    0.000117360611
            -0.000053839269    0.000243911511    -0.050624789452    0.102474024797    -0.000032606050    0.000073797587    -0.005730014952    0.054392302502
            -0.010255728236    0.043336030181    -0.000032581736    0.000073837360    -0.058347663834    0.082005436850    0.000009562747    0.000018098244
            0.000005691047    0.000117409133    -0.004867599519    0.055123965019    0.000009368311    0.000018242545    -0.046089170355    0.100833470211
0.650     -0.009115233493    0.019620462557    0.000170946101    0.000192698675    -0.026338180424    -0.014562586523    0.000056050075    0.000045680679
            0.000171026189    0.000192985586    0.000067552205    0.025490132489    0.000050158367    0.000048327797    -0.023418622087    -0.005540373059
            -0.025071861684    -0.014705515524    0.000050184306    0.000048206295    -0.012446970574    0.014460760684    -0.000002160016    -0.000011689014
            0.000056098853    0.000045562203    -0.022188567276    -0.005871815733    -0.000002106016    -0.000011360555    -0.004369154343    0.020266475917
0.675     -0.073997297011    0.038286323692    -0.000045495350    0.000110226524    -0.066421272816    0.049032213098    -0.000033916241    0.000082575172
            -0.000045248001    0.000110327946    -0.070662733180    0.056425716853    -0.000035495540    0.000031841651    -0.061655438408    0.065579974338
            -0.065785562833    0.048054525213    -0.000035657603    0.000031903723    -0.073220586946    0.039908544835    -0.000014242650    0.000024956602
            -0.000034088866    0.000082625265    -0.061182180211    0.064531232425    -0.000013984563    0.000025066235    -0.069861520750    0.058110185838
0.700     -0.016557944624    0.031727312472    0.000075877446    0.000329048325    -0.003920408451    0.031995660177    0.000056100429    0.000118017290
            0.000076109619    0.000328973956    -0.005357014743    0.045661645999    0.000033610705    0.000102381499    0.005359121424    0.043177808730
            -0.004135961770    0.030974234389    0.000033727186    0.000102398641    -0.015297760878    0.022492630977    0.000015935340    0.000004595656
            0.000056215539    0.000118045069    0.005000233981    0.042199570287    0.000016148754    0.000004532856    -0.005405335756    0.035817238858
0.725     -0.140826468934    -0.001882459184    0.000106804992    0.000094747470    -0.097174213000    0.029914278818    -0.000002293618    0.000060146865
            0.000106940377    0.000094536909    -0.138459529506    0.024391676198    0.000013981147    -0.000012498880    -0.091063873856    0.049760556788
            -0.097875669957    0.029313003388    0.000013831010    -0.000012477185    -0.150492517410    -0.002889787883    -0.000028655730    0.000011382458
            -0.000002440589    0.000060146760    -0.091862215454    0.049285073706    -0.000028480325    0.000011192764    -0.148696298984    0.024966366468
0.750     -0.116328388297    0.189503045879    -0.000047906607    0.000248115654    -0.044654977083    0.145533502344    0.000038425523    0.000138223826
            -0.000047873516    0.000247950085    -0.082811898038    0.217741890281    -0.000061022981    0.000064065933    -0.019640749013    0.161566197191
            -0.045266047370    0.145245220289    -0.000060911196    0.000064219504    -0.113413475067    0.191659697809    0.000014058883    0.000024925557
            0.000038526366    0.000138390839    -0.020275863354    0.161390696017    0.000014096482    0.000024758111    -0.079276881400    0.219341875970
0.775     0.044419138407    0.102936733861    0.000181836354    0.000268727010    0.042186506748    0.058826345609    0.000081911877    0.000054842439
            0.000181742340    0.000268417974    0.068049879688    0.100210956809    0.000034228631    0.000089024006    0.056758334046    0.057271227714
            0.040989907461    0.059035207476    0.000034260579    0.000088856625    0.039906748906    0.092708921286    -0.000000474329    -0.000008277779
            0.000081936286    0.000054661836    0.055612367046    0.057664839431    -0.000000543940    -0.000008592088    0.061658459097    0.090205541304
