# GHz S RI R 45
0.000     0.071830876000    0.000000000000    -0.000000068160    -0.000000000000    0.004351444800    -0.000000000000    0.000014403787    0.000000000000
            -0.000000066398    0.000000000000    0.070708320000    -0.000000000000    -0.000000218139    -0.000000000000    0.004427848700    -0.000000000000
            0.005466039000    0.000000000000    -0.000000218573    0.000000000000    0.070239859000    -0.000000000000    -0.000000313220    -0.000000000000
            0.000014403392    0.000000000000    0.005271227300    0.000000000000    -0.000000307579    -0.000000000000    0.069974773000    -0.000000000000
0.025     0.156546915187    -0.002609936979    -0.000006384275    0.000001371584    0.088739027366    0.026552920741    0.000030181679    0.000015346540
            -0.000006403392    0.000001387727    0.156231000900    -0.002130728215    -0.000004540851    0.000001171071    0.088561710040    0.026543965184
            0.089460275371    0.025853992717    -0.000004534916    0.000001189526    0.156852627212    -0.001814318811    -0.000007044234    0.000001433095
            0.000030182155    0.000015357107    0.089165624469    0.026000997685    -0.000007063735    0.000001444558    0.156703140780    -0.001595205429
0.050     0.060173330098    -0.077490940459    0.000008581562    -0.000006535568    0.033692072474    -0.034907728047    -0.000057923042    0.000123116155
            0.000008653139    -0.000006538397    0.060712497889    -0.078429792285    0.000008082121    -0.000008580503    0.034286997881    -0.035632538096
            0.033667562083    -0.035980426019    0.000008130504    -0.000008586148    0.060336064660    -0.078275827098    0.000009688844    -0.000008137532
            -0.000057883296    0.000123122703    0.034253835834    -0.036526078586    0.000009756066    -0.000008142495    0.060951040947    -0.079118630674
0.075     0.094082633244    0.064400058732    -0.000026469593    -0.000025550766    0.072239552027    0.074030977418    0.000144385962    0.000195084506
            -0.000026587118    -0.000025631101    0.092046132199    0.063356795859    -0.000025819026    -0.000016242757    0.070669342969    0.072922033411
            0.071567099003    0.073369952143    -0.000025793841    -0.000016297949    0.093315768243    0.064845856992    -0.000029911389    -0.000028667440
            0.000144384474    0.000195031885    0.070105045293    0.072417092613    -0.000030037964    -0.000028743613    0.091570343745    0.063929454429
0.100     0.203897830353    -0.079464171485    -0.000013353430    0.000030836617    0.162706742151    -0.052951953084    0.000008503134    0.000066050399
            -0.000013328760    0.000031019663    0.203723261075    -0.078301341909    -0.000004440201    0.000018629029    0.162442110438    -0.052132959017
            0.161782131244    -0.053207391193    -0.000004440552    0.000018593317    0.204671687963    -0.079103127185    -0.000014395315    0.000032185320
            0.000008499967    0.000066060685    0.161708562136    -0.052339707290    -0.000014367985    0.000032381751    0.204529916054    -0.078044336816
0.125     0.029531597044    -0.110288549801    0.000013171949    -0.000029365641    0.014038439757    -0.079910260842    0.000031904048    0.000416511370
            0.000013250903    -0.000029558496    0.030170439621    -0.113109731220    0.000007038028    -0.000031936629    0.014554727568    -0.082263261651
            0.012886400438    -0.079276824007    0.000007014742    -0.000032040589    0.030282352474    -0.111089991889    0.000013386291    -0.000034690180
            0.000031918361    0.000416418776    0.013591263995    -0.081742136526    0.000013464663    -0.000034890790    0.030790746099    -0.113179540111
0.150     0.129687973538    0.007275122788    -0.000077207343    -0.000011179701    0.096512042732    0.016707446118    0.000314002813    0.000159992059
            -0.000077348466    -0.000010987465    0.125552098361    0.007357967386    -0.000057622970    0.000002884007    0.093200644127    0.016715066817
            0.096544585755    0.017937467050    -0.000057867034    0.000002884285    0.129923944858    0.006364126642    -0.000085628541    -0.000012055918
            0.000313868075    0.000160017309    0.093263234950    0.017765159690    -0.000085751204    -0.000011830401    0.126860044966    0.006848731019
0.175     0.144671946561    -0.181617592549    0.000018202232    0.000050770215    0.099795797954    -0.132800559617    -0.000055011248    0.000269005355
            0.000018475437    0.000050728761    0.145854330109    -0.180298366342    0.000014989805    0.000019306942    0.100739325556    -0.132058005037
            0.100412635496    -0.132207428487    0.000015033419    0.000019510282    0.144739520629    -0.182716377605    0.000019012440    0.000052056725
            -0.000054982660    0.000269079206    0.101285582535    -0.131619442307    0.000019301886    0.000051977105    0.146096501127    -0.181526339422
0.200     -0.043886845723    -0.141018945189    -0.000014137778    -0.000063164474    -0.044961248832    -0.091208789253    0.000395831198    0.000569967801
            -0.000014375515    -0.000063398358    -0.045029859539    -0.145723994986    -0.000020957146    -0.000054836105    -0.046016434431    -0.095188337036
            -0.044242487157    -0.090837700948    -0.000020917689    -0.000054864825    -0.043756203696    -0.142320761115    -0.000018562253    -0.000070922960
            0.000395784894    0.000569930171    -0.045475968805    -0.094892886429    -0.000018812365    -0.000071142766    -0.044127226719    -0.145793648451
0.225     0.042007302020    -0.066018394550    -0.000107631417    0.000033992694    0.027475309243    -0.040443278111    0.000291421180    0.000016377949
            -0.000107559516    0.000034321966    0.037234912688    -0.064217193330    -0.000072984176    0.000030115666    0.023760885164    -0.039145888587
            0.027956759209    -0.040652737062    -0.000073048286    0.000030264044    0.041202267696    -0.067029757530    -0.000117694563    0.000038176001
            0.000291395676    0.000016501762    0.024176687132    -0.039318049280    -0.000117596181    0.000038477343    0.038361400225    -0.065656754566
0.250     0.025032846314    -0.163474152299    0.000037827170    0.000042414524    0.003025783951    -0.087165294530    0.000073802579    0.000626986180
            0.000037889422    0.000042151417    0.026687388727    -0.163736154270    0.000014746795    0.000006510003    0.003868449279    -0.088244561505
            0.003445945130    -0.088442377965    0.000015096412    0.000006441280    0.022370529425    -0.164866184790    0.000038886838    0.000041124309
            0.000073993016    0.000626990720    0.004240907247    -0.089392325010    0.000038884638    0.000040872430    0.024294609594    -0.165776322976
0.275     -0.069947787778    -0.072485266588    -0.000087650155    -0.000065240387    -0.025810185769    -0.015062881409    0.000771080170    0.000354196384
            -0.000088003303    -0.000065151065    -0.075649231383    -0.076345678894    -0.000084167874    -0.000036318041    -0.031283057569    -0.017810775425
            -0.026487230890    -0.016028748217    -0.000084191492    -0.000036552408    -0.071156626704    -0.072103275635    -0.000100335100    -0.000070392128
            0.000771109303    0.000354059150    -0.031936029476    -0.018623839788    -0.000100640809    -0.000070270456    -0.075179223643    -0.075400826684
0.300     0.010678279031    -0.040875045443    -0.000105707093    0.000138788834    0.024290248554    -0.031957211939    0.000077128400    0.000122732546
            -0.000105359142    0.000139058015    0.006542041979    -0.036146713769    -0.000059118082    0.000091020786    0.021480526699    -0.028164463009
            0.023422987411    -0.032180552203    -0.000059173459    0.000091046688    0.009610661456    -0.042459286029    -0.000112614418    0.000149879059
            0.000077140071    0.000122754219    0.020766918444    -0.028297914854    -0.000112305722    0.000150103476    0.007348791305    -0.039619717597
0.325     -0.017013988533    -0.073913178538    0.000052184384    0.000012989430    -0.011872271921    -0.025041218666    0.000571272748    0.000838830239
            0.000052058604    0.000012575757    -0.017728835941    -0.075615830824    -0.000002578975    -0.000006694084    -0.013392541442    -0.027193715451
            -0.012763436297    -0.024845220974    -0.000002498875    -0.000006930661    -0.020274877132    -0.073219743881    0.000049806138    0.000009333504
            0.000571346277    0.000838623222    -0.014137591903    -0.027070100655    0.000049670537    0.000008997605    -0.021029378675    -0.075654460503
0.350     0.005325915232    -0.039521158533    -0.000177778096    0.000028062954    0.047645982378    -0.017290531686    0.000780812335    -0.000033523845
            -0.000177946145    0.000028604807    -0.003256449173    -0.036884961559    -0.000123897775    0.000058676649    0.040358716647    -0.014033009854
            0.046976704348    -0.016410386610    -0.000124357488    0.000058543379    0.006009272625    -0.037356181613    -0.000196116537    0.000035867998
            0.000780490100    -0.000033605743    0.039726186868    -0.013268144562    -0.000196204361    0.000036384661    -0.000351013705    -0.035282041962
0.375     0.002378895278    -0.109663600751    0.000035952046    0.000214900654    0.004908039471    -0.103503377877    0.000152484696    0.000522378825
            0.000036577960    0.000214557387    0.003157981451    -0.103210017936    0.000030358308    0.000108647606    0.006362715460    -0.099062498913
            0.005119300326    -0.102316160177    0.000030320978    0.000109119109    0.002718531910    -0.111269955560    0.000039608548    0.000227666127
            0.000152481646    0.000522605601    0.006549709663    -0.097989584779    0.000040181502    0.000227284190    0.004118996994    -0.107549653072
0.400     -0.071839240980    -0.065108163934    0.000015197630    -0.000063717282    -0.060128357951    -0.030368685640    0.001143216998    0.000527048739
            0.000014548968    -0.000063825753    -0.074759804031    -0.067489685060    -0.000041083766    -0.000022184644    -0.063647056383    -0.032758254337
            -0.059061390578    -0.029673767936    -0.000041056384    -0.000022284905    -0.073329075349    -0.064200517719    0.000007464803    -0.000066127654
            0.001143121320    0.000527011451    -0.062706436376    -0.032133166142    0.000006844481    -0.000066186694    -0.076006347914    -0.066850528367
0.425     -0.014724211325    -0.067294292903    -0.000174877680    0.000185429609    0.010660267600    -0.055884531742    0.000482377962    -0.000185137442
            -0.000174360058    0.000185708700    -0.020984861747    -0.058843211598    -0.000079983690    0.000148112975    0.006317587627    -0.048450840465
            0.011500567385    -0.056358908600    -0.000079901107    0.000148676741    -0.015754050047    -0.066653934550    -0.000185260469    0.000206304933
            0.000482451218    -0.000184807177    0.007085567006    -0.048858997257    -0.000184743330    0.000206500974    -0.019538284287    -0.060657357217
0.450     -0.092169152041    -0.165771647537    0.000194634137    0.000098701323    -0.078993001165    -0.101558602884    0.000674697984    0.000717296444
            0.000194255736    0.000098122641    -0.086218772190    -0.162121091659    0.000081608787    0.000028582054    -0.075470739996    -0.100212285568
            -0.078628480675    -0.102356101359    0.000082354328    0.000028163536    -0.094326489923    -0.168484761511    0.000204961588    0.000102170203
            0.000675109685    0.000717133071    -0.075136086500    -0.100940529835    0.000204503681    0.000101665053    -0.089276837172    -0.167999731545
0.475     -0.189239681361    -0.004662494274    -0.000118623036    -0.000083290634    -0.112570698037    0.026359196103    0.001258777870    -0.000121266638
            -0.000118899533    -0.000082570654    -0.194834505976    -0.007595945418    -0.000092091841    -0.000003776020    -0.118606759152    0.025478795982
            -0.112427324504    0.025614103624    -0.000092333043    -0.000004047720    -0.190702296930    -0.003527556257    -0.000129019335    -0.000080897281
            0.001258732411    -0.000121335957    -0.118465772170    0.024849081830    -0.000129202465    -0.000080188897    -0.195533503650    -0.007129290970
0.500     -0.033605693959    0.028775707860    -0.000073476760    0.000321601691    -0.010429210744    0.023695946427    0.000235270602    0.000044995951
            -0.000072931041    0.000321118724    -0.037802407957    0.041717645106    -0.000022014049    0.000209241893    -0.012948032962    0.033892884394
            -0.010930159578    0.022545916727    -0.000021367737    0.000209455369    -0.033776186138    0.026570437700    -0.000071641404    0.000348259466
            0.000235886614    0.000045079216    -0.013288351886    0.032812403643    -0.000071228433    0.000347784236    -0.036464943444    0.034832656775
0.525     -0.135945552726    -0.073062020175    0.000240870060    -0.000016138188    -0.080929896494    -0.014489241033    0.001290025843    0.000511209970
            0.000240359769    -0.000015782390    -0.129909781992    -0.072684871342    0.000099226245    -0.000000276139    -0.079102397247    -0.014633289331
            -0.082419681232    -0.014602564625    0.000098866285    -0.000001213429    -0.140550906441    -0.072296067718    0.000247296225    -0.000019381604
            0.001289996570    0.000510525870    -0.080509951359    -0.014871063749    0.000246944723    -0.000018948349    -0.136886315678    -0.074863408150
0.550     -0.173345159050    0.118656004530    -0.000173026104    0.000059814625    -0.061227629282    0.081791762682    0.000931402340    -0.000568964582
            -0.000172577007    0.000059945195    -0.183488535857    0.118043578131    -0.000084374114    0.000076996612    -0.069179456395    0.084903506478
            -0.061951332732    0.082801238888    -0.000084690019    0.000077266881    -0.172826241754    0.122111210370    -0.000186668303    0.000069684528
            0.000931089080    -0.000569076029    -0.069922934906    0.085850512763    -0.000186225893    0.000069662130    -0.181522276827    0.122107128914
0.575     0.012572810068    0.098062538777    0.000135161977    0.000355810542    0.014475490630    0.032956300788    0.000424769199    0.000418174377
            0.000135163640    0.000355320941    0.013381035586    0.113712152592    0.000089019363    0.000219680621    0.017536055066    0.044429240896
            0.014498458925    0.033775069121    0.000089109904    0.000219630809    0.012278216777    0.097451179680    0.000150837410    0.000383241493
            0.000424706376    0.000418129374    0.017563327959    0.045166984362    0.000150735417    0.000382864544    0.012296781386    0.107908778006
0.600     -0.064922974127    0.005148303986    0.000172570897    -0.000109210475    -0.044192790262    0.016103066135    0.001628100990    -0.000116820537
            0.000172327562    -0.000108797113    -0.059891867496    0.004595957464    0.000082702774    -0.000019914047    -0.042408176449    0.015810986241
            -0.043962020481    0.016889006045    0.000082181230    -0.000020007876    -0.065832399790    0.008629994950    0.000178606559    -0.000113131925
            0.001627669834    -0.000116931537    -0.042317392691    0.016522375341    0.000178507050    -0.000112798156    -0.064657476936    0.007603321910
0.625     -0.045015912692    0.091516950793    -0.000114569849    0.000249361959    -0.003179970712    0.043638250302    0.000458611870    -0.000595992002
            -0.000114095076    0.000249207097    -0.050624789452    0.102474024797    -0.000018199058    0.000182037755    -0.005730014952    0.054392302502
            -0.002192125540    0.044257552054    -0.000018302817    0.000182626206    -0.041180120262    0.092107310099    -0.000115925086    0.000272773795
            0.000458342670    -0.000595492929    -0.004867599519    0.055123965019    -0.000115593526    0.000272545557    -0.046089170355    0.100833470211
0.650     -0.013712430203    0.015502560949    0.000413276862    0.000178072165    -0.035205339499    -0.010888218264    0.001083551508    0.000426834699
            0.000412801653    0.000177634369    0.000067552205    0.025490132489    0.000251554324    0.000092605920    -0.023418622087    -0.005540373059
            -0.033993600403    -0.011346853015    0.000252068971    0.000092782666    -0.013856956977    0.014446155724    0.000446398615    0.000185995446
            0.001083885607    0.000427142298    -0.022188567276    -0.005871815733    0.000445897945    0.000185709866    -0.004369154343    0.020266475917
0.675     -0.071250651594    0.058473378320    -0.000013992528    -0.000146343047    -0.060032233418    0.066487238743    0.001321607168    -0.000889441802
            -0.000013870228    -0.000145739644    -0.070662733180    0.056425716853    0.000010750436    -0.000025268177    -0.061655438408    0.065579974338
            -0.059628027030    0.065332112679    0.000010639701    -0.000025205382    -0.067866325510    0.059093105915    -0.000011712056    -0.000147713068
            0.001321689487    -0.000889267704    -0.061182180211    0.064531232425    -0.000011523350    -0.000147178228    -0.069861520750    0.058110185838
0.700     -0.011774730966    0.029875747264    0.000131133347    0.000358699484    -0.000641022995    0.030332809389    0.000310648021    -0.000226552352
            0.000131096555    0.000358040677    -0.005357014743    0.045661645999    0.000145719162    0.000203957870    0.005359121424    0.043177808730
            -0.001177944183    0.029345364750    0.000146650381    0.000203942784    -0.011043356730    0.023874729653    0.000155596513    0.000383527238
            0.000311375094    -0.000226567541    0.005000233981    0.042199570287    0.000155462494    0.000382974151    -0.005405335756    0.035817238858
0.725     -0.154160913556    0.031467547010    0.000361651540    -0.000220020130    -0.100483818943    0.055181283569    0.001457796397    -0.000305944885
            0.000361275293    -0.000219296288    -0.138459529506    0.024391676198    0.000186980313    -0.000126366683    -0.091063873856    0.049760556788
            -0.101355584988    0.054818032878    0.000186436196    -0.000127267257    -0.157961854669    0.032807881552    0.000383751434    -0.000240589942
            0.001457691656    -0.000306605852    -0.091862215454    0.049285073706    0.000383563285    -0.000239852654    -0.148696298984    0.024966366468
0.750     -0.076055928043    0.218678358293    -0.000125478435    0.000022705192    -0.015427444411    0.158486669491    0.000625148095    -0.001105267587
            -0.000124757446    0.000022609902    -0.082811898038    0.217741890281    -0.000011617719    0.000028183668    -0.019640749013    0.161566197191
            -0.016109764713    0.158388542494    -0.000011728362    0.000028642856    -0.071557212700    0.218784086667    -0.000124170756    0.000022024886
            0.000625085743    -0.001105136956    -0.020275863354    0.161390696017    -0.000123529002    0.000021806439    -0.079276881400    0.219341875970
0.775     0.054977778997    0.084876682587    0.000327476624    0.000255870774    0.044259041520    0.046128610337    0.000520643348    0.000010707465
            0.000326719361    0.000255677685    0.068049879688    0.100210956809    0.000222755398    0.000135872284    0.056758334046    0.057271227714
            0.043147281291    0.046757677953    0.000223064000    0.000134964302    0.051691191607    0.079052265673    0.000362769815    0.000268820232
