# GHz S RI R 45
0.000     0.072127871000    0.000000000000    0.000004997511    -0.000000000000    0.003953947000    -0.000000000000    -0.000018972629    -0.000000000000
            0.000019766588    0.000000000000    0.070708320000    -0.000000000000    -0.000008280705    0.000000000000    0.004427848700    -0.000000000000
            0.004917104800    -0.000000000000    0.000039247798    0.000000000000    0.071490050000    -0.000000000000    -0.000025545693    -0.000000000000
            0.000052555041    0.000000000000    0.005271227300    0.000000000000    -0.000040156658    -0.000000000000    0.069974773000    -0.000000000000
0.025     0.156656007642    -0.002809015730    -0.000016183682    -0.000008458560    0.089281256614    0.027026071066    -0.000002384780    0.000014966036
            -0.000006231455    -0.000019326778    0.156231000900    -0.002130728215    0.000051198952    0.000034526255    0.088561710040    0.026543965184
            0.088971056490    0.026212585467    0.000035767181    -0.000008221680    0.156618578251    -0.003021444652    -0.000003229794    0.000019528563
            0.000014485699    -0.000043408684    0.089165624469    0.026000997685    0.000009186497    0.000032984633    0.156703140780    -0.001595205429
0.050     0.060240885688    -0.077791590589    -0.000037001014    0.000066595594    0.034377908866    -0.035841693384    -0.000017800486    0.000050098728
            -0.000039111637    0.000053834486    0.060712497889    -0.078429792285    -0.000065865036    0.000141271844    0.034286997881    -0.035632538096
            0.033611394681    -0.035228531831    -0.000100544780    0.000171920805    0.059440793213    -0.077576020900    -0.000015510343    0.000044570319
            -0.000048369470    0.000036025606    0.034253835834    -0.036526078586    -0.000002276494    0.000026151029    0.060951040947    -0.079118630674
0.075     0.093747639626    0.064024632498    0.000086681073    0.000053326865    0.071216468680    0.073296368235    0.000070338157    0.000057157060
            0.000082540781    0.000049970823    0.092046132199    0.063356795859    0.000200392165    0.000236474018    0.070669342969    0.072922033411
            0.072023224701    0.073744286861    0.000242946772    0.000255064158    0.094465729066    0.065012659345    0.000059705830    0.000047380925
            0.000086891877    0.000057472848    0.070105045293    0.072417092613    0.000043493582    0.000035608523    0.091570343745    0.063929454429
0.100     0.203540459498    -0.079509911129    0.000024886626    -0.000015580366    0.162230574243    -0.052150852828    0.000029287568    -0.000001541866
            0.000021547369    -0.000024945128    0.203723261075    -0.078301341909    0.000022738836    0.000053847487    0.162442110438    -0.052132959017
            0.162269685036    -0.053032093672    0.000030425434    0.000009952161    0.204394064772    -0.080445985865    0.000030284342    0.000014647943
            0.000015460228    -0.000055290698    0.161708562136    -0.052339707290    0.000018787232    0.000020945421    0.204529916054    -0.078044336816
0.125     0.029320499951    -0.110464775683    0.000003487022    0.000084006751    0.014534243156    -0.079904299856    0.000023621930    0.000095542372
            -0.000018719166    0.000082286613    0.030170439621    -0.113109731220    0.000039796126    0.000519392140    0.014554727568    -0.082263261651
            0.013528616951    -0.079526572293    -0.000005126461    0.000521117015    0.028756744758    -0.110565758102    0.000031233421    0.000069991151
            -0.000057555936    0.000108045131    0.013591263995    -0.081742136526    0.000033303879    0.000083122939    0.030790746099    -0.113179540111
0.150     0.129123560469    0.007291338975    0.000119136016    -0.000008159395    0.095979196187    0.016411308688    0.000145207453    -0.000009465115
            0.000112593156    0.000008853540    0.125552098361    0.007357967386    0.000465409947    0.000143448133    0.093200644127    0.016715066817
            0.096767719425    0.017235307751    0.000482605014    0.000180143206    0.130641830823    0.007525482699    0.000093737180    -0.000028008039
            0.000155194110    0.000061664866    0.093263234950    0.017765159690    0.000104772760    -0.000035599991    0.126860044966    0.006848731019
0.175     0.144674539888    -0.181434379010    0.000009464992    -0.000021399690    0.099536966807    -0.131964856970    -0.000002862928    -0.000025976147
            0.000015405044    -0.000013627790    0.145854330109    -0.180298366342    -0.000086181299    0.000243473814    0.100739325556    -0.132058005037
            0.100108067491    -0.132781644357    -0.000061345214    0.000215526645    0.145394896859    -0.183474048939    0.000000909573    0.000014109643
            0.000029779687    -0.000034894059    0.101285582535    -0.131619442307    -0.000017482143    0.000006689640    0.146096501127    -0.181526339422
0.200     -0.044056064014    -0.141565122356    0.000027532733    0.000090809777    -0.043971607843    -0.090929302504    0.000068910346    0.000130263342
            0.000029647238    0.000095803031    -0.045029859539    -0.145723994986    0.000475002844    0.000739731624    -0.046016434431    -0.095188337036
            -0.044807229992    -0.091191335751    0.000433858992    0.000720830601    -0.044802908151    -0.142334671115    0.000065792533    0.000096493410
            0.000049706471    0.000135986307    -0.045475968805    -0.094892886429    0.000066599624    0.000126047861    -0.044127226719    -0.145793648451
0.225     0.041082402304    -0.065944635983    0.000089889045    -0.000025616365    0.027475654527    -0.040690021580    0.000157897189    -0.000070678793
            0.000097276154    -0.000019501204    0.037234912688    -0.064217193330    0.000490454110    -0.000080490161    0.023760885164    -0.039145888587
            0.027591445658    -0.040570843289    0.000482065348    -0.000027515861    0.041249708045    -0.066641054212    0.000081316576    -0.000058390602
            0.000189015994    -0.000029595322    0.024176687132    -0.039318049280    0.000115677163    -0.000069727475    0.038361400225    -0.065656754566
0.250     0.024910646692    -0.163623588861    0.000013112553    0.000048098893    0.002347250145    -0.087539428502    -0.000031454010    0.000019060069
            0.000026158668    0.000047161543    0.026687388727    -0.163736154270    0.000020302154    0.000631268547    0.003868449279    -0.088244561505
            0.003103241649    -0.088167631408    0.000070273536    0.000628578524    0.023740559536    -0.165795780420    -0.000010044031    0.000078682930
            0.000025253785    -0.000010491633    0.004240907247    -0.089392325010    -0.000026437798    0.000051173416    0.024294609594    -0.165776322976
0.275     -0.071137990082    -0.073119650694    0.000158297367    0.000054986926    -0.025877721979    -0.014796496936    0.000215874108    0.000114885062
            0.000165925714    0.000042766610    -0.075649231383    -0.076345678894    0.001013697640    0.000485267645    -0.031283057569    -0.017810775425
            -0.026744886556    -0.015570689082    0.000999274974    0.000444305308    -0.072076930131    -0.073066501399    0.000206583675    0.000079238886
            0.000203526163    0.000057827084    -0.031936029476    -0.018623839788    0.000190010854    0.000099347799    -0.075179223643    -0.075400826684
0.300     0.009397444882    -0.040005992189    0.000067303945    -0.000062547126    0.024430162921    -0.032601082373    0.000150388251    -0.000169047124
            0.000062240223    -0.000074779120    0.006542041979    -0.036146713769    0.000247208465    -0.000103816984    0.021480526699    -0.028164463009
            0.023740355536    -0.031633412232    0.000220251573    -0.000072078817    0.009342304366    -0.041505391745    0.000086390049    -0.000112010263
            0.000114164742    -0.000167657669    0.020766918444    -0.028297914854    0.000110263914    -0.000109238288    0.007348791305    -0.039619717597
0.325     -0.017363066924    -0.073555469805    0.000119333868    0.000062641737    -0.013219643341    -0.025351222478    0.000039094824    0.000044403451
            0.000110998091    0.000059741799    -0.017728835941    -0.075615830824    0.000578913308    0.000869945380    -0.013392541442    -0.027193715451
            -0.012301207443    -0.024999839149    0.000627160015    0.000883419366    -0.019281683277    -0.073552056517    0.000083262272    0.000065744505
            0.000046513320    0.000050130165    -0.014137591903    -0.027070100655    0.000074972578    0.000039405521    -0.021029378675    -0.075654460503
0.350     0.003902445089    -0.038913378334    0.000196146440    -0.000145485015    0.047125479035    -0.015714008652    0.000307659446    -0.000098361257
            0.000191157660    -0.000145444366    -0.003256449173    -0.036884961559    0.001102327765    -0.000145901256    0.040358716647    -0.014033009854
            0.046922977186    -0.016616955767    0.001105316830    -0.000205226421    0.005309758017    -0.038318171050    0.000230305892    -0.000115687304
            0.000289237683    -0.000125941251    0.039726186868    -0.013268144562    0.000202799612    -0.000102331292    -0.000351013705    -0.035282041962
0.375     0.002145583889    -0.107973324199    -0.000016037484    -0.000105572857    0.006141979746    -0.103206662421    0.000009511608    -0.000268322187
            -0.000023615500    -0.000107053219    0.003157981451    -0.103210017936    0.000130395099    0.000242889813    0.006362715460    -0.099062498913
            0.005208427963    -0.102409608385    0.000073068658    0.000248547746    0.001867985768    -0.110364392723    0.000014968080    -0.000154474023
            -0.000039931534    -0.000242586260    0.006549709663    -0.097989584779    0.000029248782    -0.000128881932    0.004118996994    -0.107549653072
0.400     -0.071702774458    -0.064803296533    0.000114914589    -0.000005173351    -0.060408896169    -0.030957429802    0.000057747450    0.000022059904
            0.000104907545    0.000004359340    -0.074759804031    -0.067489685060    0.001221402482    0.000563406076    -0.063647056383    -0.032758254337
            -0.059173429225    -0.030044175062    0.001236694962    0.000609235523    -0.072218594138    -0.063542841994    0.000070736691    -0.000029061863
            0.000078172162    0.000079505458    -0.062706436376    -0.032133166142    0.000092208443    -0.000044191382    -0.076006347914    -0.066850528367
0.425     -0.015937927718    -0.066011405680    0.000067468909    -0.000226228258    0.010690747253    -0.055429848876    0.000202596941    -0.000290560363
            0.000073944459    -0.000210457590    -0.020984861747    -0.058843211598    0.000677872617    -0.000519770072    0.006317587627    -0.048450840465
            0.011082684504    -0.056158635940    0.000705369416    -0.000552541881    -0.015059363266    -0.067337600752    0.000067188950    -0.000186652709
            0.000244715822    -0.000303471654    0.007085567006    -0.048858997257    0.000047628551    -0.000199445512    -0.019538284287    -0.060657357217
0.450     -0.091699270978    -0.164705543470    -0.000081626506    -0.000109314929    -0.077660628075    -0.101922630379    -0.000185449592    -0.000226272169
            -0.000070187418    -0.000111327491    -0.086218772190    -0.162121091659    0.000476749399    0.000559741628    -0.075470739996    -0.100212285568
            -0.078820530288    -0.102110297690    0.000429234772    0.000552412665    -0.095031643386    -0.168562702388    -0.000041469011    -0.000125785897
            -0.000199539384    -0.000239589739    -0.075136086500    -0.100940529835    -0.000043852643    -0.000102807154    -0.089276837172    -0.167999731545
0.475     -0.189722518864    -0.004536593040    0.000035340345    -0.000017923832    -0.112884066655    0.024934075971    0.000075498381    0.000021695316
            0.000036043263    -0.000019523352    -0.194834505976    -0.007595945418    0.001419605149    -0.000114571716    -0.118606759152    0.025478795982
            -0.112502272331    0.025804487023    0.001419105435    -0.000056790086    -0.190037678215    -0.002991355270    0.000018122575    -0.000056275299
            0.000087784686    0.000047389524    -0.118465772170    0.024849081830    0.000047591233    -0.000061458676    -0.195533503650    -0.007129290970
0.500     -0.034396612531    0.030685873117    0.000053780779    -0.000216118420    -0.011651168412    0.023804884692    0.000090906491    -0.000398625971
            0.000060324211    -0.000212030629    -0.037802407957    0.041717645106    0.000296924507    -0.000446428682    -0.012948032962    0.033892884394
            -0.010899896884    0.022738085821    0.000361262578    -0.000451325550    -0.033029297144    0.025269369239    0.000027952333    -0.000195802153
            0.000131174474    -0.000426920098    -0.013288351886    0.032812403643    0.000013114527    -0.000229114138    -0.036464943444    0.034832656775
0.525     -0.135176031625    -0.071896978729    -0.000086872570    -0.000093217144    -0.081052015504    -0.013993616673    -0.000253549302    -0.000088536628
            -0.000076262026    -0.000104087385    -0.129909781992    -0.072684871342    0.001025753491    0.000488862979    -0.079102397247    -0.014633289331
            -0.082404701699    -0.014636641956    0.001009339117    0.000438709449    -0.141782276373    -0.073183426342    -0.000042529874    -0.000081325662
            -0.000280793051    -0.000129833643    -0.080509951359    -0.014871063749    -0.000067645014    -0.000060053916    -0.136886315678    -0.074863408150
0.550     -0.173954226028    0.119860856609    0.000054345639    -0.000034989554    -0.061541500324    0.081802071275    0.000169378368    -0.000058740051
            0.000047291959    -0.000047462998    -0.183488535857    0.118043578131    0.001163286180    -0.000695185958    -0.069179456395    0.084903506478
            -0.062073442811    0.083022461059    0.001134470672    -0.000671126733    -0.173250971990    0.122989944763    0.000071894737    -0.000089820837
            0.000136063082    -0.000043013940    -0.069922934906    0.085850512763    0.000093929951    -0.000074452060    -0.181522276827    0.122107128914
0.575     0.013446812761    0.100946208594    -0.000010213385    -0.000252851580    0.013710382576    0.033531053248    -0.000117494520    -0.000476901901
            -0.000020395479    -0.000252768616    0.013381035586    0.113712152592    0.000229843387    -0.000145976281    0.017536055066    0.044429240896
            0.014758468181    0.033900576097    0.000272308312    -0.000130749096    0.013035300641    0.097136368862    -0.000066132874    -0.000282091157
            -0.000105211836    -0.000459506879    0.017563327959    0.045166984362    -0.000062405094    -0.000308087507    0.012296781386    0.107908778006
0.600     -0.063000504397    0.005703872556    -0.000144108959    -0.000101375403    -0.044053276586    0.017535390189    -0.000277770486    0.000022832596
            -0.000146259105    -0.000099240522    -0.059891867496    0.004595957464    0.001354290375    -0.000034592515    -0.042408176449    0.015810986241
            -0.044158126328    0.016788493050    0.001355259235    -0.000095770904    -0.066540863288    0.008119633763    -0.000142429263    -0.000064415936
            -0.000279057820    0.000004226193    -0.042317392691    0.016522375341    -0.000166907458    -0.000054129735    -0.064657476936    0.007603321910
0.625     -0.044776879520    0.092793626153    -0.000048081912    -0.000146292650    -0.001533923296    0.044079579611    0.000090736285    -0.000275074475
            -0.000052712792    -0.000146292907    -0.050624789452    0.102474024797    0.000571950935    -0.000969409248    -0.005730014952    0.054392302502
            -0.002242088983    0.044775066405    0.000505690918    -0.000965238129    -0.041335432331    0.092904344310    -0.000013785063    -0.000193658624
            0.000059948806    -0.000262363940    -0.004867599519    0.055123965019    0.000002637729    -0.000171251637    -0.046089170355    0.100833470211
0.650     -0.011131369417    0.017066825057    -0.000257654460    -0.000148486340    -0.034672368219    -0.012069860429    -0.000527297271    -0.000314796577
            -0.000264955544    -0.000143267442    0.000067552205    0.025490132489    0.000450341753    0.000117632181    -0.023418622087    -0.005540373059
            -0.033407991139    -0.011165574275    0.000460734006    0.000178483603    -0.012902960340    0.014530849299    -0.000335631853    -0.000190441412
            -0.000508846297    -0.000275273241    -0.022188567276    -0.005871815733    -0.000316615916    -0.000209071466    -0.004369154343    0.020266475917
0.675     -0.069769418034    0.057539141477    -0.000163669650    0.000035411749    -0.060417232637    0.066669730937    -0.000182436260    0.000200433894
            -0.000162723870    0.000047946837    -0.070662733180    0.056425716853    0.001199367921    -0.000694942278    -0.061655438408    0.065579974338
            -0.059484099378    0.065190547609    0.001240552058    -0.000718573940    -0.067507991307    0.058362028564    -0.000194493064    0.000095799914
            -0.000146143235    0.000180269453    -0.061182180211    0.064531232425    -0.000211550806    0.000082149124    -0.069861520750    0.058110185838
0.700     -0.011349190606    0.030963411961    -0.000185142725    -0.000144375255    0.000544414088    0.030255136274    -0.000176415777    -0.000379225813
            -0.000170236170    -0.000140258330    -0.005357014743    0.045661645999    0.000058781952    -0.000690330515    0.005359121424    0.043177808730
            -0.000904100968    0.029660028736    0.000015123044    -0.000709422016    -0.011439939061    0.023671239861    -0.000148672534    -0.000155181198
            -0.000199340400    -0.000401788880    0.005000233981    0.042199570287    -0.000155086346    -0.000138299300    -0.005405335756    0.035817238858
0.725     -0.151772721593    0.031656966199    -0.000336714585    0.000131874708    -0.100877566128    0.053568781725    -0.000641382464    0.000211559767
            -0.000335477328    0.000123088112    -0.138459529506    0.024391676198    0.000851871870    -0.000009645066    -0.091063873856    0.049760556788
            -0.100672552326    0.054526605664    0.000854797345    0.000050532831    -0.157669597891    0.033192771783    -0.000374163033    0.000104524162
            -0.000644692984    0.000237277487    -0.091862215454    0.049285073706    -0.000358562178    0.000102130936    -0.148696298984    0.024966366468
0.750     -0.075345185057    0.218078392876    -0.000005763212    0.000183011028    -0.016655639385    0.158827963375    0.000064585700    0.000231827444
            -0.000006061057    0.000185697282    -0.082811898038    0.217741890281    0.000706324512    -0.000992582728    -0.019640749013    0.161566197191
            -0.015948061294    0.157891012829    0.000770063431    -0.000999794866    -0.070885511869    0.218115504337    -0.000036738582    0.000216507423
            0.000092079456    0.000223205236    -0.020275863354    0.161390696017    -0.000044554699    0.000198188913    -0.079276881400    0.219341875970
0.775     0.056394051775    0.086372501464    -0.000202883350    -0.000181594293    0.044607129349    0.047303774313    -0.000377184133    -0.000336872720
            -0.000190348970    -0.000182762396    0.068049879688    0.100210956809    0.000018653185    -0.000350346885    0.056758334046    0.057271227714
            0.043003954813    0.046711889297    0.000008691193    -0.000415123979    0.050848689759    0.078626087394    -0.000189569700    -0.000168147167
