# GHz S RI R 45
0.000     0.073214864000    -0.000000000000    -0.000021933091    0.000000000000    0.003736686900    0.000000000000    -0.000042845525    -0.000000000000
            0.000047128880    0.000000000000    0.070708320000    -0.000000000000    0.000075203724    -0.000000000000    0.004427848700    -0.000000000000
            0.004164765900    0.000000000000    -0.000057265467    -0.000000000000    0.070707886000    -0.000000000000    0.000013791798    0.000000000000
            -0.000031265657    0.000000000000    0.005271227300    0.000000000000    0.000072402588    -0.000000000000    0.069974773000    -0.000000000000
0.025     0.155905330214    -0.004401530469    0.000040084775    0.000023196646    0.089103970257    0.026752881218    0.000027613376    0.000033764710
            0.000071082635    -0.000029027474    0.156231000900    -0.002130728215    0.000015412586    -0.000066366231    0.088561710040    0.026543965184
            0.089208732030    0.026378555827    0.000027136097    0.000053011081    0.155506530257    -0.002878004007    0.000011853751    -0.000017612351
            0.000016504831    0.000025387226    0.089165624469    0.026000997685    0.000000821003    -0.000069635649    0.156703140780    -0.001595205429
0.050     0.058498154614    -0.076484303203    -0.000028980870    0.000063654031    0.033931446317    -0.035731835628    -0.000028465634    0.000059920279
            -0.000050023018    0.000023275934    0.060712497889    -0.078429792285    -0.000112651654    0.000116091579    0.034286997881    -0.035632538096
            0.033594000610    -0.035848540812    -0.000010727963    0.000079332505    0.058510686866    -0.075785151068    -0.000062518713    0.000090116658
            -0.000038488166    0.000074348008    0.034253835834    -0.036526078586    -0.000111504779    0.000112540319    0.060951040947    -0.079118630674
0.075     0.095839968677    0.063891064180    0.000136181045    0.000105167188    0.071982812842    0.072225513679    0.000124453460    0.000102802119
            0.000122602246    0.000084714361    0.092046132199    0.063356795859    0.000223418304    0.000158892517    0.070669342969    0.072922033411
            0.072004066627    0.072296388900    0.000140022986    0.000096992535    0.096484345872    0.065352514486    0.000171773054    0.000114759991
            0.000137720453    0.000110576765    0.070105045293    0.072417092613    0.000210419530    0.000146307901    0.091570343745    0.063929454429
0.100     0.201914009929    -0.082878366942    0.000016621282    -0.000024452064    0.160605846427    -0.054406954125    0.000039558581    -0.000023071201
            -0.000020319097    -0.000047625824    0.203723261075    -0.078301341909    0.000049508289    -0.000115216303    0.162442110438    -0.052132959017
            0.160270462703    -0.054700433607    0.000018176496    -0.000001924550    0.203772199338    -0.082796567511    0.000044295172    -0.000079736030
            0.000049751514    -0.000024380430    0.161708562136    -0.052339707290    0.000067850974    -0.000120554902    0.204529916054    -0.078044336816
0.125     0.026666861888    -0.109721578326    0.000012579098    0.000260487481    0.012852428540    -0.080049278801    0.000020447104    0.000208254516
            -0.000058826942    0.000287817670    0.030170439621    -0.113109731220    -0.000088143464    0.000260589998    0.014554727568    -0.082263261651
            0.012260262889    -0.079360860266    0.000062727737    0.000269463246    0.028130544665    -0.110461550870    -0.000025254924    0.000210061715
            0.000016532516    0.000195391320    0.013591263995    -0.081742136526    -0.000085525927    0.000188641406    0.030790746099    -0.113179540111
0.150     0.128197662538    0.005039839752    0.000297221002    -0.000010278950    0.094041890165    0.013652447483    0.000290831672    -0.000025090570
            0.000312744837    0.000066133570    0.125552098361    0.007357967386    0.000370196515    0.000075437661    0.093200644127    0.016715066817
            0.094847460550    0.014244972414    0.000330475220    -0.000064202470    0.129761298467    0.003121583813    0.000314490819    -0.000000555656
            0.000290235511    -0.000019639801    0.093263234950    0.017765159690    0.000321946620    0.000062435922    0.126860044966    0.006848731019
0.175     0.138950870739    -0.183115198697    -0.000084976788    0.000016091710    0.093934787407    -0.132800192657    -0.000056290055    -0.000042705438
            -0.000044581705    0.000035784798    0.145854330109    -0.180298366342    -0.000016131847    -0.000066502576    0.100739325556    -0.132058005037
            0.094308480828    -0.133272895019    -0.000107465239    -0.000011897763    0.138114541668    -0.185918539559    -0.000032874780    -0.000087150973
            -0.000049805214    -0.000043209591    0.101285582535    -0.131619442307    0.000015958522    -0.000099818238    0.146096501127    -0.181526339422
0.200     -0.048968308032    -0.140079077725    0.000195196653    0.000397677908    -0.047980177685    -0.089359781279    0.000148673449    0.000320151177
            0.000224388778    0.000400018742    -0.045029859539    -0.145723994986    0.000133876214    0.000348336721    -0.046016434431    -0.095188337036
            -0.048082387003    -0.089241175005    0.000212338020    0.000404693038    -0.050429767367    -0.140459846382    0.000111312710    0.000301588853
            0.000145376574    0.000302779142    -0.045475968805    -0.094892886429    0.000085943477    0.000254821576    -0.044127226719    -0.145793648451
0.225     0.033818322946    -0.064802316743    0.000343092003    -0.000149940399    0.021064295516    -0.039523850081    0.000337047551    -0.000159101899
            0.000391017297    -0.000154625504    0.037234912688    -0.064217193330    0.000358746205    -0.000096590089    0.023760885164    -0.039145888587
            0.021264873890    -0.039714763105    0.000370042527    -0.000205963832    0.033390308538    -0.065498466020    0.000347272266    -0.000135569124
            0.000318689266    -0.000149118194    0.024176687132    -0.039318049280    0.000319585254    -0.000088438443    0.038361400225    -0.065656754566
0.250     0.019595340898    -0.158631752930    -0.000079852575    0.000151408981    -0.001555593015    -0.083321235939    -0.000084487737    0.000062943247
            -0.000051915961    0.000091025050    0.026687388727    -0.163736154270    -0.000019727131    0.000103883826    0.003868449279    -0.088244561505
            -0.001654814583    -0.084484669997    -0.000133539975    0.000118577968    0.016588178986    -0.159794552640    -0.000053337847    0.000031350493
            -0.000077829433    0.000075327148    0.004240907247    -0.089392325010    -0.000002167550    0.000042484536    0.024294609594    -0.165776322976
0.275     -0.076762387217    -0.070710710012    0.000521434208    0.000264740263    -0.029959656120    -0.013654317576    0.000456613515    0.000237899241
            0.000485719602    0.000203665058    -0.075649231383    -0.076345678894    0.000513895931    0.000198517693    -0.031283057569    -0.017810775425
            -0.031120827398    -0.013897089927    0.000535858717    0.000308859029    -0.077429524216    -0.068105263167    0.000457786054    0.000203197373
            0.000461864096    0.000233237042    -0.031936029476    -0.018623839788    0.000461546235    0.000148867449    -0.075179223643    -0.075400826684
0.300     0.001676199770    -0.031262397746    0.000256331046    -0.000329844042    0.018150205317    -0.026295880281    0.000284659605    -0.000354360722
            0.000194411184    -0.000335134889    0.006542041979    -0.036146713769    0.000224059050    -0.000342628707    0.021480526699    -0.028164463009
            0.017664898029    -0.025565558950    0.000314039383    -0.000377291389    0.003644312276    -0.032376016889    0.000283583059    -0.000384731433
            0.000281981229    -0.000352311807    0.020766918444    -0.028297914854    0.000235253346    -0.000379447651    0.007348791305    -0.039619717597
0.325     -0.017581819799    -0.067414626019    0.000096839089    0.000177317762    -0.013386535474    -0.022048742476    0.000072745152    0.000095568230
            0.000059286599    0.000206124751    -0.017728835941    -0.075615830824    0.000133629469    0.000207362449    -0.013392541442    -0.027193715451
            -0.013283705867    -0.021740738690    0.000080804131    0.000148429184    -0.019107282911    -0.068277913463    0.000083471504    0.000082003711
            0.000074940373    0.000098328130    -0.014137591903    -0.027070100655    0.000095426857    0.000119352160    -0.021029378675    -0.075654460503
0.350     -0.004992049177    -0.035961541345    0.000565088145    -0.000192680929    0.037685685663    -0.014746067320    0.000569000041    -0.000219808464
            0.000544606331    -0.000155323795    -0.003256449173    -0.036884961559    0.000659546614    -0.000278474211    0.040358716647    -0.014033009854
            0.037349440508    -0.014453784917    0.000630791153    -0.000199733140    -0.003459304653    -0.035191548133    0.000612005130    -0.000283303047
            0.000574877947    -0.000217693603    0.039726186868    -0.013268144562    0.000638585396    -0.000305561033    -0.000351013705    -0.035282041962
0.375     -0.004840154057    -0.095723770914    -0.000062072819    -0.000341899779    -0.001018480902    -0.092504057371    -0.000044792609    -0.000449290039
            -0.000059537922    -0.000283692614    0.003157981451    -0.103210017936    -0.000128673772    -0.000445411782    0.006362715460    -0.099062498913
            -0.000792450437    -0.091362985346    -0.000027604614    -0.000440710547    -0.004290712855    -0.098966163985    -0.000099404832    -0.000532948386
            -0.000035446240    -0.000459139020    0.006549709663    -0.097989584779    -0.000132191255    -0.000551721998    0.004118996994    -0.107549653072
0.400     -0.075891400161    -0.057241328573    0.000197590199    0.000132954587    -0.064752667697    -0.025145358027    0.000162895600    0.000062955891
            0.000257983130    0.000178372132    -0.074759804031    -0.067489685060    0.000215779954    0.000197890058    -0.063647056383    -0.032758254337
            -0.063082153947    -0.024922987641    0.000203887067    0.000084899719    -0.077585368292    -0.057586454724    0.000146388085    0.000094515113
            0.000149672272    0.000050474613    -0.062706436376    -0.032133166142    0.000129246014    0.000138453110    -0.076006347914    -0.066850528367
0.425     -0.027635413219    -0.051231013923    0.000274356780    -0.000455282037    -0.001114672605    -0.042645250687    0.000301556580    -0.000565263733
            0.000347292739    -0.000489478892    -0.020984861747    -0.058843211598    0.000412164657    -0.000607476454    0.006317587627    -0.048450840465
            -0.000735480546    -0.043541756801    0.000309090526    -0.000568674230    -0.027239623826    -0.052431237664    0.000365344444    -0.000646377631
            0.000292903751    -0.000552537821    0.007085567006    -0.048858997257    0.000415692803    -0.000636973412    -0.019538284287    -0.060657357217
0.450     -0.098695736440    -0.148118186678    -0.000283208327    -0.000104228549    -0.081361590990    -0.086052210511    -0.000353660134    -0.000225812766
            -0.000273248144    -0.000155950285    -0.086218772190    -0.162121091659    -0.000432676108    -0.000249497354    -0.075470739996    -0.100212285568
            -0.082218233028    -0.086383949322    -0.000371725753    -0.000185947460    -0.102563266264    -0.149849391559    -0.000452922549    -0.000302851959
            -0.000341072813    -0.000223430095    -0.075136086500    -0.100940529835    -0.000451664118    -0.000343387940    -0.089276837172    -0.167999731545
0.475     -0.195084241477    0.016656675140    0.000289662584    0.000096253539    -0.115687090664    0.040380146352    0.000271387940    0.000048733646
            0.000288595345    0.000056352730    -0.194834505976    -0.007595945418    0.000278340905    0.000168702280    -0.118606759152    0.025478795982
            -0.115288207364    0.040373401213    0.000307478558    0.000092054355    -0.194774443322    0.019449657342    0.000275321422    0.000103616591
            0.000262983405    0.000034352182    -0.118465772170    0.024849081830    0.000242691312    0.000111059343    -0.195533503650    -0.007129290970
0.500     -0.030701566907    0.054364350245    0.000112476784    -0.000636036099    -0.009226932683    0.043687691182    0.000099381739    -0.000775885553
            0.000082018120    -0.000693093722    -0.037802407957    0.041717645106    0.000199125088    -0.000794279907    -0.012948032962    0.033892884394
            -0.009750314884    0.042164319383    0.000099812579    -0.000789880833    -0.029223109554    0.049954861841    0.000157006600    -0.000891360200
            0.000084552852    -0.000758255301    -0.013288351886    0.032812403643    0.000187268195    -0.000866976458    -0.036464943444    0.034832656775
0.525     -0.134523401827    -0.055689291934    -0.000370954714    0.000051036906    -0.077279264859    -0.001843872514    -0.000444614249    -0.000006331643
            -0.000456930595    0.000049612404    -0.129909781992    -0.072684871342    -0.000526394751    -0.000022767778    -0.079102397247    -0.014633289331
            -0.079331827447    -0.001195181583    -0.000489267618    0.000067418331    -0.139901648914    -0.054788665053    -0.000531699649    -0.000052558623
            -0.000425917820    0.000006203166    -0.080509951359    -0.014871063749    -0.000524171583    -0.000095003259    -0.136886315678    -0.074863408150
0.550     -0.169004893834    0.148649073777    0.000353107586    -0.000081524659    -0.058620963552    0.099936274432    0.000382287988    -0.000172580986
            0.000314628545    -0.000022914408    -0.183488535857    0.118043578131    0.000389728822    -0.000043581085    -0.069179456395    0.084903506478
            -0.058437122044    0.101697054193    0.000456407058    -0.000081042751    -0.165140423971    0.151556255652    0.000422726160    -0.000178474836
            0.000392180830    -0.000186710121    -0.069922934906    0.085850512763    0.000382130467    -0.000184127493    -0.181522276827    0.122107128914
0.575     0.033456831512    0.118994690251    -0.000257047942    -0.000786349934    0.025735953158    0.048664015927    -0.000317035688    -0.000923212094
            -0.000252771160    -0.000730699824    0.013381035586    0.113712152592    -0.000239970492    -0.000920113320    0.017536055066    0.044429240896
            0.026643566430    0.048821431010    -0.000282420436    -0.000969399720    0.033488914428    0.112709322834    -0.000334050085    -0.001049934752
            -0.000326434709    -0.000929371464    0.017563327959    0.045166984362    -0.000337786676    -0.001014659051    0.012296781386    0.107908778006
0.600     -0.060657059008    0.014946856032    -0.000528806893    0.000221164917    -0.042599328117    0.025649961125    -0.000516463478    0.000157302701
            -0.000500796970    0.000266917425    -0.059891867496    0.004595957464    -0.000564646221    0.000181678518    -0.042408176449    0.015810986241
            -0.042657265767    0.025892592763    -0.000585634141    0.000234863669    -0.065321588801    0.017510650898    -0.000555854785    0.000143328915
            -0.000519891785    0.000166165518    -0.042317392691    0.016522375341    -0.000539353892    0.000139455669    -0.064657476936    0.007603321910
0.625     -0.035522643616    0.119401950394    0.000156855843    -0.000349915045    0.003134047956    0.065643914908    0.000144873689    -0.000550109787
            0.000216731953    -0.000325664240    -0.050624789452    0.102474024797    0.000182620202    -0.000487972939    -0.005730014952    0.054392302502
            0.003983717269    0.066341201677    0.000242454085    -0.000486088488    -0.031441183604    0.119186229060    0.000159621309    -0.000666824539
            0.000161582621    -0.000547677650    -0.004867599519    0.055123965019    0.000151554253    -0.000668769862    -0.046089170355    0.100833470211
0.650     0.006067549676    0.028359026317    -0.001021863800    -0.000392035165    -0.021749084240    0.000697160229    -0.001112796796    -0.000470928016
            -0.000953258554    -0.000423303343    0.000067552205    0.025490132489    -0.001153113662    -0.000479169123    -0.023418622087    -0.005540373059
            -0.020227960261    0.000044857909    -0.001164363642    -0.000548195405    0.002790548449    0.024602861531    -0.001247551135    -0.000521885737
            -0.001113996843    -0.000500851962    -0.022188567276    -0.005871815733    -0.001246388247    -0.000507317719    -0.004369154343    0.020266475917
0.675     -0.065345902791    0.076314525665    -0.000319006874    0.000604232144    -0.054926126840    0.084023398673    -0.000269432576    0.000443986857
            -0.000295550043    0.000528715754    -0.070662733180    0.056425716853    -0.000282291524    0.000563813839    -0.061655438408    0.065579974338
            -0.054932624625    0.082118935264    -0.000350314222    0.000586870149    -0.064690075377    0.078714027740    -0.000227297637    0.000455653105
            -0.000305634519    0.000453474780    -0.061182180211    0.064531232425    -0.000208991117    0.000463702949    -0.069861520750    0.058110185838
0.700     0.006455102158    0.054012898693    -0.000279582309    -0.000457885753    0.017799190235    0.050567655287    -0.000432496267    -0.000657807751
            -0.000321840674    -0.000518410553    -0.005357014743    0.045661645999    -0.000411984942    -0.000693651838    0.005359121424    0.043177808730
            0.016120407641    0.050094268392    -0.000373321557    -0.000632493741    0.006975666449    0.048295441949    -0.000499292804    -0.000831505407
            -0.000414084349    -0.000624937583    0.005000233981    0.042199570287    -0.000479394144    -0.000851382958    -0.005405335756    0.035817238858
0.725     -0.138425654192    0.052978188858    -0.001047218171    0.000673062227    -0.084598261050    0.068514437970    -0.001055382262    0.000650749881
            -0.001095900336    0.000664418392    -0.138459529506    0.024391676198    -0.001242511462    0.000789773486    -0.091063873856    0.049760556788
            -0.084762069189    0.069206483784    -0.001209878223    0.000730290822    -0.143207472645    0.055320855477    -0.001180227037    0.000730682839
            -0.001038042563    0.000621738047    -0.091862215454    0.049285073706    -0.001195773332    0.000710331378    -0.148696298984    0.024966366468
0.750     -0.044256891001    0.242938186852    0.000182661252    0.000554466408    0.007738833892    0.173382146254    0.000177352677    0.000315227922
            0.000133882643    0.000552924192    -0.082811898038    0.217741890281    0.000299847464    0.000542275154    -0.019640749013    0.161566197191
            0.007556715816    0.172588475356    0.000235357254    0.000536898376    -0.038598813450    0.242354136088    0.000291571535    0.000291877506
            0.000145802929    0.000312092454    -0.020275863354    0.161390696017    0.000279421180    0.000299546892    -0.079276881400    0.219341875970
0.775     0.087365084355    0.090982022373    -0.000661861310    -0.000429497904    0.068543421069    0.051615853914    -0.000839063645    -0.000529230805
            -0.000728397675    -0.000379518404    0.068049879688    0.100210956809    -0.000830029711    -0.000616055811    0.056758334046    0.057271227714
            0.066476676044    0.052429231237    -0.000809075866    -0.000543132180    0.081791527940    0.082628650491    -0.000945197584    -0.000691431781
