# GHz S RI R 45
0.000     0.071426201000    0.000000000000    0.000001490094    -0.000000000000    0.003917030600    -0.000000000000    0.000002505658    0.000000000000
            0.000001488770    0.000000000000    0.070708320000    -0.000000000000    0.000001126976    0.000000000000    0.004427848700    -0.000000000000
            0.004850572500    -0.000000000000    0.000001126030    0.000000000000    0.071285184000    -0.000000000000    0.000002017289    0.000000000000
            0.000002500464    -0.000000000000    0.005271227300    0.000000000000    0.000002019397    0.000000000000    0.069974773000    -0.000000000000
0.025     0.156479264727    -0.001817546198    0.000008764684    -0.000001356849    0.089019471280    0.027448120324    0.000013482045    -0.000001338686
            0.000008764936    -0.000001341157    0.156231000900    -0.002130728215    0.000005389132    -0.000001569774    0.088561710040    0.026543965184
            0.088729090856    0.026645944625    0.000005383868    -0.000001578867    0.156237912341    -0.002247028892    0.000010128923    -0.000001512755
            0.000013475954    -0.000001346380    0.089165624469    0.026000997685    0.000010136253    -0.000001521544    0.156703140780    -0.001595205429
0.050     0.061220409511    -0.078467668625    -0.000015882016    0.000021329470    0.035235574158    -0.036191231417    -0.000023373143    0.000033593201
            -0.000015825094    0.000021339865    0.060712497889    -0.078429792285    -0.000010520602    0.000013194751    0.034286997881    -0.035632538096
            0.034463166016    -0.035596381119    -0.000010555476    0.000013218759    0.060444415390    -0.078129910253    -0.000017953025    0.000024764432
            -0.000023399796    0.000033617852    0.034253835834    -0.036526078586    -0.000017986904    0.000024729736    0.060951040947    -0.079118630674
0.075     0.091305051401    0.064711412784    0.000048130379    0.000034387389    0.069374296857    0.073592109413    0.000071439495    0.000056284430
            0.000048119048    0.000034308139    0.092046132199    0.063356795859    0.000031952646    0.000018175650    0.070669342969    0.072922033411
            0.070172444014    0.074056598888    0.000031975199    0.000018183582    0.092030858442    0.065605323670    0.000055200297    0.000040265028
            0.000071463280    0.000056285315    0.070105045293    0.072417092613    0.000055192137    0.000040346696    0.091570343745    0.063929454429
0.100     0.205758362464    -0.075774425302    0.000012472657    -0.000019461071    0.163859726072    -0.049058236862    0.000020777297    -0.000026253534
            0.000012464530    -0.000019437552    0.203723261075    -0.078301341909    0.000004776232    -0.000014337378    0.162442110438    -0.052132959017
            0.163918217098    -0.049938884505    0.000004752893    -0.000014354308    0.206614078988    -0.076708937033    0.000014943670    -0.000022148289
            0.000020742489    -0.000026266622    0.161708562136    -0.052339707290    0.000014986492    -0.000022162794    0.204529916054    -0.078044336816
0.125     0.031734276016    -0.112937605083    -0.000009361241    0.000069296803    0.016935736586    -0.082043533720    -0.000010612117    0.000107763853
            -0.000009335077    0.000069201189    0.030170439621    -0.113109731220    -0.000008021802    0.000043221189    0.014554727568    -0.082263261651
            0.015918878764    -0.081693694080    -0.000008029808    0.000043393860    0.031207357245    -0.113107897911    -0.000009617015    0.000080115204
            -0.000010599452    0.000107925087    0.013591263995    -0.081742136526    -0.000009647693    0.000080061444    0.030790746099    -0.113179540111
0.150     0.127667246078    0.011060202153    0.000105419965    0.000006499291    0.094744172414    0.019025508258    0.000159900038    0.000017880614
            0.000105256766    0.000006498951    0.125552098361    0.007357967386    0.000064603467    -0.000003276535    0.093200644127    0.016715066817
            0.095508401390    0.019875975831    0.000064763348    -0.000003423963    0.129111665536    0.011302332322    0.000121847389    0.000008456548
            0.000160043126    0.000017736095    0.093263234950    0.017765159690    0.000121860412    0.000008572724    0.126860044966    0.006848731019
0.175     0.152661981725    -0.178775311079    -0.000008045970    -0.000023624988    0.105889719208    -0.130145874979    -0.000008803615    -0.000031485641
            -0.000008021734    -0.000023527999    0.145854330109    -0.180298366342    -0.000010975370    -0.000014387417    0.100739325556    -0.132058005037
            0.106489275052    -0.130940880732    -0.000011052738    -0.000014428815    0.153492302675    -0.180778605716    -0.000008645511    -0.000027261781
            -0.000008893486    -0.000031524002    0.101285582535    -0.131619442307    -0.000008595314    -0.000027304002    0.146096501127    -0.181526339422
0.200     -0.040126828769    -0.147053028299    0.000040221124    0.000106375260    -0.041062513623    -0.096026129348    0.000068804757    0.000162827254
            0.000040166194    0.000106349259    -0.045029859539    -0.145723994986    0.000020975342    0.000067352388    -0.046016434431    -0.095188337036
            -0.041885700882    -0.096324448323    0.000021006153    0.000067438623    -0.040809801365    -0.148036224945    0.000048955932    0.000122601139
            0.000068844558    0.000162917944    -0.045475968805    -0.094892886429    0.000048995568    0.000122548570    -0.044127226719    -0.145793648451
0.225     0.045186298825    -0.064872715149    0.000132551213    -0.000043597498    0.030512862056    -0.040053560931    0.000202009970    -0.000060516174
            0.000132493028    -0.000043472503    0.037234912688    -0.064217193330    0.000076667873    -0.000031218368    0.023760885164    -0.039145888587
            0.030625584150    -0.039929723451    0.000076680958    -0.000031389265    0.045253064836    -0.065627336513    0.000153448908    -0.000050976518
            0.000202002580    -0.000060674703    0.024176687132    -0.039318049280    0.000153478389    -0.000050969388    0.038361400225    -0.065656754566
0.250     0.033538061880    -0.167966828658    -0.000016918224    -0.000000372220    0.007783862164    -0.092047440612    -0.000020551147    0.000003560904
            -0.000016702812    -0.000000336969    0.026687388727    -0.163736154270    -0.000015827195    0.000005206778    0.003868449279    -0.088244561505
            0.008569281406    -0.092631768163    -0.000016019877    0.000005216836    0.032555589860    -0.170296486181    -0.000018934160    -0.000000181648
            -0.000020736554    0.000003576853    0.004240907247    -0.089392325010    -0.000018972344    -0.000000194890    0.024294609594    -0.165776322976
0.275     -0.069157481158    -0.079043983570    0.000152168569    0.000077880931    -0.026479291295    -0.018072152546    0.000230616469    0.000119056629
            0.000152185088    0.000077726681    -0.075649231383    -0.076345678894    0.000096757523    0.000047739052    -0.031283057569    -0.017810775425
            -0.027293213216    -0.018898653387    0.000096654784    0.000047856349    -0.070256694408    -0.079326399913    0.000177425820    0.000088846799
            0.000230529559    0.000119171572    -0.031936029476    -0.018623839788    0.000177514796    0.000088888878    -0.075179223643    -0.075400826684
0.300     0.014398690495    -0.043981501354    0.000110908685    -0.000134133656    0.029230443063    -0.034680678719    0.000170826032    -0.000192958194
            0.000110960457    -0.000134073399    0.006542041979    -0.036146713769    0.000058261393    -0.000085615008    0.021480526699    -0.028164463009
            0.028474420362    -0.033763670167    0.000058285078    -0.000085536004    0.014302297779    -0.045483434980    0.000127649843    -0.000155379310
            0.000170863946    -0.000192872175    0.020766918444    -0.028297914854    0.000127557305    -0.000155533979    0.007348791305    -0.039619717597
0.325     -0.015758000581    -0.080349708524    0.000017981151    0.000022993703    -0.013561988846    -0.031320258204    0.000029884737    0.000036662618
            0.000018123231    0.000022719111    -0.017728835941    -0.075615830824    0.000013492061    0.000023152976    -0.013392541442    -0.027193715451
            -0.012671230102    -0.030896941653    0.000013552288    0.000023288185    -0.017682312719    -0.080765547430    0.000021745777    0.000027307291
            0.000029961031    0.000036750714    -0.014137591903    -0.027070100655    0.000021543819    0.000027505309    -0.021029378675    -0.075654460503
0.350     0.007877446862    -0.039957969526    0.000215368835    -0.000075864968    0.049636241127    -0.013329243245    0.000323585705    -0.000099278885
            0.000214943804    -0.000075992213    -0.003256449173    -0.036884961559    0.000133154330    -0.000061666574    0.040358716647    -0.014033009854
            0.049507348518    -0.014251969230    0.000133247714    -0.000061655828    0.008854926390    -0.039420248628    0.000250206937    -0.000088320614
            0.000323614353    -0.000099280561    0.039726186868    -0.013268144562    0.000250594893    -0.000088207208    -0.000351013705    -0.035282041962
0.375     0.010960365445    -0.115714129805    -0.000012495492    -0.000183409460    0.015623805306    -0.109402429964    -0.000002157189    -0.000270733406
            -0.000012473385    -0.000183142435    0.003157981451    -0.103210017936    -0.000027832414    -0.000104619905    0.006362715460    -0.099062498913
            0.014621910292    -0.108683994194    -0.000027741793    -0.000104583956    0.010838323178    -0.118096849990    -0.000013285503    -0.000212144206
            -0.000002043629    -0.000270636074    0.006549709663    -0.097989584779    -0.000013415357    -0.000212494818    0.004118996994    -0.107549653072
0.400     -0.069139265096    -0.073651543593    0.000053385950    0.000033995213    -0.059607071759    -0.038966011291    0.000081384888    0.000048428856
            0.000053326517    0.000033849888    -0.074759804031    -0.067489685060    0.000041163079    0.000030071668    -0.063647056383    -0.032758254337
            -0.058451316199    -0.037940818595    0.000041546503    0.000029952714    -0.069956799636    -0.072829649108    0.000065061960    0.000038475525
            0.000081769001    0.000048247934    -0.062706436376    -0.032133166142    0.000064787516    0.000038763802    -0.076006347914    -0.066850528367
0.425     -0.006426003136    -0.073227831390    0.000152194983    -0.000217272044    0.019500303159    -0.059292145540    0.000238436570    -0.000308362101
            0.000152042636    -0.000216910860    -0.020984861747    -0.058843211598    0.000078589113    -0.000147951479    0.006317587627    -0.048450840465
            0.019952479758    -0.059988284263    0.000078282643    -0.000148356799    -0.005843602492    -0.074411898200    0.000177082908    -0.000253110573
            0.000238111260    -0.000308720203    0.007085567006    -0.048858997257    0.000177464511    -0.000253110262    -0.019538284287    -0.060657357217
0.450     -0.078477381912    -0.180540250797    -0.000128787008    -0.000124925654    -0.068907473163    -0.115878228400    -0.000178939622    -0.000198681462
            -0.000128328278    -0.000124863019    -0.086218772190    -0.162121091659    -0.000090434506    -0.000049226217    -0.075470739996    -0.100212285568
            -0.070036750485    -0.116174906852    -0.000090554555    -0.000048913880    -0.081317133935    -0.184785985051    -0.000147621119    -0.000145312655
            -0.000179019616    -0.000198336870    -0.075136086500    -0.100940529835    -0.000147921998    -0.000145650874    -0.089276837172    -0.167999731545
0.475     -0.188190865522    -0.027368109198    0.000096280951    0.000021828639    -0.114139136700    0.009936080010    0.000139958161    0.000031498217
            0.000096232871    0.000021701889    -0.194834505976    -0.007595945418    0.000071107877    0.000017003243    -0.118606759152    0.025478795982
            -0.113851630644    0.010838697400    0.000071318715    0.000016893666    -0.189009320847    -0.026282826158    0.000115742744    0.000022271099
            0.000140187870    0.000031348105    -0.118465772170    0.024849081830    0.000115596805    0.000022482603    -0.195533503650    -0.007129290970
0.500     -0.037189980245    0.016440850959    0.000078331379    -0.000316630500    -0.012689696752    0.013328242275    0.000122173718    -0.000459165940
            0.000078571008    -0.000316506076    -0.037802407957    0.041717645106    0.000034480173    -0.000200295659    -0.012948032962    0.033892884394
            -0.011831550185    0.012351951745    0.000033783367    -0.000200529191    -0.035541807924    0.011300051817    0.000084487432    -0.000369470236
            0.000121477797    -0.000459401177    -0.013288351886    0.032812403643    0.000084790926    -0.000369361881    -0.036464943444    0.034832656775
0.525     -0.130693949165    -0.091084508650    -0.000179517733    -0.000052378056    -0.081945586892    -0.027522355401    -0.000264793859    -0.000094496215
            -0.000179357861    -0.000052821804    -0.129909781992    -0.072684871342    -0.000103152120    -0.000002277517    -0.079102397247    -0.014633289331
            -0.083199584427    -0.028322573862    -0.000102951825    -0.000001597598    -0.136561430484    -0.093524363929    -0.000203192268    -0.000059720819
            -0.000264618775    -0.000093797443    -0.080509951359    -0.014871063749    -0.000203394526    -0.000059913494    -0.136886315678    -0.074863408150
0.550     -0.185566809347    0.089819324098    0.000138618152    -0.000060726874    -0.068753215087    0.066293312466    0.000196426582    -0.000083348583
            0.000138258096    -0.000060857301    -0.183488535857    0.118043578131    0.000097836042    -0.000045750367    -0.069179456395    0.084903506478
            -0.069449064317    0.067438907579    0.000097996076    -0.000045709579    -0.185181190683    0.094535520961    0.000162301400    -0.000078904126
            0.000196616361    -0.000083336171    -0.069922934906    0.085850512763    0.000162417899    -0.000078825437    -0.181522276827    0.122107128914
0.575     -0.003824219783    0.092049909512    -0.000083169887    -0.000367790311    0.006620182430    0.025739104543    -0.000116395243    -0.000537634677
            -0.000083136998    -0.000367764212    0.013381035586    0.113712152592    -0.000067560031    -0.000223058052    0.017536055066    0.044429240896
            0.007622872163    0.026249572035    -0.000067366438    -0.000223062559    -0.003840477351    0.088537290052    -0.000107911467    -0.000424708540
            -0.000116225515    -0.000537666064    0.017563327959    0.045166984362    -0.000108109405    -0.000424673841    0.012296781386    0.107908778006
0.600     -0.062574280845    -0.005169381077    -0.000192116651    0.000011913901    -0.044945510061    0.008953608831    -0.000296654631    0.000004117181
            -0.000192440803    0.000011686106    -0.059891867496    0.004595957464    -0.000095320713    0.000028711830    -0.042408176449    0.015810986241
            -0.044946220534    0.008186249923    -0.000095032876    0.000028709691    -0.066908180379    -0.003269897778    -0.000214148863    0.000013978515
            -0.000296414536    0.000004120162    -0.042317392691    0.016522375341    -0.000213991980    0.000014188948    -0.064657476936    0.007603321910
0.625     -0.055876860558    0.073820465412    0.000069272013    -0.000222526366    -0.005456688208    0.032608305977    0.000097670365    -0.000304077227
            0.000068838367    -0.000221968881    -0.050624789452    0.102474024797    0.000041972445    -0.000162329600    -0.005730014952    0.054392302502
            -0.006268277605    0.033211697934    0.000042052016    -0.000162518348    -0.053132444735    0.074697969219    0.000076116273    -0.000265252290
            0.000097723808    -0.000304205246    -0.004867599519    0.055123965019    0.000076433971    -0.000265676159    -0.046089170355    0.100833470211
0.650     -0.018409136389    0.010337706077    -0.000379558339    -0.000230091403    -0.036179456998    -0.022136479457    -0.000538730361    -0.000356237602
            -0.000378941686    -0.000229833365    0.000067552205    0.025490132489    -0.000257636079    -0.000108825925    -0.023418622087    -0.005540373059
            -0.035042863590    -0.021061512635    -0.000257445582    -0.000109248146    -0.019838356846    0.007574750275    -0.000437631525    -0.000260968336
            -0.000538427675    -0.000356629464    -0.022188567276    -0.005871815733    -0.000438438953    -0.000260865628    -0.004369154343    0.020266475917
0.675     -0.072948515527    0.038970025227    -0.000105943725    0.000110435804    -0.065305365333    0.050017933122    -0.000195516008    0.000160392063
            -0.000106084282    0.000110283560    -0.070662733180    0.056425716853    -0.000022733466    0.000071474953    -0.061655438408    0.065579974338
            -0.064166585874    0.048685852216    -0.000023122253    0.000070963965    -0.071732955878    0.039881590492    -0.000120071607    0.000116826610
            -0.000195952299    0.000159791903    -0.061182180211    0.064531232425    -0.000119565031    0.000117437544    -0.069861520750    0.058110185838
0.700     -0.020474485297    0.016821079934    -0.000141213923    -0.000300089697    -0.006889799806    0.019083902144    -0.000194125459    -0.000413618842
            -0.000140787635    -0.000299563161    -0.005357014743    0.045661645999    -0.000116479345    -0.000207249193    0.005359121424    0.043177808730
            -0.008223479133    0.018283807513    -0.000117402336    -0.000206694800    -0.019905919253    0.010174048766    -0.000175861381    -0.000348495713
            -0.000195031334    -0.000412991705    0.005000233981    0.042199570287    -0.000175549620    -0.000349440159    -0.005405335756    0.035817238858
0.725     -0.154372121569    0.002805912344    -0.000422784048    0.000145286491    -0.107029187602    0.031847951118    -0.000646517650    0.000169202185
            -0.000422418691    0.000144377043    -0.138459529506    0.024391676198    -0.000236368210    0.000151560270    -0.091063873856    0.049760556788
            -0.106989365474    0.032814482867    -0.000235824671    0.000151801017    -0.160760383312    0.002989108477    -0.000484716276    0.000164273178
            -0.000645920910    0.000169390560    -0.091862215454    0.049285073706    -0.000485500681    0.000164893258    -0.148696298984    0.024966366468
0.750     -0.109361001837    0.190795974740    0.000037754203    0.000098496614    -0.041536029782    0.143339619057    0.000016282414    0.000185091753
            0.000037372819    0.000098499331    -0.082811898038    0.217741890281    0.000062295625    0.000029701437    -0.019640749013    0.161566197191
            -0.040678750309    0.142536430410    0.000062021689    0.000029452984    -0.106010933195    0.191822710766    0.000038336831    0.000107092597
            0.000015928970    0.000184773227    -0.020275863354    0.161390696017    0.000038950899    0.000107357923    -0.079276881400    0.219341875970
0.775     0.035551272810    0.088204256697    -0.000287094700    -0.000264581044    0.032170374618    0.047715671651    -0.000405083680    -0.000370639183
            -0.000286932988    -0.000264791666    0.068049879688    0.100210956809    -0.000210737142    -0.000169678347    0.056758334046    0.057271227714
            0.030699743131    0.046856245056    -0.000211224317    -0.000168447228    0.031293477836    0.080054208735    -0.000348067744    -0.000298206236
