# GHz S RI R 45
0.000     0.070672346000    -0.000000000000    0.927453030000    0.000000000000    0.004095063800    -0.000000000000    -0.005652608800    0.000000000000
            0.927453200000    0.000000000000    0.070708320000    -0.000000000000    -0.005658911300    0.000000000000    0.004427848700    -0.000000000000
            0.004938783000    0.000000000000    -0.005049123400    -0.000000000000    0.070364322000    -0.000000000000    0.927681010000    0.000000000000
            -0.005042870600    -0.000000000000    0.005271227300    0.000000000000    0.927680840000    0.000000000000    0.069974773000    -0.000000000000
0.025     0.156223808360    -0.002146207709    0.284400315094    -0.868617812715    0.088563301968    0.026545410957    -0.013754781035    0.011126017764
            0.284400296823    -0.868617808176    0.156231000900    -0.002130728215    -0.013753157401    0.011124994313    0.088561710040    0.026543965184
            0.089166638320    0.026002721875    -0.013476067181    0.010549809090    0.156704806564    -0.001591694618    0.283361946734    -0.869227599340
            -0.013477253233    0.010550544113    0.089165624469    0.026000997685    0.283361980175    -0.869227598957    0.156703140780    -0.001595205429
0.050     0.060712859623    -0.078429889119    -0.735576488302    -0.551433713061    0.034287039763    -0.035632501959    -0.003262001215    0.013558083200
            -0.735576480301    -0.551433707063    0.060712497889    -0.078429792285    -0.003262021405    0.013559030764    0.034286997881    -0.035632538096
            0.034253961483    -0.036525981318    -0.003767509678    0.013014352050    0.060949359635    -0.079118807478    -0.737189426989    -0.549976785728
            -0.003767476715    0.013013404858    0.034253835834    -0.036526078586    -0.737189435004    -0.549976791707    0.060951040947    -0.079118630674
0.075     0.092046120804    0.063356918237    -0.732933464246    0.529397616289    0.070669485785    0.072922020335    0.035989867126    0.023645017220
            -0.732933464246    0.529397616289    0.092046132199    0.063356795859    0.035990059074    0.023645167608    0.070669342969    0.072922033411
            0.070105215325    0.072417053274    0.035266264709    0.024035254644    0.091567792415    0.063932881626    -0.731408931919    0.532544256889
            0.035266073532    0.024035107224    0.070105045293    0.072417092613    -0.731408931919    0.532544256889    0.091570343745    0.063929454429
0.100     0.203723561653    -0.078301061589    0.240114238580    0.844441831421    0.162442110438    -0.052132959017    0.013965672481    -0.043769632319
            0.240114238580    0.844441831421    0.203723261075    -0.078301341909    0.013965366245    -0.043770165641    0.162442110438    -0.052132959017
            0.161708575304    -0.052339699080    0.014132578959    -0.042925372663    0.204529550070    -0.078043640996    0.244538368671    0.843468206249
            0.014132884395    -0.042924842556    0.161708562136    -0.052339707290    0.244538383393    0.843468201981    0.204529916054    -0.078044336816
0.125     0.030144906364    -0.113052839452    0.897348084979    0.057571083587    0.014763813198    -0.082464544390    -0.012110044931    -0.019888197803
            0.897347834154    0.057570932250    0.030170439621    -0.113109731220    -0.012089870671    -0.019907285731    0.014554727568    -0.082263261651
            0.013800510598    -0.081943426360    -0.011145272481    -0.019923953007    0.030741352221    -0.113154138526    0.897864886247    0.052124894343
            -0.011165446516    -0.019904869485    0.013591263995    -0.081742136526    0.897865159317    0.052125021833    0.030790746099    -0.113179540111
0.150     0.125573178203    0.007370031428    0.313759969907    -0.834415512723    0.093353171922    0.016700931869    -0.053953088693    -0.003783980872
            0.313760080343    -0.834415364360    0.125552098361    0.007357967386    -0.053981832523    -0.003833490980    0.093200644127    0.016715066817
            0.093415737868    0.017750961431    -0.053842388349    -0.004729120904    0.126858429956    0.006856010973    0.307728721949    -0.836865178415
            -0.053813638886    -0.004679597583    0.093263234950    0.017765159690    0.307728562330    -0.836865375620    0.126860044966    0.006848731019
0.175     0.145860874394    -0.180251742041    -0.654037939075    -0.561368644253    0.100718711083    -0.132246065594    0.006455056758    0.055449273814
            -0.654037871451    -0.561368784456    0.145854330109    -0.180298366342    0.006378908345    0.055467509264    0.100739325556    -0.132058005037
            0.101264937657    -0.131807514665    0.005675452619    0.055098505657    0.146063667034    -0.181520364580    -0.658783209898    -0.555829641692
            0.005751608046    0.055080258068    0.101285582535    -0.131619442307    -0.658783202255    -0.555829635243    0.146096501127    -0.181526339422
0.200     -0.044983792554    -0.145703193595    -0.767655742249    0.427050617101    -0.046096156614    -0.095186234534    0.028272383256    0.008552160038
            -0.767655777204    0.427050636547    -0.045029859539    -0.145723994986    0.028259094961    0.008659022935    -0.046016434431    -0.095188337036
            -0.045555676721    -0.094890787780    0.027648244301    0.009220601126    -0.044159421976    -0.145740286615    -0.763421676617    0.434384178706
            0.027661514991    0.009113730304    -0.045475968805    -0.094892886429    -0.763421609494    0.434384316893    -0.044127226719    -0.145793648451
0.225     0.037254606542    -0.064214137148    0.175998018511    0.870831257703    0.023752206136    -0.039145235619    0.042480247008    -0.014874255143
            0.175998087230    0.870831284624    0.037234912688    -0.064217193330    0.042609091554    -0.014820352656    0.023760885164    -0.039145888587
            0.024167806206    -0.039317400390    0.043039467458    -0.014073738110    0.038375295782    -0.065637031814    0.185204172781    0.868480412153
            0.042910626190    -0.014127628426    0.024176687132    -0.039318049280    0.185204248570    0.868480395991    0.038361400225    -0.065656754566
0.250     0.026708293614    -0.163713383003    0.864055633212    0.109823873658    0.003863719499    -0.088243395407    -0.010501421532    -0.053544148952
            0.864055671023    0.109823814102    0.026687388727    -0.163736154270    -0.010393246022    -0.053667923859    0.003868449279    -0.088244561505
            0.004236132506    -0.089391153836    -0.009704478570    -0.053800306853    0.024235608251    -0.165749051206    0.864874143936    0.099972675467
            -0.009812626205    -0.053676560658    0.004240907247    -0.089392325010    0.864874161373    0.099972611707    0.024294609594    -0.165776322976
0.275     -0.075618181808    -0.076344612394    0.390445475078    -0.781622194716    -0.031280848255    -0.017811888841    -0.051179903611    -0.015521410816
            0.390445420275    -0.781622255627    -0.075649231383    -0.076345678894    -0.051278879753    -0.015696612331    -0.031283057569    -0.017810775425
            -0.031933787708    -0.018624922607    -0.051091647540    -0.016392471524    -0.075170453577    -0.075307732396    0.380495072158    -0.786436579330
            -0.050992714146    -0.016217266770    -0.031936029476    -0.018623839788    0.380495016595    -0.786436639539    -0.075179223643    -0.075400826684
0.300     0.006555481938    -0.036140443169    -0.618766459095    -0.617701679916    0.021477186938    -0.028164220604    -0.043278698922    0.050390140844
            -0.618766487404    -0.617701708176    0.006542041979    -0.036146713769    -0.043512517436    0.050437457719    0.021480526699    -0.028164463009
            0.020763571137    -0.028297716786    -0.044179025498    0.049989216173    0.007349481434    -0.039614431045    -0.627093063557    -0.608695007771
            -0.043945192908    0.049941932329    0.020766918444    -0.028297914854    -0.627093092259    -0.608695035631    0.007348791305    -0.039619717597
0.325     -0.017703134812    -0.075604172578    -0.777822470527    0.385499211254    -0.013385994179    -0.027193124827    0.038178368669    0.063154656398
            -0.777822448045    0.385499369213    -0.017728835941    -0.075615830824    0.038138896899    0.063433900321    -0.013392541442    -0.027193715451
            -0.014131069623    -0.027069458564    0.037491244108    0.063978323600    -0.021073096768    -0.075555888607    -0.771677970257    0.396781697343
            0.037530750636    0.063699064937    -0.014137591903    -0.027070100655    -0.771678014723    0.396781720207    -0.021029378675    -0.075654460503
0.350     -0.003235390729    -0.036871816295    0.117174399309    0.855302938467    0.040356682363    -0.014041783693    0.083549855840    -0.016166882962
            0.117174571659    0.855302975416    -0.003256449173    -0.036884961559    0.083849509301    -0.016015709203    0.040358716647    -0.014033009854
            0.039724214963    -0.013276940297    0.084209274818    -0.015187938335    -0.000284104814    -0.035228594422    0.131020444540    0.853055854397
            0.083909587679    -0.015339155485    0.039726186868    -0.013268144562    0.131020617423    0.853055888547    -0.000351013705    -0.035282041962
0.375     0.003208070558    -0.103180669737    0.835298762085    0.162943731125    0.006361351115    -0.099056419858    0.004879183754    -0.092804895850
            0.835298873449    0.162943525846    0.003157981451    -0.103210017936    0.005168946414    -0.093075326550    0.006362715460    -0.099062498913
            0.006548289418    -0.097983525001    0.006129178197    -0.093240492917    0.004056010459    -0.107539988329    0.837241544927    0.148271521069
            0.005839386273    -0.092970003455    0.006549709663    -0.097989584779    0.837241642825    0.148271312342    0.004118996994    -0.107549653072
0.400     -0.074690412644    -0.067500896487    0.428041809605    -0.732357723148    -0.063638037430    -0.032765597276    -0.084552186670    -0.036423634178
            0.428041584240    -0.732357924364    -0.074759804031    -0.067489685060    -0.084741291447    -0.036881494042    -0.063647056383    -0.032758254337
            -0.062697364643    -0.032140469415    -0.084714892901    -0.037906319380    -0.076016691046    -0.066702435480    0.414552224917    -0.739434360057
            -0.084525730819    -0.037448441409    -0.062706436376    -0.032133166142    0.414551991257    -0.739434548376    -0.076006347914    -0.066850528367
0.425     -0.020925495353    -0.058830073292    -0.560610600799    -0.633597077404    0.006308176201    -0.048456305176    -0.077215060285    0.076283967162
            -0.560610821966    -0.633596881714    -0.020984861747    -0.058843211598    -0.077847149605    0.076322963653    0.006317587627    -0.048450840465
            0.007076138521    -0.048864545830    -0.078840376564    0.076123114849    -0.019514246440    -0.060654693000    -0.572725234548    -0.622002059223
            -0.078208296149    0.076084101984    0.007085567006    -0.048858997257    -0.572725458442    -0.622001866660    -0.019538284287    -0.060657357217
0.450     -0.086062907191    -0.162110589749    -0.755867351988    0.317741879314    -0.075460389993    -0.100205420790    0.070067222221    0.095701224249
            -0.755867157963    0.317742263459    -0.086218772190    -0.162121091659    0.069828487091    0.096495303654    -0.075470739996    -0.100212285568
            -0.075125782641    -0.100933601562    0.069441540089    0.097342846901    -0.089434197515    -0.167914393851    -0.747670281719    0.332711024009
            0.069680258012    0.096548792248    -0.075136086500    -0.100940529835    -0.747670089239    0.332711407357    -0.089276837172    -0.167999731545
0.475     -0.194667484464    -0.007754200564    0.030530338449    0.811698985915    -0.118605387791    0.025462844668    0.095423005230    -0.033918819051
            0.030531044159    0.811698889322    -0.194834505976    -0.007595945418    0.096373781034    -0.033146988197    -0.118606759152    0.025478795982
            -0.118464339425    0.024833110549    0.097090814453    -0.032527843832    -0.195574764149    -0.006872307233    0.047163405705    0.809811965515
            0.096140046611    -0.033299667530    -0.118465772170    0.024849081830    0.047164109492    0.809811874442    -0.195533503650    -0.007129290970
0.500     -0.037761163595    0.041583113586    0.794953799156    0.240873007646    -0.012953256670    0.033901925487    0.021787458785    -0.101706328368
            0.794953858656    0.240871707765    -0.037802407957    0.041717645106    0.023704091069    -0.102784404408    -0.012948032962    0.033892884394
            -0.013293650258    0.032821436278    0.024441580966    -0.103433359657    -0.036460465560    0.034967444489    0.799636826251    0.222645951818
            0.022524906955    -0.102355280287    -0.013288351886    0.032812403643    0.799636904218    0.222644665198    -0.036464943444    0.034832656775
0.525     -0.129213713062    -0.072841377790    0.459967658729    -0.670892115520    -0.079065317584    -0.014651421143    -0.113538596063    -0.056457531905
            0.459964929100    -0.670893004873    -0.129909781992    -0.072684871342    -0.113748746304    -0.062325326404    -0.079102397247    -0.014633289331
            -0.080472817480    -0.014889129883    -0.114223880590    -0.062971370213    -0.137540394931    -0.074582418907    0.443182473667    -0.679993124738
            -0.114013574925    -0.057103427545    -0.080509951359    -0.014871063749    0.443179719727    -0.679994036307    -0.136886315678    -0.074863408150
0.550     -0.182479293623    0.119643540071    -0.456508288439    -0.648163370175    -0.069153700645    0.084866935879    -0.074220866454    0.089967409575
            -0.456509583435    -0.648167852108    -0.183488535857    0.118043578131    -0.064679829691    0.082198095899    -0.069179456395    0.084903506478
            -0.069897168871    0.085813861055    -0.065259852862    0.082334638162    -0.182402696916    0.120538160253    -0.470766119139    -0.636757365333
            -0.074800439127    0.090104219866    -0.069922934906    0.085850512763    -0.470767383424    -0.636761865243    -0.181522276827    0.122107128914
0.575     0.013638505616    0.113790977593    -0.781011710196    0.211624405876    0.017516034182    0.044434447407    0.042330174920    0.104589317860
            -0.781013527342    0.211623435047    0.013381035586    0.113712152592    0.041971835493    0.099486565911    0.017536055066    0.044429240896
            0.017543260767    0.045172213158    0.041815698672    0.100092060105    0.012054866187    0.107867184996    -0.775097131197    0.231335637667
            0.042174099781    0.105194700422    0.017563327959    0.045166984362    -0.775098924389    0.231334699555    0.012296781386    0.107908778006
0.600     -0.059851633937    0.004941891777    -0.038399708435    0.810704061581    -0.042381199993    0.015804610515    0.132614160776    -0.004208115993
            -0.038400049235    0.810705867479    -0.059891867496    0.004595957464    0.128297388569    -0.002968239291    -0.042408176449    0.015810986241
            -0.042290356995    0.016516004756    0.128877044925    -0.002657431675    -0.064597301909    0.007380582278    -0.017051823698    0.810166422361
            0.133193733220    -0.003897324907    -0.042317392691    0.016522375341    -0.017052144377    0.810168216010    -0.064657476936    0.007603321910
0.625     -0.050476577323    0.102368849385    0.743786760763    0.298324067778    -0.005753114442    0.054382134213    0.035682767940    -0.127263560233
            0.743787496255    0.298323684630    -0.050624789452    0.102474024797    0.037470729350    -0.126016081991    -0.005730014952    0.054392302502
            -0.004890737402    0.055113742996    0.037919983451    -0.126422217314    -0.046119866662    0.100944891986    0.751181276395    0.278228231196
            0.036132030248    -0.127669678401    -0.004867599519    0.055123965019    0.751181987063    0.278227838414    -0.046089170355    0.100833470211
0.650     0.000111998385    0.025498359032    0.522177129725    -0.609603335160    -0.023410263177    -0.005532635906    -0.113330980434    -0.087857207223
            0.522176986730    -0.609603641987    0.000067552205    0.025490132489    -0.112930887958    -0.088507439607    -0.023418622087    -0.005540373059
            -0.022180228204    -0.005864017214    -0.113159425263    -0.089146355669    -0.004395478594    0.020340927916    0.504042011781    -0.624205887281
            -0.113559462122    -0.088496071969    -0.022188567276    -0.005871815733    0.504041858386    -0.624206165384    -0.004369154343    0.020266475917
0.675     -0.070627504446    0.056383395977    -0.403519735482    -0.680260650850    -0.061654681778    0.065557316312    -0.122868363128    0.089691163085
            -0.403519869516    -0.680260606225    -0.070662733180    0.056425716853    -0.123089533202    0.089471013348    -0.061655438408    0.065579974338
            -0.061181377297    0.064508531386    -0.123867231031    0.089587156345    -0.069746830614    0.058257486855    -0.423049119677    -0.667617886061
            -0.123646048550    0.089807210507    -0.061182180211    0.064531232425    -0.423049252256    -0.667617837566    -0.069861520750    0.058110185838
0.700     -0.005357526371    0.045650543723    -0.774169575367    0.161274910575    0.005341641184    0.043180703252    0.041216480216    0.152934790103
            -0.774169537429    0.161275043654    -0.005357014743    0.045661645999    0.041093549776    0.153003145019    0.005359121424    0.043177808730
            0.004982672944    0.042202472081    0.041110232478    0.153835521813    -0.005329112342    0.035827551082    -0.768761086453    0.185763178702
            0.041233058804    0.153767186037    0.005000233981    0.042199570287    -0.768761086453    0.185763178702    -0.005405335756    0.035817238858
0.725     -0.138445642456    0.024374705651    -0.081656013464    0.763468588662    -0.091047328384    0.049758552722    0.179028086633    -0.005693912951
            -0.081655971362    0.763468573051    -0.138459529506    0.024391676198    0.179030835296    -0.005644393918    -0.091063873856    0.049760556788
            -0.091845605619    0.049283119679    0.179829117713    -0.005546720548    -0.148649642711    0.025126833986    -0.056386030031    0.763925705283
            0.179826416106    -0.005596137771    -0.091862215454    0.049285073706    -0.056385989295    0.763925698262    -0.148696298984    0.024966366468
0.750     -0.082817155723    0.217729523330    0.659895450434    0.339632567405    -0.019653983817    0.161542606879    0.028226317161    -0.158074815812
            0.659895453398    0.339632539794    -0.082811898038    0.217741890281    0.028243804119    -0.158054189382    -0.019640749013    0.161566197191
            -0.020289106817    0.161367039887    0.028529958240    -0.158788439556    -0.079082366586    0.219420096895    0.669499062272    0.318503215615
            0.028512571929    -0.158809098428    -0.020275863354    0.161390696017    0.669499067831    0.318503203930    -0.079276881400    0.219341875970
0.775     0.068051152640    0.100210708857    0.564048075943    -0.522276595408    0.056747237557    0.057282908209    -0.116271898230    -0.097012245221
            0.564048053930    -0.522276575025    0.068049879688    0.100210956809    -0.116267405407    -0.097013384222    0.056758334046    0.057271227714
            0.055601259439    0.057676616379    -0.117075209802    -0.097407693801    0.061698312539    0.090238245624    0.545759956762    -0.542377014970
