# GHz S RI R 45
0.000     0.073180432000    -0.000000000000    0.000017769998    -0.000000000000    0.003404436600    0.000000000000    0.000016709512    0.000000000000
            0.000025161812    -0.000000000000    0.070708320000    -0.000000000000    -0.000020732428    0.000000000000    0.004427848700    -0.000000000000
            0.003832860200    0.000000000000    -0.000077801822    -0.000000000000    0.071093434000    -0.000000000000    0.000013848008    0.000000000000
            -0.000020619698    -0.000000000000    0.005271227300    0.000000000000    0.000003322745    -0.000000000000    0.069974773000    -0.000000000000
0.025     0.155898131582    -0.004416944012    -0.000046404723    -0.000014392978    0.089105564397    0.026754304177    -0.000039898411    -0.000015504389
            -0.000031613115    -0.000031654722    0.156231000900    -0.002130728215    -0.000050535506    -0.000001083222    0.088561710040    0.026543965184
            0.089209749963    0.026380262138    -0.000085608447    0.000071538147    0.155508001026    -0.002874731621    -0.000052632713    -0.000019375988
            -0.000038180381    0.000015236900    0.089165624469    0.026000997685    -0.000038020324    -0.000021768295    0.156703140780    -0.001595205429
0.050     0.058498595403    -0.076484016427    -0.000064831808    0.000076480646    0.033931538187    -0.035731818719    -0.000063535061    0.000070283038
            -0.000092730954    0.000064454084    0.060712497889    -0.078429792285    -0.000087295277    0.000118526179    0.034286997881    -0.035632538096
            0.033594177642    -0.035848462623    -0.000002533182    0.000152375115    0.058510450883    -0.075784864555    -0.000080240759    0.000097553499
            -0.000039129754    0.000078077301    0.034253835834    -0.036526078586    -0.000094100210    0.000094699870    0.060951040947    -0.079118630674
0.075     0.095841443475    0.063891177538    0.000116777576    0.000091956367    0.071982801245    0.072225355816    0.000114791819    0.000083080513
            0.000111577502    0.000107508754    0.092046132199    0.063356795859    0.000190537198    0.000110295927    0.070669342969    0.072922033411
            0.072004091210    0.072296209168    0.000215319649    0.000060872697    0.096484698334    0.065353028356    0.000145667221    0.000110570540
            0.000132675963    0.000052392845    0.070105045293    0.072417092613    0.000159457824    0.000102758233    0.091570343745    0.063929454429
0.100     0.201914520313    -0.082878045239    0.000117828887    -0.000048508411    0.160605876863    -0.054406801946    0.000097977134    -0.000054062808
            0.000118535060    -0.000028211992    0.203723261075    -0.078301341909    0.000133692904    -0.000093530691    0.162442110438    -0.052132959017
            0.160270498193    -0.054700267703    0.000128245111    -0.000150338217    0.203772354892    -0.082796290935    0.000141824402    -0.000071953362
            0.000063493070    -0.000071726305    0.161708562136    -0.052339707290    0.000110271135    -0.000072243549    0.204529916054    -0.078044336816
0.125     0.026649045208    -0.109703895046    0.000030457285    -0.000236104624    0.013055313764    -0.080256552763    0.000021517000    -0.000210873704
            0.000074149126    -0.000244845043    0.030170439621    -0.113109731220    0.000041665363    -0.000295126555    0.014554727568    -0.082263261651
            0.012463253435    -0.079568129139    -0.000063577492    -0.000295129705    0.028100189771    -0.110459711488    0.000023183260    -0.000275098050
            0.000008542950    -0.000180151677    0.013591263995    -0.081742136526    0.000048350493    -0.000243993896    0.030790746099    -0.113179540111
0.150     0.128183570893    0.005025074520    -0.000261108398    0.000006385638    0.094193652271    0.013636011473    -0.000246826697    0.000018804349
            -0.000290641189    -0.000037118107    0.125552098361    0.007357967386    -0.000385152267    -0.000022987971    0.093200644127    0.016715066817
            0.094999132249    0.014228548398    -0.000352428741    0.000077926315    0.129751165488    0.003109087475    -0.000322366694    -0.000003176127
            -0.000233586761    0.000036564802    0.093263234950    0.017765159690    -0.000322274505    -0.000023950829    0.126860044966    0.006848731019
0.175     0.138951837540    -0.183090312228    -0.000122317900    0.000135399359    0.093908375795    -0.132988603434    -0.000080790327    0.000135977688
            -0.000146908905    0.000157889932    0.145854330109    -0.180298366342    -0.000145106073    0.000259747659    0.100739325556    -0.132058005037
            0.094282087976    -0.133461299660    -0.000088441901    0.000245438935    0.138113225089    -0.185910049955    -0.000129021055    0.000204730650
            -0.000048434305    0.000129945117    0.101285582535    -0.131619442307    -0.000115986659    0.000207379319    0.146096501127    -0.181526339422
0.200     -0.048963774507    -0.140094444253    0.000108539009    0.000351519160    -0.048061238679    -0.089353682150    0.000107308480    0.000287257782
            0.000111336778    0.000371462483    -0.045029859539    -0.145723994986    0.000190978139    0.000402825571    -0.046016434431    -0.095188337036
            -0.048163444417    -0.089235092494    0.000224068919    0.000368383644    -0.050418061559    -0.140458768131    0.000155746328    0.000368291366
            0.000103391935    0.000243917811    -0.045475968805    -0.094892886429    0.000138825682    0.000335037608    -0.044127226719    -0.145793648451
0.225     0.033801834601    -0.064792269522    0.000384507915    -0.000134154438    0.021057288861    -0.039520735226    0.000328245790    -0.000145846083
            0.000415990875    -0.000125036851    0.037234912688    -0.064217193330    0.000497197032    -0.000177911846    0.023760885164    -0.039145888587
            0.021257688099    -0.039711631993    0.000448480273    -0.000246046047    0.033406721310    -0.065510538083    0.000437977436    -0.000168040954
            0.000286451079    -0.000142220166    0.024176687132    -0.039318049280    0.000413837907    -0.000135347672    0.038361400225    -0.065656754566
0.250     0.019589066642    -0.158626583029    0.000031370183    -0.000351180760    -0.001560985288    -0.083321678187    -0.000013799654    -0.000302455666
            0.000039462113    -0.000387281281    0.026687388727    -0.163736154270    0.000008469368    -0.000505184031    0.003868449279    -0.088244561505
            -0.001660199989    -0.084485110446    -0.000052366182    -0.000450007599    0.016598061934    -0.159793787787    0.000000062331    -0.000425864165
            -0.000021773641    -0.000265116353    0.004240907247    -0.089392325010    0.000018417542    -0.000412230298    0.024294609594    -0.165776322976
0.275     -0.076779537414    -0.070702037797    -0.000445492636    -0.000247770361    -0.029959331370    -0.013652515072    -0.000394261257    -0.000176513718
            -0.000471560908    -0.000256179179    -0.075649231383    -0.076345678894    -0.000602328200    -0.000261955883    -0.031283057569    -0.017810775425
            -0.031120503251    -0.013895297003    -0.000572154587    -0.000213092420    -0.077395869114    -0.068115250840    -0.000517762833    -0.000237012294
            -0.000356876350    -0.000155237211    -0.031936029476    -0.018623839788    -0.000495432467    -0.000235610287    -0.075179223643    -0.075400826684
0.300     0.001667717435    -0.031243396751    -0.000330351133    0.000455596861    0.018149730453    -0.026295136346    -0.000247176279    0.000423249230
            -0.000347813829    0.000469753226    0.006542041979    -0.036146713769    -0.000400905949    0.000595940095    0.021480526699    -0.028164463009
            0.017664416106    -0.025564800426    -0.000348267903    0.000599337319    0.003655127041    -0.032397176909    -0.000352115169    0.000531294043
            -0.000217708194    0.000386935215    0.020766918444    -0.028297914854    -0.000342964934    0.000497035144    0.007348791305    -0.039619717597
0.325     -0.017590685570    -0.067402418564    0.000312093317    0.000471421450    -0.013383920579    -0.022049275866    0.000313827118    0.000373237167
            0.000321317035    0.000498040713    -0.017728835941    -0.075615830824    0.000430611900    0.000603634712    -0.013392541442    -0.027193715451
            -0.013281073406    -0.021741282914    0.000447520712    0.000540180861    -0.019070661729    -0.068276428055    0.000384961592    0.000519161285
            0.000285078711    0.000338146340    -0.014137591903    -0.027070100655    0.000352374556    0.000508381282    -0.021029378675    -0.075654460503
0.350     -0.005022251036    -0.035938335141    0.000618604866    -0.000213794742    0.037684068127    -0.014748120754    0.000515243174    -0.000250657079
            0.000646181168    -0.000217555483    -0.003256449173    -0.036884961559    0.000794239442    -0.000296554889    0.040358716647    -0.014033009854
            0.037347793827    -0.014455839802    0.000738551264    -0.000320959640    -0.003401631241    -0.035237362873    0.000694558944    -0.000275556989
            0.000473797305    -0.000232138058    0.039726186868    -0.013268144562    0.000674028020    -0.000253106729    -0.000351013705    -0.035282041962
0.375     -0.004864031539    -0.095644897440    -0.000059204822    -0.000598856118    -0.001016302592    -0.092501404167    -0.000136836254    -0.000503326162
            -0.000049225539    -0.000623390984    0.003157981451    -0.103210017936    -0.000084449512    -0.000786235819    0.006362715460    -0.099062498913
            -0.000790237787    -0.091360312411    -0.000124220503    -0.000752960520    -0.004249719923    -0.099035103542    -0.000108494950    -0.000688841465
            -0.000128315189    -0.000457708411    0.006549709663    -0.097989584779    -0.000090041487    -0.000652817224    0.004118996994    -0.107549653072
0.400     -0.075853175728    -0.057163764493    -0.000580303930    -0.000239330722    -0.064750319029    -0.025150220480    -0.000502597800    -0.000128339288
            -0.000606701055    -0.000266560357    -0.074759804031    -0.067489685060    -0.000770721415    -0.000304242929    -0.063647056383    -0.032758254337
            -0.063079830415    -0.024927899263    -0.000750497768    -0.000237860871    -0.077558031629    -0.057689218584    -0.000672372020    -0.000227337804
            -0.000456815451    -0.000126380609    -0.062706436376    -0.032133166142    -0.000628883741    -0.000247030855    -0.076006347914    -0.066850528367
0.425     -0.027651111424    -0.051144119764    -0.000406247903    0.000606066422    -0.001117425376    -0.042643031909    -0.000268684207    0.000572502388
            -0.000442591274    0.000640361451    -0.020984861747    -0.058843211598    -0.000543723094    0.000812324080    0.006317587627    -0.048450840465
            -0.000738247245    -0.043539452655    -0.000466333477    0.000783599227    -0.027216904365    -0.052559909628    -0.000427553995    0.000720730724
            -0.000256274113    0.000531564419    0.007085567006    -0.048858997257    -0.000442659459    0.000687288923    -0.019538284287    -0.060657357217
0.450     -0.098661287798    -0.147889888538    0.000428489992    0.000447468694    -0.081352010204    -0.086052997711    0.000450522764    0.000276017436
            0.000459885985    0.000479997849    -0.086218772190    -0.162121091659    0.000609128875    0.000602295759    -0.075470739996    -0.100212285568
            -0.082208609902    -0.086384797233    0.000583392552    0.000547120565    -0.102534087066    -0.150079894690    0.000549103244    0.000461822099
            0.000417792044    0.000252611809    -0.075136086500    -0.100940529835    0.000525931331    0.000455373188    -0.089276837172    -0.167999731545
0.475     -0.194824136400    0.016825466993    0.000629427321    -0.000063428705    -0.115690336304    0.040370451984    0.000447478886    -0.000119084453
            0.000664410256    -0.000078760814    -0.194834505976    -0.007595945418    0.000812056810    -0.000138882236    -0.118606759152    0.025478795982
            -0.115291549127    0.040363706065    0.000776433323    -0.000147340583    -0.194984973661    0.019180531509    0.000658334779    -0.000122016042
            0.000414074580    -0.000098075468    -0.118465772170    0.024849081830    0.000628765823    -0.000096180272    -0.195533503650    -0.007129290970
0.500     -0.030536377440    0.054357505590    0.000147488650    -0.000883223122    -0.009230760019    0.043694119980    0.000044217005    -0.000736886908
            0.000146909898    -0.000929281608    -0.037802407957    0.041717645106    0.000174191098    -0.001131259206    -0.012948032962    0.033892884394
            -0.009754018115    0.042170810891    0.000125038148    -0.001088376842    -0.029397178361    0.049930515253    0.000124972259    -0.000978773509
            0.000053728952    -0.000693069650    -0.013288351886    0.032812403643    0.000161203736    -0.000940220675    -0.036464943444    0.034832656775
0.525     -0.134279496003    -0.055433414437    -0.000761494641    -0.000202252635    -0.077267298150    -0.001852708530    -0.000647286056    -0.000029360258
            -0.000815418876    -0.000201334273    -0.129909781992    -0.072684871342    -0.001027410756    -0.000267762734    -0.079102397247    -0.014633289331
            -0.079319931390    -0.001204155299    -0.000962413283    -0.000218678073    -0.140055176925    -0.055123490510    -0.000859932594    -0.000161381927
            -0.000599825179    -0.000029841441    -0.080509951359    -0.014871063749    -0.000832500174    -0.000189963619    -0.136886315678    -0.074863408150
0.550     -0.168513649157    0.148509315622    -0.000571721474    0.000443252120    -0.058634506166    0.099927668446    -0.000365814358    0.000366840406
            -0.000571613374    0.000487683452    -0.183488535857    0.118043578131    -0.000704333165    0.000639085457    -0.069179456395    0.084903506478
            -0.058450689827    0.101688576152    -0.000674226998    0.000587008704    -0.165658553136    0.151563322337    -0.000577316254    0.000500254069
            -0.000355827025    0.000322761502    -0.069922934906    0.085850512763    -0.000582080198    0.000475098202    -0.181522276827    0.122107128914
0.575     0.033495664957    0.118833059439    0.000341859334    0.001000183182    0.025740143700    0.048670959330    0.000343401716    0.000790879259
            0.000374071188    0.001010026081    0.013381035586    0.113712152592    0.000474338323    0.001224586745    0.017536055066    0.044429240896
            0.026647853822    0.048828296141    0.000455431802    0.001197277299    0.033471741445    0.112841381336    0.000412339248    0.001079091699
            0.000306524512    0.000767923002    0.017563327959    0.045166984362    0.000378432373    0.001063984568    0.012296781386    0.107908778006
0.600     -0.060499581030    0.014914793747    0.001028998240    -0.000269811361    -0.042606068377    0.025638185641    0.000804350189    -0.000346226649
            0.001050113152    -0.000292089661    -0.059891867496    0.004595957464    0.001296570523    -0.000336295910    -0.042408176449    0.015810986241
            -0.042664160456    0.025880833378    0.001252501309    -0.000343443343    -0.065438196775    0.017365990006    0.001101619858    -0.000339096074
            0.000769091515    -0.000317392606    -0.042317392691    0.016522375341    0.001080608884    -0.000300471857    -0.064657476936    0.007603321910
0.625     -0.035502359929    0.119284257163    0.000202018791    -0.001002352639    0.003132153340    0.065655206061    0.000068986619    -0.000813298359
            0.000187692720    -0.001028310197    -0.050624789452    0.102474024797    0.000237582587    -0.001288101195    -0.005730014952    0.054392302502
            0.003981969282    0.066352582873    0.000228146276    -0.001235414309    -0.031550019643    0.119207718424    0.000194177476    -0.001102622117
            0.000089848147    -0.000768998308    -0.004867599519    0.055123965019    0.000222943199    -0.001076485188    -0.046089170355    0.100833470211
0.650     0.006117082647    0.028321432337    -0.001151661368    -0.000525217172    -0.021744620394    0.000682672223    -0.001018632266    -0.000309741667
            -0.001176749494    -0.000524642126    0.000067552205    0.025490132489    -0.001437182735    -0.000645160317    -0.023418622087    -0.005540373059
            -0.020223556430    0.000030214053    -0.001397081736    -0.000632424152    0.002798691222    0.024539061630    -0.001287662650    -0.000519914625
            -0.000973148773    -0.000323479992    -0.022188567276    -0.005871815733    -0.001251950854    -0.000536828155    -0.004369154343    0.020266475917
0.675     -0.065351880889    0.076168751901    -0.000662782042    0.000898033232    -0.054946451674    0.084032392732    -0.000408977794    0.000811000495
            -0.000679807855    0.000925340636    -0.070662733180    0.056425716853    -0.000867886035    0.001118730010    -0.061655438408    0.065579974338
            -0.054953009972    0.082128099234    -0.000835107767    0.001093550746    -0.064776492045    0.078634260391    -0.000686891770    0.000991704773
            -0.000407982357    0.000771908428    -0.061182180211    0.064531232425    -0.000695490038    0.000949379435    -0.069861520750    0.058110185838
0.700     0.006403842230    0.053972840874    0.000586702175    0.001127554619    0.017817135238    0.050573504927    0.000608946463    0.000867539379
            0.000619219648    0.001156891218    -0.005357014743    0.045661645999    0.000753018366    0.001435004196    0.005359121424    0.043177808730
            0.016138544342    0.050099958839    0.000724854485    0.001383329317    0.006939673340    0.048289745379    0.000701621233    0.001221266674
            0.000570594649    0.000849670654    0.005000233981    0.042199570287    0.000659538955    0.001222663763    -0.005405335756    0.035817238858
0.725     -0.138414714996    0.052842319764    0.001183649658    -0.000619214419    -0.084620054186    0.068496389334    0.000876092231    -0.000729862354
            0.001214276436    -0.000649017411    -0.138459529506    0.024391676198    0.001487083274    -0.000736608641    -0.091063873856    0.049760556788
            -0.084784106489    0.069188452692    0.001446441786    -0.000704719033    -0.143225514596    0.055239706168    0.001215195241    -0.000739728509
            0.000855659469    -0.000693615469    -0.091862215454    0.049285073706    0.001205706147    -0.000706361144    -0.148696298984    0.024966366468
0.750     -0.044397465037    0.242829034815    -0.000082343396    -0.000869782398    0.007734695130    0.173412671076    -0.000218640539    -0.000607710426
            -0.000098120817    -0.000908123649    -0.082811898038    0.217741890281    -0.000040045214    -0.001134899817    -0.019640749013    0.161566197191
            0.007552757793    0.172619137759    -0.000034508203    -0.001107243992    -0.038684265355    0.242307326106    -0.000070778290    -0.000896122220
            -0.000200378078    -0.000589177677    -0.020275863354    0.161390696017    -0.000044621319    -0.000871776981    -0.079276881400    0.219341875970
0.775     0.087330691783    0.090951273775    -0.001014629670    -0.000721449501    0.068558851717    0.051602638426    -0.000874533832    -0.000494373854
            -0.001070442343    -0.000709940562    0.068049879688    0.100210956809    -0.001319199205    -0.000918813309    0.056758334046    0.057271227714
            0.066492027190    0.052415684718    -0.001275925027    -0.000892091442    0.081772933351    0.082610543280    -0.001155097151    -0.000777894152
