# GHz S RI R 45
0.000     0.071390130000    0.000000000000    -0.000001489544    0.000000000000    0.003584424200    -0.000000000000    -0.000002505438    0.000000000000
            -0.000001489320    -0.000000000000    0.070708320000    -0.000000000000    -0.000001126914    -0.000000000000    0.004427848700    -0.000000000000
            0.004518388700    -0.000000000000    -0.000001126151    -0.000000000000    0.071674420000    -0.000000000000    -0.000002017021    -0.000000000000
            -0.000002500552    0.000000000000    0.005271227300    0.000000000000    -0.000002018764    0.000000000000    0.069974773000    -0.000000000000
0.025     0.156472123399    -0.001833050104    -0.000014749660    -0.000000550386    0.089021051132    0.027449567060    -0.000023659651    -0.000001195876
            -0.000014755701    -0.000000546934    0.156231000900    -0.002130728215    -0.000009176096    0.000000115142    0.088561710040    0.026543965184
            0.088730098581    0.026647675555    -0.000009175713    0.000000098374    0.156239572956    -0.002243518426    -0.000017665810    -0.000000697683
            -0.000023659395    -0.000001211276    0.089165624469    0.026000997685    -0.000017659256    -0.000000685660    0.156703140780    -0.001595205429
0.050     0.061220773597    -0.078467762534    -0.000020077651    0.000028233899    0.035235614782    -0.036191196053    -0.000030245567    0.000044282886
            -0.000020039497    0.000028254136    0.060712497889    -0.078429792285    -0.000013107292    0.000018071903    0.034286997881    -0.035632538096
            0.034463288900    -0.035596283025    -0.000013139639    0.000018100105    0.060442732229    -0.078130098529    -0.000023322097    0.000033574465
            -0.000030272297    0.000044311743    0.034253835834    -0.036526078586    -0.000023335999    0.000033526184    0.060951040947    -0.079118630674
0.075     0.091305046393    0.064711540907    0.000045146113    0.000028220112    0.069374436942    0.073592101042    0.000066933898    0.000046711381
            0.000045137392    0.000028138689    0.092046132199    0.063356795859    0.000031110115    0.000015905313    0.070669342969    0.072922033411
            0.070172614490    0.074056561339    0.000031132601    0.000015911093    0.092028260685    0.065608709242    0.000052279932    0.000034171906
            0.000066955642    0.000046711300    0.070105045293    0.072417092613    0.000052271382    0.000034253597    0.091570343745    0.063929454429
0.100     0.205758659658    -0.075774139163    0.000034226535    -0.000022382672    0.163859736508    -0.049058236870    0.000060133523    -0.000035323983
            0.000034147440    -0.000022373612    0.203723261075    -0.078301341909    0.000017403294    -0.000014367693    0.162442110438    -0.052132959017
            0.163918231894    -0.049938870253    0.000017448262    -0.000014327954    0.206613678497    -0.076708263141    0.000042836059    -0.000026678733
            0.000060175850    -0.000035285200    0.161708562136    -0.052339707290    0.000042875925    -0.000026726595    0.204529916054    -0.078044336816
0.125     0.031707487714    -0.112881115041    0.000010275023    -0.000075118954    0.017149076943    -0.082240651386    0.000012457963    -0.000118030882
            0.000010253507    -0.000075002093    0.030170439621    -0.113109731220    0.000007963183    -0.000047031295    0.014554727568    -0.082263261651
            0.016132340698    -0.081890772098    0.000007994516    -0.000047222069    0.031157289180    -0.113083446369    0.000010616872    -0.000089411075
            0.000012473446    -0.000118208207    0.013591263995    -0.081742136526    0.000010613689    -0.000089368482    0.030790746099    -0.113179540111
0.150     0.127687770883    0.011072846479    -0.000095453442    0.000000604491    0.094896811054    0.019014578950    -0.000147147162    -0.000007180401
            -0.000095295057    0.000000603987    0.125552098361    0.007357967386    -0.000061377079    0.000006206405    0.093200644127    0.016715066817
            0.095660956451    0.019865035031    -0.000061536883    0.000006363625    0.129110065827    0.011309710263    -0.000112442556    -0.000001423786
            -0.000147291159    -0.000007026436    0.093263234950    0.017765159690    -0.000112457308    -0.000001550062    0.126860044966    0.006848731019
0.175     0.152667242024    -0.178727999677    -0.000030103786    0.000054921659    0.105874388437    -0.130334178447    -0.000055768728    0.000093502814
            -0.000030109836    0.000054792850    0.145854330109    -0.180298366342    -0.000013418200    0.000030231244    0.100739325556    -0.132058005037
            0.106473942987    -0.131129200605    -0.000013327673    0.000030250433    0.153459623277    -0.180773712839    -0.000038386947    0.000067872330
            -0.000055671955    0.000093515476    0.101285582535    -0.131619442307    -0.000038469631    0.000067980585    0.146096501127    -0.181526339422
0.200     -0.040081568876    -0.147031042714    0.000034147864    0.000103816579    -0.041142272967    -0.096026689177    0.000061778052    0.000161286726
            0.000034018823    0.000103795071    -0.045029859539    -0.145723994986    0.000017670070    0.000065994426    -0.046016434431    -0.095188337036
            -0.041965447271    -0.096324998149    0.000017710458    0.000066063274    -0.040843697907    -0.147983960007    0.000044245746    0.000122665366
            0.000061819146    0.000161345130    -0.045475968805    -0.094892886429    0.000044349080    0.000122635786    -0.044127226719    -0.145793648451
0.225     0.045204832919    -0.064868369095    0.000126140097    -0.000044107918    0.030504016524    -0.040053036546    0.000198002049    -0.000065481955
            0.000126089183    -0.000044037210    0.037234912688    -0.064217193330    0.000078562393    -0.000031482608    0.023760885164    -0.039145888587
            0.030616742126    -0.039929473559    0.000078596752    -0.000031622127    0.045266688842    -0.065607966979    0.000149445498    -0.000052406832
            0.000198011073    -0.000065619138    0.024176687132    -0.039318049280    0.000149455455    -0.000052361436    0.038361400225    -0.065656754566
0.250     0.033558408308    -0.167942573415    0.000002480051    -0.000114396080    0.007779055713    -0.092046472053    0.000007383388    -0.000186117196
            0.000002489165    -0.000114438082    0.026687388727    -0.163736154270    -0.000000994400    -0.000068248526    0.003868449279    -0.088244561505
            0.008564475316    -0.092630771524    -0.000001168270    -0.000068101887    0.032494673159    -0.170272000162    0.000003307189    -0.000138125563
            0.000007194832    -0.000185968053    0.004240907247    -0.089392325010    0.000003473332    -0.000138191877    0.024294609594    -0.165776322976
0.275     -0.069127854157    -0.079041906081    -0.000139492878    -0.000078124051    -0.026476915990    -0.018073193560    -0.000218108371    -0.000120649802
            -0.000139490813    -0.000078051686    -0.075649231383    -0.076345678894    -0.000090728254    -0.000048616222    -0.031283057569    -0.017810775425
            -0.027290827657    -0.018899714731    -0.000090560550    -0.000048656313    -0.070251015141    -0.079232905753    -0.000166842778    -0.000090774695
            -0.000217933404    -0.000120667743    -0.031936029476    -0.018623839788    -0.000166995535    -0.000090840620    -0.075179223643    -0.075400826684
0.300     0.014411117668    -0.043971787352    -0.000107404296    0.000146252604    0.029226993152    -0.034680845165    -0.000172976161    0.000221860435
            -0.000107326856    0.000146264197    0.006542041979    -0.036146713769    -0.000061599943    0.000098482612    0.021480526699    -0.028164463009
            0.028470942450    -0.033763820720    -0.000061777000    0.000098500567    0.014302024614    -0.045480804795    -0.000126940258    0.000172521538
            -0.000173131224    0.000221876861    0.020766918444    -0.028297914854    -0.000126876616    0.000172508134    0.007348791305    -0.039619717597
0.325     -0.015731881684    -0.080337021701    0.000097275526    0.000152427527    -0.013555671886    -0.031319220426    0.000146586013    0.000242373038
            0.000097405853    0.000152248459    -0.017728835941    -0.075615830824    0.000066517902    0.000093105024    -0.013392541442    -0.027193715451
            -0.012664867783    -0.030895896148    0.000066655946    0.000093189105    -0.017732555757    -0.080668333190    0.000115171307    0.000181521660
            0.000146746637    0.000242420665    -0.014137591903    -0.027070100655    0.000114916250    0.000181636710    -0.021029378675    -0.075654460503
0.350     0.007894171393    -0.039941560073    0.000205113544    -0.000067870143    0.049635040461    -0.013338203341    0.000319813677    -0.000091041473
            0.000204734933    -0.000067985421    -0.003256449173    -0.036884961559    0.000130441424    -0.000057241085    0.040358716647    -0.014033009854
            0.049506107606    -0.014260968973    0.000130445523    -0.000057258344    0.008921289951    -0.039365833070    0.000242906600    -0.000079405011
            0.000319752057    -0.000091081139    0.039726186868    -0.013268144562    0.000243308383    -0.000079260925    -0.000351013705    -0.035282041962
0.375     0.011011034456    -0.115677255034    -0.000024398441    -0.000190816289    0.015622026400    -0.109397067594    -0.000017351059    -0.000305265898
            -0.000024407963    -0.000190441153    0.003157981451    -0.103210017936    -0.000033164218    -0.000114572981    0.006362715460    -0.099062498913
            0.014620138013    -0.108678572081    -0.000033003500    -0.000114773989    0.010770724668    -0.118094438800    -0.000025501048    -0.000227628714
            -0.000017193898    -0.000305405397    0.006549709663    -0.097989584779    -0.000025630493    -0.000227873532    0.004118996994    -0.107549653072
0.400     -0.069070481211    -0.073659898717    -0.000176182507    -0.000082350114    -0.059598036574    -0.038972696300    -0.000280394141    -0.000139528596
            -0.000175883048    -0.000082231127    -0.074759804031    -0.067489685060    -0.000109191846    -0.000043165614    -0.063647056383    -0.032758254337
            -0.058442233267    -0.037947551616    -0.000109743026    -0.000043222423    -0.069975715655    -0.072680254067    -0.000212494901    -0.000099563494
            -0.000280906243    -0.000139561396    -0.062706436376    -0.032133166142    -0.000212364390    -0.000099613155    -0.076006347914    -0.066850528367
0.425     -0.006370374186    -0.073199893291    -0.000135837475    0.000200068826    0.019491330045    -0.059298452778    -0.000229010962    0.000298095735
            -0.000135702075    0.000199661924    -0.020984861747    -0.058843211598    -0.000071061885    0.000139468125    0.006317587627    -0.048450840465
            0.019943410421    -0.059994566822    -0.000070758254    0.000139886626    -0.005819543435    -0.074418365603    -0.000162549169    0.000236236498
            -0.000228684954    0.000298464410    0.007085567006    -0.048858997257    -0.000162897491    0.000236280225    -0.019538284287    -0.060657357217
0.450     -0.078313857092    -0.180515715785    0.000145524245    0.000126125233    -0.068898422064    -0.115871661968    0.000213830800    0.000228547292
            0.000145058853    0.000126038184    -0.086218772190    -0.162121091659    0.000101185515    0.000055569718    -0.075470739996    -0.100212285568
            -0.070027605101    -0.116168311459    0.000101289829    0.000055262294    -0.081490539299    -0.184713054651    0.000169706290    0.000155185059
            0.000213901137    0.000228202540    -0.075136086500    -0.100940529835    0.000170036168    0.000155542771    -0.089276837172    -0.167999731545
0.475     -0.188021808931    -0.027509553324    0.000174743186    -0.000002353915    -0.114137183378    0.009920454973    0.000295844743    -0.000004067991
            0.000174659536    -0.000002044360    -0.194834505976    -0.007595945418    0.000098242435    -0.000003171673    -0.118606759152    0.025478795982
            -0.113849697204    0.010823014415    0.000098371304    -0.000003311799    -0.189061091864    -0.026032862586    0.000215918479    -0.000004945572
            0.000295951482    -0.000004176460    -0.118465772170    0.024849081830    0.000215925152    -0.000005144178    -0.195533503650    -0.007129290970
0.500     -0.037118448914    0.016354303790    0.000073042334    -0.000276495034    -0.012696637198    0.013335466716    0.000119119226    -0.000427042807
            0.000073296487    -0.000276362456    -0.037802407957    0.041717645106    0.000034483059    -0.000180825098    -0.012948032962    0.033892884394
            -0.011838544354    0.012359249229    0.000033782073    -0.000181058576    -0.035571460390    0.011392387137    0.000079493914    -0.000329643342
            0.000118432283    -0.000427280711    -0.013288351886    0.032812403643    0.000079769414    -0.000329543900    -0.036464943444    0.034832656775
0.525     -0.129938435077    -0.091214665374    -0.000232863018    -0.000064451458    -0.081910525678    -0.027536179244    -0.000361860610    -0.000130683778
            -0.000232808379    -0.000064657479    -0.129909781992    -0.072684871342    -0.000146341516    -0.000017438279    -0.079102397247    -0.014633289331
            -0.083164430297    -0.028336427219    -0.000145941753    -0.000016724264    -0.137284515521    -0.093263052326    -0.000273880452    -0.000079544902
            -0.000361498401    -0.000129905589    -0.080509951359    -0.014871063749    -0.000274139774    -0.000080013898    -0.136886315678    -0.074863408150
0.550     -0.184774310005    0.091325365315    -0.000180694595    0.000102569407    -0.068719789954    0.066268860346    -0.000296117110    0.000176599338
            -0.000180728482    0.000102602364    -0.183488535857    0.118043578131    -0.000107340736    0.000061117567    -0.069179456395    0.084903506478
            -0.069415721503    0.067414439562    -0.000107144517    0.000060675427    -0.185844541952    0.093073588847    -0.000219523349    0.000128999986
            -0.000295833321    0.000176124133    -0.069922934906    0.085850512763    -0.000219787919    0.000129352569    -0.181522276827    0.122107128914
0.575     -0.003698245138    0.092171056171    0.000069309317    0.000327207386    0.006607470971    0.025742086712    0.000105890702    0.000503075523
            0.000069320806    0.000327158902    0.013381035586    0.113712152592    0.000059364526    0.000209306076    0.017536055066    0.044429240896
            0.007610213328    0.026252602449    0.000059236607    0.000209392355    -0.003957400369    0.088455916831    0.000091545372    0.000383470219
            0.000105746487    0.000503122595    0.017563327959    0.045166984362    0.000091696801    0.000383513475    0.012296781386    0.107908778006
0.600     -0.062526588149    -0.004819842094    0.000324339266    -0.000050996120    -0.044921169340    0.008948759909    0.000506347592    -0.000053702187
            0.000324250821    -0.000051158975    -0.059891867496    0.004595957464    0.000200180298    -0.000055599173    -0.042408176449    0.015810986241
            -0.044921876558    0.008181321924    0.000200075353    -0.000055772800    -0.066867132882    -0.003483281959    0.000379983221    -0.000057861288
            0.000506203742    -0.000053946262    -0.042317392691    0.016522375341    0.000380161790    -0.000057536247    -0.064657476936    0.007603321910
0.625     -0.055754121942    0.073769794403    0.000102983654    -0.000306383796    -0.005475407907    0.032594540084    0.000173183358    -0.000475105917
            0.000102618616    -0.000306039491    -0.050624789452    0.102474024797    0.000050610125    -0.000202359448    -0.005730014952    0.054392302502
            -0.006287062702    0.033197999829    0.000050635705    -0.000202068517    -0.053142231364    0.074766306544    0.000120683849    -0.000366791023
            0.000173088294    -0.000474683624    -0.004867599519    0.055123965019    0.000121119980    -0.000367455991    -0.046089170355    0.100833470211
0.650     -0.018347478657    0.010355235572    -0.000343989889    -0.000196344298    -0.036172903407    -0.022129068444    -0.000505416449    -0.000324937300
            -0.000343378337    -0.000196112289    0.000067552205    0.025490132489    -0.000243992840    -0.000097255763    -0.023418622087    -0.005540373059
            -0.035036210745    -0.021054126465    -0.000243948084    -0.000097686625    -0.019892073617    0.007646066838    -0.000402705945    -0.000226635047
            -0.000505175019    -0.000325306702    -0.022188567276    -0.005871815733    -0.000403518585    -0.000226571605    -0.004369154343    0.020266475917
0.675     -0.072911587511    0.038931881639    -0.000237653937    0.000245615784    -0.065302630318    0.049996003782    -0.000401535995    0.000358302997
            -0.000237463218    0.000245182309    -0.070662733180    0.056425716853    -0.000123687114    0.000173134791    -0.061655438408    0.065579974338
            -0.064163939480    0.048663854712    -0.000124053488    0.000173773922    -0.071632263773    0.040041302635    -0.000286662104    0.000285736906
            -0.000401905973    0.000358807687    -0.061182180211    0.064531232425    -0.000286509619    0.000285813191    -0.069861520750    0.058110185838
0.700     -0.020470767687    0.016813597728    0.000149484634    0.000382881461    -0.006907288453    0.019085201335    0.000203033051    0.000598091936
            0.000148981138    0.000382335091    -0.005357014743    0.045661645999    0.000127181873    0.000240277818    0.005359121424    0.043177808730
            -0.008240958146    0.018285239994    0.000128143223    0.000239940281    -0.019839037248    0.010191862354    0.000181913417    0.000452822428
            0.000203918955    0.000597718155    0.005000233981    0.042199570287    0.000181712838    0.000453528247    -0.005405335756    0.035817238858
0.725     -0.154355491736    0.002790303062    0.000369822151    -0.000161636958    -0.107012804373    0.031847609940    0.000588816613    -0.000184333665
            0.000369459084    -0.000160729347    -0.138459529506    0.024391676198    0.000215349123    -0.000156586202    -0.091063873856    0.049760556788
            -0.106972914108    0.032814033145    0.000214811073    -0.000156853994    -0.160734591918    0.003159424857    0.000431034907    -0.000181490019
            0.000588213726    -0.000184529117    -0.091862215454    0.049285073706    0.000431814436    -0.000182120685    -0.148696298984    0.024966366468
0.750     -0.109364681774    0.190783099727    0.000022114439    -0.000243730239    -0.041546269154    0.143315724132    0.000077944849    -0.000410407449
            0.000022693648    -0.000243610334    -0.082811898038    0.217741890281    -0.000013669098    -0.000134395922    -0.019640749013    0.161566197191
            -0.040689103487    0.142512572204    -0.000013783645    -0.000134587341    -0.105828049378    0.191924924011    0.000039767164    -0.000297479768
            0.000077935997    -0.000410544903    -0.020275863354    0.161390696017    0.000039228613    -0.000297523276    -0.079276881400    0.219341875970
0.775     0.035553117190    0.088204330546    -0.000286009661    -0.000284828346    0.032158770637    0.047726466722    -0.000436552836    -0.000449226691
            -0.000285742929    -0.000285281192    0.068049879688    0.100210956809    -0.000203164967    -0.000169700642    0.056758334046    0.057271227714
            0.030688248654    0.046867155661    -0.000203789874    -0.000168548491    0.031323381284    0.080097550331    -0.000352312265    -0.000330626109
