# GHz S RI R 45
0.000     0.072092445000    0.000000000000    -0.000018280588    0.000000000000    0.003621481200    -0.000000000000    -0.000024930432    -0.000000000000
            -0.000012432946    -0.000000000000    0.070708320000    -0.000000000000    -0.000005444905    0.000000000000    0.004427848700    -0.000000000000
            0.004585061400    -0.000000000000    -0.000000919016    0.000000000000    0.071876454000    -0.000000000000    -0.000017197411    0.000000000000
            -0.000001043685    0.000000000000    0.005271227300    0.000000000000    0.000015252096    0.000000000000    0.069974773000    -0.000000000000
0.025     0.156648869960    -0.002824397489    -0.000019533042    0.000013035265    0.089282825499    0.027027542807    -0.000029385242    0.000020770450
            -0.000014852182    0.000007799601    0.156231000900    -0.002130728215    -0.000007711739    0.000010690510    0.088561710040    0.026543965184
            0.088972055054    0.026214344545    -0.000001921864    -0.000000719099    0.156620393574    -0.003018592526    -0.000020854835    0.000016541213
            -0.000016970388    -0.000006282619    0.089165624469    0.026000997685    -0.000013715627    -0.000011667730    0.156703140780    -0.001595205429
0.050     0.060240316720    -0.077792084308    -0.000018735628    0.000047809064    0.034377795532    -0.035841786847    -0.000007460171    0.000056910359
            -0.000023305911    0.000038530970    0.060712497889    -0.078429792285    -0.000016585109    0.000023674768    0.034286997881    -0.035632538096
            0.033611366010    -0.035228563333    -0.000032486917    0.000025540600    0.059442832214    -0.077574421986    -0.000011719548    0.000042662060
            -0.000036949665    0.000040423526    0.034253835834    -0.036526078586    -0.000035613200    0.000023328149    0.060951040947    -0.079118630674
0.075     0.093745782428    0.064026624846    0.000083359566    0.000009937067    0.071215856250    0.073296628653    0.000082021174    0.000022211152
            0.000072715751    0.000013479399    0.092046132199    0.063356795859    0.000068029770    -0.000009601230    0.070669342969    0.072922033411
            0.072022650845    0.073744525826    0.000074677799    -0.000005524740    0.094471978367    0.065008640893    0.000074995410    0.000008471469
            0.000066430190    0.000042152213    0.070105045293    0.072417092613    0.000047482807    0.000032030631    0.091570343745    0.063929454429
0.100     0.203540097868    -0.079509270332    0.000007966544    -0.000035895820    0.162230555080    -0.052150553007    0.000043629703    -0.000056521576
            0.000006949021    -0.000024362755    0.203723261075    -0.078301341909    -0.000037754613    -0.000010941552    0.162442110438    -0.052132959017
            0.162269672110    -0.053031779119    -0.000042682109    -0.000007912850    0.204395455793    -0.080446356188    0.000008476485    -0.000034194909
            0.000050362568    -0.000028710997    0.161708562136    -0.052339707290    0.000027484734    -0.000003574338    0.204529916054    -0.078044336816
0.125     0.029291912971    -0.110448657687    0.000009878849    -0.000086396132    0.014739960404    -0.080107604734    -0.000020929202    -0.000101009670
            0.000024068949    -0.000082675656    0.030170439621    -0.113109731220    0.000022737254    -0.000053448484    0.014554727568    -0.082263261651
            0.013734460102    -0.079729853198    0.000036628135    -0.000052929303    0.028742790916    -0.110524119750    0.000005466700    -0.000078578983
            0.000022293557    -0.000108012430    0.013591263995    -0.081742136526    0.000037854416    -0.000091626998    0.030790746099    -0.113179540111
0.150     0.129114875514    0.007287101281    -0.000107016927    0.000037369197    0.096129456698    0.016398829841    -0.000124256526    0.000025797817
            -0.000103199350    0.000024179442    0.125552098361    0.007357967386    -0.000050398418    0.000089527161    0.093200644127    0.016715066817
            0.096917880689    0.017222834167    -0.000060459944    0.000077373313    0.130665585989    0.007503783722    -0.000089861320    0.000037533961
            -0.000139554738    -0.000012966885    0.093263234950    0.017765159690    -0.000094093309    0.000008277541    0.126860044966    0.006848731019
0.175     0.144675094725    -0.181416529056    -0.000017104004    0.000032549942    0.099514910398    -0.132153092659    -0.000029136494    0.000088469199
            -0.000025921048    0.000026693064    0.145854330109    -0.180298366342    0.000031610652    -0.000077058210    0.100739325556    -0.132058005037
            0.100086025193    -0.132969897033    0.000030605498    -0.000068801318    0.145398054937    -0.183437107327    -0.000022430676    0.000018027444
            -0.000054719184    0.000094013234    0.101285582535    -0.131619442307    -0.000052064174    0.000009363930    0.146096501127    -0.181526339422
0.200     -0.044056323864    -0.141569701996    0.000026314830    0.000132288192    -0.044056252296    -0.090924292556    0.000071704923    0.000123159002
            0.000018292737    0.000137916730    -0.045029859539    -0.145723994986    -0.000040512708    0.000119847970    -0.046016434431    -0.095188337036
            -0.044891860336    -0.091186342372    -0.000043952669    0.000115828059    -0.044717098070    -0.142338027292    0.000019234894    0.000134982570
            0.000059843573    0.000146890712    -0.045475968805    -0.094892886429    0.000003946311    0.000168186098    -0.044127226719    -0.145793648451
0.225     0.041078751093    -0.065940026517    0.000132920473    -0.000047083025    0.027467540953    -0.040683140614    0.000154761651    -0.000073865218
            0.000134875763    -0.000039629110    0.037234912688    -0.064217193330    0.000052444294    -0.000048403334    0.023760885164    -0.039145888587
            0.027583319564    -0.040564198754    0.000057675236    -0.000035302974    0.041267072950    -0.066681933575    0.000123032551    -0.000041487678
            0.000184442715    -0.000056696259    0.024176687132    -0.039318049280    0.000152109502    -0.000028532488    0.038361400225    -0.065656754566
0.250     0.024895586758    -0.163625891046    0.000030534441    -0.000124226242    0.002339876987    -0.087541294488    -0.000005450967    -0.000157116731
            0.000037371577    -0.000121922017    0.026687388727    -0.163736154270    0.000049666015    0.000023567459    0.003868449279    -0.088244561505
            0.003095898393    -0.088169512563    0.000057968008    0.000009832426    0.023819135343    -0.165775346882    0.000043125633    -0.000107106580
            0.000008275966    -0.000183914990    0.004240907247    -0.089392325010    0.000058968131    -0.000122570225    0.024294609594    -0.165776322976
0.275     -0.071154245989    -0.073103064312    -0.000182008075    -0.000100972250    -0.025883894618    -0.014788776667    -0.000197257268    -0.000088971336
            -0.000177232763    -0.000106163313    -0.075649231383    -0.076345678894    -0.000098264741    -0.000122875711    -0.031283057569    -0.017810775425
            -0.026751088027    -0.015562967691    -0.000107428112    -0.000124403103    -0.071990206611    -0.073171014894    -0.000169222029    -0.000116995170
            -0.000214355274    -0.000102000585    -0.031936029476    -0.018623839788    -0.000176052288    -0.000140981177    -0.075179223643    -0.075400826684
0.300     0.009391961680    -0.040003536728    -0.000116281058    0.000161002310    0.024432677850    -0.032596292037    -0.000136911905    0.000202312796
            -0.000117623961    0.000154385743    0.006542041979    -0.036146713769    -0.000039719526    0.000116776614    0.021480526699    -0.028164463009
            0.023742903225    -0.031628606678    -0.000044060155    0.000117915379    0.009350522281    -0.041528497011    -0.000122834357    0.000151452113
            -0.000153062804    0.000210143775    0.020766918444    -0.028297914854    -0.000149911227    0.000154746855    0.007348791305    -0.039619717597
0.325     -0.017394406742    -0.073543900050    0.000103487653    0.000197512345    -0.013225869255    -0.025352465181    0.000145163632    0.000206614649
            0.000094367098    0.000194763792    -0.017728835941    -0.075615830824    0.000039539893    0.000078712617    -0.013392541442    -0.027193715451
            -0.012307458044    -0.025001129642    0.000041501317    0.000089501089    -0.019132916598    -0.073620356594    0.000085289073    0.000196046379
            0.000148338490    0.000225211758    -0.014137591903    -0.027070100655    0.000082851050    0.000219962221    -0.021029378675    -0.075654460503
0.350     0.003897774937    -0.038888794586    0.000225526580    -0.000092068254    0.047121327237    -0.015701086599    0.000274654465    -0.000098691285
            0.000220579410    -0.000081822852    -0.003256449173    -0.036884961559    0.000111432641    -0.000083468219    0.040358716647    -0.014033009854
            0.046918819981    -0.016603968334    0.000120510596    -0.000089329560    0.005315342122    -0.038471473457    0.000225937866    -0.000070312717
            0.000291314803    -0.000098443192    0.039726186868    -0.013268144562    0.000247117510    -0.000059530033    -0.000351013705    -0.035282041962
0.375     0.002118630558    -0.107979267476    0.000018882251    -0.000170463343    0.006147548540    -0.103206681484    -0.000023905411    -0.000275570521
            0.000026385661    -0.000163651567    0.003157981451    -0.103210017936    -0.000038123656    -0.000015972753    0.006362715460    -0.099062498913
            0.005214047925    -0.102409682873    -0.000039043872    -0.000019161359    0.001949735296    -0.110370789995    0.000032857707    -0.000166387588
            -0.000017062855    -0.000288560940    0.006549709663    -0.097989584779    0.000049112300    -0.000186992553    0.004118996994    -0.107549653072
0.400     -0.071745635673    -0.064761338631    -0.000189452946    -0.000175255907    -0.060421457646    -0.030952097583    -0.000268864338    -0.000111230223
            -0.000178800157    -0.000178707872    -0.074759804031    -0.067489685060    -0.000059346576    -0.000095757907    -0.063647056383    -0.032758254337
            -0.059186088087    -0.030038844745    -0.000064549562    -0.000104024622    -0.072082366128    -0.063759208723    -0.000172483788    -0.000186280546
            -0.000282127422    -0.000125536238    -0.062706436376    -0.032133166142    -0.000190656306    -0.000203297948    -0.076006347914    -0.066850528367
0.425     -0.015934993878    -0.065999557302    -0.000178726864    0.000165887808    0.010697693586    -0.055413041345    -0.000201221683    0.000277771136
            -0.000181503299    0.000151855824    -0.020984861747    -0.058843211598    -0.000029281492    0.000096211902    0.006317587627    -0.048450840465
            0.011089729099    -0.056141744501    -0.000037583511    0.000110816953    -0.015115659944    -0.067445782909    -0.000194214590    0.000142453550
            -0.000215757697    0.000293643743    0.007085567006    -0.048858997257    -0.000210064364    0.000152250121    -0.019538284287    -0.060657357217
0.450     -0.091760670921    -0.164709143719    -0.000013956590    0.000150421188    -0.077661725047    -0.101930343494    0.000209346903    0.000232178814
            -0.000026283725    0.000152267421    -0.086218772190    -0.162121091659    -0.000097979736    -0.000038151500    -0.075470739996    -0.100212285568
            -0.078821657050    -0.102118131788    -0.000083502849    -0.000040199522    -0.094856015978    -0.168642929611    -0.000032102647    0.000166575470
            0.000221892060    0.000241942506    -0.075136086500    -0.100940529835    -0.000032834568    0.000185571218    -0.089276837172    -0.167999731545
0.475     -0.189765090776    -0.004476370248    0.000158441933    0.000117232638    -0.112895849607    0.024952405432    0.000287745736    -0.000026584470
            0.000155417683    0.000125126954    -0.194834505976    -0.007595945418    0.000177598401    0.000224435750    -0.118606759152    0.025478795982
            -0.112514097423    0.025822930087    0.000172910284    0.000223169240    -0.190011502760    -0.003292114881    0.000176692649    0.000137331333
            0.000297923614    -0.000028372606    -0.118465772170    0.024849081830    0.000202160496    0.000143010033    -0.195533503650    -0.007129290970
0.500     -0.034403820924    0.030696811666    0.000047906426    -0.000235502109    -0.011637311417    0.023812064842    0.000096105923    -0.000380836842
            0.000053194152    -0.000225858346    -0.037802407957    0.041717645106    0.000053033769    -0.000231336015    -0.012948032962    0.033892884394
            -0.010885904580    0.022745233652    0.000065617706    -0.000235239781    -0.033065553082    0.025206515678    0.000069715630    -0.000233468131
            0.000101452738    -0.000400282463    -0.013288351886    0.032812403643    0.000071915888    -0.000261034369    -0.036464943444    0.034832656775
0.525     -0.135221556586    -0.071867035731    -0.000197420874    -0.000072034832    -0.081068489541    -0.013995950932    -0.000337172888    -0.000119016922
            -0.000185233032    -0.000078134198    -0.129909781992    -0.072684871342    0.000042915289    -0.000098410540    -0.079102397247    -0.014633289331
            -0.082421323155    -0.014639030359    0.000023110878    -0.000106434340    -0.141646061548    -0.073415695359    -0.000171024161    -0.000100046353
            -0.000362695529    -0.000119298098    -0.080509951359    -0.014871063749    -0.000187735385    -0.000101022081    -0.136886315678    -0.074863408150
0.550     -0.173942726359    0.119890231893    -0.000216063799    0.000155399159    -0.061540568402    0.081830914246    -0.000254721644    0.000189638789
            -0.000219575792    0.000145944756    -0.183488535857    0.118043578131    -0.000374438159    -0.000033799414    -0.069179456395    0.084903506478
            -0.062072399625    0.083051407529    -0.000370017125    -0.000015226645    -0.173390849275    0.122758750626    -0.000254824011    0.000131666616
            -0.000250418053    0.000211842642    -0.069922934906    0.085850512763    -0.000264450095    0.000138713078    -0.181522276827    0.122107128914
0.575     0.013423155160    0.100962269794    0.000143307572    0.000318364059    0.013720470047    0.033528507612    0.000121176990    0.000442550384
            0.000136523685    0.000315005902    0.013381035586    0.113712152592    0.000145689214    0.000344433925    0.017536055066    0.044429240896
            0.014768527807    0.033897910720    0.000150526907    0.000339463568    0.013077768982    0.097060482306    0.000132269050    0.000351859072
            0.000136221543    0.000441082569    0.017563327959    0.045166984362    0.000138769476    0.000370705459    0.012296781386    0.107908778006
0.600     -0.062963236037    0.005805767026    0.000337524040    -0.000061298935    -0.044072837572    0.017553371351    0.000465458638    -0.000073549710
            0.000327496201    -0.000054425646    -0.059891867496    0.004595957464    0.000172712113    -0.000008945875    -0.042408176449    0.015810986241
            -0.044177762754    0.016806584757    0.000181440881    -0.000006613718    -0.066593444634    0.007731344214    0.000343346428    -0.000041541653
            0.000472033623    -0.000085895121    -0.042317392691    0.016522375341    0.000362021107    -0.000050609930    -0.064657476936    0.007603321910
0.625     -0.044696273048    0.092808771634    0.000068222482    -0.000374044891    -0.001512211130    0.044104866236    0.000126898895    -0.000446179201
            0.000074796602    -0.000362298127    -0.050624789452    0.102474024797    0.000145831614    -0.000276349435    -0.005730014952    0.054392302502
            -0.002220222138    0.044800290622    0.000139786666    -0.000293574348    -0.041575570232    0.092782905451    0.000110832097    -0.000378659818
            0.000111715147    -0.000457249706    -0.004867599519    0.055123965019    0.000106836305    -0.000392861395    -0.046089170355    0.100833470211
0.650     -0.011139887259    0.017142902376    -0.000362262241    -0.000155321629    -0.034675972252    -0.012079020706    -0.000486269908    -0.000278545420
            -0.000351329463    -0.000157332068    0.000067552205    0.025490132489    -0.000267708024    -0.000081126405    -0.023418622087    -0.005540373059
            -0.033411773410    -0.011174754493    -0.000278908775    -0.000070549909    -0.012836214390    0.014295815972    -0.000373925262    -0.000191310496
            -0.000496291182    -0.000263476408    -0.022188567276    -0.005871815733    -0.000388313601    -0.000194907285    -0.004369154343    0.020266475917
0.675     -0.069653071175    0.057646771758    -0.000279225181    0.000266628237    -0.060424351489    0.066709449073    -0.000353985715    0.000375429098
            -0.000273894210    0.000253863693    -0.070662733180    0.056425716853    -0.000175897413    0.000114619935    -0.061655438408    0.065579974338
            -0.059491108511    0.065230416291    -0.000175698930    0.000122913509    -0.067788512077    0.057968983436    -0.000305473798    0.000256088546
            -0.000345783306    0.000387115840    -0.061182180211    0.064531232425    -0.000311176782    0.000272083501    -0.069861520750    0.058110185838
0.700     -0.011297150213    0.030963012016    0.000216876896    0.000409016666    0.000578216611    0.030260710271    0.000233230693    0.000540599219
            0.000200458316    0.000400613922    -0.005357014743    0.045661645999    0.000145300290    0.000252293392    0.005359121424    0.043177808730
            -0.000870259718    0.029665372829    0.000164646603    0.000257628534    -0.011600498483    0.023622349539    0.000192680342    0.000448087738
            0.000252729712    0.000535971193    0.005000233981    0.042199570287    0.000204650514    0.000453559461    -0.005405335756    0.035817238858
0.725     -0.151730399556    0.031792167160    0.000380292916    -0.000141381149    -0.100901075933    0.053571310223    0.000566492718    -0.000223064924
            0.000374496722    -0.000128599817    -0.138459529506    0.024391676198    0.000099869767    -0.000019951105    -0.091063873856    0.049760556788
            -0.100696202160    0.054529323060    0.000092736542    -0.000042091666    -0.157728432307    0.032781197190    0.000413652208    -0.000123725554
            0.000558680969    -0.000244190758    -0.091862215454    0.049285073706    0.000424780027    -0.000128689225    -0.148696298984    0.024966366468
0.750     -0.075195082586    0.218125107065    0.000072514007    -0.000332610056    -0.016635360811    0.158873172921    0.000000134240    -0.000408745478
            0.000075993548    -0.000323697698    -0.082811898038    0.217741890281    0.000243807427    -0.000176340301    -0.019640749013    0.161566197191
            -0.015927586236    0.157936197270    0.000237775096    -0.000164869625    -0.071306118832    0.217882383550    0.000097663624    -0.000350022947
            -0.000013842623    -0.000403968940    -0.020275863354    0.161390696017    0.000094443172    -0.000369094728    -0.079276881400    0.219341875970
0.775     0.056412581229    0.086400077192    -0.000387682178    -0.000287602738    0.044627620813    0.047291897898    -0.000436973720    -0.000367176843
            -0.000370900469    -0.000285413764    0.068049879688    0.100210956809    -0.000320950685    -0.000234749113    0.056758334046    0.057271227714
            0.043024304259    0.046699815161    -0.000325308715    -0.000244238127    0.050782537591    0.078529457539    -0.000397869900    -0.000321066221
