# GHz S RI R 45
0.000     0.071796743000    0.000000000000    0.000000069294    0.000000000000    0.004018843500    -0.000000000000    -0.000014374370    -0.000000000000
            0.000000067856    -0.000000000000    0.070708320000    -0.000000000000    0.000000217131    0.000000000000    0.004427848700    -0.000000000000
            0.005133813300    0.000000000000    0.000000217947    0.000000000000    0.070625805000    -0.000000000000    0.000000309379    0.000000000000
            -0.000014373226    -0.000000000000    0.005271227300    0.000000000000    0.000000306895    0.000000000000    0.069974773000    -0.000000000000
0.025     0.156539755409    -0.002625414644    0.000012067829    0.000003495602    0.088740621314    0.026554361250    0.000016118219    0.000019033149
            0.000012028279    0.000003506991    0.156231000900    -0.002130728215    0.000007849978    0.000000899368    0.088561710040    0.026543965184
            0.089461294682    0.025855713494    0.000007849405    0.000000909057    0.156854085231    -0.001811037197    0.000013441514    0.000003606553
            0.000016114124    0.000019037078    0.089165624469    0.026000997685    0.000013397198    0.000003625746    0.156703140780    -0.001595205429
0.050     0.060173767873    -0.077490649893    0.000010990721    -0.000019894656    0.033692164552    -0.034907710056    0.000019216622    -0.000016523492
            0.000011058398    -0.000019831159    0.060712497889    -0.078429792285    0.000011205959    -0.000014749518    0.034286997881    -0.035632538096
            0.033667738886    -0.035980346860    0.000011233458    -0.000014750569    0.060335825260    -0.078275541944    0.000012633082    -0.000022258805
            0.000019242582    -0.000016512051    0.034253835834    -0.036526078586    0.000012716689    -0.000022191033    0.060951040947    -0.079118630674
0.075     0.094084108004    0.064400188031    -0.000020557705    -0.000032791124    0.072239541868    0.074030819666    0.000004615008    -0.000060517966
            -0.000020541491    -0.000032889976    0.092046132199    0.063356795859    -0.000025584117    -0.000016903586    0.070669342969    0.072922033411
            0.071567124638    0.073369773473    -0.000025567475    -0.000016972193    0.093316106167    0.064846369561    -0.000023845221    -0.000036063412
            0.000004613442    -0.000060568997    0.070105045293    0.072417092613    -0.000023824132    -0.000036184117    0.091570343745    0.063929454429
0.100     0.203898319513    -0.079463825127    -0.000049904828    0.000026766775    0.162706770266    -0.052951802067    -0.000099813773    0.000019606927
            -0.000050011038    0.000026743724    0.203723261075    -0.078301341909    -0.000016396474    0.000014195059    0.162442110438    -0.052132959017
            0.161782164249    -0.053207226822    -0.000016523024    0.000014189399    0.204671838483    -0.079102848685    -0.000054136988    0.000028928502
            -0.000099873048    0.000019597246    0.161708562136    -0.052339707290    -0.000054278745    0.000028896706    0.204529916054    -0.078044336816
0.125     0.029513972107    -0.110270638370    0.000013538997    0.000051608866    0.014245091144    -0.080113927282    0.000006952532    0.000068597444
            0.000013581569    0.000051843482    0.030170439621    -0.113109731220    -0.000005076637    0.000039226692    0.014554727568    -0.082263261651
            0.013093267222    -0.079480539115    -0.000005083669    0.000039379633    0.030252473324    -0.111088182835    0.000012827839    0.000058191465
            0.000006927251    0.000068709749    0.013591263995    -0.081742136526    0.000012875207    0.000058489606    0.030790746099    -0.113179540111
0.150     0.129673988767    0.007259625079    0.000076207989    0.000019306888    0.096664342092    0.016694595718    0.000095510282    0.000088377855
            0.000076347102    0.000019041374    0.125552098361    0.007357967386    0.000055841941    -0.000002667174    0.093200644127    0.016715066817
            0.096696804592    0.017924552801    0.000056080627    -0.000002666940    0.129913918962    0.006351317344    0.000085046410    0.000021184545
            0.000095646272    0.000088352572    0.093263234950    0.017765159690    0.000085233875    0.000020880505    0.126860044966    0.006848731019
0.175     0.144672303198    -0.181592428388    0.000020301000    -0.000089291847    0.099774407429    -0.132989716946    0.000084931381    -0.000158109910
            0.000020071087    -0.000089290051    0.145854330109    -0.180298366342    0.000007725820    -0.000028517836    0.100739325556    -0.132058005037
            0.100391235830    -0.132396567845    0.000007660365    -0.000028741285    0.144738642243    -0.182707518079    0.000024173670    -0.000095712863
            0.000084913021    -0.000158208007    0.101285582535    -0.131619442307    0.000023909034    -0.000095740316    0.146096501127    -0.181526339422
0.200     -0.043881603786    -0.141034547299    -0.000060419617    -0.000034532726    -0.045042607811    -0.091205110133    -0.000094662854    -0.000051676460
            -0.000060511848    -0.000034324208    -0.045029859539    -0.145723994986    -0.000016052987    -0.000052044237    -0.046016434431    -0.095188337036
            -0.044323835937    -0.090834032295    -0.000016228629    -0.000052016695    -0.043744669161    -0.142319410793    -0.000063976847    -0.000044118472
            -0.000094782260    -0.000051708474    -0.045475968805    -0.094892886429    -0.000064087780    -0.000043869842    -0.044127226719    -0.145793648451
0.225     0.041989871272    -0.066009824773    -0.000086301356    0.000048481908    0.027468319247    -0.040440509420    -0.000148593823    0.000024153028
            -0.000086045550    0.000048456004    0.037234912688    -0.064217193330    -0.000066301160    0.000027513476    0.023760885164    -0.039145888587
            0.027949509712    -0.040649917351    -0.000066348699    0.000027683835    0.041219903173    -0.067040527678    -0.000099368275    0.000052291206
            -0.000148603872    0.000024253624    0.024176687132    -0.039318049280    -0.000099111171    0.000052270006    0.038361400225    -0.065656754566
0.250     0.025025678740    -0.163468876315    0.000046396383    0.000094502204    0.003020366165    -0.087165955714    0.000045360976    0.000203278285
            0.000046090884    0.000093954820    0.026687388727    -0.163736154270    0.000005860873    0.000055606026    0.003868449279    -0.088244561505
            0.003440528950    -0.088443035165    0.000006107259    0.000055485287    0.022381133738    -0.164865421699    0.000045795832    0.000105596444
            0.000045460332    0.000203180721    0.004240907247    -0.089392325010    0.000045469217    0.000105018282    0.024294609594    -0.165776322976
0.275     -0.069965369658    -0.072478748556    0.000085158892    0.000009664236    -0.025810013945    -0.015060697765    0.000126040839    0.000003352252
            0.000084891802    0.000010133072    -0.075649231383    -0.076345678894    0.000071240957    0.000039647350    -0.031283057569    -0.017810775425
            -0.026487055250    -0.016026564107    0.000071075315    0.000039577551    -0.071122603160    -0.072110349017    0.000098300818    0.000018716399
            0.000125956936    0.000003361382    -0.031936029476    -0.018623839788    0.000097985778    0.000019238643    -0.075179223643    -0.075400826684
0.300     0.010665750311    -0.040856544806    0.000058055883    -0.000116560594    0.024290277722    -0.031956129632    0.000130735539    -0.000123131743
            0.000058381619    -0.000116451146    0.006542041979    -0.036146713769    0.000051833852    -0.000082713950    0.021480526699    -0.028164463009
            0.023423007492    -0.032179470184    0.000051891297    -0.000082646783    0.009625629235    -0.042479535091    0.000069068017    -0.000131444196
            0.000130785358    -0.000123097503    0.020766918444    -0.028297914854    0.000069506257    -0.000131315606    0.007348791305    -0.039619717597
0.325     -0.017022713837    -0.073900812263    -0.000100649581    -0.000070530010    -0.011869112287    -0.025041791287    -0.000124150149    -0.000161867678
            -0.000100477579    -0.000070895918    -0.017728835941    -0.075615830824    -0.000054183021    -0.000074156666    -0.013392541442    -0.027193715451
            -0.012760263035    -0.024845786294    -0.000054099548    -0.000074212394    -0.020239026333    -0.073216910855    -0.000107946175    -0.000084719985
            -0.000124078754    -0.000161941045    -0.014137591903    -0.027070100655    -0.000107813581    -0.000085201902    -0.021029378675    -0.075654460503
0.350     0.005289736857    -0.039503958079    -0.000137230675    0.000065126198    0.047644896285    -0.017292814943    -0.000214987014    0.000034779752
            -0.000137769916    0.000065142576    -0.003256449173    -0.036884961559    -0.000110721339    0.000047354315    0.040358716647    -0.014033009854
            0.046975615441    -0.016412687866    -0.000110954942    0.000047161493    0.006073893285    -0.037394060121    -0.000160072101    0.000068359665
            -0.000215170516    0.000034669100    0.039726186868    -0.013268144562    -0.000160694467    0.000068424119    -0.000351013705    -0.035282041962
0.375     0.002345064759    -0.109580280179    0.000088900103    0.000177999604    0.004910518173    -0.103501127913    0.000013446619    0.000291888667
            0.000089229228    0.000178476960    0.003157981451    -0.103210017936    0.000038884742    0.000091267663    0.006362715460    -0.099062498913
            0.005121773245    -0.102313883725    0.000038794731    0.000091732780    0.002769203253    -0.111341768622    0.000091130125    0.000198927948
            0.000013366318    0.000292175972    0.006549709663    -0.097989584779    0.000091489891    0.000199491803    0.004118996994    -0.107549653072
0.400     -0.071803124401    -0.065032531921    0.000151633091    -0.000052646089    -0.060125462989    -0.030373809165    0.000229594285    0.000020251589
            0.000151966146    -0.000053229019    -0.074759804031    -0.067489685060    0.000076773418    0.000028714344    -0.063647056383    -0.032758254337
            -0.059058478655    -0.029678914928    0.000077323395    0.000028746211    -0.073298022008    -0.064296846226    0.000167798981    -0.000042331637
            0.000229984168    0.000020306947    -0.062706436376    -0.032133166142    0.000168223609    -0.000042967807    -0.076006347914    -0.066850528367
0.425     -0.014765405998    -0.067210051132    0.000041036535    -0.000223109921    0.010659039725    -0.055882742112    0.000171643192    -0.000232011364
            0.000040429609    -0.000222917855    -0.020984861747    -0.058843211598    0.000047670082    -0.000113756238    0.006317587627    -0.048450840465
            0.011499296159    -0.056357107392    0.000047471125    -0.000114475051    -0.015702815485    -0.066778209865    0.000059650933    -0.000242812051
            0.000171515189    -0.000232429200    0.007085567006    -0.048858997257    0.000059004773    -0.000242660285    -0.019538284287    -0.060657357217
0.450     -0.092151218552    -0.165524649714    -0.000306963294    -0.000062625811    -0.078985108998    -0.101558989628    -0.000338172715    -0.000229450944
            -0.000306601422    -0.000062132656    -0.086218772190    -0.162121091659    -0.000084778727    -0.000006601828    -0.075470739996    -0.100212285568
            -0.078620558283    -0.102356474711    -0.000085518768    -0.000006177531    -0.094280006047    -0.168728643130    -0.000320545530    -0.000075895983
            -0.000338594399    -0.000229292358    -0.075136086500    -0.100940529835    -0.000320200487    -0.000075378391    -0.089276837172    -0.167999731545
0.475     -0.188998972469    -0.004490049116    -0.000149189953    0.000163618482    -0.112572641516    0.026352211052    -0.000106727261    0.000242978800
            -0.000148799033    0.000163490337    -0.194834505976    -0.007595945418    -0.000050010166    -0.000001140767    -0.118606759152    0.025478795982
            -0.112429293613    0.025607080258    -0.000049835785    -0.000000562366    -0.190885038898    -0.003795527551    -0.000167517465    0.000162618915
            -0.000106819555    0.000243418151    -0.118465772170    0.024849081830    -0.000167096820    0.000162474981    -0.195533503650    -0.007129290970
0.500     -0.033484435943    0.028811917833    -0.000042884600    0.000265785546    -0.010429019120    0.023701468370    -0.000032803786    0.000221637666
            -0.000043088873    0.000264861897    -0.037802407957    0.041717645106    -0.000023192993    0.000151769462    -0.012948032962    0.033892884394
            -0.010929952189    0.022551494801    -0.000022362027    0.000151862000    -0.033901927226    0.026503472273    -0.000045361676    0.000299349465
            -0.000032174036    0.000221821235    -0.013288351886    0.032812403643    -0.000045670188    0.000298459043    -0.036464943444    0.034832656775
0.525     -0.135698699559    -0.072772683594    0.000249752785    0.000014832691    -0.080918151543    -0.014497953603    0.000415122812    -0.000022700424
            0.000249040907    0.000015866102    -0.129909781992    -0.072684871342    0.000116655952    -0.000004257308    -0.079102397247    -0.014633289331
            -0.082407907489    -0.014611337643    0.000116092595    -0.000005063104    -0.140699505907    -0.072655823986    0.000272361365    0.000019298659
            0.000414937949    -0.000023188324    -0.080509951359    -0.014871063749    0.000271783587    0.000020373784    -0.136886315678    -0.074863408150
0.550     -0.172889723089    0.118562272576    0.000081347728    -0.000079221408    -0.061234006600    0.081784065170    -0.000088173687    -0.000213618871
            0.000082338195    -0.000079261747    -0.183488535857    0.118043578131    0.000092275451    -0.000032525816    -0.069179456395    0.084903506478
            -0.061957766705    0.082793539459    0.000092177204    -0.000031917929    -0.173294931749    0.122070414880    0.000103685256    -0.000092390355
            -0.000088269112    -0.000213397709    -0.069922934906    0.085850512763    0.000104679273    -0.000092486694    -0.181522276827    0.122107128914
0.575     0.012637659595    0.097961831003    -0.000029686423    -0.000244285835    0.014483615310    0.032955214909    -0.000012331168    -0.000184921555
            -0.000029852844    -0.000244791812    0.013381035586    0.113712152592    -0.000045309980    -0.000189359528    0.017536055066    0.044429240896
            0.014506627492    0.033774002635    -0.000045041293    -0.000189483060    0.012240950831    0.097524517544    -0.000048121031    -0.000281083081
            -0.000012285869    -0.000184975221    0.017563327959    0.045166984362    -0.000048312799    -0.000281697641    0.012296781386    0.107908778006
0.600     -0.064760156965    0.005118366497    -0.000245342191    0.000075260474    -0.044201621689    0.016088301754    -0.000339481826    0.000123327756
            -0.000245874875    0.000075144606    -0.059891867496    0.004595957464    -0.000163022593    0.000049016449    -0.042408176449    0.015810986241
            -0.043970895748    0.016874196485    -0.000162979899    0.000048791346    -0.065935975169    0.008486821786    -0.000273960569    0.000083774778
            -0.000339465172    0.000123266513    -0.042317392691    0.016522375341    -0.000274613994    0.000083814605    -0.064657476936    0.007603321910
0.625     -0.044996514281    0.091424407904    -0.000059206790    0.000198862169    -0.003182173940    0.043648537356    0.000016089143    0.000231443373
            -0.000058979941    0.000199720170    -0.050624789452    0.102474024797    -0.000054403866    0.000166918795    -0.005730014952    0.054392302502
            -0.002194327940    0.044267912754    -0.000054973973    0.000167119545    -0.041275191420    0.092097052174    -0.000072560275    0.000236235351
            0.000015801968    0.000231579698    -0.004867599519    0.055123965019    -0.000072186066    0.000237089537    -0.046089170355    0.100833470211
0.650     -0.013643971200    0.015475622775    0.000282233079    0.000139799680    -0.035200256253    -0.010903968057    0.000327226795    0.000183504558
            0.000282822183    0.000139018296    0.000067552205    0.025490132489    0.000208917766    0.000077827028    -0.023418622087    -0.005540373059
            -0.033988464845    -0.011362652654    0.000209670962    0.000078334513    -0.013852670696    0.014374955197    0.000325550451    0.000152964029
            0.000327687013    0.000183814210    -0.022188567276    -0.005871815733    0.000326107038    0.000152144101    -0.004369154343    0.020266475917
0.675     -0.071244460422    0.058325686599    0.000114082711    -0.000216436756    -0.060053183039    0.066493896820    0.000160691033    -0.000316974059
            0.000113202648    -0.000216549793    -0.070662733180    0.056425716853    0.000096918178    -0.000126068980    -0.061655438408    0.065579974338
            -0.059649052359    0.065338794865    0.000097071582    -0.000126994661    -0.067939559863    0.059005393576    0.000136834099    -0.000240111215
            0.000160880515    -0.000317605288    -0.061182180211    0.064531232425    0.000135954301    -0.000240220392    -0.069861520750    0.058110185838
0.700     -0.011816225125    0.029836420579    -0.000122838901    -0.000252099133    -0.000623587506    0.030339466169    -0.000155296032    -0.000345728624
            -0.000122560438    -0.000251234607    -0.005357014743    0.045661645999    -0.000098742118    -0.000208286572    0.005359121424    0.043177808730
            -0.001160402899    0.029352041285    -0.000099843399    -0.000208255100    -0.011076106813    0.023858790747    -0.000145391725    -0.000297818406
            -0.000156076698    -0.000345786616    0.005000233981    0.042199570287    -0.000145088331    -0.000297005202    -0.005405335756    0.035817238858
0.725     -0.154130563497    0.031329363818    -0.000251640588    0.000209249824    -0.100503237692    0.055161289350    -0.000464280457    0.000310710349
            -0.000251084005    0.000208741048    -0.138459529506    0.024391676198    -0.000148520312    0.000128242093    -0.091063873856    0.049760556788
            -0.101375070127    0.054797953829    -0.000148030560    0.000129220075    -0.157970660950    0.032723179897    -0.000284735057    0.000232154826
            -0.000464165649    0.000311399450    -0.091862215454    0.049285073706    -0.000284255677    0.000231659426    -0.148696298984    0.024966366468
0.750     -0.076182571831    0.218552940232    0.000068850028    0.000110439294    -0.015434793895    0.158514659048    0.000245770746    0.000215578130
            0.000068689502    0.000110068094    -0.082811898038    0.217741890281    -0.000031704799    0.000083827893    -0.019640749013    0.161566197191
            -0.016117100675    0.158416614202    -0.000031201462    0.000083623400    -0.071635781669    0.218726711200    0.000060970924    0.000139087229
            0.000246244051    0.000215672141    -0.020275863354    0.161390696017    0.000060775535    0.000138766088    -0.079276881400    0.219341875970
0.775     0.054953444744    0.084837709371    0.000175842545    0.000177188190    0.044274872890    0.046116215686    0.000201487083    0.000175916750
            0.000174866560    0.000177611396    0.068049879688    0.100210956809    0.000173491498    0.000170440219    0.056758334046    0.057271227714
            0.043163135746    0.046745153822    0.000173544079    0.000169335273    0.051677498533    0.079029707503    0.000222781557    0.000203963744
