# GHz S RI R 45
0.000     0.070881494000    -0.000000000000    -0.000002598452    -0.000000000000    0.004070743000    -0.000000000000    -0.000001524100    -0.000000000000
            -0.000002592513    -0.000000000000    0.070708320000    -0.000000000000    0.000000342070    0.000000000000    0.004427848700    -0.000000000000
            0.004830294000    0.000000000000    0.000000358844    0.000000000000    0.069493068000    -0.000000000000    -0.000000345882    0.000000000000
            -0.000001544063    0.000000000000    0.005271227300    0.000000000000    -0.000000345260    -0.000000000000    0.069974773000    -0.000000000000
0.025     0.155811916116    -0.001497276711    0.000001643550    0.000003299209    0.088340345148    0.026967714346    -0.000005456085    0.000000331440
            0.000001651862    0.000003302655    0.156231000900    -0.002130728215    0.000011493645    0.000003482233    0.088561710040    0.026543965184
            0.088982176307    0.026463443268    0.000011500182    0.000003479461    0.156677457600    -0.000513780857    -0.000001249018    0.000000236296
            -0.000005449468    0.000000323871    0.089165624469    0.026000997685    -0.000001243095    0.000000242110    0.156703140780    -0.001595205429
0.050     0.061754016808    -0.078903967774    0.000001101401    -0.000001097513    0.035140631804    -0.035971229170    -0.000006621411    0.000010433348
            0.000001113515    -0.000001107908    0.060712497889    -0.078429792285    0.000011603549    -0.000018502964    0.034286997881    -0.035632538096
            0.035117499295    -0.036890759913    0.000011588385    -0.000018509995    0.061968817856    -0.079850447793    -0.000001931623    0.000002528367
            -0.000006633348    0.000010427229    0.034253835834    -0.036526078586    -0.000001916975    0.000002514320    0.060951040947    -0.079118630674
0.075     0.089673822099    0.063857063638    0.000003040379    -0.000008132221    0.068872883495    0.073230514814    0.000013978903    0.000009100725
            0.000003027159    -0.000008156144    0.092046132199    0.063356795859    -0.000017386232    -0.000028714030    0.070669342969    0.072922033411
            0.068308225381    0.072722797996    -0.000017382572    -0.000028697131    0.089138505187    0.064596077488    0.000003802273    0.000001626853
            0.000013981882    0.000009111296    0.070105045293    0.072417092613    0.000003789231    0.000001608825    0.091570343745    0.063929454429
0.100     0.205891580889    -0.074598024898    -0.000013337785    0.000006003653    0.164072164095    -0.049052848269    0.000014402957    -0.000003573417
            -0.000013370288    0.000006013556    0.203723261075    -0.078301341909    -0.000045872243    0.000015929767    0.162442110438    -0.052132959017
            0.163344479586    -0.049273817316    -0.000045853416    0.000015932960    0.206698231689    -0.074289901746    0.000002689187    0.000000115308
            0.000014418745    -0.000003569939    0.161708562136    -0.052339707290    0.000002652925    0.000000113645    0.204529916054    -0.078044336816
0.125     0.032657745898    -0.115611648383    0.000006721696    0.000002730999    0.017243147458    -0.084529860785    0.000004984921    -0.000029526480
            0.000006727265    0.000002775817    0.030170439621    -0.113109731220    0.000002776225    0.000052226808    0.014554727568    -0.082263261651
            0.016266867823    -0.084035952351    0.000002765260    0.000052177523    0.033261123829    -0.115502266877    0.000002767963    -0.000007723902
            0.000004972664    -0.000029569511    0.013591263995    -0.081742136526    0.000002769944    -0.000007656825    0.030790746099    -0.113179540111
0.150     0.124015927030    0.010946199186    0.000010461182    0.000009937863    0.092181837422    0.019224943402    -0.000027863396    -0.000004893866
            0.000010510388    0.000009940978    0.125552098361    0.007357967386    0.000062683730    0.000025980979    0.093200644127    0.016715066817
            0.092209322300    0.020277185388    0.000062667077    0.000026036116    0.125422513470    0.010545088514    -0.000005991793    -0.000001007121
            -0.000027875246    -0.000004838413    0.093263234950    0.017765159690    -0.000005934378    -0.000001022816    0.126860044966    0.006848731019
0.175     0.153837288800    -0.177619503334    -0.000000775750    -0.000025349054    0.107073637957    -0.130406449193    -0.000026500021    0.000016393217
            -0.000000755282    -0.000025394503    0.145854330109    -0.180298366342    0.000043148535    -0.000067079891    0.100739325556    -0.132058005037
            0.107603701420    -0.129948190048    0.000043177493    -0.000067093232    0.154035401600    -0.178752202092    -0.000008170745    0.000001829696
            -0.000026466423    0.000016373678    0.101285582535    -0.131619442307    -0.000008152842    0.000001794067    0.146096501127    -0.181526339422
0.200     -0.040907011802    -0.151474832606    -0.000012207009    0.000012927397    -0.042931837089    -0.100321170757    0.000017509549    0.000049213811
            -0.000012249655    0.000012886417    -0.045029859539    -0.145723994986    -0.000046817045    -0.000060565570    -0.046016434431    -0.095188337036
            -0.042409282651    -0.100002294177    -0.000046809736    -0.000060584277    -0.039985717052    -0.151202656035    0.000002844050    0.000015103919
            0.000017506176    0.000049190364    -0.045475968805    -0.094892886429    0.000002798828    0.000015045350    -0.044127226719    -0.145793648451
0.225     0.041104512793    -0.063371739043    -0.000006108890    0.000006338763    0.026772025809    -0.038722292575    0.000049088205    -0.000008702726
            -0.000006167899    0.000006374408    0.037234912688    -0.064217193330    -0.000090848773    0.000022010138    0.023760885164    -0.039145888587
            0.027199973215    -0.038869630506    -0.000090872986    0.000022018674    0.042424092865    -0.064695967376    0.000012757426    -0.000000625018
            0.000049065448    -0.000008686205    0.024176687132    -0.039318049280    0.000012698611    -0.000000563113    0.038361400225    -0.065656754566
0.250     0.035405742849    -0.168143898523    0.000021467392    0.000010441181    0.009374575430    -0.092667730432    0.000017807690    -0.000053586113
            0.000021476417    0.000010507104    0.026687388727    -0.163736154270    -0.000000470130    0.000102099388    0.003868449279    -0.088244561505
            0.009809733900    -0.093797588110    -0.000000386475    0.000102143849    0.033000673088    -0.170053345426    0.000007769313    -0.000013684962
            0.000017892521    -0.000053538335    0.004240907247    -0.089392325010    0.000007785010    -0.000013645152    0.024294609594    -0.165776322976
0.275     -0.073691904699    -0.082814364201    -0.000005165091    -0.000013889995    -0.031605894057    -0.021448190389    -0.000062383624    -0.000033325930
            -0.000005089197    -0.000013873540    -0.075649231383    -0.076345678894    0.000093121529    0.000041457170    -0.031283057569    -0.017810775425
            -0.032210837793    -0.022296922191    0.000093102807    0.000041365004    -0.073037893854    -0.081518282887    -0.000016344431    -0.000010821445
            -0.000062394839    -0.000033421546    -0.031936029476    -0.018623839788    -0.000016286900    -0.000010782844    -0.075179223643    -0.075400826684
0.300     0.011291462305    -0.040256354100    0.000001315042    -0.000005882327    0.026076422371    -0.030458967590    -0.000047011864    0.000047260067
            0.000001359062    -0.000005957671    0.006542041979    -0.036146713769    0.000084023298    -0.000086435974    0.021480526699    -0.028164463009
            0.025378021826    -0.030641576867    0.000083962684    -0.000086400967    0.012280819070    -0.043642883836    -0.000013805775    0.000010146578
            -0.000047078769    0.000047291753    0.020766918444    -0.028297914854    -0.000013740503    0.000010059806    0.007348791305    -0.039619717597
0.325     -0.015969794787    -0.082842053225    -0.000010696371    0.000005483974    -0.013480591124    -0.033234613552    0.000031044250    0.000070106678
            -0.000010763905    0.000005408665    -0.017728835941    -0.075615830824    -0.000059565834    -0.000109860206    -0.013392541442    -0.027193715451
            -0.014239297672    -0.033167088585    -0.000059531902    -0.000109785781    -0.019235009166    -0.082580742174    0.000005898900    0.000020161869
            0.000031081940    0.000070182090    -0.014137591903    -0.027070100655    0.000005822676    0.000020096423    -0.021029378675    -0.075654460503
0.350     0.000226007704    -0.038510793822    -0.000005100043    0.000004002048    0.042839237677    -0.012228326736    0.000074429080    -0.000011898181
            -0.000005202315    0.000004056601    -0.003256449173    -0.036884961559    -0.000138469457    0.000017847717    0.040358716647    -0.014033009854
            0.042153082762    -0.011508323623    -0.000138393396    0.000017774048    0.003373311210    -0.036587991099    0.000018515853    0.000000246457
            0.000074495485    -0.000011977094    0.039726186868    -0.013268144562    0.000018423038    0.000000269201    -0.000351013705    -0.035282041962
0.375     0.011750739166    -0.111025804878    0.000021457947    0.000013228134    0.015648341450    -0.105394719160    0.000028312401    -0.000076546646
            0.000021488519    0.000013348058    0.003157981451    -0.103210017936    -0.000015913693    0.000146771782    0.006362715460    -0.099062498913
            0.015744419816    -0.104318272871    -0.000016008640    0.000146731187    0.012914494333    -0.115058971606    0.000013848516    -0.000019664796
            0.000028219925    -0.000076573615    0.006549709663    -0.097989584779    0.000013842128    -0.000019508908    0.004118996994    -0.107549653072
0.400     -0.072224746580    -0.077024289432    -0.000003489270    -0.000021621566    -0.062605258934    -0.041220998671    -0.000083928698    -0.000055581681
            -0.000003353940    -0.000021618283    -0.074759804031    -0.067489685060    0.000124902978    0.000066698333    -0.063647056383    -0.032758254337
            -0.061727930324    -0.040504780496    0.000124899295    0.000066807611    -0.073193752170    -0.076065274849    -0.000022373486    -0.000019121340
            -0.000083925226    -0.000055475093    -0.062706436376    -0.032133166142    -0.000022191763    -0.000019127073    -0.076006347914    -0.066850528367
0.425     -0.012184377791    -0.066386083241    -0.000006838885    -0.000013199462    0.014681480388    -0.052845074606    -0.000073648515    0.000057716019
            -0.000006801897    -0.000013347638    -0.020984861747    -0.058843211598    0.000118983652    -0.000110654985    0.006317587627    -0.048450840465
            0.015492703596    -0.053184896678    0.000119023570    -0.000110723307    -0.010455916269    -0.068188771963    -0.000023572101    0.000010773708
            -0.000073597845    0.000057641071    0.007085567006    -0.048858997257    -0.000023558345    0.000010631373    -0.019538284287    -0.060657357217
0.450     -0.073139198387    -0.177790102628    -0.000038107815    0.000029037692    -0.066705832827    -0.114286838127    0.000022488707    0.000109177382
            -0.000038244328    0.000028972055    -0.086218772190    -0.162121091659    -0.000077653364    -0.000135575713    -0.075470739996    -0.100212285568
            -0.066307858462    -0.114975802200    -0.000077719872    -0.000135552514    -0.075597088091    -0.183622466449    0.000002815874    0.000035675680
            0.000022397990    0.000109187822    -0.075136086500    -0.100940529835    0.000002698883    0.000035582502    -0.089276837172    -0.167999731545
0.475     -0.193118058757    -0.031284422761    0.000049706263    0.000007694351    -0.119795036187    0.009434237883    0.000129752114    -0.000008211952
            0.000049599023    0.000007812982    -0.194834505976    -0.007595945418    -0.000145461422    0.000002280012    -0.118606759152    0.025478795982
            -0.119578237854    0.008826999868    -0.000145450554    0.000002302694    -0.193739627364    -0.030881387832    0.000037308288    -0.000000962669
            0.000129761299    -0.000008166282    -0.118465772170    0.024849081830    0.000037162063    -0.000000824157    -0.195533503650    -0.007129290970
0.500     -0.041460201648    0.026845452912    -0.000009045795    -0.000011420043    -0.014845518459    0.022898730173    0.000022364616    -0.000111732486
            -0.000008934647    -0.000011278019    -0.037802407957    0.041717645106    -0.000064769829    0.000168364553    -0.012948032962    0.033892884394
            -0.015069570252    0.021775003511    -0.000064661086    0.000168380424    -0.039719441125    0.020365484399    0.000009385968    -0.000028558679
            0.000022489111    -0.000111717981    -0.013288351886    0.032812403643    0.000009537388    -0.000028422316    -0.036464943444    0.034832656775
0.525     -0.124162753758    -0.091878656561    -0.000009449132    -0.000039326416    -0.078671466367    -0.028356357323    -0.000106036116    -0.000080149226
            -0.000009312717    -0.000039423195    -0.129909781992    -0.072684871342    0.000142918609    0.000094886985    -0.079102397247    -0.014633289331
            -0.080040916360    -0.028751709318    0.000142776476    0.000094748745    -0.131259793737    -0.094609158659    -0.000029371458    -0.000025692446
            -0.000106174853    -0.000080296439    -0.080509951359    -0.014871063749    -0.000029262322    -0.000025778935    -0.136886315678    -0.074863408150
0.550     -0.193313189289    0.089904020353    -0.000031990775    0.000051871483    -0.075523869453    0.070834320334    -0.000099921232    0.000099985849
            -0.000032033134    0.000051751625    -0.183488535857    0.118043578131    0.000151812329    -0.000077204619    -0.069179456395    0.084903506478
            -0.076380119517    0.071680288261    0.000151796638    -0.000077017949    -0.192957973392    0.092309097786    -0.000026228450    0.000024829586
            -0.000099945700    0.000100167588    -0.069922934906    0.085850512763    -0.000026243183    0.000024709526    -0.181522276827    0.122107128914
0.575     -0.005030577151    0.104384311385    0.000034421022    -0.000010865308    0.009243522275    0.036804843970    0.000050612001    0.000107708672
            0.000034295727    -0.000010884230    0.013381035586    0.113712152592    -0.000029792996    -0.000207076373    0.017536055066    0.044429240896
            0.009169716618    0.037544185729    -0.000029669064    -0.000207102348    -0.005849460300    0.099001762610    0.000007108700    0.000028715537
            0.000050729909    0.000107694587    0.017563327959    0.045166984362    0.000006964254    0.000028680749    0.012296781386    0.107908778006
0.600     -0.060142294734    -0.005813282186    0.000014718509    0.000002202143    -0.043497579213    0.007112610971    0.000138833818    0.000001121803
            0.000014665782    0.000002328755    -0.059891867496    0.004595957464    -0.000204118886    -0.000022288391    -0.042408176449    0.015810986241
            -0.043495427780    0.007834950341    -0.000204101445    -0.000022415040    -0.064803331813    -0.003689614907    0.000038356383    0.000004835759
            0.000138866812    0.000000989848    -0.042317392691    0.016522375341    0.000038316723    0.000004964553    -0.064657476936    0.007603321910
0.625     -0.062752311859    0.082822800366    -0.000021415559    -0.000026682289    -0.011014457258    0.042505573916    0.000029956497    -0.000134488718
            -0.000021326505    -0.000026604001    -0.050624789452    0.102474024797    -0.000106356960    0.000189477905    -0.005730014952    0.054392302502
            -0.010261730525    0.043346741673    -0.000106544536    0.000189518109    -0.058442526812    0.081982785430    0.000012136900    -0.000031546220
            0.000029754053    -0.000134448050    -0.004867599519    0.055123965019    0.000012188700    -0.000031470567    -0.046089170355    0.100833470211
0.650     -0.009045974495    0.019601032502    -0.000001850296    0.000006220205    -0.026329090114    -0.014573957035    -0.000107642552    -0.000086710586
            -0.000001723931    0.000006180399    0.000067552205    0.025490132489    0.000163482620    0.000159073117    -0.023418622087    -0.005540373059
            -0.025062692412    -0.014716909555    0.000163619111    0.000159207372    -0.012437595548    0.014401590991    -0.000025441296    -0.000031076461
            -0.000107486942    -0.000086575524    -0.022188567276    -0.005871815733    -0.000025271821    -0.000031077492    -0.004369154343    0.020266475917
0.675     -0.073965987653    0.038136500747    -0.000014304787    0.000026008568    -0.066442444191    0.049033636092    -0.000125128012    0.000096508999
            -0.000014314991    0.000025834943    -0.070662733180    0.056425716853    0.000203324821    -0.000087533220    -0.061655438408    0.065579974338
            -0.065806813605    0.048055940957    0.000203367797    -0.000087681100    -0.073275072218    0.039812030778    -0.000034678962    0.000024716954
            -0.000125101147    0.000096357375    -0.061182180211    0.064531232425    -0.000034697388    0.000024502235    -0.069861520750    0.058110185838
0.700     -0.016600800545    0.031677485661    0.000014971961    -0.000004833731    -0.003905738408    0.032007350161    0.000044196921    0.000137427710
            0.000014773296    -0.000004847872    -0.005357014743    0.045661645999    -0.000024109115    -0.000244814924    0.005359121424    0.043177808730
            -0.004121205651    0.030985993690    -0.000024248231    -0.000244765913    -0.015333557706    0.022471338656    0.000004033449    0.000036815526
            0.000044064410    0.000137475674    0.005000233981    0.042199570287    0.000003843999    0.000036809015    -0.005405335756    0.035817238858
0.725     -0.140772686518    -0.002007510807    0.000048394875    0.000009951985    -0.097186477873    0.029890536363    0.000178617110    0.000003789321
            0.000048350996    0.000010157291    -0.138459529506    0.024391676198    -0.000212002605    -0.000048180674    -0.091063873856    0.049760556788
            -0.097887937332    0.029289144827    -0.000211894465    -0.000048137041    -0.150485985119    -0.002969984253    0.000052277363    -0.000000148981
            0.000178720690    0.000003852165    -0.091862215454    0.049285073706    0.000052193358    0.000000049278    -0.148696298984    0.024966366468
0.750     -0.116432185040    0.189349995081    -0.000044650672    -0.000074996836    -0.044669662063    0.145558713608    0.000020313774    -0.000165597723
            -0.000044455433    -0.000074908854    -0.082811898038    0.217741890281    -0.000162993349    0.000175556084    -0.019640749013    0.161566197191
            -0.045280798725    0.145270506262    -0.000162980544    0.000175533136    -0.113481503876    0.191585860522    -0.000000314065    -0.000035911767
            0.000020346033    -0.000165633539    -0.020275863354    0.161390696017    -0.000000097103    -0.000035789754    -0.079276881400    0.219341875970
0.775     0.044389564256    0.102899220596    -0.000017667315    0.000050946962    0.042205601957    0.058819713209    -0.000110688981    -0.000079904618
            -0.000017543292    0.000050714271    0.068049879688    0.100210956809    0.000158018302    0.000233841699    0.056758334046    0.057271227714
            0.041009087183    0.059028480680    0.000157883002    0.000233732292    0.039891421736    0.092687234055    -0.000017254470    -0.000023572732
