!$
! Info: Touchstone file created by Circ.  Input file=Intel_C2M_200G_12p0in_202208016_staggered.circ
!$
# Hz S RI R 50
0	0.02937932	5.838721e-24	0.0001137074	1.76717e-22	0.0001559594	3.671073e-22	0.0001136436	1.764523e-22
	0.0001137074	1.76717e-22	0.02939216	5.993886e-24	0.0001136915	1.765886e-22	0.0001555821	3.644209e-22
	0.0001560158	3.672314e-22	0.0001136915	1.765905e-22	0.02937428	5.546937e-24	0.0001136573	1.763279e-22
	0.0001136436	1.764542e-22	0.0001556385	3.645461e-22	0.0001136573	1.763279e-22	0.02939015	5.66602e-24
1e+07	0.03597021	-0.007491774	2.218305e-05	9.092153e-06	0.002578839	0.008567227	5.482341e-06	2.856824e-05
	2.218305e-05	9.092153e-06	0.03553774	-0.007833762	7.00906e-05	6.281977e-06	0.002990352	0.008628683
	0.002578839	0.008567227	7.00906e-05	6.281977e-06	0.03645407	-0.007550011	3.067992e-05	3.279993e-05
	5.482341e-06	2.856824e-05	0.002990352	0.008628683	3.067992e-05	3.279993e-05	0.03530587	-0.007796717
2e+07	0.03818279	-0.0216658	1.239297e-05	2.911565e-05	0.007230193	0.01538268	6.07645e-06	7.392197e-06
	1.239297e-05	2.911565e-05	0.03742936	-0.02199735	5.022535e-05	2.631529e-05	0.007578515	0.01535681
	0.007230198	0.01538267	5.022535e-05	2.631529e-05	0.03845595	-0.02188498	2.392445e-05	2.562294e-05
	6.07645e-06	7.392196e-06	0.00757852	0.0153568	2.392445e-05	2.562294e-05	0.03726643	-0.02184618
3e+07	0.03456658	-0.03763117	3.639577e-05	2.984023e-05	0.01388408	0.02021095	7.677487e-06	1.443413e-06
	3.639577e-05	2.984023e-05	0.03358809	-0.03781629	4.100429e-05	4.131636e-05	0.01418237	0.02017804
	0.01388408	0.02021099	4.100429e-05	4.131636e-05	0.03469754	-0.03782547	2.090264e-05	2.501622e-05
	7.67749e-06	1.443412e-06	0.01418236	0.02017808	2.090265e-05	2.501622e-05	0.03348916	-0.03760917
4e+07	0.02595467	-0.05238451	5.368561e-05	2.06051e-05	0.02178288	0.02239411	9.497851e-06	-1.283665e-06
	5.368561e-05	2.06051e-05	0.02482997	-0.05235853	3.562873e-05	4.868999e-05	0.02203718	0.02237185
	0.02178289	0.02239413	3.562873e-05	4.868998e-05	0.02599985	-0.05251285	1.942768e-05	2.457274e-05
	9.497852e-06	-1.283666e-06	0.02203719	0.02237187	1.942768e-05	2.457274e-05	0.02479857	-0.05212797
5e+07	0.01346724	-0.06433564	6.394334e-05	6.075507e-06	0.02997592	0.02172626	1.150733e-05	-2.850849e-06
	6.394334e-05	6.075506e-06	0.01227181	-0.06406505	5.289447e-05	3.421473e-05	0.03018909	0.0217219
	0.02997593	0.02172626	5.289447e-05	3.421473e-05	0.01346899	-0.06438585	2.535402e-05	1.715415e-05
	1.150733e-05	-2.85085e-06	0.03018909	0.02172191	2.535402e-05	1.715415e-05	0.01230177	-0.06383509
6e+07	-0.001685162	-0.07252787	6.78265e-05	-1.043113e-05	0.03750834	0.01827899	1.23926e-05	-5.235055e-06
	6.78265e-05	-1.043112e-05	-0.002879277	-0.07200233	6.237417e-05	1.643956e-05	0.03768007	0.01829589
	0.03750834	0.01827897	6.237417e-05	1.643957e-05	-0.001693868	-0.07250388	2.8689e-05	8.669658e-06
	1.239259e-05	-5.235053e-06	0.03768006	0.01829587	2.8689e-05	8.669658e-06	-0.002799068	-0.071792
7e+07	-0.01819728	-0.07643782	6.592169e-05	-2.681475e-05	0.04350445	0.0124293	1.221376e-05	-7.902022e-06
	6.592169e-05	-2.681475e-05	-0.01932362	-0.07566577	6.451268e-05	-2.101916e-06	0.04363149	0.01246989
	0.04350445	0.0124293	6.451268e-05	-2.101917e-06	-0.01819394	-0.07635337	2.916904e-05	1.921817e-07
	1.221376e-05	-7.902022e-06	0.04363149	0.01246989	2.916904e-05	1.921814e-07	-0.01920844	-0.07548946
8e+07	-0.03474539	-0.07596811	5.90334e-05	-4.156665e-05	0.04726572	0.004808732	1.107357e-05	-1.048469e-05
	5.90334e-05	-4.156665e-05	-0.03574459	-0.07497295	6.005334e-05	-1.945664e-05	0.0473422	0.004876608
	0.04726573	0.004808734	6.005334e-05	-1.945664e-05	-0.03471753	-0.07584105	2.708725e-05	-7.610273e-06
	1.107357e-05	-1.048469e-05	0.0473422	0.00487661	2.708725e-05	-7.610273e-06	-0.0356127	-0.07483985
9e+07	-0.05010172	-0.07140877	4.803553e-05	-5.36273e-05	0.04833611	-0.003772629	9.15874e-06	-1.266784e-05
	4.803553e-05	-5.36273e-05	-0.05092099	-0.07022557	5.025338e-05	-3.391174e-05	0.0483538	-0.003671345
	0.04833612	-0.003772631	5.025338e-05	-3.391174e-05	-0.0500448	-0.07125638	2.28349e-05	-1.413387e-05
	9.158739e-06	-1.266784e-05	0.04835381	-0.003671347	2.28349e-05	-1.413387e-05	-0.05079299	-0.07013844
1e+08	-0.06318717	-0.0633553	3.270651e-05	-6.246584e-05	0.04653527	-0.01241559	6.640475e-06	-1.421999e-05
	3.270651e-05	-6.246584e-05	-0.06376518	-0.06202554	3.489396e-05	-4.469875e-05	0.04648476	-0.01227168
	0.04653527	-0.01241559	3.489396e-05	-4.469875e-05	-0.06309442	-0.06318976	1.642848e-05	-1.900525e-05
	6.640476e-06	-1.421999e-05	0.04648476	-0.01227168	1.642848e-05	-1.900525e-05	-0.06366243	-0.06198055
1.1e+08	-0.07333997	-0.05286089	1.698769e-05	-6.192422e-05	0.04194246	-0.02021198	4.366551e-06	-1.506499e-05
	1.698769e-05	-6.192422e-05	-0.07366402	-0.05152074	1.902855e-05	-4.427189e-05	0.04181136	-0.02000531
	0.04194245	-0.02021197	1.902855e-05	-4.427189e-05	-0.07325885	-0.05277895	9.751016e-06	-1.984134e-05
	4.366551e-06	-1.506499e-05	0.04181136	-0.02000531	9.751017e-06	-1.984134e-05	-0.07363777	-0.05154913
1.2e+08	-0.08017255	-0.04065335	4.939533e-06	-5.926491e-05	0.03497712	-0.02627987	2.479403e-06	-1.586153e-05
	4.939534e-06	-5.926491e-05	-0.0802973	-0.03934334	7.803331e-06	-4.124072e-05	0.03476724	-0.02598423
	0.03497712	-0.02627986	7.803332e-06	-4.124072e-05	-0.08014641	-0.0405865	4.36462e-06	-1.96233e-05
	2.479403e-06	-1.586153e-05	0.03476724	-0.02598423	4.364621e-06	-1.96233e-05	-0.08035654	-0.03936511
1.3e+08	-0.08341949	-0.02774142	-3.38063e-06	-5.533049e-05	0.02626248	-0.02996775	-2.177997e-07	-1.656278e-05
	-3.38063e-06	-5.533049e-05	-0.08337631	-0.02648818	-1.159071e-06	-3.687926e-05	0.02598417	-0.02955803
	0.02626248	-0.02996775	-1.159071e-06	-3.687926e-05	-0.08344363	-0.02765919	-4.3184e-07	-1.861998e-05
	-2.177996e-07	-1.656278e-05	0.02598417	-0.02955802	-4.318399e-07	-1.861998e-05	-0.08349706	-0.02647236
1.4e+08	-0.08315629	-0.01511755	-8.911542e-06	-5.079727e-05	0.01658779	-0.0308252	-3.695854e-06	-1.678267e-05
	-8.911542e-06	-5.079727e-05	-0.08297286	-0.01394203	-8.446689e-06	-3.159189e-05	0.01626003	-0.03027918
	0.01658779	-0.0308252	-8.446689e-06	-3.159189e-05	-0.08322889	-0.01500854	-4.743737e-06	-1.691738e-05
	-3.695854e-06	-1.678267e-05	0.01626002	-0.03027918	-4.743737e-06	-1.691738e-05	-0.08313977	-0.01388164
1.5e+08	-0.07972406	-0.003675899	-1.453386e-05	-4.553395e-05	0.006846123	-0.02864763	-7.577367e-06	-1.620921e-05
	-1.453386e-05	-4.553395e-05	-0.07942759	-0.002594712	-1.409913e-05	-2.564097e-05	0.00649561	-0.02794896
	0.006846124	-0.02864762	-1.409913e-05	-2.564097e-05	-0.07984844	-0.003527896	-8.606665e-06	-1.457747e-05
	-7.577367e-06	-1.620921e-05	0.00649561	-0.02794895	-8.606665e-06	-1.457747e-05	-0.07963519	-0.002484843
1.6e+08	-0.07368076	0.005850789	-1.993806e-05	-3.932966e-05	-0.002037535	-0.02349958	-1.166153e-05	-1.465859e-05
	-1.993806e-05	-3.932966e-05	-0.07329937	0.00682539	-1.830462e-05	-1.928896e-05	-0.002378188	-0.02264042
	-0.002037534	-0.02349958	-1.830462e-05	-1.928896e-05	-0.07385881	0.006055776	-1.199597e-05	-1.163385e-05
	-1.166153e-05	-1.465859e-05	-0.002378188	-0.02264041	-1.199597e-05	-1.163385e-05	-0.07354497	0.006994251
1.7e+08	-0.06574118	0.0129398	-2.485821e-05	-3.195138e-05	-0.009183431	-0.01571742	-1.56935e-05	-1.197229e-05
	-2.485821e-05	-3.195138e-05	-0.06530408	0.01380065	-2.038228e-05	-1.295061e-05	-0.009478633	-0.01470056
	-0.00918343	-0.01571742	-2.038228e-05	-1.295061e-05	-0.06596717	0.01322404	-1.467357e-05	-8.085919e-06
	-1.56935e-05	-1.197229e-05	-0.009478632	-0.01470055	-1.467357e-05	-8.085919e-06	-0.06558105	0.01404228
1.8e+08	-0.05670454	0.01730865	-2.877726e-05	-2.339422e-05	-0.01383468	-0.005890855	-1.932642e-05	-8.074741e-06
	-2.877726e-05	-2.339422e-05	-0.05624139	0.01805442	-2.112261e-05	-6.572682e-06	-0.01404939	-0.004730882
	-0.01383468	-0.005890854	-2.112261e-05	-6.572682e-06	-0.0569627	0.01769403	-1.649201e-05	-3.980203e-06
	-1.932642e-05	-8.074741e-06	-0.01404939	-0.004730882	-1.649201e-05	-3.980203e-06	-0.05653618	0.01838324
1.9e+08	-0.04737795	0.01892129	-3.121482e-05	-1.388889e-05	-0.01542995	0.005177688	-2.216103e-05	-3.06219e-06
	-3.121482e-05	-1.388889e-05	-0.04691749	0.01955703	-2.107657e-05	-8.606029e-08	-0.01553382	0.006454581
	-0.01542995	0.005177688	-2.107657e-05	-8.606029e-08	-0.04764268	0.01942425	-1.761748e-05	6.416639e-07
	-2.216103e-05	-3.06219e-06	-0.01553382	0.006454581	-1.761748e-05	6.416639e-07	-0.04720908	0.01998381
2e+08	-0.03850045	0.01796931	-3.180928e-05	-3.73736e-06	-0.01366333	0.01653617	-2.384865e-05	2.898236e-06
	-3.180928e-05	-3.73736e-06	-0.03806879	0.01850632	-2.013954e-05	6.398701e-06	-0.01363464	0.01789375
	-0.01366333	0.01653617	-2.013954e-05	6.398701e-06	-0.0387403	0.01859689	-1.788357e-05	5.645437e-06
	-2.384865e-05	2.898236e-06	-0.01363464	0.01789375	-1.788357e-05	5.645437e-06	-0.03833177	0.01903467
2.1e+08	-0.03068221	0.0148289	-3.028678e-05	6.643113e-06	-0.008524647	0.02716369	-2.407478e-05	9.532352e-06
	-3.028678e-05	6.643113e-06	-0.03030109	0.01528388	-1.823646e-05	1.274871e-05	-0.0083537	0.02855872
	-0.008524646	0.02716369	-1.823646e-05	1.274871e-05	-0.03086201	0.01557696	-1.714507e-05	1.085434e-05
	-2.407478e-05	9.532352e-06	-0.0083537	0.02855872	-1.714507e-05	1.085434e-05	-0.03050693	0.01590862
2.2e+08	-0.02435978	0.01000292	-2.64814e-05	1.673838e-05	-0.0003133008	0.03606301	-2.259308e-05	1.646699e-05
	-2.64814e-05	1.673838e-05	-0.02404514	0.01039634	-1.529962e-05	1.879141e-05	-4.628515e-06	0.03744943
	-0.0003133006	0.03606301	-1.529962e-05	1.879141e-05	-0.02444623	0.01085468	-1.528895e-05	1.604706e-05
	-2.259308e-05	1.646699e-05	-4.628319e-06	0.03744943	-1.528895e-05	1.604706e-05	-0.02416696	0.01110206
2.3e+08	-0.01977849	0.004051612	-2.036727e-05	2.597145e-05	0.0103778	0.04235578	-1.925224e-05	2.324787e-05
	-2.036727e-05	2.597145e-05	-0.01953986	0.004405744	-1.128938e-05	2.431382e-05	0.01080472	0.04368947
	0.0103778	0.04235578	-1.128938e-05	2.431382e-05	-0.01974455	0.004979775	-1.22467e-05	2.095608e-05
	-1.925224e-05	2.324787e-05	0.01080472	0.04368947	-1.22467e-05	2.095608e-05	-0.01955603	0.005168444
2.4e+08	-0.01699957	-0.002473375	-1.207534e-05	3.37401e-05	0.02270847	0.04536846	-1.402373e-05	2.936092e-05
	-1.207534e-05	3.37401e-05	-0.01684017	-0.002136656	-6.216019e-06	2.905876e-05	0.02322017	0.04661212
	0.02270847	0.04536846	-6.216019e-06	2.905876e-05	-0.01682714	-0.001504699	-8.012355e-06	2.527377e-05
	-1.402373e-05	2.936092e-05	0.02322017	0.04661212	-8.012355e-06	2.527377e-05	-0.01673651	-0.001348032
2.5e+08	-0.01592866	-0.009084665	-1.901137e-06	3.945814e-05	0.03566314	0.04470072	-7.01984e-06	3.426583e-05
	-1.901137e-06	3.945814e-05	-0.01584639	-0.008745709	-1.595868e-07	3.273662e-05	0.03621472	0.04582832
	0.03566314	0.04470072	-1.595868e-07	3.273662e-05	-0.01561164	-0.008115858	-2.664486e-06	2.866367e-05
	-7.01984e-06	3.426583e-05	0.03621472	0.04582832	-2.664486e-06	2.866367e-05	-0.01561884	-0.007965867
2.6e+08	-0.01635993	-0.01539648	9.696671e-06	4.259665e-05	0.04814056	0.04026814	1.49266e-06	3.743252e-05
	9.696671e-06	4.259665e-05	-0.0163489	-0.01503905	6.70735e-06	3.504498e-05	0.04867961	0.04126811
	0.04814056	0.04026814	6.70735e-06	3.504498e-05	-0.0159044	-0.01446905	3.617492e-06	3.078607e-05
	1.49266e-06	3.743252e-05	0.04867961	0.04126811	3.617492e-06	3.078607e-05	-0.01600362	-0.01430372
2.7e+08	-0.01802561	-0.02114202	2.21065e-05	4.272675e-05	0.05905157	0.03231368	1.108916e-05	3.838443e-05
	2.21065e-05	4.272675e-05	-0.01807782	-0.02075384	1.410689e-05	3.569988e-05	0.0595228	0.03319095
	0.05905157	0.03231368	1.410689e-05	3.569988e-05	-0.01744987	-0.02029457	1.054356e-05	3.133024e-05
	1.108916e-05	3.838443e-05	0.0595228	0.03319095	1.054356e-05	3.133024e-05	-0.01763144	-0.02009634
2.8e+08	-0.02064407	-0.0261717	3.457942e-05	3.956223e-05	0.06741541	0.02139083	2.119236e-05	3.674543e-05
	3.457942e-05	3.956223e-05	-0.02075112	-0.02574418	2.165361e-05	3.447472e-05	0.06776574	0.02216724
	0.06741541	0.02139083	2.165361e-05	3.447472e-05	-0.01997727	-0.02543613	1.771343e-05	3.005416e-05
	2.119236e-05	3.674543e-05	0.06776574	0.02216724	1.771343e-05	3.005416e-05	-0.02022962	-0.02519224
2.9e+08	-0.02395887	-0.03043434	4.626114e-05	3.300255e-05	0.07244521	0.008318901	3.109461e-05	3.229019e-05
	4.626114e-05	3.300255e-05	-0.0241132	-0.02996178	2.88659e-05	3.12426e-05	0.07262881	0.009032195
	0.07244521	0.008318901	2.88659e-05	3.12426e-05	-0.02323833	-0.02983378	2.463691e-05	2.682384e-05
	3.109461e-05	3.229019e-05	0.07262881	0.009032195	2.463691e-05	2.682384e-05	-0.02354988	-0.02953576
3e+08	-0.02776569	-0.03394947	5.623585e-05	2.317131e-05	0.07361586	-0.005883704	3.999661e-05	2.498907e-05
	5.623585e-05	2.317131e-05	-0.02796131	-0.03342789	3.519777e-05	2.601403e-05	0.07359867	-0.005182315
	0.07361586	-0.005883704	3.519777e-05	2.601403e-05	-0.02703406	-0.03349585	3.076564e-05	2.164686e-05
	3.999661e-05	2.498907e-05	0.07359867	-0.005182315	3.076564e-05	2.164686e-05	-0.02739453	-0.03313858
3.1e+08	-0.03192508	-0.03677447	6.358227e-05	1.04529e-05	0.07071108	-0.02008132	4.706281e-05	1.504669e-05
	6.358227e-05	1.04529e-05	-0.03215783	-0.03620036	4.008363e-05	1.895917e-05	0.07047458	-0.01933075
	0.07071108	-0.02008132	4.008363e-05	1.895917e-05	-0.03122745	-0.03646811	3.553793e-05	1.469498e-05
	4.706281e-05	1.504669e-05	0.07047458	-0.01933075	3.553793e-05	1.469498e-05	-0.03162868	-0.03604837
3.2e+08	-0.03636292	-0.03897286	6.74544e-05	-4.498217e-06	0.06384497	-0.03311244	5.149257e-05	2.922751e-06
	6.74544e-05	-4.498217e-06	-0.03663004	-0.03834198	4.298824e-05	1.042386e-05	0.06338896	-0.03224636
	0.06384497	-0.03311244	4.298824e-05	1.042386e-05	-0.03574345	-0.03880099	3.84316e-05	6.307264e-06
	5.149257e-05	2.922751e-06	0.06338896	-0.03224636	3.84316e-05	6.307264e-06	-0.03617949	-0.03831597
3.3e+08	-0.04105902	-0.04058559	6.716607e-05	-2.076022e-05	0.05345808	-0.04388325	5.260298e-05	-1.067291e-05
	6.716607e-05	-2.076022e-05	-0.04135847	-0.03989197	4.346377e-05	9.142895e-07	0.05280215	-0.04283547
	0.05345808	-0.04388325	4.346377e-05	9.142895e-07	-0.0405577	-0.04052412	3.901563e-05	-3.017884e-06
	5.260298e-05	-1.067291e-05	0.05280215	-0.04283547	3.901563e-05	-3.017884e-06	-0.04102439	-0.03996996
3.4e+08	-0.04602788	-0.04160998	6.22819e-05	-3.718696e-05	0.04028849	-0.05145817	4.991233e-05	-2.480764e-05
	6.22819e-05	-3.718696e-05	-0.04635697	-0.0408454	4.119806e-05	-8.923769e-06	0.03947193	-0.05016851
	0.04028849	-0.05145817	4.119806e-05	-8.923769e-06	-0.04567693	-0.04162425	3.699783e-05	-1.265499e-05
	4.991233e-05	-2.480764e-05	0.03947193	-0.05016851	3.699783e-05	-1.265499e-05	-0.04617069	-0.04099496
3.5e+08	-0.05129201	-0.04198759	5.269902e-05	-5.247854e-05	0.02531802	-0.05513861	4.321162e-05	-3.839514e-05
	5.269902e-05	-5.247854e-05	-0.05164611	-0.04114143	3.605826e-05	-1.834573e-05	0.02439805	-0.05355874
	0.02531802	-0.05513861	3.605826e-05	-1.834573e-05	-0.05111421	-0.04203498	3.22618e-05	-2.189085e-05
	4.321162e-05	-3.839514e-05	0.02439805	-0.05355874	3.22618e-05	-2.189085e-05	-0.05163049	-0.04132179
3.6e+08	-0.05685328	-0.04160207	3.869524e-05	-6.52902e-05	0.009697911	-0.05452592	3.261989e-05	-5.02736e-05
	3.869524e-05	-6.52902e-05	-0.05722419	-0.0406619	2.8114e-05	-2.656391e-05	0.008746016	-0.05262484
	0.009697911	-0.05452592	2.8114e-05	-2.656391e-05	-0.05685894	-0.04163423	2.489075e-05	-2.997582e-05
	3.261989e-05	-5.02736e-05	0.008746016	-0.05262484	2.489075e-05	-2.997582e-05	-0.05739037	-0.04082578
3.7e+08	-0.06266243	-0.04028837	2.09571e-05	-7.435074e-05	-0.005342803	-0.04956097	1.860491e-05	-5.931585e-05
	2.09571e-05	-7.435074e-05	-0.06303695	-0.03924109	1.765767e-05	-3.279759e-05	-0.006246088	-0.04732928
	-0.005342803	-0.04956097	1.765767e-05	-3.279759e-05	-0.06284848	-0.04025504	1.517198e-05	-3.618233e-05
	1.860491e-05	-5.931585e-05	-0.006246088	-0.04732928	1.517198e-05	-3.618233e-05	-0.0633829	-0.03933833
3.8e+08	-0.06859374	-0.03785383	5.404448e-07	-7.859343e-05	-0.01859654	-0.04053542	1.967675e-06	-6.453854e-05
	5.404448e-07	-7.859343e-05	-0.06895262	-0.03668761	5.193935e-06	-3.633985e-05	-0.01936847	-0.03798802
	-0.01859654	-0.04053542	5.193935e-06	-3.633985e-05	-0.06894367	-0.03770635	3.596803e-06	-3.985658e-05
	1.967675e-06	-6.453854e-05	-0.01936847	-0.03798802	3.596803e-06	-3.985658e-05	-0.06946254	-0.03666866
3.9e+08	-0.07442589	-0.03410917	-2.118926e-05	-7.727014e-05	-0.02897841	-0.0280747	-1.621289e-05	-6.520101e-05
	-2.118926e-05	-7.727014e-05	-0.07474347	-0.03281595	-8.573715e-06	-3.661212e-05	-0.02954146	-0.02525123
	-0.02897841	-0.0280747	-8.573715e-06	-3.661212e-05	-0.07490938	-0.03380483	-9.16927e-06	-4.047461e-05
	-1.621289e-05	-6.520101e-05	-0.02954146	-0.02525123	-9.16927e-06	-4.047461e-05	-0.07538698	-0.03263652
4e+08	-0.07983557	-0.02891039	-4.266575e-05	-7.003784e-05	-0.03561772	-0.0130893	-3.465137e-05	-6.088532e-05
	-4.266575e-05	-7.003784e-05	-0.08008034	-0.02748878	-2.277442e-05	-3.32198e-05	-0.03590722	-0.01005213
	-0.03561772	-0.0130893	-2.277442e-05	-3.32198e-05	-0.08041179	-0.0284156	-2.230982e-05	-3.768959e-05
	-3.465137e-05	-6.088532e-05	-0.03590722	-0.01005213	-2.230982e-05	-3.768959e-05	-0.08081555	-0.02711332
4.1e+08	-0.08440785	-0.0222029	-6.225502e-05	-5.700401e-05	-0.03793134	0.003297331	-5.196963e-05	-5.153995e-05
	-6.225502e-05	-5.700401e-05	-0.08454439	-0.02066093	-3.642018e-05	-2.599997e-05	-0.03790226	0.00646749
	-0.03793134	0.003297331	-3.642018e-05	-2.599997e-05	-0.0850273	-0.02149591	-3.491449e-05	-3.136962e-05
	-5.196963e-05	-5.153995e-05	-0.03790226	0.00646749	-3.491449e-05	-3.136962e-05	-0.08531945	-0.02006597
4.2e+08	-0.08766267	-0.01406204	-7.838125e-05	-3.873026e-05	-0.03567269	0.01984032	-6.679505e-05	-3.750113e-05
	-7.838125e-05	-3.873026e-05	-0.08765463	-0.01241945	-4.846893e-05	-1.505823e-05	-0.0353047	0.02305082
	-0.03567269	0.01984032	-4.846893e-05	-1.505823e-05	-0.08827106	-0.01313557	-4.602649e-05	-2.162791e-05
	-6.679505e-05	-3.750113e-05	-0.0353047	0.02305082	-4.602649e-05	-2.162791e-05	-0.08841174	-0.0115967
4.3e+08	-0.08910108	-0.004727374	-8.96546e-05	-1.619643e-05	-0.02894992	0.03527368	-7.787032e-05	-1.946849e-05
	-8.96546e-05	-1.619643e-05	-0.0889153	-0.003016685	-5.788992e-05	-7.843536e-07	-0.02825041	0.03842777
	-0.02894992	0.03527368	-5.788992e-05	-7.843536e-07	-0.08964381	-0.003589225	-5.471315e-05	-8.836679e-06
	-7.787032e-05	-1.946849e-05	-0.02825041	0.03842777	-5.471315e-05	-8.836679e-06	-0.0895955	-0.001974163
4.4e+08	-0.08826327	0.005382881	-9.497481e-05	9.265347e-06	-0.01821585	0.04840953	-8.414307e-05	1.539144e-06
	-9.497481e-05	9.265347e-06	-0.08787434	0.007116726	-6.375201e-05	1.61435e-05	-0.01722026	0.0514147
	-0.01821585	0.04840953	-6.375201e-05	1.61435e-05	-0.08868907	0.006710129	-6.013334e-05	6.376794e-06
	-8.414307e-05	1.539144e-06	-0.01722026	0.0514147	-6.013334e-05	6.376794e-06	-0.08842159	0.008354572
4.5e+08	-0.08479242	0.01567703	-9.360447e-05	3.606301e-05	-0.004230445	0.05822893	-8.483542e-05	2.423486e-05
	-9.360447e-05	3.606301e-05	-0.08418723	0.0173788	-6.530178e-05	3.478421e-05	-0.003000165	0.06100508
	-0.004230445	0.05822893	-6.530178e-05	3.478421e-05	-0.08505792	0.01715752	-6.16088e-05	2.315725e-05
	-8.483542e-05	2.423486e-05	-0.003000165	0.06100508	-6.16088e-05	2.315725e-05	-0.08455346	0.01877239
4.6e+08	-0.07849958	0.02541988	-8.52215e-05	6.243472e-05	0.01199874	0.06395631	-7.950386e-05	4.714205e-05
	-8.52215e-05	6.243472e-05	-0.07768102	0.02702767	-6.203497e-05	5.398774e-05	0.01338082	0.06644286
	0.01199874	0.06395631	-6.203497e-05	5.398774e-05	-0.07857279	0.02700735	-5.868699e-05	4.04556e-05
	-7.950386e-05	4.714205e-05	0.01338082	0.06644286	-5.868699e-05	4.04556e-05	-0.07783043	0.02852518
4.7e+08	-0.06941788	0.03378503	-6.994806e-05	8.655096e-05	0.02929157	0.06511493	-6.807965e-05	6.867535e-05
	-6.994806e-05	8.655096e-05	-0.06840739	0.03523534	-5.37592e-05	7.245133e-05	0.03072734	0.06727629
	0.02929157	0.06511493	-5.37592e-05	7.245133e-05	-0.06927941	0.03542577	-5.119285e-05	5.709221e-05
	-6.807965e-05	6.867535e-05	0.03072734	0.06727629	-5.119285e-05	5.709221e-05	-0.06831824	0.03677573
4.8e+08	-0.05783484	0.03992636	-4.836591e-05	0.0001066082	0.04637945	0.06155986	-5.090054e-05	8.721365e-05
