!$
! Info: Touchstone file created by Circ.  Input file=Intel_C2M_200G_12p0in_202208016_staggered.circ
!$
# Hz S RI R 50
0	0.02994247	1.06043e-23	-0.0001349669	1.652868e-20	0.0003767955	1.099965e-21	-0.0001307453	1.601168e-20
	-0.000134967	1.652869e-20	0.02939216	5.993886e-24	-0.0001419713	1.738647e-20	0.0001555821	3.644209e-22
	0.0003768606	1.100743e-21	-0.0001419714	1.738648e-20	0.0299437	1.088338e-23	-0.0001349921	1.653176e-20
	-0.0001307452	1.601167e-20	0.0001556385	3.645461e-22	-0.000134992	1.653175e-20	0.02939015	5.66602e-24
1e+07	0.0360469	-0.007053794	-0.0008343187	1.554484e-05	0.002276058	0.008724197	-7.38832e-05	-0.0001128802
	-0.0008343187	1.554484e-05	0.03553774	-0.007833762	-0.001166989	0.0002976643	0.002990352	0.008628683
	0.002276058	0.008724197	-0.001166989	0.0002976643	0.03558387	-0.00687218	-0.0006103682	-2.264419e-05
	-7.38832e-05	-0.0001128802	0.002990352	0.008628683	-0.0006103682	-2.264419e-05	0.03530587	-0.007796717
2e+07	0.03698812	-0.02037829	-0.0007737671	-0.0003372247	0.006088007	0.01608245	-0.0001065678	-0.0001708334
	-0.000773767	-0.0003372246	0.03742936	-0.02199735	-0.001060484	3.655604e-05	0.007578515	0.01535681
	0.00608809	0.01608234	-0.001060484	3.655609e-05	0.0367953	-0.01993682	-0.0005956712	-0.0002245485
	-0.0001065678	-0.0001708334	0.00757852	0.0153568	-0.0005956712	-0.0002245485	0.03726643	-0.02184618
3e+07	0.03127183	-0.03467497	-0.0007813909	-0.000459725	0.01165719	0.02184191	-0.0001608911	-0.0002179295
	-0.0007813909	-0.000459725	0.03358809	-0.03781629	-0.0009629875	-1.319173e-05	0.01418237	0.02017804
	0.01165717	0.02184188	-0.0009629875	-1.319172e-05	0.03130482	-0.03418444	-0.0006348341	-0.0003084529
	-0.0001608911	-0.0002179295	0.01418236	0.02017808	-0.0006348342	-0.0003084529	0.03348916	-0.03760917
4e+07	0.0206144	-0.04643407	-0.0008336987	-0.0005171428	0.01834209	0.02568224	-0.0002509275	-0.0002351592
	-0.0008336987	-0.0005171428	0.02482997	-0.05235853	-0.0008859713	-5.779387e-05	0.02203718	0.02237185
	0.01834209	0.02568224	-0.0008859713	-5.779387e-05	0.02082749	-0.04597335	-0.0007036158	-0.0003383895
	-0.0002509275	-0.0002351592	0.02203719	0.02237187	-0.0007036159	-0.0003383895	0.02479857	-0.05212797
5e+07	0.006526661	-0.05419976	-0.000911422	-0.0005292666	0.02551198	0.02739119	-0.0003484915	-0.0002280626
	-0.000911422	-0.0005292665	0.01227181	-0.06406505	-0.0008437999	-0.0001212249	0.03018909	0.0217219
	0.02551198	0.0273912	-0.0008437999	-0.0001212249	0.006873776	-0.05381724	-0.0007864809	-0.0003277779
	-0.0003484915	-0.0002280626	0.03018909	0.02172191	-0.0007864809	-0.0003277779	0.01230177	-0.06383509
6e+07	-0.009338229	-0.05710515	-0.001000672	-0.0005033156	0.03248868	0.02699744	-0.0004479239	-0.00019571
	-0.001000672	-0.0005033156	-0.002879277	-0.07200233	-0.0008529205	-0.0001990929	0.03768007	0.01829589
	0.03248868	0.02699744	-0.0008529205	-0.0001990929	-0.008905537	-0.05682889	-0.0008716108	-0.0002830183
	-0.0004479239	-0.00019571	0.03768006	0.01829587	-0.0008716107	-0.0002830183	-0.002799068	-0.071792
7e+07	-0.02523881	-0.05490589	-0.001132847	-0.0003679039	0.03866009	0.02474013	-0.0005418517	-0.0001378603
	-0.001132847	-0.0003679039	-0.01932362	-0.07566577	-0.0009221622	-0.0002727573	0.04363149	0.01246989
	0.03866009	0.02474013	-0.0009221622	-0.0002727574	-0.0247696	-0.05474688	-0.0009502285	-0.0002097005
	-0.0005418518	-0.0001378603	0.04363149	0.01246989	-0.0009502285	-0.0002097005	-0.01920844	-0.07548946
8e+07	-0.03953601	-0.04793344	-0.001267131	-9.67251e-05	0.04353928	0.02102514	-0.0006243263	-5.652434e-05
	-0.001267131	-9.67251e-05	-0.03574459	-0.07497295	-0.001051054	-0.0003176548	0.0473422	0.004876608
	0.04353928	0.02102514	-0.001051054	-0.0003176548	-0.03907715	-0.04788791	-0.001015832	-0.0001131697
	-0.0006243263	-5.652434e-05	0.0473422	0.00487661	-0.001015832	-0.0001131697	-0.0356127	-0.07483985
9e+07	-0.05083788	-0.03699426	-0.001322741	0.0002046757	0.04680435	0.01637006	-0.0006921666	4.729247e-05
	-0.001322741	0.0002046757	-0.05092099	-0.07022557	-0.001229285	-0.0003083919	0.0483538	-0.003671345
	0.04680435	0.01637005	-0.001229285	-0.0003083919	-0.05043159	-0.03704433	-0.001068151	2.928066e-05
	-0.0006921666	4.729247e-05	0.04835381	-0.003671347	-0.001068151	2.92807e-05	-0.05079299	-0.07013844
1e+08	-0.0580541	-0.02324988	-0.001271909	0.0005166624	0.04831495	0.01133948	-0.0007378669	0.0001699295
	-0.001271909	0.0005166624	-0.06376518	-0.06202554	-0.001429668	-0.0002259762	0.04648476	-0.01227168
	0.04831495	0.01133948	-0.001429668	-0.0002259762	-0.05774436	-0.02336685	-0.001081193	0.0002547363
	-0.0007378669	0.0001699295	0.04648476	-0.01227168	-0.001081193	0.0002547363	-0.06366243	-0.06198055
1.1e+08	-0.06073127	-0.00835298	-0.001164768	0.0007259246	0.0480766	0.006506517	-0.0007634133	0.0003037581
	-0.001164768	0.0007259246	-0.07366402	-0.05152074	-0.001631401	-4.06887e-05	0.04181136	-0.02000531
	0.0480766	0.006506518	-0.001631401	-4.06887e-05	-0.06052465	-0.008441341	-0.001055506	0.0004333591
	-0.0007634133	0.0003037581	0.04181136	-0.02000531	-0.001055506	0.0004333591	-0.07363777	-0.05154913
1.2e+08	-0.05887516	0.006578838	-0.001059393	0.0009237855	0.04631268	0.002411113	-0.0007670988	0.0004532884
	-0.001059393	0.0009237855	-0.0802973	-0.03934334	-0.001805598	0.0002299566	0.03476724	-0.02598423
	0.04631268	0.002411113	-0.001805598	0.0002299566	-0.05873732	0.006533599	-0.001021636	0.0006140746
	-0.0007670988	0.0004532884	0.03476724	-0.02598423	-0.001021636	0.0006140746	-0.08035654	-0.03936511
1.3e+08	-0.05265683	0.02017656	-0.0009310269	0.001111737	0.04336833	-0.0005329963	-0.0007482575	0.0006165195
	-0.0009310269	0.001111737	-0.08337631	-0.02648818	-0.001916518	0.000574034	0.02598417	-0.02955803
	0.04336833	-0.0005329957	-0.001916518	0.000574034	-0.05256912	0.02018762	-0.0009646967	0.0007978695
	-0.0007482575	0.0006165195	0.02598417	-0.02955802	-0.0009646967	0.0007978695	-0.08349706	-0.02647236
1.4e+08	-0.04271609	0.03121839	-0.0007747317	0.001286236	0.03968385	-0.002031625	-0.0006922919	0.0007840839
	-0.0007747317	0.001286236	-0.08297286	-0.01394203	-0.001939131	0.0009684835	0.01626003	-0.03027918
	0.03968385	-0.002031625	-0.001939131	0.0009684835	-0.04265965	0.03129784	-0.0008796482	0.0009824324
	-0.0006922919	0.0007840839	0.01626002	-0.03027918	-0.0008796482	0.0009824324	-0.08313977	-0.01388164
1.5e+08	-0.03003209	0.03875171	-0.0005886327	0.001442148	0.03576113	-0.001933129	-0.0005978402	0.0009472709
	-0.0005886327	0.001442148	-0.07942759	-0.002594712	-0.001859058	0.00138326	0.00649561	-0.02794896
	0.03576113	-0.001933129	-0.001859058	0.00138326	-0.02998571	0.03890862	-0.0007623438	0.001163821
	-0.0005978402	0.0009472709	0.00649561	-0.02794895	-0.0007623438	0.001163821	-0.07963519	-0.002484843
1.6e+08	-0.01581744	0.04217816	-0.0003730603	0.001573352	0.03212357	-0.0002391883	-0.00046571	0.00109707
	-0.0003730603	0.001573352	-0.07329937	0.00682539	-0.001673817	0.001785899	-0.002378188	-0.02264042
	0.03212357	-0.0002391879	-0.001673817	0.001785899	-0.01575727	0.04241659	-0.0006095323	0.001336311
	-0.00046571	0.00109707	-0.002378188	-0.02264041	-0.0006095323	0.001336311	-0.07354497	0.006994251
1.7e+08	-0.001395909	0.04130512	-0.0001302371	0.00167337	0.02927257	0.002892081	-0.0002988523	0.001224885
	-0.0001302371	0.00167337	-0.06530408	0.01380065	-0.001392273	0.00214629	-0.009478633	-0.01470056
	0.02927257	0.002892081	-0.001392273	0.00214629	-0.001296983	0.04162242	-0.0004192228	0.001492429
	-0.0002988523	0.001224885	-0.009478632	-0.01470055	-0.0004192228	0.001492429	-0.06558105	0.01404228
1.8e+08	0.01192859	0.03635797	0.0001356747	0.001735875	0.02764332	0.00715632	-0.0001022168	0.001323103
	0.0001356747	0.001735875	-0.05624139	0.01805442	-0.001032103	0.002440663	-0.01404939	-0.004730882
	0.02764332	0.00715632	-0.001032103	0.002440663	0.01208972	0.036744	-0.0001914151	0.001623336
	-0.0001022168	0.001323103	-0.01404939	-0.004730882	-0.0001914151	0.001623336	-0.05653618	0.01838324
1.9e+08	0.02299975	0.02795081	0.0004187842	0.001755184	0.02756148	0.01212584	0.0001176838	0.001385632
	0.0004187842	0.001755184	-0.04691749	0.01955703	-0.0006155789	0.002654082	-0.01553382	0.006454581
	0.02756148	0.01212584	-0.0006155789	0.002654082	0.02324337	0.02838903	7.139455e-05	0.001719223
	0.0001176838	0.001385632	-0.01553382	0.006454581	7.139455e-05	0.001719223	-0.04720908	0.01998381
2e+08	0.03092464	0.01701978	0.0007098924	0.001725722	0.02920637	0.01728627	0.0003533638	0.001408123
	0.0007098924	0.001725722	-0.03806879	0.01850632	-0.0001032412	0.002780589	-0.01363464	0.01789375
	0.02920637	0.01728627	-0.0001032412	0.002780589	0.03126554	0.01748775	0.0003619661	0.001770533
	0.0003533638	0.001408123	-0.01363464	0.01789375	0.0003619661	0.001770533	-0.03833177	0.01903467
2.1e+08	0.03515897	0.004721619	0.001001809	0.001646292	0.03258802	0.0220869	0.0005967148	0.001388083
	0.001001809	0.001646292	-0.03030109	0.01528388	0.000415092	0.002802256	-0.0083537	0.02855872
	0.03258802	0.0220869	0.000415092	0.002802256	0.03560486	0.005192886	0.0006739265	0.00176884
	0.0005967148	0.001388083	-0.0083537	0.02855872	0.0006739265	0.00176884	-0.03050693	0.01590862
2.2e+08	0.03555828	-0.007690911	0.001285264	0.001515914	0.03754045	0.02599765	0.0008398053	0.001324787
	0.001285264	0.001515914	-0.02404514	0.01039634	0.0009186911	0.002728856	-4.628515e-06	0.03744943
	0.03754045	0.02599765	0.0009186911	0.002728856	0.03610802	-0.007243971	0.0009959998	0.001707224
	0.0008398053	0.001324787	-4.628319e-06	0.03744943	0.0009959998	0.001707224	-0.02416696	0.01110206
2.3e+08	0.03238251	-0.01900173	0.001550723	0.00133572	0.04373706	0.02856629	0.001075158	0.001218959
	0.001550723	0.00133572	-0.01953986	0.004405744	0.001393549	0.002573109	0.01080472	0.04368947
	0.04373706	0.02856629	0.001393549	0.002573109	0.03302675	-0.01860536	0.001314728	0.001581954
	0.001075158	0.001218959	0.01080472	0.04368947	0.001314728	0.001581954	-0.01955603	0.005168444
2.4e+08	0.02625919	-0.02815819	0.00178919	0.001108818	0.05072552	0.02946828	0.001295942	0.001072358
	0.00178919	0.001108818	-0.01684017	-0.002136656	0.001832094	0.002347175	0.02322017	0.04661212
	0.05072552	0.02946828	0.001832094	0.002347175	0.02698088	-0.02783445	0.001615684	0.001393065
	0.001295942	0.001072358	0.02322017	0.04661212	0.001615684	0.001393065	-0.01673651	-0.001348032
2.5e+08	0.01810672	-0.03437659	0.001992533	0.0008401407	0.05797741	0.02853939	0.001495977	0.0008873945
	0.001992533	0.0008401407	-0.01584639	-0.008745709	0.002230986	0.002060139	0.03621472	0.04582832
	0.05797741	0.02853939	0.002230986	0.002060139	0.01888282	-0.03414114	0.001884825	0.001144589
	0.001495977	0.0008873945	0.03621472	0.04582832	0.001884825	0.001144589	-0.01561884	-0.007965867
2.6e+08	0.009029466	-0.03721506	0.002153959	0.0005358358	0.06494589	0.0257894	0.001669536	0.000667056
	0.002153959	0.0005358358	-0.0163489	-0.01503905	0.002588328	0.001717049	0.04867961	0.04126811
	0.06494589	0.0257894	0.002588328	0.001717049	0.009833338	-0.03707569	0.002109771	0.0008440236
	0.001669536	0.000667056	0.04867961	0.04126811	0.002109771	0.0008440236	-0.01600362	-0.01430372
2.7e+08	0.0001993883	-0.03660875	0.002268077	0.0002028108	0.07112269	0.02139501	0.001811186	0.0004146216
	0.002268077	0.0002028108	-0.01807782	-0.02075384	0.002900807	0.001319506	0.0595228	0.03319095
	0.07112269	0.02139501	0.002900807	0.001319506	0.001003543	-0.03656419	0.00228074	0.0005014872
	0.001811186	0.0004146216	0.0595228	0.03319095	0.00228074	0.0005014872	-0.01763144	-0.02009634
2.8e+08	-0.007265578	-0.03286488	0.002330717	-0.0001516993	0.07608677	0.01567389	0.001915528	0.0001340022
	0.002330717	-0.0001516993	-0.02075112	-0.02574418	0.003161752	0.000867322	0.06776574	0.02216724
	0.07608677	0.01567389	0.003161752	0.000867322	-0.00648668	-0.03290491	0.002391027	0.0001286535
	0.001915528	0.0001340022	0.06776574	0.02216724	0.002391027	0.0001286535	-0.02022962	-0.02519224
2.9e+08	-0.01241225	-0.02662134	0.002338589	-0.0005202957	0.07953983	0.009047621	0.001977193	-0.0001701849
	0.002338589	-0.0005202957	-0.0241132	-0.02996178	0.00336031	0.000361318	0.07262881	0.009032195
	0.07953983	0.009047621	0.00336031	0.000361318	-0.01167919	-0.0267284	0.002436983	-0.0002624694
	0.001977193	-0.0001701849	0.07262881	0.009032195	0.002436983	-0.0002624694	-0.02354988	-0.02953576
3e+08	-0.01454125	-0.01877673	0.002289028	-0.0008954208	0.08132704	0.00199635	0.001990875	-0.0004922712
	0.002289028	-0.0008954208	-0.02796131	-0.03342789	0.003482135	-0.000194026	0.07359867	-0.005182315
	0.08132704	0.00199635	0.003482135	-0.000194026	-0.01386756	-0.01892724	0.002417572	-0.0006602881
	0.001990875	-0.0004922712	0.07359867	-0.005182315	0.002417572	-0.0006602881	-0.02739453	-0.03313858
3.1e+08	-0.01327152	-0.01039708	0.002179865	-0.001269055	0.0814436	-0.00498557	0.00195154	-0.0008252625
	0.002179865	-0.001269055	-0.03215783	-0.03620036	0.003511287	-0.0007886521	0.07047458	-0.01933075
	0.0814436	-0.00498557	0.003511287	-0.0007886521	-0.01266244	-0.01056452	0.002333807	-0.001054175
	0.00195154	-0.0008252625	0.07047458	-0.01933075	0.002333807	-0.001054175	-0.03162868	-0.03604837
3.2e+08	-0.008573144	-0.002611193	0.002009475	-0.001632407	0.08002762	-0.01143375	0.001854963	-0.001160466
	0.002009475	-0.001632407	-0.03663004	-0.03834198	0.003433119	-0.00140577	0.06338896	-0.03224636
	0.08002762	-0.01143375	0.003433119	-0.00140577	-0.008024285	-0.002768156	0.002187953	-0.001434804
	0.001854963	-0.001160466	0.06338896	-0.03224636	0.002187953	-0.001434804	-0.03617949	-0.03831597
3.3e+08	-0.0007669976	0.003499387	0.001777204	-0.001975629	0.07734293	-0.01695073	0.001698246	-0.001487646
	0.001777204	-0.001975629	-0.04135847	-0.03989197	0.003237099	-0.002022639	0.05280215	-0.04283547
	0.07734293	-0.01695073	0.003237099	-0.002022639	-0.0002650247	0.003377401	0.001982979	-0.001793939
	0.001698246	-0.001487646	0.05280215	-0.04283547	0.001982979	-0.001793939	-0.04102439	-0.03996996
3.4e+08	0.009505932	0.007004322	0.001483943	-0.002287784	0.07375542	-0.02123757	0.001480554	-0.001795147
	0.001483943	-0.002287784	-0.04635697	-0.0408454	0.002919596	-0.002612011	0.03947193	-0.05016851
	0.07375542	-0.02123757	0.002919596	-0.002612011	0.00998256	0.006936731	0.001722137	-0.002124124
	0.001480554	-0.001795147	0.03947193	-0.05016851	0.001722137	-0.002124124	-0.04617069	-0.04099496
3.5e+08	0.02134694	0.007215377	0.001132743	-0.002557069	0.06969981	-0.02411867	0.0012037	-0.002070359
	0.001132743	-0.002557069	-0.05164611	-0.04114143	0.002485361	-0.003145232	0.02439805	-0.05355874
	0.06969981	-0.02411867	0.002485361	-0.003145232	0.0218251	0.007212755	0.001408824	-0.002418164
	0.0012037	-0.002070359	0.02439805	-0.05355874	0.001408824	-0.002418164	-0.05163049	-0.04132179
3.6e+08	0.03368487	0.003753733	0.0007293739	-0.002771483	0.06564286	-0.02555649	0.0008726447	-0.00230061
	0.0007293739	-0.002771483	-0.05722419	-0.0406619	0.001947632	-0.003595463	0.008746016	-0.05262484
	0.06564286	-0.02555649	0.001947632	-0.003595463	0.03419508	0.003818184	0.001046686	-0.002668788
	0.0008726447	-0.00230061	0.008746016	-0.05262484	0.001046686	-0.002668788	-0.05739037	-0.04082578
3.7e+08	0.04538117	-0.003409629	0.0002825822	-0.002919547	0.06204158	-0.02565746	0.0004954843	-0.002474104
	0.0002825822	-0.002919547	-0.06303695	-0.03924109	0.001327138	-0.003940739	-0.006246088	-0.04732928
	0.06204158	-0.02565746	0.001327138	-0.003940739	0.04595396	-0.003286702	0.0006398993	-0.002868273
	0.0004954843	-0.002474104	-0.006246088	-0.04732928	0.0006398993	-0.002868273	-0.0633829	-0.03933833
3.8e+08	0.05534207	-0.01394942	-0.000195722	-0.002991315	0.05929963	-0.02466513	8.345165e-05	-0.002580889
	-0.000195722	-0.002991315	-0.06895262	-0.03668761	0.0006496696	-0.004166286	-0.01936847	-0.03798802
	0.05929963	-0.02466513	0.0006496696	-0.004166286	0.05600422	-0.013787	0.0001939713	-0.003008283
	8.345165e-05	-0.002580889	-0.01936847	-0.03798802	0.0001939713	-0.003008283	-0.06946254	-0.03666866
3.9e+08	0.06262687	-0.02721765	-0.0006909588	-0.002979395	0.05772641	-0.0229395	-0.0003499405	-0.002613829
	-0.0006909588	-0.002979395	-0.07474347	-0.03281595	-5.718724e-05	-0.004265617	-0.02954146	-0.02525123
	0.05772641	-0.0229395	-5.718724e-05	-0.004265617	0.06339935	-0.02704203	-0.0002837898	-0.003080215
	-0.0003499405	-0.002613829	-0.02954146	-0.02525123	-0.0002837898	-0.003080215	-0.07538698	-0.03263652
4e+08	0.06654403	-0.04230752	-0.00118655	-0.002879807	0.05750247	-0.02092303	-0.0007896911	-0.002569189
	-0.00118655	-0.002879807	-0.08008034	-0.02748878	-0.0007672258	-0.004239967	-0.03590722	-0.01005213
	0.05750247	-0.02092303	-0.0007672258	-0.004239967	0.06743838	-0.04215253	-0.0007836962	-0.003075705
	-0.0007896911	-0.002569189	-0.03590722	-0.01005213	-0.0007836962	-0.003075705	-0.08081555	-0.02711332
4.1e+08	0.06671861	-0.0581478	-0.001664994	-0.002692588	0.05865784	-0.01909514	-0.00122046	-0.002446901
	-0.001664994	-0.002692588	-0.08454439	-0.02066093	-0.001457805	-0.004096703	-0.03790226	0.00646749
	0.05865784	-0.01909514	-0.001457805	-0.004096703	0.0677359	-0.05804992	-0.001293204	-0.002987644
	-0.00122046	-0.002446901	-0.03790226	0.00646749	-0.001293204	-0.002987644	-0.08531945	-0.02006597
4.2e+08	0.06312634	-0.07361011	-0.002109062	-0.002422042	0.0610663	-0.01792282	-0.001627617	-0.002250408
	-0.002109062	-0.002422042	-0.08765463	-0.01241945	-0.002111706	-0.00384661	-0.0353047	0.02305082
	0.0610663	-0.01792282	-0.002111706	-0.00384661	0.06425632	-0.07360505	-0.001797327	-0.002811143
	-0.001627617	-0.002250408	-0.0353047	0.02305082	-0.001797327	-0.002811143	-0.08841174	-0.0115967
4.3e+08	0.05609093	-0.08762436	-0.002503147	-0.002076427	0.06445804	-0.01780771	-0.001998251	-0.001985959
	-0.002503147	-0.002076427	-0.0889153	-0.003016685	-0.002716549	-0.003501457	-0.02825041	0.03842777
	0.06445804	-0.01780771	-0.002716549	-0.003501457	0.05731226	-0.08774442	-0.002279106	-0.002544558
	-0.001998251	-0.001985959	-0.02825041	0.03842777	-0.002279106	-0.002544558	-0.0895955	-0.001974163
4.4e+08	0.04624383	-0.09928297	-0.002834317	-0.001667262	0.06844866	-0.01904468	-0.002321548	-0.001662077
	-0.002834317	-0.001667262	-0.08787434	0.007116726	-0.003264031	-0.003071604	-0.01722026	0.0514147
	0.06844866	-0.01904468	-0.003264031	-0.003071604	0.04752656	-0.09955298	-0.002720454	-0.002190387
	-0.002321548	-0.001662077	-0.01722026	0.0514147	-0.002720454	-0.002190387	-0.08842159	0.008354572
4.5e+08	0.0344548	-0.1079256	-0.00309314	-0.001208218	0.07258173	-0.021791	-0.002589173	-0.001288583
	-0.00309314	-0.001208218	-0.08418723	0.0173788	-0.003747673	-0.002564997	-0.003000165	0.06100508
	0.07258173	-0.021791	-0.003747673	-0.002564997	0.03576233	-0.1083609	-0.003103714	-0.001755417
	-0.002589173	-0.001288583	-0.003000165	0.06100508	-0.003103714	-0.001755417	-0.08455346	0.01877239
4.6e+08	0.02174061	-0.1131972	-0.003273837	-0.000713904	0.07637686	-0.02605286	-0.002795192	-0.0008757019
	-0.003273837	-0.000713904	-0.07768102	0.02702767	-0.004160524	-0.001987464	0.01338082	0.06644286
	0.07637686	-0.02605286	-0.004160524	-0.001987464	0.02303292	-0.1138016	-0.003412823	-0.001250446
	-0.002795192	-0.0008757019	0.01338082	0.06644286	-0.003412823	-0.001250446	-0.07783043	0.02852518
4.7e+08	0.0091635	-0.1150723	-0.003374164	-0.0001984507	0.07937893	-0.03168827	-0.002935617	-0.0004336188
	-0.003374164	-0.0001984507	-0.06840739	0.03523534	-0.004493649	-0.001343691	0.03072734	0.06727629
	0.07937893	-0.03168827	-0.004493649	-0.001343691	0.01040115	-0.115838	-0.003634365	-0.0006900675
	-0.002935617	-0.0004336188	0.03072734	0.06727629	-0.003634365	-0.0006900675	-0.06831824	0.03677573
4.8e+08	-0.00227072	-0.1138484	-0.003394589	0.0003252352	0.08120104	-0.0384261	-0.003007944	2.806359e-05
	-0.003394589	0.0003252352	-0.0566732	0.04115968	-0.004735267	-0.0006392079	0.04776312	0.06338898
	0.08120104	-0.0384261	-0.004735267	-0.0006392079	-0.001123172	-0.1147562	-0.003758491	-9.1273e-05
	-0.003007944	2.806359e-05	0.04776312	0.06338898	-0.003758491	-9.1273e-05	-0.05634185	0.04267705
4.9e+08	-0.01170551	-0.1101104	-0.003337314	0.0008459873	0.08155822	-0.04589521	-0.003010585	0.0005002561
