!$
! Info: Touchstone file created by Circ.  Input file=Intel_C2M_200G_12p0in_202208016_staggered.circ
!$
# Hz S RI R 50
0	0.02937938	5.543113e-24	0.0001134347	1.764298e-22	0.0001559813	3.672625e-22	0.0001134284	1.761721e-22
	0.0001134347	1.764298e-22	0.02939216	5.993886e-24	0.0001134389	1.765719e-22	0.0001555821	3.644209e-22
	0.0001560377	3.673866e-22	0.0001134389	1.765738e-22	0.02937434	5.822335e-24	0.0001134305	1.763007e-22
	0.0001134283	1.76174e-22	0.0001556385	3.645461e-22	0.0001134305	1.763007e-22	0.02939015	5.66602e-24
1e+07	0.03528515	-0.007783572	7.897233e-06	3.490674e-05	0.002983188	0.008569866	1.946e-05	3.356302e-05
	7.897233e-06	3.490675e-05	0.03553774	-0.007833762	4.015923e-06	9.33208e-06	0.002990352	0.008628683
	0.002983188	0.008569866	4.015923e-06	9.33208e-06	0.0355279	-0.007760116	7.640066e-06	3.330041e-05
	1.946e-05	3.356302e-05	0.002990352	0.008628683	7.640066e-06	3.330041e-05	0.03530587	-0.007796717
2e+07	0.03725669	-0.0218111	8.824066e-06	1.846501e-05	0.007559192	0.01524478	1.351292e-05	2.23929e-05
	8.824072e-06	1.8465e-05	0.03742936	-0.02199735	2.285211e-05	1.775357e-05	0.007578515	0.01535681
	0.007559197	0.01524476	2.285211e-05	1.775357e-05	0.03746428	-0.02185862	6.707754e-06	1.628996e-05
	1.351292e-05	2.23929e-05	0.00757852	0.0153568	6.707754e-06	1.628996e-05	0.03726643	-0.02184618
3e+07	0.03351444	-0.03756273	1.282719e-05	1.216437e-05	0.01414897	0.02002139	1.039832e-05	2.060089e-05
	1.282719e-05	1.216436e-05	0.03358809	-0.03781629	4.050834e-05	1.58945e-05	0.01418237	0.02017804
	0.01414896	0.02002143	4.050834e-05	1.58945e-05	0.03369017	-0.03762431	9.435374e-06	1.048134e-05
	1.039832e-05	2.060089e-05	0.01418236	0.02017808	9.435375e-06	1.048134e-05	0.03348916	-0.03760917
4e+07	0.02487021	-0.05207748	1.505789e-05	6.71459e-06	0.02199175	0.0221792	1.557789e-05	1.517909e-05
	1.505789e-05	6.71459e-06	0.02482997	-0.05235853	5.180196e-05	6.47523e-06	0.02203718	0.02237185
	0.02199176	0.02217922	5.180196e-05	6.47523e-06	0.02502229	-0.05214671	1.084843e-05	5.915815e-06
	1.557789e-05	1.517909e-05	0.02203719	0.02237187	1.084843e-05	5.915814e-06	0.02479857	-0.05212797
5e+07	0.01243065	-0.0637951	1.562474e-05	1.679072e-06	0.03013769	0.02150061	1.882158e-05	9.212207e-06
	1.562474e-05	1.679071e-06	0.01227181	-0.06406505	5.725049e-05	-6.10606e-06	0.03018909	0.0217219
	0.03013769	0.02150061	5.725049e-05	-6.10606e-06	0.01256042	-0.06386983	1.101627e-05	1.926797e-06
	1.882158e-05	9.212207e-06	0.03018909	0.02172191	1.101627e-05	1.926797e-06	0.01230177	-0.06383509
6e+07	-0.00260806	-0.07178016	1.471697e-05	-2.746034e-06	0.03763209	0.01805038	2.003814e-05	3.244236e-06
	1.471697e-05	-2.746033e-06	-0.002879277	-0.07200233	5.750304e-05	-1.939796e-05	0.03768007	0.01829589
	0.03763209	0.01805036	5.750304e-05	-1.939795e-05	-0.002501421	-0.07186015	1.009689e-05	-1.424256e-06
	2.003814e-05	3.244236e-06	0.03768006	0.01829587	1.009689e-05	-1.424255e-06	-0.002799068	-0.071792
7e+07	-0.01895626	-0.0755235	1.263173e-05	-6.273051e-06	0.04359832	0.01220042	1.947961e-05	-2.284738e-06
	1.263173e-05	-6.273051e-06	-0.01932362	-0.07566577	5.331163e-05	-3.176162e-05	0.04363149	0.01246989
	0.04359832	0.01220041	5.331163e-05	-3.176162e-05	-0.01887627	-0.07560933	8.328331e-06	-3.955755e-06
	1.947962e-05	-2.284738e-06	0.04363149	0.01246989	8.32833e-06	-3.955756e-06	-0.01920844	-0.07548946
8e+07	-0.03530571	-0.0749358	9.748759e-06	-8.673682e-06	0.04733541	0.004578576	1.745878e-05	-7.02129e-06
	9.748759e-06	-8.673682e-06	-0.03574459	-0.07497295	4.556564e-05	-4.208007e-05	0.0473422	0.004876608
	0.04733541	0.004578578	4.556564e-05	-4.208007e-05	-0.0352582	-0.07502717	6.029724e-06	-5.512407e-06
	1.745878e-05	-7.02129e-06	0.0473422	0.00487661	6.029724e-06	-5.512407e-06	-0.0356127	-0.07483985
9e+07	-0.05044161	-0.0703098	6.483669e-06	-9.839443e-06	0.04838319	-0.004007268	1.428718e-05	-1.073267e-05
	6.483668e-06	-9.839443e-06	-0.05092099	-0.07022557	3.512942e-05	-4.970227e-05	0.0483538	-0.003671345
	0.0483832	-0.00400727	3.512942e-05	-4.970227e-05	-0.05043395	-0.07040392	3.562948e-06	-6.032213e-06
	1.428718e-05	-1.073267e-05	0.04835381	-0.003671347	3.562947e-06	-6.032213e-06	-0.05079299	-0.07013844
1e+08	-0.06328039	-0.06223714	3.073574e-06	-9.78539e-06	0.04655684	-0.01265876	9.888615e-06	-1.335684e-05
	3.073574e-06	-9.78539e-06	-0.06376518	-0.06202554	2.175394e-05	-5.449163e-05	0.04648476	-0.01227168
	0.04655684	-0.01265876	2.175394e-05	-5.449163e-05	-0.06331969	-0.06232766	1.196535e-06	-5.539563e-06
	9.888615e-06	-1.335684e-05	0.04648476	-0.01227168	1.196535e-06	-5.539563e-06	-0.06366243	-0.06198055
1.1e+08	-0.07320476	-0.05185212	6.625724e-07	-7.922277e-06	0.04192758	-0.02046041	5.523775e-06	-1.279752e-05
	6.625726e-07	-7.922277e-06	-0.07366402	-0.05152074	8.774093e-06	-5.069725e-05	0.04181136	-0.02000531
	0.04192758	-0.02046041	8.774093e-06	-5.069725e-05	-0.07333185	-0.05197841	-1.706248e-07	-3.913421e-06
	5.523775e-06	-1.279752e-05	0.04181136	-0.02000531	-1.706246e-07	-3.913421e-06	-0.07363777	-0.05154913
1.2e+08	-0.07989062	-0.03978211	-4.957997e-07	-6.0552e-06	0.03492269	-0.02652394	2.744078e-06	-1.156085e-05
	-4.957995e-07	-6.0552e-06	-0.0802973	-0.03934334	2.069673e-06	-4.506139e-05	0.03476724	-0.02598423
	0.03492268	-0.02652394	2.069673e-06	-4.506139e-05	-0.08011169	-0.03986581	-6.335883e-07	-2.438615e-06
	2.744078e-06	-1.156085e-05	0.03476724	-0.02598423	-6.335882e-07	-2.438615e-06	-0.08035654	-0.03936511
1.3e+08	-0.08304545	-0.02701425	-1.065061e-06	-4.409148e-06	0.02616832	-0.0301976	9.05588e-07	-1.009289e-05
	-1.065061e-06	-4.409149e-06	-0.08337631	-0.02648818	7.082127e-07	-3.932764e-05	0.02598417	-0.02955803
	0.02616832	-0.0301976	7.082127e-07	-3.932764e-05	-0.08333176	-0.02702563	-7.224378e-07	-1.241728e-06
	9.05588e-07	-1.009289e-05	0.02598417	-0.02955802	-7.224377e-07	-1.241728e-06	-0.08349706	-0.02647236
1.4e+08	-0.08273419	-0.01452918	-9.081362e-07	-2.997579e-06	0.01645703	-0.03103069	-2.343992e-07	-8.62797e-06
	-9.081361e-07	-2.997579e-06	-0.08297286	-0.01394203	-1.977346e-07	-3.416556e-05	0.01626003	-0.03027918
	0.01645703	-0.03103069	-1.977346e-07	-3.416556e-05	-0.08306552	-0.01446319	-3.179502e-07	-2.791317e-07
	-2.343991e-07	-8.62797e-06	0.01626002	-0.03027918	-3.179501e-07	-2.791318e-07	-0.08313977	-0.01388164
1.5e+08	-0.07928895	-0.003212971	3.040063e-07	-2.089883e-06	0.006685191	-0.02881952	-9.132823e-07	-7.276097e-06
	3.040063e-07	-2.089883e-06	-0.07942759	-0.002594712	-6.440385e-07	-2.953785e-05	0.00649561	-0.02794896
	0.006685191	-0.02881951	-6.440385e-07	-2.953785e-05	-0.07965532	-0.003067407	4.227994e-07	3.284822e-07
	-9.132823e-07	-7.276097e-06	0.00649561	-0.02794895	4.227994e-07	3.284821e-07	-0.07963519	-0.002484843
1.6e+08	-0.07325915	0.006207091	1.515971e-06	-1.640553e-06	-0.002219216	-0.02363066	-1.049386e-06	-6.132481e-06
	1.515971e-06	-1.640553e-06	-0.07329937	0.00682539	-6.391066e-07	-2.544327e-05	-0.002378188	-0.02264042
	-0.002219216	-0.02363066	-6.391066e-07	-2.544327e-05	-0.07365404	0.006438075	1.659326e-06	4.45259e-07
	-1.049386e-06	-6.132481e-06	-0.002378188	-0.02264041	1.659326e-06	4.452589e-07	-0.07354497	0.006994251
1.7e+08	-0.06535122	0.01321136	2.604397e-06	-1.577493e-06	-0.009374255	-0.01580348	-5.804505e-07	-5.324973e-06
	2.604397e-06	-1.577493e-06	-0.06530408	0.01380065	-2.172002e-07	-2.191726e-05	-0.009478633	-0.01470056
	-0.009374254	-0.01580348	-2.172002e-07	-2.191726e-05	-0.06576529	0.01353722	2.741193e-06	2.152165e-07
	-5.804505e-07	-5.324973e-06	-0.009478632	-0.01470055	2.741193e-06	2.152165e-07	-0.06558105	0.01404228
1.8e+08	-0.05635646	0.01751827	3.535342e-06	-1.886797e-06	-0.01402199	-0.005931404	-1.109713e-07	-4.726735e-06
	3.535342e-06	-1.886797e-06	-0.05624139	0.01805442	5.120612e-07	-1.898955e-05	-0.01404939	-0.004730882
	-0.01402199	-0.005931403	5.120612e-07	-1.898955e-05	-0.05677472	0.01794878	3.638404e-06	-3.491116e-07
	-1.109713e-07	-4.726735e-06	-0.01404939	-0.004730882	3.638403e-06	-3.491117e-07	-0.05653618	0.01838324
1.9e+08	-0.04707482	0.01909077	4.220632e-06	-2.502861e-06	-0.01560135	0.005179293	3.260734e-07	-4.320908e-06
	4.220632e-06	-2.502861e-06	-0.04691749	0.01955703	1.422914e-06	-1.666506e-05	-0.01553382	0.006454581
	-0.01560135	0.005179293	1.422914e-06	-1.666506e-05	-0.04747615	0.01963213	4.268224e-06	-1.183474e-06
	3.260734e-07	-4.320908e-06	-0.01553382	0.006454581	4.268224e-06	-1.183474e-06	-0.04720908	0.01998381
2e+08	-0.03823967	0.01811788	4.590332e-06	-3.33849e-06	-0.01380793	0.01657293	6.96879e-07	-4.084743e-06
	4.590332e-06	-3.33849e-06	-0.03806879	0.01850632	2.390493e-06	-1.491709e-05	-0.01363464	0.01789375
	-0.01380793	0.01657293	2.390493e-06	-1.491709e-05	-0.03859894	0.01876952	4.569685e-06	-2.198199e-06
	6.96879e-07	-4.084743e-06	-0.01363464	0.01789375	4.569685e-06	-2.198199e-06	-0.03833177	0.01903467
2.1e+08	-0.03045591	0.01497197	4.602253e-06	-4.288259e-06	-0.00863418	0.02722571	9.720241e-07	-3.986081e-06
	4.602253e-06	-4.288259e-06	-0.03030109	0.01528388	3.289395e-06	-1.368962e-05	-0.0083537	0.02855872
	-0.00863418	0.02722571	3.289395e-06	-1.368962e-05	-0.03074702	0.01572513	4.506231e-06	-3.289607e-06
	9.720241e-07	-3.986081e-06	-0.0083537	0.02855872	4.506231e-06	-3.289607e-06	-0.03050693	0.01590862
2.2e+08	-0.02415698	0.01015103	4.244766e-06	-5.239758e-06	-0.0003828624	0.03613849	1.129266e-06	-3.986002e-06
	4.244766e-06	-5.239758e-06	-0.02404514	0.01039634	4.015505e-06	-1.290073e-05	-4.628515e-06	0.03744943
	-0.0003828622	0.03613849	4.015505e-06	-1.290073e-05	-0.0243562	0.01098798	4.073348e-06	-4.347539e-06
	1.129266e-06	-3.986002e-06	-4.628319e-06	0.03744943	4.073348e-06	-4.347539e-06	-0.02416696	0.01110206
2.3e+08	-0.01958695	0.004210086	3.537737e-06	-6.082564e-06	0.0103494	0.04243212	1.156392e-06	-4.04068e-06
	3.537737e-06	-6.082564e-06	-0.01953986	0.004405744	4.488812e-06	-1.244707e-05	0.01080472	0.04368947
	0.0103494	0.04243212	4.488812e-06	-1.244707e-05	-0.01967596	0.005105977	3.297695e-06	-5.265278e-06
	1.156392e-06	-4.04068e-06	0.01080472	0.04368947	3.297695e-06	-5.265278e-06	-0.01955603	0.005168444
2.4e+08	-0.01680749	-0.002304155	2.530597e-06	-6.716872e-06	0.02271867	0.04543347	1.053231e-06	-4.104423e-06
	2.530597e-06	-6.716872e-06	-0.01684017	-0.002136656	4.659603e-06	-1.221079e-05	0.02322017	0.04661212
	0.02271867	0.04543347	4.659603e-06	-1.221079e-05	-0.01677511	-0.001379986	2.234673e-06	-5.948273e-06
	1.053231e-06	-4.104423e-06	0.02322017	0.04661212	2.234673e-06	-5.948273e-06	-0.01673651	-0.001348032
2.5e+08	-0.0157262	-0.008908446	1.29808e-06	-7.061069e-06	0.03570602	0.04474371	8.324101e-07	-4.133474e-06
	1.29808e-06	-7.061069e-06	-0.01584639	-0.008745709	4.512162e-06	-1.206811e-05	0.03621472	0.04582832
	0.03570602	0.04474371	4.512162e-06	-1.206811e-05	-0.01557068	-0.007989344	9.635747e-07	-6.321654e-06
	8.324101e-07	-4.133474e-06	0.03621472	0.04582832	9.635747e-07	-6.321654e-06	-0.01561884	-0.007965867
2.6e+08	-0.0161403	-0.01521996	-6.570069e-08	-7.05785e-06	0.04820749	0.04028073	5.186469e-07	-4.090151e-06
	-6.570069e-08	-7.05785e-06	-0.0163489	-0.01503905	4.065736e-06	-1.189933e-05	0.04867961	0.04126811
	0.04820749	0.04028073	4.065736e-06	-1.189933e-05	-0.01586918	-0.01433966	-4.189695e-07	-6.335926e-06
	5.186469e-07	-4.090151e-06	0.04867961	0.04126811	-4.189696e-07	-6.335926e-06	-0.01600362	-0.01430372
2.7e+08	-0.01778551	-0.02097354	-1.454584e-06	-6.678308e-06	0.05913201	0.03229047	1.46442e-07	-3.94654e-06
	-1.454584e-06	-6.678308e-06	-0.01807782	-0.02075384	3.372169e-06	-1.159873e-05	0.0595228	0.03319095
	0.05913201	0.03229047	3.372169e-06	-1.159873e-05	-0.01741586	-0.02016311	-1.806777e-06	-5.970398e-06
	1.46442e-07	-3.94654e-06	0.0595228	0.03319095	-1.806777e-06	-5.970398e-06	-0.01763144	-0.02009634
2.8e+08	-0.02038395	-0.02601984	-2.758435e-06	-5.924237e-06	0.06749785	0.02132979	-2.434893e-07	-3.687191e-06
	-2.758435e-06	-5.924237e-06	-0.02075112	-0.02574418	2.51048e-06	-1.108328e-05	0.06776574	0.02216724
	0.06749785	0.02132979	2.51048e-06	-1.108328e-05	-0.01994121	-0.02530473	-3.092335e-06	-5.234512e-06
	-2.434893e-07	-3.687191e-06	0.06776574	0.02216724	-3.092335e-06	-5.234512e-06	-0.02022962	-0.02519224
2.9e+08	-0.02368247	-0.03030665	-3.871635e-06	-4.828063e-06	0.07251821	0.008221403	-6.086082e-07	-3.310314e-06
	-3.871635e-06	-4.828063e-06	-0.0241132	-0.02996178	1.57891e-06	-1.029934e-05	0.07262881	0.009032195
	0.07251821	0.008221402	1.57891e-06	-1.029934e-05	-0.02319853	-0.02970532	-4.17501e-06	-4.166828e-06
	-6.086082e-07	-3.310314e-06	0.07262881	0.009032195	-4.17501e-06	-4.166828e-06	-0.02354988	-0.02953576
3e+08	-0.0274794	-0.03385154	-4.701242e-06	-3.450471e-06	0.07366901	-0.006012996	-9.089543e-07	-2.827269e-06
	-4.701242e-06	-3.450471e-06	-0.02796131	-0.03342789	6.854946e-07	-9.22642e-06	0.07359867	-0.005182315
	0.07366901	-0.006012996	6.854946e-07	-9.22642e-06	-0.02699036	-0.03337335	-4.968513e-06	-2.831862e-06
	-9.089543e-07	-2.827269e-06	0.07359867	-0.005182315	-4.968513e-06	-2.831862e-06	-0.02739453	-0.03313858
3.1e+08	-0.03163707	-0.03670917	-5.174383e-06	-1.875969e-06	0.07073588	-0.02023493	-1.110935e-06	-2.260625e-06
	-5.174383e-06	-1.875969e-06	-0.03215783	-0.03620036	-6.178403e-08	-7.877991e-06	0.07047458	-0.01933075
	0.07073588	-0.02023493	-6.178403e-08	-7.877991e-06	-0.03118108	-0.03635414	-5.407295e-06	-1.315172e-06
	-1.110935e-06	-2.260625e-06	0.07047458	-0.01933075	-5.407295e-06	-1.315172e-06	-0.03162868	-0.03604837
3.2e+08	-0.03608206	-0.03893997	-5.244007e-06	-2.063954e-07	0.06383556	-0.03328079	-1.189967e-06	-1.641133e-06
	-5.244007e-06	-2.063954e-07	-0.03663004	-0.03834198	-5.643076e-07	-6.299496e-06	0.06338896	-0.03224636
	0.06383556	-0.03328079	-5.643076e-07	-6.299496e-06	-0.03569668	-0.03869733	-5.451246e-06	2.831e-07
	-1.189967e-06	-1.641133e-06	0.06338896	-0.03224636	-5.451246e-06	2.831e-07	-0.03617949	-0.03831597
3.3e+08	-0.04079387	-0.04058176	-4.892626e-06	1.446875e-06	0.05341175	-0.04405557	-1.13175e-06	-1.004299e-06
	-4.892626e-06	1.446875e-06	-0.04135847	-0.03989197	-7.408969e-07	-4.564014e-06	0.05280215	-0.04283547
	0.05341175	-0.04405557	-7.408969e-07	-4.564014e-06	-0.04051347	-0.04043141	-5.08842e-06	1.855589e-06
	-1.13175e-06	-1.004299e-06	0.05280215	-0.04283547	-5.08842e-06	1.855589e-06	-0.04102439	-0.03996996
3.4e+08	-0.0457856	-0.04162896	-4.133772e-06	2.971455e-06	0.0402059	-0.05162347	-9.323061e-07	-3.872158e-07
	-4.133772e-06	2.971455e-06	-0.04635697	-0.0408454	-5.342999e-07	-2.766515e-06	0.03947193	-0.05016851
	0.0402059	-0.05162347	-5.342999e-07	-2.766515e-06	-0.04563837	-0.04154195	-4.33586e-06	3.295446e-06
	-9.323061e-07	-3.872158e-07	0.03947193	-0.05016851	-4.33586e-06	3.295446e-06	-0.04617069	-0.04099496
3.5e+08	-0.05107747	-0.04202084	-3.010812e-06	4.262416e-06	0.02520305	-0.05528665	-5.970805e-07	1.74017e-07
	-3.010812e-06	4.262416e-06	-0.05164611	-0.04114143	8.415961e-08	-1.016698e-06	0.02439805	-0.05355874
	0.02520305	-0.05528665	8.415961e-08	-1.016698e-06	-0.0510843	-0.04196135	-3.23817e-06	4.503836e-06
	-5.970805e-07	1.74017e-07	0.02439805	-0.05355874	-3.23817e-06	4.503836e-06	-0.05163049	-0.04132179
3.6e+08	-0.05666831	-0.04163957	-1.593648e-06	5.22997e-06	0.009557202	-0.05464828	-1.397413e-07	6.459928e-07
	-1.593648e-06	5.22997e-06	-0.05722419	-0.0406619	1.111478e-06	5.686279e-07	0.008746016	-0.05262484
	0.009557202	-0.05464828	1.111478e-06	5.686279e-07	-0.0568401	-0.04156643	-1.864428e-06	5.396794e-06
	-1.397413e-07	6.459928e-07	0.008746016	-0.05262484	-1.864428e-06	5.396794e-06	-0.05739037	-0.04082578
3.7e+08	-0.06250546	-0.0403197	2.657885e-08	5.805783e-06	-0.00550047	-0.04965162	4.189507e-07	9.990491e-07
	2.657885e-08	5.805783e-06	-0.06303695	-0.03924109	2.511678e-06	1.873825e-06	-0.006246088	-0.04732928
	-0.005500471	-0.04965162	2.511678e-06	1.873825e-06	-0.06284222	-0.04018933	-3.03344e-07	5.910932e-06
	4.189507e-07	9.990491e-07	-0.006246088	-0.04732928	-3.03344e-07	5.910932e-06	-0.0633829	-0.03933833
3.8e+08	-0.06845972	-0.03786935	1.744002e-06	5.947401e-06	-0.0187612	-0.04059129	1.051861e-06	1.207992e-06
	1.744002e-06	5.947401e-06	-0.06895262	-0.03668761	4.216326e-06	2.792976e-06	-0.01936847	-0.03798802
	-0.0187612	-0.04059129	4.216326e-06	2.792976e-06	-0.06895027	-0.03763834	1.342634e-06	6.007634e-06
	1.051861e-06	1.207992e-06	-0.01936847	-0.03798802	1.342634e-06	6.007634e-06	-0.06946254	-0.03666866
3.9e+08	-0.07430662	-0.03410119	3.445216e-06	5.640879e-06	-0.02913983	-0.02809578	1.725758e-06	1.253017e-06
	3.445216e-06	5.640879e-06	-0.07474347	-0.03281595	6.126834e-06	3.238453e-06	-0.02954146	-0.02525123
	-0.02913983	-0.02809578	6.126834e-06	3.238453e-06	-0.07492772	-0.03372991	2.964043e-06	5.67578e-06
	1.725758e-06	1.253017e-06	-0.02954146	-0.02525123	2.964043e-06	5.67578e-06	-0.07538698	-0.03263652
4e+08	-0.07972046	-0.02887419	5.016665e-06	4.901361e-06	-0.03576629	-0.01307849	2.401647e-06	1.121191e-06
	5.016665e-06	4.901361e-06	-0.08008034	-0.02748878	8.119404e-06	3.14935e-06	-0.03590722	-0.01005213
	-0.03576629	-0.01307849	8.119404e-06	3.14935e-06	-0.08043917	-0.02832937	4.451612e-06	4.932548e-06
	2.401647e-06	1.121191e-06	-0.03590722	-0.01005213	4.451612e-06	4.932548e-06	-0.08081555	-0.02711332
4.1e+08	-0.08428504	-0.02213743	6.351652e-06	3.772081e-06	-0.0380589	0.003334613	3.03554e-06	8.085236e-07
	6.351652e-06	3.772081e-06	-0.08454439	-0.02066093	1.005207e-05	2.498734e-06	-0.03790226	0.00646749
	-0.0380589	0.003334613	1.005207e-05	2.498734e-06	-0.08505948	-0.02139474	5.703292e-06	3.822591e-06
	3.03554e-06	8.085236e-07	-0.03790226	0.00646749	5.703292e-06	3.822591e-06	-0.08531945	-0.02006597
4.2e+08	-0.08752024	-0.01397027	7.3568e-06	2.321869e-06	-0.03577308	0.01989669	3.580217e-06	3.223072e-07
	7.3568e-06	2.321869e-06	-0.08765463	-0.01241945	1.177404e-05	1.298904e-06	-0.0353047	0.02305082
	-0.03577308	0.01989669	1.177404e-05	1.298904e-06	-0.08830241	-0.01301713	6.630954e-06	2.415503e-06
	3.580217e-06	3.223072e-07	-0.0353047	0.02305082	6.630954e-06	2.415503e-06	-0.08841174	-0.0115967
4.3e+08	-0.08892845	-0.004616125	7.957756e-06	6.41415e-07	-0.02901941	0.03534054	3.988407e-06	-3.16786e-07
	7.957756e-06	6.41415e-07	-0.0889153	-0.003016685	1.313702e-05	-3.956248e-07	-0.02825041	0.03842777
	-0.02901941	0.03534054	1.313702e-05	-3.956248e-07	-0.08966782	-0.003453047	7.166284e-06	8.017124e-07
	3.988407e-06	-3.16786e-07	-0.02825041	0.03842777	7.166284e-06	8.017124e-07	-0.0895955	-0.001974163
4.4e+08	-0.08805231	0.005503461	8.104134e-06	-1.161422e-06	-0.01825326	0.04847771	4.217065e-06	-1.073703e-06
	8.104134e-06	-1.161422e-06	-0.08787434	0.007116726	1.400715e-05	-2.48875e-06	-0.01722026	0.0514147
	-0.01825326	0.04847771	1.400715e-05	-2.48875e-06	-0.08869892	0.006862315	7.265594e-06	-9.127924e-07
	4.217065e-06	-1.073703e-06	-0.01722026	0.0514147	7.265594e-06	-9.127924e-07	-0.08842159	0.008354572
4.5e+08	-0.08453856	0.01579447	7.773562e-06	-2.967519e-06	-0.004237171	0.05828947	4.232413e-06	-1.89974e-06
	7.773562e-06	-2.967519e-06	-0.08418723	0.0173788	1.427697e-05	-4.846867e-06	-0.003000165	0.06100508
	-0.004237171	0.05828947	1.427697e-05	-4.846867e-06	-0.08504724	0.01732165	6.913389e-06	-2.612981e-06
	4.232413e-06	-1.89974e-06	-0.003000165	0.06100508	6.913389e-06	-2.612981e-06	-0.08455346	0.01877239
4.6e+08	-0.07820228	0.02552044	6.974563e-06	-4.653419e-06	0.01201888	0.06400115	4.014897e-06	-2.7353e-06
	6.974563e-06	-4.653419e-06	-0.07768102	0.02702767	1.387631e-05	-7.306534e-06	0.01338082	0.06644286
	0.01201888	0.06400115	1.387631e-05	-7.306534e-06	-0.07853655	0.02717712	6.124328e-06	-4.182077e-06
	4.014897e-06	-2.7353e-06	0.01338082	0.06644286	6.124328e-06	-4.182077e-06	-0.07783043	0.02852518
4.7e+08	-0.06908098	0.03385512	5.747898e-06	-6.099335e-06	0.02933276	0.06513741	3.56305e-06	-3.514657e-06
	5.747898e-06	-6.099335e-06	-0.06840739	0.03523534	1.278064e-05	-9.685266e-06	0.03072734	0.06727629
	0.02933276	0.06513741	1.278064e-05	-9.685266e-06	-0.06921465	0.03559319	4.943378e-06	-5.509476e-06
	3.56305e-06	-3.514657e-06	0.03072734	0.06727629	4.943378e-06	-5.509476e-06	-0.06831824	0.03677573
4.8e+08	-0.05746634	0.0399538	4.165709e-06	-7.197844e-06	0.04643427	0.06155533	2.895434e-06	-4.17218e-06
