!$
! Info: Touchstone file created by Circ.  Input file=Intel_C2M_200G_5p0in_202208016_staggered.circ
!$
# Hz S RI R 50
0	0.02022031	6.031328e-24	-7.920745e-05	9.700114e-21	0.0003240471	6.306176e-22	-7.489984e-05	9.172585e-21
	-7.920754e-05	9.700126e-21	0.01966602	3.188568e-24	-8.635262e-05	1.057515e-20	0.0001002138	2.658352e-22
	0.000324115	6.31061e-22	-8.635271e-05	1.057516e-20	0.02022153	6.148847e-24	-7.923284e-05	9.703224e-21
	-7.489983e-05	9.172583e-21	0.0001002713	2.659617e-22	-7.923274e-05	9.703212e-21	0.01966397	3.022394e-24
1e+07	0.02473869	0.006298219	-0.0006611289	-7.475655e-05	0.001149476	0.005488499	-6.148997e-05	-0.0001040327
	-0.0006611289	-7.475655e-05	0.02383935	0.006674958	-0.0004554884	-3.577704e-05	0.001491113	0.005486127
	0.001149476	0.005488499	-0.0004554884	-3.577704e-05	0.02432605	0.006472003	-0.000300071	-0.0001066533
	-6.148997e-05	-0.0001040327	0.001491113	0.005486127	-0.000300071	-0.0001066533	0.02366367	0.006576828
2e+07	0.02993889	0.008822033	-0.000606208	-0.0003036639	0.002540791	0.01048737	-8.971247e-05	-0.0001591563
	-0.000606208	-0.0003036639	0.02817079	0.009805483	-0.0004718638	-0.0002466524	0.003164322	0.01025826
	0.00254088	0.01048726	-0.0004718638	-0.0002466524	0.02977054	0.00925272	-0.0003093861	-0.0002203268
	-8.971246e-05	-0.0001591563	0.003164332	0.01025825	-0.0003093861	-0.0002203268	0.02790856	0.009725203
3e+07	0.03471092	0.009136211	-0.0005991569	-0.0004335481	0.004674534	0.01511863	-0.0001301094	-0.0002159206
	-0.0005991569	-0.0004335481	0.03180263	0.01113603	-0.0005152233	-0.0003582427	0.00562915	0.01473785
	0.00467451	0.0151186	-0.0005152233	-0.0003582427	0.03474942	0.009634384	-0.0003485487	-0.0003182615
	-0.0001301094	-0.0002159206	0.005629124	0.01473788	-0.0003485488	-0.0003182615	0.03147573	0.0111095
4e+07	0.03944531	0.008327708	-0.0006225773	-0.0005238498	0.007418548	0.01936211	-0.0001846023	-0.0002647008
	-0.0006225773	-0.0005238498	0.03480581	0.01158073	-0.0005800438	-0.0004390694	0.008882393	0.0186539
	0.007418548	0.01936211	-0.0005800438	-0.0004390694	0.03965753	0.008827702	-0.0004078278	-0.0003918729
	-0.0001846023	-0.0002647007	0.008882389	0.01865392	-0.0004078278	-0.0003918729	0.03443932	0.01161924
5e+07	0.0441007	0.006466194	-0.0006676926	-0.0005881498	0.0107324	0.02311462	-0.0002492788	-0.0003064882
	-0.0006676926	-0.0005881498	0.03732873	0.01154595	-0.000660681	-0.0004968726	0.01279749	0.02192062
	0.0107324	0.02311463	-0.000660681	-0.0004968726	0.04445861	0.006925702	-0.0004824972	-0.0004453104
	-0.0002492788	-0.0003064882	0.0127975	0.02192063	-0.0004824972	-0.0004453104	0.03693913	0.01165595
6e+07	0.04856527	0.003666677	-0.0007281134	-0.0006302711	0.01452885	0.02630303	-0.0003212674	-0.0003369318
	-0.0007281134	-0.0006302711	0.03944953	0.0112147	-0.0007527631	-0.0005341119	0.01726215	0.02443935
	0.01452885	0.02630303	-0.0007527631	-0.0005341119	0.04904071	0.00405508	-0.0005682922	-0.0004791812
	-0.0003212674	-0.0003369318	0.01726217	0.02443934	-0.0005682922	-0.0004791812	0.03905127	0.0114002
7e+07	0.05275628	2.09093e-05	-0.0008084838	-0.0006444308	0.018713	0.02887067	-0.0003988317	-0.0003554149
	-0.0008084839	-0.0006444308	0.04122105	0.01073022	-0.000852379	-0.0005518156	0.02214481	0.02612922
	0.01871301	0.02887067	-0.000852379	-0.0005518156	0.05331915	0.0003154031	-0.0006611957	-0.0004934967
	-0.0003988317	-0.0003554148	0.02214481	0.02612922	-0.0006611957	-0.0004934967	0.04082773	0.01099307
8e+07	0.05659212	-0.004400652	-0.0009030268	-0.0006276784	0.02318273	0.03077608	-0.0004802169	-0.0003615616
	-0.0009030268	-0.0006276784	0.04271289	0.01020923	-0.0009562939	-0.0005509579	0.02730329	0.02693125
	0.02318273	0.03077608	-0.0009562939	-0.0005509579	0.05721007	-0.004216226	-0.0007573071	-0.0004883451
	-0.0004802169	-0.0003615616	0.02730329	0.02693125	-0.0007573071	-0.0004883451	0.04233784	0.01055026
9e+07	0.05999225	-0.009524672	-0.000992341	-0.0005884148	0.02783242	0.03199489	-0.0005636694	-0.0003552677
	-0.000992341	-0.0005884148	0.0440143	0.009738064	-0.001062417	-0.000532807	0.03258891	0.02680885
	0.02783242	0.03199489	-0.001062417	-0.000532807	0.06062962	-0.009460389	-0.0008554088	-0.0004613282
	-0.0005636694	-0.0003552677	0.03258892	0.02680886	-0.0008554088	-0.0004613282	0.04367082	0.01015827
1e+08	0.06294123	-0.01523778	-0.001063724	-0.0005213845	0.0325586	0.03251826	-0.0006471703	-0.0003368542
	-0.001063724	-0.0005213845	0.0452599	0.009403378	-0.001169371	-0.0004987739	0.03785201	0.02574661
	0.0325586	0.03251826	-0.001169371	-0.0004987739	0.06354716	-0.0153035	-0.0009526792	-0.0004068137
	-0.0006471703	-0.0003368542	0.03785201	0.02574661	-0.0009526791	-0.0004068137	0.04496717	0.009912422
1.1e+08	0.06538055	-0.02181884	-0.001139279	-0.000427879	0.03723886	0.03234403	-0.0007273995	-0.0003079887
	-0.001139279	-0.000427879	0.04657101	0.008934382	-0.0012694	-0.0004521504	0.04293902	0.02373923
	0.03723886	0.03234403	-0.0012694	-0.0004521504	0.06590845	-0.02192533	-0.001041529	-0.0003379879
	-0.0007273995	-0.0003079887	0.04293902	0.02373923	-0.001041529	-0.0003379879	0.04642534	0.009463987
1.2e+08	0.06689094	-0.02893377	-0.001219584	-0.0003344307	0.0417683	0.03151697	-0.0008059811	-0.0002675516
	-0.001219584	-0.0003344307	0.04776786	0.008513161	-0.001364175	-0.0003907354	0.04765981	0.02085524
	0.0417683	0.03151697	-0.001364175	-0.0003907354	0.06736806	-0.02906872	-0.001125337	-0.0002593674
	-0.0008059811	-0.0002675516	0.04765981	0.02085524	-0.001125337	-0.0002593674	0.0476969	0.009035497
1.3e+08	0.06750409	-0.03638615	-0.001294572	-0.0002333653	0.04605672	0.0300814	-0.0008822631	-0.0002165612
	-0.001294572	-0.0002333653	0.04898471	0.008173284	-0.001453479	-0.0003163925	0.05189033	0.01715618
	0.04605672	0.0300814	-0.001453479	-0.0003163925	0.06793586	-0.03654435	-0.001200259	-0.0001702031
	-0.0008822631	-0.0002165612	0.05189033	0.01715618	-0.001200259	-0.0001702031	0.04896545	0.008696006
1.4e+08	0.0672116	-0.04402818	-0.00136144	-0.0001241887	0.05002018	0.02809533	-0.0009538622	-0.0001548767
	-0.00136144	-0.0001241887	0.05029859	0.007891008	-0.001536537	-0.0002303624	0.05550782	0.01272546
	0.05002018	0.02809533	-0.001536537	-0.0002303624	0.06759851	-0.04420294	-0.001264828	-7.205261e-05
	-0.0009538622	-0.0001548767	0.05550782	0.01272546	-0.001264828	-7.205264e-05	0.05032969	0.008416862
1.5e+08	0.06601473	-0.05172265	-0.001418626	-7.512285e-06	0.05358629	0.02562842	-0.001019771	-8.322119e-05
	-0.001418626	-7.512285e-06	0.05176765	0.007624455	-0.001612671	-0.0001336172	0.05840047	0.007664918
	0.05358629	0.02562842	-0.001612671	-0.0001336172	0.06635703	-0.05190621	-0.001318255	3.329183e-05
	-0.001019771	-8.322119e-05	0.05840046	0.007664917	-0.001318255	3.329183e-05	0.05185163	0.008148064
1.6e+08	0.06392849	-0.05933892	-0.001465167	0.0001155918	0.05669566	0.02276036	-0.001079085	-2.422644e-06
	-0.001465167	0.0001155918	0.05343433	0.007318471	-0.001681293	-2.680349e-05	0.0604721	0.002092862
	0.05669566	0.02276037	-0.001681293	-2.680349e-05	0.06422702	-0.05952318	-0.001360293	0.000143988
	-0.001079085	-2.422644e-06	0.0604721	0.002092862	-0.001360293	0.000143988	0.05357194	0.007829596
1.7e+08	0.06098293	-0.0667534	-0.001499951	0.0002437227	0.05930323	0.0195778	-0.00113108	8.672655e-05
	-0.001499951	0.0002437227	0.05532532	0.006907435	-0.001744494	0.00011492	0.06164508	-0.003858689
	0.05930323	0.0195778	-0.001744494	0.00011492	0.06123983	-0.06693024	-0.001390317	0.0002571599
	-0.00113108	8.672655e-05	0.06164508	-0.00385869	-0.001390317	0.0002571599	0.05551367	0.007394321
1.8e+08	0.05722339	-0.07384994	-0.001523422	0.0003758613	0.06137964	0.01617226	-0.001175054	0.0001834588
	-0.001523422	0.0003758613	0.05745041	0.006318115	-0.001794635	0.0002642962	0.06186257	-0.01004699
	0.06137964	0.01617226	-0.001794635	0.0002642962	0.05744135	-0.07401178	-0.001410041	0.000372325
	-0.001175054	0.0001834588	0.06186257	-0.01004699	-0.001410041	0.0003723249	0.05768272	0.006769693
1.9e+08	0.05270866	-0.0805213	-0.001535612	0.000511025	0.06291133	0.01263806	-0.001210445	0.0002870348
	-0.001535612	0.000511025	0.05980106	0.005473024	-0.001831426	0.0004203441	0.06109037	-0.01632182
	0.06291133	0.01263806	-0.001831426	0.0004203441	0.05289221	-0.0806613	-0.00142024	0.0004884557
	-0.001210445	0.0002870348	0.06109037	-0.01632182	-0.00142024	0.0004884557	0.06006746	0.005880263
2e+08	0.04751168	-0.08667098	-0.00153654	0.0006478659	0.0639003	0.009068554	-0.001236724	0.0003966943
	-0.00153654	0.0006478659	0.06234913	0.004294495	-0.001854115	0.0005902853	0.05931753	-0.02252908
	0.0639003	0.009068554	-0.001854115	0.0005902853	0.04766471	-0.08678263	-0.001421745	0.0006048736
	-0.001236724	0.0003966943	0.05931753	-0.02252908	-0.001421745	0.0006048736	0.06263852	0.004650788
2.1e+08	0.04171597	-0.09221476	-0.001526722	0.0007862184	0.06436495	0.005554513	-0.001253427	0.0005117624
	-0.001526722	0.0007862184	0.06504766	0.002709382	-0.001861662	0.0007644652	0.05655664	-0.02851438
	0.06436495	0.005554513	-0.001861662	0.0007644652	0.0418445	-0.0922925	-0.001415622	0.0007213352
	-0.001253427	0.0005117624	0.05655664	-0.02851438	-0.001415622	0.0007213352	0.06534744	0.003010655
2.2e+08	0.03541603	-0.09708191	-0.001506344	0.000925665	0.06433786	0.002181033	-0.001260087	0.000631584
	-0.001506344	0.000925665	0.06783109	0.000652002	-0.001853855	0.0009419009	0.05284356	-0.03412654
	0.06433786	0.002181033	-0.001853855	0.0009419009	0.03552591	-0.09712075	-0.001402674	0.0008379594
	-0.001260087	0.000631584	0.05284356	-0.03412654	-0.001402674	0.0008379594	0.0681286	0.000897134
2.3e+08	0.02871414	-0.1012163	-0.001475521	0.001065871	0.06386533	-0.0009747929	-0.001256259	0.0007555099
	-0.001475521	0.001065871	0.07061762	-0.001931138	-0.001830528	0.001121506	0.04823675	-0.03922139
	0.06386533	-0.0009747929	-0.001830528	0.001121506	0.028812	-0.1012121	-0.001383522	0.0009551504
	-0.001256259	0.0007555099	0.04823675	-0.03922139	-0.001383522	0.0009551504	0.07090075	-0.001741272
2.4e+08	0.02171832	-0.1045779	-0.001434161	0.001206734	0.06300598	-0.003845617	-0.001241471	0.0008828896
	-0.001434161	0.001206734	0.07331145	-0.005078163	-0.001791494	0.001302286	0.04281586	-0.04366452
	0.06300598	-0.003845617	-0.001791494	0.001302286	0.02181169	-0.1045273	-0.001358444	0.001073573
	-0.001241471	0.0008828896	0.04281586	-0.04366452	-0.001358444	0.001073573	0.07356817	-0.00494047
2.5e+08	0.0145409	-0.1071431	-0.001382057	0.001348073	0.06182827	-0.006376166	-0.001215165	0.001013095
	-0.001382057	0.001348073	0.07580553	-0.008808838	-0.00173653	0.001483228	0.03667979	-0.04733453
	0.06182827	-0.006376166	-0.00173653	0.001483228	0.0146375	-0.1070433	-0.001327411	0.001194042
	-0.001215165	0.001013095	0.03667979	-0.04733453	-0.001327411	0.001194042	0.07602516	-0.008718637
2.6e+08	0.007294473	-0.1089043	-0.001318745	0.001489724	0.06040864	-0.008524575	-0.001176823	0.001145404
	-0.001318745	0.001489724	0.07798568	-0.01312259	-0.001665454	0.001663319	0.02994486	-0.05012613
	0.06040864	-0.008524575	-0.001665454	0.001663319	0.007403135	-0.108754	-0.001289937	0.001317425
	-0.001176823	0.001145404	0.02994486	-0.05012613	-0.001289937	0.001317425	0.07815807	-0.01307359
2.7e+08	9.145876e-05	-0.1098708	-0.00124357	0.001631432	0.05882906	-0.01026307	-0.001125769	0.001279082
	-0.00124357	0.001631432	0.07973413	-0.01799691	-0.00157814	0.001841451	0.02274186	-0.05195144
	0.05882906	-0.01026307	-0.00157814	0.001841451	0.0002209772	-0.1096697	-0.001245114	0.001444523
	-0.001125769	0.001279082	0.02274186	-0.05195144	-0.001245114	0.001444523	0.07985034	-0.01798146
2.8e+08	-0.006959519	-0.1100682	-0.001155701	0.001772776	0.05717464	-0.0115794	-0.001061381	0.001413216
	-0.001155701	0.001772776	0.08093375	-0.02338582	-0.001474355	0.002016576	0.01521348	-0.05274282
	0.05717464	-0.0115794	-0.001474355	0.002016576	-0.006799876	-0.1098171	-0.00119166	0.001575938
	-0.001061381	0.001413216	0.01521348	-0.05274282	-0.00119166	0.001575938	0.08098636	-0.02339525
2.9e+08	-0.01375578	-0.1095372	-0.001054188	0.001913053	0.05553072	-0.01247633	-0.0009829836	0.001546795
	-0.001054188	0.001913053	0.08147274	-0.02922078	-0.00135392	0.002187573	0.007511228	-0.05245414
	0.05553072	-0.01247633	-0.00135392	0.002187573	-0.01355644	-0.1092383	-0.001127842	0.001712008
	-0.0009829836	0.001546795	0.007511228	-0.05245414	-0.001127842	0.001712008	0.08145516	-0.0292453
3e+08	-0.0202021	-0.1083328	-0.0009379708	0.002051301	0.05398031	-0.01297229	-0.0008899091	0.001678657
	-0.0009379708	0.002051301	0.08124869	-0.03541078	-0.0012167	0.002353229	-0.0002077285	-0.05106116
	0.05398031	-0.01297229	-0.0012167	0.002353229	-0.01995353	-0.1079897	-0.001051659	0.001852625
	-0.0008899091	0.001678657	-0.0002077286	-0.05106116	-0.001051659	0.001852625	0.08115573	-0.03543994
3.1e+08	-0.02621335	-0.1065231	-0.0008060133	0.002186244	0.05260203	-0.01309964	-0.0007814658	0.001807439
	-0.0008060133	0.002186244	0.08017291	-0.04184425	-0.001062473	0.002512273	-0.007784063	-0.04856297
	0.05260203	-0.01309964	-0.001062473	0.002512273	-0.0259062	-0.1061411	-0.0009609747	0.001997182
	-0.0007814658	0.001807439	-0.007784063	-0.04856297	-0.0009609747	0.001997182	0.08000038	-0.0418666
3.2e+08	-0.03171564	-0.1041878	-0.0006573144	0.002316223	0.05146707	-0.01290499	-0.0006571615	0.001931542
	-0.0006573144	0.002316223	0.07817387	-0.04839088	-0.0008912185	0.0026633	-0.01505938	-0.04498152
	0.05146707	-0.01290499	-0.0008912185	0.0026633	-0.03134162	-0.1037735	-0.0008534508	0.002144511
	-0.0006571615	0.001931542	-0.01505938	-0.04498152	-0.0008534508	0.002144511	0.07791991	-0.04839434
3.3e+08	-0.03664858	-0.1014155	-0.0004910109	0.00243925	0.05063692	-0.0124467	-0.0005165429	0.002049175
	-0.0004910109	0.00243925	0.07520141	-0.05490498	-0.0007027426	0.002804848	-0.02187929	-0.04036106
	0.05063692	-0.0124467	-0.0007027426	0.002804848	-0.03619933	-0.1009774	-0.0007268055	0.002292849
	-0.0005165429	0.002049175	-0.02187929	-0.04036106	-0.0007268055	0.002292849	0.07486524	-0.05487683
3.4e+08	-0.04096551	-0.09830313	-0.0003052614	0.002553334	0.05016228	-0.01179352	-0.0003594383	0.00215838
	-0.0003052614	0.002553334	0.07122952	-0.06122855	-0.0004971633	0.002935214	-0.02809723	-0.0347678
	0.05016228	-0.01179352	-0.0004971633	0.002935214	-0.04043463	-0.09785054	-0.0005789281	0.002439809
	-0.0003594383	0.00215838	-0.02809723	-0.0347678	-0.0005789281	0.002439809	0.07081244	-0.06115617
3.5e+08	-0.04463599	-0.09495212	-0.000101212	0.002655207	0.05008041	-0.01102293	-0.0001857862	0.002256934
	-0.000101212	0.002655207	0.06625863	-0.06719601	-0.0002745822	0.003052712	-0.03357653	-0.02828809
	0.05008041	-0.01102293	-0.0002745822	0.003052712	-0.04401714	-0.09449643	-0.0004080954	0.002582365
	-0.0001857862	0.002256934	-0.03357653	-0.02828809	-0.0004080954	0.002582365	0.06576331	-0.06706626
3.6e+08	-0.04764455	-0.09146771	0.0001208856	0.002742016	0.0504142	-0.01021802	4.09518e-06	0.002342495
	0.0001208856	0.002742016	0.06031712	-0.07263824	-3.514497e-05	0.00315539	-0.03819385	-0.02102732
	0.0504142	-0.01021802	-3.514497e-05	0.00315539	-0.0469336	-0.09102063	-0.0002130183	0.002716977
	4.09518e-06	0.002342495	-0.03819385	-0.02102732	-0.0002130183	0.002716977	0.05974867	-0.07243836
3.7e+08	-0.04999218	-0.08795475	0.0003603255	0.0028107	0.05117155	-0.009465358	0.0002096315	0.002412577
	0.0003603255	0.0028107	0.05346275	-0.07738805	0.0002207242	0.003241165	-0.04184166	-0.01310725
	0.05117155	-0.009465358	0.0002207242	0.003241165	-0.04918688	-0.08752943	7.082769e-06	0.002839607
	0.0002096315	0.002412577	-0.04184166	-0.01310725	7.082769e-06	0.002839607	0.05282809	-0.07710574
3.8e+08	-0.0516959	-0.08451641	0.000615758	0.002858181	0.05234453	-0.00885255	0.0004297053	0.002464644
	0.000615758	0.002858181	0.04578192	-0.08128458	0.0004922848	0.003307815	-0.04442971	-0.004663958
	0.05234453	-0.00885255	0.0004922848	0.003307815	-0.05079519	-0.08412695	0.0002521297	0.002945866
	0.0004297053	0.002464644	-0.04442971	-0.004663958	0.0002521297	0.002945866	0.04508979	-0.08090798
3.9e+08	-0.05278827	-0.08125246	0.0008853044	0.002881425	0.05390961	-0.008465251	0.0006628727	0.002496148
	0.0008853044	0.002881425	0.03739	-0.08417809	0.0007785912	0.003353006	-0.04588791	0.004154366
	0.05390961	-0.008465251	0.0007785912	0.003353006	-0.05179411	-0.08091254	0.0005212975	0.003031165
	0.0006628727	0.002496148	-0.04588791	0.004154366	0.0005212975	0.003031165	0.03665132	-0.08369726
4e+08	-0.05331678	-0.07825532	0.001166486	0.002877565	0.05582794	-0.008384578	0.0009071836	0.002504632
	0.001166486	0.002877565	0.02842845	-0.0859361	0.001078426	0.003374251	-0.04616682	0.01319112
	0.05582794	-0.008384578	0.001078426	0.003374251	-0.05223228	-0.07797914	0.000812926	0.003090812
	0.0009071836	0.002504632	-0.04616682	0.01319112	0.000812926	0.003090812	0.0276553	-0.08534196
4.1e+08	-0.05334196	-0.07560816	0.001456274	0.002844015	0.05804669	-0.008683888	0.001160248	0.002487831
	0.001456274	0.002844015	0.01906221	-0.08644766	0.001389956	0.003369163	-0.0452391	0.02228345
	0.05804669	-0.008683888	0.001389956	0.003369163	-0.05217313	-0.0754095	0.001124299	0.003120334
	0.001160248	0.002487831	-0.0452391	0.02228345	0.001124299	0.003120334	0.0182686	-0.08573269
4.2e+08	-0.0529371	-0.07338426	0.00175108	0.002778626	0.06049961	-0.009428016	0.001419206	0.002443783
	0.00175108	0.002778626	0.009477926	-0.08562648	0.001711204	0.00333522	-0.04310042	0.03126593
	0.06049961	-0.009428016	0.001711204	0.00333522	-0.05169164	-0.07327641	0.001451939	0.003115488
	0.001419206	0.002443783	-0.04310042	0.03126593	0.001451939	0.003115488	0.008679259	-0.08478531
4.3e+08	-0.05218504	-0.07164368	0.002046892	0.002679747	0.0631098	-0.01066887	0.001680884	0.002370749
	0.002046892	0.002679747	-0.0001222241	-0.08341607	0.002039451	0.003270186	-0.03976902	0.03997355
	0.0631098	-0.01066887	0.002039451	0.003270186	-0.05087333	-0.07163875	0.001791528	0.003072514
	0.001680884	0.002370749	-0.03976902	0.03997355	0.001791528	0.003072514	-0.0009098977	-0.08244549
4.4e+08	-0.05117712	-0.07043251	0.002339301	0.002546355	0.06579094	-0.01244539	0.001941628	0.002267569
	0.002339301	0.002546355	-0.009524742	-0.07979182	0.002371707	0.003171883	-0.03528593	0.04824456
	0.06579094	-0.01244539	0.002371707	0.003171883	-0.04981091	-0.07054135	0.002137813	0.002988438
	0.001941628	0.002267569	-0.03528593	0.04824456	0.002137813	0.002988438	-0.01028417	-0.07869085
4.5e+08	-0.05001054	-0.06978221	0.002623692	0.002378118	0.0684505	-0.01478133	0.002197525	0.002133608
	0.002623692	0.002378118	-0.01850874	-0.07476339	0.00270451	0.003038438	-0.02971438	0.05592404
	0.0684505	-0.01478133	0.00270451	0.003038438	-0.04860346	-0.07001384	0.002485038	0.002861066
	0.002197525	0.002133608	-0.02971438	0.05592404	0.002485038	0.002861066	-0.01922243	-0.07353355
4.6e+08	-0.04878587	-0.06970834	0.002895241	0.002175503	0.07099191	-0.01768451	0.002444522	0.001968736
	0.002895241	0.002175503	-0.0268529	-0.06837568	0.003033777	0.002868533	-0.02313844	0.06286661
	0.07099191	-0.01768451	0.003033777	0.002868533	-0.04735296	-0.07006965	0.002827	0.002689021
	0.002444522	0.001968736	-0.02313844	0.06286661	0.002827	0.002689021	-0.02750393	-0.06702105
4.7e+08	-0.04760445	-0.07020919	0.003149263	0.001939631	0.07331761	-0.02114572	0.002678419	0.001773543
	0.003149263	0.001939631	-0.03434247	-0.06071011	0.003355147	0.002661256	-0.01566154	0.06893969
	0.07331761	-0.02114572	0.003355147	0.002661256	-0.04616178	-0.07070534	0.003157068	0.00247225
	0.002678419	0.001773543	-0.01566154	0.06893969	0.003157068	0.00247225	-0.03491311	-0.05923708
4.8e+08	-0.04656526	-0.07126855	0.003381195	0.001672452	0.07533196	-0.02513966	0.0028951	0.001549181
	0.003381195	0.001672452	-0.04077219	-0.05188156	0.003664072	0.002416166	-0.007404922	0.07402536
	0.07533196	-0.02513966	0.003664072	0.002416166	-0.04513002	-0.0719016	0.003468616	0.002211609
	0.0028951	0.001549181	-0.007404922	0.07402536	0.003468616	0.002211609	-0.04124635	-0.05029992
4.9e+08	-0.04576405	-0.07285383	0.003586723	0.001376706	0.07694379	-0.02962484	0.003090586	0.001297496
	0.003586723	0.001376706	-0.04595371	-0.04203974	0.003955568	0.002133735	0.001494889	0.07802388
