!$
! Info: Touchstone file created by Circ.  Input file=Intel_C2M_200G_5p0in_202208016_staggered.circ
!$
# Hz S RI R 50
0	0.01965293	3.005898e-24	5.75008e-05	7.531148e-23	0.0001005971	2.675598e-22	5.743489e-05	7.516856e-23
	5.75008e-05	7.531148e-23	0.01966602	3.188568e-24	5.74836e-05	7.526849e-23	0.0001002138	2.658352e-22
	0.0001006546	2.676864e-22	5.748359e-05	7.526964e-23	0.01964778	2.880258e-24	5.744788e-05	7.512827e-23
	5.743488e-05	7.516971e-23	0.0001002713	2.659617e-22	5.744788e-05	7.512827e-23	0.01966397	3.022394e-24
1e+07	0.02393959	0.006640186	4.87533e-05	8.606297e-06	0.001231539	0.005397506	5.590683e-06	3.857118e-05
	4.87533e-05	8.606297e-06	0.02383935	0.006674958	4.847921e-05	3.303361e-05	0.001491113	0.005486127
	0.001231539	0.005397506	4.847921e-05	3.303361e-05	0.024365	0.006561142	2.691925e-05	2.397597e-05
	5.590683e-06	3.857118e-05	0.001491113	0.005486127	2.691925e-05	2.397597e-05	0.02366367	0.006576828
2e+07	0.02820434	0.009705353	3.678241e-05	1.935525e-05	0.002917905	0.01018907	2.752023e-05	4.14495e-05
	3.678241e-05	1.935525e-05	0.02817079	0.009805483	5.792752e-05	2.875598e-05	0.003164322	0.01025826
	0.002917915	0.01018905	5.792752e-05	2.875598e-05	0.02842654	0.009441484	2.863609e-05	1.322747e-05
	2.752023e-05	4.14495e-05	0.003164332	0.01025825	2.863609e-05	1.322747e-05	0.02790856	0.009725203
3e+07	0.0317811	0.0110203	3.376904e-05	2.730472e-05	0.005390953	0.01464974	4.477035e-05	4.028706e-05
	3.376904e-05	2.730472e-05	0.03180263	0.01113603	6.631913e-05	2.712502e-05	0.00562915	0.01473785
	0.005390926	0.01464977	6.631913e-05	2.712502e-05	0.03184462	0.0107466	3.03396e-05	9.852165e-06
	4.477036e-05	4.028706e-05	0.005629124	0.01473788	3.03396e-05	9.852164e-06	0.03147573	0.0111095
4e+07	0.03473361	0.01146376	3.139342e-05	3.028389e-05	0.008650731	0.01854179	5.910912e-05	3.613026e-05
	3.139342e-05	3.028389e-05	0.03480581	0.01158073	7.356216e-05	2.356499e-05	0.008882393	0.0186539
	0.008650727	0.01854181	7.356216e-05	2.356498e-05	0.03467632	0.01122821	3.172604e-05	7.157407e-06
	5.910912e-05	3.613026e-05	0.008882389	0.01865392	3.172604e-05	7.157407e-06	0.03443932	0.01161924
5e+07	0.03720708	0.01143703	2.901648e-05	3.08293e-05	0.01257208	0.02178379	7.124846e-05	2.970874e-05
	2.901648e-05	3.08293e-05	0.03732873	0.01154595	8.309025e-05	1.542195e-05	0.01279749	0.02192062
	0.01257208	0.0217838	8.309025e-05	1.542195e-05	0.03705602	0.01126667	3.388194e-05	3.453913e-06
	7.124846e-05	2.970874e-05	0.0127975	0.02192063	3.388194e-05	3.453913e-06	0.03693913	0.01165595
6e+07	0.03927809	0.0111221	2.626522e-05	2.997305e-05	0.01704382	0.02427852	8.122389e-05	2.121306e-05
	2.626522e-05	2.997305e-05	0.03944953	0.0112147	9.023269e-05	5.545917e-06	0.01726215	0.02443935
	0.01704384	0.02427851	9.023269e-05	5.545917e-06	0.03905763	0.01103472	3.521784e-05	-5.193928e-07
	8.122389e-05	2.121306e-05	0.01726217	0.02443934	3.521784e-05	-5.193924e-07	0.03905127	0.0114002
7e+07	0.04099876	0.01066265	3.08914e-05	2.491859e-05	0.02193541	0.0259456	8.892399e-05	1.084602e-05
	3.08914e-05	2.491859e-05	0.04122105	0.01073022	9.470731e-05	-5.856587e-06	0.02214481	0.02612922
	0.02193541	0.0259456	9.470731e-05	-5.856588e-06	0.04073216	0.01066993	3.563136e-05	-4.618936e-06
	8.892399e-05	1.084602e-05	0.02214481	0.02612922	3.563136e-05	-4.618936e-06	0.04082773	0.01099307
8e+07	0.04243868	0.01017693	3.575975e-05	1.79039e-05	0.02710573	0.02672605	9.438662e-05	-1.069193e-06
	3.575975e-05	1.79039e-05	0.04271289	0.01020923	9.657398e-05	-1.823154e-05	0.02730329	0.02693125
	0.02710573	0.02672606	9.657398e-05	-1.823154e-05	0.04214888	0.01028675	3.51516e-05	-8.697887e-06
	9.438662e-05	-1.069193e-06	0.02730329	0.02693125	3.51516e-05	-8.697887e-06	0.04233784	0.01055026
9e+07	0.04368764	0.009754082	3.8395e-05	1.008266e-05	0.03240705	0.02658281	9.741784e-05	-1.453541e-05
	3.8395e-05	1.008266e-05	0.0440143	0.009738064	9.566618e-05	-3.131485e-05	0.03258891	0.02680885
	0.03240705	0.02658282	9.566618e-05	-3.131485e-05	0.04339814	0.009972827	3.37479e-05	-1.263149e-05
	9.741784e-05	-1.453541e-05	0.03258892	0.02680886	3.37479e-05	-1.263149e-05	0.04367082	0.01015827
1e+08	0.04488225	0.009491356	3.775182e-05	1.050232e-06	0.03769067	0.02549901	9.664558e-05	-3.121281e-05
	3.775182e-05	1.050232e-06	0.0452599	0.009403378	9.069903e-05	-4.595384e-05	0.03785201	0.02574661
	0.03769067	0.02549901	9.069903e-05	-4.595384e-05	0.04462684	0.009835107	3.278285e-05	-1.365381e-05
	9.664558e-05	-3.121281e-05	0.03785201	0.02574661	3.278285e-05	-1.365381e-05	0.04496717	0.009912422
1.1e+08	0.04618159	0.009099248	3.305177e-05	-3.234516e-06	0.04280019	0.02346838	8.755643e-05	-4.200421e-05
	3.305177e-05	-3.234516e-06	0.04657101	0.008934382	8.631731e-05	-4.487127e-05	0.04293902	0.02373923
	0.04280019	0.02346837	8.631731e-05	-4.487127e-05	0.04607413	0.009479143	3.179427e-05	-1.222575e-05
	8.755643e-05	-4.200421e-05	0.04293902	0.02373923	3.179427e-05	-1.222575e-05	0.04642534	0.009463987
1.2e+08	0.04737002	0.008744871	3.027186e-05	-5.528429e-06	0.04754784	0.02056148	8.218856e-05	-4.676497e-05
	3.027186e-05	-5.528429e-06	0.04776786	0.008513161	8.334538e-05	-4.330802e-05	0.04765981	0.02085524
	0.04754784	0.02056147	8.334538e-05	-4.330802e-05	0.04733036	0.009125219	3.106777e-05	-1.156269e-05
	8.218856e-05	-4.676497e-05	0.04765981	0.02085524	3.106777e-05	-1.156269e-05	0.0476969	0.009035497
1.3e+08	0.04858231	0.008470642	2.886068e-05	-7.553996e-06	0.05181045	0.01683834	8.189313e-05	-4.535119e-05
	2.886068e-05	-7.553996e-06	0.04898471	0.008173284	8.051265e-05	-4.23886e-05	0.05189033	0.01715618
	0.05181045	0.01683834	8.051265e-05	-4.23886e-05	0.04858372	0.008856556	3.055135e-05	-1.14525e-05
	8.189313e-05	-4.535119e-05	0.05189033	0.01715618	3.055135e-05	-1.14525e-05	0.04896545	0.008696006
1.4e+08	0.04989584	0.008254282	2.845747e-05	-9.507342e-06	0.05546556	0.01238119	8.146461e-05	-4.491901e-05
	2.845747e-05	-9.507342e-06	0.05029859	0.007891008	7.786331e-05	-4.184911e-05	0.05550782	0.01272546
	0.05546556	0.01238118	7.786331e-05	-4.184911e-05	0.04993406	0.008647664	3.015006e-05	-1.147453e-05
	8.146461e-05	-4.491901e-05	0.05550782	0.01272546	3.015006e-05	-1.147453e-05	0.05032969	0.008416862
1.5e+08	0.05136915	0.008054419	2.819458e-05	-1.137631e-05	0.05840142	0.007290675	8.094867e-05	-4.523146e-05
	2.819458e-05	-1.137631e-05	0.05176765	0.007624455	7.540494e-05	-4.15895e-05	0.05840047	0.007664918
	0.05840141	0.007290674	7.540494e-05	-4.15895e-05	0.05144411	0.008450079	2.98612e-05	-1.163334e-05
	8.094867e-05	-4.523146e-05	0.05840046	0.007664917	2.98612e-05	-1.163334e-05	0.05185163	0.008148064
1.6e+08	0.05304495	0.007816034	2.803966e-05	-1.326686e-05	0.06052168	0.001683857	8.034191e-05	-4.61677e-05
	2.803966e-05	-1.326686e-05	0.05343433	0.007318471	7.311955e-05	-4.15764e-05	0.0604721	0.002092862
	0.06052168	0.001683857	7.311955e-05	-4.15764e-05	0.05315516	0.008204688	2.966972e-05	-1.194259e-05
	8.034191e-05	-4.61677e-05	0.0604721	0.002092862	2.966972e-05	-1.194259e-05	0.05357194	0.007829596
1.7e+08	0.05495045	0.007473381	2.794971e-05	-1.526154e-05	0.06174828	-0.004308489	7.961663e-05	-4.765603e-05
	2.794971e-05	-1.526154e-05	0.05532532	0.006907435	7.120996e-05	-4.211762e-05	0.06164508	-0.003858689
	0.06174828	-0.00430849	7.120996e-05	-4.211762e-05	0.05509084	0.007844951	2.960916e-05	-1.251183e-05
	7.961663e-05	-4.765603e-05	0.06164508	-0.00385869	2.960916e-05	-1.251183e-05	0.05551367	0.007394321
1.8e+08	0.05709575	0.006953061	2.787597e-05	-1.742521e-05	0.06202366	-0.01054487	7.872788e-05	-4.96479e-05
	2.787597e-05	-1.742521e-05	0.05745041	0.006318115	6.942498e-05	-4.315959e-05	0.06186257	-0.01004699
	0.06202366	-0.01054487	6.942498e-05	-4.315959e-05	0.05725795	0.007298708	2.964535e-05	-1.342041e-05
	7.872788e-05	-4.96479e-05	0.06186257	-0.01004699	2.964535e-05	-1.342041e-05	0.05768272	0.006769693
1.9e+08	0.05947274	0.006177255	2.776567e-05	-1.980386e-05	0.06131271	-0.01687614	7.762471e-05	-5.210239e-05
	2.776567e-05	-1.980386e-05	0.05980106	0.005473024	6.752082e-05	-4.445927e-05	0.06109037	-0.01632182
	0.06131271	-0.01687614	6.752082e-05	-4.445927e-05	0.05964578	0.006490642	2.962222e-05	-1.453701e-05
	7.762471e-05	-5.210239e-05	0.06109037	-0.01632182	2.962222e-05	-1.453701e-05	0.06006746	0.005880263
2e+08	0.06205377	0.00506784	2.755404e-05	-2.243401e-05	0.05960332	-0.02314928	7.624651e-05	-5.49824e-05
	2.755404e-05	-2.243401e-05	0.06234913	0.004294495	6.54698e-05	-4.599609e-05	0.05931753	-0.02252908
	0.05960332	-0.02314928	6.54698e-05	-4.599609e-05	0.06222591	0.005345476	2.951073e-05	-1.586479e-05
	7.624651e-05	-5.49824e-05	0.05931753	-0.02252908	2.951073e-05	-1.586479e-05	0.06263852	0.004650788
2.1e+08	0.06479229	0.003551165	2.716779e-05	-2.533793e-05	0.05690662	-0.02921065	7.452729e-05	-5.824784e-05
	2.716779e-05	-2.533793e-05	0.06504766	0.002709382	6.323197e-05	-4.775308e-05	0.05655664	-0.02851438
	0.05690662	-0.02921065	6.323197e-05	-4.775308e-05	0.06495091	0.003792303	2.927676e-05	-1.740466e-05
	7.452729e-05	-5.824784e-05	0.05655664	-0.02851438	2.927676e-05	-1.740466e-05	0.06534744	0.003010655
2.2e+08	0.06762321	0.001560844	2.652818e-05	-2.85226e-05	0.05325689	-0.03490973	7.239893e-05	-6.185207e-05
	2.652818e-05	-2.85226e-05	0.06783109	0.000652002	6.076606e-05	-4.970791e-05	0.05284356	-0.03412654
	0.05325689	-0.03490973	6.076606e-05	-4.970791e-05	0.06775628	0.001767868	2.888164e-05	-1.915359e-05
	7.239893e-05	-6.185207e-05	0.05284356	-0.03412654	2.888164e-05	-1.915359e-05	0.0681286	0.000897134
2.3e+08	0.07046517	-0.0009574558	2.627228e-05	-3.176573e-05	0.04871086	-0.04010268	6.973341e-05	-6.577059e-05
	2.627228e-05	-3.176573e-05	0.07061762	-0.001931138	5.796739e-05	-5.18652e-05	0.04823675	-0.03922139
	0.04871086	-0.04010268	5.796739e-05	-5.18652e-05	0.0705618	-0.0007801315	2.82871e-05	-2.109966e-05
	6.973341e-05	-6.577059e-05	0.04823675	-0.03922139	2.82871e-05	-2.109966e-05	0.07090075	-0.001741272
2.4e+08	0.07322271	-0.004042847	2.557164e-05	-3.535147e-05	0.04334628	-0.0446552	6.651551e-05	-6.989432e-05
	2.557164e-05	-3.535147e-05	0.07331145	-0.005078163	5.484052e-05	-5.414804e-05	0.04281586	-0.04366452
	0.04334628	-0.0446552	5.484052e-05	-5.414804e-05	0.07327283	-0.003888718	2.744577e-05	-2.323205e-05
	6.651551e-05	-6.989432e-05	0.04281586	-0.04366452	2.744577e-05	-2.323205e-05	0.07356817	-0.00494047
2.5e+08	0.07578903	-0.007716292	2.428489e-05	-3.923925e-05	0.03726009	-0.04844561	6.269002e-05	-7.414425e-05
	2.428489e-05	-3.923925e-05	0.07580553	-0.008808838	5.134549e-05	-5.651325e-05	0.03667979	-0.04733453
	0.03726009	-0.04844561	5.134549e-05	-5.651325e-05	0.07578455	-0.007577462	2.631182e-05	-2.552754e-05
	6.269002e-05	-7.414425e-05	0.03667979	-0.04733453	2.631182e-05	-2.552754e-05	0.07602516	-0.008718637
2.6e+08	0.07805006	-0.01197854	2.23323e-05	-4.335123e-05	0.03056666	-0.05136805	5.820459e-05	-7.843295e-05
	2.23323e-05	-4.335123e-05	0.07798568	-0.01312259	4.744085e-05	-5.891213e-05	0.02994486	-0.05012613
	0.03056666	-0.05136805	4.744085e-05	-5.891213e-05	0.07798403	-0.01184589	2.483925e-05	-2.795523e-05
	5.820459e-05	-7.843295e-05	0.02994486	-0.05012613	2.483925e-05	-2.795523e-05	0.07815807	-0.01307359
2.7e+08	0.07988795	-0.01680857	1.964138e-05	-4.759416e-05	0.02339483	-0.05333369	5.301532e-05	-8.266289e-05
	1.964138e-05	-4.759416e-05	0.07973413	-0.01799691	4.308775e-05	-6.12877e-05	0.02274186	-0.05195144
	0.02339483	-0.05333369	4.308775e-05	-6.12877e-05	0.07975519	-0.01667208	2.298279e-05	-3.047587e-05
	5.301532e-05	-8.266289e-05	0.02274186	-0.05195144	2.298279e-05	-3.047587e-05	0.07985034	-0.01798146
2.8e+08	0.08118522	-0.02216201	1.615263e-05	-5.185761e-05	0.01588546	-0.05427362	4.709077e-05	-8.672568e-05
	1.615263e-05	-5.185761e-05	0.08093375	-0.02338582	3.825203e-05	-6.357505e-05	0.01521348	-0.05274282
	0.01588546	-0.05427362	3.825203e-05	-6.357505e-05	0.08098256	-0.02201124	2.070164e-05	-3.303997e-05
	4.709077e-05	-8.672568e-05	0.01521348	-0.05274282	2.070164e-05	-3.303997e-05	0.08098636	-0.02339525
2.9e+08	0.08182945	-0.02797203	1.182046e-05	-5.601732e-05	0.008188402	-0.05414006	4.041401e-05	-9.050432e-05
	1.182046e-05	-5.601732e-05	0.08147274	-0.02922078	3.290785e-05	-6.570001e-05	0.007511228	-0.05245414
	0.008188402	-0.05414006	3.290785e-05	-6.570001e-05	0.08155488	-0.02779607	1.795896e-05	-3.558955e-05
	4.041401e-05	-9.050432e-05	0.007511228	-0.05245414	1.795896e-05	-3.558955e-05	0.08145516	-0.0292453
3e+08	0.08171728	-0.03414936	6.614948e-06	-5.99375e-05	0.0004593661	-0.05290688	3.298289e-05	-9.387447e-05
	6.614948e-06	-5.99375e-05	0.08124869	-0.03541078	2.703879e-05	-6.758089e-05	-0.0002077285	-0.05106116
	0.000459366	-0.05290688	2.703879e-05	-6.758089e-05	0.08137048	-0.03393745	1.472448e-05	-3.805755e-05
	3.298289e-05	-9.387447e-05	-0.0002077286	-0.05106116	1.472448e-05	-3.805755e-05	0.08115573	-0.03543994
3.1e+08	0.08075869	-0.04058413	5.312778e-07	-6.347101e-05	-0.007143414	-0.0505709	2.481397e-05	-9.670729e-05
	5.312778e-07	-6.347101e-05	0.08017291	-0.04184425	2.063564e-05	-6.91296e-05	-0.007784063	-0.04856297
	-0.007143414	-0.0505709	2.063564e-05	-6.91296e-05	0.08034043	-0.04032527	1.097739e-05	-4.036842e-05
	2.481397e-05	-9.670729e-05	-0.007784063	-0.04856297	1.097739e-05	-4.036842e-05	0.08000038	-0.0418666
3.2e+08	0.07888046	-0.04714763	-6.417315e-06	-6.646507e-05	-0.01446239	-0.04715164	1.594397e-05	-9.887093e-05
	-6.417315e-06	-6.646507e-05	0.07817387	-0.04839088	1.37056e-05	-7.025176e-05	-0.01505938	-0.04498152
	-0.01446239	-0.04715164	1.37056e-05	-7.025176e-05	0.07839378	-0.04683107	6.704826e-06	-4.243938e-05
	1.594397e-05	-9.887093e-05	-0.01505938	-0.04498152	6.704826e-06	-4.243938e-05	0.07791991	-0.04839434
3.3e+08	0.0760303	-0.05369566	-1.419021e-05	-6.876327e-05	-0.02134356	-0.04269074	6.428663e-06	-0.0001002343
	-1.419021e-05	-6.876327e-05	0.07520141	-0.05490498	6.26539e-06	-7.084899e-05	-0.02187929	-0.04036106
	-0.02134356	-0.04269074	6.26539e-06	-7.084899e-05	0.07547919	-0.05331077	1.908357e-06	-4.418121e-05
	6.428663e-06	-0.0001002343	-0.02187929	-0.04036106	1.908357e-06	-4.418121e-05	0.07486524	-0.05487683
3.4e+08	0.07217973	-0.06007135	-2.272237e-05	-7.021021e-05	-0.02764037	-0.03725164	-3.651289e-06	-0.0001006704
	-2.272237e-05	-7.021021e-05	0.07122952	-0.06122855	-1.650194e-06	-7.08171e-05	-0.02809723	-0.0347678
	-0.02764037	-0.03725164	-1.650194e-06	-7.08171e-05	0.07156991	-0.05960845	-3.399278e-06	-4.550009e-05
	-3.651289e-06	-0.0001006704	-0.02809723	-0.0347678	-3.399278e-06	-4.550009e-05	0.07081244	-0.06115617
3.5e+08	0.06732635	-0.0661099	-3.191925e-05	-7.06564e-05	-0.03321568	-0.03091796	-1.419968e-05	-0.0001000584
	-3.191925e-05	-7.06564e-05	0.06625863	-0.06719601	-9.990944e-06	-7.005831e-05	-0.03357653	-0.02828809
	-0.03321568	-0.03091796	-9.990944e-06	-7.005831e-05	0.06666442	-0.06555951	-9.188808e-06	-4.629901e-05
	-1.419968e-05	-0.0001000584	-0.03357653	-0.02828809	-9.188808e-06	-4.629901e-05	0.06576331	-0.06706626
3.6e+08	0.06149542	-0.07164249	-4.166526e-05	-6.995903e-05	-0.03794526	-0.02379235	-2.509423e-05	-9.828894e-05
	-4.166526e-05	-6.995903e-05	0.06031712	-0.07263824	-1.869339e-05	-6.847134e-05	-0.03819385	-0.02102732
	-0.03794526	-0.02379235	-1.869339e-05	-6.847134e-05	0.06078983	-0.07099625	-1.541369e-05	-4.648108e-05
	-2.509423e-05	-9.828894e-05	-0.03819385	-0.02102732	-1.541369e-05	-4.648108e-05	0.05974867	-0.07243836
3.7e+08	0.05474136	-0.07650178	-5.181345e-05	-6.799457e-05	-0.04172027	-0.01599393	-3.619359e-05	-9.52669e-05
	-5.181345e-05	-6.799457e-05	0.05346275	-0.07738805	-2.766959e-05	-6.596128e-05	-0.04184166	-0.01310725
	-0.04172027	-0.01599393	-2.766959e-05	-6.596128e-05	0.05400166	-0.0757523	-2.201426e-05	-4.595013e-05
	-3.619359e-05	-9.52669e-05	-0.04184166	-0.01310725	-2.201426e-05	-4.595013e-05	0.05282809	-0.07710574
3.8e+08	0.04714713	-0.08052611	-6.219852e-05	-6.465219e-05	-0.04444869	-0.007656405	-4.733832e-05	-9.091529e-05
	-6.219852e-05	-6.465219e-05	0.04578192	-0.08128458	-3.681831e-05	-6.243851e-05	-0.04442971	-0.004663958
	-0.04444869	-0.007656405	-3.681831e-05	-6.243851e-05	0.04638383	-0.07966689	-2.890837e-05	-4.461748e-05
	-4.733832e-05	-9.091529e-05	-0.04442971	-0.004663958	-2.890837e-05	-4.461748e-05	0.04508979	-0.08090798
3.9e+08	0.03882462	-0.08356429	-7.263146e-05	-5.984713e-05	-0.04605829	0.001074233	-5.835615e-05	-8.517504e-05
	-7.263146e-05	-5.984713e-05	0.03739	-0.08417809	-4.601887e-05	-5.782414e-05	-0.04588791	0.004154366
	-0.04605829	0.001074233	-4.601887e-05	-5.782414e-05	0.03804955	-0.08259104	-3.600134e-05	-4.239892e-05
	-5.835615e-05	-8.517504e-05	-0.04588791	0.004154366	-3.600134e-05	-4.239892e-05	0.03665132	-0.08369726
4e+08	0.029912	-0.0854817	-8.290396e-05	-5.352144e-05	-0.04649718	0.01004322	-6.905595e-05	-7.80163e-05
	-8.290396e-05	-5.352144e-05	0.02842845	-0.0859361	-5.513079e-05	-5.205393e-05	-0.04616682	0.01319112
	-0.04649718	0.01004322	-5.513079e-05	-5.205393e-05	0.02913717	-0.08439119	-4.317645e-05	-3.922591e-05
	-6.905595e-05	-7.80163e-05	-0.04616682	0.01319112	-4.317645e-05	-3.922591e-05	0.0276553	-0.08534196
4.1e+08	0.02057109	-0.08616466	-9.279768e-05	-4.564396e-05	-0.04573522	0.01908921	-7.924126e-05	-6.942877e-05
	-9.279768e-05	-4.564396e-05	0.01906221	-0.08644766	-6.399822e-05	-4.508042e-05	-0.0452391	0.02228345
	-0.04573522	0.01908921	-6.399822e-05	-4.508042e-05	0.01980951	-0.08495519	-5.030614e-05	-3.503988e-05
	-7.924126e-05	-6.942877e-05	-0.0452391	0.02228345	-5.030614e-05	-3.503988e-05	0.0182686	-0.08573269
4.2e+08	0.01098592	-0.08552343	-0.0001020813	-3.621698e-05	-0.04376515	0.02804787	-8.870693e-05	-5.943745e-05
	-0.0001020813	-3.621698e-05	0.009477926	-0.08562648	-7.245418e-05	-3.687827e-05	-0.04310042	0.03126593
	-0.04376515	0.02804787	-7.245418e-05	-3.687827e-05	0.01025089	-0.08419532	-5.724545e-05	-2.980245e-05
	-8.870693e-05	-5.943745e-05	-0.04310042	0.03126593	-5.724545e-05	-2.980245e-05	0.008679259	-0.08478531
4.3e+08	0.001356516	-0.08349765	-0.0001105196	-2.527715e-05	-0.04060206	0.03675483	-9.724656e-05	-4.80938e-05
	-0.0001105196	-2.527715e-05	-0.0001222241	-0.08341607	-8.031409e-05	-2.744446e-05	-0.03976902	0.03997355
	-0.04060206	0.03675483	-8.031409e-05	-2.744446e-05	0.000661107	-0.08205294	-6.383975e-05	-2.349591e-05
	-9.724656e-05	-4.80938e-05	-0.03976902	0.03997355	-6.383975e-05	-2.349591e-05	-0.0009098977	-0.08244549
4.4e+08	-0.008105161	-0.08005821	-0.0001178794	-1.28987e-05	-0.0362837	0.0450486	-0.0001046586	-3.547615e-05
	-0.0001178794	-1.28987e-05	-0.009524742	-0.07979182	-8.73898e-05	-1.680492e-05	-0.03528593	0.04824456
	-0.0362837	0.0450486	-8.73898e-05	-1.680492e-05	-0.008747576	-0.07850077	-6.992448e-05	-1.61263e-05
	-0.0001046586	-3.547615e-05	-0.03528593	0.04824456	-6.992448e-05	-1.61263e-05	-0.01028417	-0.07869085
4.5e+08	-0.01717893	-0.07521001	-0.0001239316	8.128486e-07	-0.03087001	0.05277404	-0.0001107453	-2.169994e-05
	-0.0001239316	8.128486e-07	-0.01850874	-0.07476339	-9.348935e-05	-5.016886e-06	-0.02971438	0.05592404
	-0.03087001	0.05277404	-9.348935e-05	-5.016886e-06	-0.01775563	-0.07354556	-7.533203e-05	-7.720569e-06
	-0.0001107453	-2.169994e-05	-0.02971438	0.05592404	-7.533203e-05	-7.720569e-06	-0.01922243	-0.07353355
4.6e+08	-0.0256435	-0.06899302	-0.0001284581	1.571493e-05	-0.02444178	0.05978505	-0.0001153214	-6.908277e-06
	-0.0001284581	1.571493e-05	-0.0268529	-0.06837568	-9.842145e-05	7.83767e-06	-0.02313844	0.06286661
	-0.02444178	0.05978505	-9.842145e-05	7.83767e-06	-0.026143	-0.06722896	-7.98935e-05	1.662369e-06
	-0.0001153214	-6.908277e-06	-0.02313844	0.06286661	-7.98935e-05	1.662369e-06	-0.02750393	-0.06702105
4.7e+08	-0.03328314	-0.06148356	-0.0001312586	3.163355e-05	-0.01709922	0.06594795	-0.0001182201	8.732431e-06
	-0.0001312586	3.163355e-05	-0.03434247	-0.06071011	-0.000101999	2.163706e-05	-0.01566154	0.06893969
	-0.01709922	0.06594795	-0.000101999	2.163706e-05	-0.03369381	-0.05962873	-8.344179e-05	1.193628e-05
	-0.0001182201	8.732431e-06	-0.01566154	0.06893969	-8.344179e-05	1.193628e-05	-0.03491311	-0.05923708
4.8e+08	-0.03989089	-0.05279161	-0.0001321532	4.835898e-05	-0.008960512	0.07114324	-0.0001192929	2.502024e-05
	-0.0001321532	4.835898e-05	-0.04077219	-0.05188156	-0.0001040498	3.623302e-05	-0.007404922	0.07402536
