!$
! Info: Touchstone file created by Circ.  Input file=Intel_C2M_200G_5p0in_202208016_staggered.circ
!$
# Hz S RI R 50
0	0.01966602	3.188568e-24	0.980134	-5.569328e-24	0.0001002138	2.658352e-22	-0.0002310878	2.83001e-20
	0.980134	-5.567167e-24	0.02022031	6.031812e-24	-0.0002311432	2.830688e-20	0.0003240453	6.306227e-22
	0.0001002713	2.659617e-22	-0.0002312799	2.832361e-20	0.01966397	3.022394e-24	0.9801343	-5.644605e-24
	-0.0002312245	2.831683e-20	0.0003241132	6.3107e-22	0.9801343	-5.646776e-24	0.02022173	6.147196e-24
1e+07	0.02383935	0.006674958	0.97247	-0.0882993	0.001491113	0.005486127	-0.001053748	-0.0008166611
	0.97247	-0.0882993	0.02420557	0.00646027	-0.001054024	-0.0008164496	0.001403156	0.00551393
	0.001491113	0.005486127	-0.001054024	-0.0008164496	0.02366367	0.006576828	0.9726527	-0.08817734
	-0.001053748	-0.0008166611	0.001403156	0.00551393	0.9726527	-0.08817734	0.0240222	0.006366948
2e+07	0.02817079	0.009805483	0.957318	-0.1722779	0.003164322	0.01025826	-0.001424217	-0.001120212
	0.957318	-0.1722779	0.02972209	0.009241672	-0.001424762	-0.001119259	0.002770875	0.01043381
	0.003164332	0.01025825	-0.001424762	-0.00111937	0.02790856	0.009725203	0.9576051	-0.1721607
	-0.001424215	-0.001120316	0.002770964	0.0104337	0.9576051	-0.1721607	0.02943182	0.009190353
3e+07	0.03180263	0.01113603	0.9360743	-0.2530213	0.00562915	0.01473785	-0.001823911	-0.001350642
	0.9360743	-0.2530213	0.03473691	0.009568726	-0.001824432	-0.001348485	0.004882078	0.01502873
	0.005629124	0.01473788	-0.001824475	-0.001348484	0.03147573	0.0111095	0.9364366	-0.2529469
	-0.001823924	-0.001350648	0.004882055	0.0150287	0.9364366	-0.2529469	0.03438575	0.00959729
4e+07	0.03480581	0.01158073	0.9086219	-0.330966	0.008882393	0.0186539	-0.002244199	-0.001486755
	0.9086219	-0.330966	0.03966178	0.008689226	-0.002244103	-0.001483257	0.007602399	0.01924614
	0.008882389	0.01865392	-0.002244108	-0.001483253	0.03443932	0.01161924	0.9090388	-0.3309533
	-0.002244201	-0.001486742	0.007602399	0.01924615	0.9090388	-0.3309533	0.03927621	0.008817061
5e+07	0.03732873	0.01154595	0.8750871	-0.4058462	0.01279749	0.02192062	-0.002670457	-0.001529023
	0.8750871	-0.4058462	0.04445811	0.006706294	-0.002669161	-0.001524404	0.01089134	0.02297902
	0.0127975	0.02192063	-0.002669158	-0.001524405	0.03693913	0.01165595	0.8755412	-0.4059083
	-0.002670455	-0.001529024	0.01089135	0.02297903	0.8755412	-0.4059083	0.0440657	0.006943286
6e+07	0.03944953	0.0112147	0.8356958	-0.4772892	0.01726215	0.02443935	-0.003086249	-0.001486264
	0.8356958	-0.4772892	0.04901389	0.003753263	-0.003083275	-0.00148088	0.01466199	0.0261531
	0.01726217	0.02443934	-0.003083273	-0.001480881	0.03905127	0.0114002	0.8361696	-0.477435
	-0.003086246	-0.001486263	0.01466199	0.0261531	0.8361696	-0.477435	0.04864162	0.004102326
7e+07	0.04122105	0.01073022	0.7907262	-0.5449014	0.02214481	0.02612922	-0.00347961	-0.001369385
	0.7907262	-0.5449014	0.0532456	-6.469251e-05	-0.003474532	-0.001363861	0.01881994	0.0287113
	0.02214481	0.02612922	-0.003474485	-0.001363914	0.04082773	0.01099307	0.7912012	-0.5451367
	-0.003479608	-0.001369387	0.01881994	0.0287113	0.7912012	-0.5451367	0.05291895	0.0003934148
8e+07	0.04271289	0.01020923	0.7404959	-0.6082932	0.02730329	0.02693125	-0.003841674	-0.001189557
	0.7404959	-0.6082932	0.05707044	-0.004665921	-0.003834306	-0.001184658	0.02326358	0.03061192
	0.02730329	0.02693125	-0.003834307	-0.001184656	0.04233784	0.01055026	0.7409549	-0.6086227
	-0.003841676	-0.001189554	0.02326358	0.03061192	0.7409549	-0.6086227	0.05681371	-0.004106515
9e+07	0.0440143	0.009738064	0.685353	-0.6670936	0.03258891	0.02680885	-0.004166593	-0.0009577425
	0.685353	-0.6670936	0.0604049	-0.009967336	-0.004157003	-0.0009543582	0.0278878	0.03183035
	0.03258892	0.02680886	-0.004157002	-0.0009543489	0.04367082	0.01015827	0.685774	-0.6675191
	-0.004166594	-0.0009577327	0.0278878	0.03183035	0.685774	-0.6675191	0.0602422	-0.009317653
1e+08	0.0452599	0.009403378	0.6256296	-0.7209887	0.03785201	0.02574661	-0.004453732	-0.0006833381
	0.6256296	-0.7209887	0.06321139	-0.01585011	-0.004442424	-0.0006826069	0.03258979	0.03235784
	0.03785201	0.02574661	-0.004442424	-0.0006826079	0.04496717	0.009912422	0.6259829	-0.7215184
	-0.004453732	-0.0006833391	0.03258979	0.03235784	0.6259829	-0.7215184	0.06317626	-0.01512206
1.1e+08	0.04657101	0.008934382	0.5616989	-0.7693399	0.04293902	0.02373923	-0.004687719	-0.0003632483
	0.5616989	-0.7693399	0.06546251	-0.0224729	-0.004675839	-0.0003642591	0.03724908	0.03219126
	0.04293902	0.02373923	-0.004675839	-0.0003642605	0.04642534	0.009463987	0.5619484	-0.769922
	-0.004687718	-0.0003632497	0.03724908	0.03219126	0.5619484	-0.769922	0.06557464	-0.02171926
1.2e+08	0.04776786	0.008513161	0.4942998	-0.8119971	0.04765981	0.02085524	-0.004866725	-3.534584e-05
	0.4942998	-0.8119971	0.06682592	-0.02959056	-0.004854604	-3.886603e-05	0.04176	0.03137414
	0.04765981	0.02085524	-0.004854604	-3.886755e-05	0.0476969	0.009035497	0.4944549	-0.8126106
	-0.004866725	-3.534737e-05	0.04176	0.03137414	0.4944549	-0.8126106	0.06706673	-0.02884986
1.3e+08	0.04898471	0.008173284	0.423859	-0.8487763	0.05189033	0.01715618	-0.005002236	0.0002933013
	0.423859	-0.8487763	0.06731159	-0.03702149	-0.004990953	0.0002868325	0.0460325	0.02995055
	0.05189033	0.01715618	-0.004990953	0.0002868312	0.04896545	0.008696006	0.4239225	-0.8494081
	-0.005002237	0.0002932999	0.0460325	0.02995055	0.4239225	-0.8494081	0.0676647	-0.03631838
1.4e+08	0.05029859	0.007891008	0.3508612	-0.8794879	0.05550782	0.01272546	-0.005102738	0.0006161704
	0.3508612	-0.8794879	0.06690832	-0.04462349	-0.005093356	0.0006074986	0.04998284	0.02797808
	0.05550782	0.01272546	-0.005093357	0.0006074976	0.05032969	0.008416862	0.3508353	-0.8801232
	-0.005102739	0.0006161693	0.04998284	0.02797808	0.3508353	-0.8801232	0.06735566	-0.04397395
1.5e+08	0.05176765	0.007624455	0.2758081	-0.9039751	0.05840047	0.007664918	-0.005176775	0.0009293089
	0.2758081	-0.9039751	0.06561671	-0.05226345	-0.005169789	0.0009191403	0.05353869	0.02552589
	0.05840046	0.007664917	-0.005169789	0.0009191395	0.05185163	0.008148064	0.275697	-0.904602
	-0.005176775	0.000929308	0.05353869	0.02552589	0.275697	-0.904602	0.06614081	-0.05167745
1.6e+08	0.05343433	0.007318471	0.1992139	-0.9221164	0.0604721	0.002092862	-0.005232739	0.001230971
	0.1992139	-0.9221164	0.06345169	-0.05981414	-0.005228293	0.001220181	0.05664074	0.02267319
	0.0604721	0.002092862	-0.005228293	0.001220181	0.05357194	0.007829596	0.1990209	-0.9227256
	-0.005232739	0.001230971	0.05664074	0.02267319	0.1990209	-0.9227256	0.06403587	-0.05929744
1.7e+08	0.05532532	0.006907435	0.1215992	-0.9338336	0.06164508	-0.003858689	-0.005278557	0.001521551
	0.1215992	-0.9338336	0.06044318	-0.06715497	-0.005276509	0.001511001	0.05924385	0.01950612
	0.06164508	-0.00385869	-0.00527651	0.001511001	0.05551367	0.007394321	0.1213289	-0.9344158
	-0.005278558	0.001521551	0.05924385	0.01950612	0.1213289	-0.9344158	0.06107234	-0.06671003
1.8e+08	0.05745041	0.006318115	0.04348763	-0.9390889	0.06186257	-0.01004699	-0.005321487	0.001803446
	0.04348763	-0.9390889	0.05663629	-0.07417264	-0.005321446	0.001793746	0.06131857	0.01611579
	0.06186257	-0.01004699	-0.005321447	0.001793746	0.05768272	0.006769693	0.04314528	-0.9396353
	-0.005321487	0.001803446	0.06131857	0.01611579	0.04314528	-0.9396353	0.057296	-0.07379927
1.9e+08	0.05980106	0.005473024	-0.03459498	-0.9378838	0.06109037	-0.01632182	-0.005367546	0.00208116
	-0.03459498	-0.9378838	0.05208942	-0.08076252	-0.005369007	0.002072719	0.06285115	0.01259608
	0.06109037	-0.01632182	-0.005369007	0.002072719	0.06006746	0.005880263	-0.03500279	-0.9383892
	-0.005367546	0.00208116	0.06285115	0.01259608	-0.03500279	-0.9383892	0.05276738	-0.08045842
2e+08	0.06234913	0.004294495	-0.1121271	-0.9302624	0.05931753	-0.02252908	-0.005421314	0.00236051
	-0.1121271	-0.9302624	0.04687473	-0.08683043	-0.00542376	0.002353393	0.06384339	0.009039957
	0.05931753	-0.02252908	-0.00542376	0.002353393	0.06263852	0.004650788	-0.1125957	-0.9307187
	-0.005421315	0.00236051	0.06384339	0.009039957	-0.1125957	-0.9307187	0.04755889	-0.08659122
2.1e+08	0.06504766	0.002709382	-0.1885952	-0.9163102	0.05655664	-0.02851438	-0.005485917	0.002648263
	-0.1885952	-0.9163102	0.04107489	-0.09229437	-0.005488751	0.002642696	0.06431337	0.005537866
	0.05655664	-0.02851438	-0.005488751	0.002642696	0.06534744	0.003010655	-0.1891173	-0.9167118
	-0.005485917	0.002648263	0.06431337	0.005537866	-0.1891173	-0.9167118	0.04175599	-0.09211418
2.2e+08	0.06783109	0.000652002	-0.2634944	-0.8961506	0.05284356	-0.03412654	-0.005562317	0.002952409
	-0.2634944	-0.8961506	0.03478327	-0.0970855	-0.005565088	0.002948133	0.06429337	0.002174612
	0.05284356	-0.03412654	-0.005565088	0.002948133	0.0681286	0.000897134	-0.2640632	-0.8964927
	-0.005562317	0.002952409	0.06429337	0.002174612	-0.2640632	-0.8964927	0.03545296	-0.09695701
2.3e+08	0.07061762	-0.001931138	-0.3363306	-0.869946	0.04823675	-0.03922139	-0.005649861	0.003280711
	-0.3363306	-0.869946	0.02810081	-0.1011493	-0.005652126	0.003277714	0.06382932	-0.0009729136
	0.04823675	-0.03922139	-0.005652126	0.003277714	0.07090075	-0.001741272	-0.3369407	-0.8702243
	-0.005649861	0.003280711	0.06382932	-0.0009729136	-0.3369407	-0.8702243	0.02875274	-0.1010642
2.4e+08	0.07331145	-0.005078163	-0.4066295	-0.8378979	0.04281586	-0.04366452	-0.005745738	0.003641885
	-0.4066295	-0.8378979	0.021134	-0.1044472	-0.005747232	0.003639611	0.06297942	-0.003837543
	0.04281586	-0.04366452	-0.005747232	0.003639611	0.07356817	-0.00494047	-0.4072729	-0.8381099
	-0.005745738	0.003641885	0.06297942	-0.003837543	-0.4072729	-0.8381099	0.02176416	-0.1043966
2.5e+08	0.07580553	-0.008808838	-0.4739319	-0.8002444	0.03667979	-0.04733453	-0.005845264	0.004043852
	-0.4739319	-0.8002444	0.01399359	-0.1069566	-0.00584572	0.00404183	0.0618118	-0.00636406
	0.03667979	-0.04733453	-0.00584572	0.00404183	0.07602516	-0.008718637	-0.4746018	-0.8003853
	-0.005845264	0.004043852	0.0618118	-0.00636406	-0.4746018	-0.8003853	0.01459966	-0.1069307
2.6e+08	0.07798568	-0.01312259	-0.5378011	-0.7572556	0.02994486	-0.05012613	-0.005942049	0.004493937
	-0.5378011	-0.7572556	0.006790507	-0.1086707	-0.005941251	0.004491857	0.06040245	-0.008510653
	0.02994486	-0.05012613	-0.005941251	0.004491857	0.07815807	-0.01307359	-0.5384887	-0.757324
	-0.005942049	0.004493937	0.06040245	-0.008510653	-0.5384887	-0.757324	0.007372799	-0.1086603
2.7e+08	0.07973413	-0.01799691	-0.5978224	-0.709235	0.02274186	-0.05195144	-0.006027607	0.004998791
	-0.5978224	-0.709235	-0.0003646247	-0.1095993	-0.006025783	0.004995926	0.05883295	-0.01024947
	0.02274186	-0.05195144	-0.006025783	0.004995926	0.07985034	-0.01798146	-0.5985215	-0.7092301
	-0.006027607	0.004998791	0.05883295	-0.01024947	-0.5985215	-0.7092301	0.0001958922	-0.1095955
2.8e+08	0.08093375	-0.02338582	-0.6536078	-0.6565187	0.01521348	-0.05274282	-0.006091859	0.005563604
	-0.6536078	-0.6565187	-0.007364776	-0.1097681	-0.006089086	0.005559634	0.05718806	-0.01156817
	0.01521348	-0.05274282	-0.006089086	0.005559634	0.08098636	-0.02339525	-0.6543111	-0.6564399
	-0.006091859	0.005563604	0.05718806	-0.01156817	-0.6543111	-0.6564399	-0.006822046	-0.1097628
2.9e+08	0.08147274	-0.02922078	-0.7047965	-0.5994722	0.007511228	-0.05245414	-0.006122659	0.006192496
	-0.7047965	-0.5994722	-0.01410901	-0.1092179	-0.00611958	0.006186895	0.05555276	-0.01246933
	0.007511228	-0.05245414	-0.00611958	0.006186895	0.08145516	-0.0292453	-0.7054967	-0.5993193
	-0.00612266	0.006192496	0.05555276	-0.01246933	-0.7054967	-0.5993193	-0.01357813	-0.109204
3e+08	0.08124869	-0.03541078	-0.7510571	-0.5384857	-0.0002077285	-0.05106116	-0.006107127	0.006887282
	-0.7510571	-0.5384857	-0.02050359	-0.1080033	-0.006104327	0.006879774	0.05400974	-0.01297115
	-0.0002077286	-0.05106116	-0.006104327	0.006879774	0.08115573	-0.03543994	-0.7517467	-0.5382585
	-0.006107126	0.006887282	0.05400974	-0.01297115	-0.7517467	-0.5382585	-0.0199772	-0.1079753
3.1e+08	0.08017291	-0.04184425	-0.7920918	-0.4739756	-0.007784063	-0.04856297	-0.006030888	0.007647855
	-0.7920918	-0.4739756	-0.02646485	-0.1061918	-0.006028755	0.007638257	0.05263738	-0.01310574
	-0.007784063	-0.04856297	-0.006028755	0.007638257	0.08000038	-0.0418666	-0.7927617	-0.4736757
	-0.006030888	0.007647855	0.05263738	-0.01310574	-0.7927617	-0.4736757	-0.02593434	-0.106146
3.2e+08	0.07817387	-0.04839088	-0.8276329	-0.4063824	-0.01505938	-0.04498152	-0.005878559	0.008471621
	-0.8276329	-0.4063824	-0.03192014	-0.1038624	-0.005877819	0.008460049	0.05150665	-0.01291935
	-0.01505938	-0.04498152	-0.005877819	0.008460049	0.07791991	-0.04839434	-0.828279	-0.4060103
	-0.005878559	0.008471621	0.05150665	-0.01291935	-0.828279	-0.4060103	-0.03137664	-0.1037971
3.3e+08	0.07520141	-0.05490498	-0.8574507	-0.3361631	-0.02187929	-0.04036106	-0.005633868	0.009353349
	-0.8574507	-0.3361631	-0.03681017	-0.1011028	-0.005635846	0.009339946	0.0506789	-0.01247005
	-0.02187929	-0.04036106	-0.005635846	0.009339946	0.07486524	-0.05487683	-0.8580649	-0.3357223
	-0.005633868	0.009353349	0.0506789	-0.01247005	-0.8580649	-0.3357223	-0.03624363	-0.1010185
3.4e+08	0.07122952	-0.06122855	-0.8813507	-0.2637977	-0.02809723	-0.0347678	-0.005281258	0.0102845
	-0.8813507	-0.2637977	-0.04108916	-0.09800877	-0.005286117	0.01026989	0.05020474	-0.01182618
	-0.02809723	-0.0347678	-0.005286118	0.01026989	0.07081244	-0.06115617	-0.8819289	-0.2632887
	-0.005281258	0.0102845	0.05020474	-0.01182618	-0.8819289	-0.2632887	-0.04049043	-0.09790771
3.5e+08	0.06625863	-0.06719601	-0.8991804	-0.1897756	-0.03357653	-0.02828809	-0.004804685	0.01125376
	-0.8991804	-0.1897756	-0.0447273	-0.09468064	-0.004813023	0.01123861	0.05012141	-0.01106487
	-0.03357653	-0.02828809	-0.004813023	0.01123861	0.06576331	-0.06706626	-0.8997126	-0.1892039
	-0.004804685	0.01125376	0.05012141	-0.01106487	-0.8997126	-0.1892039	-0.04408653	-0.09456791
3.6e+08	0.06031712	-0.07263824	-0.9108233	-0.1146033	-0.03819385	-0.02102732	-0.004189242	0.01224622
	-0.9108233	-0.1146033	-0.04770961	-0.09122241	-0.004201771	0.01223157	0.05045188	-0.01026883
	-0.03819385	-0.02102732	-0.004201771	0.01223157	0.05974867	-0.07243836	-0.9113036	-0.1139717
	-0.004189243	0.01224621	0.05045188	-0.01026883	-0.9113036	-0.1139717	-0.0470184	-0.09110434
3.7e+08	0.05346275	-0.07738805	-0.916205	-0.03879261	-0.04184166	-0.01310725	-0.003421929	0.01324372
	-0.916205	-0.03879261	-0.05003727	-0.08773774	-0.003438514	0.01323063	0.05120415	-0.0095243
	-0.04184166	-0.01310725	-0.003438514	0.01323063	0.05282809	-0.07710574	-0.9166287	-0.03810481
	-0.003421929	0.01324372	0.05120415	-0.0095243	-0.9166287	-0.03810481	-0.04928863	-0.08762303
3.8e+08	0.04578192	-0.08128458	-0.9152946	0.03713799	-0.04442971	-0.004663958	-0.00249087	0.01422476
	-0.9152946	0.03713799	-0.05172724	-0.08432858	-0.002512091	0.01421449	0.05237046	-0.008918522
	-0.04442971	-0.004663958	-0.002512091	0.01421449	0.04508979	-0.08090798	-0.9156533	0.03787612
	-0.00249087	0.01422476	0.05237046	-0.008918522	-0.9156533	0.03787612	-0.05091512	-0.08422785
3.9e+08	0.03739	-0.08417809	-0.9081025	0.1126649	-0.04588791	0.004154366	-0.001388822	0.01516495
	-0.9081025	0.1126649	-0.05281194	-0.08109354	-0.001413323	0.01515848	0.05392756	-0.008536917
	-0.04588791	0.004154366	-0.001413323	0.01515848	0.03665132	-0.08369726	-0.9083936	0.113448
	-0.001388822	0.01516495	0.05392756	-0.008536917	-0.9083936	0.113448	-0.05193301	-0.08101796
4e+08	0.02842845	-0.0859361	-0.8946854	0.1872663	-0.04616682	0.01319112	-0.0001105512	0.01603681
	-0.8946854	0.1872663	-0.0533384	-0.07812398	-0.0001380905	0.01603552	0.05583687	-0.008460343
	-0.04616682	0.01319112	-0.0001380905	0.01603552	0.0276553	-0.08534196	-0.8949006	0.1880892
	-0.0001105512	0.01603681	0.05583687	-0.008460343	-0.8949006	0.1880892	-0.05239055	-0.07808613
4.1e+08	0.01906221	-0.08644766	-0.8751391	0.2604301	-0.0452391	0.02228345	0.001344262	0.0168109
	-0.8751391	0.2604301	-0.0533666	-0.07550213	0.001314592	0.01681575	0.05804589	-0.008761986
	-0.0452391	0.02228345	0.001314592	0.01681575	0.0182686	-0.08573269	-0.8752745	0.2612868
	0.001344262	0.0168109	0.05804589	-0.008761986	-0.8752745	0.2612868	-0.05235068	-0.0755151
4.2e+08	0.009477926	-0.08562648	-0.8496083	0.3316469	-0.04310042	0.03126593	0.0029705	0.01745656
	-0.8496083	0.3316469	-0.05296912	-0.07330046	0.002940289	0.01746812	0.06048873	-0.009506582
	-0.04310042	0.03126593	0.002940289	0.01746812	0.008679259	-0.08478531	-0.8496591	0.332528
	0.0029705	0.01745656	0.06048873	-0.009506582	-0.8496591	0.332528	-0.05188792	-0.07337766
4.3e+08	-0.0001222241	-0.08341607	-0.8182771	0.4004239	-0.03976902	0.03997355	0.004758655	0.01794183
	-0.8182771	0.4004239	-0.05222796	-0.07157839	0.00472931	0.01796092	0.06308885	-0.01074597
	-0.03976902	0.03997355	0.00472931	0.01796092	-0.0009098977	-0.08244549	-0.8182394	0.4013219
	0.004758655	0.01794183	0.06308885	-0.01074597	-0.8182394	0.4013219	-0.05108729	-0.07173276
4.4e+08	-0.009524742	-0.07979182	-0.7813728	0.4662846	-0.03528593	0.04824456	0.006692703	0.01823564
	-0.7813728	0.4662846	-0.05123355	-0.07038157	0.006666093	0.01826206	0.06576033	-0.0125192
	-0.03528593	0.04824456	0.006666093	0.01826206	-0.01028417	-0.07869085	-0.7812437	0.4671899
	0.006692703	0.01823564	0.06576033	-0.0125192	-0.7812437	0.4671899	-0.05004106	-0.07062545
4.5e+08	-0.01850874	-0.07476339	-0.7391645	0.5287697	-0.02971438	0.05592404	0.008750964	0.01830815
	-0.7391645	0.5287697	-0.05008214	-0.06974116	0.008728981	0.01834164	0.06841097	-0.01485005
	-0.02971438	0.05592404	0.008728981	0.01834164	-0.01922243	-0.07353355	-0.7389419	0.5296729
	0.008750964	0.01830815	0.06841097	-0.01485005	-0.7389419	0.5296729	-0.04884784	-0.07008558
4.6e+08	-0.0268529	-0.06837568	-0.6919601	0.5874465	-0.02313844	0.06286661	0.0109062	0.01813172
	-0.6919601	0.5874465	-0.04887327	-0.06967267	0.01089045	0.01817189	0.07094456	-0.01774659
	-0.02313844	0.06286661	0.01089045	0.01817189	-0.02750393	-0.06702105	-0.6916417	0.5883382
	0.0109062	0.01813172	0.07094456	-0.01774659	-0.6916417	0.5883382	-0.04760921	-0.07012699
4.7e+08	-0.03434247	-0.06071011	-0.6401041	0.6419154	-0.01566154	0.06893969	0.01312487	0.01768346
	-0.6401041	0.6419154	-0.04770743	-0.07017444	0.01311722	0.01772886	0.07326381	-0.02119979
	-0.01566154	0.06893969	0.01311722	0.01772886	-0.03491311	-0.05923708	-0.6396897	0.6427828
	0.01312487	0.01768346	0.07326381	-0.02119979	-0.6396897	0.6427828	-0.04642723	-0.0707466
4.8e+08	-0.04077219	-0.05188156	-0.5839716	0.6918002	-0.007404922	0.07402536	0.01536958	0.0169442
	-0.5839716	0.6918002	-0.04668264	-0.07123056	0.01537116	0.01699362	0.07527334	-0.02518471
	-0.007404922	0.07402536	0.01537116	0.01699362	-0.04124635	-0.05029992	-0.5834647	0.6926347
	0.01536958	0.0169442	0.07527334	-0.02518471	-0.5834647	0.6926347	-0.04540173	-0.07192564
4.9e+08	-0.04595371	-0.04203974	-0.5239768	0.7367628	0.001494889	0.07802388	0.01759773	0.01590198
	-0.5239768	0.7367628	-0.04589385	-0.07280887	0.01760999	0.01595309	0.07688214	-0.02966012
	0.001494889	0.07802388	0.01760999	0.01595309	-0.04631636	-0.04036104	-0.5233776	0.7375546
	0.01759773	0.01590198	0.07688214	-0.02966012	-0.5233776	0.7375546	-0.04462819	-0.0736298
5e+08	-0.04972255	-0.03136413	-0.4605526	0.7765087	0.01088888	0.08085439	0.01976437	0.01455026
	-0.4605526	0.7765087	-0.04542858	-0.07486275	0.01978798	0.01460134	0.07800687	-0.0345697
	0.01088888	0.08085439	0.01978798	0.01460134	-0.04995954	-0.02960258	-0.4598674	0.7772441
	0.01976437	0.01455026	0.07800687	-0.0345697	-0.4598674	0.7772441	-0.04419496	-0.07581013
5.1e+08	-0.05193927	-0.02006116	-0.3941606	0.8107739	0.02061733	0.0824573	0.02182237	0.01289169
	-0.3941606	0.8107739	-0.04536576	-0.0773331	0.02185756	0.01294023	0.07857376	-0.03984379
	0.02061733	0.0824573	0.02185756	0.01294023	-0.05203937	-0.01823304	-0.3933949	0.8114456
	0.02182237	0.01289169	0.07857376	-0.03984379	-0.3933949	0.8114456	-0.04418089	-0.07840423
5.2e+08	-0.05249742	-0.008360389	-0.325282	0.8393433	0.0305147	0.08279606	0.02372432	0.0109355
	-0.325282	0.8393433	-0.04577372	-0.08014875	0.02377104	0.01097864	0.07852131	-0.04540099
