!$
! Info: Touchstone file created by Circ.  Input file=Intel_C2M_200G_5p0in_202208016_staggered.circ
!$
# Hz S RI R 50
0	0.01965299	2.879531e-24	5.722198e-05	7.515311e-23	0.0001006194	2.676663e-22	5.721466e-05	7.501517e-23
	5.722198e-05	7.515311e-23	0.01966602	3.188568e-24	5.722659e-05	7.522187e-23	0.0001002138	2.658352e-22
	0.0001006769	2.677929e-22	5.722658e-05	7.522302e-23	0.01964784	2.998457e-24	5.721719e-05	7.507479e-23
	5.721465e-05	7.501632e-23	0.0001002713	2.659617e-22	5.721719e-05	7.507479e-23	0.01966397	3.022394e-24
1e+07	0.02363309	0.006542394	5.059995e-06	2.397535e-05	0.001485486	0.005428377	8.615213e-06	1.90077e-05
	5.059997e-06	2.397536e-05	0.02383935	0.006674958	4.578698e-06	3.806976e-05	0.001491113	0.005486127
	0.001485486	0.005428377	4.578697e-06	3.806976e-05	0.02381514	0.006721824	5.084138e-06	2.471332e-05
	8.615213e-06	1.90077e-05	0.001491113	0.005486127	5.084138e-06	2.471332e-05	0.02366367	0.006576828
2e+07	0.02786336	0.009663297	8.866581e-06	2.024915e-05	0.00315214	0.01014444	4.56422e-06	1.447557e-05
	8.866582e-06	2.024917e-05	0.02817079	0.009805483	3.265258e-05	4.64973e-05	0.003164322	0.01025826
	0.003152151	0.01014442	3.265258e-05	4.64973e-05	0.02815107	0.009900789	9.588159e-06	2.146231e-05
	4.56422e-06	1.447556e-05	0.003164332	0.01025825	9.588159e-06	2.146231e-05	0.02790856	0.009725203
3e+07	0.03141847	0.01101767	1.610298e-05	1.782736e-05	0.005607112	0.01457071	5.959359e-06	1.327794e-05
	1.610298e-05	1.782736e-05	0.03180263	0.01113603	5.47978e-05	4.489228e-05	0.00562915	0.01473785
	0.005607086	0.01457074	5.479781e-05	4.489228e-05	0.03178435	0.01128687	1.73652e-05	1.914035e-05
	5.959361e-06	1.327794e-05	0.005629124	0.01473788	1.73652e-05	1.914035e-05	0.03147573	0.0111095
4e+07	0.03436122	0.01150297	2.176885e-05	1.446029e-05	0.008848119	0.01843698	9.630683e-06	1.104782e-05
	2.176885e-05	1.446028e-05	0.03480581	0.01158073	7.241687e-05	3.777575e-05	0.008882393	0.0186539
	0.008848115	0.018437	7.241687e-05	3.777574e-05	0.03479947	0.01178452	2.349262e-05	1.574531e-05
	9.630684e-06	1.104782e-05	0.008882389	0.01865392	2.349262e-05	1.574531e-05	0.03443932	0.01161924
5e+07	0.03683655	0.01151964	2.608789e-05	1.026543e-05	0.01274946	0.02165805	1.246213e-05	8.349868e-06
	2.608789e-05	1.026543e-05	0.03732873	0.01154595	8.626831e-05	2.707545e-05	0.01279749	0.02192062
	0.01274947	0.02165806	8.626831e-05	2.707545e-05	0.03733935	0.01179937	2.822189e-05	1.143639e-05
	1.246213e-05	8.349868e-06	0.0127975	0.02192063	2.822189e-05	1.143639e-05	0.03693913	0.01165595
6e+07	0.03892083	0.01124758	2.91467e-05	5.448522e-06	0.01719988	0.02413576	1.445192e-05	5.294745e-06
	2.91467e-05	5.448523e-06	0.03944953	0.0112147	9.66511e-05	1.382032e-05	0.01726215	0.02443935
	0.01719989	0.02413574	9.66511e-05	1.382032e-05	0.03948115	0.01151402	3.165376e-05	6.434591e-06
	1.445192e-05	5.294745e-06	0.01726217	0.02443934	3.165376e-05	6.434591e-06	0.03905127	0.0114002
7e+07	0.04066588	0.01082832	3.097817e-05	1.963266e-07	0.02206897	0.0257895	1.561719e-05	2.004504e-06
	3.097817e-05	1.96327e-07	0.04122105	0.01073022	0.0001036353	-1.355694e-06	0.02214481	0.02612922
	0.02206897	0.02578949	0.0001036353	-1.355694e-06	0.04127687	0.01107063	3.382887e-05	9.312925e-07
	1.561719e-05	2.004504e-06	0.02214481	0.02612922	3.382887e-05	9.312924e-07	0.04082773	0.01099307
8e+07	0.04214081	0.01037791	3.159284e-05	-5.336024e-06	0.02721581	0.02656032	1.596188e-05	-1.407334e-06
	3.159284e-05	-5.336024e-06	0.04271289	0.01020923	0.0001071808	-1.802224e-05	0.02730329	0.02693125
	0.02721581	0.02656032	0.0001071808	-1.802224e-05	0.04279504	0.01058532	3.474848e-05	-4.929273e-06
	1.596188e-05	-1.407334e-06	0.02730329	0.02693125	3.474848e-05	-4.929273e-06	0.04233784	0.01055026
9e+07	0.04343529	0.009983555	3.093289e-05	-1.107182e-05	0.03249297	0.02641136	1.545393e-05	-4.859247e-06
	3.093289e-05	-1.107182e-05	0.0440143	0.009738064	0.0001070341	-3.604289e-05	0.03258891	0.02680885
	0.03249297	0.02641137	0.0001070341	-3.604289e-05	0.04412304	0.01014401	3.43478e-05	-1.108495e-05
	1.545393e-05	-4.859247e-06	0.03258892	0.02680886	3.43478e-05	-1.108495e-05	0.04367082	0.01015827
1e+08	0.04468976	0.009740922	2.843085e-05	-1.740909e-05	0.03775202	0.02532668	1.374814e-05	-8.497111e-06
	2.843085e-05	-1.740909e-05	0.0452599	0.009403378	0.0001013361	-5.701844e-05	0.03785201	0.02574661
	0.03775202	0.02532668	0.0001013361	-5.701844e-05	0.04539333	0.009833612	3.201788e-05	-1.801968e-05
	1.374814e-05	-8.497111e-06	0.03785201	0.02574661	3.201788e-05	-1.801968e-05	0.04496717	0.009912422
1.1e+08	0.04605309	0.009335629	2.313471e-05	-2.064076e-05	0.04284077	0.0232998	1.061565e-05	-1.01018e-05
	2.313471e-05	-2.064076e-05	0.04657101	0.008934382	8.562741e-05	-6.914193e-05	0.04293902	0.02373923
	0.04284077	0.0232998	8.562741e-05	-6.914193e-05	0.04678056	0.009352347	2.652153e-05	-2.174763e-05
	1.061565e-05	-1.01018e-05	0.04293902	0.02373923	2.652153e-05	-2.174763e-05	0.04642534	0.009463987
1.2e+08	0.04729196	0.008956455	1.886495e-05	-2.232323e-05	0.04756965	0.02039825	8.151669e-06	-1.079048e-05
	1.886495e-05	-2.232323e-05	0.04776786	0.008513161	7.429628e-05	-7.445173e-05	0.04765981	0.02085524
	0.04756965	0.02039824	7.429628e-05	-7.445173e-05	0.04798903	0.008913999	2.207478e-05	-2.378354e-05
	8.151669e-06	-1.079048e-05	0.04765981	0.02085524	2.207478e-05	-2.378354e-05	0.0476969	0.009035497
1.3e+08	0.04854551	0.008649451	1.614052e-05	-2.241838e-05	0.05181538	0.01668232	5.994109e-06	-1.119965e-05
	1.614052e-05	-2.241838e-05	0.04898471	0.008173284	7.056679e-05	-7.157242e-05	0.05189033	0.01715618
	0.05181538	0.01668231	7.056679e-05	-7.157242e-05	0.04919609	0.008576324	1.94794e-05	-2.382386e-05
	5.994109e-06	-1.119965e-05	0.05189033	0.01715618	1.94794e-05	-2.382386e-05	0.04896545	0.008696006
1.4e+08	0.04989142	0.008394355	1.46023e-05	-2.118831e-05	0.05545559	0.01223404	4.046641e-06	-1.139723e-05
	1.46023e-05	-2.118831e-05	0.05029859	0.007891008	6.65896e-05	-6.950033e-05	0.05550782	0.01272546
	0.05545559	0.01223404	6.65896e-05	-6.950033e-05	0.05049948	0.008308674	1.796293e-05	-2.264713e-05
	4.046641e-06	-1.139723e-05	0.05550782	0.01272546	1.796293e-05	-2.264713e-05	0.05032969	0.008416862
1.5e+08	0.05138816	0.008151572	1.332227e-05	-2.019012e-05	0.05837867	0.007153751	2.985348e-06	-1.064629e-05
	1.332227e-05	-2.019012e-05	0.05176765	0.007624455	6.247749e-05	-6.776444e-05	0.05840047	0.007664918
	0.05837867	0.00715375	6.247749e-05	-6.776444e-05	0.05196111	0.008060406	1.64874e-05	-2.15991e-05
	2.985348e-06	-1.064629e-05	0.05840046	0.007664917	1.64874e-05	-2.15991e-05	0.05185163	0.008148064
1.6e+08	0.05307851	0.007867659	1.206642e-05	-1.923415e-05	0.06048834	0.001558181	2.218088e-06	-9.795454e-06
	1.206642e-05	-1.923415e-05	0.05343433	0.007318471	5.831236e-05	-6.619357e-05	0.0604721	0.002092862
	0.06048833	0.00155818	5.831236e-05	-6.619357e-05	0.05362195	0.007771419	1.518395e-05	-2.069457e-05
	2.218088e-06	-9.795454e-06	0.0604721	0.002092862	1.518395e-05	-2.069457e-05	0.05357194	0.007829596
1.7e+08	0.05498987	0.007478387	1.085546e-05	-1.828236e-05	0.06170656	-0.004422241	1.664506e-06	-9.079616e-06
	1.085546e-05	-1.828236e-05	0.05532532	0.006907435	5.414966e-05	-6.467936e-05	0.06164508	-0.003858689
	0.06170655	-0.004422241	5.414966e-05	-6.467936e-05	0.05550558	0.007374732	1.391458e-05	-1.980971e-05
	1.664506e-06	-9.079616e-06	0.06164508	-0.00385869	1.391458e-05	-1.980971e-05	0.05551367	0.007394321
1.8e+08	0.05713238	0.006911875	9.709779e-06	-1.732051e-05	0.06197578	-0.01064632	1.158104e-06	-8.364043e-06
	9.709779e-06	-1.732051e-05	0.05745041	0.006318115	5.003157e-05	-6.315272e-05	0.06186257	-0.01004699
	0.06197578	-0.01064632	5.003157e-05	-6.315272e-05	0.05761904	0.006797948	1.269846e-05	-1.892406e-05
	1.158104e-06	-8.364043e-06	0.06186257	-0.01004699	1.269846e-05	-1.892406e-05	0.05768272	0.006769693
1.9e+08	0.0594983	0.006091697	8.642239e-06	-1.634183e-05	0.06126085	-0.01696526	7.06188e-07	-7.646469e-06
	8.642239e-06	-1.634183e-05	0.05980106	0.005473024	4.599149e-05	-6.15679e-05	0.06109037	-0.01632182
	0.06126085	-0.01696526	4.599149e-05	-6.15679e-05	0.05995197	0.005965654	1.154849e-05	-1.802744e-05
	7.06188e-07	-7.646469e-06	0.06109037	-0.01632182	1.154849e-05	-1.802744e-05	0.06006746	0.005880263
2e+08	0.06206059	0.00494103	7.663924e-06	-1.534437e-05	0.05954954	-0.02322633	3.143665e-07	-6.927278e-06
	7.663924e-06	-1.534437e-05	0.06234913	0.004294495	4.205781e-05	-5.989503e-05	0.05931753	-0.02252908
	0.05954954	-0.02322633	4.205781e-05	-5.989503e-05	0.06247635	0.004802579	1.047522e-05	-1.711508e-05
	3.143665e-07	-6.927278e-06	0.05931753	-0.02252908	1.047522e-05	-1.711508e-05	0.06263852	0.004650788
2.1e+08	0.06477344	0.003387414	6.78198e-06	-1.433097e-05	0.05685288	-0.0292762	-1.355996e-08	-6.208831e-06
	6.78198e-06	-1.433097e-05	0.06504766	0.002709382	3.82548e-05	-5.811603e-05	0.05655664	-0.02851438
	0.05685288	-0.0292762	3.82548e-05	-5.811603e-05	0.06514531	0.003237773	9.485924e-06	-1.6187e-05
	-1.355995e-08	-6.208831e-06	0.05655664	-0.02851438	9.485924e-06	-1.6187e-05	0.06534744	0.003010655
2.2e+08	0.06757265	0.001365489	6.00201e-06	-1.330653e-05	0.05320497	-0.03496457	-2.751304e-07	-5.494774e-06
	6.00201e-06	-1.330653e-05	0.06783109	0.000652002	3.460436e-05	-5.622106e-05	0.05284356	-0.03412654
	0.05320497	-0.03496457	3.460436e-05	-5.622106e-05	0.06789489	0.001207915	8.586439e-06	-1.52456e-05
	-2.751303e-07	-5.494774e-06	0.05284356	-0.03412654	8.586439e-06	-1.52456e-05	0.0681286	0.000897134
2.3e+08	0.07037793	-0.001178188	5.325399e-06	-1.227816e-05	0.04866235	-0.04014788	-4.689619e-07	-4.789562e-06
	5.325399e-06	-1.227816e-05	0.07061762	-0.001931138	3.112034e-05	-5.421004e-05	0.04823675	-0.03922139
	0.04866235	-0.04014788	3.112034e-05	-5.421004e-05	0.07064552	-0.001339423	7.781227e-06	-1.429491e-05
	-4.689619e-07	-4.789562e-06	0.04823675	-0.03922139	7.781227e-06	-1.429491e-05	0.07090075	-0.001741272
2.4e+08	0.07309494	-0.004282066	4.755904e-06	-1.125288e-05	0.04330254	-0.04469193	-5.949354e-07	-4.098357e-06
	4.755904e-06	-1.125288e-05	0.07331145	-0.005078163	2.782537e-05	-5.208048e-05	0.04281586	-0.04366452
	0.04330254	-0.04469193	2.782537e-05	-5.208048e-05	0.07330315	-0.00444143	7.07261e-06	-1.334116e-05
	-5.949354e-07	-4.098357e-06	0.04281586	-0.04366452	7.07261e-06	-1.334116e-05	0.07356817	-0.00494047
2.5e+08	0.07561811	-0.007966579	4.294107e-06	-1.023925e-05	0.03722226	-0.04847527	-6.536986e-07	-3.426532e-06
	4.294107e-06	-1.023925e-05	0.07580553	-0.008808838	2.473144e-05	-4.983971e-05	0.03667979	-0.04733453
	0.03722226	-0.04847527	2.473144e-05	-4.983971e-05	0.07576363	-0.00811796	6.459994e-06	-1.239106e-05
	-6.536986e-07	-3.426532e-06	0.03667979	-0.04733453	6.459994e-06	-1.239106e-05	0.07602516	-0.008718637
2.6e+08	0.07783465	-0.0122322	3.938265e-06	-9.246439e-06	0.03053559	-0.0513921	-6.469342e-07	-2.779614e-06
	3.938265e-06	-9.246439e-06	0.07798568	-0.01312259	2.185612e-05	-4.749542e-05	0.02994486	-0.05012613
	0.03053559	-0.0513921	2.185612e-05	-4.749542e-05	0.07791462	-0.01236889	5.944432e-06	-1.145145e-05
	-6.469342e-07	-2.779614e-06	0.02994486	-0.05012613	5.944432e-06	-1.145145e-05	0.07815807	-0.01307359
2.7e+08	0.07962797	-0.01705778	3.685346e-06	-8.283476e-06	0.02337116	-0.05335372	-5.770441e-07	-2.163076e-06
	3.685346e-06	-8.283476e-06	0.07973413	-0.01799691	1.921235e-05	-4.506012e-05	0.02274186	-0.05195144
	0.02337116	-0.05335372	1.921235e-05	-4.506012e-05	0.07964061	-0.01717272	5.524715e-06	-1.052977e-05
	-5.770441e-07	-2.163076e-06	0.02274186	-0.05195144	5.524715e-06	-1.052977e-05	0.07985034	-0.01798146
2.8e+08	0.08088192	-0.02239909	3.531099e-06	-7.359101e-06	0.01586954	-0.05429121	-4.471029e-07	-1.582274e-06
	3.531099e-06	-7.359101e-06	0.08093375	-0.02338582	1.681022e-05	-4.25494e-05	0.01521348	-0.05274282
	0.01586954	-0.05429121	1.681022e-05	-4.25494e-05	0.08082665	-0.0224852	5.198261e-06	-9.63352e-06
	-4.471029e-07	-1.582274e-06	0.01521348	-0.05274282	5.198261e-06	-9.63352e-06	0.08098636	-0.02339525
2.9e+08	0.08148529	-0.0281896	3.470125e-06	-6.481525e-06	0.008180334	-0.0541568	-2.608431e-07	-1.042327e-06
	3.470125e-06	-6.481525e-06	0.08147274	-0.02922078	1.465756e-05	-3.998085e-05	0.007511228	-0.05245414
	0.008180333	-0.05415681	1.465756e-05	-3.998085e-05	0.08136192	-0.02823957	4.961493e-06	-8.769992e-06
	-2.608431e-07	-1.042327e-06	0.007511228	-0.05245414	4.961493e-06	-8.769992e-06	0.08145516	-0.0292453
3e+08	0.08133591	-0.03434051	3.496075e-06	-5.658387e-06	0.0004590035	-0.05292432	-2.256125e-08	-5.480875e-07
	3.496075e-06	-5.658387e-06	0.08124869	-0.03541078	1.275985e-05	-3.737364e-05	-0.0002077285	-0.05106116
	0.0004590034	-0.05292432	1.275985e-05	-3.737364e-05	0.08114509	-0.03434733	4.809956e-06	-7.946148e-06
	-2.256125e-08	-5.480875e-07	-0.0002077286	-0.05106116	4.809956e-06	-7.946148e-06	0.08115573	-0.03543994
3.1e+08	0.08034486	-0.04074266	3.601812e-06	-4.896562e-06	-0.007136451	-0.05059052	2.629012e-07	-1.040501e-07
	3.601812e-06	-4.896562e-06	0.08017291	-0.04184425	1.112024e-05	-3.474826e-05	-0.007784063	-0.04856297
	-0.007136451	-0.05059052	1.112024e-05	-3.474826e-05	0.08008749	-0.04069908	4.73849e-06	-7.168464e-06
	2.629012e-07	-1.040501e-07	-0.007784063	-0.04856297	4.73849e-06	-7.168464e-06	0.08000038	-0.0418666
3.2e+08	0.07843986	-0.04726818	3.779572e-06	-4.202145e-06	-0.01444869	-0.04717482	5.902107e-07	2.856926e-07
	3.779572e-06	-4.202145e-06	0.07817387	-0.04839088	9.739355e-06	-3.212624e-05	-0.01505938	-0.04498152
	-0.01444869	-0.04717482	9.739355e-06	-3.212624e-05	0.07811839	-0.04716703	4.741275e-06	-6.443011e-06
	5.902107e-07	2.856926e-07	-0.01505938	-0.04498152	4.741275e-06	-6.443011e-06	0.07791991	-0.04839434
3.3e+08	0.07556943	-0.05377383	4.021079e-06	-3.580413e-06	-0.02132393	-0.04271871	9.535884e-07	6.174559e-07
	4.021079e-06	-3.580413e-06	0.07520141	-0.05490498	8.615371e-06	-2.952969e-05	-0.02187929	-0.04036106
	-0.02132393	-0.04271871	8.615371e-06	-2.952969e-05	0.07518648	-0.0536078	4.811987e-06	-5.775335e-06
	9.535884e-07	6.174559e-07	-0.02187929	-0.04036106	4.811987e-06	-5.775335e-06	0.07486524	-0.05487683
3.4e+08	0.07170573	-0.06010383	4.317666e-06	-3.03584e-06	-0.02761576	-0.0372855	1.346828e-06	8.880761e-07
	4.317666e-06	-3.03584e-06	0.07122952	-0.06122855	7.743815e-06	-2.698096e-05	-0.02809723	-0.0347678
	-0.02761576	-0.0372855	7.743815e-06	-2.698096e-05	0.07126497	-0.05986615	4.94383e-06	-5.170393e-06
	1.346829e-06	8.880761e-07	-0.02809723	-0.0347678	4.94383e-06	-5.170393e-06	0.07081244	-0.06115617
3.5e+08	0.06684684	-0.0660946	4.660401e-06	-2.572077e-06	-0.03318724	-0.0309586	1.763332e-06	1.094875e-06
	4.660401e-06	-2.572077e-06	0.06625863	-0.06719601	7.117719e-06	-2.450242e-05	-0.03357653	-0.02828809
	-0.03318724	-0.0309586	7.117719e-06	-2.450242e-05	0.06635225	-0.06577819	5.129613e-06	-4.632662e-06
	1.763332e-06	1.094875e-06	-0.03357653	-0.02828809	5.129613e-06	-4.632662e-06	0.06576331	-0.06706626
3.6e+08	0.0610183	-0.07157854	5.040086e-06	-2.192017e-06	-0.03791421	-0.0238405	2.196133e-06	1.235784e-06
	5.040086e-06	-2.192017e-06	0.06031712	-0.07263824	6.727492e-06	-2.211604e-05	-0.03819385	-0.02102732
	-0.03791421	-0.0238405	6.727492e-06	-2.211604e-05	0.0604752	-0.07117681	5.36174e-06	-4.166001e-06
	2.196133e-06	1.235784e-06	-0.03819385	-0.02102732	5.36174e-06	-4.166001e-06	0.05974867	-0.07243836
3.7e+08	0.05427456	-0.07638959	5.447378e-06	-1.89777e-06	-0.04168794	-0.01605013	2.637955e-06	1.309354e-06
	5.447378e-06	-1.89777e-06	0.05346275	-0.07738805	6.56099e-06	-1.98431e-05	-0.04184166	-0.01310725
	-0.04168794	-0.01605013	6.56099e-06	-1.98431e-05	0.05368901	-0.07589626	5.632293e-06	-3.773733e-06
	2.637955e-06	1.309354e-06	-0.04184166	-0.01310725	5.632293e-06	-3.773733e-06	0.05282809	-0.07710574
3.8e+08	0.04669845	-0.08036735	5.872731e-06	-1.690739e-06	-0.04441649	-0.007720926	3.081213e-06	1.314808e-06
	5.872731e-06	-1.690739e-06	0.04578192	-0.08128458	6.603637e-06	-1.770392e-05	-0.04442971	-0.004663958
	-0.04441649	-0.007720926	6.603637e-06	-1.770392e-05	0.04607729	-0.07977627	5.932981e-06	-3.458641e-06
	3.081213e-06	1.314808e-06	-0.04442971	-0.004663958	5.932981e-06	-3.458641e-06	0.04508979	-0.08090798
3.9e+08	0.03840152	-0.08336188	6.306444e-06	-1.571522e-06	-0.04602764	0.001001306	3.518064e-06	1.252168e-06
	6.306444e-06	-1.571522e-06	0.03739	-0.08417809	6.83828e-06	-1.571754e-05	-0.04588791	0.004154366
	-0.04602764	0.001001306	6.83828e-06	-1.571754e-05	0.03775276	-0.08266834	6.255102e-06	-3.222809e-06
	3.518064e-06	1.252168e-06	-0.04588791	0.004154366	6.255102e-06	-3.222809e-06	0.03665132	-0.08369726
4e+08	0.02952142	-0.08523969	6.73865e-06	-1.539956e-06	-0.0464695	0.009962018	3.940496e-06	1.122249e-06
	6.73865e-06	-1.539956e-06	0.02842845	-0.0859361	7.245542e-06	-1.390135e-05	-0.04616682	0.01319112
	-0.0464695	0.009962018	7.245542e-06	-1.390135e-05	0.0288533	-0.08443927	6.589652e-06	-3.067691e-06
	3.940496e-06	1.122249e-06	-0.04616682	0.01319112	6.589652e-06	-3.067691e-06	0.0276553	-0.08534196
4.1e+08	0.02021924	-0.08588817	7.159336e-06	-1.594989e-06	-0.04571194	0.01900013	4.340398e-06	9.26799e-07
	7.159336e-06	-1.594989e-06	0.01906221	-0.08644766	7.803859e-06	-1.227071e-05	-0.0452391	0.02228345
	-0.04571194	0.01900013	7.803859e-06	-1.227071e-05	0.01954124	-0.08497721	6.927201e-06	-2.993922e-06
	4.340398e-06	9.26799e-07	-0.0452391	0.02228345	6.927201e-06	-2.993922e-06	0.0182686	-0.08573269
4.2e+08	0.01067816	-0.08521852	7.558383e-06	-1.734656e-06	-0.04374763	0.02795145	4.709642e-06	6.685414e-07
	7.558383e-06	-1.734656e-06	0.009477926	-0.08562648	8.489484e-06	-1.083886e-05	-0.04310042	0.03126593
	-0.04374763	0.02795145	8.489484e-06	-1.083886e-05	0.01000034	-0.08419466	7.257998e-06	-3.001268e-06
	4.709642e-06	6.685414e-07	-0.04310042	0.03126593	7.257998e-06	-3.001268e-06	0.008679259	-0.08478531
4.3e+08	0.001097132	-0.08317109	7.925588e-06	-1.955969e-06	-0.04059151	0.03665192	5.040248e-06	3.512198e-07
	7.925588e-06	-1.955969e-06	-0.0001222241	-0.08341607	9.277028e-06	-9.61631e-06	-0.03976902	0.03997355
	-0.04059151	0.03665192	9.277028e-06	-9.61631e-06	0.0004298212	-0.08203307	7.572025e-06	-3.088469e-06
	5.040248e-06	3.512198e-07	-0.03976902	0.03997355	7.572025e-06	-3.088469e-06	-0.0009098977	-0.08244549
4.4e+08	-0.008312927	-0.07971746	8.250786e-06	-2.254742e-06	-0.03628128	0.04494017	5.324494e-06	-2.030873e-08
	8.250786e-06	-2.254742e-06	-0.009524742	-0.07979182	1.013952e-05	-8.61066e-06	-0.03528593	0.04824456
	-0.03628128	0.04494017	1.013952e-05	-8.61066e-06	-0.008958578	-0.07846526	7.859053e-06	-3.25309e-06
	5.324494e-06	-2.030873e-08	-0.03528593	0.04824456	7.859053e-06	-3.25309e-06	-0.01028417	-0.07869085
4.5e+08	-0.01733309	-0.07486288	8.523958e-06	-2.625568e-06	-0.03087673	0.05266127	5.555097e-06	-4.400897e-07
	8.523958e-06	-2.625568e-06	-0.01850874	-0.07476339	1.104871e-05	-7.826307e-06	-0.02971438	0.05592404
	-0.03087673	0.05266127	1.104871e-05	-7.826307e-06	-0.01794585	-0.0734979	8.108818e-06	-3.491428e-06
	5.555097e-06	-4.400897e-07	-0.02971438	0.05592404	8.108818e-06	-3.491428e-06	-0.01922243	-0.07353355
4.6e+08	-0.02574326	-0.06864752	8.735418e-06	-3.061694e-06	-0.02445841	0.05966929	5.725426e-06	-9.010723e-07
	8.735418e-06	-3.061694e-06	-0.0268529	-0.06837568	1.197565e-05	-7.264161e-06	-0.02313844	0.06286661
	-0.02445841	0.05966929	1.197565e-05	-7.264161e-06	-0.02631246	-0.06717254	8.311215e-06	-3.798375e-06
	5.725426e-06	-9.010723e-07	-0.02313844	0.06286661	8.311215e-06	-3.798375e-06	-0.02750393	-0.06702105
4.7e+08	-0.03332899	-0.06114774	8.876096e-06	-3.554924e-06	-0.01712639	0.06583067	5.829703e-06	-1.395155e-06
	8.876096e-06	-3.554924e-06	-0.03434247	-0.06071011	1.28911e-05	-6.921325e-06	-0.01566154	0.06893969
	-0.01712639	0.06583067	1.28911e-05	-6.921325e-06	-0.03384298	-0.05956679	8.456495e-06	-4.167355e-06
	5.829703e-06	-1.395155e-06	-0.01566154	0.06893969	8.456495e-06	-4.167355e-06	-0.03491311	-0.05923708
4.8e+08	-0.03988456	-0.05247331	8.937697e-06	-4.095692e-06	-0.008998616	0.07102605	5.863171e-06	-1.913278e-06
	8.937697e-06	-4.095692e-06	-0.04077219	-0.05188156	1.3766e-05	-6.79119e-06	-0.007404922	0.07402536
	-0.008998616	0.07102605	1.3766e-05	-6.79119e-06	-0.04033295	-0.05079272	8.535568e-06	-4.590265e-06
