!$
! Info: Touchstone file created by Circ.  Input file=Tx_PCB_4dB_OSFP_27dB_OSFP_4dB_PCB_Rx_TP0_TP5_VendorX.circ
!$
# Hz S RI R 50
0	0.06060583	-1.202008e-13	-3.267219e-05	9.369274e-18	0.01679468	5.561694e-13	-3.206662e-05	9.651057e-18
	-3.267219e-05	9.367307e-18	0.06071597	2.496001e-13	-3.214245e-05	1.474026e-17	0.01672761	5.969485e-13
	0.01679458	5.563033e-13	-3.214245e-05	1.474512e-17	0.06578595	3.971693e-13	-3.235656e-05	1.490068e-17
	-3.206662e-05	9.654364e-18	0.01672763	5.974048e-13	-3.235656e-05	1.490113e-17	0.06583271	2.675754e-13
1e+07	0.1017631	0.008638303	-8.670038e-05	4.176642e-05	0.06469236	0.03683661	-1.780006e-05	5.878819e-05
	-8.670038e-05	4.176642e-05	0.100518	0.009064806	-2.290732e-05	8.556983e-08	0.06419013	0.03779444
	0.0646923	0.03683665	-2.290732e-05	8.557008e-08	0.1098025	0.01028755	-2.515438e-05	5.576659e-06
	-1.780006e-05	5.878819e-05	0.06419014	0.03779445	-2.515438e-05	5.57666e-06	0.1087147	0.01080886
2e+07	0.0984401	-0.05417773	-3.285151e-05	8.986657e-05	0.09206209	-0.02302305	1.682764e-05	5.447712e-05
	-3.285151e-05	8.986657e-05	0.0983075	-0.05045399	-3.782273e-05	1.558509e-05	0.0928712	-0.0205512
	0.09206207	-0.02302301	-3.782273e-05	1.558509e-05	0.1082876	-0.05590215	-3.751499e-05	1.46043e-05
	1.682764e-05	5.447711e-05	0.09287122	-0.02055121	-3.751499e-05	1.46043e-05	0.1082095	-0.0518958
3e+07	0.03104503	-0.05650718	4.139883e-05	0.0001099268	0.0264788	-0.04158979	4.528137e-05	5.877603e-05
	4.139883e-05	0.0001099268	0.03372218	-0.05479096	-2.376181e-05	6.884688e-05	0.02837301	-0.04085902
	0.02647877	-0.04158976	-2.376181e-05	6.884688e-05	0.03794691	-0.0605396	-2.928632e-05	7.130708e-05
	4.528137e-05	5.877603e-05	0.02837301	-0.04085903	-2.928632e-05	7.130708e-05	0.04095122	-0.05827373
4e+07	0.03146405	0.004278904	0.000134015	3.944236e-05	0.02048863	0.02594904	0.000111598	1.64623e-06
	0.000134015	3.944237e-05	0.02939103	0.004467003	5.837731e-05	7.323859e-05	0.01891146	0.02650739
	0.02048862	0.0259491	5.837731e-05	7.323859e-05	0.03692637	0.002555566	6.827519e-05	7.621135e-05
	0.000111598	1.646229e-06	0.01891146	0.0265074	6.827518e-05	7.621135e-05	0.03537498	0.0030662
5e+07	0.0881212	-0.006441929	0.0001089718	-7.53095e-05	0.08717751	0.01841045	5.791253e-05	-8.861325e-05
	0.0001089718	-7.530951e-05	0.08449512	0.001376863	9.850827e-05	5.41219e-06	0.08558023	0.02412069
	0.08717754	0.01841051	9.850827e-05	5.41219e-06	0.09635869	-0.008025056	9.239896e-05	-6.984982e-06
	5.791253e-05	-8.861325e-05	0.08558024	0.02412069	9.239897e-05	-6.984968e-06	0.09295246	0.0001804499
6e+07	0.07321066	-0.06389909	4.93761e-05	-0.0001298658	0.06976043	-0.04588667	1.088527e-05	-8.851857e-05
	4.93761e-05	-0.0001298658	0.07805163	-0.05419285	9.506062e-05	-7.358342e-05	0.07364358	-0.04026339
	0.06976047	-0.04588666	9.506062e-05	-7.358342e-05	0.08150273	-0.06916609	9.062036e-05	-6.325321e-05
	1.088527e-05	-8.851856e-05	0.07364358	-0.0402634	9.062038e-05	-6.325321e-05	0.08676799	-0.05854879
7e+07	0.01889854	-0.04826099	-7.73442e-05	-0.0001730324	0.01000521	-0.01890649	-7.126921e-05	-0.0001317046
	-7.73442e-05	-0.0001730324	0.02371892	-0.04711243	4.272688e-07	-0.0001592899	0.0122373	-0.01890953
	0.01000522	-0.01890647	4.272714e-07	-0.0001592899	0.02365021	-0.05408478	1.16819e-06	-0.0001674436
	-7.126921e-05	-0.0001317046	0.01223729	-0.01890953	1.168193e-06	-0.0001674436	0.02951624	-0.0521933
8e+07	0.0419217	-0.002305605	-0.0002100243	-2.989323e-05	0.04871258	0.03342269	-0.0001857354	6.932051e-06
	-0.0002100243	-2.989323e-05	0.03668974	0.002300191	-0.0001459097	-9.311582e-05	0.04433982	0.0373554
	0.04871261	0.03342273	-0.0001459097	-9.311582e-05	0.04670423	-0.005472313	-0.0001583762	-7.475128e-05
	-0.0001857354	6.932052e-06	0.04433983	0.03735541	-0.0001583762	-7.475129e-05	0.04228051	-0.0005710509
9e+07	0.08374533	-0.03518945	-0.000148417	0.0001214821	0.0929395	-0.01460806	-8.679472e-05	0.0001206702
	-0.000148417	0.0001214821	0.0838154	-0.01853776	-0.0001629403	4.327806e-05	0.09362964	-0.003399884
	0.09293956	-0.01460805	-0.0001629403	4.327805e-05	0.09111693	-0.03969933	-0.0001346351	4.774296e-05
	-8.679471e-05	0.0001206702	0.09362965	-0.003399891	-0.0001346352	4.774296e-05	0.09172268	-0.02220779
1e+08	0.0478574	-0.0780169	-5.540473e-05	0.0002150982	0.03992002	-0.05096544	-4.099068e-05	0.000163041
	-5.540473e-05	0.0002150982	0.06013342	-0.0672051	-0.0001055177	0.0001670827	0.0472353	-0.0455228
	0.03992005	-0.05096546	-0.0001055177	0.0001670827	0.0535059	-0.08583836	-0.0001102109	0.0001509214
	-4.099068e-05	0.000163041	0.0472353	-0.0455228	-0.0001102109	0.0001509214	0.06715567	-0.07384992
1.1e+08	0.009735966	-0.0427047	0.0001770025	0.0002258442	0.0140923	0.006455712	0.0001539258	0.0002096558
	0.0001770025	0.0002258442	0.01375241	-0.04253015	9.025513e-05	0.0002237371	0.0134631	0.006467294
	0.01409231	0.006455716	9.025513e-05	0.0002237371	0.01217079	-0.04929918	0.0001030216	0.000225276
	0.0001539258	0.0002096558	0.0134631	0.006467293	0.0001030216	0.000225276	0.01792779	-0.04879774
1.2e+08	0.04940891	-0.01586157	0.0002818388	-2.933881e-05	0.07608713	0.01947862	0.0002541419	-4.19272e-05
	0.0002818388	-2.933881e-05	0.04374574	-0.003237507	0.0002375947	4.888733e-05	0.07076229	0.03006973
	0.07608717	0.01947863	0.0002375947	4.888732e-05	0.05327584	-0.02034686	0.0002226267	1.289317e-05
	0.0002541419	-4.19272e-05	0.07076229	0.03006973	0.0002226267	1.289319e-05	0.04860308	-0.007490949
1.3e+08	0.07026627	-0.06301439	0.0001696842	-0.0001911158	0.07849214	-0.04403851	0.0001282115	-0.0001466511
	0.0001696842	-0.0001911158	0.07959472	-0.04043396	0.0001949404	-0.0001300356	0.08461957	-0.02943466
	0.07849218	-0.04403853	0.0001949404	-0.0001300356	0.07571839	-0.07002466	0.0001614331	-0.0001039838
	0.0001282115	-0.0001466511	0.08461958	-0.02943467	0.0001614331	-0.0001039838	0.08630038	-0.046336
1.4e+08	0.0206418	-0.0841022	2.953863e-06	-0.0003138507	0.01700679	-0.03735544	5.205922e-05	-0.0002620555
	2.953865e-06	-0.0003138507	0.03901855	-0.0771709	5.558222e-05	-0.0002719466	0.02527117	-0.03442613
	0.01700679	-0.03735547	5.558223e-05	-0.0002719466	0.02308889	-0.0932271	6.877905e-05	-0.0002622255
	5.205922e-05	-0.0002620555	0.02527117	-0.03442613	6.877903e-05	-0.0002622255	0.04383201	-0.08551606
1.5e+08	0.005224965	-0.03740317	-0.0003097464	-0.0002018097	0.03546307	0.02072576	-0.0002682683	-0.0002245539
	-0.0003097464	-0.0002018097	0.006237847	-0.03598639	-0.000224919	-0.0002288704	0.03048159	0.02442748
	0.03546308	0.02072576	-0.000224919	-0.0002288704	0.005523863	-0.04409255	-0.0002396655	-0.0002065694
	-0.0002682683	-0.0002245539	0.03048159	0.02442748	-0.0002396655	-0.0002065694	0.008633109	-0.04296361
1.6e+08	0.05159261	-0.03425528	-0.0003113759	0.0001269393	0.08958594	-0.009752658	-0.0002782429	0.000104657
	-0.0003113759	0.0001269393	0.0506222	-0.01233814	-0.0003036864	4.835769e-05	0.08760012	0.00872523
	0.08958597	-0.009752672	-0.0003036864	4.835769e-05	0.05409657	-0.0399313	-0.0002506009	6.840526e-05
	-0.0002782429	0.0001046569	0.08760013	0.008725226	-0.0002506009	6.840526e-05	0.05443649	-0.01780027
1.7e+08	0.04767974	-0.08532779	-0.0001537499	0.0002855364	0.05154738	-0.05834097	-0.0001584395	0.000196243
	-0.0001537499	0.0002855364	0.06914028	-0.0628645	-0.0001839832	0.0002419958	0.06387021	-0.04423736
	0.05154739	-0.05834101	-0.0001839832	0.0002419958	0.05036121	-0.09401378	-0.0001743746	0.0001937328
	-0.0001584395	0.000196243	0.06387021	-0.04423736	-0.0001743746	0.0001937328	0.07405022	-0.07059825
1.8e+08	-0.00477765	-0.0805692	0.0001302251	0.0003841665	0.0112167	-0.01455348	2.37384e-05	0.0003744248
	0.0001302251	0.0003841665	0.01520964	-0.08028033	6.420545e-05	0.0003564896	0.01654705	-0.01353668
	0.01121669	-0.0145535	6.420544e-05	0.0003564896	-0.005683872	-0.08977292	5.887475e-05	0.0003536745
	2.373839e-05	0.0003744248	0.01654705	-0.01353669	5.887477e-05	0.0003536745	0.01748203	-0.08960106
1.9e+08	0.005168522	-0.03430054	0.0004263355	9.237956e-05	0.06265628	0.0156518	0.0003957535	0.0001550222
	0.0004263355	9.237955e-05	0.003525358	-0.02765348	0.0003642257	0.0001524259	0.05519497	0.02755713
	0.06265629	0.01565179	0.0003642257	0.0001524259	0.003542652	-0.04050966	0.0003523282	0.0001061503
	0.0003957535	0.0001550222	0.05519498	0.02755713	0.0003523282	0.0001061503	0.004119635	-0.03486569
2e+08	0.04647374	-0.05516578	0.000299044	-0.0002395639	0.0834199	-0.04185341	0.0002768469	-0.000177878
	0.000299044	-0.000239564	0.05605744	-0.0262793	0.0003198662	-0.0001799782	0.08926646	-0.01758823
	0.08341992	-0.04185344	0.0003198662	-0.0001799782	0.04718658	-0.06163647	0.000253257	-0.0001537047
	0.0002768469	-0.000177878	0.08926646	-0.01758824	0.000253257	-0.0001537048	0.05854586	-0.03270377
2.1e+08	0.01823484	-0.09827175	8.223852e-05	-0.000395018	0.02491305	-0.05382972	0.0001681498	-0.000295382
	8.223852e-05	-0.000395018	0.05041455	-0.08289875	0.0001148549	-0.000359461	0.04099248	-0.04370525
	0.02491304	-0.05382976	0.0001148549	-0.000359461	0.0176617	-0.1075181	0.0001347925	-0.000317847
	0.0001681498	-0.000295382	0.04099248	-0.04370525	0.0001347925	-0.000317847	0.05306479	-0.09189344
2.2e+08	-0.02422251	-0.06883393	-0.0003176348	-0.0003743474	0.02400208	0.00386661	-0.0001940647	-0.0004468228
	-0.0003176348	-0.0003743474	-0.007795374	-0.07397066	-0.0002417766	-0.0003756925	0.02370006	0.00693394
	0.02400207	0.003866601	-0.0002417766	-0.0003756925	-0.0281711	-0.07693891	-0.0002472785	-0.0003596437
	-0.0001940647	-0.0004468228	0.02370006	0.006933938	-0.0002472785	-0.0003596437	-0.0081694	-0.0834968
2.3e+08	0.007752317	-0.03558628	-0.0004815502	7.333174e-05	0.0819667	-0.007708693	-0.0004834636	-1.23678e-05
	-0.0004815502	7.333174e-05	0.007250031	-0.02050022	-0.0004599583	-1.001174e-06	0.0771882	0.01505328
	0.08196671	-0.007708701	-0.0004599583	-1.00117e-06	0.004540189	-0.04087508	-0.0004006472	3.745309e-05
	-0.0004834636	-1.23678e-05	0.0771882	0.01505328	-0.0004006472	3.745309e-05	0.006130185	-0.02750496
2.4e+08	0.0326187	-0.07529783	-0.0002478528	0.000355678	0.06087824	-0.06408203	-0.0002641644	0.000254662
	-0.0002478528	0.000355678	0.05668421	-0.04548306	-0.0002774163	0.0003204373	0.07678394	-0.038869
	0.06087824	-0.06408206	-0.0002774163	0.0003204373	0.0312369	-0.08199235	-0.0002391521	0.0002504204
	-0.0002641644	0.000254662	0.07678394	-0.03886901	-0.0002391521	0.0002504205	0.0576204	-0.05254229
2.5e+08	-0.01371462	-0.09892993	6.274317e-05	0.0004854015	0.01044359	-0.03586761	-0.0001114855	0.000441165
	6.274316e-05	0.0004854015	0.02362437	-0.09559035	1.994643e-05	0.0004563983	0.02560184	-0.0304229
	0.01044356	-0.03586763	1.994641e-05	0.0004563983	-0.0175676	-0.1074948	-7.701523e-06	0.0004363791
	-0.0001114855	0.000441165	0.02560184	-0.0304229	-7.701481e-06	0.0004363791	0.02373651	-0.105159
2.6e+08	-0.03447872	-0.05280495	0.0005015654	0.0002579082	0.04779537	0.006846854	0.0004253268	0.0004129985
	0.0005015654	0.0002579082	-0.02458234	-0.05871314	0.0004365793	0.0002963549	0.04271877	0.01779669
	0.04779536	0.006846857	0.0004365793	0.0002963549	-0.04076565	-0.05888261	0.0004276378	0.0002536996
	0.0004253268	0.0004129985	0.04271876	0.01779669	0.0004276378	0.0002536995	-0.02749108	-0.06769331
2.7e+08	0.009782107	-0.04245245	0.0004620624	-0.0002533768	0.08386787	-0.04005785	0.0004986775	-0.0001643658
	0.0004620624	-0.0002533768	0.01636058	-0.01887496	0.0004788096	-0.0001926852	0.08827015	-0.007695
	0.08386787	-0.04005786	0.0004788096	-0.0001926852	0.005366875	-0.04653285	0.000388197	-0.0001805168
	0.0004986775	-0.0001643658	0.08827015	-0.007695003	0.000388197	-0.0001805168	0.01371284	-0.02527806
2.8e+08	0.01008696	-0.09030926	0.0001517308	-0.0004698451	0.03225231	-0.06905508	0.000244036	-0.0003516489
	0.0001517308	-0.0004698451	0.04841928	-0.06750007	0.0001776639	-0.0004487872	0.05671613	-0.04827997
	0.03225229	-0.0690551	0.0001776639	-0.0004487871	0.006500522	-0.0965169	0.0001897253	-0.0003706378
	0.000244036	-0.0003516489	0.05671613	-0.04827997	0.0001897252	-0.0003706378	0.04766349	-0.07480618
2.9e+08	-0.04205663	-0.08678261	-0.0002730872	-0.0005069899	0.01347926	-0.01593893	-5.942001e-05	-0.0005845082
	-0.0002730872	-0.0005069899	-0.007240069	-0.09606373	-0.0002174697	-0.0004967642	0.02338203	-0.01192332
	0.01347923	-0.01593893	-0.0002174697	-0.0004967642	-0.04872805	-0.09349114	-0.0002013616	-0.0004831828
	-5.942e-05	-0.0005845082	0.02338203	-0.01192333	-0.0002013616	-0.0004831828	-0.009740789	-0.1054667
3e+08	-0.03491389	-0.0380028	-0.0006201161	-5.108165e-05	0.06995226	-0.00910669	-0.0006383707	-0.000240591
	-0.0006201161	-5.108165e-05	-0.03048089	-0.03887473	-0.0005902049	-0.0001136736	0.06535987	0.01448583
	0.06995225	-0.009106683	-0.0005902049	-0.0001136736	-0.04259421	-0.04149432	-0.0005349421	-6.546142e-05
	-0.0006383707	-0.000240591	0.06535987	0.01448583	-0.0005349421	-6.546141e-05	-0.03561276	-0.04662267
3.1e+08	0.00737409	-0.05407228	-0.0003782478	0.0004175547	0.06697315	-0.06866929	-0.0004450442	0.0003306798
	-0.0003782478	0.0004175547	0.02654624	-0.02605642	-0.000411903	0.0003869147	0.08542924	-0.03205195
	0.06697315	-0.0686693	-0.000411903	0.0003869147	0.002129021	-0.0567729	-0.0003391695	0.0003091171
	-0.0004450442	0.0003306798	0.08542924	-0.03205195	-0.0003391695	0.0003091171	0.02264855	-0.03153801
3.2e+08	-0.01856377	-0.09556835	2.482584e-06	0.0005648959	0.009746164	-0.05770655	-0.000188657	0.0004890007
	2.48259e-06	0.0005648959	0.02902376	-0.08669029	-2.293338e-05	0.0005481051	0.03787549	-0.04451761
	0.009746138	-0.05770656	-2.293339e-05	0.0005481051	-0.02419922	-0.1005081	-6.918953e-05	0.0004971022
	-0.000188657	0.0004890007	0.03787549	-0.04451761	-6.918948e-05	0.0004971022	0.02653321	-0.09382735
3.3e+08	-0.06057239	-0.06495922	0.000505689	0.000419061	0.03082702	-0.006067054	0.0003475777	0.0006343993
	0.000505689	0.000419061	-0.03492392	-0.08249693	0.0004516541	0.0004401888	0.03430253	0.002911007
	0.03082699	-0.006067042	0.0004516541	0.0004401888	-0.06917493	-0.06890216	0.0004358792	0.00040886
	0.0003475777	0.0006343993	0.03430252	0.002911006	0.0004358792	0.00040886	-0.03991073	-0.09099141
3.4e+08	-0.02829012	-0.02964249	0.000636406	-0.0001981783	0.07877826	-0.03885581	0.0007465631	-3.903276e-05
	0.000636406	-0.0001981783	-0.02428864	-0.02148745	0.0006490109	-0.0001408016	0.08290879	-0.001821012
	0.07877825	-0.0388558	0.0006490109	-0.0001408016	-0.03635459	-0.03039214	0.0005466102	-0.0001463772
	0.0007465631	-3.903276e-05	0.08290879	-0.001821013	0.0005466102	-0.0001463772	-0.031144	-0.02742796
3.5e+08	-0.002653551	-0.06710527	0.0002434443	-0.0005528431	0.03799818	-0.08321298	0.0003515921	-0.0004675161
	0.0002434443	-0.0005528431	0.031525	-0.04191546	0.0002711785	-0.0005473153	0.07128706	-0.04991729
	0.03799817	-0.08321298	0.0002711785	-0.0005473153	-0.00838151	-0.06832435	0.0002610283	-0.0004346479
	0.0003515921	-0.0004675161	0.07128706	-0.04991729	0.0002610283	-0.0004346479	0.02672196	-0.04626472
3.6e+08	-0.04782528	-0.0879477	-0.0002177283	-0.0006059142	0.001890397	-0.03834298	4.150596e-05	-0.0006522889
	-0.0002177283	-0.0006059142	0.0004625862	-0.09602596	-0.0001853539	-0.0005969752	0.02756747	-0.0316223
	0.001890371	-0.03834297	-0.0001853539	-0.0005969752	-0.05504306	-0.09088085	-0.0001381644	-0.0005759905
	4.150597e-05	-0.0006522889	0.02756747	-0.0316223	-0.0001381645	-0.0005759904	-0.003717424	-0.1025724
3.7e+08	-0.06549901	-0.040099	-0.0006956311	-0.0002135708	0.05251835	-0.01342341	-0.0006796022	-0.0005061708
	-0.0006956311	-0.0002135708	-0.05164051	-0.05810041	-0.0006675041	-0.0002613717	0.05342558	0.007396164
	0.05251833	-0.01342339	-0.0006675041	-0.0002613717	-0.07486652	-0.04078734	-0.0006178765	-0.0002152864
	-0.0006796022	-0.0005061708	0.05342558	0.007396164	-0.0006178765	-0.0002152864	-0.05878343	-0.06497754
3.8e+08	-0.02012015	-0.0304557	-0.0005483151	0.0004363454	0.06848715	-0.07133733	-0.0007075948	0.0003433357
	-0.0005483151	0.0004363454	-0.009538229	-0.01338462	-0.0005866854	0.0004100941	0.08945742	-0.02547425
	0.06848715	-0.07133732	-0.0005866854	0.0004100941	-0.0276513	-0.02866758	-0.0004818431	0.0003371203
	-0.0007075948	0.0003433357	0.08945742	-0.02547425	-0.0004818431	0.0003371203	-0.01745038	-0.01711607
3.9e+08	-0.02103013	-0.07624158	-6.236295e-05	0.0006510372	0.008268118	-0.08004169	-0.0002371212	0.0005905923
	-6.236295e-05	0.0006510372	0.02580059	-0.06191412	-7.66969e-05	0.0006543812	0.05231486	-0.05674357
	0.008268103	-0.08004169	-7.669691e-05	0.0006543812	-0.02690436	-0.07591133	-0.0001328351	0.0005602563
	-0.0002371212	0.0005905923	0.05231485	-0.05674357	-0.0001328351	0.0005602563	0.02045038	-0.06505225
4e+08	-0.07035927	-0.06800147	0.0004712563	0.0005520913	0.009929404	-0.02256409	0.0002400725	0.0007663709
	0.0004712562	0.0005520913	-0.03056086	-0.09043311	0.0004364697	0.0005628595	0.02901519	-0.01667887
	0.009929386	-0.02256407	0.0004364696	0.0005628595	-0.07839201	-0.06837335	0.0004005209	0.0005464223
	0.0002400725	0.0007663709	0.02901519	-0.01667887	0.0004005209	0.0005464222	-0.0363052	-0.09596122
4.1e+08	-0.05762987	-0.02025581	0.0007821415	-7.716715e-05	0.0663813	-0.03737891	0.0009273552	0.000186166
	0.0007821415	-7.716715e-05	-0.05267673	-0.03067631	0.0007946293	-2.746654e-05	0.07340462	-0.000915987
	0.06638129	-0.03737889	0.0007946293	-2.746653e-05	-0.06651751	-0.01769252	0.0006921476	-4.694607e-05
	0.0009273552	0.000186166	0.07340461	-0.0009159866	0.0006921476	-4.694606e-05	-0.061429	-0.03531
4.2e+08	-0.01667901	-0.03928849	0.0003776189	-0.000625114	0.04133517	-0.0945662	0.0005466723	-0.0005899937
	0.0003776189	-0.000625114	0.006423992	-0.01806169	0.0004127337	-0.0006350958	0.08359864	-0.0490328
	0.04133517	-0.0945662	0.0004127337	-0.0006350958	-0.02296144	-0.03543314	0.0003686086	-0.0004962185
	0.0005466723	-0.0005899937	0.08359864	-0.0490328	0.0003686086	-0.0004962185	-0.00176847	-0.01942853
4.3e+08	-0.04474237	-0.07605994	-0.0001636239	-0.0006957067	-0.01149185	-0.06334022	7.947835e-05	-0.0007209884
	-0.0001636239	-0.0006957067	0.007721144	-0.07825953	-0.0001557448	-0.0006985796	0.03582111	-0.0527298
	-0.01149186	-0.06334021	-0.0001557448	-0.0006985796	-0.05040084	-0.07413813	-7.003746e-05	-0.0006552797
	7.947836e-05	-0.0007209884	0.0358211	-0.0527298	-7.003747e-05	-0.0006552797	0.002126675	-0.08022416
4.4e+08	-0.07981773	-0.04102979	-0.0007128934	-0.000376774	0.02757547	-0.02003728	-0.0006260161	-0.0007194148
	-0.0007128934	-0.000376774	-0.05469399	-0.06992614	-0.0006941121	-0.0004100559	0.04085874	-0.006775557
	0.02757546	-0.02003726	-0.0006941121	-0.0004100559	-0.08768118	-0.03860724	-0.0006467416	-0.000380754
	-0.0006260161	-0.0007194148	0.04085874	-0.006775557	-0.0006467416	-0.000380754	-0.06177913	-0.07399115
4.5e+08	-0.04253098	-0.01167297	-0.0007324947	0.0003917196	0.06324611	-0.06997288	-0.0009800108	0.0002420122
	-0.0007324947	0.0003917196	-0.03892302	-0.009768632	-0.0007771411	0.000370294	0.08729992	-0.02009307
	0.06324611	-0.06997286	-0.0007771411	0.000370294	-0.04982046	-0.006329887	-0.0006498324	0.0003126038
	-0.0009800108	0.0002420122	0.08729992	-0.02009307	-0.0006498324	0.0003126038	-0.04851757	-0.01169781
4.6e+08	-0.0224059	-0.05118646	-0.0001522899	0.0007459144	0.006250242	-0.1007105	-0.0003245346	0.0007492644
	-0.0001522899	0.0007459144	0.01526613	-0.03371842	-0.000162847	0.0007757768	0.06823091	-0.06615518
	0.006250241	-0.1007105	-0.000162847	0.0007757768	-0.02698219	-0.04588289	-0.0002136026	0.0006305564
	-0.0003245346	0.0007492644	0.06823091	-0.06615518	-0.0002136026	0.0006305564	0.007571672	-0.03286051
4.7e+08	-0.06726032	-0.06376948	0.0004237681	0.0006618399	-0.01577187	-0.04282922	0.0001808681	0.0008320749
	0.0004237681	0.0006618399	-0.01877663	-0.08309666	0.0004162237	0.0006672198	0.02712728	-0.04195283
	-0.01577188	-0.04282921	0.0004162237	0.0006672199	-0.07227989	-0.06026845	0.0003406689	0.0006651042
	0.0001808681	0.0008320749	0.02712728	-0.04195283	0.0003406689	0.0006651042	-0.02441682	-0.08397686
4.8e+08	-0.07409385	-0.0157879	0.0008777074	8.506866e-05	0.04390971	-0.03441713	0.0009975988	0.000424663
	0.0008777074	8.506866e-05	-0.06388523	-0.04061443	0.0008914317	0.0001241509	0.05842256	-0.00668068
