!$
! Info: Touchstone file created by Circ.  Input file=Tx_PCB_4dB_OSFP_22dB_OSFP_4dB_PCB_Rx_TP0_TP5_VendorY.circ
!$
# Hz S RI R 50
0	0.05495294	4.695085e-22	-0.0001072048	1.122458e-20	0.001859239	2.407704e-20	-0.0001194513	1.27215e-20
	-0.0001072026	1.122431e-20	0.05457158	2.841663e-22	-8.556161e-05	8.572548e-21	0.001779859	3.961991e-20
	0.001859299	2.406806e-20	-8.556171e-05	8.57256e-21	0.0547608	4.869588e-22	-8.178194e-05	8.109443e-21
	-0.0001194523	1.272163e-20	0.001779819	3.962005e-20	-8.177416e-05	8.10849e-21	0.0545847	2.762871e-22
1e+07	0.0476313	-0.02561514	-0.0001487852	-4.077081e-05	0.03759174	0.0404142	-0.0001189382	-4.062135e-06
	-0.0001487842	-4.077145e-05	0.04763668	-0.02591203	-0.0001705459	-8.486615e-05	0.03728183	0.04092673
	0.03759174	0.0404141	-0.0001705459	-8.486635e-05	0.04878285	-0.02449567	-0.0001418231	-5.475445e-05
	-0.0001189382	-4.062173e-06	0.03728183	0.04092673	-0.0001418211	-5.475571e-05	0.04863352	-0.02469625
2e+07	0.02127001	-0.0377664	-0.0002609723	2.0622e-05	0.08265606	0.01281089	-0.0001821461	2.04238e-05
	-0.0002609723	2.062172e-05	0.02056084	-0.03775114	-0.0003580456	5.059694e-06	0.08258669	0.01425439
	0.08265596	0.0128109	-0.0003580456	5.058999e-06	0.02369256	-0.03735563	-0.0002684344	1.102901e-05
	-0.0001821452	2.042317e-05	0.08258669	0.01425439	-0.0002684344	1.102941e-05	0.02291163	-0.03747927
3e+07	-0.002995672	-0.02363563	-0.0003445644	0.0002507325	0.06376261	-0.03534626	-0.0002644963	0.0001785145
	-0.0003445654	0.0002507326	-0.003691497	-0.02298909	-0.0004579037	0.0003343923	0.0648217	-0.0341006
	0.06376261	-0.03534626	-0.0004579038	0.0003343913	-0.0008207976	-0.02462216	-0.0003545453	0.0002513098
	-0.0002644964	0.0001785135	0.06482171	-0.0341005	-0.0003545452	0.0002513108	-0.001844611	-0.02419666
4e+07	-0.001828237	0.001045838	-0.0001309788	0.0006040007	0.0144379	-0.02505186	-0.000116833	0.0004667842
	-0.0001309798	0.0006040008	-0.00250874	0.00157341	-0.0001608818	0.0007753531	0.01486231	-0.02492311
	0.01443801	-0.02505178	-0.0001608819	0.0007753521	-0.0009879171	-0.0001104231	-0.0001373421	0.0006091118
	-0.000116834	0.0004667843	0.01486231	-0.02492311	-0.0001373421	0.0006091118	-0.002093515	0.0003744426
5e+07	0.01814901	0.006250613	0.0004061723	0.000637053	0.01726706	0.02472305	0.0003093606	0.0005079502
	0.0004061723	0.000637053	0.01651429	0.006944522	0.0005049356	0.000808665	0.01564246	0.02571183
	0.01726716	0.02472303	0.0005049347	0.0008086651	0.01860042	0.006291544	0.0004017074	0.0006451761
	0.0003093596	0.0005079504	0.01564246	0.02571183	0.0004017074	0.0006451761	0.01665688	0.007049502
6e+07	0.02526736	-0.01018163	0.0007875384	0.0002417815	0.06721517	0.02981466	0.0006160781	0.0002013825
	0.0007875384	0.0002417815	0.02309334	-0.008072528	0.0009975915	0.000331914	0.06575741	0.0337126
	0.06721515	0.02981457	0.0009975915	0.000331914	0.02688854	-0.009538233	0.0007889147	0.0002539663
	0.0006160783	0.0002013834	0.06575741	0.0337126	0.0007889157	0.0002539661	0.02449545	-0.007445132
7e+07	0.01018118	-0.01883826	0.0008893955	-0.0002863074	0.08138121	-0.01861222	0.0007087951	-0.0002092399
	0.0008893957	-0.0002863064	0.008978008	-0.01580174	0.001151252	-0.0003587502	0.0828822	-0.0140987
	0.08138113	-0.01861216	0.001151252	-0.0003587493	0.01278132	-0.01930562	0.000899368	-0.0002764077
	0.0007087953	-0.0002092391	0.0828822	-0.01409869	0.0008993679	-0.0002764079	0.01127801	-0.01636824
8e+07	-0.001338601	-0.004455771	0.0006478912	-0.0009611308	0.03678807	-0.04111639	0.0005363201	-0.00075839
	0.0006478912	-0.0009611308	-0.002176554	-0.002337771	0.0008173545	-0.001222113	0.03903735	-0.03965401
	0.03678807	-0.04111639	0.0008173548	-0.001222112	0.000481548	-0.006282679	0.000663289	-0.0009572679
	0.0005363201	-0.00075839	0.03903735	-0.03965401	0.0006632878	-0.0009572686	-0.0007732523	-0.004167933
9e+07	0.01141649	0.01076767	-0.0002502666	-0.00134844	0.007771387	-0.001014076	-0.0001888388	-0.001089685
	-0.0002502657	-0.001348441	0.008591241	0.01266946	-0.0002976703	-0.001679324	0.006118292	-0.0006837103
	0.007771449	-0.001014056	-0.0002976694	-0.001679324	0.01172428	0.009259419	-0.000230012	-0.001355492
	-0.0001888388	-0.001089685	0.006118261	-0.0006837952	-0.000230012	-0.001355492	0.008551889	0.01131267
1e+08	0.02968158	0.00141129	-0.001183033	-0.0008218447	0.04329973	0.03416283	-0.0009489739	-0.000663408
	-0.001183033	-0.0008218447	0.0254762	0.006050016	-0.001437996	-0.001065592	0.03910421	0.03897331
	0.04329973	0.03416283	-0.001437996	-0.001065592	0.03003087	0.00137649	-0.001169328	-0.0008472837
	-0.000948973	-0.0006634084	0.03910411	0.03897334	-0.001169329	-0.0008472834	0.02564235	0.00614672
1.1e+08	0.02456542	-0.01794707	-0.001438866	9.543771e-05	0.08494616	0.005007791	-0.001149068	7.183615e-05
	-0.001438866	9.543771e-05	0.02248425	-0.01088861	-0.001825331	4.950868e-05	0.08468318	0.01379328
	0.08494603	0.005007747	-0.001825331	4.950774e-05	0.02648425	-0.01781512	-0.00144833	6.239512e-05
	-0.001149068	7.183616e-05	0.08468318	0.01379328	-0.00144833	6.239604e-05	0.02422895	-0.01073703
1.2e+08	0.005115607	-0.01610503	-0.001245104	0.0009979027	0.0644228	-0.04147585	-0.001006574	0.0007894665
	-0.001245104	0.0009979018	0.005305198	-0.01061744	-0.001614873	0.001236738	0.06872567	-0.03592111
	0.06442272	-0.04147579	-0.001614873	0.001236738	0.007600721	-0.01768302	-0.001276468	0.0009762066
	-0.001006574	0.0007894656	0.06872567	-0.03592111	-0.001276468	0.0009762066	0.007568086	-0.01210756
1.3e+08	0.004353031	0.004598509	-0.0003501225	0.001861825	0.01574702	-0.02951619	-0.0002936903	0.001505084
	-0.0003501225	0.001861825	0.002158425	0.007698511	-0.000477696	0.002322749	0.01673323	-0.0292301
	0.01574702	-0.02951619	-0.000477696	0.002322749	0.005199627	0.00187654	-0.000394512	0.001863087
	-0.0002936903	0.001505084	0.01673323	-0.0292301	-0.000394512	0.001863087	0.002941258	0.005213107
1.4e+08	0.02680303	0.009662949	0.001192744	0.001700534	0.02032644	0.02051576	0.000970891	0.001375759
	0.001192744	0.001700534	0.02054298	0.01569862	0.001400717	0.002148636	0.01427981	0.02387405
	0.02032656	0.02051581	0.001400717	0.002148636	0.02611876	0.008219164	0.001152231	0.001735034
	0.0009708901	0.00137576	0.01427979	0.02387406	0.001152231	0.001735034	0.02002302	0.01435818
1.5e+08	0.03774951	-0.01186788	0.001997562	0.0004093281	0.07171268	0.02431889	0.001611417	0.0003158861
	0.001997562	0.0004093281	0.03312389	-4.206066e-05	0.002453571	0.0006473868	0.06699488	0.03634114
	0.07171276	0.02431883	0.002453571	0.0006473868	0.03800404	-0.0115992	0.001989926	0.0004692449
	0.001611417	0.0003158861	0.06699488	0.03634114	0.001989926	0.0004692449	0.03345263	8.468629e-05
1.6e+08	0.02005195	-0.0271182	0.001829522	-0.0008382225	0.08586659	-0.026144	0.001462945	-0.0006755995
	0.001829522	-0.0008382225	0.02127325	-0.015211	0.002382615	-0.0009369486	0.09005195	-0.01333612
	0.08586645	-0.02614401	0.002382615	-0.0009369486	0.02223146	-0.02755873	0.00186469	-0.0007839815
	0.001462946	-0.0006755987	0.09005186	-0.01333608	0.001864691	-0.0007839807	0.02330615	-0.01569297
1.7e+08	0.002687856	-0.01249193	0.001127691	-0.001971068	0.03961776	-0.04973708	0.0009132464	-0.001588033
	0.001127691	-0.001971068	0.00424547	-0.006241648	0.001519451	-0.002447924	0.04571981	-0.04580979
	0.03961776	-0.04973708	0.001519457	-0.002447916	0.004527066	-0.0152188	0.001194608	-0.001946588
	0.0009132469	-0.001588033	0.04571981	-0.04580979	0.001194599	-0.001946582	0.00609246	-0.008697263
1.8e+08	0.01602106	0.007997913	-0.0006034527	-0.002554629	0.009297979	-0.008403745	-0.0004997278	-0.002073849
	-0.0006034527	-0.002554629	0.01046518	0.01374118	-0.0006302642	-0.003202589	0.005490871	-0.007645202
	0.009298026	-0.008403695	-0.0006302642	-0.003202589	0.01537396	0.004999049	-0.0005249568	-0.002581698
	-0.0004997278	-0.002073849	0.005490869	-0.007645203	-0.0005249568	-0.002581698	0.01026059	0.01086994
1.9e+08	0.0413616	-0.001983134	-0.002338414	-0.001377673	0.04636187	0.02830203	-0.001912108	-0.001091085
	-0.002338414	-0.001377673	0.0330454	0.01246318	-0.002780627	-0.001863432	0.03655137	0.03970356
	0.04636193	0.02830196	-0.002780627	-0.001863432	0.03985934	-0.002611535	-0.002294966	-0.001460325
	-0.001912107	-0.001091085	0.03655138	0.03970356	-0.002294966	-0.001460326	0.03192647	0.01145806
2e+08	0.0384306	-0.02987217	-0.002509637	0.000481214	0.0907052	-0.002391321	-0.002010689	0.0004190621
	-0.002509637	0.000481214	0.03812038	-0.009604489	-0.003177513	0.0003612363	0.0902299	0.01821318
	0.09070513	-0.002391385	-0.003177513	0.0003612363	0.03907702	-0.02924786	-0.002532934	0.0003868873
	-0.00201069	0.0004190614	0.0902299	0.01821318	-0.002532934	0.0003868873	0.03863323	-0.009344788
2.1e+08	0.01201677	-0.03351344	-0.001816311	0.001815164	0.06999812	-0.05271654	-0.001446535	0.001465505
	-0.001816312	0.001815164	0.01885925	-0.01947212	-0.002463144	0.002159981	0.08042621	-0.03930734
	0.06999805	-0.05271646	-0.002463144	0.00215998	0.01433912	-0.03491603	-0.001894866	0.001752078
	-0.001446535	0.001465505	0.08042621	-0.03930733	-0.001894866	0.001752078	0.02104348	-0.02063338
2.2e+08	0.004834535	-0.008408541	-0.0003984085	0.002942693	0.0176042	-0.04212648	-0.0003107196	0.002385771
	-0.0003984084	0.002942693	0.005625641	-0.002119399	-0.0006826215	0.003679915	0.02185465	-0.04089643
	0.01760422	-0.04212634	-0.0006826214	0.003679915	0.005345721	-0.01208941	-0.0005126537	0.002938523
	-0.0003107196	0.002385771	0.02185465	-0.04089643	-0.0005126537	0.002938523	0.006763883	-0.005438932
2.3e+08	0.03110139	0.002871452	0.002025699	0.002638494	0.02036941	0.01099079	0.001679903	0.002124461
	0.002025699	0.002638494	0.02165437	0.01555003	0.002313048	0.003402198	0.009784299	0.0173143
	0.02036949	0.01099085	0.002313047	0.003402199	0.02880058	0.0004881751	0.001925219	0.002724134
	0.001679902	0.002124462	0.009784282	0.01731431	0.001925219	0.002724134	0.02031538	0.01268311
2.4e+08	0.04971912	-0.02256684	0.00324573	0.0003692777	0.07500552	0.01671529	0.002634041	0.0002387492
	0.00324573	0.0003692777	0.04440261	0.003690094	0.003955885	0.0007744892	0.06612956	0.04058942
	0.07500557	0.0167152	0.003955885	0.0007744892	0.04804811	-0.02192982	0.00323236	0.0005077074
	0.002634041	0.0002387492	0.06612956	0.04058942	0.00323236	0.0005077074	0.04289357	0.003330571
2.5e+08	0.03041351	-0.04762499	0.002544121	-0.001606045	0.09241692	-0.03727728	0.002012187	-0.001328575
	0.002544121	-0.001606044	0.0396663	-0.02134884	0.00337731	-0.001721117	0.1014579	-0.01049224
	0.09241692	-0.03727728	0.00337731	-0.001721117	0.0318319	-0.04705744	0.002621867	-0.001493804
	0.002012188	-0.001328574	0.1014579	-0.01049224	0.002621866	-0.001493804	0.04061284	-0.02098894
2.6e+08	0.003350087	-0.03534718	0.001321004	-0.002853866	0.04368502	-0.06607291	0.001040125	-0.002304172
	0.001321004	-0.002853866	0.01525337	-0.02288867	0.001942248	-0.003506386	0.05888345	-0.05625752
	0.04368499	-0.06607292	0.001942248	-0.003506385	0.005269375	-0.038016	0.001454321	-0.002803088
	0.001040126	-0.002304171	0.05888345	-0.05625752	0.001454321	-0.002803089	0.01752943	-0.02491413
2.7e+08	0.01218318	-0.007044631	-0.0009533982	-0.003568498	0.007562088	-0.02404279	-0.0008111885	-0.002891624
	-0.0009534059	-0.003568504	0.00945202	0.00144868	-0.0009104678	-0.004527958	0.005522994	-0.02292275
	0.007562103	-0.02404268	-0.0009104601	-0.004527952	0.01075914	-0.01098957	-0.000793195	-0.003617464
	-0.0008111885	-0.002891624	0.005522917	-0.02292269	-0.000793195	-0.003617464	0.009585606	-0.002611301
2.8e+08	0.04463109	-0.0123716	-0.003509043	-0.001875989	0.0444855	0.0178834	-0.002892568	-0.001460332
	-0.003509043	-0.001875989	0.03452982	0.01258138	-0.004127735	-0.002636811	0.0293979	0.03661047
	0.0444855	0.0178834	-0.004127735	-0.002636811	0.04111596	-0.01321792	-0.003420364	-0.002042269
	-0.002892567	-0.001460333	0.02939788	0.03661049	-0.003420364	-0.002042269	0.03202571	0.01013351
2.9e+08	0.04771759	-0.04780312	-0.003568724	0.001081146	0.09419363	-0.01239652	-0.002852825	0.0009589335
	-0.003568724	0.001081146	0.05298616	-0.01003071	-0.004525791	0.0008895665	0.09406347	0.02471483
	0.09419363	-0.01239652	-0.004525791	0.0008895665	0.04675822	-0.04594703	-0.003622644	0.0009020172
	-0.002852825	0.0009589335	0.09406347	0.02471483	-0.003622644	0.0009020172	0.05143081	-0.009499452
3e+08	0.01532966	-0.0605765	-0.002080594	0.00272773	0.07545998	-0.06904206	-0.001614726	0.002217499
	-0.002080595	0.00272773	0.03705036	-0.0340546	-0.002976832	0.003169655	0.09693531	-0.04193489
	0.07545985	-0.069042	-0.002976838	0.003169651	0.01752465	-0.06073238	-0.002223944	0.002624382
	-0.001614727	0.002217498	0.09693531	-0.04193489	-0.002223938	0.002624374	0.03869682	-0.03378575
3.1e+08	-0.002706048	-0.03340231	-0.0002908542	0.003761438	0.01689731	-0.06312339	-0.0001967079	0.003038034
	-0.0002908541	0.003761438	0.01074138	-0.02462085	-0.000743367	0.004725752	0.03214456	-0.05906077
	0.01689731	-0.06312339	-0.0007433669	0.004725752	-0.00199299	-0.03725928	-0.0004824218	0.003749709
	-0.0001967079	0.003038034	0.03214449	-0.0590607	-0.0004824218	0.003749709	0.01290536	-0.0277661
3.2e+08	0.02291784	-0.012045	0.00274161	0.003477953	0.01358884	-0.005432461	0.002292013	0.00279018
	0.00274161	0.003477953	0.01604758	0.003914407	0.00305415	0.004563303	0.003144195	0.002107311
	0.01358891	-0.005432444	0.00305415	0.004563303	0.01938388	-0.01516968	0.002556506	0.003616948
	0.002292013	0.00279018	0.003144195	0.002107311	0.002556506	0.003616948	0.01476251	-0.0006724126
3.3e+08	0.05097552	-0.03644557	0.004550451	0.0003028782	0.07155443	0.006171747	0.003708271	0.0001283841
	0.004550451	0.0003028782	0.04779871	0.004084843	0.005519603	0.0009113791	0.05933144	0.04255255
	0.07155443	0.006171746	0.005519603	0.0009113791	0.04720677	-0.03513637	0.004524776	0.0005522695
	0.003708271	0.0001283841	0.05933138	0.04255263	0.004524776	0.0005522695	0.04418457	0.002615568
3.4e+08	0.03405559	-0.07186708	0.00317504	-0.002604437	0.09534305	-0.05079199	0.002476861	-0.002182489
	0.00317504	-0.002604437	0.05708017	-0.02791431	0.004295225	-0.002749365	0.1118564	-0.004870486
	0.09534305	-0.05079199	0.004295225	-0.002749365	0.03453226	-0.06937947	0.003320457	-0.002420646
	0.002476861	-0.002182489	0.1118564	-0.004870486	0.003320457	-0.002420646	0.05597482	-0.02632685
3.5e+08	-0.003099818	-0.06596179	0.001177499	-0.003677589	0.0450725	-0.08799455	0.0008759873	-0.002959135
	0.001177499	-0.003677589	0.02969709	-0.04599962	0.001994974	-0.004487421	0.0774792	-0.0675056
	0.0450725	-0.08799455	0.001994974	-0.004487421	-0.0006034865	-0.06747468	0.001384774	-0.003610472
	0.0008759882	-0.002959134	0.07747913	-0.06750552	0.001384774	-0.003610472	0.032287	-0.04621844
3.6e+08	-0.004077997	-0.03047683	-0.001276089	-0.004281483	-0.0006535405	-0.04732398	-0.001092115	-0.00345321
	-0.001276089	-0.004281483	0.00634401	-0.02372655	-0.001132561	-0.005500499	0.008728204	-0.04684148
	-0.000653529	-0.04732398	-0.001132561	-0.005500499	-0.00536786	-0.03492621	-0.001030954	-0.004341503
	-0.001092115	-0.00345321	0.008728204	-0.04684148	-0.001030954	-0.004341503	0.007951726	-0.02827427
3.7e+08	0.03286374	-0.02569046	-0.004552288	-0.002413525	0.03283463	0.003175104	-0.003772476	-0.001866663
	-0.004552288	-0.002413525	0.02579028	0.004032128	-0.005294629	-0.003480282	0.01696876	0.02549414
	0.03283473	0.003175108	-0.005294629	-0.003480282	0.02767659	-0.02683321	-0.004388086	-0.002672322
	-0.003772476	-0.001866663	0.01696876	0.02549414	-0.004388077	-0.002672319	0.02262888	-0.0005655469
3.8e+08	0.04561355	-0.06504714	-0.004735476	0.001750929	0.08977137	-0.02327276	-0.00378604	0.001572345
	-0.004735476	0.001750929	0.05949917	-0.01072446	-0.006006116	0.001456058	0.09126971	0.0310638
	0.08977146	-0.02327286	-0.006006116	0.001456058	0.04284466	-0.06158462	-0.004824955	0.001448932
	-0.00378604	0.001572345	0.09126971	0.0310638	-0.004824955	0.001448932	0.05513274	-0.01052733
3.9e+08	0.01053191	-0.08911245	-0.002148666	0.00385728	0.07603893	-0.0870588	-0.001600432	0.003150892
	-0.002148664	0.00385727	0.05473305	-0.04848938	-0.003291296	0.004420751	0.113717	-0.04129771
	0.07603891	-0.08705879	-0.003291296	0.004420751	0.01274911	-0.08699837	-0.002386635	0.003714113
	-0.001600432	0.003150892	0.113717	-0.04129763	-0.002386635	0.003714113	0.05482327	-0.04593251
4e+08	-0.02043473	-0.0635501	0.000105362	0.00434366	0.01081292	-0.08931667	0.0001581675	0.003476122
	0.0001053621	0.00434366	0.01775458	-0.05481273	-0.0004799696	0.005498611	0.04818679	-0.08020609
	0.01081292	-0.08931667	-0.0004799697	0.005498611	-0.01854282	-0.06673136	-0.0001574644	0.004335983
	0.0001581675	0.003476122	0.04818674	-0.080206	-0.0001574645	0.004335983	0.02134569	-0.0562171
4.1e+08	-0.0009008919	-0.03038804	0.003248583	0.004095289	-0.003252854	-0.02724883	0.002718317	0.00327604
	0.003248583	0.004095289	0.004069308	-0.01996382	0.003529933	0.005457023	-0.003401458	-0.02339779
	-0.003252815	-0.02724883	0.003529933	0.005457023	-0.004636892	-0.03432347	0.002969225	0.004266658
	0.002718317	0.00327604	-0.003401458	-0.02339779	0.002969225	0.004266658	0.004339709	-0.02601329
4.2e+08	0.03667888	-0.04761635	0.00581888	0.0003754372	0.05665558	-0.005203347	0.004765833	0.0001358986
	0.00581888	0.0003754362	0.03847065	-0.00031655	0.007006827	0.001242982	0.04441587	0.03836357
	0.05665558	-0.005203347	0.007006826	0.001242988	0.03096976	-0.04590861	0.005745511	0.0007591513
	0.004765833	0.0001358986	0.04441587	0.03836357	0.005745511	0.0007591504	0.03314308	-0.00399749
4.3e+08	0.02680999	-0.09185229	0.00390766	-0.003770988	0.0898787	-0.06292359	0.003019432	-0.003195068
	0.00390766	-0.003770988	0.06678987	-0.03193811	0.005355673	-0.003930406	0.1158432	0.002948562
	0.08987867	-0.06292368	0.005355673	-0.003930406	0.02620751	-0.08696616	0.004144313	-0.003477448
	0.003019432	-0.003195068	0.1158432	0.002948562	0.004144313	-0.003477448	0.06251994	-0.02945858
4.4e+08	-0.01845821	-0.09558619	0.0007098745	-0.004630285	0.04052429	-0.110515	0.0004229662	-0.003711103
	0.0007098755	-0.004630285	0.04433494	-0.06903104	0.001701231	-0.005626614	0.09807185	-0.0756506
	0.04052419	-0.110515	0.001701231	-0.005626614	-0.0148409	-0.09495659	0.001018617	-0.004565805
	0.0004229662	-0.003711103	0.09807194	-0.07565056	0.001018616	-0.004565806	0.04644077	-0.06608035
4.5e+08	-0.03289824	-0.05554255	-0.001731548	-0.004607086	-0.01693947	-0.07446326	-0.001471134	-0.003675937
	-0.001731548	-0.004607086	0.002871072	-0.05790033	-0.001514574	-0.006024214	0.017112	-0.07653675
	-0.01693948	-0.07446316	-0.001514573	-0.006024214	-0.03271548	-0.06011054	-0.001422329	-0.004680428
	-0.001471134	-0.003675937	0.017112	-0.07653675	-0.001422329	-0.004680428	0.007041371	-0.06138657
4.6e+08	0.004185761	-0.03642384	-0.005282623	-0.002911954	0.008575116	-0.01327856	-0.004385007	-0.002257551
	-0.005282623	-0.002911954	0.00635692	-0.01462516	-0.006065097	-0.004259993	0.0007550778	0.003633672
	0.008575157	-0.01327849	-0.006065097	-0.004259993	-0.001776234	-0.03845425	-0.005015077	-0.003236516
	-0.004385007	-0.002257551	0.0007550778	0.003633672	-0.005015077	-0.003236516	0.004238696	-0.02177439
4.7e+08	0.02949744	-0.0742968	-0.006010629	0.002280386	0.07359139	-0.03113882	-0.004828353	0.002077005
	-0.006010629	0.002280386	0.05229326	-0.0116375	-0.007582244	0.001806967	0.07835893	0.03425924
	0.07359139	-0.03113882	-0.007582244	0.001806967	0.02483729	-0.06954189	-0.006106233	0.001809701
	-0.004828353	0.002077005	0.07835893	0.03425924	-0.006106233	0.001809701	0.04501967	-0.01312362
4.8e+08	-0.003679588	-0.1102828	-0.002226989	0.005251367	0.06842631	-0.1013593	-0.001576353	0.004320488
	-0.002226989	0.005251367	0.06631635	-0.0581059	-0.003663535	0.005947479	0.1253255	-0.03626501
	0.06842627	-0.1013594	-0.003663535	0.005947479	-0.001450193	-0.1053048	-0.002604904	0.005041875
	-0.001576353	0.004320488	0.1253255	-0.03626492	-0.002604904	0.005041874	0.06347301	-0.0531588
4.9e+08	-0.04716816	-0.09009738	0.0009088549	0.004875141	-0.001948533	-0.1147161	0.000864429	0.00384996
	0.0009088539	0.004875141	0.02563085	-0.08564145	0.000238667	0.006241392	0.06808494	-0.09936279
	-0.001948533	-0.1147161	0.0002386661	0.006241392	-0.0431512	-0.09180177	0.0005625753	0.004908427
