!$
! Info: Touchstone file created by Circ.  Input file=Tx_PCB_4dB_OSFP_22dB_OSFP_4dB_PCB_Rx_TP0_TP5_VendorY.circ
!$
# Hz S RI R 50
0	0.05451719	4.713924e-22	2.258907e-06	1.595792e-22	0.001859602	2.437462e-20	2.570259e-05	3.00088e-23
	2.261951e-06	1.595692e-22	0.05457158	2.841663e-22	-1.279259e-05	1.569587e-21	0.001779859	3.961991e-20
	0.001859662	2.436562e-20	-1.279249e-05	1.569575e-21	0.05454245	4.889065e-22	9.75354e-06	1.446174e-22
	2.570259e-05	2.999351e-23	0.001779819	3.962005e-20	9.752072e-06	1.445999e-22	0.0545847	2.762871e-22
1e+07	0.04730976	-0.02579144	2.825517e-06	1.846181e-06	0.03707926	0.04100839	4.522131e-06	-1.754329e-05
	2.826449e-06	1.846335e-06	0.04763668	-0.02591203	-6.545638e-06	1.098379e-05	0.03728183	0.04092673
	0.03707926	0.04100829	-6.545643e-06	1.09836e-05	0.04843252	-0.02475167	5.476711e-06	-6.279353e-06
	4.522153e-06	-1.754319e-05	0.03728183	0.04092673	5.476567e-06	-6.278445e-06	0.04863352	-0.02469625
2e+07	0.02018468	-0.03725711	2.695133e-06	1.092828e-06	0.08230157	0.01509426	-5.83192e-06	-5.097445e-06
	2.694935e-06	1.092868e-06	0.02056084	-0.03775114	-4.915221e-07	1.09899e-05	0.08258669	0.01425439
	0.08230156	0.01509416	-4.916866e-07	1.098981e-05	0.02246356	-0.03688649	-2.791979e-06	-6.294706e-06
	-5.831998e-06	-5.097401e-06	0.08258669	0.01425439	-2.791845e-06	-6.294276e-06	0.02291163	-0.03747927
3e+07	-0.003627538	-0.02209549	-4.091627e-06	3.769097e-06	0.06537165	-0.03281108	-6.422957e-06	-1.086518e-06
	-4.091976e-06	3.769225e-06	-0.003691497	-0.02298909	-3.896184e-06	1.507599e-05	0.0648217	-0.0341006
	0.06537166	-0.03281088	-3.896285e-06	1.50761e-05	-0.001610528	-0.02297825	-1.057558e-05	2.253286e-06
	-6.423022e-06	-1.086452e-06	0.06482171	-0.0341005	-1.057567e-05	2.253415e-06	-0.001844611	-0.02419666
4e+07	-0.001987737	0.002074308	-4.162555e-06	1.813125e-05	0.01586365	-0.02439072	-1.114056e-05	6.100059e-06
	-4.162564e-06	1.813135e-05	-0.00250874	0.00157341	3.866848e-06	3.074915e-05	0.01486231	-0.02492311
	0.01586376	-0.02439063	3.866893e-06	3.074915e-05	-0.001151446	0.001039944	-6.006708e-06	1.696781e-05
	-1.114055e-05	6.100099e-06	0.01486231	-0.02492311	-6.006904e-06	1.696773e-05	-0.002093515	0.0003744426
5e+07	0.01648082	0.007007464	1.304169e-05	2.424357e-05	0.01558549	0.02584328	-6.182944e-06	1.641799e-05
	1.304176e-05	2.424356e-05	0.01651429	0.006944522	3.06254e-05	2.959473e-05	0.01564246	0.02571183
	0.01558559	0.02584326	3.06255e-05	2.959472e-05	0.01693549	0.007009241	1.091389e-05	1.755686e-05
	-6.1829e-06	1.641779e-05	0.01564246	0.02571183	1.09137e-05	1.755689e-05	0.01665688	0.007049502
6e+07	0.02237009	-0.007218456	2.290426e-05	7.828575e-06	0.06484862	0.03528824	2.05335e-06	1.425974e-05
	2.290414e-05	7.828491e-06	0.02309334	-0.008072528	4.01411e-05	-7.89532e-07	0.06575741	0.0337126
	0.0648486	0.03528814	4.014108e-05	-7.896399e-07	0.02377998	-0.006620613	1.410093e-05	4.196903e-07
	2.053229e-06	1.425966e-05	0.06575741	0.0337126	1.410105e-05	4.197528e-07	0.02449545	-0.007445132
7e+07	0.009003979	-0.01382549	5.321876e-06	-4.369725e-06	0.08327929	-0.01095645	-4.59914e-06	8.872513e-06
	5.321736e-06	-4.369709e-06	0.008978008	-0.01580174	1.060256e-05	-1.921427e-05	0.0828822	-0.0140987
	0.08327919	-0.01095644	1.060247e-05	-1.921426e-05	0.01132844	-0.0140632	-6.045599e-06	-5.346463e-06
	-4.599209e-06	8.872526e-06	0.0828822	-0.01409869	-6.045443e-06	-5.346383e-06	0.01127801	-0.01636824
8e+07	-0.0007665032	-0.0008481744	-1.313637e-05	1.587675e-05	0.04134333	-0.03732871	-1.542565e-05	2.223042e-05
	-1.313647e-05	1.587678e-05	-0.002176554	-0.002337771	-1.600389e-05	9.490844e-06	0.03903735	-0.03965401
	0.04134333	-0.03732871	-1.600397e-05	9.49097e-06	0.001063398	-0.002288123	-1.916396e-05	1.868665e-05
	-1.542575e-05	2.223044e-05	0.03903735	-0.03965401	-1.916387e-05	1.868663e-05	-0.0007732523	-0.004167933
9e+07	0.009671838	0.01266742	5.205393e-06	4.378493e-05	0.007825205	-0.0003264971	-3.493649e-06	4.292759e-05
	5.205424e-06	4.378492e-05	0.008591241	0.01266946	1.06314e-05	4.613925e-05	0.006118292	-0.0006837103
	0.007825287	-0.0003264548	1.063152e-05	4.613933e-05	0.01021023	0.01127714	3.510265e-06	4.192381e-05
	-3.493648e-06	4.29276e-05	0.006118261	-0.0006837952	3.510192e-06	4.192393e-05	0.008551889	0.01131267
1e+08	0.02481775	0.00628753	3.915426e-05	3.288804e-05	0.03847123	0.0398851	2.048139e-05	3.909934e-05
	3.915426e-05	3.288803e-05	0.0254762	0.006050016	5.740048e-05	2.628769e-05	0.03910421	0.03897331
	0.03847122	0.0398851	5.740055e-05	2.628757e-05	0.02511445	0.006115091	3.303403e-05	2.604488e-05
	2.048148e-05	3.909931e-05	0.03910411	0.03897334	3.303386e-05	2.604503e-05	0.02564235	0.00614672
1.1e+08	0.02173938	-0.008541646	3.544668e-05	-2.275894e-06	0.08406179	0.0176549	2.068816e-05	1.831648e-05
	3.544656e-05	-2.27594e-06	0.02248425	-0.01088861	4.867833e-05	-2.74596e-05	0.08468318	0.01379328
	0.08406176	0.0176548	4.86782e-05	-2.745966e-05	0.02326096	-0.0082115	2.349506e-05	-5.387147e-06
	2.068816e-05	1.831648e-05	0.08468318	0.01379328	2.349506e-05	-5.387142e-06	0.02422895	-0.01073703
1.2e+08	0.006809259	-0.007596126	-1.995549e-06	-3.420913e-06	0.07118528	-0.03107327	-1.25036e-06	1.96377e-05
	-1.995659e-06	-3.420865e-06	0.005305198	-0.01061744	-9.15258e-06	-3.14271e-05	0.06872567	-0.03592111
	0.07118519	-0.03107323	-9.152689e-06	-3.142696e-05	0.009208112	-0.008520304	-1.146037e-05	-9.303217e-08
	-1.250511e-06	1.963775e-05	0.06872567	-0.03592111	-1.146029e-05	-9.308179e-08	0.007568086	-0.01210756
1.3e+08	0.004835449	0.008603146	-1.076424e-05	3.924803e-05	0.02090912	-0.02709026	-2.962675e-06	4.929772e-05
	-1.076421e-05	3.924812e-05	0.002158425	0.007698511	-2.676756e-05	2.90567e-05	0.01673323	-0.0292301
	0.02090915	-0.02709016	-2.67675e-05	2.905688e-05	0.006187809	0.006349535	-1.34411e-05	4.128004e-05
	-2.962737e-06	4.929785e-05	0.01673323	-0.0292301	-1.344113e-05	4.127995e-05	0.002941258	0.005213107
1.4e+08	0.02120928	0.01510601	3.335e-05	6.050254e-05	0.01599669	0.02396711	2.991623e-05	6.19386e-05
	3.335009e-05	6.05025e-05	0.02054298	0.01569862	3.310696e-05	6.180987e-05	0.01427981	0.02387405
	0.01599675	0.02396708	3.310705e-05	6.180983e-05	0.02096678	0.01349227	3.034213e-05	5.531382e-05
	2.991629e-05	6.193858e-05	0.01427979	0.02387406	3.0342e-05	5.531387e-05	0.02002302	0.01435818
1.5e+08	0.03184481	0.001327242	6.594649e-05	2.280466e-05	0.06609195	0.03887481	5.140946e-05	3.567488e-05
	6.594645e-05	2.280457e-05	0.03312389	-4.206066e-05	8.091751e-05	8.558875e-06	0.06699488	0.03634114
	0.06609201	0.03887468	8.091756e-05	8.558745e-06	0.03185991	0.001397735	5.546017e-05	1.688611e-05
	5.140952e-05	3.567475e-05	0.06699488	0.03634114	5.546021e-05	1.68862e-05	0.03345263	8.468629e-05
1.6e+08	0.02164746	-0.01125619	3.68694e-05	-1.603371e-05	0.09113382	-0.007202557	3.188206e-05	1.31784e-05
	3.686928e-05	-1.603372e-05	0.02127325	-0.015211	3.921926e-05	-5.212148e-05	0.09005195	-0.01333612
	0.09113378	-0.007202647	3.921913e-05	-5.212153e-05	0.02344776	-0.01114284	2.439833e-05	-1.469417e-05
	3.188193e-05	1.317835e-05	0.09005186	-0.01333608	2.439845e-05	-1.469414e-05	0.02330615	-0.01569297
1.7e+08	0.007701679	-0.003306205	-8.021477e-06	7.593045e-06	0.05107669	-0.04056681	7.514712e-06	3.332469e-05
	-8.021548e-06	7.593122e-06	0.00424547	-0.006241648	-3.257058e-05	-2.378806e-05	0.04571981	-0.04580979
	0.0510766	-0.04056677	-3.257076e-05	-2.378798e-05	0.00997744	-0.005104188	-1.367692e-05	1.212267e-05
	7.514656e-06	3.332472e-05	0.04571981	-0.04580979	-1.367685e-05	1.212258e-05	0.00609246	-0.008697263
1.8e+08	0.01352667	0.01340629	8.874905e-06	6.220312e-05	0.01098621	-0.006683984	2.745719e-05	6.729188e-05
	8.874907e-06	6.220334e-05	0.01046518	0.01374118	-1.940189e-05	5.780027e-05	0.005490871	-0.007645202
	0.01098623	-0.006683931	-1.940184e-05	5.780036e-05	0.01393074	0.01054321	7.63619e-06	6.016099e-05
	2.745716e-05	6.729201e-05	0.005490869	-0.007645203	7.636057e-06	6.016095e-05	0.01026059	0.01086994
1.9e+08	0.03270512	0.01203833	7.066109e-05	5.892703e-05	0.03783614	0.03993018	7.000024e-05	5.731632e-05
	7.066117e-05	5.892698e-05	0.0330454	0.01246318	6.74771e-05	6.337906e-05	0.03655137	0.03970356
	0.03783624	0.03993013	6.747718e-05	6.337901e-05	0.0315637	0.01074247	6.319503e-05	5.110779e-05
	7.000032e-05	5.731628e-05	0.03655138	0.03970356	6.319494e-05	5.110784e-05	0.03192647	0.01145806
2e+08	0.03703397	-0.006425629	8.374747e-05	-9.654064e-07	0.08998981	0.02286865	7.304069e-05	1.672122e-05
	8.374742e-05	-9.654901e-07	0.03812038	-0.009604489	9.415483e-05	-2.108202e-05	0.0902299	0.01821318
	0.08998981	0.02286865	9.415479e-05	-2.108211e-05	0.03708708	-0.0058868	6.929377e-05	-3.516958e-06
	7.304064e-05	1.672114e-05	0.0902299	0.01821318	6.929382e-05	-3.516871e-06	0.03863323	-0.009344788
2.1e+08	0.02135677	-0.01459254	3.006685e-05	-2.612208e-05	0.08453306	-0.03172985	3.797704e-05	7.99401e-06
	3.006675e-05	-2.612205e-05	0.01885925	-0.01947212	1.772933e-05	-6.789677e-05	0.08042621	-0.03930734
	0.08453301	-0.03172993	1.772924e-05	-6.789672e-05	0.02353404	-0.01491309	1.956314e-05	-2.096369e-05
	3.797699e-05	7.993926e-06	0.08042621	-0.03930733	1.956325e-05	-2.09637e-05	0.02104348	-0.02063338
2.2e+08	0.01072193	-0.0004223107	-5.198714e-06	2.491996e-05	0.03017443	-0.03678006	2.629503e-05	4.515405e-05
	-5.198795e-06	2.492002e-05	0.005625641	-0.002119399	-4.757748e-05	-9.058065e-07	0.02185465	-0.04089643
	0.0301744	-0.03677993	-4.757752e-05	-9.056726e-07	0.01249539	-0.003230167	-7.263842e-06	2.727606e-05
	2.629505e-05	4.515416e-05	0.02185465	-0.04089643	-7.263842e-06	2.727606e-05	0.006763883	-0.005438932
2.3e+08	0.02408536	0.01407478	4.315275e-05	7.405919e-05	0.01574564	0.01668962	6.775685e-05	6.725734e-05
	4.315275e-05	7.405919e-05	0.02165437	0.01555003	7.371819e-06	8.187582e-05	0.009784299	0.0173143
	0.01574564	0.01668961	7.371876e-06	8.187591e-05	0.02316593	0.01101029	3.946874e-05	6.688009e-05
	6.775685e-05	6.725734e-05	0.009784282	0.01731431	3.946864e-05	6.688004e-05	0.02031538	0.01268311
2.4e+08	0.04316377	0.004422863	0.0001061079	3.752137e-05	0.0670638	0.04160313	0.0001033296	3.220155e-05
	0.0001061079	3.752136e-05	0.04440261	0.003690094	0.0001037068	4.601384e-05	0.06612956	0.04058942
	0.0670638	0.04160313	0.0001037069	4.601378e-05	0.04131246	0.003935117	9.1998e-05	3.017344e-05
	0.0001033297	3.220149e-05	0.06612956	0.04058942	9.199797e-05	3.017358e-05	0.04289357	0.003330571
2.5e+08	0.03995786	-0.01630518	8.858578e-05	-3.106552e-05	0.1031678	-0.003765833	8.257401e-05	-7.987677e-06
	8.858572e-05	-3.106559e-05	0.0396663	-0.02134884	9.329023e-05	-5.626558e-05	0.1014579	-0.01049224
	0.1031678	-0.003765831	9.329017e-05	-5.626566e-05	0.04043549	-0.01531813	7.227146e-05	-2.809559e-05
	8.257401e-05	-7.987675e-06	0.1014579	-0.01049224	7.227152e-05	-2.809551e-05	0.04061284	-0.02098894
2.6e+08	0.02037007	-0.01829178	2.002887e-05	-2.96135e-05	0.06686755	-0.04869242	4.387509e-05	4.447763e-06
	2.002872e-05	-2.961338e-05	0.01525337	-0.02288867	-9.190265e-06	-7.160479e-05	0.05888345	-0.05625752
	0.06686746	-0.04869237	-9.190421e-06	-7.160466e-05	0.02286126	-0.01938994	1.344892e-05	-2.268182e-05
	4.387502e-05	4.447828e-06	0.05888345	-0.05625752	1.344899e-05	-2.268188e-05	0.01752943	-0.02491413
2.7e+08	0.01525729	0.001138262	9.534168e-06	4.200091e-05	0.01610528	-0.0212841	5.415154e-05	4.814189e-05
	9.534159e-06	4.200104e-05	0.00945202	0.00144868	-4.787906e-05	2.960582e-05	0.005522994	-0.02292275
	0.01610525	-0.02128399	-4.787907e-05	2.960596e-05	0.01602768	-0.002601073	8.638627e-06	3.935337e-05
	5.415152e-05	4.814203e-05	0.005522917	-0.02292269	8.638638e-06	3.935323e-05	0.009585606	-0.002611301
2.8e+08	0.03560433	0.01072224	8.481136e-05	6.814012e-05	0.03492881	0.03460991	0.0001073025	4.66159e-05
	8.481136e-05	6.814012e-05	0.03452982	0.01258138	4.822959e-05	9.126114e-05	0.0293979	0.03661047
	0.03492895	0.03460991	4.822967e-05	9.126107e-05	0.03320224	0.008058062	7.452515e-05	5.755761e-05
	0.0001073031	4.661664e-05	0.02939788	0.03661049	7.452501e-05	5.755761e-05	0.03202571	0.01013351
2.9e+08	0.05166608	-0.007342025	0.0001307524	-9.962567e-08	0.09522816	0.02716769	0.0001224183	-5.69376e-06
	0.0001307522	-9.963125e-08	0.05298616	-0.01003071	0.0001322637	1.090058e-05	0.09406347	0.02471483
	0.09522823	0.02716762	0.0001322636	1.090051e-05	0.04954858	-0.006625661	0.0001102461	-2.675434e-06
	0.0001224183	-5.693761e-06	0.09406347	0.02471483	0.000110246	-2.675366e-06	0.05143081	-0.009499452
3e+08	0.03987901	-0.02783501	8.034896e-05	-6.099727e-05	0.1019115	-0.03386766	8.221385e-05	-3.225768e-05
	8.034896e-05	-6.099726e-05	0.03705036	-0.0340546	7.760903e-05	-9.069108e-05	0.09693531	-0.04193489
	0.1019114	-0.03386766	7.760895e-05	-9.069115e-05	0.04115918	-0.02664274	6.550116e-05	-5.192199e-05
	8.221385e-05	-3.225768e-05	0.09693531	-0.04193489	6.550123e-05	-5.192192e-05	0.03869682	-0.03378575
3.1e+08	0.01823575	-0.02168495	1.112399e-05	-2.661285e-05	0.04408972	-0.05332903	5.236399e-05	2.135081e-07
	1.112393e-05	-2.661278e-05	0.01074138	-0.02462085	-3.578668e-05	-6.280401e-05	0.03214456	-0.05906077
	0.04408966	-0.05332896	-3.578682e-05	-6.280386e-05	0.02076401	-0.02391115	8.919967e-06	-2.109602e-05
	5.236385e-05	2.136492e-07	0.03214449	-0.0590607	8.920028e-06	-2.109609e-05	0.01290536	-0.0277661
3.2e+08	0.02132337	0.001512929	3.559933e-05	5.216999e-05	0.01468798	0.0004668473	8.603726e-05	3.732214e-05
	3.559943e-05	5.217004e-05	0.01604758	0.003914407	-3.133823e-05	5.952864e-05	0.003144195	0.002107311
	0.01468802	0.0004668877	-3.133822e-05	5.952878e-05	0.0205341	-0.002858112	3.165612e-05	4.353222e-05
	8.603719e-05	3.732221e-05	0.003144195	0.002107311	3.165607e-05	4.353214e-05	0.01476251	-0.0006724126
3.3e+08	0.04742473	0.002968579	0.0001248727	4.203118e-05	0.06389906	0.0398977	0.0001367252	8.245494e-06
	0.0001248727	4.203118e-05	0.04779871	0.004084843	9.465535e-05	8.030855e-05	0.05933144	0.04255255
	0.0638992	0.03989769	9.465534e-05	8.030855e-05	0.04362696	0.001440359	0.0001053468	3.247068e-05
	0.0001367252	8.245493e-06	0.05933138	0.04255263	0.0001053468	3.247075e-05	0.04418457	0.002615568
3.4e+08	0.05695866	-0.02305278	0.0001389296	-4.764099e-05	0.114314	-0.0007344495	0.000125155	-4.829601e-05
	0.0001389295	-4.764105e-05	0.05708017	-0.02791431	0.0001459588	-3.724999e-05	0.1118564	-0.004870486
	0.114314	-0.0007344495	0.0001459588	-3.724999e-05	0.05521507	-0.02093419	0.0001149377	-4.177649e-05
	0.0001251549	-4.829601e-05	0.1118564	-0.004870486	0.0001149377	-4.177643e-05	0.05597482	-0.02632685
3.5e+08	0.0357678	-0.03991524	6.098973e-05	-8.575745e-05	0.08667133	-0.0595382	7.528814e-05	-5.354642e-05
	6.098969e-05	-8.575748e-05	0.02969709	-0.04599962	4.83106e-05	-0.0001187215	0.0774792	-0.0675056
	0.08667134	-0.0595382	4.831052e-05	-0.0001187215	0.03813048	-0.03900814	5.094108e-05	-7.216324e-05
	7.528801e-05	-5.354641e-05	0.07747913	-0.06750552	5.09412e-05	-7.216327e-05	0.032287	-0.04621844
3.6e+08	0.01524308	-0.02355657	6.70963e-06	-1.874645e-05	0.02382479	-0.04469177	6.334165e-05	-7.884384e-06
	6.709536e-06	-1.874628e-05	0.00634401	-0.02372655	-5.695781e-05	-4.24951e-05	0.008728204	-0.04684148
	0.02382474	-0.04469168	-5.695787e-05	-4.249502e-05	0.01726806	-0.0272063	7.129034e-06	-1.79735e-05
	6.334167e-05	-7.884247e-06	0.008728204	-0.04684148	7.129048e-06	-1.797361e-05	0.007951726	-0.02827427
3.7e+08	0.0294524	0.000208892	6.953195e-05	4.96999e-05	0.02799501	0.02055103	0.000115157	1.109416e-05
	6.953196e-05	4.970003e-05	0.02579028	0.004032128	7.733734e-07	8.088367e-05	0.01696876	0.02549414
	0.02799501	0.02055103	7.734555e-07	8.088373e-05	0.02661425	-0.004152641	5.783914e-05	3.692077e-05
	0.000115157	1.109416e-05	0.01696876	0.02549414	5.783906e-05	3.692072e-05	0.02262888	-0.0005655469
3.8e+08	0.05834343	-0.01004134	0.0001542325	-2.718018e-06	0.09495318	0.02865973	0.0001496054	-4.178922e-05
	0.0001542325	-2.717937e-06	0.05949917	-0.01072446	0.0001368396	4.745224e-05	0.09126971	0.0310638
	0.09495318	0.02865973	0.0001368397	4.745215e-05	0.05361539	-0.009667776	0.0001258116	-5.56425e-06
	0.0001496054	-4.178922e-05	0.09126971	0.0310638	0.0001258115	-5.564168e-06	0.05513274	-0.01052733
3.9e+08	0.05717058	-0.0420058	0.0001279848	-9.77363e-05	0.1187212	-0.03588907	0.0001126815	-8.916392e-05
	0.0001279848	-9.77363e-05	0.05473305	-0.04848938	0.0001400698	-9.17062e-05	0.113717	-0.04129771
	0.1187211	-0.03588912	0.0001400697	-9.170625e-05	0.05662959	-0.03862767	0.0001052592	-8.19018e-05
	0.0001126816	-8.916394e-05	0.113717	-0.04129763	0.0001052592	-8.19018e-05	0.05482327	-0.04593251
4e+08	0.0270354	-0.05048459	3.358095e-05	-0.0001016065	0.06182707	-0.07425198	6.421269e-05	-7.148981e-05
	3.358087e-05	-0.0001016065	0.01775458	-0.05481273	8.116015e-06	-0.0001352077	0.04818679	-0.08020609
	0.06182707	-0.07425198	8.11593e-06	-0.0001352077	0.03049861	-0.05061357	3.031595e-05	-8.701292e-05
	6.42126e-05	-7.148986e-05	0.04818674	-0.080206	3.031608e-05	-8.701295e-05	0.02134569	-0.0562171
4.1e+08	0.01290834	-0.02301608	9.423232e-06	-8.830124e-06	0.01327056	-0.02605592	7.476013e-05	-2.214762e-05
	9.423272e-06	-8.829992e-06	0.004069308	-0.01996382	-6.763668e-05	-1.324871e-05	-0.003401458	-0.02339779
	0.01327054	-0.02605581	-6.763678e-05	-1.324854e-05	0.01359809	-0.02812837	8.507271e-06	-1.483254e-05
	7.476009e-05	-2.214753e-05	-0.003401458	-0.02339779	8.507212e-06	-1.483257e-05	0.004339709	-0.02601329
4.2e+08	0.03999969	-0.004337662	0.0001055372	3.022818e-05	0.05370314	0.03083434	0.0001348764	-2.915779e-05
	0.0001055372	3.022818e-05	0.03847065	-0.00031655	4.417036e-05	8.623829e-05	0.04441587	0.03836357
	0.05370323	0.03083438	4.41705e-05	8.623825e-05	0.03488236	-0.007686656	8.271926e-05	1.813349e-05
	0.0001348764	-2.915779e-05	0.04441587	0.03836357	8.271922e-05	1.813358e-05	0.03314308	-0.00399749
4.3e+08	0.06613092	-0.02890139	0.0001651153	-6.082904e-05	0.1193301	0.001489407	0.0001428411	-9.600468e-05
	0.0001651153	-6.0829e-05	0.06678987	-0.03193811	0.0001651301	-4.576209e-06	0.1158432	0.002948562
	0.1193301	0.00148932	0.0001651301	-4.5762e-06	0.06140124	-0.02603609	0.0001314552	-5.194411e-05
	0.0001428411	-9.600468e-05	0.1158432	0.002948562	0.0001314548	-5.194319e-05	0.06251994	-0.02945858
4.4e+08	0.05034474	-0.06221726	9.815498e-05	-0.0001427896	0.1066884	-0.07010263	8.776749e-05	-0.000123778
	9.815497e-05	-0.0001427895	0.04433494	-0.06903104	0.0001126184	-0.0001443904	0.09807185	-0.0756506
	0.1066884	-0.07010263	0.0001126183	-0.0001443904	0.05181521	-0.05820718	8.178686e-05	-0.0001183025
	8.776749e-05	-0.000123778	0.09807194	-0.07565056	8.178704e-05	-0.0001183024	0.04644077	-0.06608035
4.5e+08	0.01449915	-0.05684325	2.262416e-06	-0.0001059648	0.03452167	-0.07459094	5.024348e-05	-8.63607e-05
	2.262422e-06	-0.0001059648	0.002871072	-0.05790033	-3.831547e-05	-0.000135699	0.017112	-0.07653675
	0.03452164	-0.07459095	-3.831548e-05	-0.000135699	0.01859884	-0.05887229	5.402932e-06	-9.48057e-05
	5.024344e-05	-8.636065e-05	0.017112	-0.07653675	5.402932e-06	-9.480571e-05	0.007041371	-0.06138657
4.6e+08	0.01359947	-0.02051699	2.083799e-05	-1.124618e-06	0.01701264	-0.004215067	8.376125e-05	-4.354767e-05
	2.083799e-05	-1.124621e-06	0.00635692	-0.01462516	-6.336039e-05	1.990496e-05	0.0007550778	0.003633672
	0.01701273	-0.004215029	-6.33603e-05	1.9905e-05	0.01194776	-0.02662529	1.331026e-05	-1.326588e-05
	8.376121e-05	-4.354758e-05	0.0007550778	0.003633672	1.33103e-05	-1.326597e-05	0.004238696	-0.02177439
4.7e+08	0.05198225	-0.01448907	0.0001353898	-7.995101e-06	0.08528934	0.02532771	0.0001393904	-7.956726e-05
	0.0001353898	-7.995007e-06	0.05229326	-0.0116375	9.091858e-05	7.015478e-05	0.07835893	0.03425924
	0.08528933	0.02532771	9.091862e-05	7.015469e-05	0.04488095	-0.01557273	0.0001011567	-1.270034e-05
	0.0001393904	-7.956726e-05	0.07835893	0.03425924	0.0001011566	-1.270015e-05	0.04501967	-0.01312362
4.8e+08	0.06768805	-0.05295309	0.000152499	-0.0001239411	0.1296968	-0.03661934	0.0001164266	-0.0001467186
	0.000152499	-0.0001239411	0.06631635	-0.0581059	0.0001717275	-6.902541e-05	0.1253255	-0.03626501
	0.1296968	-0.03661934	0.0001717275	-6.902543e-05	0.06427251	-0.04746878	0.000119702	-0.000100779
	0.0001164267	-0.0001467186	0.1253255	-0.03626492	0.0001197018	-0.000100778	0.06347301	-0.0531588
