!$
! Info: Touchstone file created by Circ.  Input file=Tx_PCB_4dB_OSFP_22dB_OSFP_4dB_PCB_Rx_TP0_TP5_VendorX.circ
!$
# Hz S RI R 50
0	0.0499744	-9.195854e-14	-3.368699e-05	7.472857e-18	0.01331639	4.333454e-13	-3.306158e-05	7.716398e-18
	-3.368699e-05	7.470876e-18	0.05008618	1.96145e-13	-3.313929e-05	1.173145e-17	0.01324979	4.652449e-13
	0.01331629	4.334749e-13	-3.313929e-05	1.173631e-17	0.05531221	3.105335e-13	-3.334669e-05	1.186515e-17
	-3.306159e-05	7.719663e-18	0.01324981	4.656908e-13	-3.334669e-05	1.186558e-17	0.05536366	2.103457e-13
1e+07	0.08413091	0.02022028	-9.695896e-05	2.700929e-05	0.04805554	0.04010605	-3.201614e-05	5.659886e-05
	-9.695896e-05	2.700929e-05	0.08305068	0.02026183	-2.49694e-05	-3.421816e-06	0.0474584	0.04080823
	0.04805548	0.04010609	-2.49694e-05	-3.421816e-06	0.09135269	0.02177968	-2.806147e-05	1.249026e-06
	-3.201614e-05	5.659887e-05	0.0474584	0.04080824	-2.806147e-05	1.249027e-06	0.09046371	0.02192763
2e+07	0.1097197	-0.02211694	-5.957965e-05	7.764559e-05	0.09506591	0.009556072	6.063407e-07	6.575449e-05
	-5.957965e-05	7.764559e-05	0.1081061	-0.01879234	-3.864005e-05	4.785969e-06	0.09490003	0.0121996
	0.09506588	0.009556125	-3.864004e-05	4.785968e-06	0.1193217	-0.02231599	-3.866345e-05	6.433257e-06
	6.06343e-07	6.575449e-05	0.09490005	0.0121996	-3.866344e-05	6.433254e-06	0.1177958	-0.0188108
3e+07	0.0762725	-0.06572676	-1.827579e-05	0.0001052071	0.07446737	-0.04428488	1.766794e-05	5.962154e-05
	-1.827579e-05	0.0001052071	0.07817302	-0.06077646	-5.289108e-05	3.862576e-05	0.07651573	-0.04137378
	0.07446736	-0.04428484	-5.289108e-05	3.862575e-05	0.08539392	-0.06926083	-5.326793e-05	3.467983e-05
	1.766794e-05	5.962154e-05	0.07651574	-0.0413738	-5.326793e-05	3.467982e-05	0.0874203	-0.06380211
4e+07	0.02467636	-0.05187677	5.190266e-05	0.000123535	0.01707833	-0.03543601	5.169825e-05	7.697846e-05
	5.190266e-05	0.000123535	0.02807624	-0.05044694	-2.111494e-05	9.495061e-05	0.01927311	-0.03501424
	0.01707832	-0.03543598	-2.111494e-05	9.495061e-05	0.03090364	-0.05643108	-2.668343e-05	9.972648e-05
	5.169825e-05	7.697846e-05	0.0192731	-0.03501424	-2.668343e-05	9.972647e-05	0.03479947	-0.05435725
5e+07	0.02464557	-0.003370979	0.0001444297	6.69485e-05	0.01599388	0.02217595	0.0001288553	3.103448e-05
	0.0001444297	6.694851e-05	0.02289772	-0.003390184	6.531355e-05	9.970583e-05	0.01432943	0.02243344
	0.01599387	0.022176	6.531355e-05	9.970583e-05	0.02961645	-0.006014233	7.705098e-05	0.000103727
	0.0001288553	3.103448e-05	0.01432943	0.02243344	7.705097e-05	0.000103727	0.02853374	-0.005650318
6e+07	0.07065471	0.004492869	0.0001560286	-4.643953e-05	0.07243071	0.03262595	0.0001138522	-7.768836e-05
	0.0001560286	-4.643953e-05	0.06529386	0.01132225	0.0001209216	3.342694e-05	0.06915314	0.03799286
	0.07243074	0.03262601	0.0001209216	3.342694e-05	0.07752609	0.002775759	0.0001223236	1.494743e-05
	0.0001138522	-7.768836e-05	0.06915315	0.03799286	0.0001223236	1.494744e-05	0.07255837	0.009940903
7e+07	0.09054983	-0.03993727	0.0001043499	-0.0001158989	0.09405732	-0.02040604	4.24264e-05	-0.0001036241
	0.0001043499	-0.0001158989	0.09128048	-0.02625793	0.00012784	-4.107715e-05	0.09556488	-0.01147137
	0.09405737	-0.02040602	0.00012784	-4.107715e-05	0.09902973	-0.04398342	0.0001074584	-4.054774e-05
	4.242639e-05	-0.0001036241	0.09556489	-0.01147138	0.0001074584	-4.054774e-05	0.1000933	-0.02949853
8e+07	0.05512073	-0.07435537	4.923414e-05	-0.0001772472	0.04780691	-0.05304258	2.329473e-05	-0.0001247398
	4.923414e-05	-0.0001772472	0.06436543	-0.06446185	0.0001021331	-0.0001293079	0.05393846	-0.04795226
	0.04780695	-0.05304258	0.0001021332	-0.0001293079	0.06195749	-0.08128378	0.0001051038	-0.0001155222
	2.329473e-05	-0.0001247398	0.05393846	-0.04795227	0.0001051038	-0.0001155222	0.07211	-0.07025817
9e+07	0.0142099	-0.05294239	-9.449651e-05	-0.0002211561	0.007380454	-0.0146801	-8.30858e-05	-0.0001828654
	-9.449651e-05	-0.0002211561	0.02080107	-0.05206204	-1.405324e-05	-0.0002040853	0.009748367	-0.01510919
	0.007380463	-0.0146801	-1.405324e-05	-0.0002040853	0.01795418	-0.05971191	-1.525928e-05	-0.0002128066
	-8.308579e-05	-0.0001828654	0.009748365	-0.01510919	-1.525928e-05	-0.0002128066	0.0260171	-0.05811886
1e+08	0.02655763	-0.01292511	-0.0002534224	-9.451658e-05	0.03884614	0.03121968	-0.0002398544	-6.687433e-05
	-0.0002534224	-9.451658e-05	0.02241427	-0.009746791	-0.0001707695	-0.0001432342	0.03377102	0.03443908
	0.03884616	0.03121971	-0.0001707695	-0.0001432342	0.02983508	-0.0173697	-0.0001890466	-0.0001243086
	-0.0002398544	-6.687433e-05	0.03377102	0.03443908	-0.0001890466	-0.0001243087	0.02690842	-0.01402708
1.1e+08	0.06811635	-0.01981516	-0.0002365204	9.102809e-05	0.08994431	0.007889706	-0.000194829	0.0001079836
	-0.0002365204	9.102809e-05	0.06377742	-0.003412436	-0.0002171531	4.203853e-06	0.08675759	0.02045015
	0.08994435	0.007889716	-0.0002171531	4.203854e-06	0.07354113	-0.02406443	-0.0001878309	3.205649e-05
	-0.000194829	0.0001079836	0.0867576	0.02045015	-0.000187831	3.205648e-05	0.06993728	-0.007154433
1.2e+08	0.07267387	-0.06516543	-0.0001536686	0.0001884228	0.07815552	-0.04683906	-0.0001094349	0.0001459736
	-0.0001536686	0.0001884228	0.08199866	-0.04386771	-0.0001823147	0.000126178	0.08465899	-0.03344947
	0.07815556	-0.04683908	-0.0001823147	0.000126178	0.07874617	-0.07213522	-0.0001524211	9.971561e-05
	-0.0001094349	0.0001459736	0.08465899	-0.03344948	-0.0001524212	9.971564e-05	0.08922202	-0.04966471
1.3e+08	0.03078701	-0.08569022	-4.328142e-05	0.0002908178	0.02340895	-0.04738662	-7.081525e-05	0.0002297748
	-4.328142e-05	0.0002908177	0.04877879	-0.07607448	-9.066465e-05	0.0002440764	0.03266108	-0.04326102
	0.02340896	-0.04738665	-9.066466e-05	0.0002440764	0.03432286	-0.0946891	-0.0001044119	0.0002275431
	-7.081526e-05	0.0002297748	0.03266107	-0.04326103	-0.0001044119	0.0002275432	0.05440856	-0.08407182
1.4e+08	0.0009259646	-0.05436659	0.0002039151	0.0002950562	0.01312171	0.005523782	0.0001491983	0.0002951535
	0.0002039151	0.0002950562	0.008846793	-0.0552912	0.0001179793	0.0002838104	0.01263366	0.005321628
	0.01312171	0.005523774	0.0001179793	0.0002838104	0.001713004	-0.06212267	0.0001296798	0.000284333
	0.0001491983	0.0002951535	0.01263366	0.005321626	0.0001296798	0.000284333	0.01194304	-0.06297392
1.5e+08	0.0244683	-0.02310224	0.0003643197	5.255552e-05	0.06436663	0.0242015	0.0003384659	7.049604e-05
	0.0003643197	5.255552e-05	0.01949272	-0.01447385	0.0002972552	0.0001189402	0.05683034	0.03423599
	0.06436666	0.0242015	0.0002972552	0.0001189402	0.02560874	-0.02860485	0.0002937036	7.510244e-05
	0.0003384659	7.049604e-05	0.05683035	0.03423599	0.0002937037	7.510246e-05	0.02221915	-0.02023932
1.6e+08	0.05934496	-0.04275493	0.0002818225	-0.0001727195	0.09277057	-0.02337464	0.0002420133	-0.0001434005
	0.0002818225	-0.0001727195	0.06165211	-0.01744345	0.0002895525	-9.620366e-05	0.09392698	-0.0031756
	0.09277061	-0.02337466	0.0002895525	-9.620366e-05	0.06246376	-0.04875971	0.0002282163	-9.962349e-05
	0.0002420133	-0.0001434005	0.09392699	-0.003175605	0.0002282163	-9.96235e-05	0.06607397	-0.02297872
1.7e+08	0.04887265	-0.08543752	0.0001612039	-0.0002889507	0.05318076	-0.06117427	0.0001605637	-0.0001980724
	0.0001612039	-0.0002889507	0.07045787	-0.06214838	0.0001918258	-0.000244555	0.06617395	-0.04668498
	0.05318077	-0.06117431	0.0001918258	-0.0002445549	0.05167132	-0.09411393	0.0001797766	-0.0001928692
	0.0001605637	-0.0001980724	0.06617395	-0.04668498	0.0001797766	-0.0001928693	0.07545593	-0.06984715
1.8e+08	0.004009285	-0.09046046	-4.106566e-05	-0.0004002258	0.009300943	-0.03125532	6.139338e-05	-0.0003508343
	-4.106566e-05	-0.0004002258	0.02895883	-0.08619986	1.188398e-05	-0.0003604542	0.0188102	-0.02939358
	0.009300931	-0.03125535	1.188399e-05	-0.0003604542	0.003785649	-0.1001305	2.977763e-05	-0.0003524588
	6.139339e-05	-0.0003508343	0.0188102	-0.02939358	2.977759e-05	-0.0003524588	0.03192035	-0.09564225
1.9e+08	-0.01231329	-0.05216817	-0.0003611459	-0.0002891488	0.03132891	0.01665449	-0.0002804822	-0.0003492387
	-0.0003611459	-0.0002891488	-0.005422194	-0.05458655	-0.0002739222	-0.0003052953	0.02645517	0.02028228
	0.0313289	0.01665448	-0.0002739222	-0.0003052953	-0.01466827	-0.05974871	-0.00028908	-0.0002831347
	-0.0002804822	-0.0003492387	0.02645517	0.02028227	-0.0002890801	-0.0002831347	-0.004870115	-0.0631337
2e+08	0.0196782	-0.03225573	-0.0004451412	5.908328e-05	0.08355673	0.002456797	-0.0004302104	-9.710943e-07
	-0.0004451412	5.908328e-05	0.01669302	-0.01664619	-0.0004118813	-2.202354e-05	0.07724183	0.0223658
	0.08355674	0.00245679	-0.0004118813	-2.202354e-05	0.01837309	-0.03783734	-0.0003655381	2.534022e-05
	-0.0004302104	-9.710943e-07	0.07724183	0.0223658	-0.0003655382	2.534021e-05	0.01726686	-0.02319611
2.1e+08	0.04468744	-0.06223349	-0.000286857	0.0002826962	0.08031442	-0.05237556	-0.0002694811	0.0002085122
	-0.000286857	0.0002826962	0.05846578	-0.03159015	-0.0003148287	0.0002282079	0.08987262	-0.02668239
	0.08031444	-0.05237559	-0.0003148287	0.0002282079	0.04503648	-0.06887456	-0.0002482124	0.000185354
	-0.0002694811	0.0002085122	0.08987262	-0.0266824	-0.0002482124	0.000185354	0.06072526	-0.03820445
2.2e+08	0.02034691	-0.09789681	-0.0001114785	0.0004093385	0.02743043	-0.0612122	-0.000187229	0.0002950992
	-0.0001114785	0.0004093385	0.05428447	-0.07943962	-0.0001407814	0.0003749149	0.04596904	-0.04911597
	0.02743042	-0.06121223	-0.0001407815	0.0003749149	0.01952564	-0.1068552	-0.000159853	0.0003208994
	-0.000187229	0.0002950992	0.04596904	-0.04911598	-0.000159853	0.0003208994	0.05664658	-0.0882196
2.3e+08	-0.02241872	-0.08661927	0.0002008831	0.0004671416	0.009250515	-0.01259604	3.302481e-05	0.0004840251
	0.0002008831	0.0004671416	0.005141992	-0.09064195	0.0001357402	0.0004413166	0.01570351	-0.01166564
	0.00925049	-0.01259606	0.0001357402	0.0004413166	-0.02635078	-0.09545053	0.0001272686	0.0004379801
	3.30248e-05	0.0004840251	0.01570351	-0.01166565	0.0001272686	0.0004379801	0.005153328	-0.1006302
2.4e+08	-0.02311963	-0.04611937	0.000519271	0.0001928909	0.05476193	0.01328944	0.0004604028	0.0003260906
	0.000519271	0.0001928909	-0.01861366	-0.04795258	0.000447086	0.0002421628	0.04677273	0.02546288
	0.05476192	0.01328944	0.000447086	0.0002421629	-0.02831234	-0.05228611	0.0004419309	0.0001926754
	0.0004604028	0.0003260906	0.04677273	0.02546288	0.0004419308	0.0001926753	-0.02076295	-0.05650527
2.5e+08	0.01325439	-0.0400456	0.0004731991	-0.0002108911	0.08971021	-0.02830015	0.0004931822	-0.0001234766
	0.0004731991	-0.0002108911	0.01615318	-0.01766292	0.0004788751	-0.0001349365	0.09013165	0.00215454
	0.08971022	-0.02830016	0.0004788751	-0.0001349365	0.009687028	-0.0446799	0.0003907418	-0.0001492839
	0.0004931822	-0.0001234766	0.09013166	0.002154537	0.0003907418	-0.000149284	0.01444156	-0.02420237
2.6e+08	0.02520564	-0.07681412	0.0002469754	-0.0004069134	0.05658339	-0.0718239	0.000278157	-0.0002990911
	0.0002469754	-0.0004069134	0.05295655	-0.04671474	0.0002794657	-0.0003766767	0.07689276	-0.04484458
	0.05658339	-0.07182392	0.0002794657	-0.0003766767	0.02282492	-0.08292063	0.0002435357	-0.0002925005
	0.000278157	-0.0002990911	0.07689276	-0.04484458	0.0002435357	-0.0002925005	0.05289691	-0.05359859
2.7e+08	-0.0103236	-0.1006554	-7.955428e-06	-0.0005220455	0.008665124	-0.04966274	0.0001632685	-0.0004371781
	-7.955425e-06	-0.0005220455	0.03236094	-0.09293492	2.438957e-05	-0.0004918071	0.0297128	-0.04200636
	0.008665097	-0.04966276	2.438958e-05	-0.0004918071	-0.01452959	-0.108466	6.421302e-05	-0.000457128
	0.0001632686	-0.0004371781	0.0297128	-0.04200636	6.421297e-05	-0.000457128	0.0319708	-0.101901
2.8e+08	-0.04476995	-0.07421715	-0.0004077097	-0.000452471	0.02186345	5.402695e-05	-0.0002251494	-0.0005817691
	-0.0004077097	-0.000452471	-0.01975573	-0.08634692	-0.0003348121	-0.000453451	0.023367	0.003976127
	0.02186342	5.402844e-05	-0.0003348121	-0.0004534511	-0.05176359	-0.08083973	-0.0003356642	-0.0004365689
	-0.0002251494	-0.0005817691	0.023367	0.003976125	-0.0003356642	-0.0004365689	-0.02268159	-0.09594923
2.9e+08	-0.02948939	-0.03779981	-0.00063216	-1.83506e-05	0.07452285	-0.005154419	-0.0006448947	-0.0002015204
	-0.00063216	-1.83506e-05	-0.02689232	-0.03630898	-0.0005945714	-9.077918e-05	0.0679835	0.01948505
	0.07452285	-0.005154413	-0.0005945714	-9.077919e-05	-0.03673311	-0.04154169	-0.0005429271	-3.360572e-05
	-0.0006448947	-0.0002015204	0.0679835	0.01948504	-0.0005429271	-3.360571e-05	-0.0316215	-0.04399092
3e+08	0.005720806	-0.04685691	-0.000441242	0.0003760523	0.08022952	-0.05998575	-0.0005059077	0.0002841315
	-0.000441242	0.0003760523	0.0182236	-0.02008891	-0.0004755083	0.0003251915	0.09317803	-0.0215356
	0.08022952	-0.05998576	-0.0004755083	0.0003251915	0.0004799009	-0.04969816	-0.0003755792	0.0002773537
	-0.0005059077	0.0002841315	0.09317803	-0.0215356	-0.0003755792	0.0002773537	0.01437664	-0.02581157
3.1e+08	0.002227456	-0.08524011	-0.0001547937	0.0005317851	0.02845223	-0.07797016	-0.0002590495	0.0004166322
	-0.0001547937	0.0005317851	0.04315153	-0.06230778	-0.0001805687	0.000517581	0.05927978	-0.05465575
	0.02845222	-0.07797018	-0.0001805687	0.0005175809	-0.002390162	-0.08977937	-0.0001968838	0.0004217377
	-0.0002590495	0.0004166322	0.05927977	-0.05465575	-0.0001968838	0.0004217377	0.04090853	-0.06865971
3.2e+08	-0.03945297	-0.09294467	0.0001960071	0.0005903886	0.001540958	-0.03286543	-5.183593e-05	0.0006018578
	0.0001960071	0.0005903886	0.005680187	-0.09909308	0.0001541871	0.0005679953	0.02129379	-0.02913253
	0.001540928	-0.03286543	0.0001541871	0.0005679953	-0.0462725	-0.09839763	0.00011526	0.0005551354
	-5.183595e-05	0.0006018578	0.02129379	-0.02913253	0.0001152601	0.0005551353	0.00271446	-0.1073873
3.3e+08	-0.05936277	-0.05554135	0.0006161047	0.0003363381	0.04139527	0.0004893859	0.000497358	0.0005819968
	0.0006161047	0.0003363381	-0.04103093	-0.07255264	0.0005526302	0.0003712571	0.03904255	0.01275861
	0.04139525	0.0004893997	0.0005526302	0.0003712571	-0.06828466	-0.0589622	0.0005414214	0.0003288539
	0.000497358	0.0005819968	0.03904255	0.01275861	0.0005414214	0.0003288539	-0.04660257	-0.08089407
3.4e+08	-0.03075307	-0.0300369	0.0006690897	-0.0002044673	0.08299746	-0.03463909	0.0007763179	-2.316703e-05
	0.0006690897	-0.0002044673	-0.02766876	-0.02300915	0.0006756323	-0.0001323204	0.08503419	0.003738134
	0.08299746	-0.03463908	0.0006756323	-0.0001323204	-0.03892684	-0.03074744	0.0005720368	-0.0001568604
	0.0007763179	-2.316703e-05	0.08503418	0.003738133	0.0005720368	-0.0001568604	-0.03457806	-0.02900767
3.5e+08	-0.003253209	-0.05307203	0.0003507369	-0.000533907	0.05700775	-0.08479895	0.0004580189	-0.0004561719
	0.0003507369	-0.000533907	0.0212237	-0.02616742	0.0003929097	-0.0005168519	0.0867367	-0.04387401
	0.05700775	-0.08479896	0.0003929097	-0.0005168519	-0.009295429	-0.0535932	0.000327352	-0.0004058362
	0.000458019	-0.0004561719	0.0867367	-0.04387401	0.000327352	-0.0004058362	0.01567487	-0.03035703
3.6e+08	-0.02244651	-0.08630668	3.761628e-06	-0.0006373531	0.003328558	-0.07135825	0.0001930079	-0.0005598465
	3.761628e-06	-0.0006373531	0.02753754	-0.07610142	2.173858e-05	-0.000628637	0.04180581	-0.05577912
	0.003328537	-0.07135826	2.173859e-05	-0.000628637	-0.02845186	-0.08853843	8.436891e-05	-0.0005562845
	0.0001930079	-0.0005598465	0.04180581	-0.05577912	8.436887e-05	-0.0005562844	0.02351469	-0.081238
3.7e+08	-0.06274055	-0.07574995	-0.0004318785	-0.0005782958	0.006470063	-0.01844674	-0.0001731476	-0.0007360449
	-0.0004318785	-0.0005782958	-0.02233022	-0.09502302	-0.0003818531	-0.0005745731	0.02204059	-0.01532567
	0.006470039	-0.01844673	-0.0003818531	-0.0005745731	-0.07099461	-0.07804736	-0.0003554693	-0.0005666468
	-0.0001731476	-0.0007360449	0.02204058	-0.01532567	-0.0003554693	-0.0005666468	-0.0274475	-0.1019152
3.8e+08	-0.06394067	-0.03491073	-0.0007764189	-0.0001235437	0.05985053	-0.01347625	-0.0007902707	-0.0004342834
	-0.0007764189	-0.0001235437	-0.05383414	-0.05150843	-0.0007439351	-0.0001846785	0.05842215	0.01206716
	0.05985052	-0.01347623	-0.0007439351	-0.0001846786	-0.07336786	-0.03467649	-0.000690949	-0.0001294093
	-0.0007902707	-0.0004342834	0.05842215	0.01206716	-0.000690949	-0.0001294093	-0.06151465	-0.05784023
3.9e+08	-0.02818029	-0.02578943	-0.000617605	0.0004391406	0.07583259	-0.06803419	-0.0008032501	0.000312184
	-0.000617605	0.0004391406	-0.02081094	-0.01259381	-0.0006605347	0.0003933912	0.09450828	-0.01855797
	0.07583259	-0.06803418	-0.0006605347	0.0003933912	-0.03602417	-0.02335941	-0.0005330211	0.0003460077
	-0.0008032501	0.000312184	0.09450828	-0.01855797	-0.000533021	0.0003460077	-0.02923994	-0.01624651
4e+08	-0.01450747	-0.05832774	-0.0002053655	0.0006679117	0.02539116	-0.09729245	-0.0003520431	0.0006170325
	-0.0002053655	0.0006679117	0.02210157	-0.03652604	-0.0002353138	0.0006787917	0.07318708	-0.06126927
	0.02539115	-0.09729245	-0.0002353138	0.0006787917	-0.02034886	-0.05639748	-0.000241446	0.0005367018
	-0.0003520431	0.0006170325	0.07318708	-0.06126927	-0.000241446	0.0005367018	0.0155262	-0.03866276
4.1e+08	-0.04618993	-0.07922764	0.0002044638	0.0006963487	-0.01313859	-0.05622283	-5.217916e-05	0.0007132982
	0.0002044638	0.0006963487	0.006312418	-0.08461598	0.0001886258	0.0006887973	0.02835217	-0.05015655
	-0.01313861	-0.05622283	0.0001886258	0.0006887973	-0.052519	-0.07881315	0.0001069218	0.000658632
	-5.217917e-05	0.0007132982	0.02835217	-0.05015655	0.0001069219	0.0006586319	0.001108965	-0.08806055
4.2e+08	-0.07630944	-0.05231015	0.0006770377	0.0004614232	0.0197216	-0.01290173	0.0005013428	0.0007646949
	0.0006770377	0.0004614232	-0.04645673	-0.08001847	0.0006315881	0.0004846654	0.03085331	-0.005042368
	0.01972159	-0.01290171	0.0006315881	0.0004846654	-0.08460686	-0.0511953	0.0006069288	0.0004627695
	0.0005013428	0.0007646949	0.0308533	-0.005042369	0.0006069288	0.0004627695	-0.05312137	-0.08496219
4.3e+08	-0.05883189	-0.01762316	0.000846724	-0.0001587805	0.06931139	-0.03959322	0.001014713	0.0001304324
	0.000846724	-0.0001587805	-0.05501187	-0.02814434	0.0008588241	-9.389916e-05	0.07695728	0.001567829
	0.06931139	-0.0395932	0.0008588241	-9.389915e-05	-0.06729499	-0.01388655	0.0007501775	-0.0001234401
	0.001014713	0.0001304324	0.07695728	0.00156783	0.0007501775	-0.0001234401	-0.06405725	-0.03190291
4.4e+08	-0.02477027	-0.02684964	0.0004805938	-0.0006510407	0.05281016	-0.0971905	0.0007032955	-0.0006048815
	0.0004805938	-0.0006510407	-0.008932898	-0.009102472	0.0005372585	-0.0006483134	0.09498991	-0.04349762
	0.05281016	-0.0971905	0.0005372585	-0.0006483134	-0.03109426	-0.0216745	0.000439678	-0.0005165642
	0.0007032955	-0.0006048815	0.09498991	-0.04349762	0.000439678	-0.0005165642	-0.01800746	-0.009988741
4.5e+08	-0.02858092	-0.06124096	1.023892e-05	-0.0007614558	-0.007622102	-0.09559995	0.0001960452	-0.0007536033
	1.023892e-05	-0.0007614558	0.0177652	-0.04954847	1.726074e-05	-0.0007851837	0.0558829	-0.07198463
	-0.007622107	-0.09559995	1.726074e-05	-0.0007851837	-0.03325539	-0.057136	0.0001023523	-0.0006621122
	0.0001960452	-0.0007536033	0.0558829	-0.07198463	0.0001023523	-0.0006621122	0.0109911	-0.04939672
4.6e+08	-0.06561814	-0.06439191	-0.0004542951	-0.0006801078	-0.01860694	-0.0388839	-0.0001917173	-0.0008349159
	-0.0004542951	-0.0006801078	-0.01792557	-0.08449614	-0.0004366028	-0.0006770409	0.02105908	-0.04104253
	-0.01860695	-0.03888389	-0.0004366028	-0.0006770409	-0.07116283	-0.0614443	-0.0003640747	-0.0006827203
	-0.0001917173	-0.000834916	0.02105908	-0.04104254	-0.0003640747	-0.0006827202	-0.0236155	-0.08602331
4.7e+08	-0.0781142	-0.02787361	-0.0008830674	-0.0002352033	0.03471229	-0.01969818	-0.0008745589	-0.0006118985
	-0.0008830674	-0.0002352033	-0.0612479	-0.05648766	-0.000860741	-0.0002816737	0.04497409	-0.00140131
	0.03471229	-0.01969816	-0.000860741	-0.0002816737	-0.08508551	-0.02367356	-0.0008114203	-0.000246184
	-0.0008745589	-0.0006118985	0.04497409	-0.001401309	-0.0008114202	-0.000246184	-0.06874089	-0.05914503
4.8e+08	-0.04730166	-0.00829764	-0.0008018342	0.0004673572	0.06406415	-0.07192016	-0.001082489	0.0002934843
	-0.0008018342	0.0004673572	-0.04446532	-0.008729201	-0.0008547671	0.0004277424	0.09082614	-0.0172716
