!$
! Info: Touchstone file created by Circ.  Input file=Tx_PCB_4dB_OSFP_22dB_OSFP_4dB_PCB_Rx_TP0_TP5_VendorY.circ
!$
# Hz S RI R 50
0	0.05516356	4.981555e-22	0.9447428	-5.420303e-22	0.001873635	2.171348e-20	-0.002155754	2.629266e-19
	0.9447428	-5.420348e-22	0.05457158	2.841663e-22	-0.002179447	2.658275e-19	0.001779859	3.961991e-20
	0.001873555	2.171481e-20	-0.002179617	2.658482e-19	0.05483183	4.976705e-22	0.9447265	-5.290382e-22
	-0.002155774	2.629291e-19	0.001779819	3.962005e-20	0.9447265	-5.289501e-22	0.0545847	2.762871e-22
1e+07	0.0473056	-0.02656179	0.7143585	-0.6103708	0.03738819	0.04072648	-0.004442685	-0.001734299
	0.7143585	-0.6103708	0.04763668	-0.02591203	-0.00444157	-0.001719613	0.03728183	0.04092673
	0.03738819	0.04072648	-0.004441628	-0.001719571	0.04814988	-0.02538463	0.7154146	-0.6092798
	-0.004442715	-0.001734278	0.03728183	0.04092673	0.7154146	-0.6092798	0.04863352	-0.02469625
2e+07	0.01973121	-0.03836694	0.1508076	-0.9220451	0.08268284	0.01392928	-0.009266279	-0.001423929
	0.1508076	-0.9220451	0.02056084	-0.03775114	-0.009263521	-0.001422244	0.08258669	0.01425439
	0.08268273	0.01392919	-0.009263522	-0.001422254	0.02202866	-0.03793513	0.1537227	-0.9216752
	-0.009266278	-0.001423909	0.08258669	0.01425439	0.1537227	-0.9216752	0.02291163	-0.03747927
3e+07	-0.00452629	-0.02307404	-0.4766009	-0.8004692	0.06467521	-0.03414192	-0.01509411	0.006922349
	-0.4766009	-0.8004692	-0.003691497	-0.02298909	-0.01508451	0.006924422	0.0648217	-0.0341006
	0.06467521	-0.03414192	-0.0150845	0.00692456	-0.002528336	-0.02424086	-0.4729674	-0.8028165
	-0.015094	0.006922457	0.06482171	-0.0341005	-0.4729674	-0.8028165	-0.001844611	-0.02419666
4e+07	-0.00235435	0.001881371	-0.8792708	-0.3043617	0.0154688	-0.02469624	-0.009422703	0.02285802
	-0.8792708	-0.3043617	-0.00250874	0.00157341	-0.00942141	0.02284579	0.01486231	-0.02492311
	0.0154688	-0.02469624	-0.009421128	0.02284565	-0.001967321	0.0005513238	-0.8775722	-0.3097851
	-0.009422422	0.02285788	0.01486231	-0.02492311	-0.8775722	-0.3097851	-0.002093515	0.0003744426
5e+07	0.01804559	0.006278472	-0.8652943	0.3340446	0.01711795	0.02502147	0.01141306	0.02868109
	-0.8652943	0.3340446	0.01651429	0.006944522	0.0114007	0.02868463	0.01564246	0.02571183
	0.01711785	0.02502149	0.01140088	0.0286846	0.01795623	0.006443648	-0.8679759	0.3274979
	0.01141318	0.02868086	0.01564246	0.02571183	-0.8679759	0.3274979	0.01665688	0.007049502
6e+07	0.02449859	-0.01073386	-0.444755	0.8086689	0.06658383	0.03181004	0.03166088	0.01611908
	-0.444755	0.8086689	0.02309334	-0.008072528	0.03166969	0.01613041	0.06575741	0.0337126
	0.06658383	0.03181004	0.03166963	0.01613012	0.02583134	-0.009808182	-0.4522163	0.804641
	0.03166106	0.01611894	0.06575741	0.0337126	-0.4522163	0.804641	0.02449545	-0.007445132
7e+07	0.008619136	-0.01896296	0.1775444	0.9025407	0.08248855	-0.01528964	0.03965059	-0.008021224
	0.1775444	0.9025407	0.008978008	-0.01580174	0.03965914	-0.008031601	0.0828822	-0.0140987
	0.08248847	-0.01528956	0.03965911	-0.008031696	0.011099	-0.01935095	0.1678689	0.9045378
	0.03965036	-0.008021324	0.0828822	-0.01409869	0.1678689	0.9045378	0.01127801	-0.01636824
8e+07	-0.002872773	-0.003698311	0.7154572	0.5769248	0.03980802	-0.03904198	0.03006673	-0.03636902
	0.7154572	0.5769248	-0.002176554	-0.002337771	0.03005935	-0.03637218	0.03903735	-0.03965401
	0.03980793	-0.03904195	0.03005923	-0.03637225	-0.001388578	-0.005617159	0.7084407	0.5857419
	0.03006673	-0.03636902	0.03903735	-0.03965401	0.7084407	0.5857419	-0.0007732523	-0.004167933
9e+07	0.01061105	0.01187243	0.9175217	-0.02004474	0.009931468	-0.001011508	-0.001485542	-0.05407305
	0.9175217	-0.02004474	0.008591241	0.01266946	-0.001479656	-0.05407232	0.006118292	-0.0006837103
	0.009931375	-0.001011472	-0.001479657	-0.05407232	0.01034532	0.01051132	0.917871	-0.007434055
	-0.001485572	-0.05407314	0.006118261	-0.0006837952	0.917871	-0.007434055	0.008551889	0.01131267
1e+08	0.02942477	0.002009272	0.6858251	-0.6040879	0.04307708	0.03492364	-0.04045179	-0.04327638
	0.6858251	-0.6040879	0.0254762	0.006050016	-0.04045811	-0.0432942	0.03910421	0.03897331
	0.04307708	0.03492364	-0.0404582	-0.04329417	0.02938156	0.002459349	0.695065	-0.5936281
	-0.04045179	-0.04327638	0.03910411	0.03897334	0.695065	-0.5936281	0.02564235	0.00614672
1.1e+08	0.02394985	-0.01805428	0.1370838	-0.8993457	0.08507085	0.008835779	-0.06284064	-0.007860479
	0.1370838	-0.8993457	0.02248425	-0.01088861	-0.06286358	-0.007856545	0.08468318	0.01379328
	0.08507085	0.008835779	-0.06286358	-0.007856545	0.02582096	-0.01751145	0.1522481	-0.8970282
	-0.06284064	-0.007860479	0.08468318	0.01379328	0.1522481	-0.8970282	0.02422895	-0.01073703
1.2e+08	0.003582283	-0.01604543	-0.4708448	-0.7763605	0.06805952	-0.0369015	-0.05845045	0.03588822
	-0.4708448	-0.7763605	0.005305198	-0.01061744	-0.0584464	0.03591901	0.06872567	-0.03592111
	0.06805943	-0.03690146	-0.0584464	0.03591901	0.006011033	-0.01749339	-0.4565231	-0.7850125
	-0.05845045	0.03588822	0.06872567	-0.03592111	-0.4565231	-0.7850125	0.007568086	-0.01210756
1.3e+08	0.002563352	0.005714218	-0.8594009	-0.2912997	0.02125759	-0.02812531	-0.02427324	0.07170524
	-0.8594009	-0.2912997	0.002158425	0.007698511	-0.02425711	0.07170684	0.01673323	-0.0292301
	0.0212575	-0.02812526	-0.02425711	0.07170684	0.003086237	0.003131691	-0.853784	-0.3085274
	-0.0242732	0.07170533	0.01673323	-0.0292301	-0.853784	-0.3085274	0.002941258	0.005213107
1.4e+08	0.02591031	0.01148568	-0.842547	0.3304139	0.02319457	0.01948809	0.03127199	0.07582944
	-0.842547	0.3304139	0.02054298	0.01569862	0.03127316	0.0758395	0.01427981	0.02387405
	0.02319449	0.01948814	0.03127318	0.07583948	0.02489137	0.01050484	-0.8495897	0.3123239
	0.03127202	0.07582942	0.01427979	0.02387406	-0.8495897	0.3123239	0.02002302	0.01435818
1.5e+08	0.03779481	-0.01064907	-0.4305323	0.7907772	0.07171616	0.02577514	0.07691673	0.03892986
	-0.4305323	0.7907772	0.03312389	-4.206066e-05	0.07695182	0.03893784	0.06699488	0.03634114
	0.07171616	0.02577514	0.07695165	0.03893794	0.0380563	-0.009806144	-0.4486279	0.7807935
	0.07691681	0.03892981	0.06699488	0.03634114	-0.4486279	0.7807935	0.03345263	8.468629e-05
1.6e+08	0.01969895	-0.02696608	0.1758398	0.8797288	0.08807071	-0.02083929	0.08790853	-0.01939527
	0.1758398	0.8797288	0.02127325	-0.015211	0.08793506	-0.01944709	0.09005195	-0.01333612
	0.08807071	-0.02083929	0.08793506	-0.01944709	0.02208346	-0.0270911	0.1542094	0.8838916
	0.08790848	-0.01939536	0.09005186	-0.01333608	0.1542094	0.8838916	0.02330615	-0.01569297
1.7e+08	0.001022702	-0.01218903	0.6989344	0.5613847	0.04668867	-0.04549967	0.05999072	-0.07517826
	0.6989344	0.5613847	0.00424547	-0.006241648	0.05995326	-0.07520708	0.04571981	-0.04580979
	0.0466886	-0.04549961	0.05995326	-0.07520708	0.002902792	-0.01478987	0.6841402	0.5795722
	0.05999072	-0.07517826	0.04571981	-0.04580979	0.6841402	0.5795722	0.00609246	-0.008697263
1.8e+08	0.01398359	0.009819608	0.8951079	-0.02077968	0.01683183	-0.009208571	-0.002928215	-0.1034139
	0.8951079	-0.02077968	0.01046518	0.01374118	-0.002947565	-0.103401	0.005490871	-0.007645202
	0.01683183	-0.009208571	-0.002947565	-0.103401	0.01321981	0.007103822	0.8955493	0.003981402
	-0.002928272	-0.103414	0.005490869	-0.007645203	0.8955493	0.003981402	0.01026059	0.01086994
1.9e+08	0.04069557	0.0008345115	0.6681126	-0.5896425	0.04925035	0.02604782	-0.07366395	-0.07995407
	0.6681126	-0.5896425	0.0330454	0.01246318	-0.07367852	-0.07996209	0.03655137	0.03970356
	0.04925028	0.0260479	-0.0736786	-0.07996203	0.03924949	0.0006920228	0.6853047	-0.5701733
	-0.07366403	-0.07995401	0.03655138	0.03970356	0.6853047	-0.5701733	0.03192647	0.01145806
2e+08	0.03912737	-0.02801788	0.1334816	-0.8762812	0.09148291	-6.698106e-05	-0.1112446	-0.01386054
	0.1334816	-0.8762812	0.03812038	-0.009604489	-0.1112888	-0.01383096	0.0902299	0.01821318
	0.09148291	-6.698106e-05	-0.1112888	-0.01383096	0.04009812	-0.02701013	0.1603371	-0.8719029
	-0.1112446	-0.01386054	0.0902299	0.01821318	0.1603371	-0.8719029	0.03863323	-0.009344788
2.1e+08	0.01206766	-0.03318266	-0.4577707	-0.7568891	0.07539644	-0.04703224	-0.09860594	0.06145844
	-0.4577707	-0.7568891	0.01885925	-0.01947212	-0.09858168	0.06152735	0.08042621	-0.03930734
	0.07539643	-0.04703224	-0.09858168	0.06152735	0.01472456	-0.03444459	-0.4331503	-0.7713904
	-0.09860587	0.06145851	0.08042621	-0.03930733	-0.4331503	-0.7713904	0.02104348	-0.02063338
2.2e+08	0.003064114	-0.007701456	-0.8368983	-0.2855538	0.02801867	-0.04025574	-0.03967438	0.1164642
	-0.8368983	-0.2855538	0.005625641	-0.002119399	-0.0396088	0.1164603	0.02185465	-0.04089643
	0.02801867	-0.04025574	-0.0396088	0.1164603	0.003752735	-0.01128504	-0.82691	-0.3138538
	-0.03967432	0.1164643	0.02185465	-0.04089643	-0.82691	-0.3138538	0.006763883	-0.005438932
2.3e+08	0.02913268	0.005774387	-0.8214188	0.3203107	0.02858898	0.006918547	0.04811713	0.1207716
	-0.8214188	0.3203107	0.02165437	0.01555003	0.04812913	0.120744	0.009784299	0.0173143
	0.02858898	0.006918547	0.04812913	0.120744	0.02699842	0.003627974	-0.8327061	0.2911751
	0.04811713	0.1207716	0.009784282	0.01731431	-0.8327061	0.2911751	0.02031538	0.01268311
2.4e+08	0.04994113	-0.01862245	-0.4205788	0.7688742	0.07725191	0.01351149	0.1193848	0.06182826
	-0.4205788	0.7688742	0.04440261	0.003690094	0.1194149	0.06182033	0.06612956	0.04058942
	0.07725191	0.01351149	0.1194149	0.06182033	0.04861676	-0.01771587	-0.4487868	0.7530239
	0.1193848	0.06182826	0.06612956	0.04058942	-0.4487868	0.7530239	0.04289357	0.003330571
2.5e+08	0.03231179	-0.04542121	0.1682324	0.8558798	0.09470269	-0.03431661	0.1338318	-0.02952286
	0.1682324	0.8558798	0.0396663	-0.02134884	0.1338516	-0.02959947	0.1014579	-0.01049224
	0.09470269	-0.03431661	0.1338516	-0.02959947	0.03419249	-0.04473663	0.1351998	0.8618882
	0.1338318	-0.02952286	0.1014579	-0.01049224	0.1351998	0.8618882	0.04061284	-0.02098894
2.6e+08	0.003962482	-0.03512962	0.6770781	0.5490617	0.05274903	-0.06178035	0.0884616	-0.1106196
	0.6770781	0.5490617	0.01525337	-0.02288867	0.08837503	-0.110674	0.05888345	-0.05625752
	0.05274899	-0.06178026	0.088375	-0.110674	0.006298651	-0.03781291	0.654587	0.5759002
	0.08846156	-0.1106196	0.05888345	-0.05625752	0.654587	0.5759002	0.01752943	-0.02491413
2.7e+08	0.01041419	-0.005849861	0.8710803	-0.01593322	0.02012621	-0.02642338	-0.002402972	-0.1492006
	0.8710803	-0.01593322	0.00945202	0.00144868	-0.002465799	-0.1491437	0.005522994	-0.02292275
	0.02012621	-0.02642338	-0.002465799	-0.1491437	0.009350345	-0.009819189	0.8712074	0.02048703
	-0.00240305	-0.1492007	0.005522917	-0.02292269	0.8712074	0.02048703	0.009585606	-0.002611301
2.8e+08	0.04326424	-0.008200388	0.6521977	-0.5707454	0.05169816	0.01027734	-0.1035461	-0.1162434
	0.6521977	-0.5707454	0.03452982	0.01258138	-0.1035496	-0.1162086	0.0293979	0.03661047
	0.05169816	0.01027734	-0.1035496	-0.1162086	0.04014004	-0.009050888	0.6765284	-0.542198
	-0.1035461	-0.1162434	0.02939788	0.03661049	0.6765284	-0.542198	0.03202571	0.01013351
2.9e+08	0.04960332	-0.04300172	0.1334251	-0.8502047	0.09554553	-0.01608298	-0.1575404	-0.02108483
	0.1334251	-0.8502047	0.05298616	-0.01003071	-0.1575724	-0.02103914	0.09406347	0.02471483
	0.09554553	-0.01608298	-0.1575725	-0.02103906	0.04909837	-0.04119816	0.1713828	-0.8436537
	-0.1575404	-0.02108483	0.09406347	0.02471483	0.1713828	-0.8436537	0.05143081	-0.009499452
3e+08	0.01884048	-0.05868635	-0.4393085	-0.736914	0.07992034	-0.0662584	-0.1369872	0.0850319
	-0.4393085	-0.736914	0.03705036	-0.0340546	-0.1369407	0.08513532	0.09693531	-0.04193489
	0.07992034	-0.0662584	-0.1369406	0.08513538	0.02150823	-0.05896462	-0.4047787	-0.756649
	-0.1369872	0.0850319	0.09693531	-0.04193489	-0.4047787	-0.756649	0.03869682	-0.03378575
3.1e+08	-0.00158459	-0.03373921	-0.8101923	-0.283599	0.02913736	-0.06227637	-0.05502126	0.1573192
	-0.8101923	-0.2835989	0.01074138	-0.02462085	-0.0548871	0.1573122	0.03214456	-0.05906077
	0.02913733	-0.06227628	-0.0548871	0.1573122	-0.0003704813	-0.03777499	-0.7957688	-0.3222815
	-0.05502126	0.1573192	0.03214449	-0.0590607	-0.7957688	-0.3222815	0.01290536	-0.0277661
3.2e+08	0.02123866	-0.01031077	-0.800317	0.3053777	0.02620478	-0.01323406	0.06159635	0.1635736
	-0.800317	0.3053777	0.01604758	0.003914407	0.0616342	0.1634774	0.003144195	0.002107311
	0.02620478	-0.01323406	0.0616342	0.1634774	0.01822061	-0.01372258	-0.8147958	0.2652935
	0.06159635	0.1635736	0.003144195	0.002107311	-0.8147958	0.2652935	0.01476251	-0.0006724126
3.3e+08	0.05087199	-0.03104527	-0.412721	0.7435806	0.07615933	-0.004383435	0.1586268	0.0859293
	-0.412721	0.7435806	0.04779871	0.004084843	0.1586229	0.08588144	0.05933144	0.04255255
	0.07615933	-0.004383434	0.1586229	0.08588141	0.04754924	-0.03011391	-0.4504778	0.721801
	0.1586268	0.08592926	0.05933138	0.04255263	-0.4504778	0.721801	0.04418457	0.002615568
3.4e+08	0.03831504	-0.06692178	0.1570059	0.8297434	0.09590636	-0.05454027	0.178303	-0.03778304
	0.1570059	0.8297434	0.05708017	-0.02791431	0.1782994	-0.0378755	0.1118564	-0.004870486
	0.09590636	-0.05454027	0.1782994	-0.0378755	0.03915681	-0.06479845	0.1131319	0.8371795
	0.178303	-0.03778304	0.1118564	-0.004870486	0.1131319	0.8371795	0.05597482	-0.02632685
3.5e+08	0.002072392	-0.06536021	0.6499943	0.5376	0.05192444	-0.08667402	0.1159165	-0.1436337
	0.6499943	0.5376	0.02969709	-0.04599962	0.115782	-0.1437101	0.0774792	-0.0675056
	0.05192444	-0.08667402	0.115782	-0.1437101	0.004988426	-0.06716593	0.6199599	0.5722214
	0.1159164	-0.1436337	0.07747913	-0.06750552	0.6199599	0.5722214	0.032287	-0.04621844
3.6e+08	-0.002829428	-0.03179705	0.8444194	-0.006345522	0.01318156	-0.05171444	-0.0002614268	-0.191323
	0.8444194	-0.006345522	0.00634401	-0.02372655	-0.0003981698	-0.1912253	0.008728204	-0.04684148
	0.01318157	-0.05171444	-0.0003981695	-0.1912253	-0.003529863	-0.03664827	0.8436593	0.04108929
	-0.0002614265	-0.191323	0.008728204	-0.04684148	0.8436593	0.04108929	0.007951726	-0.02827427
3.7e+08	0.03136482	-0.02331407	0.6378001	-0.5479017	0.04293398	-0.01010156	-0.129159	-0.1520908
	0.6378001	-0.5479017	0.02579028	0.004032128	-0.1291532	-0.1519687	0.01696876	0.02549414
	0.04293398	-0.01010146	-0.1291532	-0.1519687	0.0267232	-0.02514361	0.6687171	-0.5103438
	-0.1291589	-0.1520908	0.01696876	0.02549414	0.6687171	-0.5103438	0.02262888	-0.0005655469
3.8e+08	0.04752144	-0.05876407	0.1357082	-0.8219048	0.09064959	-0.0355083	-0.201527	-0.03076759
	0.1357082	-0.8219048	0.05949917	-0.01072446	-0.201502	-0.03069108	0.09126971	0.0310638
	0.0906496	-0.0355083	-0.201502	-0.03069098	0.04501895	-0.05607158	0.1842703	-0.8129064
	-0.201527	-0.03076759	0.09126971	0.0310638	0.1842703	-0.8129064	0.05513274	-0.01052733
3.9e+08	0.01757181	-0.0851925	-0.4170992	-0.7156059	0.07614322	-0.09071497	-0.1746484	0.1065982
	-0.4170992	-0.7156059	0.05473305	-0.04848938	-0.1745602	0.106707	0.113717	-0.04129771
	0.07614322	-0.09071497	-0.1745602	0.106707	0.01991713	-0.0836308	-0.3730653	-0.7399002
	-0.1746484	0.1065982	0.113717	-0.04129763	-0.3730653	-0.7399002	0.05482327	-0.04593251
4e+08	-0.01411664	-0.06532035	-0.7789083	-0.2840083	0.01953735	-0.09094976	-0.07004703	0.1951966
	-0.7789083	-0.2840083	0.01775458	-0.05481273	-0.06984742	0.1951794	0.04818679	-0.08020609
	0.01953734	-0.09094976	-0.06984732	0.1951794	-0.01184937	-0.06890034	-0.7598245	-0.3321754
	-0.07004703	0.1951966	0.04818674	-0.080206	-0.7598245	-0.3321754	0.02134569	-0.0562171
4.1e+08	-0.000220106	-0.03286524	-0.7789103	0.2855441	0.009683531	-0.03784537	0.07170128	0.203189
	-0.7789103	0.2855441	0.004069308	-0.01996382	0.07178673	0.2030068	-0.003401458	-0.02339779
	0.009683531	-0.03784537	0.07178673	0.2030068	-0.00331902	-0.03752665	-0.7959018	0.2348676
	0.07170128	0.203189	-0.003401458	-0.02339779	-0.7959018	0.2348676	0.004339709	-0.02601329
4.2e+08	0.03556136	-0.04442517	-0.4072204	0.7158455	0.06180061	-0.02274779	0.1936247	0.1115703
	-0.4072204	0.7158455	0.03847065	-0.00031655	0.1935678	0.111432	0.04441587	0.03836357
	0.06180061	-0.02274779	0.1935678	0.111432	0.03020638	-0.0438679	-0.4538874	0.6878308
	0.1936247	0.1115703	0.04441587	0.03836357	-0.4538874	0.6878308	0.03314308	-0.00399749
4.3e+08	0.03143055	-0.08544517	0.1436741	0.802194	0.0866314	-0.07525824	0.2219611	-0.04306936
	0.1436741	0.802194	0.06678987	-0.03193811	0.2218743	-0.04317172	0.1158432	0.002948562
	0.0866314	-0.07525824	0.2218743	-0.04317172	0.03068612	-0.08159415	0.0893727	0.8106566
	0.2219611	-0.04306936	0.1158432	0.002948562	0.0893727	0.8106566	0.06251994	-0.02945858
4.4e+08	-0.008810539	-0.09418716	0.6191569	0.5257114	0.04047081	-0.1142878	0.1432325	-0.1748465
	0.6191569	0.5257114	0.04433494	-0.06903104	0.1430408	-0.1749001	0.09807185	-0.0756506
	0.04047104	-0.1142869	0.1430408	-0.1749001	-0.005346711	-0.09410951	0.5817638	0.5673338
	0.1432325	-0.1748464	0.09807194	-0.07565056	0.5817638	0.5673338	0.04644077	-0.06608035
4.5e+08	-0.02660079	-0.06054679	0.8147771	0.006989211	-0.007718178	-0.08032172	0.002593239	-0.2299327
	0.8147771	0.006989209	0.002871072	-0.05790033	0.002396812	-0.2297839	0.017112	-0.07653675
	-0.007718153	-0.08032162	0.002396716	-0.2297839	-0.02603178	-0.0656075	0.8124108	0.06460716
	0.00259324	-0.2299327	0.017112	-0.07653675	0.8124108	0.06460716	0.007041371	-0.06138657
4.6e+08	0.003474828	-0.03975697	0.6250132	-0.5210033	0.01766687	-0.02977618	-0.1499426	-0.1862377
	0.6250132	-0.5210033	0.00635692	-0.01462516	-0.1499399	-0.1860005	0.0007550778	0.003633672
	0.01766687	-0.02977618	-0.1499399	-0.1860005	-0.001927576	-0.04294387	0.6615274	-0.4743253
	-0.1499426	-0.1862377	0.0007550778	0.003633672	0.6615274	-0.4743253	0.004238696	-0.02177439
4.7e+08	0.02919684	-0.07014688	0.1402281	-0.7928806	0.07209003	-0.05069978	-0.2423525	-0.0437648
	0.1402281	-0.7928806	0.05229326	-0.0116375	-0.2422242	-0.04361722	0.07835893	0.03425924
	0.07209004	-0.05069978	-0.2422242	-0.04361713	0.02442575	-0.06694422	0.1989881	-0.7809124
	-0.2423525	-0.04376471	0.07835893	0.03425924	0.1989881	-0.7809124	0.04501967	-0.01312362
4.8e+08	0.004084648	-0.104969	-0.393163	-0.6932599	0.06136545	-0.1122929	-0.2127512	0.1254335
	-0.393163	-0.6932599	0.06631635	-0.0581059	-0.212558	0.1255107	0.1253255	-0.03626501
	0.06136545	-0.1122929	-0.212558	0.1255107	0.005620966	-0.1010373	-0.3399599	-0.7216572
	-0.2127512	0.1254335	0.1253255	-0.03626492	-0.3399599	-0.7216572	0.06347301	-0.0531588
4.9e+08	-0.03588273	-0.09274596	-0.7439486	-0.2849982	-0.002145469	-0.1190784	-0.08509101	0.2313154
	-0.7439486	-0.2849982	0.02563085	-0.08564145	-0.08484051	0.2312306	0.06808494	-0.09936279
	-0.002145469	-0.1190784	-0.08484051	0.2312306	-0.03221514	-0.09482003	-0.7200863	-0.3416693
	-0.08509101	0.2313154	0.06808494	-0.09936279	-0.7200863	-0.3416693	0.03030599	-0.08349402
5e+08	-0.03396096	-0.05445187	-0.7562295	0.2611739	-0.02291804	-0.06116781	0.07961303	0.2391883
	-0.7562295	0.2611739	-0.01144287	-0.0536313	0.07972736	0.2389184	-0.006680512	-0.05755827
	-0.02291804	-0.06116781	0.07972736	0.2389184	-0.03596882	-0.06008135	-0.7746815	0.2004679
	0.07961303	0.2391883	-0.006680512	-0.05755827	-0.7746815	0.2004679	-0.007810242	-0.05995085
5.1e+08	0.003866873	-0.0532518	-0.404654	0.6859563	0.03060865	-0.03433731	0.2231661	0.1377813
	-0.404654	0.6859563	0.01483337	-0.01095881	0.2230562	0.1375203	0.02153298	0.0246795
	0.03060865	-0.03433729	0.2230572	0.1375202	-0.003020921	-0.05376292	-0.4593955	0.6510998
	0.2231661	0.1377813	0.02153297	0.02467953	-0.4593955	0.6510998	0.009360256	-0.01804082
5.2e+08	0.009939747	-0.09461411	0.129089	0.7750367	0.06497155	-0.08714283	0.2641322	-0.04400878
	0.129089	0.7750367	0.06353308	-0.0315759	0.2638913	-0.04414517	0.1090451	0.011239
	0.06497161	-0.08714275	0.2638913	-0.04414516	0.007135383	-0.08925326	0.06451095	0.7839777
	0.2641322	-0.04400885	0.1090451	0.01123909	0.06451095	0.7839777	0.05536524	-0.02956695
5.3e+08	-0.0302083	-0.1127219	0.5868282	0.5127895	0.01862158	-0.1355382	0.1716595	-0.203987
	0.5868282	0.5127895	0.05519968	-0.08581476	0.1713589	-0.2039413	0.1156663	-0.07783996
	0.01862156	-0.1355382	0.1713589	-0.2039413	-0.02649871	-0.1100219	0.5423027	0.5608458
	0.1716586	-0.2039868	0.1156663	-0.07783998	0.5423027	0.5608458	0.05535969	-0.0790259
