!$
! Info: Touchstone file created by Circ.  Input file=Tx_PCB_4dB_OSFP_27dB_OSFP_4dB_PCB_Rx_TP0_TP5_VendorX.circ
!$
# Hz S RI R 50
0	0.06426423	2.495449e-13	1.59141e-08	1.294068e-20	0.01649016	6.004109e-13	3.238702e-08	1.112645e-20
	1.591363e-08	1.293269e-20	0.06071597	2.496001e-13	2.871627e-09	1.389839e-20	0.01672761	5.969485e-13
	0.01648983	6.00139e-13	2.871685e-09	1.390544e-20	0.06141672	2.694155e-13	1.322754e-08	2.096348e-20
	3.238778e-08	1.112105e-20	0.01672763	5.974048e-13	1.322757e-08	2.097208e-20	0.06583271	2.675754e-13
1e+07	0.102491	0.008640524	1.15049e-07	-4.930323e-08	0.06393964	0.03849802	1.98044e-07	-1.212592e-07
	1.15049e-07	-4.930324e-08	0.100518	0.009064806	7.245345e-08	-9.307887e-08	0.06419013	0.03779444
	0.06393955	0.03849803	7.245345e-08	-9.307887e-08	0.09908189	0.008092527	1.205932e-07	-1.07631e-07
	1.98044e-07	-1.212592e-07	0.06419014	0.03779445	1.205932e-07	-1.07631e-07	0.1087147	0.01080886
2e+07	0.09980742	-0.04941049	-1.205102e-07	-2.101356e-07	0.09396885	-0.01952697	-2.256184e-07	-4.242043e-07
	-1.205102e-07	-2.101356e-07	0.0983075	-0.05045399	-9.503519e-08	-2.702969e-07	0.0928712	-0.0205512
	0.09396877	-0.01952689	-9.503519e-08	-2.702969e-07	0.09587562	-0.04896718	-1.442524e-07	-3.395682e-07
	-2.256184e-07	-4.242043e-07	0.09287122	-0.02055121	-1.442523e-07	-3.395682e-07	0.1082095	-0.0518958
3e+07	0.03685147	-0.0530894	-2.893356e-07	2.3207e-07	0.0297705	-0.04171827	-5.012545e-07	3.287609e-07
	-2.893356e-07	2.3207e-07	0.03372218	-0.05479096	-2.250077e-07	-1.234738e-08	0.02837301	-0.04085902
	0.02977051	-0.04171821	-2.250077e-07	-1.234738e-08	0.03393086	-0.05232888	-3.354478e-07	1.048806e-07
	-5.012545e-07	3.287609e-07	0.02837301	-0.04085903	-3.354478e-07	1.048806e-07	0.04095122	-0.05827373
4e+07	0.03258199	0.004581094	3.599689e-07	3.207229e-07	0.01762053	0.02575918	6.290806e-07	4.279074e-07
	3.599689e-07	3.207229e-07	0.02939103	0.004467003	2.407298e-07	2.01466e-09	0.01891146	0.02650739
	0.0176205	0.02575919	2.407298e-07	2.014655e-09	0.0296436	0.004360971	3.901489e-07	1.535103e-07
	6.290806e-07	4.279074e-07	0.01891146	0.0265074	3.901489e-07	1.535103e-07	0.03537498	0.0030662
5e+07	0.08585061	0.002398942	2.970043e-07	-4.773865e-07	0.08507082	0.02688007	4.847554e-07	-9.915704e-07
	2.970042e-07	-4.773865e-07	0.08449512	0.001376863	1.98374e-07	-6.292149e-07	0.08558023	0.02412069
	0.08507077	0.02688012	1.98374e-07	-6.292148e-07	0.08185738	0.002474484	3.13379e-07	-7.900536e-07
	4.847553e-07	-9.915704e-07	0.08558024	0.02412069	3.13379e-07	-7.900535e-07	0.09295246	0.0001804499
6e+07	0.08080279	-0.05081994	-6.21229e-07	-2.499959e-07	0.07707815	-0.03896137	-1.111918e-06	-5.661288e-07
	-6.21229e-07	-2.499958e-07	0.07805163	-0.05419285	-4.649926e-07	-5.237405e-07	0.07364358	-0.04026339
	0.07707816	-0.03896131	-4.649926e-07	-5.237405e-07	0.07714322	-0.04966774	-7.151664e-07	-5.725817e-07
	-1.111918e-06	-5.661288e-07	0.07364358	-0.0402634	-7.151664e-07	-5.725817e-07	0.08676799	-0.05854879
7e+07	0.02883846	-0.04533367	-1.726062e-07	7.898357e-07	0.01340325	-0.02175142	-2.598004e-07	1.181996e-06
	-1.726062e-07	7.898357e-07	0.02371892	-0.04711243	-1.423027e-07	1.762333e-07	0.0122373	-0.01890953
	0.01340326	-0.02175141	-1.423027e-07	1.762333e-07	0.02606485	-0.04455638	-1.954989e-07	5.398266e-07
	-2.598004e-07	1.181996e-06	0.01223729	-0.01890953	-1.954989e-07	5.398266e-07	0.02951624	-0.0521933
8e+07	0.03958356	0.002447004	8.951094e-07	4.171671e-08	0.04124621	0.03798106	1.539733e-06	-2.114509e-07
	8.951093e-07	4.171669e-08	0.03668974	0.002300191	6.352942e-07	-4.240944e-07	0.04433982	0.0373554
	0.04124618	0.03798109	6.352942e-07	-4.240944e-07	0.03618682	0.002548382	9.926518e-07	-3.683355e-07
	1.539733e-06	-2.114509e-07	0.04433983	0.03735541	9.926518e-07	-3.683355e-07	0.04228051	-0.0005710509
9e+07	0.08562379	-0.01512812	-1.270114e-07	-9.442817e-07	0.09525783	0.001354683	-3.103011e-07	-1.887332e-06
	-1.270114e-07	-9.442817e-07	0.0838154	-0.01853776	-1.100026e-07	-1.193645e-06	0.09362964	-0.003399884
	0.09525782	0.001354731	-1.100026e-07	-1.193645e-06	0.08155721	-0.01419249	-1.771325e-07	-1.506698e-06
	-3.103011e-07	-1.887332e-06	0.09362965	-0.003399891	-1.771325e-07	-1.506698e-06	0.09172268	-0.02220779
1e+08	0.06600934	-0.06264366	-1.02674e-06	3.298609e-07	0.05256346	-0.04648631	-1.769043e-06	3.843016e-07
	-1.02674e-06	3.298609e-07	0.06013342	-0.0672051	-7.608442e-07	-3.192296e-07	0.0472353	-0.0455228
	0.05256347	-0.04648628	-7.608442e-07	-3.192296e-07	0.06271789	-0.06101702	-1.159928e-06	-9.878298e-08
	-1.769043e-06	3.843016e-07	0.0472353	-0.0455228	-1.159928e-06	-9.878297e-08	0.06715567	-0.07384992
1.1e+08	0.02036084	-0.04220474	5.536856e-07	1.087742e-06	0.01198385	0.002535697	1.035185e-06	1.517429e-06
	5.536856e-07	1.087742e-06	0.01375241	-0.04253015	3.999333e-07	1.750854e-07	0.0134631	0.006467294
	0.01198384	0.002535705	3.999333e-07	1.750854e-07	0.01759176	-0.04127721	6.433144e-07	6.645028e-07
	1.035185e-06	1.517429e-06	0.0134631	0.006467293	6.433144e-07	6.645028e-07	0.01792779	-0.04879774
1.2e+08	0.04614374	-0.002330614	1.018067e-06	-7.607926e-07	0.06739276	0.03418462	1.669926e-06	-1.746142e-06
	1.018067e-06	-7.607926e-07	0.04374574	-0.003237507	7.325886e-07	-1.240205e-06	0.07076229	0.03006973
	0.06739275	0.03418465	7.325886e-07	-1.240205e-06	0.04248443	-0.001692508	1.116518e-06	-1.483576e-06
	1.669926e-06	-1.746142e-06	0.07076229	0.03006973	1.116518e-06	-1.483576e-06	0.04860308	-0.007490949
1.3e+08	0.08372182	-0.03475815	-9.788204e-07	-8.949323e-07	0.09023035	-0.02469414	-1.813488e-06	-1.813153e-06
	-9.788204e-07	-8.949322e-07	0.07959472	-0.04043396	-7.301406e-07	-1.381716e-06	0.08461957	-0.02943466
	0.09023036	-0.02469411	-7.301406e-07	-1.381716e-06	0.07979721	-0.03301277	-1.140632e-06	-1.623944e-06
	-1.813488e-06	-1.813153e-06	0.08461958	-0.02943467	-1.140632e-06	-1.623944e-06	0.08630038	-0.046336
1.4e+08	0.04858313	-0.07368209	-8.027254e-07	1.251094e-06	0.03014549	-0.03922914	-1.264302e-06	1.855696e-06
	-8.027254e-07	1.251094e-06	0.03901855	-0.0771709	-5.863619e-07	1.381931e-07	0.02527117	-0.03442613
	0.0301455	-0.03922913	-5.863619e-07	1.38193e-07	0.04573668	-0.07164135	-8.682986e-07	7.446949e-07
	-1.264302e-06	1.855696e-06	0.02527117	-0.03442613	-8.682986e-07	7.44695e-07	0.04383201	-0.08551606
1.5e+08	0.01299638	-0.03756684	1.472463e-06	6.512321e-07	0.02537166	0.02212465	2.575289e-06	5.307592e-07
	1.472463e-06	6.512321e-07	0.006237847	-0.03598639	1.095522e-06	-3.759962e-07	0.03048159	0.02442748
	0.02537166	0.02212466	1.095522e-06	-3.759962e-07	0.01023096	-0.03650687	1.684909e-06	-6.331864e-08
	2.575289e-06	5.307592e-07	0.03048159	0.02442748	1.684909e-06	-6.331863e-08	0.008633109	-0.04296361
1.6e+08	0.053222	-0.009795052	3.821848e-07	-1.572714e-06	0.08706482	0.0166259	4.465265e-07	-3.204964e-06
	3.821848e-07	-1.572714e-06	0.0506222	-0.01233814	2.725795e-07	-2.072224e-06	0.08760012	0.00872523
	0.08706482	0.01662592	2.725795e-07	-2.072224e-06	0.04936523	-0.008511865	3.733544e-07	-2.591607e-06
	4.465265e-07	-3.204964e-06	0.08760013	0.008725226	3.733544e-07	-2.591607e-06	0.05443649	-0.01780027
1.7e+08	0.07732861	-0.05618326	-1.699862e-06	-7.797437e-08	0.07334722	-0.04279205	-2.971362e-06	-3.901983e-07
	-1.699862e-06	-7.797435e-08	0.06914028	-0.0628645	-1.253266e-06	-1.006059e-06	0.06387021	-0.04423736
	0.07334724	-0.04279203	-1.253266e-06	-1.006059e-06	0.07376852	-0.05364994	-1.925713e-06	-8.697663e-07
	-2.971362e-06	-3.901983e-07	0.06387021	-0.04423736	-1.925713e-06	-8.697663e-07	0.07405022	-0.07059825
1.8e+08	0.02777701	-0.08008627	2.108602e-07	1.881093e-06	0.01777296	-0.02150911	5.855073e-07	2.684223e-06
	2.108602e-07	1.881093e-06	0.01520964	-0.08028033	1.843076e-07	3.793359e-07	0.01654705	-0.01353668
	0.01777296	-0.02150911	1.843076e-07	3.793359e-07	0.02538159	-0.07783133	3.228138e-07	1.221221e-06
	5.855072e-07	2.684223e-06	0.01654705	-0.01353669	3.228138e-07	1.221221e-06	0.01748203	-0.08960106
1.9e+08	0.009199284	-0.03073213	1.89946e-06	-5.127105e-07	0.04802836	0.02994522	3.142065e-06	-1.668411e-06
	1.89946e-06	-5.127105e-07	0.003525358	-0.02765348	1.432623e-06	-1.482884e-06	0.05519497	0.02755713
	0.04802836	0.02994524	1.432623e-06	-1.482884e-06	0.006305858	-0.02945174	2.140816e-06	-1.616937e-06
	3.142065e-06	-1.668411e-06	0.05519498	0.02755713	2.140816e-06	-1.616937e-06	0.004119635	-0.03486569
2e+08	0.06021779	-0.02163603	-8.57623e-07	-1.751125e-06	0.09453402	-0.008203927	-1.759682e-06	-3.450942e-06
	-8.57623e-07	-1.751125e-06	0.05605744	-0.0262793	-6.388612e-07	-2.443664e-06	0.08926646	-0.01758823
	0.09453403	-0.008203909	-6.388611e-07	-2.443664e-06	0.05633514	-0.01953516	-1.040936e-06	-2.95906e-06
	-1.759682e-06	-3.450942e-06	0.08926646	-0.01758824	-1.040936e-06	-2.95906e-06	0.05854586	-0.03270377
2.1e+08	0.0638526	-0.07758735	-1.673065e-06	1.255436e-06	0.05167157	-0.04829813	-2.712348e-06	1.814539e-06
	-1.673065e-06	1.255436e-06	0.05041455	-0.08289875	-1.221347e-06	-2.464136e-07	0.04099248	-0.04370525
	0.05167158	-0.04829812	-1.221347e-06	-2.464136e-07	0.06086412	-0.074397	-1.830933e-06	4.433505e-07
	-2.712348e-06	1.814539e-06	0.04099248	-0.04370525	-1.830933e-06	4.433505e-07	0.05306479	-0.09189344
2.2e+08	0.00571085	-0.07883409	1.618277e-06	1.616964e-06	0.01914531	-0.001102724	2.961281e-06	1.869387e-06
	1.618277e-06	1.616964e-06	-0.007795374	-0.07397066	1.262188e-06	-5.599238e-08	0.02370006	0.00693394
	0.01914531	-0.001102717	1.262188e-06	-5.599239e-08	0.003670853	-0.07648028	1.932765e-06	6.466912e-07
	2.961281e-06	1.869387e-06	0.02370006	0.006933938	1.932765e-06	6.466912e-07	-0.0081694	-0.0834968
2.3e+08	0.01106718	-0.0237304	1.339633e-06	-1.85468e-06	0.07175923	0.02351387	1.942106e-06	-4.022065e-06
	1.339633e-06	-1.85468e-06	0.007250031	-0.02050022	1.028658e-06	-2.741172e-06	0.0771882	0.01505328
	0.07175923	0.02351388	1.028658e-06	-2.741172e-06	0.008015274	-0.02204386	1.454765e-06	-3.347148e-06
	1.942106e-06	-4.022065e-06	0.0771882	0.01505328	1.454765e-06	-3.347148e-06	0.006130185	-0.02750496
2.4e+08	0.06445298	-0.03912923	-2.087525e-06	-9.286697e-07	0.0887506	-0.03225289	-3.775892e-06	-1.925904e-06
	-2.087525e-06	-9.286697e-07	0.05668421	-0.04548306	-1.551804e-06	-2.074459e-06	0.07678394	-0.038869
	0.08875061	-0.03225288	-1.551804e-06	-2.074459e-06	0.06080506	-0.03612808	-2.407273e-06	-2.182896e-06
	-3.775892e-06	-1.925904e-06	0.07678394	-0.03886901	-2.407273e-06	-2.182896e-06	0.0576204	-0.05254229
2.5e+08	0.04207476	-0.0950377	-6.10409e-07	2.424746e-06	0.03320521	-0.04146019	-6.651141e-07	3.5137e-06
	-6.104091e-07	2.424746e-06	0.02362437	-0.09559035	-4.107626e-07	3.935907e-07	0.02560184	-0.0304229
	0.03320521	-0.04146019	-4.107626e-07	3.935907e-07	0.03978572	-0.09137554	-5.521354e-07	1.515621e-06
	-6.651141e-07	3.5137e-06	0.02560184	-0.0304229	-5.521354e-07	1.515621e-06	0.02373651	-0.105159
2.6e+08	-0.0132728	-0.06888655	2.634295e-06	3.064694e-07	0.03288038	0.01393434	4.442414e-06	-6.942835e-07
	2.634295e-06	3.064694e-07	-0.02458234	-0.05871314	2.054958e-06	-1.297583e-06	0.04271877	0.01779669
	0.03288038	0.01393435	2.054958e-06	-1.297583e-06	-0.01506695	-0.06645358	3.045254e-06	-1.123821e-06
	4.442414e-06	-6.942835e-07	0.04271876	0.01779669	3.045254e-06	-1.123821e-06	-0.02749108	-0.06769331
2.7e+08	0.01881662	-0.0203399	-1.617746e-07	-2.572643e-06	0.08892381	0.005307703	-7.992096e-07	-5.112902e-06
	-1.617746e-07	-2.572643e-06	0.01636058	-0.01887496	-9.621912e-08	-3.546137e-06	0.08827015	-0.007695
	0.08892382	0.005307716	-9.621908e-08	-3.546137e-06	0.01569546	-0.01805437	-2.941059e-07	-4.329416e-06
	-7.992096e-07	-5.112902e-06	0.08827015	-0.007695003	-2.94106e-07	-4.329416e-06	0.01371284	-0.02527806
2.8e+08	0.06199732	-0.06145375	-2.545908e-06	7.228866e-07	0.07322187	-0.04881363	-4.263874e-06	9.016915e-07
	-2.545908e-06	7.228866e-07	0.04841928	-0.06750007	-1.897847e-06	-1.081813e-06	0.05671613	-0.04827997
	0.07322188	-0.04881363	-1.897847e-06	-1.081813e-06	0.05886472	-0.05758006	-2.853308e-06	-4.917691e-07
	-4.263874e-06	9.016914e-07	0.05671613	-0.04827997	-2.853308e-06	-4.91769e-07	0.04766349	-0.07480618
2.9e+08	0.01366727	-0.1036821	1.196505e-06	2.659184e-06	0.0238887	-0.02681675	2.46069e-06	3.406753e-06
	1.196505e-06	2.659184e-06	-0.007240069	-0.09606373	9.727292e-07	3.296009e-07	0.02338203	-0.01192332
	0.0238887	-0.02681675	9.727291e-07	3.296009e-07	0.01212956	-0.09973514	1.535579e-06	1.468348e-06
	2.46069e-06	3.406753e-06	0.02338203	-0.01192333	1.535579e-06	1.468348e-06	-0.009740789	-0.1054667
3e+08	-0.0243753	-0.05238754	2.523613e-06	-1.561271e-06	0.05361288	0.01815539	3.84896e-06	-3.985861e-06
	2.523613e-06	-1.561271e-06	-0.03048089	-0.03887473	1.992549e-06	-2.988287e-06	0.06535987	0.01448583
	0.05361288	0.0181554	1.992549e-06	-2.988287e-06	-0.02599186	-0.04982621	2.829932e-06	-3.493129e-06
	3.84896e-06	-3.985861e-06	0.06535987	0.01448583	2.829932e-06	-3.493129e-06	-0.03561276	-0.04662267
3.1e+08	0.02986426	-0.02434925	-1.97111e-06	-2.072528e-06	0.09498199	-0.01883547	-3.837113e-06	-4.0142e-06
	-1.97111e-06	-2.072528e-06	0.02654624	-0.02605642	-1.475217e-06	-3.439331e-06	0.08542924	-0.03205195
	0.09498199	-0.01883546	-1.475217e-06	-3.439331e-06	0.02685733	-0.021324	-2.352061e-06	-3.901471e-06
	-3.837113e-06	-4.0142e-06	0.08542924	-0.03205195	-2.352061e-06	-3.901471e-06	0.02264855	-0.03153801
3.2e+08	0.04942105	-0.08492572	-1.741086e-06	2.503929e-06	0.05411812	-0.05465549	-2.51317e-06	3.65572e-06
	-1.741086e-06	2.503929e-06	0.02902376	-0.08669029	-1.298342e-06	2.071112e-08	0.03787549	-0.04451761
	0.05411813	-0.05465548	-1.298342e-06	2.071106e-08	0.04705763	-0.08029911	-1.842907e-06	1.282339e-06
	-2.51317e-06	3.65572e-06	0.03787549	-0.04451761	-1.842907e-06	1.282339e-06	0.02653321	-0.09382735
3.3e+08	-0.0164619	-0.09994298	2.925249e-06	1.550992e-06	0.0259144	-0.01095726	5.110872e-06	9.992769e-07
	2.925248e-06	1.550992e-06	-0.03492392	-0.08249693	2.315032e-06	-7.656562e-07	0.03430253	0.002911007
	0.0259144	-0.01095725	2.315032e-06	-7.656562e-07	-0.01724269	-0.09587411	3.45899e-06	-1.27941e-07
	5.110872e-06	9.992769e-07	0.03430252	0.002911006	3.45899e-06	-1.279411e-07	-0.03991073	-0.09099141
3.4e+08	-0.02461245	-0.03445591	1.073143e-06	-3.044623e-06	0.07445588	0.01007376	1.028332e-06	-6.317551e-06
	1.073143e-06	-3.044623e-06	-0.02428864	-0.02148745	8.907875e-07	-4.413475e-06	0.08290879	-0.001821012
	0.07445589	0.01007377	8.907876e-07	-4.413475e-06	-0.02605904	-0.03169243	1.080687e-06	-5.363591e-06
	1.028332e-06	-6.317551e-06	0.08290879	-0.001821013	1.080687e-06	-5.363591e-06	-0.031144	-0.02742796
3.5e+08	0.03919876	-0.03756839	-3.153611e-06	-3.391364e-07	0.08943808	-0.04218173	-5.509657e-06	-9.111966e-07
	-3.153611e-06	-3.391364e-07	0.031525	-0.04191546	-2.404954e-06	-2.391745e-06	0.07128706	-0.04991729
	0.08943809	-0.04218172	-2.404954e-06	-2.391745e-06	0.03654302	-0.03374081	-3.638124e-06	-2.084379e-06
	-5.509657e-06	-9.111967e-07	0.07128706	-0.04991729	-3.638124e-06	-2.084379e-06	0.02672196	-0.04626472
3.6e+08	0.02585396	-0.1036104	2.257424e-07	3.480553e-06	0.03778245	-0.0505343	1.033455e-06	4.70606e-06
	2.257424e-07	3.480553e-06	0.0004625862	-0.09602596	1.912044e-07	5.306143e-07	0.02756747	-0.0316223
	0.03778245	-0.0505343	1.912044e-07	5.306142e-07	0.02446863	-0.09841385	4.574695e-07	2.064065e-06
	1.033455e-06	4.70606e-06	0.02756747	-0.0316223	4.574696e-07	2.064065e-06	-0.003717424	-0.1025724
3.7e+08	-0.04143565	-0.08362203	3.598244e-06	-6.174204e-07	0.03761471	-6.776802e-05	5.673736e-06	-2.944074e-06
	3.598244e-06	-6.174204e-07	-0.05164051	-0.05810041	2.861954e-06	-2.702293e-06	0.05342558	0.007396164
	0.03761472	-6.776065e-05	2.861954e-06	-2.702293e-06	-0.04147322	-0.07957482	4.10301e-06	-2.895057e-06
	5.673736e-06	-2.944074e-06	0.05342558	0.007396164	4.10301e-06	-2.895057e-06	-0.05878343	-0.06497754
3.8e+08	-0.01451564	-0.02154463	-1.195366e-06	-3.239576e-06	0.08934066	-0.008055626	-2.898582e-06	-6.248184e-06
	-1.195366e-06	-3.239576e-06	-0.009538229	-0.01338462	-8.725194e-07	-4.868608e-06	0.08945742	-0.02547425
	0.08934067	-0.008055618	-8.725194e-07	-4.868608e-06	-0.01575035	-0.01851501	-1.560564e-06	-5.712639e-06
	-2.898582e-06	-6.248184e-06	0.08945742	-0.02547425	-1.560564e-06	-5.71264e-06	-0.01745038	-0.01711607
3.9e+08	0.04099789	-0.05840173	-2.941949e-06	1.980111e-06	0.07528569	-0.05937842	-4.625147e-06	2.851268e-06
	-2.941949e-06	1.980111e-06	0.02580059	-0.06191412	-2.293959e-06	-8.740772e-07	0.05231486	-0.05674357
	0.0752857	-0.05937842	-2.293959e-06	-8.740773e-07	0.0389505	-0.053788	-3.294526e-06	3.367816e-07
	-4.625147e-06	2.851268e-06	0.05231485	-0.05674357	-3.294526e-06	3.367817e-07	0.02045038	-0.06505225
4e+08	-0.005685192	-0.1113184	2.597879e-06	2.947393e-06	0.02861189	-0.04023861	4.832941e-06	3.054656e-06
	2.597879e-06	2.947393e-06	-0.03056086	-0.09043311	2.018726e-06	-1.054384e-07	0.02901519	-0.01667887
	0.0286119	-0.0402386	2.018726e-06	-1.054384e-07	-0.005927325	-0.1057813	3.132435e-06	1.081832e-06
	4.832941e-06	3.054656e-06	0.02901519	-0.01667887	3.132435e-06	1.081832e-06	-0.0363052	-0.09596122
4.1e+08	-0.05490566	-0.05876334	2.628979e-06	-2.893636e-06	0.05467586	0.001877445	3.420592e-06	-6.62852e-06
	2.628979e-06	-2.893636e-06	-0.05267673	-0.03067631	2.134214e-06	-4.764777e-06	0.07340462	-0.000915987
	0.05467587	0.001877452	2.134215e-06	-4.764777e-06	-0.05422849	-0.05488039	2.839887e-06	-5.702828e-06
	3.420592e-06	-6.62852e-06	0.07340461	-0.0009159866	2.839887e-06	-5.702828e-06	-0.061429	-0.03531
4.2e+08	0.00152215	-0.01901603	-3.220741e-06	-1.799288e-06	0.09464907	-0.03156688	-6.007733e-06	-3.444398e-06
	-3.220741e-06	-1.799288e-06	0.006423992	-0.01806169	-2.493476e-06	-4.061495e-06	0.08359864	-0.0490328
	0.09464908	-0.03156688	-2.493476e-06	-4.061495e-06	0.0005694673	-0.01567695	-3.85039e-06	-4.185627e-06
	-6.007733e-06	-3.444398e-06	0.08359864	-0.0490328	-3.85039e-06	-4.185627e-06	-0.00176847	-0.01942853
4.3e+08	0.03096071	-0.08168256	-1.155989e-06	3.821466e-06	0.05740226	-0.06788257	-1.179724e-06	5.347071e-06
	-1.155989e-06	3.821466e-06	0.007721144	-0.07825953	-9.789189e-07	3.17171e-07	0.03582111	-0.0527298
	0.05740227	-0.06788257	-9.789189e-07	3.17171e-07	0.02978285	-0.07637049	-1.169306e-06	2.120927e-06
	-1.179724e-06	5.347071e-06	0.0358211	-0.0527298	-1.169306e-06	2.120927e-06	0.002126675	-0.08022416
4.4e+08	-0.03854552	-0.104237	4.236433e-06	8.59884e-07	0.0280641	-0.02876753	6.915082e-06	-9.988983e-07
	4.236433e-06	8.59884e-07	-0.05469399	-0.06992614	3.318431e-06	-1.958446e-06	0.04085874	-0.006775557
	0.02806411	-0.02876752	3.318431e-06	-1.958446e-06	-0.03752222	-0.09863659	4.865855e-06	-1.647354e-06
	6.915082e-06	-9.988982e-07	0.04085874	-0.006775557	4.865855e-06	-1.647354e-06	-0.06177913	-0.07399115
4.5e+08	-0.05366962	-0.03272018	2.381526e-07	-4.082282e-06	0.07187315	-0.006217332	-9.32708e-07	-8.093606e-06
	2.381526e-07	-4.082282e-06	-0.03892302	-0.009768632	2.652292e-07	-6.021359e-06	0.08729992	-0.02009307
	0.07187316	-0.006217327	2.652293e-07	-6.021359e-06	-0.05233966	-0.0291512	-1.579026e-08	-7.181616e-06
	-9.327079e-07	-8.093606e-06	0.08729992	-0.02009307	-1.579032e-08	-7.181616e-06	-0.04851757	-0.01169781
4.6e+08	0.01646059	-0.02890914	-3.913229e-06	8.142125e-07	0.08977284	-0.05516899	-6.536668e-06	9.983975e-07
	-3.913229e-06	8.142125e-07	0.01526613	-0.03371842	-3.126281e-06	-2.316235e-06	0.06823091	-0.06615518
	0.08977285	-0.05516898	-3.126281e-06	-2.316235e-06	0.01587801	-0.02523054	-4.547002e-06	-1.369812e-06
	-6.536668e-06	9.983975e-07	0.06823091	-0.06615518	-4.547002e-06	-1.369812e-06	0.007571672	-0.03286051
4.7e+08	0.008441962	-0.1000639	1.621142e-06	4.178448e-06	0.04060761	-0.06814175	3.479071e-06	5.017371e-06
	1.621142e-06	4.178448e-06	-0.01877663	-0.08309666	1.131624e-06	4.03597e-07	0.02712728	-0.04195283
	0.04060762	-0.06814175	1.131624e-06	4.03597e-07	0.008394424	-0.09421469	2.003512e-06	2.139315e-06
	3.479071e-06	5.017371e-06	0.02712728	-0.04195283	2.003512e-06	2.139315e-06	-0.02441682	-0.08397686
4.8e+08	-0.06443378	-0.08297271	4.163927e-06	-1.999316e-06	0.03493906	-0.02057382	5.895284e-06	-5.805386e-06
	4.163927e-06	-1.999316e-06	-0.06388523	-0.04061443	3.310802e-06	-4.46283e-06	0.05842256	-0.00668068
