!$
! Info: Touchstone file created by Circ.  Input file=Tx_PCB_4dB_OSFP_27dB_OSFP_4dB_PCB_Rx_TP0_TP5_VendorY.circ
!$
# Hz S RI R 50
0	0.07096285	7.661642e-22	-0.0001038515	1.087881e-20	0.002345227	3.388499e-20	-0.0001160662	1.237196e-20
	-0.0001038493	1.087854e-20	0.07044579	5.34365e-22	-8.250519e-05	8.263116e-21	0.002275549	4.834877e-20
	0.002345287	3.387611e-20	-8.250529e-05	8.263129e-21	0.0706987	7.880598e-22	-7.917378e-05	7.854944e-21
	-0.0001160672	1.237208e-20	0.002275509	4.834891e-20	-7.91662e-05	7.854016e-21	0.07045945	5.239375e-22
1e+07	0.04869695	-0.04251752	-0.0001444578	-1.010732e-05	0.05475014	0.03841192	-0.000108893	1.933181e-05
	-0.0001444568	-1.010816e-05	0.04862574	-0.04282561	-0.0001740111	-4.900029e-05	0.0545492	0.0390594
	0.05475014	0.03841192	-0.0001740111	-4.900059e-05	0.05033091	-0.0413919	-0.0001408029	-2.501893e-05
	-0.000108893	1.933191e-05	0.0545492	0.0390594	-0.000140802	-2.502036e-05	0.05018672	-0.04164608
2e+07	0.002513555	-0.03931824	-0.000242148	0.0001180613	0.07750521	-0.0199822	-0.0001695144	8.569464e-05
	-0.000242148	0.0001180612	0.001901382	-0.03912783	-0.0003382845	0.0001466933	0.07795694	-0.01880046
	0.07750522	-0.01998211	-0.0003382845	0.0001466923	0.004955144	-0.03983771	-0.0002528009	0.00011282
	-0.0001695154	8.569421e-05	0.07795694	-0.01880056	-0.0002528009	0.0001128203	0.004167221	-0.03989914
3e+07	-0.004337409	-0.002203205	-9.905649e-05	0.0004445247	0.01743291	-0.02580086	-8.34361e-05	0.0003350706
	-9.905649e-05	0.0004445247	-0.00483439	-0.001883258	-0.000129852	0.000578272	0.01781267	-0.02565768
	0.01743292	-0.02580076	-0.0001298531	0.0005782711	-0.003507261	-0.003257384	-0.000106822	0.0004501253
	-8.34361e-05	0.0003350706	0.01781267	-0.02565768	-0.000106821	0.0004501252	-0.004432641	-0.003012204
4e+07	0.02235698	0.001252907	0.0004068819	0.0004081608	0.02925861	0.03211125	0.000308316	0.0003209468
	0.0004068809	0.0004081609	0.02103254	0.001695799	0.0005103559	0.0005315299	0.02787992	0.03341279
	0.02925861	0.03211125	0.000510355	0.0005315301	0.02308465	0.001809593	0.0004050793	0.0004177723
	0.0003083152	0.0003209479	0.02787982	0.0334128	0.0004050803	0.0004177722	0.02150178	0.002294954
5e+07	0.01691558	-0.02003464	0.0006527804	-3.793409e-05	0.08196055	0.00455449	0.0005074654	-1.523266e-05
	0.0006527805	-3.79336e-05	0.0154554	-0.01833753	0.0008498878	-3.590162e-05	0.08212816	0.008074248
	0.08196045	0.00455451	0.000849888	-3.590064e-05	0.01939614	-0.01985191	0.0006597322	-2.917296e-05
	0.0005074645	-1.52317e-05	0.08212816	0.008074246	0.0006597322	-2.917305e-05	0.01770166	-0.01826776
6e+07	-0.002731544	-0.007483178	0.0005262992	-0.0006753644	0.04220162	-0.03909999	0.0004333453	-0.000523148
	0.0005262992	-0.0006753644	-0.003546785	-0.005965116	0.0006679085	-0.0008671011	0.0439618	-0.03770374
	0.04220167	-0.0390998	0.0006679085	-0.0008671011	-0.0008678388	-0.009069124	0.0005379316	-0.0006731428
	0.0004333455	-0.000523147	0.04396191	-0.03770366	0.0005379317	-0.0006731428	-0.002090314	-0.007625383
7e+07	0.01449071	0.01003428	-0.0003672406	-0.0009776933	0.01169127	0.01038316	-0.0002817105	-0.0007868729
	-0.0003672396	-0.0009776936	0.01217147	0.01142394	-0.0004449627	-0.001225695	0.009949991	0.01112478
	0.01169136	0.01038316	-0.0004449618	-0.001225695	0.01472103	0.009282093	-0.0003527021	-0.0009858006
	-0.0002817094	-0.0007868722	0.009949962	0.01112479	-0.0003527021	-0.0009858006	0.01206457	0.01076248
8e+07	0.02718487	-0.01015651	-0.001038332	-0.0002649666	0.06820479	0.02589305	-0.0008235638	-0.0002187785
	-0.001038332	-0.0002649666	0.02452048	-0.00637252	-0.001299707	-0.0003786902	0.06633662	0.03125797
	0.06820475	0.02589295	-0.001299708	-0.0003786912	0.0286839	-0.009586842	-0.001035618	-0.0002870795
	-0.0008235638	-0.0002187785	0.06633662	0.03125797	-0.001035617	-0.0002870786	0.02578912	-0.005795917
9e+07	0.004734537	-0.01627039	-0.001005184	0.0006373817	0.06903473	-0.03295328	-0.0008109998	0.0004944034
	-0.001005184	0.0006373808	0.004070612	-0.0125026	-0.001298637	0.0007935106	0.07176459	-0.02841808
	0.06903464	-0.03295323	-0.001298638	0.0007935097	0.00737784	-0.01746418	-0.001023527	0.0006189548
	-0.0008110001	0.0004944024	0.07176456	-0.02841818	-0.001023527	0.0006189548	0.00635058	-0.01371847
1e+08	0.005522456	0.008721728	-7.988845e-05	0.001462821	0.01296635	-0.01855717	-7.718295e-05	0.00118008
	-7.988838e-05	0.001462821	0.003041096	0.01087788	-0.0001240567	0.001823382	0.01275292	-0.01830964
	0.01296639	-0.01855708	-0.0001240576	0.001823382	0.006162169	0.006560683	-0.0001130565	0.001465146
	-7.718391e-05	0.00118008	0.01275292	-0.01830964	-0.0001130556	0.001465146	0.003345417	0.008893189
1.1e+08	0.03165409	0.001743974	0.001276994	0.0008656178	0.04291024	0.03114474	0.001028262	0.0006960953
	0.001276994	0.0008656178	0.02708781	0.007353742	0.001538014	0.001133934	0.03836248	0.03645934
	0.04291019	0.03114465	0.001538014	0.001133934	0.03175533	0.001686764	0.001255767	0.0009018287
	0.001028262	0.0006960953	0.03836248	0.03645934	0.001255768	0.0009018283	0.02709817	0.007405962
1.2e+08	0.01936733	-0.02191345	0.001462317	-0.0004101631	0.08396359	-0.01134888	0.001169175	-0.0003236825
	0.001462317	-0.0004101622	0.01844259	-0.01431492	0.001876903	-0.0004338768	0.0855579	-0.002289489
	0.08396359	-0.01134888	0.001876903	-0.0004338768	0.02175261	-0.02214596	0.001480871	-0.0003669184
	0.001169176	-0.0003236816	0.0855579	-0.002289489	0.001480871	-0.0003669184	0.0206567	-0.01452262
1.3e+08	0.00040185	-0.003356387	0.0007694598	-0.001610912	0.03323415	-0.0404816	0.0006310158	-0.001295488
	0.0007694598	-0.001610912	-0.0004633238	0.0003968348	0.001024671	-0.002002877	0.03639915	-0.03849454
	0.03323415	-0.0404816	0.001024671	-0.002002877	0.002016802	-0.006100341	0.0008218665	-0.001594254
	0.0006310159	-0.001295488	0.03639915	-0.03849454	0.0008218665	-0.001594254	0.001056534	-0.002121632
1.4e+08	0.02604614	0.01096259	-0.001109448	-0.00168981	0.01979694	0.01578046	-0.0009044246	-0.001366788
	-0.001109448	-0.00168981	0.01993728	0.01695984	-0.001282931	-0.002141047	0.01426897	0.01889775
	0.01979707	0.01578048	-0.001282931	-0.002141047	0.02522278	0.009441819	-0.001055575	-0.001728182
	-0.0009044237	-0.001366788	0.01426895	0.01889776	-0.001055575	-0.001728182	0.01928837	0.01550994
1.5e+08	0.03558597	-0.01858442	-0.001934662	-3.64182e-05	0.07897361	0.01313857	-0.001554316	-1.56395e-05
	-0.001934662	-3.641823e-05	0.03267887	-0.006444055	-0.002406691	-0.0002034944	0.07650796	0.02588298
	0.0789736	0.01313857	-0.002406696	-0.0002035031	0.03653102	-0.01807023	-0.001935044	-0.0001080592
	-0.001554316	-1.56395e-05	0.07650795	0.02588298	-0.001935044	-0.0001080592	0.03357076	-0.006073798
1.6e+08	0.005866241	-0.02114007	-0.001426622	0.001433507	0.06240865	-0.044245	-0.001147718	0.001150072
	-0.001426622	0.001433507	0.007829828	-0.01313685	-0.001903451	0.001724814	0.06856981	-0.03664883
	0.06240857	-0.04424495	-0.001903451	0.001724814	0.008390822	-0.02307851	-0.001485681	0.001382353
	-0.001147718	0.001150071	0.06856981	-0.03664883	-0.001485681	0.001382353	0.01024501	-0.01487698
1.7e+08	0.01298344	0.008966867	0.0003941666	0.002375745	0.01244907	-0.01389335	0.0003270058	0.00192885
	0.0003941666	0.002375745	0.008073337	0.01420702	0.0003560738	0.002973559	0.009998143	-0.01307237
	0.01244911	-0.01389331	0.0003560685	0.002973551	0.01248747	0.005838519	0.0003018287	0.002394034
	0.0003270058	0.00192885	0.009998141	-0.01307237	0.0003018287	0.002394034	0.00797464	0.01122623
1.8e+08	0.04361176	-0.006884947	0.00228664	0.0008726632	0.05657552	0.02545221	0.001861161	0.0006789034
	0.00228664	0.0008726632	0.03700194	0.00799536	0.002737754	0.001268255	0.04879022	0.03820006
	0.0565756	0.02545214	0.002737754	0.001268255	0.0425669	-0.006772207	0.002248641	0.0009684084
	0.001861161	0.0006789034	0.04879013	0.03820011	0.00224865	0.0009684027	0.03614377	0.007705003
1.9e+08	0.02256172	-0.0342928	0.002008553	-0.001110102	0.084754	-0.0285094	0.001600741	-0.0009058809
	0.002008553	-0.001110102	0.02596408	-0.01883685	0.002637573	-0.001196954	0.09019175	-0.01244984
	0.08475393	-0.02850933	0.002637573	-0.001196954	0.02483319	-0.03456216	0.002059917	-0.001019291
	0.001600741	-0.0009058801	0.09019175	-0.01244984	0.002059917	-0.001019291	0.02796553	-0.01906462
2e+08	0.002534522	-0.007771072	0.0006055674	-0.002563597	0.02650862	-0.04313817	0.0004827583	-0.002077249
	0.0006055674	-0.002563597	0.003037834	-0.001650984	0.0009470069	-0.003174628	0.03111093	-0.04074402
	0.02650864	-0.04313804	0.0009470069	-0.003174628	0.003494117	-0.01147544	0.0007238537	-0.002536826
	0.0004827583	-0.002077249	0.03111093	-0.04074402	0.0007238537	-0.002536826	0.004463904	-0.004949295
2.1e+08	0.03677635	0.004142405	-0.002119061	-0.002052476	0.02930976	0.01607483	-0.001749792	-0.001644006
	-0.002119061	-0.002052476	0.02753626	0.01777349	-0.002430703	-0.002699785	0.0191934	0.02435397
	0.02930983	0.01607489	-0.002430696	-0.002699779	0.03442062	0.002541203	-0.002018957	-0.002151154
	-0.001749792	-0.001644006	0.01919337	0.02435399	-0.002018957	-0.002151154	0.02588669	0.01562392
2.2e+08	0.04224438	-0.03452084	-0.002672587	0.0005868143	0.08749312	-0.003470901	-0.002141367	0.0005179392
	-0.002672587	0.0005868144	0.04307316	-0.01097266	-0.00336931	0.0004167924	0.08682145	0.01967421
	0.08749317	-0.003470979	-0.00336931	0.0004167924	0.04269128	-0.03339606	-0.002697296	0.0004504969
	-0.002141367	0.0005179392	0.08682146	0.01967421	-0.002697296	0.0004504969	0.04318422	-0.01035342
2.3e+08	0.004951767	-0.03257324	-0.001475592	0.002331275	0.05533552	-0.05662648	-0.001170354	0.001884501
	-0.001475593	0.002331275	0.01309105	-0.0204018	-0.002100836	0.002789612	0.06696556	-0.04583508
	0.05533544	-0.05662642	-0.002100836	0.002789612	0.007344323	-0.03505685	-0.00159639	0.00225117
	-0.001170355	0.001884501	0.06696556	-0.04583509	-0.00159639	0.00225117	0.01561744	-0.02227177
2.4e+08	0.01839572	0.002390084	0.001195818	0.003065529	0.01348307	-0.01299576	0.001005644	0.002484252
	0.001195818	0.003065529	0.01207395	0.01192096	0.001206713	0.003898908	0.008329563	-0.01022788
	0.01348311	-0.01299573	0.001206713	0.003898908	0.01646543	-0.001283935	0.001028321	0.003122699
	0.001005644	0.002484252	0.008329563	-0.01022788	0.001028328	0.003122706	0.01146839	0.007984121
2.5e+08	0.0520572	-0.02234824	0.003284888	0.0004626353	0.06841367	0.01432875	0.002674885	0.0003074649
	0.003284888	0.0004626354	0.04676038	0.005061035	0.003959685	0.0009419644	0.05903075	0.03806981
	0.06841372	0.01432867	0.003959685	0.0009419645	0.04986481	-0.02140686	0.003248758	0.0006444771
	0.002674885	0.0003074649	0.05903076	0.03806981	0.003248758	0.0006444771	0.04466312	0.004687265
2.6e+08	0.02172229	-0.05200048	0.002220619	-0.002012518	0.08264722	-0.04780205	0.001745626	-0.001649233
	0.002220619	-0.002012518	0.03452549	-0.0281875	0.003035953	-0.002215182	0.09535896	-0.0235359
	0.08264713	-0.0478021	0.003035947	-0.002215174	0.02406962	-0.05195314	0.002328797	-0.001877422
	0.001745627	-0.001649232	0.09535888	-0.02353583	0.002328796	-0.001877423	0.03628946	-0.02786319
2.7e+08	0.001391567	-0.01746262	9.72773e-05	-0.003394606	0.01984163	-0.04796686	4.831904e-05	-0.002751393
	9.727729e-05	-0.003394607	0.005672846	-0.009501303	0.0004782103	-0.004228889	0.02694811	-0.04499344
	0.01984166	-0.04796686	0.0004782103	-0.004228889	0.001575582	-0.02189084	0.000298032	-0.00337338
	4.831903e-05	-0.002751393	0.02694811	-0.04499345	0.000298032	-0.00337338	0.00730212	-0.01339179
2.8e+08	0.04318265	-0.008769393	-0.003254739	-0.002047861	0.03777098	0.01106854	-0.00269514	-0.001607876
	-0.003254739	-0.002047861	0.03336775	0.01472359	-0.003743543	-0.002867154	0.02410691	0.02733257
	0.03777102	0.01106845	-0.003743543	-0.002867154	0.03920208	-0.009893101	-0.003112434	-0.002237591
	-0.00269514	-0.001607877	0.02410691	0.02733257	-0.003112434	-0.002237591	0.03060422	0.01180801
2.9e+08	0.04316102	-0.05526672	-0.003163222	0.001517004	0.09182521	-0.02373748	-0.002510958	0.001303567
	-0.003163221	0.001517004	0.053233	-0.01909343	-0.004087323	0.001403595	0.09678802	0.01204457
	0.09182521	-0.02373748	-0.004087323	0.001403595	0.04334261	-0.05305126	-0.00324232	0.00131055
	-0.002510958	0.001303567	0.09678795	0.01204464	-0.00324232	0.00131055	0.05233331	-0.01782701
3e+08	-0.0009195326	-0.04771164	-0.001161745	0.003203603	0.04591022	-0.07033959	-0.0008904446	0.002587778
	-0.001161746	0.003203603	0.0176449	-0.03283446	-0.001883455	0.003853192	0.06600326	-0.05651682
	0.0459101	-0.07033953	-0.001883462	0.003853187	0.001496668	-0.05048658	-0.001357524	0.00310821
	-0.0008904454	0.002587777	0.06600319	-0.05651675	-0.001357523	0.003108211	0.02058554	-0.03439536
3.1e+08	0.01891075	-0.008832945	0.002207226	0.003470526	0.01346006	-0.01589827	0.001855073	0.002797274
	0.002207226	0.003470525	0.01354547	0.005216518	0.002306023	0.004522648	0.006877762	-0.009917819
	0.01346011	-0.01589826	0.002306023	0.004522648	0.01551158	-0.01266897	0.001957988	0.003588969
	0.001855073	0.002797275	0.006877762	-0.009917819	0.001957988	0.003588969	0.01265688	0.0001966327
3.2e+08	0.05390579	-0.04217124	0.004168104	-0.0003123627	0.07604995	-0.001423912	0.003382292	-0.0003698814
	0.004168104	-0.0003123627	0.05483528	-0.00087876	0.005091265	0.0002059108	0.06855178	0.03584314
	0.07604997	-0.001424007	0.005091265	0.0002059107	0.05074113	-0.03987234	0.004158234	-2.367362e-05
	0.003382292	-0.0003698814	0.06855178	0.03584314	0.004158234	-2.367361e-05	0.05116911	-0.001268796
3.3e+08	0.01418455	-0.0722346	0.002069783	-0.00301075	0.07585402	-0.06858788	0.001583708	-0.002461637
	0.002069784	-0.00301075	0.04204226	-0.04162724	0.003036089	-0.003380037	0.1002667	-0.03595133
	0.07585393	-0.0685879	0.003036089	-0.003380037	0.01692594	-0.07158205	0.002258599	-0.002846219
	0.001583708	-0.002461637	0.1002666	-0.03595125	0.002258599	-0.002846219	0.04357807	-0.04020351
3.4e+08	-0.005452617	-0.029835	-0.0006812602	-0.004010666	0.01103261	-0.05471057	-0.0006056149	-0.003240126
	-0.0006812602	-0.004010666	0.005705236	-0.02190682	-0.0003115897	-0.005058747	0.02303012	-0.05138514
	0.0110326	-0.05471047	-0.0003115897	-0.005058747	-0.005922297	-0.03477311	-0.0003928182	-0.004011439
	-0.0006056108	-0.003240135	0.02303012	-0.05138514	-0.0003928182	-0.004011439	0.007977165	-0.02629939
3.5e+08	0.04282975	-0.02495414	-0.004407309	-0.001690695	0.0426086	0.001842228	-0.003647418	-0.001275037
	-0.004407309	-0.001690694	0.03621564	0.008805003	-0.005101461	-0.00265207	0.02826734	0.0278757
	0.04260859	0.001842227	-0.005101462	-0.002652069	0.03734243	-0.0251703	-0.004230799	-0.001997465
	-0.003647418	-0.001275037	0.02826728	0.02787578	-0.00423079	-0.001997461	0.03221511	0.004909993
3.6e+08	0.03617435	-0.07779427	-0.003350466	0.002667847	0.09012809	-0.04629427	-0.00261834	0.002265794
	-0.003350466	0.002667847	0.06157777	-0.03025123	-0.004497199	0.002668009	0.1057334	0.002764089
	0.0901281	-0.04629437	-0.004497199	0.002668009	0.03645323	-0.0741124	-0.003516867	0.002392494
	-0.00261834	0.002265794	0.1057334	0.002764089	-0.003516867	0.002392494	0.05936736	-0.02792426
3.7e+08	-0.01362041	-0.06356767	-0.0005128944	0.003947985	0.03244129	-0.08450798	-0.0003356845	0.003173936
	-0.0005128944	0.003947985	0.01967644	-0.04932	-0.001272245	0.004806054	0.06479391	-0.06878015
	0.03244119	-0.08450789	-0.001272245	0.004806054	-0.01087366	-0.06648287	-0.0007913583	0.003859599
	-0.0003356846	0.003173936	0.06479391	-0.06878015	-0.0007913593	0.003859598	0.02339048	-0.05011198
3.8e+08	0.01267129	-0.02154785	0.003327491	0.003558892	0.01011813	-0.02144878	0.002787732	0.002844298
	0.003327491	0.003558892	0.01123301	-0.004525989	0.003546833	0.004799919	0.004826007	-0.01200791
	0.01011816	-0.0214488	0.003546833	0.004799919	0.007937247	-0.02531824	0.002996099	0.003756511
	0.002787732	0.002844298	0.004826007	-0.01200791	0.002996099	0.003756511	0.01032946	-0.01085819
3.9e+08	0.04754853	-0.06300785	0.004860092	-0.001390105	0.07760573	-0.01992129	0.003920978	-0.00129708
	0.004860092	-0.001390105	0.06007754	-0.008997376	0.006045687	-0.0008758469	0.07672321	0.03159716
	0.07760573	-0.01992129	0.006045687	-0.0008758469	0.04373008	-0.05897989	0.004903038	-0.0009769146
	0.003920978	-0.00129708	0.07672316	0.03159724	0.004903038	-0.0009769146	0.05448443	-0.00933893
4e+08	-0.001312454	-0.09165902	0.001552056	-0.004006573	0.06304132	-0.08929702	0.00111435	-0.003259447
	0.001552056	-0.004006573	0.04688987	-0.05820015	0.002627614	-0.004588342	0.1040871	-0.04975505
	0.06304132	-0.08929702	0.002627614	-0.004588342	0.00225283	-0.09023029	0.001843754	-0.003834985
	0.00111435	-0.003259447	0.1040871	-0.04975497	0.001843754	-0.003834985	0.04824994	-0.05507069
4.1e+08	-0.01924216	-0.04154923	-0.001655097	-0.004344515	-0.001643778	-0.06200099	-0.001412994	-0.003488245
	-0.001655098	-0.004344515	0.001740978	-0.03738914	-0.001349572	-0.005584306	0.01849232	-0.05973077
	-0.001643795	-0.06200098	-0.001349572	-0.005584306	-0.02009666	-0.04693242	-0.001282891	-0.004384068
	-0.001412994	-0.003488245	0.01849232	-0.05973077	-0.001282891	-0.004384068	0.00519494	-0.04218215
4.2e+08	0.03470145	-0.04091086	-0.005479705	-0.001004368	0.04206064	-0.0096293	-0.004525452	-0.0006694703
	-0.005479705	-0.001004368	0.03521332	0.001189499	-0.006394028	-0.00207161	0.03108585	0.02618359
	0.04206074	-0.009629316	-0.006394018	-0.002071615	0.02793652	-0.03996872	-0.005279181	-0.001449989
	-0.004525452	-0.0006694703	0.03108585	0.02618359	-0.005279171	-0.001449985	0.02987333	-0.003945125
4.3e+08	0.02060819	-0.09855218	-0.003197714	0.003951567	0.08122872	-0.06897718	-0.002435382	0.003329584
	-0.003197714	0.003951567	0.06686528	-0.04357284	-0.004554144	0.004116061	0.1129454	-0.00816678
	0.08122871	-0.06897718	-0.004554144	0.004116061	0.02143879	-0.09320674	-0.003485394	0.003613022
	-0.002435373	0.003329586	0.1129454	-0.008166781	-0.003485394	0.003613022	0.06310448	-0.03975238
4.4e+08	-0.03366601	-0.07668083	0.0004265215	0.004481593	0.01379955	-0.0973895	0.0004541511	0.003573504
	0.0004265214	0.004481593	0.01778856	-0.06844851	-0.0003073205	0.005557579	0.06246682	-0.08244123
	0.01379955	-0.0973895	-0.0003073204	0.005557579	-0.03018409	-0.0797424	6.378019e-05	0.004427933
	0.0004541511	0.003573504	0.06246686	-0.08244109	6.378113e-05	0.004427933	0.02273816	-0.06801994
4.5e+08	-0.0007196501	-0.0321976	0.00445597	0.003316748	0.001975338	-0.02760654	0.003717014	0.00261718
	0.00445597	0.003316748	0.004311528	-0.01583844	0.004821613	0.004703901	0.001494165	-0.01618014
	0.001975366	-0.02760645	0.004821613	0.004703901	-0.006555915	-0.03585542	0.004048231	0.003606715
	0.003717014	0.00261718	0.001494165	-0.01618014	0.004048231	0.003606715	0.003742041	-0.02375644
4.6e+08	0.03296194	-0.08123132	0.005290821	-0.002703602	0.07200888	-0.03871493	0.004235346	-0.002415461
	0.005290821	-0.002703602	0.06173046	-0.01827157	0.006738936	-0.002233513	0.08296213	0.02542139
	0.07200894	-0.03871505	0.006738936	-0.002233513	0.02885769	-0.07529018	0.005414477	-0.002151864
	0.004235346	-0.002415461	0.08296214	0.02542138	0.005414477	-0.002151864	0.05389504	-0.01851898
4.7e+08	-0.02461141	-0.1067862	0.0006800705	-0.004911748	0.0435799	-0.1077178	0.0003501232	-0.003968824
	0.0006800705	-0.004911748	0.04783207	-0.07672881	0.001819898	-0.005744014	0.1060277	-0.06481533
	0.04357987	-0.1077179	0.001819898	-0.005744014	-0.01974206	-0.1045917	0.001095876	-0.004761091
	0.0003501232	-0.003968824	0.1060277	-0.06481533	0.001095876	-0.004761091	0.04916745	-0.07131911
4.8e+08	-0.03961126	-0.04911517	-0.002740221	-0.004348537	-0.01909155	-0.06772888	-0.002300542	-0.003457427
	-0.002740221	-0.004348537	-0.006990255	-0.05428321	-0.002552113	-0.005747439	0.01261381	-0.06960765
	-0.01909151	-0.06772879	-0.002552113	-0.005747439	-0.04053496	-0.05505377	-0.002296716	-0.00444484
	-0.002300542	-0.003457427	0.01261378	-0.06960756	-0.002296716	-0.00444484	-0.001744635	-0.05943726
4.9e+08	0.01936709	-0.05301162	-0.006382615	-3.404582e-05	0.03528539	-0.0207054	-0.005254674	0.0001663675
	-0.006382615	-3.404582e-05	0.02983976	-0.006785907	-0.007516903	-0.001165386	0.03200132	0.02259543
	0.03528552	-0.02070536	-0.007516903	-0.001165386	0.01158608	-0.05086531	-0.006169001	-0.0006345974
