!$
! Info: Touchstone file created by Circ.  Input file=Tx_PCB_4dB_OSFP_22dB_OSFP_4dB_PCB_Rx_TP0_TP5_VendorX.circ
!$
# Hz S RI R 50
0	0.05302478	-9.008186e-14	-2.40371e-05	7.535075e-18	0.01302383	4.349457e-13	-2.571254e-05	7.821171e-18
	-2.40371e-05	7.536414e-18	0.05008618	1.96145e-13	-2.242554e-05	1.186835e-17	0.01324979	4.652449e-13
	0.01302399	4.35228e-13	-2.242554e-05	1.187077e-17	0.05028904	3.139729e-13	-2.414888e-05	1.212009e-17
	-2.571254e-05	7.827777e-18	0.01324981	4.656908e-13	-2.414888e-05	1.212297e-17	0.05536366	2.103457e-13
1e+07	0.08562852	0.01945394	-6.462388e-05	4.553046e-05	0.0475781	0.04061491	-2.047987e-05	6.318637e-06
	-6.462388e-05	4.553046e-05	0.08305068	0.02026183	-1.98148e-05	4.257113e-05	0.0474584	0.04080823
	0.04757815	0.04061494	-1.98148e-05	4.257113e-05	0.08277514	0.01879274	-6.50339e-05	4.445663e-05
	-2.047987e-05	6.318638e-06	0.0474584	0.04080824	-6.50339e-05	4.445663e-05	0.09046371	0.02192763
2e+07	0.1108335	-0.02155386	-3.561903e-05	5.414607e-05	0.09544396	0.01103879	-3.0423e-05	1.153179e-06
	-3.561902e-05	5.414606e-05	0.1081061	-0.01879234	6.717854e-06	3.59293e-05	0.09490003	0.0121996
	0.09544403	0.01103875	6.717855e-06	3.592929e-05	0.1068742	-0.02161172	-4.138765e-05	5.30843e-05
	-3.0423e-05	1.153175e-06	0.09490005	0.0121996	-4.138765e-05	5.30843e-05	0.1177958	-0.0188108
3e+07	0.0789349	-0.06487872	-1.957754e-05	5.63605e-05	0.07661052	-0.04365203	-3.946027e-05	2.619883e-05
	-1.957755e-05	5.636049e-05	0.07817302	-0.06077646	1.071909e-05	1.947915e-05	0.07651573	-0.04137378
	0.07661052	-0.0436521	1.071909e-05	1.947915e-05	0.07533384	-0.06364261	-2.462342e-05	6.17543e-05
	-3.946028e-05	2.619883e-05	0.07651574	-0.0413738	-2.462342e-05	6.17543e-05	0.0874203	-0.06380211
4e+07	0.02772422	-0.05296617	6.3776e-06	7.709857e-05	0.01870443	-0.03741734	-9.635302e-06	6.567423e-05
	6.377596e-06	7.709858e-05	0.02807624	-0.05044694	1.635474e-05	3.079969e-05	0.01927311	-0.03501424
	0.01870441	-0.03741735	1.635474e-05	3.079969e-05	0.02537212	-0.05175897	6.430388e-06	8.259363e-05
	-9.635302e-06	6.567424e-05	0.0192731	-0.03501424	6.430387e-06	8.259362e-05	0.03479947	-0.05435725
5e+07	0.02528324	-0.005141731	6.829289e-05	5.936453e-05	0.01419939	0.02024313	5.1844e-05	5.8942e-05
	6.829289e-05	5.936453e-05	0.02289772	-0.003390184	5.537629e-05	1.103176e-05	0.01432943	0.02243344
	0.01419941	0.02024313	5.537629e-05	1.103176e-05	0.0229896	-0.00506846	6.759509e-05	6.570281e-05
	5.1844e-05	5.8942e-05	0.01432943	0.02243344	6.759509e-05	6.570281e-05	0.02853374	-0.005650318
6e+07	0.07004159	0.005422831	7.597893e-05	-6.407013e-06	0.07007592	0.03481041	7.993962e-05	5.470197e-06
	7.597892e-05	-6.407004e-06	0.06529386	0.01132225	3.509125e-05	-4.491692e-05	0.06915314	0.03799286
	0.07007594	0.03481036	3.509125e-05	-4.491691e-05	0.06652214	0.005375088	8.420705e-05	4.452233e-06
	7.993962e-05	5.470197e-06	0.06915315	0.03799286	8.420704e-05	4.452232e-06	0.07255837	0.009940903
7e+07	0.09248592	-0.03693561	4.902374e-05	-2.319222e-05	0.096313	-0.0167	6.894018e-05	-4.363583e-05
	4.902375e-05	-2.319221e-05	0.09128048	-0.02625793	-1.245515e-05	-2.881109e-05	0.09556488	-0.01147137
	0.09631297	-0.01670005	-1.245515e-05	-2.881109e-05	0.08850073	-0.035672	6.694698e-05	-2.655438e-05
	6.894018e-05	-4.363583e-05	0.09556489	-0.01147138	6.694697e-05	-2.655438e-05	0.1000933	-0.02949853
8e+07	0.05992512	-0.07337737	5.995692e-05	-4.727485e-05	0.05297242	-0.05411318	3.681832e-05	-8.693498e-05
	5.995693e-05	-4.727486e-05	0.06436543	-0.06446185	1.136049e-05	-1.061486e-05	0.05393846	-0.04795226
	0.05297238	-0.05411319	1.136049e-05	-1.061486e-05	0.05702576	-0.07124266	6.43137e-05	-6.271003e-05
	3.681832e-05	-8.693499e-05	0.05393846	-0.04795227	6.43137e-05	-6.271003e-05	0.07211	-0.07025817
9e+07	0.01748667	-0.05540522	7.86883e-06	-0.000107763	0.007974203	-0.02022117	-3.731778e-05	-0.0001077259
	7.868822e-06	-0.0001077631	0.02080107	-0.05206204	-4.076546e-06	-5.918848e-05	0.009748367	-0.01510919
	0.007974201	-0.02022115	-4.076547e-06	-5.918848e-05	0.01557096	-0.0540288	2.520806e-06	-0.0001155057
	-3.731779e-05	-0.0001077259	0.009748365	-0.01510919	2.520812e-06	-0.0001155057	0.0260171	-0.05811886
1e+08	0.02588188	-0.01415946	-8.850229e-05	-5.660396e-05	0.03356857	0.02975897	-0.0001115299	-4.890496e-05
	-8.850228e-05	-5.660396e-05	0.02241427	-0.009746791	-7.684457e-05	-2.393538e-05	0.03377102	0.03443908
	0.03356859	0.02975895	-7.684457e-05	-2.393539e-05	0.02329674	-0.01375366	-9.472276e-05	-6.622833e-05
	-0.0001115299	-4.890496e-05	0.03377102	0.03443908	-9.472276e-05	-6.622833e-05	0.02690842	-0.01402708
1.1e+08	0.06803712	-0.0165142	-6.498504e-05	2.127453e-05	0.08798246	0.01348523	-0.000108246	3.475049e-05
	-6.498505e-05	2.127451e-05	0.06377742	-0.003412436	-3.87145e-05	4.312833e-05	0.08675759	0.02045015
	0.08798243	0.0134852	-3.87145e-05	4.312833e-05	0.06426978	-0.01547682	-8.877153e-05	1.569181e-05
	-0.000108246	3.475049e-05	0.0867576	0.02045015	-8.877153e-05	1.569181e-05	0.06993728	-0.007154433
1.2e+08	0.07752879	-0.06105631	-4.816224e-05	1.851649e-05	0.08441308	-0.04328493	-6.917197e-05	8.616273e-05
	-4.816227e-05	1.85165e-05	0.08199866	-0.04386771	-6.40433e-06	5.292193e-06	0.08465899	-0.03344947
	0.08441303	-0.04328493	-6.404334e-06	5.292195e-06	0.07404518	-0.05855995	-6.758473e-05	4.285046e-05
	-6.917197e-05	8.616273e-05	0.08465899	-0.03344948	-6.758472e-05	4.285045e-05	0.08922202	-0.04966471
1.3e+08	0.03812929	-0.08630102	-6.105818e-05	7.551586e-05	0.02946725	-0.05307655	-1.208708e-05	0.0001239157
	-6.105818e-05	7.551588e-05	0.04877879	-0.07607448	-6.058217e-05	2.53411e-05	0.03266108	-0.04326102
	0.02946724	-0.05307652	-6.058217e-05	2.534111e-05	0.03607103	-0.08359643	-4.998332e-05	9.884105e-05
	-1.208708e-05	0.0001239157	0.03266107	-0.04326103	-4.998332e-05	9.884105e-05	0.05440856	-0.08407182
1.4e+08	0.004109711	-0.05862089	4.623189e-05	0.0001212131	0.009250431	-0.002095091	8.485919e-05	0.000118436
	4.62319e-05	0.0001212131	0.008846793	-0.0552912	1.14792e-06	0.0001081539	0.01263366	0.005321628
	0.009250447	-0.002095082	1.147923e-06	0.0001081539	0.002488575	-0.05712016	5.64656e-05	0.0001274974
	8.485919e-05	0.000118436	0.01263366	0.005321626	5.646559e-05	0.0001274974	0.01194304	-0.06297392
1.5e+08	0.02334659	-0.0235965	0.0001146494	1.329157e-05	0.05647435	0.02672076	0.0001507899	2.623627e-05
	0.0001146494	1.329158e-05	0.01949272	-0.01447385	9.432802e-05	3.562842e-05	0.05683034	0.03423599
	0.05647435	0.02672074	9.432802e-05	3.562843e-05	0.02054353	-0.02260057	0.00012961	2.810376e-05
	0.0001507899	2.623627e-05	0.05683035	0.03423599	0.00012961	2.810376e-05	0.02221915	-0.02023932
1.6e+08	0.06143618	-0.03800218	5.238948e-05	-3.805764e-05	0.09467777	-0.01473346	0.000126847	-7.168836e-05
	5.23895e-05	-3.805762e-05	0.06165211	-0.01744345	3.714765e-05	-2.532098e-05	0.09392698	-0.0031756
	0.09467774	-0.01473347	3.714765e-05	-2.532098e-05	0.05782403	-0.03575858	8.921301e-05	-4.653799e-05
	0.000126847	-7.168836e-05	0.09392699	-0.003175605	8.9213e-05	-4.653798e-05	0.06607397	-0.02297872
1.7e+08	0.05750407	-0.08243485	6.302003e-05	-3.212648e-05	0.06352689	-0.0613819	6.911255e-05	-0.0001301609
	6.302004e-05	-3.212651e-05	0.07045787	-0.06214838	4.68281e-05	2.023796e-05	0.06617395	-0.04668498
	0.06352686	-0.06138187	4.68281e-05	2.023795e-05	0.05488396	-0.07893219	7.046204e-05	-7.308919e-05
	6.911256e-05	-0.0001301609	0.06617395	-0.04668498	7.046204e-05	-7.308918e-05	0.07545593	-0.06984715
1.8e+08	0.01306736	-0.09475688	4.019569e-05	-0.0001256917	0.01237289	-0.04233014	-2.066859e-05	-0.0001694317
	4.019567e-05	-0.0001256917	0.02895883	-0.08619986	0.0001069774	-6.859954e-05	0.0188102	-0.02939358
	0.0123729	-0.04233012	0.0001069774	-6.859954e-05	0.01186714	-0.09175432	1.731829e-05	-0.0001437892
	-2.06686e-05	-0.0001694317	0.0188102	-0.02939358	1.73183e-05	-0.0001437892	0.03192035	-0.09564225
1.9e+08	-0.0104146	-0.05862292	-0.000111764	-0.0001101156	0.02139433	0.01081236	-0.0001494375	-0.0001251904
	-0.000111764	-0.0001101156	-0.005422194	-0.05458655	-2.850852e-05	-0.0001555972	0.02645517	0.02028228
	0.02139435	0.01081236	-2.850853e-05	-0.0001555972	-0.01183517	-0.0569453	-0.0001229592	-0.000117564
	-0.0001494375	-0.0001251904	0.02645517	0.02028227	-0.0001229592	-0.000117564	-0.004870115	-0.0631337
2e+08	0.01843149	-0.03192869	-0.0001167105	3.472891e-05	0.0765066	0.01116526	-0.000194276	1.584304e-05
	-0.0001167105	3.472889e-05	0.01669302	-0.01664619	-0.0001166456	-3.203363e-05	0.07724183	0.0223658
	0.07650659	0.01116524	-0.0001166457	-3.203363e-05	0.01561453	-0.03011943	-0.0001480156	2.212041e-05
	-0.000194276	1.584304e-05	0.07724183	0.0223658	-0.0001480156	2.21204e-05	0.01726686	-0.02319611
2.1e+08	0.04990935	-0.05739112	-4.580729e-05	4.085758e-05	0.08875879	-0.04377995	-0.000133763	0.0001238199
	-4.580732e-05	4.085759e-05	0.05846578	-0.03159015	-4.725922e-05	4.661861e-06	0.08987262	-0.02668239
	0.08875876	-0.04377994	-4.725922e-05	4.661863e-06	0.0468874	-0.05396957	-8.451906e-05	7.485263e-05
	-0.000133763	0.0001238199	0.08987262	-0.0266824	-8.451905e-05	7.485262e-05	0.06072526	-0.03820445
2.2e+08	0.03239174	-0.09852318	-7.863079e-05	6.749046e-05	0.03910804	-0.06852856	-4.781638e-05	0.0001813167
	-7.863078e-05	6.749049e-05	0.05428447	-0.07943962	-0.0001098016	-1.724256e-05	0.04596904	-0.04911597
	0.03910803	-0.06852853	-0.0001098016	-1.724255e-05	0.03088901	-0.09431822	-6.26631e-05	0.0001151924
	-4.781638e-05	0.0001813167	0.04596904	-0.04911598	-6.266311e-05	0.0001151924	0.05664658	-0.0882196
2.3e+08	-0.01380237	-0.09611357	1.630611e-05	0.0001678007	0.005219876	-0.02690767	8.258594e-05	0.0002016287
	1.630613e-05	0.0001678007	0.005141992	-0.09064195	-0.0001246563	0.0001507385	0.01570351	-0.01166564
	0.005219897	-0.02690765	-0.0001246563	0.0001507385	-0.01418429	-0.09300318	4.515654e-05	0.0001750345
	8.258594e-05	0.0002016287	0.01570351	-0.01166565	4.515653e-05	0.0001750345	0.005153328	-0.1006302
2.4e+08	-0.02401191	-0.0542547	0.0001657074	6.10309e-05	0.04008099	0.01373476	0.0002208441	9.409377e-05
	0.0001657073	6.10309e-05	-0.01861366	-0.04795258	9.248722e-05	0.0001880703	0.04677273	0.02546288
	0.040081	0.01373474	9.248722e-05	0.0001880703	-0.02520752	-0.05228524	0.000182256	7.166654e-05
	0.0002208441	9.409376e-05	0.04677273	0.02546288	0.000182256	7.166654e-05	-0.02076295	-0.05650527
2.5e+08	0.01229363	-0.03877819	9.413639e-05	-7.042724e-05	0.08807362	-0.01401767	0.0002158555	-8.265598e-05
	9.413641e-05	-7.042722e-05	0.01615318	-0.01766292	0.0001401992	1.504315e-05	0.09013165	0.00215454
	0.08807361	-0.01401768	0.0001401992	1.504315e-05	0.009802239	-0.03604758	0.0001424857	-7.411671e-05
	0.0002158555	-8.265598e-05	0.09013166	0.002154537	0.0001424857	-7.411671e-05	0.01444156	-0.02420237
2.6e+08	0.03391793	-0.07366225	5.402815e-05	-4.207954e-05	0.07163387	-0.06804758	0.0001156665	-0.0001813316
	5.402816e-05	-4.207956e-05	0.05295655	-0.04671474	7.553198e-05	7.607327e-06	0.07689276	-0.04484458
	0.07163386	-0.06804756	7.553198e-05	7.607323e-06	0.03189877	-0.06925792	7.588826e-05	-0.0001033887
	0.0001156665	-0.0001813317	0.07689276	-0.04484458	7.588826e-05	-0.0001033887	0.05289691	-0.05359859
2.7e+08	0.003403496	-0.1073243	7.355562e-05	-0.000123778	0.01667103	-0.06521383	4.294719e-07	-0.0002273844
	7.355559e-05	-0.000123778	0.03236094	-0.09293492	0.0001709182	-3.642173e-05	0.0297128	-0.04200636
	0.01667104	-0.0652138	0.0001709182	-3.642173e-05	0.003172377	-0.102757	3.175221e-05	-0.0001624001
	4.294673e-07	-0.0002273844	0.0297128	-0.04200636	3.175222e-05	-0.0001624001	0.0319708	-0.101901
2.8e+08	-0.03974223	-0.08916549	-9.871886e-05	-0.0001760001	0.008424616	-0.01269355	-0.0001669511	-0.0002052556
	-9.871887e-05	-0.0001760001	-0.01975573	-0.08634692	7.482373e-05	-0.0002488877	0.023367	0.003976127
	0.008424638	-0.01269356	7.482373e-05	-0.0002488877	-0.0393317	-0.08607731	-0.000126904	-0.0001729245
	-0.0001669511	-0.0002052556	0.023367	0.003976125	-0.000126904	-0.0001729245	-0.02268159	-0.09594923
2.9e+08	-0.03440353	-0.04607006	-0.0001851342	9.950808e-06	0.05934983	0.004700407	-0.0002799174	-2.521334e-05
	-0.0001851342	9.9508e-06	-0.02689232	-0.03630898	-0.0001888811	-0.0001674517	0.0679835	0.01948505
	0.05934983	0.00470039	-0.0001888811	-0.0001674517	-0.03521979	-0.04373686	-0.0002144885	1.885871e-07
	-0.0002799174	-2.521333e-05	0.0679835	0.01948504	-0.0002144885	1.885799e-07	-0.0316215	-0.04399092
3e+08	0.005662024	-0.04461489	-6.527821e-05	8.117272e-05	0.0877052	-0.0438658	-0.0002071913	0.0001607575
	-6.527823e-05	8.117272e-05	0.0182236	-0.02008891	-0.0001526671	3.226775e-05	0.09317803	-0.0215356
	0.08770519	-0.0438658	-0.0001526671	3.226775e-05	0.003889331	-0.04103286	-0.0001197758	0.0001163162
	-0.0002071913	0.0001607575	0.09317803	-0.0215356	-0.0001197758	0.0001163162	0.01437664	-0.02581157
3.1e+08	0.01398884	-0.08586372	-7.481879e-05	5.941635e-05	0.04691396	-0.08349724	-7.377125e-05	0.0002342789
	-7.481879e-05	5.941638e-05	0.04315153	-0.06230778	-0.0001100028	8.852318e-06	0.05927978	-0.05465575
	0.04691396	-0.08349722	-0.0001100028	8.852323e-06	0.01329842	-0.08081501	-6.12339e-05	0.0001363431
	-7.377125e-05	0.0002342789	0.05927977	-0.05465575	-6.123391e-05	0.0001363431	0.04090853	-0.06865971
3.2e+08	-0.02725885	-0.1072836	-3.164602e-05	0.0001844633	0.0004634406	-0.0543913	7.147567e-05	0.0002588817
	-3.164599e-05	0.0001844632	0.005680187	-0.09909308	-0.0001910847	0.0001405897	0.02129379	-0.02913253
	0.000463459	-0.05439129	-0.0001910847	0.0001405897	-0.02614981	-0.1027038	2.780884e-05	0.0001998039
	7.147568e-05	0.0002588817	0.02129379	-0.02913253	2.780883e-05	0.0001998039	0.00271446	-0.1073873
3.3e+08	-0.06137419	-0.07428504	0.0001814435	0.0001378754	0.01951432	-0.004766893	0.0002603671	0.0001693653
	0.0001814435	0.0001378754	-0.04103093	-0.07255264	4.699002e-05	0.0003171896	0.03904255	0.01275861
	0.01951433	-0.004766905	4.699002e-05	0.0003171896	-0.06015367	-0.07134317	0.0002066531	0.0001287227
	0.0002603671	0.0001693653	0.03904255	0.01275861	0.0002066531	0.0001287227	-0.04660257	-0.08089407
3.4e+08	-0.03994565	-0.03603023	0.000165863	-7.612649e-05	0.0732179	-0.01522552	0.0003090255	-7.292722e-05
	0.000165863	-7.612647e-05	-0.02766876	-0.02300915	0.0002743582	8.936152e-05	0.08503419	0.003738134
	0.07321789	-0.01522553	0.0002743582	8.936152e-05	-0.04015148	-0.0333864	0.0002113113	-7.937077e-05
	0.0003090255	-7.292723e-05	0.08503418	0.003738133	0.0002113113	-7.937077e-05	-0.03457806	-0.02900767
3.5e+08	-0.001519384	-0.05018582	5.06644e-05	-7.467682e-05	0.07459769	-0.07264235	0.0001668612	-0.0002358074
	5.066442e-05	-7.467683e-05	0.0212237	-0.02616742	0.0001470253	-7.867085e-05	0.0867367	-0.04387401
	0.07459768	-0.07264234	0.0001470253	-7.867085e-05	-0.002223288	-0.04600923	8.900975e-05	-0.0001470383
	0.0001668612	-0.0002358074	0.0867367	-0.04387401	8.900975e-05	-0.0001470383	0.01567487	-0.03035703
3.6e+08	-0.009175968	-0.09286976	8.937949e-05	-0.0001038791	0.01933409	-0.08833459	1.133e-05	-0.0002754403
	8.937947e-05	-0.0001038791	0.02753754	-0.07610142	0.0001502143	-5.34803e-05	0.04180581	-0.05577912
	0.01933409	-0.08833457	0.0001502143	-5.34803e-05	-0.008342063	-0.08761275	3.203339e-05	-0.0001731715
	1.132999e-05	-0.0002754403	0.04180581	-0.05577912	3.20334e-05	-0.0001731715	0.02351469	-0.081238
3.7e+08	-0.05651446	-0.0976745	-4.832474e-05	-0.0002233403	-0.007405284	-0.04042807	-0.0001642115	-0.0002652847
	-4.832475e-05	-0.0002233402	-0.02233022	-0.09502302	0.0001473443	-0.0002703143	0.02204059	-0.01532567
	-0.007405267	-0.04042808	0.0001473443	-0.0002703143	-0.05406584	-0.09343507	-0.0001105883	-0.0002092693
	-0.0001642116	-0.0002652847	0.02204058	-0.01532567	-0.0001105883	-0.0002092693	-0.0274475	-0.1019152
3.8e+08	-0.07555391	-0.05361993	-0.0002369226	-6.09357e-05	0.03402021	-0.006246681	-0.0003437884	-8.894575e-05
	-0.0002369226	-6.09357e-05	-0.05383414	-0.05150843	-0.0002117841	-0.0003148905	0.05842215	0.01206716
	0.03402022	-0.006246697	-0.0002117841	-0.0003148905	-0.07347792	-0.05100271	-0.000261861	-4.783454e-05
	-0.0003437884	-8.894574e-05	0.05842215	0.01206716	-0.000261861	-4.783456e-05	-0.06151465	-0.05784023
3.9e+08	-0.04033569	-0.02689265	-0.0001228054	0.0001164465	0.07699249	-0.04245209	-0.0002963415	0.000184438
	-0.0001228054	0.0001164465	-0.02081094	-0.01259381	-0.0003140972	2.876782e-05	0.09450828	-0.01855797
	0.07699248	-0.0424521	-0.0003140972	2.876782e-05	-0.03971516	-0.02415286	-0.0001765912	0.0001481065
	-0.0002963415	0.000184438	0.09450828	-0.01855797	-0.0001765912	0.0001481065	-0.02923994	-0.01624651
4e+08	-0.01005746	-0.05587246	-5.848412e-05	7.081221e-05	0.05049423	-0.09508384	-9.928195e-05	0.0002955953
	-5.848413e-05	7.081223e-05	0.02210157	-0.03652604	-0.000131362	0.0001163511	0.07318708	-0.06126927
	0.05049422	-0.09508383	-0.000131362	0.0001163511	-0.009472251	-0.05150509	-5.526393e-05	0.0001697931
	-9.928195e-05	0.0002955953	0.07318708	-0.06126927	-5.526393e-05	0.0001697931	0.0155262	-0.03866276
4.1e+08	-0.03436955	-0.09340805	-7.556122e-05	0.0001695288	-0.006416476	-0.08310319	6.819728e-05	0.0002993003
	-7.55612e-05	0.0001695288	0.006312418	-0.08461598	-0.0001745037	0.0001374142	0.02835217	-0.05015655
	-0.006416468	-0.08310318	-0.0001745037	0.0001374142	-0.0319655	-0.08842254	1.808489e-05	0.0002053769
	6.819728e-05	0.0002993003	0.02835217	-0.05015655	1.808488e-05	0.0002053769	0.001108965	-0.08806055
4.2e+08	-0.08077827	-0.07911995	0.0001496194	0.0002191698	-0.007222017	-0.02789342	0.0002693537	0.0002353028
	0.0001496194	0.0002191697	-0.04645673	-0.08001847	-1.995257e-05	0.0003816681	0.03085331	-0.005042368
	-0.007222006	-0.02789342	-1.995256e-05	0.000381668	-0.07705458	-0.07558241	0.0002003178	0.0001788968
	0.0002693537	0.0002353028	0.0308533	-0.005042369	0.0002003178	0.0001788968	-0.05312137	-0.08496219
4.3e+08	-0.08034064	-0.03083802	0.0002494129	-3.197523e-05	0.04666061	-0.01774184	0.0003956622	-3.13671e-05
	0.0002494129	-3.197521e-05	-0.05501187	-0.02814434	0.0003712793	0.0002181758	0.07695728	0.001567829
	0.0466606	-0.01774185	0.0003712793	0.0002181758	-0.07739219	-0.02881659	0.0002772694	-5.305417e-05
	0.0003956622	-3.13671e-05	0.07695728	0.00156783	0.0002772694	-5.305416e-05	-0.06405725	-0.03190291
4.4e+08	-0.03689092	-0.02131009	8.000498e-05	-0.0001264369	0.06812806	-0.07178647	0.0002387286	-0.0002898027
	8.0005e-05	-0.0001264369	-0.008932898	-0.009102472	0.0002913685	-0.0001537383	0.09498991	-0.04349762
	0.06812804	-0.07178647	0.0002913685	-0.0001537383	-0.03534373	-0.01882909	0.0001215742	-0.0001956244
	0.0002387286	-0.0002898027	0.09498991	-0.04349762	0.0001215742	-0.0001956244	-0.01800746	-0.009988741
4.5e+08	-0.02107966	-0.06121366	7.924204e-05	-9.001445e-05	0.01908696	-0.1073887	1.25427e-05	-0.0003318788
	7.924203e-05	-9.001447e-05	0.0177652	-0.04954847	0.0001164484	-0.0001485033	0.0558829	-0.07198463
	0.01908696	-0.1073887	0.0001164484	-0.0001485033	-0.01916975	-0.05712991	1.792194e-05	-0.0001881595
	1.25427e-05	-0.0003318788	0.0558829	-0.07198463	1.792195e-05	-0.0001881595	0.0109911	-0.04939672
4.6e+08	-0.05960686	-0.08641286	1.921904e-05	-0.0002356144	-0.02671638	-0.07025812	-0.0001613668	-0.0003003536
	1.921903e-05	-0.0002356144	-0.01792557	-0.08449614	0.0001507903	-0.0002543799	0.02105908	-0.04104253
	-0.02671638	-0.07025811	0.0001507903	-0.0002543799	-0.05573394	-0.08217234	-8.867475e-05	-0.000220085
	-0.0001613668	-0.0003003536	0.02105908	-0.04104254	-8.867474e-05	-0.000220085	-0.0236155	-0.08602331
4.7e+08	-0.09668391	-0.05391484	-0.0002459288	-0.0001649193	-0.001357995	-0.02044331	-0.0003716734	-0.0001599851
	-0.0002459288	-0.0001649193	-0.0612479	-0.05648766	-0.0001773536	-0.000418703	0.04497409	-0.00140131
	-0.001357991	-0.02044332	-0.0001773536	-0.000418703	-0.09182732	-0.05145797	-0.0002761915	-0.0001072414
	-0.0003716734	-0.0001599851	0.04497409	-0.001401309	-0.0002761915	-0.0001072414	-0.06874089	-0.05914503
4.8e+08	-0.07574093	-0.01036101	-0.0002208969	0.0001149377	0.05253881	-0.03737268	-0.0003974179	0.0001760519
	-0.0002208969	0.0001149377	-0.04446532	-0.008729201	-0.0004668452	-3.999608e-05	0.09082614	-0.0172716
