!$
! Info: Touchstone file created by Circ.  Input file=Tx_PCB_4dB_OSFP_22dB_OSFP_4dB_PCB_Rx_TP0_TP5_VendorY.circ
!$
# Hz S RI R 50
0	0.05511696	3.372375e-22	8.067503e-05	8.097223e-23	0.001875615	3.490045e-20	8.798885e-05	4.01969e-23
	8.067493e-05	8.098898e-23	0.05457158	2.841663e-22	4.585636e-05	7.828411e-23	0.001779859	3.961991e-20
	0.001875605	3.489952e-20	4.585636e-05	7.828303e-23	0.05519594	3.480446e-22	7.656109e-05	3.893142e-23
	8.798885e-05	4.019486e-23	0.001779819	3.962005e-20	7.656109e-05	3.892451e-23	0.0545847	2.762871e-22
1e+07	0.04730643	-0.02724854	3.85161e-05	-7.613093e-05	0.03723606	0.04120358	6.155803e-05	-7.964079e-05
	3.851601e-05	-7.613083e-05	0.04763668	-0.02591203	4.893611e-05	-4.855046e-05	0.03728183	0.04092673
	0.03723606	0.04120358	4.893611e-05	-4.855056e-05	0.0482664	-0.02616944	5.066744e-05	-7.182172e-05
	6.155803e-05	-7.964079e-05	0.03728183	0.04092673	5.066744e-05	-7.182162e-05	0.04863352	-0.02469625
2e+07	0.01843852	-0.03851077	-6.397779e-05	-6.736301e-05	0.0825609	0.0152288	-5.450703e-05	-9.644849e-05
	-6.397779e-05	-6.736301e-05	0.02056084	-0.03775114	-5.072714e-05	-7.691019e-05	0.08258669	0.01425439
	0.08256089	0.0152287	-5.072723e-05	-7.691019e-05	0.02073642	-0.03805317	-5.506459e-05	-8.363278e-05
	-5.450703e-05	-9.644849e-05	0.08258669	0.01425439	-5.506449e-05	-8.363278e-05	0.02291163	-0.03747927
3e+07	-0.005496001	-0.02167574	-9.021942e-05	4.488233e-05	0.06549499	-0.03262552	-0.000105806	2.380122e-05
	-9.021942e-05	4.488233e-05	-0.003691497	-0.02298909	-0.0001024814	4.529979e-05	0.0648217	-0.0341006
	0.0654951	-0.03262543	-0.0001024814	4.529979e-05	-0.003398549	-0.02277141	-0.0001000887	2.900945e-05
	-0.000105806	2.380122e-05	0.06482171	-0.0341005	-0.0001000887	2.900945e-05	-0.001844611	-0.02419666
4e+07	-0.002196205	0.002847022	1.779553e-05	0.0001046222	0.01610403	-0.02396242	2.488541e-06	0.0001002262
	1.779552e-05	0.0001046222	-0.00250874	0.00157341	1.968345e-05	0.0001262099	0.01486231	-0.02492311
	0.01610403	-0.02396241	1.968342e-05	0.0001262099	-0.001624969	0.001456447	2.844333e-06	0.0001010358
	2.488475e-06	0.0001002262	0.01486231	-0.02492311	2.843851e-06	0.0001010349	-0.002093515	0.0003744426
5e+07	0.01698695	0.006125867	0.0001057721	8.801404e-06	0.01611635	0.02613162	9.712613e-05	4.622412e-06
	0.0001057721	8.801404e-06	0.01651429	0.006944522	0.0001276903	1.726857e-05	0.01564246	0.02571183
	0.01611635	0.02613162	0.0001276903	1.726868e-05	0.01695898	0.006112291	9.479522e-05	1.149045e-05
	9.712604e-05	4.622531e-06	0.01564246	0.02571183	9.479521e-05	1.149045e-05	0.01665688	0.007049502
6e+07	0.02147871	-0.009287229	2.724306e-05	-0.0001060763	0.06513403	0.03525759	1.400602e-05	-0.000112625
	2.724306e-05	-0.0001060763	0.02309334	-0.008072528	3.891989e-05	-0.0001158508	0.06575741	0.0337126
	0.06513403	0.03525759	3.89199e-05	-0.0001158508	0.02272315	-0.008438908	1.936848e-05	-0.0001024957
	1.400613e-05	-0.000112625	0.06575741	0.0337126	1.936848e-05	-0.0001024957	0.02449545	-0.007445132
7e+07	0.00663483	-0.01497706	-0.0001159155	-5.412864e-05	0.08305697	-0.01055205	-0.0001334042	-5.344549e-05
	-0.0001159155	-5.412864e-05	0.008978008	-0.01580174	-0.0001202911	-5.572346e-05	0.0828822	-0.0140987
	0.08305697	-0.01055204	-0.0001202911	-5.572347e-05	0.009099728	-0.015271	-0.0001227203	-5.134629e-05
	-0.0001334032	-5.344568e-05	0.0828822	-0.01409869	-0.0001227203	-5.134629e-05	0.01127801	-0.01636824
8e+07	-0.002625562	-0.0004480439	-0.000102032	0.0001121957	0.0416234	-0.03601436	-0.000114647	0.0001189203
	-0.000102032	0.0001121957	-0.002176554	-0.002337771	-9.937234e-05	0.0001256017	0.03903735	-0.03965401
	0.0416234	-0.03601436	-9.937235e-05	0.0001256017	-0.000958131	-0.002315213	-0.0001109946	0.0001138095
	-0.000114647	0.0001189203	0.03903735	-0.03965401	-0.0001109946	0.0001138095	-0.0007732523	-0.004167933
9e+07	0.009452261	0.01283717	7.362199e-05	0.0001411908	0.009429879	0.0006511782	6.464413e-05	0.0001459098
	7.362199e-05	0.0001411908	0.008591241	0.01266946	9.126432e-05	0.00014909	0.006118292	-0.0006837103
	0.009429884	0.0006511973	9.126432e-05	0.00014909	0.009375648	0.01128933	5.986859e-05	0.0001465693
	6.464421e-05	0.0001459098	0.006118261	-0.0006837952	5.986859e-05	0.0001465693	0.008551889	0.01131267
1e+08	0.02478259	0.004680831	0.0001427257	-3.044228e-05	0.04000101	0.03925191	0.000130568	-2.574357e-05
	0.0001427257	-3.044228e-05	0.0254762	0.006050016	0.0001570707	-3.715091e-05	0.03910421	0.03897331
	0.04000103	0.03925201	0.0001570707	-3.71509e-05	0.02467748	0.004873747	0.0001305213	-1.572628e-05
	0.000130568	-2.574356e-05	0.03910411	0.03897334	0.0001305213	-1.572627e-05	0.02564235	0.00614672
1.1e+08	0.0200066	-0.01094535	-1.745368e-05	-0.0001385885	0.08370818	0.01684135	-2.944174e-05	-0.000127374
	-1.745368e-05	-0.0001385885	0.02248425	-0.01088861	-1.640968e-05	-0.0001440877	0.08468318	0.01379328
	0.08370818	0.01684135	-1.640967e-05	-0.0001440877	0.02165948	-0.01040359	-1.902382e-05	-0.0001210782
	-2.944173e-05	-0.000127374	0.08468318	0.01379328	-1.902382e-05	-0.0001210782	0.02422895	-0.01073703
1.2e+08	0.003806459	-0.008676818	-0.0001682332	2.792951e-06	0.07024626	-0.0295901	-0.0001728166	1.626383e-05
	-0.0001682332	2.792951e-06	0.005305198	-0.01061744	-0.0001673843	9.03014e-06	0.06872567	-0.03592111
	0.07024626	-0.0295901	-0.0001673843	9.030126e-06	0.006257837	-0.009882021	-0.0001646432	1.062186e-05
	-0.0001728166	1.626382e-05	0.06872567	-0.03592111	-0.0001646432	1.062186e-05	0.007568086	-0.01210756
1.3e+08	0.00278018	0.008959741	-5.723515e-05	0.0001946902	0.02261553	-0.02424278	-5.893075e-05	0.0002024205
	-5.723515e-05	0.0001946902	0.002158425	0.007698511	-4.58864e-05	0.000202178	0.01673323	-0.0292301
	0.02261553	-0.02424278	-4.588641e-05	0.000202178	0.003694494	0.006450608	-6.413025e-05	0.0001966704
	-5.893077e-05	0.0002024205	0.01673323	-0.0292301	-6.413025e-05	0.0001966704	0.002941258	0.005213107
1.4e+08	0.02070245	0.01470898	0.0001631735	0.0001247927	0.02000726	0.02420112	0.0001558058	0.0001313621
	0.0001631735	0.0001247927	0.02054298	0.01569862	0.0001767283	0.0001227755	0.01427981	0.02387405
	0.02000726	0.02420112	0.0001767283	0.0001227756	0.01998087	0.01334015	0.0001474623	0.0001393978
	0.0001558058	0.0001313621	0.01427979	0.02387406	0.0001474623	0.0001393978	0.02002302	0.01435818
1.5e+08	0.03087484	-0.0008957599	0.0001392381	-0.0001095374	0.06783594	0.03601534	0.0001311729	-9.460237e-05
	0.0001392381	-0.0001095374	0.03312389	-4.206066e-05	0.0001446846	-0.0001145084	0.06699488	0.03634114
	0.06783593	0.03601534	0.0001446846	-0.0001145084	0.03090833	-0.0004521747	0.0001360305	-8.067732e-05
	0.000131173	-9.460237e-05	0.06699488	0.03634114	0.0001360305	-8.067732e-05	0.03345263	8.468629e-05
1.6e+08	0.01865363	-0.01362217	-0.0001017795	-0.0001352884	0.089043	-0.008215642	-9.945035e-05	-0.0001169493
	-0.0001017796	-0.0001352883	0.02127325	-0.015211	-9.947834e-05	-0.0001337607	0.09005195	-0.01333612
	0.089043	-0.008215642	-9.947833e-05	-0.0001337608	0.02069606	-0.01359173	-8.646741e-05	-0.0001154494
	-9.945025e-05	-0.0001169494	0.09005186	-0.01333608	-8.64674e-05	-0.0001154494	0.02330615	-0.01569297
1.7e+08	0.00395512	-0.003809703	-0.0001828326	0.0001073177	0.05022664	-0.03678695	-0.0001742758	0.0001160997
	-0.0001828326	0.0001073177	0.00424547	-0.006241648	-0.0001754123	0.0001116399	0.04571981	-0.04580979
	0.05022665	-0.03678695	-0.0001754123	0.0001116399	0.006074141	-0.005984778	-0.0001731898	0.0001067796
	-0.0001742758	0.0001160997	0.04571981	-0.04580979	-0.0001731898	0.0001067796	0.00609246	-0.008697263
1.8e+08	0.01132284	0.01390668	4.852221e-05	0.0002447373	0.01589836	-0.003050243	4.878358e-05	0.0002468523
	4.852221e-05	0.0002447373	0.01046518	0.01374118	5.821854e-05	0.0002447911	0.005490871	-0.007645202
	0.01589836	-0.003050243	5.821853e-05	0.0002447911	0.0112274	0.01101699	3.554628e-05	0.0002480387
	4.878348e-05	0.0002468524	0.005490869	-0.007645203	3.554628e-05	0.0002480387	0.01026059	0.01086994
1.9e+08	0.03161071	0.01114292	0.0002338522	4.231642e-05	0.04409127	0.03732664	0.0002273278	5.358266e-05
	0.0002338522	4.231642e-05	0.0330454	0.01246318	0.0002397876	4.054952e-05	0.03655137	0.03970356
	0.04409127	0.03732664	0.0002397876	4.054954e-05	0.03027451	0.01022057	0.000221519	7.203688e-05
	0.0002273278	5.358268e-05	0.03655138	0.03970356	0.000221519	7.203688e-05	0.03192647	0.01145806
2e+08	0.03466502	-0.008807117	7.297217e-05	-0.0001812195	0.0900802	0.0174276	7.671949e-05	-0.0001604115
	7.297217e-05	-0.0001812195	0.03812038	-0.009604489	7.758566e-05	-0.0001794731	0.0902299	0.01821318
	0.0900802	0.0174276	7.758568e-05	-0.0001794731	0.03498484	-0.00811973	8.941229e-05	-0.0001455261
	7.671951e-05	-0.0001604115	0.0902299	0.01821318	8.941229e-05	-0.0001455261	0.03863323	-0.009344788
2.1e+08	0.01700205	-0.01613339	-0.0001853606	-6.848201e-05	0.08027322	-0.03126478	-0.0001681514	-5.655973e-05
	-0.0001853606	-6.848202e-05	0.01885925	-0.01947212	-0.0001772298	-6.630584e-05	0.08042621	-0.03930734
	0.08027322	-0.03126477	-0.0001772298	-6.630587e-05	0.01932618	-0.01680487	-0.0001557495	-6.090139e-05
	-0.0001681514	-5.655976e-05	0.08042621	-0.03930733	-0.0001557495	-6.09014e-05	0.02104348	-0.02063338
2.2e+08	0.006623269	0.0001668548	-0.0001270522	0.0002212425	0.03140548	-0.0301749	-0.0001156407	0.0002177577
	-0.0001270522	0.0002212425	0.005625641	-0.002119399	-0.0001193993	0.000219379	0.02185465	-0.04089643
	0.03140548	-0.03017489	-0.0001193994	0.000219379	0.008037837	-0.00296427	-0.0001237681	0.000210289
	-0.0001156408	0.0002177577	0.02185465	-0.04089643	-0.0001237672	0.0002102884	0.006763883	-0.005438932
2.3e+08	0.02191516	0.01471986	0.0001789416	0.0002232964	0.02503508	0.01883869	0.0001747188	0.0002237953
	0.0001789416	0.0002232964	0.02165437	0.01555003	0.0001816713	0.000222378	0.009784299	0.0173143
	0.02503508	0.01883869	0.0001816713	0.000222378	0.02059361	0.01184526	0.0001587144	0.000237679
	0.0001747188	0.0002237953	0.009784282	0.01731431	0.0001587139	0.0002376781	0.02031538	0.01268311
2.4e+08	0.04117724	0.003211029	0.0002427751	-7.667903e-05	0.07371134	0.03425316	0.0002415158	-5.913571e-05
	0.0002427751	-7.667903e-05	0.04440261	0.003690094	0.0002461109	-7.168854e-05	0.06612956	0.04058942
	0.07371134	0.03425316	0.000246111	-7.168853e-05	0.03944102	0.003045769	0.0002451131	-3.214482e-05
	0.0002415159	-5.91357e-05	0.06612956	0.04058942	0.0002451131	-3.214482e-05	0.04289357	0.003330571
2.5e+08	0.03597206	-0.01813024	-3.576779e-05	-0.0002013297	0.09952778	-0.0106488	-1.718986e-05	-0.000183897
	-3.576778e-05	-0.0002013297	0.0396663	-0.02134884	-2.543568e-05	-0.0001963684	0.1014579	-0.01049224
	0.09952778	-0.0106488	-2.543566e-05	-0.0001963684	0.03682031	-0.01730801	3.525078e-06	-0.000173061
	-1.718984e-05	-0.000183897	0.1014579	-0.01049224	3.525081e-06	-0.000173061	0.04061284	-0.02098894
2.6e+08	0.01506626	-0.0181683	-0.0002222451	4.986497e-05	0.06142132	-0.04470958	-0.000198688	4.618377e-05
	-0.0002222451	4.986497e-05	0.01525337	-0.02288867	-0.000211176	4.651281e-05	0.05888345	-0.05625752
	0.06142132	-0.04470958	-0.000211176	4.651279e-05	0.01751021	-0.01979595	-0.0001909684	3.687915e-05
	-0.0001986881	4.618367e-05	0.05888345	-0.05625752	-0.0001909676	3.687869e-05	0.01752943	-0.02491413
2.7e+08	0.01154951	0.002979956	-5.918983e-06	0.0002952273	0.02198076	-0.0128793	-2.331106e-06	0.0002822084
	-5.918365e-06	0.000295228	0.00945202	0.00144868	-4.625548e-06	0.0002899774	0.005522994	-0.02292275
	0.02198076	-0.0128793	-4.62558e-06	0.0002899774	0.01183714	-0.0009386734	-1.840991e-05	0.000282975
	-2.331136e-06	0.0002822084	0.005522917	-0.02292269	-1.840991e-05	0.000282975	0.009585606	-0.002611301
2.8e+08	0.0335659	0.01125718	0.0002831742	0.0001284087	0.0482019	0.03204707	0.0002749012	0.0001339139
	0.0002831741	0.0001284087	0.03452982	0.01258138	0.000280748	0.0001338414	0.0293979	0.03661047
	0.0482019	0.03204706	0.000280748	0.0001338414	0.03097677	0.008907649	0.0002641671	0.0001620376
	0.0002749012	0.0001339139	0.02939788	0.03661049	0.0002641671	0.0001620376	0.03202571	0.01013351
2.9e+08	0.04843067	-0.008565645	0.0001802396	-0.0001846132	0.09914374	0.01440884	0.0001898089	-0.0001641504
	0.0001802396	-0.0001846132	0.05298616	-0.01003071	0.0001884658	-0.0001730994	0.09406347	0.02471483
	0.09914374	0.01440884	0.0001884659	-0.0001730994	0.04669589	-0.007737984	0.0002075195	-0.0001346733
	0.0001898089	-0.0001641504	0.09406347	0.02471483	0.0002075195	-0.0001346733	0.05143081	-0.009499452
3e+08	0.03435268	-0.02819237	-0.0001456201	-0.0001527807	0.09335135	-0.03960263	-0.0001160363	-0.0001483463
	-0.0001456201	-0.0001527807	0.03705036	-0.0340546	-0.0001286888	-0.0001514098	0.09693531	-0.04193489
	0.09335135	-0.03960263	-0.0001286888	-0.0001514098	0.03596029	-0.02751737	-9.059577e-05	-0.0001459946
	-0.0001160363	-0.0001483463	0.09693531	-0.04193489	-9.059577e-05	-0.0001459946	0.03869682	-0.03378575
3.1e+08	0.01292488	-0.0192497	-0.0001872056	0.0001825603	0.04005624	-0.04449643	-0.0001693828	0.0001622082
	-0.0001872056	0.0001825603	0.01074138	-0.02462085	-0.0001798574	0.0001723655	0.03214456	-0.05906077
	0.04005623	-0.04449643	-0.0001798574	0.0001723655	0.01514222	-0.02209212	-0.0001697477	0.000151588
	-0.0001693828	0.0001622082	0.03214449	-0.0590607	-0.0001697477	0.0001515879	0.01290536	-0.0277661
3.2e+08	0.0188391	0.004201441	0.0001463561	0.0002957333	0.02718739	0.00770523	0.0001372003	0.0002822107
	0.0001463561	0.0002957333	0.01604758	0.003914407	0.0001392207	0.0002941472	0.003144195	0.002107311
	0.02718739	0.00770523	0.0001392207	0.0002941472	0.01752983	-0.0001587552	0.0001182241	0.0002964913
	0.0001372003	0.0002822107	0.003144195	0.002107311	0.0001182241	0.0002964914	0.01476251	-0.0006724126
3.3e+08	0.04529852	0.002989533	0.0003232732	-1.084208e-05	0.07859333	0.02959176	0.0003168804	3.344829e-06
	0.0003232732	-1.084208e-05	0.04779871	0.004084843	0.0003225128	4.465756e-06	0.05933144	0.04255255
	0.07859333	0.02959176	0.0003225129	4.465777e-06	0.04159465	0.001787967	0.0003195859	4.248093e-05
	0.0003168804	3.344877e-06	0.05933138	0.04255263	0.0003195859	4.248092e-05	0.04418457	0.002615568
3.4e+08	0.05210042	-0.02372845	6.712111e-05	-0.0002427508	0.1120003	-0.01748619	8.977882e-05	-0.000226732
	6.712111e-05	-0.0002427508	0.05708017	-0.02791431	8.49061e-05	-0.0002303124	0.1118564	-0.004870486
	0.1120003	-0.01748619	8.490613e-05	-0.0002303125	0.05091775	-0.02184641	0.0001220317	-0.0002026703
	8.977885e-05	-0.0002267321	0.1118564	-0.004870486	0.0001220317	-0.0002026703	0.05597482	-0.02632685
3.5e+08	0.02924087	-0.03776623	-0.0002167483	-4.649478e-05	0.07384681	-0.06076252	-0.0001854375	-6.070757e-05
	-0.0002167483	-4.649477e-05	0.02969709	-0.04599962	-0.0001977422	-5.393148e-05	0.0774792	-0.0675056
	0.07384682	-0.06076251	-0.0001977422	-5.393151e-05	0.03172602	-0.03773163	-0.000160875	-6.854252e-05
	-0.0001854375	-6.07076e-05	0.07747913	-0.06750552	-0.000160875	-6.854252e-05	0.032287	-0.04621844
3.6e+08	0.01135974	-0.01869178	-8.168188e-05	0.0002868038	0.02485295	-0.03153563	-7.955434e-05	0.0002565025
	-8.168187e-05	0.0002868038	0.00634401	-0.02372655	-8.390337e-05	0.0002739862	0.008728204	-0.04684148
	0.02485295	-0.03153564	-8.390341e-05	0.0002739863	0.01274952	-0.02292424	-8.887444e-05	0.0002502593
	-7.955438e-05	0.0002565026	0.008728204	-0.04684148	-8.887445e-05	0.0002502593	0.007951726	-0.02827427
3.7e+08	0.02871282	0.002703601	0.0002842779	0.0002167063	0.04715024	0.02220175	0.000264939	0.0002123211
	0.0002842779	0.0002167063	0.02579028	0.004032128	0.0002724625	0.0002256276	0.01696876	0.02549414
	0.04715024	0.02220175	0.0002724626	0.0002256276	0.02541106	-0.001414192	0.000250922	0.0002421425
	0.000264939	0.0002123211	0.01696876	0.02549414	0.000250922	0.0002421426	0.02262888	-0.0005655469
3.8e+08	0.05544655	-0.01080776	0.0002867379	-0.000151596	0.1065693	0.009222491	0.000289436	-0.0001306769
	0.0002867378	-0.000151596	0.05949917	-0.01072446	0.0002951923	-0.0001287159	0.09126971	0.0310638
	0.1065693	0.009222491	0.0002951923	-0.0001287159	0.05113775	-0.01022477	0.0003110657	-8.802651e-05
	0.000289436	-0.0001306769	0.09126971	0.0310638	0.0003110657	-8.802651e-05	0.05513274	-0.01052733
3.9e+08	0.05044865	-0.04116518	-6.105147e-05	-0.0002331372	0.1076652	-0.05306278	-2.830454e-05	-0.0002297215
	-6.105148e-05	-0.0002331372	0.05473305	-0.04848938	-3.417922e-05	-0.0002272026	0.113717	-0.04129771
	0.1076652	-0.05306278	-3.417921e-05	-0.0002272026	0.05051795	-0.03849523	1.452235e-05	-0.0002181131
	-2.830453e-05	-0.0002297215	0.113717	-0.04129763	1.452236e-05	-0.0002181131	0.05482327	-0.04593251
4e+08	0.02074069	-0.04485692	-0.0002238088	8.890631e-05	0.04764723	-0.06810744	-0.0002021758	5.672505e-05
	-0.0002238088	8.890631e-05	0.01775458	-0.05481273	-0.0002100058	7.189701e-05	0.04818679	-0.08020609
	0.04764723	-0.06810744	-0.0002100059	7.1897e-05	0.02392078	-0.04616804	-0.0001843676	4.057215e-05
	-0.0002021759	5.6725e-05	0.04818674	-0.080206	-0.0001843676	4.057215e-05	0.02134569	-0.0562171
4.1e+08	0.01211	-0.0165496	7.075283e-05	0.000328192	0.02273463	-0.01165183	5.327278e-05	0.000299378
	7.075282e-05	0.000328192	0.004069308	-0.01996382	5.733999e-05	0.0003204412	-0.003401458	-0.02339779
	0.02273463	-0.01165183	5.733998e-05	0.0003204413	0.01181001	-0.02202204	3.775987e-05	0.0003035082
	5.327276e-05	0.000299378	-0.003401458	-0.02339779	3.775983e-05	0.0003035082	0.004339709	-0.02601329
4.2e+08	0.04072319	-0.003523133	0.0003679929	7.693124e-05	0.07667633	0.02237839	0.0003467148	8.733823e-05
	0.0003679929	7.693123e-05	0.03847065	-0.00031655	0.0003594146	9.930719e-05	0.04441587	0.03836357
	0.07667633	0.02237839	0.0003594146	9.930722e-05	0.0353535	-0.00636565	0.0003462774	0.0001302007
	0.0003467149	8.733825e-05	0.04441587	0.03836357	0.0003462774	0.0001302007	0.03314308	-0.00399749
4.3e+08	0.06136722	-0.03020143	0.0001861574	-0.00025454	0.1226062	-0.0257336	0.0002024514	-0.0002335874
	0.0001861575	-0.0002545399	0.06678987	-0.03193811	0.0002083397	-0.0002309801	0.1158432	0.002948562
	0.1226062	-0.0257336	0.0002083397	-0.0002309801	0.05741017	-0.02742167	0.0002439834	-0.0001970132
	0.0002024514	-0.0002335875	0.1158432	0.002948562	0.0002439834	-0.0001970132	0.06251994	-0.02945858
4.4e+08	0.04201714	-0.0584172	-0.0001677544	-0.0001588419	0.08662975	-0.08272186	-0.0001327072	-0.0001735803
	-0.0001677544	-0.0001588419	0.04433494	-0.06903104	-0.0001370675	-0.0001650976	0.09807185	-0.0756506
	0.08662966	-0.0827219	-0.0001370675	-0.0001650976	0.0439369	-0.05571283	-8.638969e-05	-0.0001784618
	-0.0001327072	-0.0001735803	0.09807194	-0.07565056	-8.638968e-05	-0.0001784618	0.04644077	-0.06608035
4.5e+08	0.0105302	-0.04731516	-0.0001593485	0.0002177894	0.02371909	-0.06016557	-0.0001569962	0.0001748234
	-0.0001593485	0.0002177894	0.002871072	-0.05790033	-0.0001573327	0.0001955334	0.017112	-0.07653675
	0.0237191	-0.06016557	-0.0001573328	0.0001955334	0.01369355	-0.0506759	-0.0001500095	0.0001554314
	-0.0001569962	0.0001748234	0.017112	-0.07653675	-0.0001500094	0.0001554314	0.007041371	-0.06138657
4.6e+08	0.01711259	-0.01450551	0.0002327473	0.0002892543	0.03629402	0.006072894	0.0001991789	0.0002737646
	0.0002327474	0.0002892543	0.00635692	-0.01462516	0.0002120502	0.000294352	0.0007550778	0.003633672
	0.03629402	0.006072894	0.0002120502	0.000294352	0.01419579	-0.02047598	0.0001837543	0.000292425
	0.0001991789	0.0002737647	0.0007550778	0.003633672	0.0001837544	0.000292425	0.004238696	-0.02177439
4.7e+08	0.05271947	-0.0166647	0.0003744854	-8.724453e-05	0.1064717	0.003995157	0.0003613614	-6.272441e-05
	0.0003744854	-8.724459e-05	0.05229326	-0.0116375	0.0003778211	-5.413276e-05	0.07835893	0.03425924
	0.1064717	0.003995157	0.0003778211	-5.413276e-05	0.0458168	-0.01703904	0.0003812736	-1.384285e-05
	0.0003613615	-6.272436e-05	0.07835893	0.03425924	0.0003812736	-1.384284e-05	0.04501967	-0.01312362
4.8e+08	0.05993804	-0.05361549	5.070522e-05	-0.000294813	0.1202933	-0.06729714	8.010502e-05	-0.0002824929
	5.070542e-05	-0.0002948129	0.06631635	-0.0581059	8.609787e-05	-0.0002791535	0.1253255	-0.03626501
	0.1202933	-0.06729714	8.609804e-05	-0.0002791545	0.05760161	-0.04878475	0.0001376421	-0.0002610564
