!$
! Info: Touchstone file created by Circ.  Input file=Tx_PCB_4dB_OSFP_27dB_OSFP_4dB_PCB_Rx_TP0_TP5_VendorY.circ
!$
# Hz S RI R 50
0	0.07155008	5.998969e-22	-3.395602e-05	2.308955e-21	0.002366966	4.33989e-20	-2.20857e-05	8.586493e-22
	-3.395542e-05	2.308882e-21	0.07044579	5.34365e-22	-5.270994e-05	4.609337e-21	0.002275549	4.834877e-20
	0.002366956	4.339758e-20	-5.271043e-05	4.609398e-21	0.0713401	6.137172e-22	-1.449622e-05	4.931623e-22
	-2.208536e-05	8.586068e-22	0.002275509	4.834891e-20	-1.449613e-05	4.931452e-22	0.07045945	5.239375e-22
1e+07	0.04817749	-0.04400183	-6.438327e-05	5.873058e-05	0.0549387	0.03859067	-2.602493e-05	4.721786e-06
	-6.438318e-05	5.873041e-05	0.04862574	-0.04282561	-2.850536e-05	5.722811e-05	0.0545492	0.0390594
	0.0549387	0.03859067	-2.850546e-05	5.722811e-05	0.04969112	-0.04290272	-7.492142e-05	3.870595e-05
	-2.602473e-05	4.72158e-06	0.0545492	0.0390594	-7.492142e-05	3.870595e-05	0.05018672	-0.04164608
2e+07	0.0005911745	-0.03943885	-3.128452e-05	7.402389e-05	0.07769585	-0.01986673	-4.72717e-05	1.880405e-05
	-3.128463e-05	7.40238e-05	0.001901382	-0.03912783	-1.274344e-05	5.272564e-05	0.07795694	-0.01880046
	0.07769585	-0.01986673	-1.274345e-05	5.272554e-05	0.002970203	-0.04010926	-5.813181e-05	8.578225e-05
	-4.727172e-05	1.880375e-05	0.07795694	-0.01880056	-5.813182e-05	8.578225e-05	0.004167221	-0.03989914
3e+07	-0.004503173	-0.001431221	1.82148e-05	0.0001011426	0.01759273	-0.02552792	-1.732875e-05	7.87991e-05
	1.821459e-05	0.0001011425	-0.00483439	-0.001883258	2.822144e-05	7.850519e-05	0.01781267	-0.02565768
	0.01759273	-0.02552792	2.822133e-05	7.850509e-05	-0.003972627	-0.002765306	1.909924e-05	0.0001311885
	-1.732898e-05	7.879892e-05	0.01781267	-0.02565768	1.909924e-05	0.0001311885	-0.004432641	-0.003012204
4e+07	0.02258648	-0.0001294077	0.0001046089	5.67546e-05	0.02956397	0.03234445	7.289708e-05	6.144174e-05
	0.0001046087	5.675473e-05	0.02103254	0.001695799	9.287281e-05	3.280861e-05	0.02787992	0.03341279
	0.02956397	0.03234445	9.287271e-05	3.280873e-05	0.02290946	0.0003943646	0.000129129	7.405682e-05
	7.289688e-05	6.144188e-05	0.02787982	0.0334128	0.0001291291	7.405683e-05	0.02150178	0.002294954
5e+07	0.0148723	-0.02145641	0.0001103381	-3.04566e-05	0.08203802	0.00481459	0.0001036559	-1.85664e-05
	0.0001103381	-3.045643e-05	0.0154554	-0.01833753	0.0001034401	-3.700328e-05	0.08212816	0.008074248
	0.08203805	0.004814686	0.0001034401	-3.700318e-05	0.01719431	-0.02131335	0.0001436513	-4.150171e-05
	0.0001036558	-1.856612e-05	0.08212816	0.008074246	0.0001436513	-4.150167e-05	0.01770166	-0.01826776
6e+07	-0.004387968	-0.006777893	8.187242e-05	-0.0001194054	0.04251606	-0.03830759	6.457566e-05	-0.0001181122
	8.187253e-05	-0.0001194052	-0.003546785	-0.005965116	6.25987e-05	-0.000141103	0.0439618	-0.03770374
	0.04251609	-0.03830749	6.259875e-05	-0.0001411028	-0.002832914	-0.008670742	8.825974e-05	-0.0001546771
	6.457579e-05	-0.000118112	0.04396191	-0.03770366	8.825962e-05	-0.0001546771	-0.002090314	-0.007625383
7e+07	0.01481556	0.009755261	-7.301421e-05	-0.000161785	0.01273555	0.01073846	-8.129648e-05	-0.000135435
	-7.301393e-05	-0.000161785	0.01217147	0.01142394	-0.0001051778	-0.0001512756	0.009949991	0.01112478
	0.01273556	0.01073846	-0.0001051777	-0.0001512756	0.01446175	0.00893848	-9.194286e-05	-0.0001855503
	-8.129618e-05	-0.0001354351	0.009949962	0.01112479	-9.194286e-05	-0.0001855503	0.01206457	0.01076248
8e+07	0.0260357	-0.01232824	-0.0001596709	-2.716625e-05	0.06848622	0.02557591	-0.0001584494	-1.109775e-05
	-0.0001596709	-2.716634e-05	0.02452048	-0.00637252	-0.0001831568	-1.394605e-05	0.06633662	0.03125797
	0.06848622	0.02557591	-0.0001831558	-1.394632e-05	0.02723797	-0.01161699	-0.0001948615	-3.408922e-05
	-0.0001584485	-1.109821e-05	0.06633662	0.03125797	-0.0001948615	-3.408922e-05	0.02578912	-0.005795917
9e+07	0.001911999	-0.01672386	-0.0001468439	8.244488e-05	0.06882283	-0.03195944	-0.0001263926	0.0001210734
	-0.000146844	8.244469e-05	0.004070612	-0.0125026	-0.0001682005	0.0001410201	0.07176459	-0.02841808
	0.06882283	-0.03195945	-0.0001682006	0.00014102	0.004316985	-0.01812214	-0.0001733137	0.0001167358
	-0.0001263927	0.0001210732	0.07176456	-0.02841818	-0.0001733137	0.0001167356	0.00635058	-0.01371847
1e+08	0.004683822	0.009418572	-1.429799e-05	0.000219027	0.01468244	-0.01727112	3.426228e-05	0.0002033965
	-1.429817e-05	0.0002190271	0.003041096	0.01087788	3.26895e-05	0.0002697562	0.01275292	-0.01830964
	0.01468244	-0.01727112	3.26894e-05	0.0002697562	0.004664379	0.007162913	1.340527e-06	0.000254624
	3.426176e-05	0.0002033956	0.01275292	-0.01830964	1.340619e-06	0.000254624	0.003345417	0.008893189
1.1e+08	0.03134726	5.108362e-05	0.0001914817	0.0001046371	0.04454924	0.03010203	0.0001901182	8.009032e-05
	0.0001914807	0.0001046375	0.02708781	0.007353742	0.0002403846	0.0001191564	0.03836248	0.03645934
	0.04454924	0.03010203	0.0002403846	0.0001191564	0.0310355	0.0003153895	0.0002241319	0.0001240029
	0.0001901182	8.009033e-05	0.03836248	0.03645934	0.0002241319	0.0001240029	0.02709817	0.007405962
1.2e+08	0.01640339	-0.02370101	0.000177411	-6.062843e-05	0.0831124	-0.01154801	0.0001837673	-8.560225e-05
	0.0001774111	-6.062834e-05	0.01844259	-0.01431492	0.0002589217	-8.346112e-05	0.0855579	-0.002289489
	0.0831124	-0.01154801	0.0002589218	-8.346102e-05	0.01869662	-0.02390056	0.0002240538	-7.942201e-05
	0.0001837674	-8.560207e-05	0.0855579	-0.002289489	0.0002240538	-7.94221e-05	0.0206567	-0.01452262
1.3e+08	-0.002196956	-0.002571463	0.0001083661	-0.0002131902	0.03426262	-0.0379703	6.301069e-05	-0.0002301209
	0.0001083661	-0.0002131902	-0.0004633238	0.0003968348	0.0001202208	-0.0003153007	0.03639915	-0.03849454
	0.03426262	-0.0379703	0.0001202208	-0.0003153007	-0.001034379	-0.005455541	0.0001134355	-0.0002614272
	6.301069e-05	-0.0002301209	0.03639915	-0.03849454	0.0001134355	-0.0002614272	0.001056534	-0.002121632
1.4e+08	0.02568352	0.0105908	-0.0001723422	-0.0002233798	0.02359856	0.01541471	-0.0001786764	-0.0001877311
	-0.000172342	-0.0002233799	0.01993728	0.01695984	-0.0002281182	-0.0002728526	0.01426897	0.01889775
	0.02359856	0.01541471	-0.0002281181	-0.0002728526	0.024372	0.009365426	-0.0001959925	-0.0002573631
	-0.0001786763	-0.0001877311	0.01426895	0.01889776	-0.0001959925	-0.0002573631	0.01928837	0.01550994
1.5e+08	0.03326181	-0.02092352	-0.0002393381	2.860963e-05	0.07904174	0.01051189	-0.0002438035	2.587273e-05
	-0.0002393381	2.860962e-05	0.03267887	-0.006444055	-0.000321296	1.593091e-06	0.07650796	0.02588298
	0.07904173	0.01051189	-0.0003212961	1.593089e-06	0.03418042	-0.02019015	-0.0002929408	1.813268e-05
	-0.0002438035	2.587273e-05	0.07650795	0.02588298	-0.0002929408	1.813267e-05	0.03357076	-0.006073798
1.6e+08	0.001826804	-0.02108125	-0.0001728945	0.0001744048	0.0611967	-0.04215185	-0.0001673365	0.0002114541
	-0.0001728945	0.0001744047	0.007829828	-0.01313685	-0.0002631639	0.0002593166	0.06856981	-0.03664883
	0.06119669	-0.04215186	-0.0002631639	0.0002593166	0.004134686	-0.02321762	-0.000210022	0.0002206798
	-0.0001673366	0.0002114538	0.06856981	-0.03664883	-0.000210022	0.0002206797	0.01024501	-0.01487698
1.7e+08	0.01154387	0.01001641	6.734073e-05	0.0003205336	0.01705349	-0.01167132	9.807012e-05	0.0003002593
	6.734073e-05	0.0003205336	0.008073337	0.01420702	0.0001042948	0.0004209686	0.009998143	-0.01307237
	0.01705349	-0.01167132	0.0001042948	0.0004209686	0.01050034	0.00701762	7.634059e-05	0.000369509
	9.807012e-05	0.0003002593	0.009998141	-0.01307237	7.634059e-05	0.000369509	0.00797464	0.01122623
1.8e+08	0.0420632	-0.008644853	0.0003118909	6.699298e-05	0.06000004	0.0212821	0.0002959787	7.359761e-05
	0.0003118909	6.699297e-05	0.03700194	0.00799536	0.0003772739	0.0001179598	0.04879022	0.03820006
	0.06000004	0.0212821	0.0003772739	0.0001179598	0.04091641	-0.008166172	0.0003570547	0.000105482
	0.0002959779	7.359817e-05	0.04879013	0.03820011	0.0003570548	0.000105482	0.03614377	0.007705003
1.9e+08	0.01799121	-0.03513747	0.0002179843	-0.0001475849	0.08189538	-0.02985689	0.0002509357	-0.0001582549
	0.0002179844	-0.0001475847	0.02596408	-0.01883685	0.0003442684	-0.0001625916	0.09019175	-0.01244984
	0.08189538	-0.02985689	0.0003442684	-0.0001625915	0.02028951	-0.03554629	0.0002846302	-0.0001710037
	0.0002509351	-0.0001582542	0.09019175	-0.01244984	0.0002846302	-0.0001710037	0.02796553	-0.01906462
2e+08	-0.000545363	-0.005771346	7.359707e-05	-0.000331457	0.02854349	-0.03852132	4.374253e-05	-0.0003510214
	7.359707e-05	-0.000331457	0.003037834	-0.001650984	0.0001069105	-0.0004644729	0.03111093	-0.04074402
	0.02854349	-0.03852132	0.0001069105	-0.0004644729	-8.005107e-05	-0.009590831	8.983862e-05	-0.0003911958
	4.374253e-05	-0.0003510214	0.03111093	-0.04074402	8.983862e-05	-0.0003911958	0.004463904	-0.004949295
2.1e+08	0.03570034	0.003855091	-0.0003157516	-0.0002361095	0.03667991	0.01373978	-0.0002985564	-0.0002221397
	-0.0003157514	-0.0002361097	0.02753626	0.01777349	-0.0003760946	-0.0003122702	0.0191934	0.02435397
	0.03667991	0.01373978	-0.0003760946	-0.0003122703	0.03305611	0.002655312	-0.0003417683	-0.0002962211
	-0.0002985562	-0.0002221399	0.01919337	0.02435399	-0.0003417683	-0.0002962211	0.02588669	0.01562392
2.2e+08	0.03803376	-0.03590043	-0.0002987524	0.0001227785	0.08643875	-0.009797297	-0.0003235658	8.833899e-05
	-0.0002987524	0.0001227784	0.04307316	-0.01097266	-0.0004048582	7.780817e-05	0.08682145	0.01967421
	0.08643875	-0.009797297	-0.0004048582	7.780817e-05	0.0386694	-0.03473035	-0.0003796527	0.0001075795
	-0.0003235658	8.833898e-05	0.08682146	0.01967421	-0.0003796527	0.0001075795	0.04318422	-0.01035342
2.3e+08	0.000235881	-0.03031627	-0.0001693961	0.0002789789	0.05236087	-0.05329276	-0.0001841632	0.000320298
	-0.0001693962	0.0002789789	0.01309105	-0.0204018	-0.0002867242	0.0003764091	0.06696556	-0.04583508
	0.05236087	-0.05329276	-0.0002867242	0.0003764091	0.002345612	-0.0331403	-0.0002196728	0.0003371483
	-0.0001841634	0.0003202978	0.06696556	-0.04583509	-0.0002196728	0.0003371483	0.01561744	-0.02227177
2.4e+08	0.01727527	0.00417737	0.0001934943	0.0003936227	0.02148162	-0.01031527	0.0002026556	0.0003786428
	0.0001934943	0.0003936227	0.01207395	0.01192096	0.0002255315	0.000517642	0.008329563	-0.01022788
	0.02148162	-0.01031527	0.0002255315	0.000517642	0.01483896	0.0007503532	0.0001930335	0.0004660416
	0.000202655	0.0003786435	0.008329563	-0.01022788	0.0001930335	0.0004660416	0.01146839	0.007984121
2.5e+08	0.04896279	-0.02368981	0.0004145058	-2.218717e-05	0.07310506	0.005493587	0.0003973165	2.168141e-05
	0.0004145058	-2.218717e-05	0.04676038	0.005061035	0.0004928228	4.790827e-05	0.05903075	0.03806981
	0.07310506	0.005493586	0.0004928228	4.790827e-05	0.0469416	-0.02246083	0.0004870381	3.777877e-05
	0.0003973158	2.168214e-05	0.05903076	0.03806981	0.0004870381	3.777877e-05	0.04466312	0.004687265
2.6e+08	0.01584622	-0.05019429	0.0002215654	-0.0002445664	0.07643554	-0.05071778	0.0002833845	-0.0002513815
	0.0002215655	-0.0002445664	0.03452549	-0.0281875	0.0003691883	-0.0002624088	0.09535896	-0.0235359
	0.07643554	-0.05071778	0.0003691883	-0.0002624088	0.01824284	-0.05056568	0.0003087733	-0.0002826534
	0.0002833846	-0.0002513815	0.09535888	-0.02353583	0.0003087734	-0.0002826535	0.03628946	-0.02786319
2.7e+08	-0.0006078695	-0.01337888	-2.906308e-06	-0.0004348004	0.02267501	-0.04120094	-1.99729e-05	-0.0004576427
	-2.906308e-06	-0.0004348004	0.005672846	-0.009501303	3.748392e-05	-0.0005855998	0.02694811	-0.04499344
	0.02267501	-0.04120094	3.748392e-05	-0.0005855998	-0.001045496	-0.01791374	2.505394e-05	-0.0005095424
	-1.99729e-05	-0.0004576427	0.02694811	-0.04499345	2.505394e-05	-0.0005095424	0.00730212	-0.01339179
2.8e+08	0.04195651	-0.009147667	-0.0004622742	-0.0001914065	0.04850026	0.005576007	-0.0004269484	-0.0002043108
	-0.0004622741	-0.0001914066	0.03336775	0.01472359	-0.0005362752	-0.0002838516	0.02410691	0.02733257
	0.04850026	0.005576007	-0.0005362752	-0.0002838516	0.03789682	-0.009810973	-0.0005006881	-0.0002858205
	-0.0004269484	-0.0002043109	0.02410691	0.02733257	-0.0005006881	-0.0002858205	0.03060422	0.01180801
2.9e+08	0.03706654	-0.05461951	-0.0003150054	0.0002361181	0.08823609	-0.0346267	-0.0003696782	0.0001798384
	-0.0003150054	0.0002361181	0.053233	-0.01909343	-0.0004419642	0.0002001291	0.09678802	0.01204457
	0.08823609	-0.0346267	-0.0004419648	0.00020013	0.03760123	-0.0526652	-0.0004313461	0.0002288796
	-0.0003696782	0.0001798384	0.09678795	0.01204464	-0.0004313467	0.0002288805	0.05233331	-0.01782701
3e+08	-0.004813259	-0.04196775	-0.000130476	0.0003739801	0.04022157	-0.06559638	-0.0001597403	0.0004268107
	-0.000130476	0.0003739801	0.0176449	-0.03283446	-0.0002482631	0.0004901212	0.06600326	-0.05651682
	0.04022157	-0.06559638	-0.0002482631	0.0004901212	-0.002884212	-0.04528226	-0.0001873952	0.0004483698
	-0.0001597403	0.0004268107	0.06600319	-0.05651675	-0.0001873952	0.0004483699	0.02058554	-0.03439536
3.1e+08	0.01965839	-0.00662018	0.0003423359	0.000421005	0.02465436	-0.01330861	0.0003328713	0.0004168704
	0.000342335	0.0004210045	0.01354547	0.005216518	0.0003872001	0.0005613147	0.006877762	-0.009917819
	0.02465436	-0.01330861	0.0003872001	0.0005613147	0.01574607	-0.01006502	0.0003359777	0.0005226644
	0.0003328713	0.0004168704	0.006877762	-0.009917819	0.0003359777	0.0005226644	0.01265688	0.0001966327
3.2e+08	0.04935609	-0.04309841	0.0004788095	-0.0001495921	0.08079392	-0.01590256	0.0004756457	-6.904275e-05
	0.0004788095	-0.0001495921	0.05483528	-0.00087876	0.0005873686	-8.646188e-05	0.06855178	0.03584314
	0.08079392	-0.01590256	0.0005873686	-8.646189e-05	0.04663116	-0.04068937	0.0005926352	-7.4818e-05
	0.0004756457	-6.904275e-05	0.06855178	0.03584314	0.0005926352	-7.4818e-05	0.05116911	-0.001268796
3.3e+08	0.007902622	-0.06655658	0.000187298	-0.0003338526	0.06484783	-0.07302011	0.0002789324	-0.0003512132
	0.000187298	-0.0003338526	0.04204226	-0.04162724	0.0003371847	-0.000379508	0.1002667	-0.03595133
	0.06484783	-0.07302011	0.0003371847	-0.000379508	0.01056481	-0.06671209	0.0002886462	-0.000399247
	0.0002789323	-0.0003512132	0.1002666	-0.03595125	0.0002886463	-0.0003992471	0.04357807	-0.04020351
3.4e+08	-0.004322951	-0.02357801	-0.0001076376	-0.0005090137	0.01412485	-0.04572066	-0.0001170051	-0.000539695
	-0.0001076376	-0.0005090137	0.005705236	-0.02190682	-7.644225e-05	-0.0006724625	0.02303012	-0.05138514
	0.01412484	-0.04572067	-7.644225e-05	-0.0006724625	-0.005695607	-0.02856374	-7.287117e-05	-0.0005994592
	-0.0001170051	-0.000539695	0.02303012	-0.05138514	-7.287027e-05	-0.0005994588	0.007977165	-0.02629939
3.5e+08	0.04221785	-0.02634231	-0.0005929466	-9.755818e-05	0.05575578	-0.007559509	-0.0005495941	-0.0001421674
	-0.0005929466	-9.755823e-05	0.03621564	0.008805003	-0.000690302	-0.000200748	0.02826734	0.0278757
	0.05575578	-0.007559524	-0.000690302	-0.000200748	0.03686453	-0.02601955	-0.000655377	-0.0002277285
	-0.0005495939	-0.0001421681	0.02826728	0.02787578	-0.0006553762	-0.0002277282	0.03221511	0.004909993
3.6e+08	0.02844333	-0.07463907	-0.0002881604	0.0003528062	0.08234015	-0.06178302	-0.0003815851	0.0002869045
	-0.0002881603	0.0003528063	0.06157777	-0.03025123	-0.0004332708	0.0003416889	0.1057334	0.002764089
	0.08234025	-0.06178301	-0.0004332708	0.0003416889	0.02915139	-0.07164552	-0.0004427074	0.0003698712
	-0.0003815851	0.0002869044	0.1057334	0.002764089	-0.0004427074	0.0003698712	0.05936736	-0.02792426
3.7e+08	-0.01492674	-0.05380852	-6.414741e-05	0.0004489607	0.02304853	-0.07786964	-0.0001010016	0.0005213518
	-6.414741e-05	0.0004489607	0.01967644	-0.04932	-0.0001711723	0.0005782116	0.06479391	-0.06878015
	0.02304853	-0.07786964	-0.0001711733	0.0005782113	-0.0130936	-0.05745606	-0.0001172856	0.0005428071
	-0.0001010016	0.0005213518	0.06479391	-0.06878015	-0.0001172855	0.0005428071	0.02339048	-0.05011198
3.8e+08	0.01689175	-0.02003665	0.0004970266	0.0004051608	0.02373833	-0.01917585	0.0004750704	0.0004149864
	0.0004970266	0.0004051608	0.01123301	-0.004525989	0.0005481249	0.0005594379	0.004826007	-0.01200791
	0.02373833	-0.01917585	0.0005481249	0.0005594379	0.01156903	-0.02313263	0.0004908665	0.0005378219
	0.0004750714	0.0004149867	0.004826007	-0.01200791	0.0004908665	0.0005378219	0.01032946	-0.01085819
3.9e+08	0.04160385	-0.06419298	0.0005037004	-0.0002987703	0.08072857	-0.04010689	0.000525646	-0.0001871181
	0.0005037002	-0.0002987694	0.06007754	-0.008997376	0.0006423049	-0.0002412661	0.07672321	0.03159716
	0.08072857	-0.04010689	0.0006423058	-0.0002412658	0.0385057	-0.06027095	0.0006695315	-0.0002198148
	0.000525647	-0.0001871179	0.07672316	0.03159724	0.0006695316	-0.0002198148	0.05448443	-0.00933893
4e+08	-0.007074099	-0.08160565	0.0001230676	-0.0004079331	0.04591958	-0.09445825	0.0002409351	-0.0004482517
	0.0001230676	-0.0004079331	0.04688987	-0.05820015	0.0002678711	-0.0004778376	0.1040871	-0.04975505
	0.04591958	-0.09445825	0.0002678711	-0.0004778376	-0.003905557	-0.08143557	0.0002285646	-0.0005120869
	0.000240935	-0.0004482517	0.1040871	-0.04975497	0.0002285647	-0.000512087	0.04824994	-0.05507069
4.1e+08	-0.01305114	-0.03379917	-0.0002277455	-0.0005516487	0.0009683685	-0.05039038	-0.0002371361	-0.000592128
	-0.0002277446	-0.0005516485	0.001740978	-0.03738914	-0.0001984854	-0.0007187233	0.01849232	-0.05973077
	0.0009683704	-0.05039038	-0.0001984854	-0.0007187233	-0.0152762	-0.03900679	-0.0001936644	-0.0006558581
	-0.0002371351	-0.0005921278	0.01849232	-0.05973077	-0.0001936644	-0.0006558581	0.00519494	-0.04218215
4.2e+08	0.03521779	-0.04491351	-0.0006991856	3.235921e-05	0.05617508	-0.02290996	-0.0006568815	-4.265791e-05
	-0.0006991845	3.235869e-05	0.03521332	0.001189499	-0.0008162351	-8.726583e-05	0.03108585	0.02618359
	0.05617508	-0.02290996	-0.0008162351	-8.726572e-05	0.02885398	-0.04323659	-0.0007955773	-0.0001297963
	-0.0006568815	-4.265791e-05	0.03108585	0.02618359	-0.0007955773	-0.0001297963	0.02987333	-0.003945125
4.3e+08	0.01127697	-0.09301939	-0.0002249875	0.0004630052	0.06764697	-0.08803825	-0.0003599834	0.0004001337
	-0.0002249875	0.0004630052	0.06686528	-0.04357284	-0.0003866184	0.0004775972	0.1129454	-0.00816678
	0.06764697	-0.08803825	-0.0003866185	0.0004775982	0.01254993	-0.08887038	-0.0004151088	0.0005204322
	-0.0003599834	0.0004001337	0.1129454	-0.008166781	-0.0004151088	0.0005204322	0.06310448	-0.03975238
4.4e+08	-0.03090986	-0.06306254	2.093974e-05	0.0004998517	-5.693739e-05	-0.08784349	-1.409465e-05	0.0005973419
	2.093988e-05	0.0004998516	0.01778856	-0.06844851	-7.460988e-05	0.0006344099	0.06246682	-0.08244123
	-5.693851e-05	-0.08784348	-7.461048e-05	0.00063441	-0.0290084	-0.06696759	-1.54455e-05	0.0006136667
	-1.409461e-05	0.0005973419	0.06246686	-0.08244109	-1.544512e-05	0.0006136658	0.02273816	-0.06801994
4.5e+08	0.008165908	-0.03310927	0.00064529	0.0003526455	0.0170145	-0.02531264	0.0006183476	0.000375052
	0.000645289	0.0003526455	0.004311528	-0.01583844	0.0006946593	0.0005230981	0.001494165	-0.01618014
	0.01701448	-0.02531266	0.0006946593	0.0005230981	0.001633368	-0.03554912	0.0006457224	0.0005125634
	0.0006183467	0.000375052	0.001494165	-0.01618014	0.0006457224	0.0005125634	0.003742041	-0.02375644
4.6e+08	0.02525505	-0.08383845	0.0004905416	-0.0004574143	0.07177046	-0.06355934	0.0005440818	-0.0003236191
	0.0004905416	-0.0004574133	0.06173046	-0.01827157	0.0006613401	-0.0004034987	0.08296213	0.02542139
	0.07177046	-0.06355934	0.0006613401	-0.0004034987	0.02224162	-0.07821712	0.0007128595	-0.000387519
	0.0005440818	-0.0003236182	0.08296214	0.02542138	0.0007128595	-0.000387519	0.05389504	-0.01851898
4.7e+08	-0.02933565	-0.09236946	3.565108e-05	-0.0004630952	0.01949421	-0.1119678	0.0001728777	-0.0005361489
	3.565108e-05	-0.0004630952	0.04783207	-0.07672881	0.0001729062	-0.0005553761	0.1060277	-0.06481533
	0.01949421	-0.1119678	0.0001729062	-0.0005553761	-0.02535486	-0.09191473	0.0001317862	-0.0006139548
	0.0001728777	-0.0005361489	0.1060277	-0.06481533	0.0001317862	-0.0006139548	0.04916745	-0.07131911
4.8e+08	-0.02700459	-0.04103936	-0.0003526844	-0.0005630304	-0.01750093	-0.05262451	-0.0003712391	-0.0006121595
	-0.0003526846	-0.0005630305	-0.006990255	-0.05428321	-0.0003197225	-0.0007307952	0.01261381	-0.06960765
