!$
! Info: Touchstone file created by Circ.  Input file=Tx_PCB_4dB_OSFP_22dB_OSFP_4dB_PCB_Rx_TP0_TP5_VendorX.circ
!$
# Hz S RI R 50
0	0.05366365	-8.983965e-14	-0.0004760787	7.234851e-18	0.01299785	4.348407e-13	-0.0003702956	6.727751e-18
	-0.0004760787	7.229067e-18	0.05008618	1.96145e-13	-5.010944e-05	1.11503e-17	0.01324979	4.652449e-13
	0.01299754	4.345701e-13	-5.010947e-05	1.077027e-17	0.05097447	3.138518e-13	-0.0001747199	1.126298e-17
	-0.0003702956	6.769002e-18	0.01324981	4.656908e-13	-0.0001747199	1.150762e-17	0.05536366	2.103457e-13
1e+07	0.08549215	0.01943034	-0.0004677671	0.0001971557	0.04736776	0.04072721	-0.0003759057	0.0001145772
	-0.000467767	0.0001971553	0.08305068	0.02026183	-0.000116078	-6.431751e-05	0.0474584	0.04080823
	0.04736769	0.04072721	-0.0001160795	-6.431521e-05	0.08277669	0.01880184	-0.0002093078	1.351382e-05
	-0.000375906	0.0001145778	0.0474584	0.04080824	-0.0002093076	1.351372e-05	0.09046371	0.02192763
2e+07	0.1102304	-0.02025624	-0.0003205267	0.0004227367	0.09530208	0.01161498	-0.0003148472	0.0002867301
	-0.0003205271	0.0004227365	0.1081061	-0.01879234	-0.0002198712	1.170365e-05	0.09490003	0.0121996
	0.09530198	0.01161503	-0.0002198699	1.170596e-05	0.1063068	-0.02024778	-0.0002402814	9.708704e-05
	-0.0003148469	0.0002867306	0.09490005	0.0121996	-0.0002402814	9.708672e-05	0.1177958	-0.0188108
3e+07	0.07943829	-0.06226755	-0.0001421665	0.000529151	0.07699488	-0.04293528	-0.0002553474	0.0004284965
	-0.0001421669	0.0005291514	0.07817302	-0.06077646	-0.0002879178	0.0001675741	0.07651573	-0.04137378
	0.07699485	-0.04293519	-0.0002879154	0.0001675742	0.07590433	-0.0607287	-0.0003044657	0.000233643
	-0.0002553468	0.0004284965	0.07651574	-0.0413738	-0.000304466	0.0002336428	0.0874203	-0.06380211
4e+07	0.02960727	-0.05091855	0.0001129572	0.0007227613	0.01920328	-0.03722332	-3.5408e-05	0.000760383
	0.0001129573	0.0007227619	0.02807624	-0.05044694	-0.0001889765	0.0004896796	0.01927311	-0.03501424
	0.0192033	-0.03722328	-0.0001889753	0.0004896779	0.02761369	-0.04935536	-0.0001881452	0.0006132878
	-3.54077e-05	0.0007603826	0.0192731	-0.03501424	-0.0001881454	0.0006132879	0.03479947	-0.05435725
5e+07	0.02639244	-0.004190798	0.0007307445	0.0006411147	0.01387202	0.02032682	0.0006864145	0.0007577346
	0.000730745	0.000641115	0.02289772	-0.003390184	0.0003137315	0.0006091898	0.01432943	0.02243344
	0.013872	0.02032683	0.000313731	0.000609188	0.02455879	-0.004029192	0.0004420666	0.0007282924
	0.0006864144	0.0007577342	0.01432943	0.02243344	0.0004420665	0.0007282925	0.02853374	-0.005650318
6e+07	0.069562	0.007748213	0.001045958	-4.811783e-05	0.06927809	0.03604014	0.001063682	2.984016e-05
	0.001045959	-4.811798e-05	0.06529386	0.01132225	0.0006836473	0.0002060673	0.06915314	0.03799286
	0.06927805	0.03604018	0.0006836458	0.0002060666	0.06623993	0.007700302	0.0008509162	0.0001934616
	0.001063682	2.983999e-05	0.06915315	0.03799286	0.0008509161	0.0001934618	0.07255837	0.009940903
7e+07	0.09313914	-0.03195027	0.0007882378	-0.0006077253	0.09655515	-0.0145122	0.000820613	-0.0005141979
	0.0007882381	-0.0006077259	0.09128048	-0.02625793	0.0006668262	-0.0002042872	0.09556488	-0.01147137
	0.09655515	-0.01451214	0.0006668247	-0.0002042864	0.08924761	-0.03036861	0.0007885518	-0.0002636142
	0.0008206126	-0.0005141977	0.09556489	-0.01147138	0.000788552	-0.0002636139	0.1000933	-0.02949853
8e+07	0.06369135	-0.06847596	0.0004938769	-0.0009985325	0.0543736	-0.05263231	0.0006454295	-0.0009254935
	0.0004938765	-0.0009985331	0.06436543	-0.06446185	0.0005906915	-0.0006051145	0.05393846	-0.04795226
	0.05437362	-0.05263227	0.0005906911	-0.000605113	0.0612512	-0.06582374	0.0007497391	-0.0007399481
	0.0006454293	-0.0009254931	0.05393846	-0.04795227	0.0007497393	-0.0007399481	0.07211	-0.07025817
9e+07	0.02181856	-0.05334463	-0.0002548885	-0.001453338	0.008765707	-0.01998749	-8.463344e-05	-0.001575164
	-0.0002548891	-0.001453338	0.02080107	-0.05206204	6.633108e-05	-0.001123832	0.009748367	-0.01510919
	0.008765715	-0.01998748	6.63319e-05	-0.001123831	0.02067707	-0.05179456	8.721852e-05	-0.001452579
	-8.463325e-05	-0.001575164	0.009748365	-0.01510919	8.721867e-05	-0.001452579	0.0260171	-0.05811886
1e+08	0.02726778	-0.01269637	-0.001440683	-0.0009552606	0.03272018	0.03060274	-0.001467902	-0.001138434
	-0.001440683	-0.0009552603	0.02241427	-0.009746791	-0.0009079329	-0.0008988749	0.03377102	0.03443908
	0.03272016	0.03060276	-0.0009079317	-0.0008988747	0.02516698	-0.01250333	-0.001204134	-0.001138526
	-0.001467902	-0.001138434	0.03377102	0.03443908	-0.001204134	-0.001138527	0.02690842	-0.01402708
1.1e+08	0.06828098	-0.01140153	-0.001644894	0.0003254411	0.0873361	0.01646949	-0.001728539	0.0002661925
	-0.001644894	0.0003254417	0.06377742	-0.003412436	-0.001206882	-6.267726e-06	0.08675759	0.02045015
	0.0873361	0.01646953	-0.001206881	-6.268451e-06	0.06458467	-0.01029518	-0.00153346	4.598862e-05
	-0.001728539	0.0002661924	0.0867576	0.02045015	-0.00153346	4.598841e-05	0.06993728	-0.007154433
1.2e+08	0.08152299	-0.05334131	-0.001105066	0.001093246	0.08594631	-0.0398199	-0.001165979	0.001010856
	-0.001105065	0.001093246	0.08199866	-0.04386771	-0.0009706691	0.0005999513	0.08465899	-0.03344947
	0.08594632	-0.03981987	-0.0009706689	0.0005999501	0.0783641	-0.05032269	-0.001203563	0.0007545389
	-0.001165979	0.001010856	0.08465899	-0.03344948	-0.001203563	0.0007545388	0.08922202	-0.04966471
1.3e+08	0.04594532	-0.08132544	-0.000506315	0.001710309	0.03194043	-0.0515262	-0.0007257712	0.00166983
	-0.0005063143	0.001710309	0.04877879	-0.07607448	-0.0006416719	0.001207367	0.03266108	-0.04326102
	0.03194045	-0.05152619	-0.0006416726	0.001207366	0.04474036	-0.07827759	-0.0008487349	0.001538266
	-0.0007257713	0.001669829	0.03266107	-0.04326103	-0.0008487352	0.001538266	0.05440856	-0.08407182
1.4e+08	0.01019467	-0.05773454	0.0009104766	0.002055101	0.009860214	-0.001766642	0.000732543	0.002295758
	0.0009104771	0.0020551	0.008846793	-0.0552912	0.0004383971	0.001662405	0.01263366	0.005321628
	0.009860214	-0.001766636	0.000438396	0.001662405	0.009357212	-0.05646694	0.0005841884	0.00218067
	0.0007325427	0.002295758	0.01263366	0.005321626	0.0005841884	0.00218067	0.01194304	-0.06297392
1.5e+08	0.02508892	-0.02124665	0.002323296	0.0007824405	0.05531347	0.02900961	0.002455143	0.001021815
	0.002323296	0.00078244	0.01949272	-0.01447385	0.001636141	0.0008266247	0.05683034	0.03423599
	0.05531347	0.02900963	0.001636141	0.0008266254	0.02248513	-0.02051597	0.002171225	0.001023377
	0.002455143	0.001021816	0.05683035	0.03423599	0.002171225	0.001023377	0.02221915	-0.02023932
1.6e+08	0.06409647	-0.03031501	0.00206232	-0.0009518815	0.09515118	-0.009934952	0.002210864	-0.0009264699
	0.00206232	-0.0009518821	0.06165211	-0.01744345	0.001605743	-0.00045617	0.09392698	-0.0031756
	0.09515119	-0.009934927	0.001605743	-0.000456169	0.06055455	-0.02775326	0.002028568	-0.0006615029
	0.002210864	-0.0009264697	0.09392699	-0.003175605	0.002028569	-0.0006615027	0.06607397	-0.02297872
1.7e+08	0.06625887	-0.07392302	0.00116358	-0.001782995	0.06689165	-0.05743131	0.001269707	-0.001709456
	0.001163579	-0.001782995	0.07045787	-0.06214838	0.001093434	-0.001161837	0.06617395	-0.04668498
	0.06689167	-0.0574313	0.001093435	-0.001161836	0.06428204	-0.06984671	0.001358806	-0.001472939
	0.001269707	-0.001709456	0.06617395	-0.04668498	0.001358807	-0.00147294	0.07545593	-0.06984715
1.8e+08	0.02461606	-0.09181762	8.482403e-05	-0.002479235	0.01555974	-0.04126588	0.0003914112	-0.002519002
	8.482344e-05	-0.002479235	0.02895883	-0.08619986	0.0003623848	-0.001879049	0.0188102	-0.02939358
	0.01555975	-0.04126588	0.0003623858	-0.001879049	0.02445927	-0.08876104	0.0004813631	-0.002426888
	0.0003914115	-0.002519002	0.0188102	-0.02939358	0.0004813632	-0.002426888	0.03192035	-0.09564225
1.9e+08	-0.00342988	-0.05942351	-0.001953796	-0.002279088	0.02154022	0.0116401	-0.001826826	-0.002680294
	-0.001953797	-0.002279088	-0.005422194	-0.05458655	-0.001265068	-0.001927245	0.02645517	0.02028228
	0.02154022	0.01164011	-0.001265067	-0.001927245	-0.004230869	-0.05820382	-0.001696392	-0.002513006
	-0.001826826	-0.002680294	0.02645517	0.02028227	-0.001696392	-0.002513006	-0.004870115	-0.0631337
2e+08	0.02112591	-0.02849203	-0.00311841	-0.0001098718	0.07576155	0.01538601	-0.003405791	-0.0003643449
	-0.00311841	-0.0001098713	0.01669302	-0.01664619	-0.002321961	-0.0003602353	0.07724183	0.0223658
	0.07576155	0.01538603	-0.002321961	-0.0003602361	0.01834807	-0.02681895	-0.003055738	-0.000366118
	-0.003405791	-0.0003643451	0.07724183	0.0223658	-0.003055738	-0.0003661181	0.01726686	-0.02319611
2.1e+08	0.05651204	-0.04827994	-0.002176492	0.001805011	0.09133708	-0.03763513	-0.002381847	0.001844027
	-0.002176491	0.001805011	0.05846578	-0.03159015	-0.001781767	0.001113445	0.08987262	-0.02668239
	0.09133709	-0.03763512	-0.001781768	0.001113445	0.05374368	-0.04435081	-0.002213284	0.001518311
	-0.002381847	0.001844027	0.08987262	-0.0266824	-0.002213284	0.001518311	0.06072526	-0.03820445
2.2e+08	0.04628939	-0.09166244	-0.0008877195	0.002566002	0.04442897	-0.06498507	-0.001058965	0.002517843
	-0.0008877189	0.002566002	0.05428447	-0.07943962	-0.0009584051	0.001820857	0.04596904	-0.04911597
	0.04442899	-0.06498507	-0.0009584059	0.001820857	0.04574763	-0.08701646	-0.001178301	0.002314735
	-0.001058965	0.002517843	0.04596904	-0.04911598	-0.001178301	0.002314735	0.05664658	-0.0882196
2.3e+08	0.0002624055	-0.0969117	0.00078659	0.003091188	0.008657268	-0.02646501	0.0004084812	0.003288338
	0.0007865903	0.003091187	0.005141992	-0.09064195	0.0002865904	0.002455253	0.01570351	-0.01166564
	0.008657271	-0.02646501	0.0002865896	0.002455254	0.0009584973	-0.09408475	0.0003841997	0.003182277
	0.0004084809	0.003288338	0.01570351	-0.01166565	0.0003841997	0.003182277	0.005153328	-0.1006302
2.4e+08	-0.01698258	-0.05678138	0.003167582	0.00196257	0.03996497	0.0156862	0.003197167	0.002532989
	0.003167582	0.001962569	-0.01861366	-0.04795258	0.002259999	0.001771378	0.04677273	0.02546288
	0.03996497	0.01568622	0.002259998	0.001771379	-0.01777665	-0.05537478	0.003020108	0.002265359
	0.003197167	0.002532989	0.04677273	0.02546288	0.003020108	0.002265359	-0.02076295	-0.05650527
2.5e+08	0.0167247	-0.03442179	0.003607921	-0.0009679688	0.08884866	-0.007755604	0.004085116	-0.0007835021
	0.003607921	-0.0009679692	0.01615318	-0.01766292	0.002790813	-0.0004433181	0.09013165	0.00215454
	0.08884867	-0.007755591	0.002790813	-0.0004433174	0.01423642	-0.03165144	0.00362139	-0.0007311186
	0.004085116	-0.0007835019	0.09013166	0.002154537	0.00362139	-0.0007311186	0.01444156	-0.02420237
2.6e+08	0.04538058	-0.06498983	0.001927854	-0.002747853	0.07708288	-0.06145227	0.002164605	-0.002882171
	0.001927854	-0.002747853	0.05295655	-0.04671474	0.001681467	-0.001866543	0.07689276	-0.04484458
	0.07708289	-0.06145226	0.001681467	-0.001866542	0.04388775	-0.06002843	0.00203144	-0.00247472
	0.002164605	-0.002882171	0.07689276	-0.04484458	0.002031441	-0.00247472	0.05289691	-0.05359859
2.7e+08	0.021653	-0.1045606	0.0002384569	-0.003311122	0.02366682	-0.06287531	0.0004897325	-0.003329414
	0.0002384565	-0.003311122	0.03236094	-0.09293492	0.0005240593	-0.002481321	0.0297128	-0.04200636
	0.02366683	-0.06287531	0.0005240601	-0.002481321	0.02260278	-0.09983875	0.0006099962	-0.003154687
	0.0004897327	-0.003329414	0.0297128	-0.04200636	0.0006099963	-0.003154687	0.0319708	-0.101901
2.8e+08	-0.02500712	-0.09463553	-0.002031121	-0.003339068	0.01168062	-0.01262286	-0.001658769	-0.003775512
	-0.002031121	-0.003339067	-0.01975573	-0.08634692	-0.001263139	-0.002766767	0.023367	0.003976127
	0.01168062	-0.01262286	-0.001263139	-0.002766767	-0.02364007	-0.09214755	-0.001684116	-0.003573124
	-0.001658768	-0.003775512	0.023367	0.003976125	-0.001684116	-0.003573124	-0.02268159	-0.09594923
2.9e+08	-0.02796409	-0.04994643	-0.004292455	-0.001056004	0.05958837	0.008404834	-0.004605676	-0.001731666
	-0.004292454	-0.001056004	-0.02689232	-0.03630898	-0.003221286	-0.001137017	0.0679835	0.01948505
	0.05958838	0.008404844	-0.003221286	-0.001137018	-0.02859805	-0.04817297	-0.004272269	-0.001370875
	-0.004605677	-0.001731666	0.0679835	0.01948504	-0.004272269	-0.001370875	-0.0316215	-0.04399092
3e+08	0.01262384	-0.03995205	-0.00364516	0.002289416	0.09122729	-0.0359583	-0.004294438	0.002290065
	-0.00364516	0.002289417	0.0182236	-0.02008891	-0.002918021	0.001466187	0.09317803	-0.0215356
	0.0912273	-0.03595829	-0.002918022	0.001466187	0.01092438	-0.0361809	-0.003708076	0.002092547
	-0.004294438	0.002290065	0.09317803	-0.0215356	-0.003708076	0.002092547	0.01437664	-0.02581157
3.1e+08	0.03034411	-0.07987745	-0.001302682	0.003646987	0.05558577	-0.077654	-0.001530689	0.003895077
	-0.001302682	0.003646987	0.04315153	-0.06230778	-0.001285471	0.002614356	0.05927978	-0.05465575
	0.05558578	-0.077654	-0.001285472	0.002614356	0.0304489	-0.07437933	-0.001472491	0.00339754
	-0.001530689	0.003895077	0.05927977	-0.05465575	-0.001472491	0.00339754	0.04090853	-0.06865971
3.2e+08	-0.006507074	-0.1105273	0.0007832565	0.003871717	0.00853527	-0.05380324	0.0004628774	0.004022531
	0.0007832567	0.003871717	0.005680187	-0.09909308	0.0002233095	0.003028967	0.02129379	-0.02913253
	0.008535276	-0.05380323	0.000223309	0.003028968	-0.004156288	-0.106162	0.0003637033	0.003843436
	0.0004628773	0.004022531	0.02129379	-0.02913253	0.0003637033	0.003843436	0.00271446	-0.1073873
3.3e+08	-0.04800977	-0.08439776	0.003490078	0.003053115	0.02243512	-0.004522665	0.003269248	0.003767363
	0.003490078	0.003053114	-0.04103093	-0.07255264	0.002454326	0.002662798	0.03904255	0.01275861
	0.02243512	-0.004522659	0.002454326	0.002662798	-0.04607943	-0.08228746	0.003257908	0.003398224
	0.003269248	0.003767363	0.03904255	0.01275861	0.003257908	0.003398224	-0.04660257	-0.08089407
3.4e+08	-0.03433664	-0.04065872	0.005071294	-0.0003819724	0.07490606	-0.009455418	0.00576247	0.0002458909
	0.005071294	-0.0003819726	-0.02766876	-0.02300915	0.003936962	5.437002e-05	0.08503419	0.003738134
	0.07490607	-0.009455411	0.003936962	5.437043e-05	-0.03453946	-0.03848598	0.005164128	-0.0001145937
	0.00576247	0.000245891	0.08503418	0.003738133	0.005164128	-0.0001145938	-0.03457806	-0.02900767
3.5e+08	0.008536348	-0.04628088	0.003158389	-0.00366046	0.08198549	-0.06411557	0.00389064	-0.003953139
	0.003158389	-0.00366046	0.0212237	-0.02616742	0.002635952	-0.002558054	0.0867367	-0.04387401
	0.0819855	-0.06411557	0.002635953	-0.002558054	0.008041801	-0.04183736	0.003240252	-0.003504725
	0.00389064	-0.003953139	0.0867367	-0.04387401	0.003240252	-0.003504725	0.01567487	-0.03035703
3.6e+08	0.01109324	-0.09177224	0.0003215196	-0.004376374	0.03106385	-0.08457762	0.0004960712	-0.004739018
	0.0003215193	-0.004376373	0.02753754	-0.07610142	0.0006012595	-0.003258655	0.04180581	-0.05577912
	0.03106385	-0.08457762	0.00060126	-0.003258656	0.01290846	-0.0863009	0.0005581168	-0.004164573
	0.0004960713	-0.004739018	0.04180581	-0.05577912	0.0005581168	-0.004164573	0.02351469	-0.081238
3.7e+08	-0.03582973	-0.1078683	-0.002127176	-0.00409368	0.001005288	-0.04178057	-0.001798079	-0.004450943
	-0.002127176	-0.00409368	-0.02233022	-0.09502302	-0.001259462	-0.003336121	0.02204059	-0.01532567
	0.001005294	-0.04178057	-0.001259462	-0.003336122	-0.0322538	-0.1042066	-0.00170999	-0.004212394
	-0.001798079	-0.004450943	0.02204058	-0.01532567	-0.00170999	-0.004212394	-0.0274475	-0.1019152
3.8e+08	-0.06532291	-0.06741591	-0.00493731	-0.00212817	0.03689496	-0.005185722	-0.005051709	-0.003064428
	-0.004937309	-0.00212817	-0.05383414	-0.05150843	-0.003682533	-0.002038642	0.05842215	0.01206716
	0.03689497	-0.005185717	-0.003682534	-0.002038642	-0.0628538	-0.06573317	-0.004859404	-0.002523744
	-0.005051709	-0.003064428	0.05842215	0.01206716	-0.004859404	-0.002523744	-0.06151465	-0.05784023
3.9e+08	-0.03535592	-0.03171278	-0.00528459	0.002194254	0.0815323	-0.03488541	-0.006354436	0.001831579
	-0.005284589	0.002194254	-0.02081094	-0.01259381	-0.004218663	0.001360017	0.09450828	-0.01855797
	0.08153231	-0.0348854	-0.004218663	0.001360017	-0.03484473	-0.02930179	-0.005445944	0.002018449
	-0.006354436	0.001831579	0.09450828	-0.01855797	-0.005445944	0.002018449	-0.02923994	-0.01624651
4e+08	0.003198203	-0.05412705	-0.002149529	0.004879574	0.0624552	-0.08754211	-0.002814771	0.005516812
	-0.002149528	0.004879574	0.02210157	-0.03652604	-0.001937403	0.003557977	0.07318708	-0.06126927
	0.06245521	-0.08754211	-0.001937403	0.003557977	0.004146408	-0.04950335	-0.002228157	0.004747474
	-0.002814771	0.005516812	0.07318708	-0.06126927	-0.002228156	0.004747474	0.0155262	-0.03866276
4.1e+08	-0.0120951	-0.0989086	0.0009643768	0.004818596	0.007658755	-0.08267076	0.0008839047	0.005282973
	0.000964377	0.004818596	0.006312418	-0.08461598	0.000339831	0.003706159	0.02835217	-0.05015655
	0.007658762	-0.08267076	0.0003398308	0.003706159	-0.008655134	-0.09401029	0.0006635099	0.004663869
	0.0008839046	0.005282974	0.02835217	-0.05015655	0.00066351	0.004663869	0.001108965	-0.08806055
4.2e+08	-0.0629481	-0.09600527	0.003685153	0.00382986	0.0008399995	-0.03099932	0.003467915	0.004438805
	0.003685152	0.00382986	-0.04645673	-0.08001847	0.002511136	0.003272671	0.03085331	-0.005042368
	0.0008400054	-0.03099932	0.002511136	0.003272672	-0.0583585	-0.09332191	0.003329242	0.004089868
	0.003467915	0.004438805	0.0308533	-0.005042369	0.003329242	0.004089868	-0.05312137	-0.08496219
4.3e+08	-0.07432631	-0.04667796	0.006100316	0.0005492462	0.05026993	-0.01538218	0.006706541	0.00153185
	0.006100316	0.000549246	-0.05501187	-0.02814434	0.004721826	0.0008640388	0.07695728	0.001567829
	0.05026994	-0.01538218	0.004721827	0.0008640391	-0.07130426	-0.04555211	0.006181283	0.0009197454
	0.006706541	0.00153185	0.07695728	0.00156783	0.006181283	0.0009197454	-0.06405725	-0.03190291
4.4e+08	-0.03198839	-0.02604601	0.004783361	-0.00414168	0.07693322	-0.06345009	0.006101106	-0.004261939
	0.004783361	-0.00414168	-0.008932898	-0.009102472	0.003934673	-0.002915904	0.09498991	-0.04349762
	0.07693323	-0.06345009	0.003934674	-0.002915904	-0.03058355	-0.02373465	0.004950573	-0.004070094
	0.006101107	-0.004261939	0.09498991	-0.04349762	0.004950573	-0.004070094	-0.01800746	-0.009988741
4.5e+08	-0.005135403	-0.06314882	0.0006900271	-0.005759549	0.03564889	-0.1028253	0.00111721	-0.006707436
	0.0006900269	-0.005759549	0.0177652	-0.04954847	0.0008732994	-0.004315081	0.0558829	-0.07198463
	0.0356489	-0.1028253	0.0008732997	-0.004315082	-0.002735805	-0.05890004	0.0007620409	-0.005623052
	0.00111721	-0.006707436	0.0558829	-0.07198463	0.0007620409	-0.005623052	0.0109911	-0.04939672
4.6e+08	-0.03789196	-0.09934995	-0.002473044	-0.004868121	-0.01148741	-0.07406376	-0.00252311	-0.005415358
	-0.002473044	-0.004868121	-0.01792557	-0.08449614	-0.00148306	-0.003870429	0.02105908	-0.04104253
	-0.01148741	-0.07406377	-0.00148306	-0.003870429	-0.03307027	-0.09549191	-0.002118334	-0.004793599
	-0.00252311	-0.005415358	0.02105908	-0.04104254	-0.002118334	-0.004793599	-0.0236155	-0.08602331
4.7e+08	-0.08415595	-0.07604491	-0.005285862	-0.002960623	0.005908897	-0.02480351	-0.005344559	-0.003793097
	-0.005285862	-0.002960622	-0.0612479	-0.05648766	-0.003847314	-0.002725094	0.04497409	-0.00140131
	0.005908904	-0.02480351	-0.003847314	-0.002725094	-0.0787796	-0.07457703	-0.005044113	-0.003328319
	-0.005344559	-0.003793097	0.04497409	-0.001401309	-0.005044114	-0.003328319	-0.06874089	-0.05914503
4.8e+08	-0.0741078	-0.02633437	-0.006692544	0.001585366	0.05807676	-0.03367824	-0.007842265	0.0008314922
	-0.006692543	0.001585366	-0.04446532	-0.008729201	-0.005328698	0.0007924524	0.09082614	-0.0172716
	0.05807677	-0.03367824	-0.005328699	0.0007924523	-0.07056106	-0.02600114	-0.00689705	0.001309286
	-0.007842265	0.0008314922	0.09082614	-0.01727159	-0.00689705	0.001309286	-0.05397201	-0.009595083
4.9e+08	-0.02676907	-0.02574685	-0.003519689	0.005930896	0.06070673	-0.09025633	-0.004831077	0.00666984
	-0.003519688	0.005930896	0.003333671	-0.01452208	-0.003038562	0.004375491	0.08683883	-0.06748365
	0.06070674	-0.09025634	-0.003038562	0.004375491	-0.02448575	-0.02397398	-0.003632526	0.005937353
