!$
! Info: Touchstone file created by Circ.  Input file=Tx_PCB_4dB_OSFP_27dB_OSFP_4dB_PCB_Rx_TP0_TP5_VendorX.circ
!$
# Hz S RI R 50
0	0.06363768	-1.182478e-13	-2.331584e-05	9.435126e-18	0.01650432	5.583462e-13	-2.495923e-05	9.766143e-18
	-2.331584e-05	9.436408e-18	0.06071597	2.496001e-13	-2.174422e-05	1.489618e-17	0.01672761	5.969485e-13
	0.01650448	5.586302e-13	-2.174422e-05	1.48987e-17	0.0607547	4.013281e-13	-2.343486e-05	1.518607e-17
	-2.495924e-05	9.772722e-18	0.01672763	5.974048e-13	-2.343486e-05	1.51889e-17	0.06583271	2.675754e-13
1e+07	0.1030965	0.008101329	-5.259388e-05	5.405116e-05	0.06445146	0.03755894	-1.73481e-05	7.944989e-06
	-5.259388e-05	5.405117e-05	0.100518	0.009064806	-8.726309e-06	4.259932e-05	0.06419013	0.03779444
	0.06445152	0.03755897	-8.726305e-06	4.259932e-05	0.0999285	0.007482537	-5.350628e-05	5.303094e-05
	-1.73481e-05	7.944989e-06	0.06419014	0.03779445	-5.350628e-05	5.303094e-05	0.1087147	0.01080886
2e+07	0.1002668	-0.05336198	-1.797199e-05	5.866219e-05	0.09324596	-0.022022	-3.129621e-05	1.010387e-05
	-1.797199e-05	5.866218e-05	0.0983075	-0.05045399	1.227489e-05	2.52714e-05	0.0928712	-0.0205512
	0.09324602	-0.02202206	1.227488e-05	2.52714e-05	0.09634544	-0.05273635	-2.313185e-05	6.077576e-05
	-3.129622e-05	1.010387e-05	0.09287122	-0.02055121	-2.313184e-05	6.077576e-05	0.1082095	-0.0518958
3e+07	0.03406856	-0.05709761	1.154815e-05	6.95739e-05	0.02797575	-0.04276971	-1.89579e-05	4.931256e-05
	1.154815e-05	6.95739e-05	0.03372218	-0.05479096	1.74534e-05	2.64074e-05	0.02837301	-0.04085902
	0.02797574	-0.04276975	1.74534e-05	2.640741e-05	0.03150125	-0.05590532	1.099931e-05	7.434415e-05
	-1.89579e-05	4.931256e-05	0.02837301	-0.04085903	1.099931e-05	7.434415e-05	0.04095122	-0.05827373
4e+07	0.03215601	0.002775491	7.310842e-05	3.996509e-05	0.01890889	0.02483305	4.400344e-05	4.699661e-05
	7.310841e-05	3.996509e-05	0.02939103	0.004467003	5.280982e-05	-2.739382e-06	0.01891146	0.02650739
	0.01890892	0.02483305	5.280982e-05	-2.739382e-06	0.02972911	0.002640038	7.286599e-05	4.588741e-05
	4.400344e-05	4.699661e-05	0.01891146	0.0265074	7.286599e-05	4.588741e-05	0.03537498	0.0030662
5e+07	0.08829801	-0.004980703	5.921499e-05	-2.5251e-05	0.08652767	0.02116157	6.441482e-05	-7.02441e-06
	5.921498e-05	-2.525098e-05	0.08449512	0.001376863	7.909956e-06	-4.522825e-05	0.08558023	0.02412069
	0.08652769	0.02116151	7.909956e-06	-4.522825e-05	0.08442389	-0.004808446	7.019854e-05	-1.907544e-05
	6.441482e-05	-7.024408e-06	0.08558024	0.02412069	7.019854e-05	-1.907544e-05	0.09295246	0.0001804499
6e+07	0.07665237	-0.06227248	4.548397e-05	-3.911552e-05	0.0735639	-0.04495171	4.797321e-05	-5.659473e-05
	4.548398e-05	-3.911551e-05	0.07805163	-0.05419285	-5.039976e-06	-1.145041e-05	0.07364358	-0.04026339
	0.07356386	-0.04495175	-5.039972e-06	-1.145041e-05	0.07322441	-0.06055136	5.423875e-05	-4.962738e-05
	4.797322e-05	-5.659473e-05	0.07364358	-0.0402634	5.423875e-05	-4.962738e-05	0.08676799	-0.05854879
7e+07	0.02186844	-0.05017874	1.465602e-06	-9.481843e-05	0.01104124	-0.02291019	-2.028878e-05	-9.299877e-05
	1.465598e-06	-9.481843e-05	0.02371892	-0.04711243	-1.115898e-05	-4.416044e-05	0.0122373	-0.01890953
	0.01104123	-0.02291018	-1.115898e-05	-4.416044e-05	0.01980247	-0.04899162	2.049499e-08	-0.0001016965
	-2.028878e-05	-9.299877e-05	0.01223729	-0.01890953	2.049894e-08	-0.0001016965	0.02951624	-0.0521933
8e+07	0.0410863	-0.002653129	-8.401584e-05	-3.583252e-05	0.04474974	0.03355912	-9.742111e-05	-3.237414e-05
	-8.401583e-05	-3.583252e-05	0.03668974	0.002300191	-6.4208e-05	1.072577e-05	0.04433982	0.0373554
	0.04474975	0.03355909	-6.4208e-05	1.072576e-05	0.03812222	-0.002521025	-8.756773e-05	-4.859994e-05
	-9.742111e-05	-3.237414e-05	0.04433983	0.03735541	-8.756772e-05	-4.859994e-05	0.04228051	-0.0005710509
9e+07	0.08533953	-0.0315619	-5.261179e-05	1.444529e-05	0.09462237	-0.009941791	-8.161469e-05	5.151988e-05
	-5.261181e-05	1.444528e-05	0.0838154	-0.01853776	2.786283e-06	3.565985e-05	0.09362964	-0.003399884
	0.09462233	-0.009941829	2.78628e-06	3.565985e-05	0.08141174	-0.0301487	-7.444671e-05	1.795448e-05
	-8.161469e-05	5.151988e-05	0.09362965	-0.003399891	-7.44467e-05	1.795448e-05	0.09172268	-0.02220779
1e+08	0.05353321	-0.07721631	-6.152473e-05	5.207445e-05	0.04561383	-0.053303	-2.566007e-05	0.0001016241
	-6.152473e-05	5.207447e-05	0.06013342	-0.0672051	-2.583319e-05	1.376049e-05	0.0472353	-0.0455228
	0.0456138	-0.05330298	-2.583319e-05	1.37605e-05	0.05094819	-0.07485015	-5.885397e-05	7.372025e-05
	-2.566007e-05	0.0001016241	0.0472353	-0.0455228	-5.885397e-05	7.372025e-05	0.06715567	-0.07384992
1.1e+08	0.01189361	-0.0456883	3.980656e-05	0.000103796	0.01141872	0.0008292308	7.556388e-05	9.688796e-05
	3.980657e-05	0.000103796	0.01375241	-0.04253015	2.537932e-05	7.694109e-05	0.0134631	0.006467294
	0.01141873	0.0008292373	2.537933e-05	7.694109e-05	0.009964512	-0.04462286	4.729961e-05	0.0001100417
	7.556388e-05	9.688796e-05	0.0134631	0.006467293	4.72996e-05	0.0001100417	0.01792779	-0.04879774
1.2e+08	0.04851897	-0.01414856	8.457842e-05	-6.962177e-06	0.07161922	0.02349593	0.0001215764	-8.329806e-06
	8.457841e-05	-6.962159e-06	0.04374574	-0.003237507	6.805053e-05	-1.875899e-05	0.07076229	0.03006973
	0.07161921	0.0234959	6.805053e-05	-1.875898e-05	0.04509656	-0.01328507	0.0001029543	4.003725e-06
	0.0001215764	-8.329807e-06	0.07076229	0.03006973	0.0001029543	4.003725e-06	0.04860308	-0.007490949
1.3e+08	0.07500174	-0.05862094	4.700068e-05	-2.046017e-05	0.08454707	-0.04005757	7.384779e-05	-8.6337e-05
	4.70007e-05	-2.046018e-05	0.07959472	-0.04043396	1.020715e-05	-5.077207e-06	0.08461957	-0.02943466
	0.08454702	-0.04005757	1.020716e-05	-5.077208e-06	0.07157155	-0.05601663	6.82288e-05	-4.448575e-05
	7.384779e-05	-8.6337e-05	0.08461958	-0.02943467	6.82288e-05	-4.448574e-05	0.08630038	-0.046336
1.4e+08	0.02804007	-0.08588587	4.770713e-05	-9.415461e-05	0.02131221	-0.0446155	-5.106878e-06	-0.0001298586
	4.770711e-05	-9.415463e-05	0.03901855	-0.0771709	6.83988e-05	-4.435664e-05	0.02527117	-0.03442613
	0.02131221	-0.04461547	6.83988e-05	-4.435665e-05	0.02630195	-0.08331677	3.32227e-05	-0.0001127966
	-5.106881e-06	-0.0001298586	0.02527117	-0.03442613	3.32227e-05	-0.0001127966	0.04383201	-0.08551606
1.5e+08	0.005947331	-0.04093675	-9.809091e-05	-7.987786e-05	0.02803179	0.01730196	-0.0001271919	-8.418644e-05
	-9.80909e-05	-7.987785e-05	0.006237847	-0.03598639	-5.701407e-05	-9.642612e-05	0.03048159	0.02442748
	0.0280318	0.01730195	-5.701407e-05	-9.642612e-05	0.003852965	-0.03984018	-0.0001063099	-8.925538e-05
	-0.0001271919	-8.418643e-05	0.03048159	0.02442748	-0.0001063099	-8.925538e-05	0.008633109	-0.04296361
1.6e+08	0.05219806	-0.03056291	-6.809101e-05	3.605292e-05	0.08853865	-0.001684412	-0.0001376295	5.1348e-05
	-6.809103e-05	3.605291e-05	0.0506222	-0.01233814	-5.718605e-05	2.105574e-05	0.08760012	0.00872523
	0.08853862	-0.001684428	-5.718605e-05	2.105574e-05	0.04865225	-0.02862345	-0.0001013712	3.541273e-05
	-0.0001376295	5.1348e-05	0.08760013	0.008725226	-0.0001013712	3.541272e-05	0.05443649	-0.01780027
1.7e+08	0.05625108	-0.08240831	-6.272276e-05	3.519659e-05	0.06125551	-0.0590156	-6.414429e-05	0.0001283998
	-6.272277e-05	3.519662e-05	0.06914028	-0.0628645	-4.991014e-05	-1.884077e-05	0.06387021	-0.04423736
	0.06125549	-0.05901558	-4.991014e-05	-1.884077e-05	0.05374613	-0.07891323	-6.798185e-05	7.405123e-05
	-6.414429e-05	0.0001283998	0.06387021	-0.04423736	-6.798185e-05	7.405122e-05	0.07405022	-0.07059825
1.8e+08	0.0025363	-0.08621398	1.860514e-06	0.0001370499	0.009972247	-0.02516881	5.653714e-05	0.0001612209
	1.860534e-06	0.0001370499	0.01520964	-0.08028033	-8.140603e-05	0.0001092815	0.01654705	-0.01353668
	0.009972263	-0.02516879	-8.140603e-05	0.0001092815	0.001423746	-0.08375028	2.131429e-05	0.0001464506
	5.653715e-05	0.0001612209	0.01654705	-0.01353669	2.131428e-05	0.0001464506	0.01748203	-0.08960106
1.9e+08	0.004201757	-0.03723824	0.0001315018	2.315146e-05	0.05292889	0.01835662	0.000181741	4.561865e-05
	0.0001315017	2.315147e-05	0.003525358	-0.02765348	0.0001015347	8.898002e-05	0.05519497	0.02755713
	0.05292889	0.0183566	0.0001015347	8.898002e-05	0.001826268	-0.03576992	0.0001485161	3.706425e-05
	0.000181741	4.561865e-05	0.05519498	0.02755713	0.0001485161	3.706425e-05	0.004119635	-0.03486569
2e+08	0.05015704	-0.05038379	5.117463e-05	-4.18153e-05	0.08908186	-0.03302106	0.000136993	-0.0001053797
	5.117466e-05	-4.18153e-05	0.05605744	-0.0262793	4.99294e-05	-9.223754e-06	0.08926646	-0.01758823
	0.08908183	-0.03302105	4.99294e-05	-9.223755e-06	0.04698777	-0.04724182	8.959143e-05	-6.575019e-05
	0.000136993	-0.0001053797	0.08926646	-0.01758824	8.959142e-05	-6.575018e-05	0.05854586	-0.03270377
2.1e+08	0.02997914	-0.09946884	7.282655e-05	-7.827135e-05	0.03422622	-0.06193901	3.249377e-05	-0.0001732524
	7.282653e-05	-7.827137e-05	0.05041455	-0.08289875	0.0001145689	3.397994e-06	0.04099248	-0.04370525
	0.03422622	-0.06193898	0.0001145689	3.397989e-06	0.02861297	-0.09552204	5.393488e-05	-0.0001169143
	3.249377e-05	-0.0001732525	0.04099248	-0.04370525	5.393489e-05	-0.0001169143	0.05306479	-0.09189344
2.2e+08	-0.01948568	-0.07822556	-8.1863e-05	-0.0001414252	0.01498162	-0.005338311	-0.0001329915	-0.0001636075
	-8.1863e-05	-0.0001414252	-0.007795374	-0.07397066	3.977131e-05	-0.000185751	0.02370006	0.00693394
	0.01498164	-0.00533831	3.977131e-05	-0.000185751	-0.02027048	-0.07594387	-9.903501e-05	-0.0001449663
	-0.0001329915	-0.0001636075	0.02370006	0.006933938	-9.9035e-05	-0.0001449663	-0.0081694	-0.0834968
2.3e+08	0.005834208	-0.03666872	-0.0001222185	3.697539e-05	0.07515721	0.002320192	-0.0002147686	2.429203e-05
	-0.0001222185	3.697537e-05	0.007250031	-0.02050022	-0.0001369338	-5.471879e-05	0.0771882	0.01505328
	0.0751572	0.002320178	-0.0001369338	-5.471879e-05	0.003331479	-0.03446441	-0.0001565325	2.82118e-05
	-0.0002147686	2.429203e-05	0.0771882	0.01505328	-0.0001565325	2.82118e-05	0.006130185	-0.02750496
2.4e+08	0.04055334	-0.07139691	-5.44002e-05	4.045899e-05	0.0732945	-0.05996113	-0.0001123587	0.000160383
	-5.440022e-05	4.045901e-05	0.05668421	-0.04548306	-6.642167e-05	-1.208437e-05	0.07678394	-0.038869
	0.07329448	-0.05996111	-6.642167e-05	-1.208436e-05	0.03827864	-0.06719884	-7.698432e-05	9.157028e-05
	-0.0001123587	0.000160383	0.07678394	-0.03886901	-7.698432e-05	9.157027e-05	0.0576204	-0.05254229
2.5e+08	-0.001169695	-0.1065411	-4.593011e-05	0.0001386728	0.01358041	-0.05056787	2.546927e-05	0.0002102808
	-4.593008e-05	0.0001386728	0.02362437	-0.09559035	-0.0001694484	7.369566e-05	0.02560184	-0.0304229
	0.01358043	-0.05056785	-0.0001694484	7.369566e-05	-0.001416357	-0.1025795	-9.347884e-06	0.0001608999
	2.546927e-05	0.0002102808	0.02560184	-0.0304229	-9.347896e-06	0.0001608999	0.02373651	-0.105159
2.6e+08	-0.03450881	-0.06412349	0.0001537999	9.114781e-05	0.03284368	0.004830238	0.0002160405	0.0001224398
	0.0001537999	9.11478e-05	-0.02458234	-0.05871314	6.075042e-05	0.0002269587	0.04271877	0.01779669
	0.0328437	0.004830227	6.075042e-05	0.0002269587	-0.03518343	-0.06189422	0.0001705749	9.635428e-05
	0.0002160405	0.0001224398	0.04271876	0.01779669	0.0001705749	9.635429e-05	-0.02749108	-0.06769331
2.7e+08	0.008631828	-0.04106403	8.674199e-05	-6.821291e-05	0.08526291	-0.0258106	0.0002124891	-0.0001086927
	8.674201e-05	-6.82129e-05	0.01636058	-0.01887496	0.0001473655	3.205121e-06	0.08827015	-0.007695
	0.08526289	-0.0258106	0.0001473655	3.205119e-06	0.006379485	-0.0378993	0.0001351916	-8.284057e-05
	0.0002124891	-0.0001086927	0.08827015	-0.007695003	0.0001351916	-8.284057e-05	0.01371284	-0.02527806
2.8e+08	0.02228845	-0.09023107	7.382041e-05	-6.061081e-05	0.04721913	-0.07441177	6.694497e-05	-0.0002080268
	7.38204e-05	-6.061084e-05	0.04841928	-0.06750007	0.0001098143	1.00274e-05	0.05671613	-0.04827997
	0.04721913	-0.07441175	0.0001098143	1.00274e-05	0.02130117	-0.08535203	6.160193e-05	-0.0001234886
	6.694497e-05	-0.0002080268	0.05671613	-0.04827997	6.160193e-05	-0.0001234886	0.04766349	-0.07480618
2.9e+08	-0.03265924	-0.1015728	-2.851457e-05	-0.0001804018	0.006107431	-0.03213999	-0.0001099819	-0.0002253409
	-2.851459e-05	-0.0001804017	-0.007240069	-0.09606373	0.0001472974	-0.0001974772	0.02338203	-0.01192332
	0.006107452	-0.03213998	0.0001472974	-0.0001974772	-0.03197294	-0.09791608	-6.727323e-05	-0.0001814224
	-0.0001099819	-0.0002253409	0.02338203	-0.01192333	-6.727322e-05	-0.0001814224	-0.009740789	-0.1054667
3e+08	-0.04042271	-0.04810197	-0.000179786	-8.362296e-06	0.05497809	-0.0004584597	-0.0002786188	-3.578889e-05
	-0.000179786	-8.362307e-06	-0.03048089	-0.03887473	-0.0001857285	-0.0001862374	0.06535987	0.01448583
	0.05497809	-0.0004584753	-0.0001857285	-0.0001862374	-0.04102467	-0.04569713	-0.0002067475	-1.478785e-05
	-0.0002786188	-3.578889e-05	0.06535987	0.01448583	-0.0002067475	-1.478786e-05	-0.03561276	-0.04662267
3.1e+08	0.009198038	-0.0509566	-6.067735e-05	6.756507e-05	0.07872662	-0.05680011	-0.0001737515	0.0001876055
	-6.067737e-05	6.756508e-05	0.02654624	-0.02605642	-0.0001319066	4.057645e-05	0.08542924	-0.03205195
	0.07872661	-0.05680011	-0.0001319066	4.057646e-05	0.007676111	-0.04684314	-0.0001026097	0.0001184568
	-0.0001737515	0.0001876055	0.08542924	-0.03205195	-0.0001026097	0.0001184568	0.02264855	-0.03153801
3.2e+08	-0.004056261	-0.1025773	-7.772024e-05	0.0001146727	0.02009868	-0.07357021	-3.332426e-06	0.0002443491
	-7.772021e-05	0.0001146727	0.02902376	-0.08669029	-0.0001663522	4.108014e-05	0.03787549	-0.04451761
	0.02009869	-0.07357019	-0.0001663522	4.108015e-05	-0.003571629	-0.09751472	-2.865307e-05	0.000162699
	-3.332425e-06	0.0002443491	0.03787549	-0.04451761	-2.865308e-05	0.000162699	0.02653321	-0.09382735
3.3e+08	-0.05875848	-0.08502911	0.0001265335	0.0001673118	0.01287087	-0.01622108	0.0002122914	0.0001999666
	0.0001265335	0.0001673117	-0.03492392	-0.08249693	-3.229315e-05	0.0003055829	0.03430253	0.002911007
	0.01287088	-0.01622108	-3.229315e-05	0.0003055829	-0.05738275	-0.08183514	0.0001563791	0.0001556942
	0.0002122914	0.0001999666	0.03430252	0.002911006	0.0001563791	0.0001556942	-0.03991073	-0.09099141
3.4e+08	-0.0377285	-0.03525336	0.0001537361	-6.409021e-05	0.07130082	-0.02084133	0.0002958853	-8.026123e-05
	0.0001537361	-6.409019e-05	-0.02428864	-0.02148745	0.0002662719	7.669396e-05	0.08290879	-0.001821012
	0.07130081	-0.02084134	0.0002662719	7.669396e-05	-0.0381049	-0.03248179	0.0001971379	-7.080112e-05
	0.0002958853	-8.026123e-05	0.08290879	-0.001821013	0.0001971379	-7.080111e-05	-0.031144	-0.02742796
3.5e+08	0.003840792	-0.06476161	6.393734e-05	-6.394723e-05	0.05719275	-0.08090979	0.0001080168	-0.0002466215
	6.393735e-05	-6.394726e-05	0.031525	-0.04191546	0.0001184206	-5.869483e-05	0.07128706	-0.04991729
	0.05719275	-0.08090978	0.0001184206	-5.869483e-05	0.003490698	-0.05995721	7.056335e-05	-0.0001434559
	0.0001080168	-0.0002466215	0.07128706	-0.04991729	7.056335e-05	-0.0001434559	0.02672196	-0.04626472
3.6e+08	-0.03539021	-0.1042211	3.451555e-05	-0.0001806163	0.0006532396	-0.0605268	-7.97574e-05	-0.0002644719
	3.451553e-05	-0.0001806163	0.0004625862	-0.09602596	0.0001910729	-0.0001558471	0.02756747	-0.0316223
	0.0006532543	-0.06052679	0.0001910729	-0.0001558471	-0.03346535	-0.09947595	-3.332924e-05	-0.0001933977
	-7.975741e-05	-0.0002644719	0.02756747	-0.0316223	-3.332923e-05	-0.0001933977	-0.003717424	-0.1025724
3.7e+08	-0.07423809	-0.06064027	-0.0002025391	-9.497142e-05	0.02917239	-0.01093513	-0.0003087735	-0.0001200602
	-0.0002025391	-9.497141e-05	-0.05164051	-0.05810041	-0.00015218	-0.000326685	0.05342558	0.007396164
	0.0291724	-0.01093514	-0.00015218	-0.000326685	-0.07237399	-0.05793703	-0.0002257881	-8.156576e-05
	-0.0003087734	-0.0001200602	0.05342558	0.007396164	-0.0002257881	-8.156577e-05	-0.05878343	-0.06497754
3.8e+08	-0.02985137	-0.02980932	-0.0001050973	9.644648e-05	0.07399607	-0.05031903	-0.0002576024	0.0001971304
	-0.0001050973	9.644648e-05	-0.009538229	-0.01338462	-0.0002688151	5.281343e-05	0.08945742	-0.02547425
	0.07399606	-0.05031903	-0.0002688151	5.281344e-05	-0.0297276	-0.02662066	-0.0001538338	0.0001355826
	-0.0002576024	0.0001971304	0.08945742	-0.02547425	-0.0001538338	0.0001355826	-0.01745038	-0.01711607
3.9e+08	-0.01003029	-0.07861288	-8.194533e-05	8.99299e-05	0.02736525	-0.0914462	-2.765477e-05	0.000281238
	-8.194531e-05	8.992992e-05	0.02580059	-0.06191412	-0.0001319085	7.624906e-05	0.05231486	-0.05674357
	0.02736525	-0.09144619	-0.0001319085	7.624907e-05	-0.008917002	-0.07355916	-3.603471e-05	0.0001683646
	-2.765477e-05	0.000281238	0.05231485	-0.05674357	-3.603472e-05	0.0001683646	0.02045038	-0.06505225
4e+08	-0.06609478	-0.09275444	5.825749e-05	0.0002162644	-0.006133183	-0.04263543	0.0001831487	0.000256132
	5.825749e-05	0.0002162644	-0.03056086	-0.09043311	-0.0001245677	0.000303197	0.02901519	-0.01667887
	-0.00613317	-0.04263543	-0.0001245677	0.000303197	-0.06292558	-0.08874391	0.0001190966	0.0001926473
	0.0001831487	0.000256132	0.02901519	-0.01667887	0.0001190966	0.0001926473	-0.0363052	-0.09596122
4.1e+08	-0.07645929	-0.03484112	0.0002228124	-5.254249e-06	0.04660806	-0.02005325	0.0003658089	-1.086958e-05
	0.0002228123	-5.254237e-06	-0.05267673	-0.03067631	0.0003294169	0.0002234305	0.07340462	-0.000915987
	0.04660806	-0.02005326	0.0003294169	0.0002234305	-0.07421926	-0.03260455	0.0002496807	-2.085297e-05
	0.0003658089	-1.086959e-05	0.07340461	-0.0009159866	0.0002496807	-2.085296e-05	-0.061429	-0.03531
4.2e+08	-0.02227041	-0.0334311	7.288321e-05	-9.503932e-05	0.06015884	-0.07971354	0.0001725568	-0.0002868172
	7.288322e-05	-9.503932e-05	0.006423992	-0.01806169	0.0002089689	-0.000145383	0.08359864	-0.0490328
	0.06015883	-0.07971354	0.0002089689	-0.000145383	-0.02135706	-0.02995367	9.811644e-05	-0.0001724738
	0.0001725568	-0.0002868172	0.08359864	-0.0490328	9.811645e-05	-0.0001724738	-0.00176847	-0.01942853
4.3e+08	-0.03244747	-0.08715582	7.69867e-05	-0.0001515936	-0.001822825	-0.08691254	-6.011429e-05	-0.000294023
	7.698668e-05	-0.0001515936	0.007721144	-0.07825953	0.0001599224	-0.0001357114	0.03582111	-0.0527298
	-0.001822819	-0.08691253	0.0001599224	-0.0001357114	-0.02978243	-0.08237945	-1.234427e-05	-0.0001925602
	-6.011429e-05	-0.000294023	0.0358211	-0.0527298	-1.234426e-05	-0.0001925602	0.002126675	-0.08022416
4.4e+08	-0.08930792	-0.06923131	-0.000168975	-0.000189862	-0.0005676534	-0.02845621	-0.0002967999	-0.000200563
	-0.0001689749	-0.000189862	-0.05469399	-0.06992614	-5.45664e-05	-0.0004021371	0.04085874	-0.006775557
	-0.0005676466	-0.02845622	-5.456641e-05	-0.0004021371	-0.08517996	-0.06625711	-0.0002067582	-0.0001454076
	-0.0002967999	-0.0002005629	0.04085874	-0.006775557	-0.0002067581	-0.0001454076	-0.06177913	-0.07399115
4.5e+08	-0.06680097	-0.0148397	-0.0001885008	8.894209e-05	0.05624161	-0.04184629	-0.0003556101	0.0001663081
	-0.0001885008	8.894207e-05	-0.03892302	-0.009768632	-0.0004129851	-2.838971e-05	0.08729992	-0.02009307
	0.0562416	-0.0418463	-0.0004129851	-2.83897e-05	-0.06422707	-0.01306945	-0.000221609	0.0001205466
	-0.0003556101	0.0001663081	0.08729992	-0.02009307	-0.000221609	0.0001205466	-0.04851757	-0.01169781
4.6e+08	-0.02070797	-0.04427721	-7.263783e-05	9.444935e-05	0.03253467	-0.1000538	-6.241136e-05	0.0003337137
	-7.263783e-05	9.444937e-05	0.01526613	-0.03371842	-0.0001395268	0.0001803706	0.06823091	-0.06615518
	0.03253466	-0.1000538	-0.0001395268	0.0001803706	-0.01879795	-0.04078875	-4.427201e-05	0.0001894955
	-6.241136e-05	0.0003337137	0.06823091	-0.06615518	-4.427201e-05	0.0001894955	0.007571672	-0.03286051
4.7e+08	-0.06003753	-0.08530463	-1.920156e-05	0.0002203497	-0.02262409	-0.07108509	0.0001559837	0.0002859888
	-1.920154e-05	0.0002203497	-0.01877663	-0.08309666	-0.0001467844	0.000253561	0.02712728	-0.04195283
	-0.02262408	-0.07108508	-0.0001467844	0.000253561	-0.05592992	-0.08132285	8.079039e-05	0.000203072
	0.0001559837	0.0002859888	0.02712728	-0.04195283	8.079038e-05	0.000203072	-0.02441682	-0.08397686
4.8e+08	-0.09930199	-0.03874217	0.0002520137	0.0001020559	0.01225091	-0.0245583	0.0003929755	8.454121e-05
	0.0002520137	0.0001020559	-0.06388523	-0.04061443	0.0002933862	0.0003684499	0.05842256	-0.00668068
