!$
! Info: Touchstone file created by Circ.  Input file=Tx_PCB_4dB_OSFP_27dB_OSFP_4dB_PCB_Rx_TP0_TP5_VendorY.circ
!$
# Hz S RI R 50
0	0.07059068	8.037963e-22	-3.075804e-05	3.778782e-21	0.002359714	3.174405e-20	-4.00563e-05	4.909392e-21
	-3.075794e-05	3.77877e-21	0.07044579	5.34365e-22	-3.095684e-06	3.827745e-22	0.002275549	4.834877e-20
	0.002359634	3.174568e-20	-3.095655e-06	3.827709e-22	0.07047809	8.034924e-22	-2.070587e-05	2.543902e-21
	-4.0057e-05	4.909477e-21	0.002275509	4.834891e-20	-2.070557e-05	2.543866e-21	0.07045945	5.239375e-22
1e+07	0.04748081	-0.0437054	-1.327832e-05	2.174922e-05	0.05412722	0.03965757	-2.842244e-05	3.274163e-05
	-1.327832e-05	2.174922e-05	0.04862574	-0.04282561	-1.006137e-05	4.343804e-06	0.0545492	0.0390594
	0.05412722	0.03965757	-1.006127e-05	4.343821e-06	0.04889948	-0.04246573	-1.500663e-05	1.291375e-05
	-2.842254e-05	3.274173e-05	0.0545492	0.0390594	-1.500663e-05	1.291375e-05	0.05018672	-0.04164608
2e+07	-2.428692e-05	-0.03832919	1.286404e-05	6.171497e-06	0.07849137	-0.01685195	1.662922e-05	3.135202e-05
	1.286404e-05	6.171487e-06	0.001901382	-0.03912783	1.390637e-05	9.377972e-07	0.07795694	-0.01880046
	0.07849126	-0.01685204	1.390637e-05	9.377775e-07	0.002374777	-0.03892008	9.225062e-06	7.336252e-06
	1.662922e-05	3.135202e-05	0.07795694	-0.01880056	9.225072e-06	7.336251e-06	0.004167221	-0.03989914
3e+07	-0.005045315	-0.000648654	-2.942416e-06	-1.832624e-05	0.01926646	-0.02487483	1.516852e-05	-6.080416e-06
	-2.942412e-06	-1.832624e-05	-0.00483439	-0.001883258	-4.7099e-07	-3.079274e-05	0.01781267	-0.02565768
	0.01926647	-0.02487473	-4.709796e-07	-3.079274e-05	-0.004565284	-0.001876977	2.8416e-06	-2.136444e-05
	1.516852e-05	-6.080406e-06	0.01781267	-0.02565768	2.84159e-06	-2.136444e-05	-0.004432641	-0.003012204
4e+07	0.02052875	0.001468313	-1.952157e-05	1.983515e-06	0.02705269	0.03426639	-6.538387e-06	7.491608e-06
	-1.952157e-05	1.983515e-06	0.02103254	0.001695799	-2.717565e-05	-9.436173e-06	0.02787992	0.03341279
	0.0270526	0.03426641	-2.717556e-05	-9.436282e-06	0.02078214	0.002195352	-2.048975e-05	-1.025445e-05
	-6.538379e-06	7.491587e-06	0.02787982	0.0334128	-2.048975e-05	-1.025445e-05	0.02150178	0.002294954
5e+07	0.01362691	-0.01754171	1.045742e-05	1.176138e-05	0.08176599	0.01249785	2.644972e-05	2.146573e-05
	1.045742e-05	1.176138e-05	0.0154554	-0.01833753	3.36357e-06	7.85599e-06	0.08212816	0.008074248
	0.081766	0.01249795	3.363575e-06	7.8561e-06	0.01593936	-0.01708414	3.280003e-06	7.41433e-06
	2.644962e-05	2.146574e-05	0.08212816	0.008074246	3.280012e-06	7.414329e-06	0.01770166	-0.01826776
6e+07	-0.00409141	-0.004067686	1.97269e-05	-2.787971e-05	0.04742847	-0.03398031	4.417719e-05	-2.500944e-05
	1.97269e-05	-2.787971e-05	-0.003546785	-0.005965116	1.606084e-05	-3.281684e-05	0.0439618	-0.03770374
	0.04742848	-0.03398021	1.606084e-05	-3.281684e-05	-0.002403058	-0.005632229	2.313053e-05	-3.019746e-05
	4.417718e-05	-2.500953e-05	0.04396191	-0.03770366	2.313062e-05	-3.019748e-05	-0.002090314	-0.007625383
7e+07	0.01209055	0.01206155	-2.274634e-05	-3.615323e-05	0.01145041	0.01148854	-2.931086e-06	-4.318364e-05
	-2.274634e-05	-3.615323e-05	0.01217147	0.01142394	-2.8692e-05	-4.19672e-05	0.009949991	0.01112478
	0.01145037	0.01148854	-2.8692e-05	-4.19672e-05	0.01186423	0.01143947	-1.975833e-05	-5.166956e-05
	-2.93097e-06	-4.318366e-05	0.009949962	0.01112479	-1.975833e-05	-5.166956e-05	0.01206457	0.01076248
8e+07	0.02310965	-0.00542724	-2.181414e-05	4.207729e-06	0.06451333	0.03549545	-7.630244e-06	5.240184e-07
	-2.181414e-05	4.207729e-06	0.02452048	-0.00637252	-2.789174e-05	1.139395e-06	0.06633662	0.03125797
	0.06451324	0.03549547	-2.789175e-05	1.139318e-06	0.02425906	-0.004398426	-3.146857e-05	-8.857886e-06
	-7.630244e-06	5.240183e-07	0.06633662	0.03125797	-3.146857e-05	-8.857886e-06	0.02578912	-0.005795917
9e+07	0.003406656	-0.01022342	2.063693e-05	-1.067559e-05	0.07495781	-0.02062705	4.164373e-05	-1.281323e-05
	2.063693e-05	-1.067559e-05	0.004070612	-0.0125026	1.666603e-05	-1.333945e-05	0.07176459	-0.02841808
	0.07495782	-0.02062701	1.666603e-05	-1.333945e-05	0.005976437	-0.01100624	1.778529e-05	-1.333724e-05
	4.164373e-05	-1.281324e-05	0.07176456	-0.02841818	1.778538e-05	-1.333727e-05	0.00635058	-0.01371847
1e+08	0.003248696	0.01215647	-5.043687e-06	-5.910188e-05	0.01868082	-0.01595227	1.786785e-05	-7.197394e-05
	-5.043687e-06	-5.910188e-05	0.003041096	0.01087788	-8.38902e-06	-6.241798e-05	0.01275292	-0.01830964
	0.01868082	-0.01595227	-8.38901e-06	-6.241798e-05	0.00373317	0.01024636	1.634786e-06	-7.365849e-05
	1.786782e-05	-7.197404e-05	0.01275292	-0.01830964	1.634761e-06	-7.365859e-05	0.003345417	0.008893189
1.1e+08	0.02594777	0.008527233	-5.180474e-05	-2.689035e-05	0.03796454	0.03802342	-3.902521e-05	-4.270099e-05
	-5.180474e-05	-2.689035e-05	0.02708781	0.007353742	-5.443253e-05	-3.041982e-05	0.03836248	0.03645934
	0.03796445	0.03802345	-5.443253e-05	-3.041982e-05	0.02572957	0.008882149	-5.93564e-05	-5.011626e-05
	-3.902519e-05	-4.270089e-05	0.03836248	0.03645934	-5.935649e-05	-5.011623e-05	0.02709817	0.007405962
1.2e+08	0.01774182	-0.01147162	-1.093436e-05	9.019567e-06	0.08597071	0.006982808	1.793728e-06	9.863949e-07
	-1.093436e-05	9.019558e-06	0.01844259	-0.01431492	-1.32498e-05	4.913759e-06	0.0855579	-0.002289489
	0.08597071	0.006982808	-1.324971e-05	4.913729e-06	0.01998433	-0.01097556	-2.317696e-05	5.407838e-07
	1.793737e-06	9.863922e-07	0.0855579	-0.002289489	-2.317696e-05	5.407844e-07	0.0206567	-0.01452262
1.3e+08	0.0003758909	0.002384903	1.516138e-05	-4.673726e-05	0.04503553	-0.03096529	3.664121e-05	-5.945482e-05
	1.516138e-05	-4.673726e-05	-0.0004633238	0.0003968348	1.348908e-05	-5.047419e-05	0.03639915	-0.03849454
	0.04503553	-0.03096529	1.348908e-05	-5.047419e-05	0.002258726	0.0002512347	1.976781e-05	-5.635412e-05
	3.664121e-05	-5.945482e-05	0.03639915	-0.03849454	1.976785e-05	-5.635403e-05	0.001056534	-0.002121632
1.4e+08	0.01918385	0.01794286	-5.314204e-05	-6.589533e-05	0.01955421	0.01902275	-3.820141e-05	-8.974062e-05
	-5.314204e-05	-6.589533e-05	0.01993728	0.01695984	-5.260302e-05	-7.051704e-05	0.01426897	0.01889775
	0.01955421	0.01902275	-5.260302e-05	-7.051704e-05	0.01849328	0.01666215	-5.371901e-05	-9.479643e-05
	-3.820142e-05	-8.974062e-05	0.01426895	0.01889776	-5.371901e-05	-9.479643e-05	0.01928837	0.01550994
1.5e+08	0.03141596	-0.003099085	-6.085254e-05	3.966062e-06	0.07528622	0.03195005	-5.593962e-05	-1.368639e-05
	-6.085254e-05	3.966061e-06	0.03267887	-0.006444055	-6.042533e-05	-3.51229e-06	0.07650796	0.02588298
	0.07528622	0.03195004	-6.042533e-05	-3.512291e-06	0.03212888	-0.002040149	-7.969543e-05	-1.718501e-05
	-5.593962e-05	-1.368639e-05	0.07650795	0.02588298	-7.969543e-05	-1.718501e-05	0.03357076	-0.006073798
1.6e+08	0.009255278	-0.009732249	8.042159e-06	-7.136981e-06	0.07539229	-0.02436177	2.130476e-05	-1.845573e-05
	8.042158e-06	-7.136981e-06	0.007829828	-0.01313685	7.069614e-06	-1.419627e-05	0.06856981	-0.03664883
	0.07539229	-0.02436177	7.069611e-06	-1.419627e-05	0.01205551	-0.01065831	1.596369e-06	-1.383283e-05
	2.130476e-05	-1.845573e-05	0.06856981	-0.03664883	1.596369e-06	-1.383283e-05	0.01024501	-0.01487698
1.7e+08	0.008640199	0.01492703	-2.432234e-05	-8.033143e-05	0.02203187	-0.009715722	-6.662636e-06	-0.0001045244
	-2.432234e-05	-8.033143e-05	0.008073337	0.01420702	-2.264854e-05	-8.685917e-05	0.009998143	-0.01307237
	0.02203178	-0.009715679	-2.26485e-05	-8.685908e-05	0.008983757	0.01221851	-1.906694e-05	-0.000105676
	-6.662635e-06	-0.0001045244	0.009998141	-0.01307237	-1.906693e-05	-0.000105676	0.00797464	0.01122623
1.8e+08	0.03490504	0.01084057	-9.65045e-05	-3.233146e-05	0.05112807	0.03893239	-9.367736e-05	-6.071308e-05
	-9.650455e-05	-3.233133e-05	0.03700194	0.00799536	-9.33291e-05	-4.327229e-05	0.04879022	0.03820006
	0.05112807	0.03893239	-9.33291e-05	-4.327229e-05	0.03395924	0.01091749	-0.0001133493	-6.750434e-05
	-9.367736e-05	-6.071308e-05	0.04879013	0.03820011	-0.0001133493	-6.750434e-05	0.03614377	0.007705003
1.9e+08	0.02688683	-0.01343366	-3.736677e-05	2.680301e-05	0.09262416	-0.0005709731	-3.63932e-05	1.209984e-05
	-3.736669e-05	2.680294e-05	0.02596408	-0.01883685	-3.783465e-05	1.423222e-05	0.09019175	-0.01244984
	0.09262416	-0.0005709746	-3.783468e-05	1.423216e-05	0.02901922	-0.01272173	-5.94272e-05	1.395739e-05
	-3.639309e-05	1.209984e-05	0.09019175	-0.01244984	-5.94272e-05	1.395739e-05	0.02796553	-0.01906462
2e+08	0.005914793	0.0001241293	4.991816e-06	-4.960983e-05	0.04566327	-0.03069252	1.973316e-05	-6.771978e-05
	4.991814e-06	-4.960983e-05	0.003037834	-0.001650984	5.265367e-06	-5.958267e-05	0.03111093	-0.04074402
	0.04566319	-0.03069248	5.265368e-06	-5.958266e-05	0.008068667	-0.00251371	6.308471e-06	-6.480607e-05
	1.973307e-05	-6.771974e-05	0.03111093	-0.04074402	6.308595e-06	-6.480625e-05	0.004463904	-0.004949295
2.1e+08	0.02592645	0.01881998	-9.034783e-05	-7.63186e-05	0.03002034	0.02308675	-8.332057e-05	-0.000110081
	-9.034783e-05	-7.63186e-05	0.02753626	0.01777349	-8.61172e-05	-8.967897e-05	0.0191934	0.02435397
	0.03002034	0.02308675	-8.611729e-05	-8.967892e-05	0.02464071	0.01679708	-9.770222e-05	-0.0001171961
	-8.332066e-05	-0.000110081	0.01919337	0.02435399	-9.770222e-05	-0.0001171961	0.02588669	0.01562392
2.2e+08	0.0419484	-0.004606919	-0.000100035	2.412177e-05	0.08789098	0.02518751	-0.0001082873	-3.852416e-07
	-0.000100035	2.412177e-05	0.04307316	-0.01097266	-9.949723e-05	5.547254e-06	0.08682145	0.01967421
	0.08789098	0.02518751	-9.949723e-05	5.547258e-06	0.04198149	-0.003367399	-0.0001322103	-4.429255e-06
	-0.0001082873	-3.852426e-07	0.08682146	0.01967421	-0.0001322094	-4.429788e-06	0.04318422	-0.01035342
2.3e+08	0.01751939	-0.01547818	-2.684862e-06	1.110785e-05	0.07785745	-0.03134758	6.09413e-07	-1.64623e-06
	-2.684863e-06	1.110785e-05	0.01309105	-0.0204018	-5.472935e-06	-4.364515e-06	0.06696556	-0.04583508
	0.07785737	-0.03134753	-5.47293e-06	-4.364526e-06	0.02058625	-0.01632373	-1.7883e-05	2.568926e-06
	6.094137e-07	-1.646229e-06	0.06696556	-0.04583509	-1.788299e-05	2.568935e-06	0.01561744	-0.02227177
2.4e+08	0.01363179	0.01162678	-4.5408e-05	-8.740573e-05	0.02715508	-0.007161285	-3.39259e-05	-0.0001166284
	-4.5408e-05	-8.740573e-05	0.01207395	0.01192096	-4.336838e-05	-0.0001024792	0.008329563	-0.01022788
	0.02715508	-0.007161285	-4.336838e-05	-0.0001024792	0.01391188	0.00801201	-4.546235e-05	-0.000120107
	-3.39259e-05	-0.0001166284	0.008329563	-0.01022788	-4.546235e-05	-0.000120107	0.01146839	0.007984121
2.5e+08	0.0436513	0.009580587	-0.0001402685	-1.928405e-05	0.06568513	0.03608021	-0.0001487904	-5.468059e-05
	-0.0001402679	-1.928326e-05	0.04676038	0.005061035	-0.0001386184	-4.20132e-05	0.05903075	0.03806981
	0.06568513	0.03608021	-0.0001386184	-4.20132e-05	0.04168454	0.009326236	-0.000169652	-6.390282e-05
	-0.0001487904	-5.468059e-05	0.05903076	0.03806981	-0.000169652	-6.390282e-05	0.04466312	0.004687265
2.6e+08	0.03766615	-0.01957582	-5.761503e-05	5.938415e-05	0.1005541	-0.01192086	-6.951646e-05	4.388851e-05
	-5.761511e-05	5.938421e-05	0.03452549	-0.0281875	-6.335211e-05	3.680022e-05	0.09535896	-0.0235359
	0.1005541	-0.01192086	-6.335211e-05	3.680022e-05	0.03951236	-0.01831307	-9.401751e-05	4.465998e-05
	-6.951647e-05	4.38885e-05	0.09535888	-0.02353583	-9.401745e-05	4.466006e-05	0.03628946	-0.02786319
2.7e+08	0.01185216	-0.007997879	-1.542267e-06	-4.19626e-05	0.04726127	-0.03447804	6.204684e-06	-5.974593e-05
	-1.542266e-06	-4.19626e-05	0.005672846	-0.009501303	-5.150671e-06	-5.955195e-05	0.02694811	-0.04499344
	0.04726127	-0.03447804	-5.150671e-06	-5.955195e-05	0.01446117	-0.01102636	-7.908169e-06	-5.816665e-05
	6.204684e-06	-5.974593e-05	0.02694811	-0.04499345	-7.908168e-06	-5.816665e-05	0.00730212	-0.01339179
2.8e+08	0.03145474	0.01518733	-0.0001262426	-7.271681e-05	0.04116041	0.02318428	-0.0001270637	-0.0001113692
	-0.0001262426	-7.271681e-05	0.03336775	0.01472359	-0.0001252545	-9.637643e-05	0.02410691	0.02733257
	0.04116041	0.02318428	-0.0001252545	-9.637643e-05	0.02944531	0.01222263	-0.0001429027	-0.0001209673
	-0.0001270636	-0.0001113692	0.02410691	0.02733257	-0.0001429027	-0.0001209673	0.03060422	0.01180801
2.9e+08	0.05243002	-0.009584334	-0.000132047	5.923647e-05	0.1011516	0.01439809	-0.0001533867	3.264457e-05
	-0.000132047	5.923647e-05	0.053233	-0.01909343	-0.0001389434	3.004596e-05	0.09678802	0.01204457
	0.1011516	0.01439809	-0.0001389435	3.004589e-05	0.05142795	-0.007962484	-0.0001804454	2.671053e-05
	-0.0001533867	3.264457e-05	0.09678795	0.01204464	-0.0001804454	2.671053e-05	0.05233331	-0.01782701
3e+08	0.02617397	-0.02605543	-5.422334e-06	3.849713e-05	0.08068185	-0.04271614	-1.200706e-05	2.903288e-05
	-5.422336e-06	3.849712e-05	0.0176449	-0.03283446	-1.639132e-05	1.615675e-05	0.06600326	-0.05651682
	0.08068184	-0.04271615	-1.639132e-05	1.615674e-05	0.02960094	-0.02643423	-3.355363e-05	3.269319e-05
	-1.200706e-05	2.903289e-05	0.06600319	-0.05651675	-3.355363e-05	3.26932e-05	0.02058554	-0.03439536
3.1e+08	0.01736388	0.003230207	-6.305839e-05	-8.562573e-05	0.03203915	-0.008889566	-5.707156e-05	-0.0001150641
	-6.305839e-05	-8.562573e-05	0.01354547	0.005216518	-6.669857e-05	-0.0001078662	0.006877762	-0.009917819
	0.03203908	-0.008889496	-6.669854e-05	-0.0001078662	0.01775131	-0.001380501	-7.081972e-05	-0.0001194034
	-5.707163e-05	-0.000115064	0.006877762	-0.009917819	-7.081964e-05	-0.0001194035	0.01265688	0.0001966327
3.2e+08	0.05100224	0.004572655	-0.0001784609	7.317227e-06	0.08007516	0.02922414	-0.0001972438	-3.084153e-05
	-0.0001784609	7.317227e-06	0.05483528	-0.00087876	-0.0001849724	-2.498705e-05	0.06855178	0.03584314
	0.08007516	0.02922414	-0.0001849724	-2.498705e-05	0.04769083	0.003931751	-0.0002215323	-4.190906e-05
	-0.0001972438	-3.084153e-05	0.06855178	0.03584314	-0.0002215323	-4.190906e-05	0.05116911	-0.001268796
3.3e+08	0.0478581	-0.02965055	-6.753588e-05	0.000101377	0.1082895	-0.02765109	-9.146088e-05	8.887214e-05
	-6.753581e-05	0.000101377	0.04204226	-0.04162724	-8.452384e-05	7.230151e-05	0.1002667	-0.03595133
	0.1082895	-0.02765109	-8.452384e-05	7.230151e-05	0.04925702	-0.0274273	-0.0001208614	8.924787e-05
	-9.146088e-05	8.887214e-05	0.1002666	-0.03595125	-0.0001208614	8.924787e-05	0.04357807	-0.04020351
3.4e+08	0.01658928	-0.02089226	-1.346255e-06	-2.873971e-05	0.0479897	-0.042899	1.510606e-07	-4.190195e-05
	-1.346254e-06	-2.873971e-05	0.005705236	-0.02190682	-1.397762e-05	-5.015846e-05	0.02303012	-0.05138514
	0.0479897	-0.042899	-1.397769e-05	-5.015853e-05	0.01994338	-0.02415389	-1.790782e-05	-3.920515e-05
	1.510597e-07	-4.190195e-05	0.02303012	-0.05138514	-1.790781e-05	-3.920515e-05	0.007977165	-0.02629939
3.5e+08	0.03491501	0.007472486	-0.0001581763	-5.967353e-05	0.05100583	0.01925716	-0.0001651219	-9.909482e-05
	-0.0001581764	-5.967345e-05	0.03621564	0.008805003	-0.000165422	-8.973361e-05	0.02826734	0.0278757
	0.05100583	0.01925716	-0.0001654221	-8.973359e-05	0.0321226	0.003358646	-0.0001840659	-0.0001088065
	-0.0001651219	-9.90948e-05	0.02826728	0.02787578	-0.0001840659	-0.0001088065	0.03221511	0.004909993
3.6e+08	0.06117224	-0.0182468	-0.0001540586	0.0001048403	0.1134911	-0.0004564535	-0.000186743	7.938534e-05
	-0.0001540586	0.0001048404	0.06157777	-0.03025123	-0.0001732454	6.973088e-05	0.1057334	0.002764089
	0.1134911	-0.0004564546	-0.0001732454	6.973089e-05	0.05879589	-0.01602855	-0.0002191088	7.310936e-05
	-0.0001867429	7.93854e-05	0.1057334	0.002764089	-0.0002191088	7.310936e-05	0.05936736	-0.02792426
3.7e+08	0.03310607	-0.04067381	1.597442e-06	7.033964e-05	0.08222668	-0.05868818	-1.387264e-05	6.747113e-05
	1.597443e-06	7.033964e-05	0.01967644	-0.04932	-2.165321e-05	4.640378e-05	0.06479391	-0.06878015
	0.08222662	-0.0586881	-2.165321e-05	4.640377e-05	0.03702007	-0.04018022	-4.122907e-05	7.333004e-05
	-1.38727e-05	6.747121e-05	0.06479391	-0.06878015	-4.122907e-05	7.333004e-05	0.02339048	-0.05011198
3.8e+08	0.01871167	-0.009148873	-7.588168e-05	-7.895667e-05	0.03472793	-0.01494216	-7.361863e-05	-0.0001045254
	-7.588168e-05	-7.895666e-05	0.01123301	-0.004525989	-8.858654e-05	-0.0001029046	0.004826007	-0.01200791
	0.03472793	-0.01494216	-8.858653e-05	-0.0001029046	0.01943995	-0.01486778	-9.087834e-05	-0.0001060425
	-7.361868e-05	-0.0001045253	0.004826007	-0.01200791	-9.087834e-05	-0.0001060425	0.01032946	-0.01085819
3.9e+08	0.05588917	-0.004084272	-0.0002094725	4.389042e-05	0.09247577	0.01870044	-0.0002360117	6.014816e-06
	-0.0002094725	4.389043e-05	0.06007754	-0.008997376	-0.0002272546	7.472669e-06	0.07672321	0.03159716
	0.09247577	0.01870044	-0.0002272546	7.47267e-06	0.05096124	-0.005171355	-0.0002644306	-4.396004e-06
	-0.0002360117	6.014817e-06	0.07672316	0.03159724	-0.0002644306	-4.396005e-06	0.05448443	-0.00933893
4e+08	0.05541497	-0.04334359	-6.571505e-05	0.0001486316	0.1142294	-0.04750417	-9.992621e-05	0.0001415336
	-6.571496e-05	0.0001486317	0.04688987	-0.05820015	-9.672416e-05	0.0001190252	0.1040871	-0.04975505
	0.1142294	-0.04750417	-9.672425e-05	0.0001190252	0.05623797	-0.03975918	-0.0001358666	0.0001442276
	-9.99262e-05	0.0001415336	0.1040871	-0.04975497	-0.0001358666	0.0001442276	0.04824994	-0.05507069
4.1e+08	0.01844416	-0.03726587	6.171632e-06	-1.347293e-05	0.04612189	-0.05579942	2.858765e-06	-1.853525e-05
	6.171547e-06	-1.347298e-05	0.001740978	-0.03738914	-1.757849e-05	-3.233489e-05	0.01849232	-0.05973077
	0.04612189	-0.05579942	-1.757849e-05	-3.233489e-05	0.02285694	-0.04057131	-2.02478e-05	-1.068893e-05
	2.858765e-06	-1.853522e-05	0.01849232	-0.05973077	-2.024772e-05	-1.068888e-05	0.00519494	-0.04218215
4.2e+08	0.03552231	-0.003563578	-0.0001852333	-3.989748e-05	0.05772463	0.01168793	-0.0001953658	-7.685722e-05
	-0.0001852333	-3.989748e-05	0.03521332	0.001189499	-0.000201924	-7.014499e-05	0.03108585	0.02618359
	0.05772463	0.01168793	-0.000201924	-7.014499e-05	0.03192697	-0.009031123	-0.0002169819	-8.315943e-05
	-0.0001953658	-7.685722e-05	0.03108585	0.02618359	-0.0002169819	-8.315943e-05	0.02987333	-0.003945125
4.3e+08	0.06667947	-0.03048144	-0.0001646206	0.0001577013	0.123184	-0.01877974	-0.0002060248	0.0001353444
	-0.0001646206	0.0001577013	0.06686528	-0.04357284	-0.0001972285	0.0001227773	0.1129454	-0.00816678
	0.123184	-0.01877974	-0.0001972285	0.0001227773	0.06266487	-0.02746748	-0.0002438742	0.0001314074
	-0.0002060248	0.0001353444	0.1129454	-0.008166781	-0.0002438742	0.0001314074	0.06310448	-0.03975238
4.4e+08	0.03632058	-0.05831857	1.874063e-05	0.0001031916	0.08094685	-0.07870156	-4.034123e-06	0.0001092548
	1.874063e-05	0.0001031915	0.01778856	-0.06844851	-1.757959e-05	8.419845e-05	0.06246682	-0.08244123
	0.08094643	-0.07870068	-1.757956e-05	8.419846e-05	0.04087088	-0.05658155	-3.772382e-05	0.0001209562
	-4.034133e-06	0.0001092548	0.06246686	-0.08244109	-3.772382e-05	0.0001209562	0.02273816	-0.06801994
4.5e+08	0.01662605	-0.02416446	-8.342639e-05	-6.969494e-05	0.03356984	-0.02484226	-8.221607e-05	-8.803792e-05
	-8.342639e-05	-6.969494e-05	0.004311528	-0.01583844	-0.0001049632	-8.85495e-05	0.001494165	-0.01618014
	0.0335698	-0.02484217	-0.0001049632	-8.85495e-05	0.01794145	-0.03107525	-0.000102146	-8.255364e-05
	-8.221607e-05	-8.803792e-05	0.001494165	-0.01618014	-0.000102146	-8.255364e-05	0.003742041	-0.02375644
4.6e+08	0.05746044	-0.01591461	-0.0002319943	8.815955e-05	0.1011221	0.005189946	-0.0002628839	5.244172e-05
	-0.0002319943	8.815955e-05	0.06173046	-0.01827157	-0.0002603053	5.370368e-05	0.08296213	0.02542139
	0.1011221	0.005189957	-0.0002603053	5.370368e-05	0.05070357	-0.01748669	-0.000294157	4.558069e-05
	-0.0002628839	5.244173e-05	0.08296214	0.02542138	-0.000294157	4.558071e-05	0.05389504	-0.01851898
4.7e+08	0.05853262	-0.06008015	-5.123225e-05	0.0001979191	0.1168205	-0.07055047	-9.345085e-05	0.0001976225
	-5.123225e-05	0.000197919	0.04783207	-0.07672881	-9.560567e-05	0.0001739612	0.1060277	-0.06481533
	0.1168205	-0.07055049	-9.560567e-05	0.0001739612	0.05872031	-0.05478888	-0.0001354736	0.0002057221
	-9.345082e-05	0.0001976225	0.1060277	-0.06481533	-0.0001354736	0.0002057221	0.04916745	-0.07131911
4.8e+08	0.01599681	-0.05558014	2.088003e-05	1.648708e-06	0.04029877	-0.07233096	1.484104e-05	7.336728e-06
