!$
! Info: Touchstone file created by Circ.  Input file=Tx_PCB_4dB_OSFP_22dB_OSFP_4dB_PCB_Rx_TP0_TP5_VendorX.circ
!$
# Hz S RI R 50
0	0.05010957	-9.007875e-14	0.9451999	-3.253441e-16	0.0132332	4.330607e-13	-0.01368292	1.332666e-15
	0.9451999	-3.253187e-16	0.05008618	1.96145e-13	-0.01368201	1.333337e-15	0.01324979	4.652449e-13
	0.01323322	4.335076e-13	-0.01368199	1.334676e-15	0.05538629	3.116679e-13	0.9409696	-1.65634e-14
	-0.0136829	1.334002e-15	0.01324981	4.656908e-13	0.9409696	-1.656343e-14	0.05536366	2.103457e-13
1e+07	0.08343157	0.01989363	0.7085487	-0.6079093	0.04784659	0.04025156	-0.009973651	0.01082367
	0.7085487	-0.6079093	0.08305068	0.02026183	-0.00997212	0.01082149	0.0474584	0.04080823
	0.0478466	0.04025157	-0.009972128	0.0108215	0.09081662	0.02147523	0.7050748	-0.6052109
	-0.009973659	0.01082367	0.0474584	0.04080824	0.7050748	-0.6052109	0.09046371	0.02192763
2e+07	0.1087332	-0.02057424	0.1522112	-0.911627	0.09497191	0.0101749	0.00477835	0.01733035
	0.1522112	-0.911627	0.1081061	-0.01879234	0.004772791	0.01732625	0.09490003	0.0121996
	0.09497193	0.0101749	0.004772793	0.01732626	0.1183488	-0.02069924	0.1515181	-0.9071188
	0.004778351	0.01733036	0.09490005	0.0121996	0.1515181	-0.9071188	0.1177958	-0.0188108
3e+07	0.07735189	-0.06362076	-0.4634511	-0.79626	0.07503112	-0.04367658	0.018355	0.004063257
	-0.4634511	-0.79626	0.07817302	-0.06077646	0.01834788	0.004069544	0.07651573	-0.04137378
	0.07503113	-0.0436766	0.01834789	0.004069547	0.08652195	-0.06677664	-0.4608657	-0.7925651
	0.018355	0.00406326	0.07651574	-0.0413738	-0.4608657	-0.7925651	0.0874203	-0.06380211
4e+07	0.02631633	-0.0519728	-0.8667901	-0.3132313	0.01771209	-0.03575897	0.0118194	-0.01140134
	-0.8667901	-0.3132313	0.02807624	-0.05044694	0.01182164	-0.01139415	0.01927311	-0.03501424
	0.01771209	-0.03575898	0.01182164	-0.01139415	0.03294243	-0.05608031	-0.8625824	-0.312231
	0.01181941	-0.01140134	0.0192731	-0.03501424	-0.8625824	-0.312231	0.03479947	-0.05435725
5e+07	0.02340827	-0.0041194	-0.8612875	0.3181318	0.01530018	0.02161437	0.001827448	-0.01323156
	-0.8612875	0.3181318	0.02289772	-0.003390184	0.001828597	-0.01322679	0.01432943	0.02243344
	0.01530018	0.02161437	0.001828599	-0.01322679	0.02887281	-0.006621136	-0.8574717	0.3162977
	0.001827449	-0.01323157	0.01432943	0.02243344	-0.8574717	0.3162977	0.02853374	-0.005650318
6e+07	0.06784966	0.007278732	-0.452302	0.7897098	0.07109554	0.03364854	-0.005183065	-0.01485255
	-0.452302	0.7897098	0.06529386	0.01132225	-0.005173609	-0.01484242	0.06915314	0.03799286
	0.07109555	0.03364854	-0.00517361	-0.01484242	0.07489133	0.005664591	-0.4504574	0.7857637
	-0.005183066	-0.01485255	0.06915315	0.03799286	-0.4504574	0.7857637	0.07255837	0.009940903
7e+07	0.09101553	-0.03421194	0.1533096	0.8906209	0.09424113	-0.01824451	-0.01935418	-0.009756229
	0.1533096	0.8906209	0.09128048	-0.02625793	-0.01933329	-0.009763324	0.09556488	-0.01147137
	0.09424113	-0.01824452	-0.0193333	-0.009763326	0.09960198	-0.03771257	0.1520024	0.8862765
	-0.01935419	-0.009756231	0.09556489	-0.01147138	0.1520024	0.8862765	0.1000933	-0.02949853
8e+07	0.05940323	-0.07100626	0.6846123	0.5886159	0.04957691	-0.0522274	-0.02287224	0.01107333
	0.6846123	0.5886159	0.06436543	-0.06446185	-0.02287061	0.01105016	0.05393846	-0.04795226
	0.04957691	-0.05222741	-0.02287061	0.01105016	0.06686038	-0.07715565	0.6806448	0.586334
	-0.02287225	0.01107333	0.05393846	-0.04795227	0.6806448	0.586334	0.07211	-0.07025817
9e+07	0.016662	-0.05385312	0.9036318	0.0132914	0.007896585	-0.01597103	-0.005858098	0.02408653
	0.9036318	0.0132914	0.02080107	-0.05206204	-0.005870171	0.02407645	0.009748367	-0.01510919
	0.007896583	-0.01597103	-0.005870172	0.02407645	0.02142183	-0.06028915	0.8992955	0.01425375
	-0.005858099	0.02408653	0.009748365	-0.01510919	0.8992955	0.01425375	0.0260171	-0.05811886
1e+08	0.02392735	-0.01228626	0.698049	-0.5686841	0.03663447	0.03095291	0.009678328	0.02011629
	0.698049	-0.5686841	0.02241427	-0.009746791	0.009668281	0.02010739	0.03377102	0.03443908
	0.03663447	0.03095291	0.009668282	0.02010739	0.02785932	-0.01682635	0.6954178	-0.5652742
	0.009678329	0.0201163	0.03377102	0.03443908	0.6954178	-0.5652742	0.02690842	-0.01402708
1.1e+08	0.06592099	-0.01302764	0.1712194	-0.8769004	0.08817839	0.01076269	0.02027199	0.01318384
	0.1712194	-0.8769004	0.06377742	-0.003412436	0.02024399	0.01318166	0.08675759	0.02045015
	0.0881784	0.01076268	0.02024399	0.01318166	0.07157822	-0.01696975	0.1713111	-0.8725409
	0.02027199	0.01318384	0.0867576	0.02045015	0.1713111	-0.8725409	0.06993728	-0.007154433
1.2e+08	0.07695116	-0.05674528	-0.4237452	-0.7815591	0.07961256	-0.04362667	0.02980858	-0.003679914
	-0.4237452	-0.7815591	0.08199866	-0.04386771	0.02978758	-0.003647287	0.08465899	-0.03344947
	0.07961256	-0.04362668	0.02978758	-0.003647287	0.08368024	-0.06287568	-0.4207023	-0.7781795
	0.02980859	-0.003679914	0.08465899	-0.03344948	-0.4207023	-0.7781795	0.08922202	-0.04966471
1.3e+08	0.03853367	-0.08306821	-0.8242189	-0.3326453	0.02592321	-0.04738155	0.01971147	-0.0277877
	-0.8242189	-0.3326453	0.04877879	-0.07607448	0.01972969	-0.02775505	0.03266108	-0.04326102
	0.02592321	-0.04738156	0.01972969	-0.02775506	0.0434343	-0.09151929	-0.8195898	-0.3322376
	0.01971147	-0.0277877	0.03266107	-0.04326103	-0.8195898	-0.3322376	0.05440856	-0.08407182
1.4e+08	0.003558023	-0.05630873	-0.8462351	0.272553	0.01228886	0.003719167	-0.006636953	-0.03288844
	-0.8462351	0.272553	0.008846793	-0.0552912	-0.006612536	-0.03288115	0.01263366	0.005321628
	0.01228886	0.003719166	-0.006612537	-0.03288115	0.005631876	-0.06427071	-0.8426356	0.2697667
	-0.006636954	-0.03288845	0.01263366	0.005321626	-0.8426356	0.2697667	0.01194304	-0.06297392
1.5e+08	0.02138717	-0.02024802	-0.4722584	0.748835	0.06079191	0.02570896	-0.02401626	-0.02010488
	-0.4722584	0.748835	0.01949272	-0.01447385	-0.02398944	-0.02010042	0.05683034	0.03423599
	0.06079191	0.02570896	-0.02398945	-0.02010042	0.02311981	-0.02598588	-0.4713465	0.7445376
	-0.02401627	-0.02010488	0.05683035	0.03423599	-0.4713465	0.7445376	0.02221915	-0.02023932
1.6e+08	0.06008503	-0.03250596	0.1139521	0.8721216	0.09188185	-0.01829601	-0.03316005	-0.003759175
	0.1139521	0.8721216	0.06165211	-0.01744345	-0.03312064	-0.003784132	0.09392698	-0.0031756
	0.09188185	-0.01829601	-0.03312064	-0.003784133	0.06373306	-0.03803141	0.1119837	0.8681808
	-0.03316005	-0.003759175	0.09392699	-0.003175605	0.1119837	0.8681808	0.06607397	-0.02297872
1.7e+08	0.05832789	-0.07677403	0.6403763	0.5983303	0.05631305	-0.0578263	-0.03273298	0.0215071
	0.6403763	0.5983303	0.07045787	-0.06214838	-0.03273376	0.02144901	0.06617395	-0.04668498
	0.05631305	-0.05782631	-0.03273376	0.02144902	0.06246068	-0.08474349	0.6361563	0.5965016
	-0.03273298	0.0215071	0.06617395	-0.04668498	0.6361563	0.5965016	0.07545593	-0.06984715
1.8e+08	0.01436966	-0.09069844	0.8748125	0.05280678	0.01150036	-0.03229486	-0.008223785	0.04210369
	0.8748125	0.05280678	0.02895883	-0.08619986	-0.008268248	0.04207498	0.0188102	-0.02939358
	0.01150035	-0.03229486	-0.008268248	0.04207499	0.01600184	-0.1004191	0.870323	0.05436414
	-0.008223785	0.04210369	0.0188102	-0.02939358	0.870323	0.05436414	0.03192035	-0.09564225
1.9e+08	-0.01055947	-0.05504526	0.7052617	-0.5191299	0.0285278	0.01577316	0.0231867	0.03497334
	0.7052617	-0.5191299	-0.005422194	-0.05458655	0.02314739	0.03497535	0.02645517	0.02028228
	0.0285278	0.01577315	0.02314739	0.03497535	-0.0116011	-0.06338208	0.7030629	-0.5149785
	0.0231867	0.03497334	0.02645517	0.02028227	0.7030629	-0.5149785	-0.004870115	-0.0631337
2e+08	0.01723861	-0.02657795	0.2084508	-0.8465807	0.07977434	0.00699849	0.03782597	0.01271915
	0.2084508	-0.8465807	0.01669302	-0.01664619	0.03778142	0.01273636	0.07724183	0.0223658
	0.07977435	0.006998487	0.03778142	0.01273636	0.01653878	-0.0325358	0.2094497	-0.8421609
	0.03782597	0.01271916	0.07724183	0.0223658	0.2094497	-0.8421609	0.01726686	-0.02319611
2.1e+08	0.05029314	-0.05006605	-0.3772542	-0.7809538	0.081587	-0.04556582	0.04081905	-0.01182363
	-0.3772542	-0.7809538	0.05846578	-0.03159015	0.04079036	-0.01175962	0.08987262	-0.02668239
	0.081587	-0.04556583	0.04079036	-0.01175962	0.05159213	-0.05633203	-0.3737414	-0.7781222
	0.04081905	-0.01182363	0.08987262	-0.0266824	-0.3737414	-0.7781222	0.06072526	-0.03820445
2.2e+08	0.03488554	-0.09189711	-0.7860606	-0.3613986	0.03190141	-0.058634	0.02671839	-0.0402402
	-0.7860606	-0.3613986	0.05428447	-0.07943962	0.02675951	-0.04017163	0.04596904	-0.04911597
	0.03190141	-0.058634	0.02675951	-0.04017163	0.03595442	-0.100694	-0.7813513	-0.3614465
	0.02671839	-0.0402402	0.04596904	-0.04911598	-0.7813513	-0.3614465	0.05664658	-0.0882196
2.3e+08	-0.01144777	-0.09093185	-0.8355274	0.2230641	0.01003227	-0.0140183	-0.009928171	-0.05040681
	-0.8355274	0.2230641	0.005141992	-0.09064195	-0.009858107	-0.05039621	0.01570351	-0.01166564
	0.01003227	-0.0140183	-0.009858107	-0.05039621	-0.0133627	-0.1006481	-0.831929	0.219734
	-0.009928172	-0.05040682	0.01570351	-0.01166565	-0.831929	0.219734	0.005153328	-0.1006302
2.4e+08	-0.02294277	-0.04895046	-0.4986374	0.7046815	0.0504077	0.01511389	-0.04035304	-0.0291415
	-0.4986374	0.7046815	-0.01861366	-0.04795258	-0.04029767	-0.0291647	0.04677273	0.02546288
	0.0504077	0.01511389	-0.04029768	-0.0291647	-0.02702453	-0.05644035	-0.4982796	0.6998106
	-0.04035304	-0.0291415	0.04677273	0.02546288	-0.4982796	0.6998106	-0.02076295	-0.05650527
2.5e+08	0.01307551	-0.03154639	0.06650326	0.8570864	0.08753383	-0.02029084	-0.04804312	0.001079059
	0.06650326	0.8570864	0.01615318	-0.01766292	-0.04799535	0.001020894	0.09013165	0.00215454
	0.08753383	-0.02029084	-0.04799535	0.001020895	0.01009357	-0.03678189	0.06368302	0.8533048
	-0.04804312	0.00107906	0.09013166	0.002154537	0.06368302	0.8533048	0.01444156	-0.02420237
2.6e+08	0.03671295	-0.06522508	0.5950756	0.6157583	0.06078829	-0.064407	-0.04105696	0.03097559
	0.5950756	0.6157583	0.05295655	-0.04671474	-0.04106835	0.03087827	0.07689276	-0.04484458
	0.06078829	-0.06440701	-0.04106836	0.03087827	0.03561612	-0.07134786	0.5905581	0.6145568
	-0.04105696	0.03097559	0.07689276	-0.04484458	0.5905581	0.6145568	0.05289691	-0.05359859
2.7e+08	0.007645128	-0.09985384	0.8493833	0.09545451	0.01358782	-0.04826202	-0.01188577	0.05589667
	0.8493833	0.09545451	0.03236094	-0.09293492	-0.01197444	0.05584186	0.0297128	-0.04200636
	0.01358782	-0.04826202	-0.01197444	0.05584187	0.005564414	-0.1083373	0.8449399	0.09744907
	-0.01188577	0.05589667	0.0297128	-0.04200636	0.8449399	0.09744907	0.0319708	-0.101901
2.8e+08	-0.03555755	-0.08244397	0.7140077	-0.4680781	0.02075906	-0.0002913065	0.03150466	0.05015844
	0.7140077	-0.4680781	-0.01975573	-0.08634692	0.0314141	0.05017971	0.023367	0.003976127
	0.02075906	-0.0002913074	0.0314141	0.05017971	-0.04078123	-0.09085071	0.7119396	-0.4634252
	0.03150466	0.05015845	0.023367	0.003976125	0.7119396	-0.4634252	-0.02268159	-0.09594923
2.9e+08	-0.03075011	-0.03924046	0.2495676	-0.8142704	0.07023913	0.0007785102	0.05467152	0.01592187
	0.2495676	-0.8142704	-0.02689232	-0.03630898	0.05460798	0.015984	0.0679835	0.01948505
	0.07023912	0.0007785098	0.05460798	0.015984	-0.03732681	-0.04480584	0.2512283	-0.8094457
	0.05467152	0.01592187	0.0679835	0.01948504	0.2512283	-0.8094457	-0.0316215	-0.04399092
3e+08	0.009442127	-0.03646489	-0.3262428	-0.7834324	0.08161579	-0.04920069	0.05241316	-0.01936699
	-0.3262428	-0.7834324	0.0182236	-0.02008891	0.05239261	-0.01926003	0.09317803	-0.0215356
	0.08161579	-0.0492007	0.05239262	-0.01926003	0.004647874	-0.0401923	-0.3219595	-0.7809684
	0.05241316	-0.01936699	0.09317803	-0.0215356	-0.3219595	-0.7809684	0.01437664	-0.02581157
3.1e+08	0.01929074	-0.07709269	-0.7486048	-0.3948415	0.03565657	-0.07129591	0.03272042	-0.05047889
	-0.7486048	-0.3948415	0.04315153	-0.06230778	0.03279498	-0.05037354	0.05927978	-0.05465575
	0.03565657	-0.07129591	0.03279498	-0.05037354	0.01605021	-0.08223177	-0.7437772	-0.3955693
	0.03272042	-0.0504789	0.05927977	-0.05465575	-0.7437772	-0.3955693	0.04090853	-0.06865971
3.2e+08	-0.02088559	-0.09868137	-0.827077	0.1728039	0.005997952	-0.03229984	-0.009929152	-0.06473991
	-0.827077	0.1728039	0.005680187	-0.09909308	-0.0097989	-0.06472454	0.02129379	-0.02913253
	0.005997947	-0.03229985	-0.0097989	-0.06472454	-0.02577131	-0.1057389	-0.8236458	0.1690696
	-0.009929153	-0.06473992	0.02129379	-0.02913253	-0.8236458	0.1690696	0.00271446	-0.1073873
3.3e+08	-0.05380935	-0.06614668	-0.5254165	0.6596587	0.03904543	0.002968771	-0.05245551	-0.04059163
	-0.5254165	0.6596587	-0.04103093	-0.07255264	-0.05235494	-0.04065972	0.03904255	0.01275861
	0.03904543	0.002968772	-0.05235494	-0.04065972	-0.06161526	-0.07213061	-0.5253213	0.6543515
	-0.05245551	-0.04059163	0.03904255	0.01275861	-0.5253213	0.6543515	-0.04660257	-0.08089407
3.4e+08	-0.03238276	-0.02895405	0.01639173	0.8408311	0.08126305	-0.02421044	-0.06348676	0.002833969
	0.01639173	0.8408311	-0.02766876	-0.02300915	-0.06343896	0.002717694	0.08503419	0.003738134
	0.08126305	-0.02421044	-0.06343896	0.002717695	-0.04055487	-0.0318266	0.01283273	0.836847
	-0.06348676	0.002833968	0.08503418	0.003738133	0.01283273	0.836847	-0.03457806	-0.02900767
3.5e+08	0.005496539	-0.04258343	0.5471188	0.6356941	0.06343596	-0.07292053	-0.04954681	0.03975382
	0.5471188	0.6356941	0.0212237	-0.02616742	-0.04958923	0.03961297	0.0867367	-0.04387401
	0.06343596	-0.07292053	-0.04958923	0.03961298	-0.0004097912	-0.04425719	0.5419667	0.6350586
	-0.04954681	0.03975382	0.0867367	-0.04387401	0.5419667	0.6350586	0.01567487	-0.03035703
3.6e+08	-0.001609165	-0.08405735	0.8252699	0.1407834	0.01291511	-0.06654677	-0.01587059	0.06675738
	0.8252699	0.1407834	0.02753754	-0.07610142	-0.01601382	0.06668134	0.04180581	-0.05577912
	0.01291511	-0.06654678	-0.01601382	0.06668134	-0.00646166	-0.08751144	0.8209084	0.1434674
	-0.01587059	0.06675738	0.04180581	-0.05577912	0.8209084	0.1434674	0.02351469	-0.081238
3.7e+08	-0.04678379	-0.08767097	0.7239749	-0.4173956	0.009973853	-0.01768952	0.0353286	0.0640795
	0.7239749	-0.4173956	-0.02233022	-0.09502302	0.03517384	0.06412531	0.02204059	-0.01532567
	0.009973848	-0.01768952	0.03517384	0.06412531	-0.053729	-0.09239375	0.7221948	-0.4124055
	0.0353286	0.0640795	0.02204058	-0.01532567	0.7221948	-0.4124055	-0.0274475	-0.1019152
3.8e+08	-0.06275024	-0.04544377	0.2903481	-0.7813465	0.05808476	-0.006789362	0.06893818	0.02284373
	0.2903481	-0.7813465	-0.05383414	-0.05150843	0.06884829	0.02297303	0.05842215	0.01206716
	0.05808476	-0.00678936	0.06884829	0.02297303	-0.07204864	-0.04826472	0.2923895	-0.7761976
	0.06893818	0.02284373	0.05842215	0.01206716	0.2923895	-0.7761976	-0.06151465	-0.05784023
3.9e+08	-0.02841319	-0.02179765	-0.2735961	-0.7849045	0.07935879	-0.05411398	0.06527949	-0.02465504
	-0.2735961	-0.7849045	-0.02081094	-0.01259381	0.06528548	-0.02448598	0.09450828	-0.01855797
	0.07935879	-0.05411398	0.06528549	-0.02448598	-0.03708468	-0.02161258	-0.2685621	-0.7824717
	0.06527949	-0.02465504	0.09450828	-0.01855797	-0.2685621	-0.7824717	-0.02923994	-0.01624651
4e+08	-0.0005440685	-0.05006327	-0.7096167	-0.4298768	0.03741906	-0.08662748	0.03880686	-0.05959113
	-0.7096167	-0.4298768	0.02210157	-0.03652604	0.03893617	-0.05945509	0.07318708	-0.06126927
	0.03741906	-0.08662748	0.03893617	-0.05945509	-0.006730777	-0.04942742	-0.7043603	-0.431328
	0.03880686	-0.05959113	0.07318708	-0.06126927	-0.7043603	-0.431328	0.0155262	-0.03866276
4.1e+08	-0.02443488	-0.08420175	-0.819689	0.1213613	-0.002204489	-0.0538276	-0.007981222	-0.07628146
	-0.819689	0.1213613	0.006312418	-0.08461598	-0.007785272	-0.07627179	0.02835217	-0.05015655
	-0.002204493	-0.0538276	-0.007785273	-0.07627179	-0.03014264	-0.08550437	-0.8165486	0.116997
	-0.007981223	-0.07628147	0.02835217	-0.05015655	-0.8165486	0.116997	0.001108965	-0.08806055
4.2e+08	-0.06556524	-0.06835369	-0.5522986	0.615396	0.02263681	-0.01056689	-0.05996951	-0.05299242
	-0.5522986	0.615396	-0.04645673	-0.08001847	-0.05981625	-0.05311455	0.03085331	-0.005042368
	0.02263681	-0.01056689	-0.05981625	-0.05311455	-0.07353059	-0.0701877	-0.5525907	0.6098673
	-0.05996951	-0.05299242	0.0308533	-0.005042369	-0.5525907	0.6098673	-0.05312137	-0.08496219
4.3e+08	-0.06112701	-0.02552437	-0.03271121	0.8237194	0.07092028	-0.02837055	-0.07819879	0.0005107487
	-0.03271121	0.8237194	-0.05501187	-0.02814434	-0.07815365	0.0003147051	0.07695728	0.001567829
	0.07092028	-0.02837055	-0.07815365	0.0003147058	-0.07064949	-0.0249211	-0.03672106	0.8195685
	-0.07819879	0.0005107495	0.07695728	0.00156783	-0.03672106	0.8195685	-0.06405725	-0.03190291
4.4e+08	-0.02164397	-0.02065169	0.4980871	0.6541482	0.06379145	-0.08222983	-0.05952298	0.04703683
	0.4980871	0.6541482	-0.008932898	-0.009102472	-0.05962138	0.04684345	0.09498991	-0.04349762
	0.06379145	-0.08222983	-0.05962139	0.04684345	-0.02968983	-0.01747228	0.4922621	0.6537741
	-0.05952298	0.04703683	0.09498991	-0.04349762	0.4922621	0.6537741	-0.01800746	-0.009988741
4.5e+08	-0.01036293	-0.05750711	0.7997243	0.1867884	0.009440392	-0.08855085	-0.02033733	0.07600961
	0.7997243	0.1867884	0.0177652	-0.04954847	-0.02055116	0.07592957	0.0558829	-0.07198463
	0.009440389	-0.08855086	-0.02055116	0.07592958	-0.01596971	-0.05461413	0.7951939	0.1902698
	-0.02033733	0.07600961	0.0558829	-0.07198463	0.7951939	0.1902698	0.0109911	-0.04939672
4.6e+08	-0.04616039	-0.07632573	0.7342181	-0.3662217	-0.007363753	-0.03875088	0.03581221	0.07624134
	0.7342181	-0.3662217	-0.01792557	-0.08449614	0.03559681	0.07632352	0.02105908	-0.04104253
	-0.007363757	-0.03875088	0.03559681	0.07632353	-0.05183499	-0.07532283	0.732909	-0.3607423
	0.03581221	0.07624134	0.02105908	-0.04104254	0.732909	-0.3607423	-0.0236155	-0.08602331
4.7e+08	-0.07368405	-0.04480159	0.3303071	-0.7488988	0.03848101	-0.01459375	0.07956324	0.03261066
	0.3303071	-0.7488988	-0.0612479	-0.05648766	0.07944549	0.03281491	0.04497409	-0.00140131
	0.03848101	-0.01459374	0.07944549	0.03281492	-0.08150181	-0.0436418	0.3327803	-0.7436837
	0.07956324	0.03261066	0.04497409	-0.001401309	0.3327803	-0.7436837	-0.06874089	-0.05914503
4.8e+08	-0.05073275	-0.01182988	-0.2223038	-0.7847894	0.07220264	-0.05744156	0.07897596	-0.02629443
	-0.2223038	-0.7847894	-0.04446532	-0.008729201	0.07901822	-0.02604671	0.09082614	-0.0172716
	0.07220264	-0.05744155	0.07901822	-0.02604672	-0.05923666	-0.00803921	-0.2168235	-0.782361
	0.07897596	-0.02629443	0.09082614	-0.01727159	-0.2168235	-0.782361	-0.05397201	-0.009595083
4.9e+08	-0.01625512	-0.0263179	-0.6692977	-0.4627076	0.03702369	-0.1026344	0.04633889	-0.06768208
	-0.6692977	-0.4627076	0.003333671	-0.01452208	0.04654905	-0.0675185	0.08683883	-0.06748365
	0.03702369	-0.1026344	0.04654905	-0.0675185	-0.02267514	-0.02059942	-0.6635304	-0.4645972
	0.04633889	-0.06768209	0.08683882	-0.06748365	-0.6635304	-0.4645972	-0.0053865	-0.01254472
5e+08	-0.02439815	-0.06231573	-0.8102511	0.06955551	-0.01496	-0.08007376	-0.004716882	-0.08605387
	-0.8102511	0.06955551	0.006576031	-0.06170199	-0.004451033	-0.08607486	0.03805706	-0.07610563
	-0.01496	-0.08007376	-0.004451034	-0.08607486	-0.02863758	-0.05751599	-0.8072093	0.06443051
	-0.004716883	-0.08605387	0.03805706	-0.07610564	-0.8072093	0.06443051	0.0004571082	-0.05935291
5.1e+08	-0.06285145	-0.06106646	-0.5787502	0.5705163	-0.003525699	-0.02703921	-0.06346581	-0.06530311
	-0.5787502	0.5705163	-0.04048396	-0.07412103	-0.06327298	-0.06548512	0.02018214	-0.03186806
	-0.003525702	-0.02703921	-0.06327299	-0.06548512	-0.06759742	-0.05795734	-0.5796198	0.5647041
	-0.06346581	-0.06530311	0.02018213	-0.03186806	-0.5796198	0.5647041	-0.04597126	-0.07375017
5.2e+08	-0.07007813	-0.02288716	-0.08048973	0.8064283	0.05102059	-0.0301536	-0.09088674	-0.005777511
	-0.08048973	0.8064283	-0.06292482	-0.02980401	-0.09084465	-0.006055423	0.06095946	-0.005869167
	0.05102058	-0.0301536	-0.09084466	-0.006055422	-0.07664483	-0.01909413	-0.08489807	0.8023707
	-0.09088674	-0.00577751	0.06095946	-0.005869166	-0.08489807	0.8023707	-0.07046498	-0.03005681
5.3e+08	-0.03621158	-0.008239378	0.4502275	0.6700257	0.05933787	-0.08779161	-0.07133976	0.05152705
	0.4502275	0.6700257	-0.02553513	0.00103857	-0.07150603	0.0512706	0.09740846	-0.04190847
