!$
! Info: Touchstone file created by Circ.  Input file=Tx_PCB_4dB_OSFP_22dB_OSFP_4dB_PCB_Rx_TP0_TP5_VendorX.circ
!$
# Hz S RI R 50
0	0.05585024	2.09323e-13	3.413257e-05	-3.609041e-17	0.01385514	4.65852e-13	2.877827e-05	-3.026046e-17
	3.413258e-05	-3.605636e-17	0.05008618	1.96145e-13	4.142961e-05	-7.309938e-17	0.01324979	4.652449e-13
	0.01385514	4.664582e-13	4.142961e-05	-7.306453e-17	0.05053734	1.964057e-13	3.412536e-05	-5.16036e-17
	2.877827e-05	-3.022628e-17	0.01324981	4.656908e-13	3.412536e-05	-5.161738e-17	0.05536366	2.103457e-13
1e+07	0.09013801	0.02220389	4.003465e-05	4.323307e-06	0.04798901	0.04076041	3.346541e-05	3.831437e-06
	4.003465e-05	4.323307e-06	0.08305068	0.02026183	4.96723e-05	5.470336e-06	0.0474584	0.04080823
	0.04798901	0.04076041	4.96723e-05	5.470336e-06	0.08273076	0.02039155	4.005992e-05	4.261381e-06
	3.346541e-05	3.831436e-06	0.0474584	0.04080824	4.005992e-05	4.261381e-06	0.09046371	0.02192763
2e+07	0.1178215	-0.01829239	1.777319e-05	-7.82838e-06	0.09520836	0.01228976	1.521123e-05	-5.406735e-06
	1.777319e-05	-7.828379e-06	0.1081061	-0.01879234	2.203961e-05	-1.167166e-05	0.09490003	0.0121996
	0.09520836	0.01228976	2.203961e-05	-1.167166e-05	0.1080254	-0.0184699	1.778799e-05	-8.036367e-06
	1.521123e-05	-5.406735e-06	0.09490005	0.0121996	1.778799e-05	-8.036367e-06	0.1177958	-0.0188108
3e+07	0.08758896	-0.06357149	-4.029998e-05	3.232376e-05	0.07664563	-0.04092959	-3.203236e-05	2.776943e-05
	-4.029998e-05	3.232376e-05	0.07817302	-0.06077646	-5.253104e-05	3.809297e-05	0.07651573	-0.04137378
	0.07664563	-0.04092959	-5.253104e-05	3.809297e-05	0.07821709	-0.06070924	-4.043273e-05	3.203129e-05
	-3.203236e-05	2.776943e-05	0.07651574	-0.0413738	-4.043273e-05	3.203129e-05	0.0874203	-0.06380211
4e+07	0.0344506	-0.05412673	-2.907053e-05	0.0001464149	0.01949506	-0.03400646	-2.29874e-05	0.0001218316
	-2.907053e-05	0.0001464149	0.02807624	-0.05044694	-3.866638e-05	0.0001818977	0.01927311	-0.03501424
	0.01949506	-0.03400646	-3.866638e-05	0.0001818977	0.0276702	-0.05044021	-2.928313e-05	0.0001462318
	-2.29874e-05	0.0001218316	0.0192731	-0.03501424	-2.928313e-05	0.0001462318	0.03479947	-0.05435725
5e+07	0.02803089	-0.004625836	0.0001021741	0.0001839544	0.01515616	0.02377277	8.532422e-05	0.0001530137
	0.0001021741	0.0001839544	0.02289772	-0.003390184	0.0001264766	0.0002292812	0.01432943	0.02243344
	0.01515616	0.02377277	0.0001264766	0.0002292812	0.02229704	-0.002744239	0.0001021294	0.0001838247
	8.532422e-05	0.0001530137	0.01432943	0.02243344	0.0001021294	0.0001838247	0.02853374	-0.005650318
6e+07	0.07278717	0.01141215	0.0001635055	6.382312e-05	0.07044739	0.03890489	0.000135229	5.454718e-05
	0.0001635055	6.382312e-05	0.06529386	0.01132225	0.0002053299	7.687648e-05	0.06915314	0.03799286
	0.07044739	0.03890489	0.0002053299	7.687648e-05	0.06527578	0.01237672	0.0001636371	6.343222e-05
	0.000135229	5.454718e-05	0.06915315	0.03799286	0.0001636371	6.343222e-05	0.07255837	0.009940903
7e+07	0.1008347	-0.02852198	3.997765e-05	-1.454923e-05	0.09641868	-0.0110024	3.457254e-05	-8.493548e-06
	3.997766e-05	-1.454923e-05	0.09128048	-0.02625793	4.752783e-05	-2.514162e-05	0.09556488	-0.01147137
	0.09641868	-0.0110024	4.752783e-05	-2.514163e-05	0.09173357	-0.02562065	3.988816e-05	-1.533819e-05
	3.457254e-05	-8.493549e-06	0.09556489	-0.01147138	3.988816e-05	-1.533819e-05	0.1000933	-0.02949853
8e+07	0.07233329	-0.06972947	-9.558691e-05	0.000118544	0.05405554	-0.04692103	-7.592348e-05	0.0001000377
	-9.558691e-05	0.000118544	0.06436543	-0.06446185	-0.0001260478	0.0001447118	0.05393846	-0.04795226
	0.05405554	-0.04692103	-0.0001260478	0.0001447118	0.06437487	-0.06428747	-9.618614e-05	0.0001178278
	-7.592348e-05	0.0001000377	0.05393846	-0.04795227	-9.618614e-05	0.0001178278	0.07211	-0.07025817
9e+07	0.02561071	-0.05685585	8.551614e-06	0.000336115	0.01019332	-0.01278474	9.045651e-06	0.0002792732
	8.551614e-06	0.000336115	0.02080107	-0.05206204	6.865942e-06	0.0004194679	0.009748367	-0.01510919
	0.01019332	-0.01278474	6.865942e-06	0.0004194679	0.02017202	-0.05128941	7.949371e-06	0.0003358883
	9.045651e-06	0.0002792732	0.009748365	-0.01510919	7.949365e-06	0.0003358883	0.0260171	-0.05811886
1e+08	0.02717613	-0.0117754	0.0002692215	0.0002958437	0.03574961	0.03701717	0.0002238856	0.0002463729
	0.0002692215	0.0002958437	0.02241427	-0.009746791	0.0003356688	0.0003678142	0.03377102	0.03443908
	0.03574961	0.03701717	0.0003356688	0.0003678142	0.02231622	-0.008040841	0.0002691466	0.0002956405
	0.0002238856	0.0002463729	0.03377102	0.03443908	0.0002691466	0.0002956405	0.02690842	-0.01402708
1.1e+08	0.07130165	-0.005178958	0.0002828645	4.139933e-05	0.08939968	0.02172849	0.0002345758	3.826459e-05
	0.0002828645	4.139933e-05	0.06377742	-0.003412436	0.0003533554	4.386772e-05	0.08675759	0.02045015
	0.08939968	0.02172849	0.0003533554	4.386772e-05	0.06471666	-0.001894857	0.0002829984	4.052176e-05
	0.0002345758	3.826459e-05	0.0867576	0.02045015	0.0002829984	4.052176e-05	0.06993728	-0.007154433
1.2e+08	0.09060158	-0.04863334	2.946544e-05	-1.493503e-05	0.08620405	-0.03295303	2.873808e-05	-7.076092e-06
	2.946544e-05	-1.493503e-05	0.08199866	-0.04386771	2.781747e-05	-2.875667e-05	0.08465899	-0.03344947
	0.08620405	-0.03295303	2.781747e-05	-2.875668e-05	0.08303727	-0.04329584	2.886453e-05	-1.638903e-05
	2.873808e-05	-7.076092e-06	0.08465899	-0.03344948	2.886453e-05	-1.638904e-05	0.08922202	-0.04966471
1.3e+08	0.0548107	-0.08309076	-0.000103843	0.0002589666	0.03309888	-0.04160823	-8.054455e-05	0.0002159373
	-0.000103843	0.0002589666	0.04877879	-0.07607448	-0.000141089	0.0003225272	0.03266108	-0.04326102
	0.03309888	-0.04160823	-0.000141089	0.0003225272	0.04883088	-0.07569962	-0.0001052948	0.0002581272
	-8.054455e-05	0.0002159373	0.03266107	-0.04326103	-0.0001052948	0.0002581272	0.05440856	-0.08407182
1.4e+08	0.01213865	-0.06070232	0.0001614631	0.0005037136	0.01407899	0.008799306	0.0001366665	0.0004179866
	0.0001614631	0.0005037136	0.008846793	-0.0552912	0.0001973946	0.0006300876	0.01263366	0.005321628
	0.01407899	0.008799306	0.0001973946	0.0006300876	0.008524682	-0.05368817	0.0001604926	0.0005037723
	0.0001366665	0.0004179866	0.01263366	0.005321626	0.0001604926	0.0005037723	0.01194304	-0.06297392
1.5e+08	0.02379593	-0.01731946	0.000484941	0.0003027376	0.06060951	0.03736188	0.000402909	0.0002529743
	0.000484941	0.0003027376	0.01949272	-0.01447385	0.0006052431	0.0003738578	0.05683034	0.03423599
	0.06060951	0.03736188	0.0006052431	0.0003738578	0.0204492	-0.01209926	0.0004849362	0.0003024001
	0.000402909	0.0002529743	0.05683035	0.03423599	0.0004849362	0.0003024001	0.02221915	-0.02023932
1.6e+08	0.06866132	-0.02104734	0.0003640392	-4.021435e-05	0.09807334	-0.002257058	0.0003039446	-2.67921e-05
	0.0003640392	-4.021435e-05	0.06165211	-0.01744345	0.0004496621	-6.34653e-05	0.09392698	-0.0031756
	0.09807334	-0.002257058	0.0004496621	-6.34653e-05	0.06373826	-0.01598655	0.0003638842	-4.181842e-05
	0.0003039446	-2.67921e-05	0.09392699	-0.003175605	0.0003638842	-4.181842e-05	0.06607397	-0.02297872
1.7e+08	0.07748662	-0.06898501	3.161797e-06	1.311938e-05	0.06840146	-0.04651696	1.113558e-05	1.622585e-05
	3.161799e-06	1.311938e-05	0.07045787	-0.06214838	-1.438919e-05	7.488976e-06	0.06617395	-0.04668498
	0.06840146	-0.04651696	-1.438919e-05	7.488975e-06	0.07205495	-0.0619497	1.426764e-06	1.117952e-05
	1.113558e-05	1.622585e-05	0.06617395	-0.04668498	1.426763e-06	1.117952e-05	0.07545593	-0.06984715
1.8e+08	0.03278115	-0.09431647	-3.392938e-05	0.000425919	0.01986358	-0.02725341	-2.060592e-05	0.0003526832
	-3.392938e-05	0.000425919	0.02895883	-0.08619986	-5.67926e-05	0.0005364301	0.0188102	-0.02939358
	0.01986358	-0.02725341	-5.67926e-05	0.0005364301	0.02916227	-0.08568325	-3.643064e-05	0.0004256007
	-2.060592e-05	0.0003526832	0.0188102	-0.02939358	-3.643064e-05	0.0004256007	0.03192035	-0.09564225
1.9e+08	-0.003616328	-0.06024295	0.0004096168	0.0005948369	0.02948723	0.02446033	0.0003431218	0.0004929327
	0.0004096168	0.0005948369	-0.005422194	-0.05458655	0.0005079602	0.0007448267	0.02645517	0.02028228
	0.02948723	0.02446033	0.0005079602	0.0007448267	-0.005041985	-0.05234227	0.0004085937	0.0005954373
	0.0003431218	0.0004929327	0.02645517	0.02028227	0.0004085937	0.0005954373	-0.004870115	-0.0631337
2e+08	0.02035604	-0.02023898	0.0006955395	0.0001984206	0.08313069	0.02519575	0.000578141	0.0001678521
	0.0006955395	0.0001984206	0.01669302	-0.01664619	0.0008666911	0.0002394941	0.07724183	0.0223658
	0.08313069	0.02519575	0.0008666911	0.0002394941	0.01901079	-0.01411557	0.0006956224	0.000197681
	0.000578141	0.0001678521	0.07724183	0.0223658	0.0006956224	0.000197681	0.01726686	-0.02319611
2.1e+08	0.06449725	-0.03681164	0.0003897794	-0.0001496725	0.09539849	-0.02684722	0.0003293883	-0.0001156
	0.0003897794	-0.0001496725	0.05846578	-0.03159015	0.0004721101	-0.0002034958	0.08987262	-0.02668239
	0.09539849	-0.02684722	0.0004721101	-0.0002034958	0.06170312	-0.0307455	0.0003887375	-0.0001521057
	0.0003293883	-0.0001156	0.08987262	-0.0266824	0.0003887375	-0.0001521057	0.06072526	-0.03820445
2.2e+08	0.05931927	-0.08783641	-1.414571e-05	7.918709e-05	0.04871593	-0.04960253	1.415977e-06	6.881259e-05
	-1.414571e-05	7.918709e-05	0.05428447	-0.07943962	-4.550771e-05	9.689327e-05	0.04596904	-0.04911597
	0.04871593	-0.04960253	-4.550771e-05	9.689327e-05	0.05628144	-0.07993491	-1.760425e-05	7.744018e-05
	1.415975e-06	6.881259e-05	0.04596904	-0.04911598	-1.760425e-05	7.744018e-05	0.05664658	-0.0882196
2.3e+08	0.006635007	-0.09926081	0.0001301246	0.0005795875	0.01758752	-0.009248891	0.0001168084	0.0004775137
	0.0001301246	0.0005795875	0.005141992	-0.09064195	0.0001480978	0.0007351634	0.01570351	-0.01166564
	0.01758752	-0.009248891	0.0001480978	0.0007351634	0.005531391	-0.09008555	0.0001268876	0.0005805891
	0.0001168084	0.0004775137	0.01570351	-0.01166565	0.0001268876	0.0005805891	0.005153328	-0.1006302
2.4e+08	-0.01825542	-0.05352167	0.0007128908	0.0005698809	0.05178408	0.02971701	0.0005950534	0.0004714058
	0.0007128908	0.0005698809	-0.01861366	-0.04795258	0.0008877371	0.0007133197	0.04677273	0.02546288
	0.05178408	0.02971701	0.0008877371	0.0007133197	-0.01725002	-0.04537733	0.0007123143	0.0005709339
	0.0005950534	0.0004714058	0.04677273	0.02546288	0.0007123143	0.0005709339	-0.02076295	-0.05650527
2.5e+08	0.019009	-0.02182346	0.0008538582	-1.543477e-06	0.0981267	0.003775495	0.0007110694	3.7855e-06
	0.0008538582	-1.543477e-06	0.01615318	-0.01766292	0.001059556	-1.496538e-05	0.09013165	0.00215454
	0.0981267	0.003775495	0.001059556	-1.496538e-05	0.01993973	-0.01557668	0.0008537501	-3.057465e-06
	0.0007110694	3.7855e-06	0.09013166	0.002154537	0.0008537501	-3.057464e-06	0.01444156	-0.02420237
2.6e+08	0.05769339	-0.05323766	0.0003593847	-0.0002550351	0.08340147	-0.04674791	0.0003101374	-0.0002028723
	0.0003593847	-0.0002550351	0.05295655	-0.04671474	0.0004206811	-0.0003334361	0.07689276	-0.04484458
	0.08340147	-0.04674791	0.0004206811	-0.0003334361	0.05713278	-0.04704711	0.0003566568	-0.0002579795
	0.0003101374	-0.0002028723	0.07689276	-0.04484458	0.0003566568	-0.0002579795	0.05289691	-0.05359859
2.7e+08	0.03513115	-0.1023825	5.249039e-06	0.0001785863	0.03268172	-0.04337549	2.153449e-05	0.0001467162
	5.249038e-06	0.0001785863	0.03236094	-0.09293492	-2.781784e-05	0.0002333957	0.0297128	-0.04200636
	0.03268172	-0.04337549	-2.781784e-05	0.0002333957	0.03443363	-0.09438361	-7.635236e-08	0.0001781895
	2.153448e-05	0.0001467162	0.0297128	-0.04200636	-7.635217e-08	0.0001781895	0.0319708	-0.101901
2.8e+08	-0.02063133	-0.09490355	0.0003857289	0.0006741855	0.02622782	0.006422691	0.0003293907	0.0005526955
	0.0003857289	0.0006741855	-0.01975573	-0.08634692	0.0004704647	0.000859619	0.023367	0.003976127
	0.02622782	0.006422691	0.0004704647	0.000859619	-0.01921166	-0.08583615	0.0003826679	0.0006770292
	0.0003293907	0.0005526955	0.023367	0.003976125	0.0003826679	0.0006770292	-0.02268159	-0.09594923
2.9e+08	-0.02791353	-0.04143282	0.001018613	0.0004088716	0.07515709	0.02307239	0.0008488066	0.0003369836
	0.001018613	0.0004088716	-0.02689232	-0.03630898	0.001269687	0.000510425	0.0679835	0.01948505
	0.07515709	0.02307239	0.001269687	0.000510425	-0.02438935	-0.03379596	0.001018839	0.0004098351
	0.0008488066	0.0003369836	0.0679835	0.01948504	0.001018839	0.0004098351	-0.0316215	-0.04399092
3e+08	0.0202082	-0.02456259	0.0009252585	-0.0002658908	0.1029537	-0.02202871	0.0007735213	-0.0002139086
	0.0009252585	-0.0002658908	0.0182236	-0.02008891	0.001139521	-0.0003484619	0.09317803	-0.0215356
	0.1029537	-0.02202871	0.001139521	-0.0003484619	0.02336187	-0.01908293	0.0009242974	-0.0002683894
	0.0007735213	-0.0002139086	0.09317803	-0.0215356	0.0009242974	-0.0002683894	0.01437664	-0.02581157
3.1e+08	0.04641398	-0.0698244	0.0002859332	-0.0003296815	0.0661231	-0.05879357	0.0002561881	-0.0002676391
	0.0002859332	-0.0003296815	0.04315153	-0.06230778	0.0003142653	-0.0004175894	0.05927978	-0.05465575
	0.0661231	-0.05879357	0.0003142653	-0.0004175894	0.04781583	-0.06431507	0.0002808304	-0.0003322282
	0.0002561881	-0.0002676391	0.05927977	-0.05465575	0.0002808304	-0.0003322282	0.04090853	-0.06865971
3.2e+08	0.005980266	-0.1091055	8.556408e-05	0.0002923095	0.02410666	-0.03145987	9.066293e-05	0.0002345172
	8.556408e-05	0.0002923095	0.005680187	-0.09909308	7.15721e-05	0.0003913727	0.02129379	-0.02913253
	0.02410666	-0.03145987	7.15721e-05	0.0003913727	0.007363927	-0.1016067	7.902496e-05	0.0002945642
	9.066293e-05	0.0002345172	0.02129379	-0.02913253	7.902496e-05	0.0002945642	0.00271446	-0.1073873
3.3e+08	-0.04425486	-0.08045783	0.0007102834	0.0006650893	0.04297453	0.01496385	0.0005983116	0.0005413453
	0.0007102834	0.0006650893	-0.04103093	-0.07255264	0.000881068	0.0008526133	0.03904255	0.01275861
	0.04297453	0.01496385	0.000881068	0.0008526133	-0.04040005	-0.07212356	0.0007086486	0.0006695879
	0.0005983116	0.0005413453	0.03904255	0.01275861	0.0007086486	0.0006695879	-0.04660257	-0.08089407
3.4e+08	-0.02990234	-0.02728412	0.001269201	0.0001138619	0.09431561	0.005842652	0.001056732	9.143562e-05
	0.001269201	0.0001138619	-0.02766876	-0.02300915	0.001580671	0.0001393919	0.08503419	0.003738134
	0.09431561	0.005842652	0.001580671	0.000139392	-0.02401151	-0.02099392	0.00127009	0.0001139077
	0.001056732	9.143563e-05	0.08503418	0.003738133	0.00127009	0.0001139077	-0.03457806	-0.02900767
3.5e+08	0.02242361	-0.03071258	0.0008907386	-0.0005536556	0.09764003	-0.04728253	0.0007499225	-0.0004522951
	0.0008907387	-0.0005536556	0.0212237	-0.02616742	0.001082982	-0.0007070101	0.0867367	-0.04387401
	0.09764003	-0.04728253	0.001082982	-0.0007070101	0.02736097	-0.02683966	0.0008880032	-0.0005568873
	0.0007499225	-0.0004522951	0.0867367	-0.04387401	0.0008880032	-0.0005568873	0.01567487	-0.03035703
3.6e+08	0.02920653	-0.08438516	0.0001927645	-0.0003563307	0.04814118	-0.06239481	0.0001854715	-0.0002962207
	0.0001927645	-0.0003563307	0.02753754	-0.07610142	0.000185975	-0.0004333747	0.04180581	-0.05577912
	0.04814118	-0.06239481	0.000185975	-0.0004333747	0.03201577	-0.08011852	0.0001851221	-0.0003570349
	0.0001854715	-0.0002962207	0.04180581	-0.05577912	0.0001851221	-0.0003570349	0.02351469	-0.081238
3.7e+08	-0.02470447	-0.1050836	0.0002420313	0.0003885737	0.02431307	-0.01851001	0.00022081	0.0003064812
	0.0002420313	0.0003885737	-0.02233022	-0.09502302	0.0002729479	0.0005281055	0.02204059	-0.01532567
	0.02431307	-0.01851001	0.0002729479	0.0005281055	-0.02157147	-0.09849381	0.0002358179	0.0003943657
	0.00022081	0.0003064812	0.02204058	-0.01532567	0.0002358179	0.0003943657	-0.0274475	-0.1019152
3.8e+08	-0.059275	-0.05809474	0.00106118	0.0005163907	0.06347423	0.0137292	0.0008880554	0.0004136856
	0.00106118	0.0005163907	-0.05383414	-0.05150843	0.001325186	0.0006688823	0.05842215	0.01206716
	0.06347423	0.0137292	0.001325186	0.0006688823	-0.05318194	-0.05113764	0.001062015	0.0005214547
	0.0008880554	0.0004136856	0.05842215	0.01206716	0.001062015	0.0005214547	-0.06151465	-0.05784023
3.9e+08	-0.02391014	-0.01561988	0.00140996	-0.0002899921	0.1055724	-0.01876559	0.001173591	-0.000244406
	0.00140996	-0.0002899921	-0.02081094	-0.01259381	0.001751645	-0.0003669729	0.09450828	-0.01855797
	0.1055724	-0.01876559	0.001751645	-0.0003669729	-0.01613101	-0.01150984	0.0014107	-0.0002915736
	0.001173591	-0.000244406	0.09450828	-0.01855797	0.0014107	-0.0002915736	-0.02923994	-0.01624651
4e+08	0.02272923	-0.04102999	0.0007489901	-0.0008199904	0.0842626	-0.06817727	0.0006387387	-0.00067541
	0.0007489901	-0.0008199904	0.02210157	-0.03652604	0.0008901324	-0.001031638	0.07318708	-0.06126927
	0.0842626	-0.06817727	0.0008901324	-0.001031638	0.02866228	-0.03935975	0.0007436238	-0.0008230492
	0.0006387387	-0.00067541	0.07318708	-0.06126927	0.0007436238	-0.0008230492	0.0155262	-0.03866276
4.1e+08	0.006212502	-0.09351833	0.0001095691	-0.0003304086	0.03323914	-0.05916872	0.0001208987	-0.0002847305
	0.0001095691	-0.0003304086	0.006312418	-0.08461598	7.7335e-05	-0.0003763258	0.02835217	-0.05015655
	0.03323914	-0.05916872	7.7335e-05	-0.0003763258	0.009760503	-0.09072	0.0001001166	-0.0003276174
	0.0001208987	-0.0002847305	0.02835217	-0.05015655	0.0001001166	-0.0003276174	0.001108965	-0.08806055
4.2e+08	-0.05169935	-0.08947797	0.0004749266	0.0004258628	0.03227299	-0.008815248	0.0004119226	0.0003288331
	0.0004749266	0.0004258628	-0.04645673	-0.08001847	0.0005761318	0.0005886215	0.03085331	-0.005042368
	0.03227299	-0.008815248	0.0005761318	0.0005886215	-0.04712735	-0.0840818	0.0004711688	0.0004350662
	0.0004119225	0.0003288331	0.0308533	-0.005042369	0.0004711688	0.0004350662	-0.05312137	-0.08496219
4.3e+08	-0.06232117	-0.03267222	0.001378255	0.0002098349	0.08312229	0.002343098	0.001148294	0.0001546074
	0.001378255	0.0002098348	-0.05501187	-0.02814434	0.001726483	0.0002862014	0.07695728	0.001567829
	0.08312229	0.002343098	0.001726483	0.0002862014	-0.05436474	-0.02776116	0.001381768	0.0002136844
	0.001148294	0.0001546074	0.07695728	0.00156783	0.001381768	0.0002136844	-0.06405725	-0.03190291
4.4e+08	-0.01233218	-0.01060214	0.001398191	-0.0007555812	0.1072182	-0.04677511	0.001164066	-0.0006315968
	0.001398191	-0.0007555812	-0.008932898	-0.009102472	0.001729296	-0.0009480153	0.09498991	-0.04349762
	0.1072182	-0.04677511	0.001729296	-0.0009480153	-0.003500501	-0.009337659	0.001397425	-0.0007588918
	0.001164066	-0.0006315968	0.09498991	-0.04349762	0.001397425	-0.0007588918	-0.01800746	-0.009988741
4.5e+08	0.01804657	-0.05411654	0.0005171408	-0.001022952	0.06594457	-0.08264664	0.0004529745	-0.0008495027
	0.0005171408	-0.001022952	0.0177652	-0.04954847	0.0005860489	-0.001267878	0.0558829	-0.07198463
	0.06594457	-0.08264664	0.0005860489	-0.001267878	0.0239848	-0.05484059	0.0005087898	-0.00102431
	0.0004529745	-0.0008495027	0.0558829	-0.07198463	0.0005087898	-0.00102431	0.0109911	-0.04939672
4.6e+08	-0.02012305	-0.09384523	6.705039e-05	-0.00026281	0.02358122	-0.05201223	8.638218e-05	-0.000241282
	6.705039e-05	-0.00026281	-0.01792557	-0.08449614	3.022644e-05	-0.0002636678	0.02105908	-0.04104253
	0.02358122	-0.05201223	3.022644e-05	-0.0002636678	-0.01642927	-0.09242586	5.757146e-05	-0.0002552294
	8.638218e-05	-0.000241282	0.02105908	-0.04104254	5.757146e-05	-0.0002552294	-0.0236155	-0.08602331
4.7e+08	-0.0694354	-0.0644778	0.0007635657	0.0003590699	0.04536972	-0.005367157	0.0006467357	0.0002646129
	0.0007635657	0.0003590699	-0.0612479	-0.05648766	0.0009533647	0.0005144462	0.04497409	-0.00140131
	0.04536972	-0.005367157	0.0009533647	0.0005144462	-0.06370029	-0.06053273	0.0007642937	0.0003701701
	0.0006467357	0.0002646129	0.04497409	-0.001401309	0.0007642937	0.0003701701	-0.06874089	-0.05914503
4.8e+08	-0.05296919	-0.01048602	0.001590941	-0.0002458947	0.09801387	-0.01777181	0.001319818	-0.0002283296
	0.001590941	-0.0002458947	-0.04446532	-0.008729201	0.001996432	-0.0002835607	0.09082614	-0.0172716
	0.09801387	-0.01777181	0.001996432	-0.0002835607	-0.04378478	-0.008244944	0.001596074	-0.0002450918
	0.001319818	-0.0002283296	0.09082614	-0.01727159	0.001596074	-0.0002450918	-0.05397201	-0.009595083
4.9e+08	0.0003688467	-0.01449287	0.001212658	-0.001219222	0.099328	-0.07441108	0.00101057	-0.001017548
