!$
! Info: Touchstone file created by Circ.  Input file=Tx_PCB_4dB_OSFP_22dB_OSFP_4dB_PCB_Rx_TP0_TP5_VendorY.circ
!$
# Hz S RI R 50
0	0.05537892	3.095418e-22	-1.046164e-05	8.373766e-24	0.001847523	3.98814e-20	-2.514293e-05	1.167608e-21
	-1.046172e-05	8.367415e-24	0.05457158	2.841663e-22	-2.747408e-06	1.052086e-23	0.001779859	3.961991e-20
	0.001847523	3.98814e-20	-2.747207e-06	1.051634e-23	0.05516751	3.087629e-22	-4.905544e-05	4.096424e-21
	-2.514283e-05	1.167595e-21	0.001779819	3.962005e-20	-4.905544e-05	4.096425e-21	0.0545847	2.762871e-22
1e+07	0.04852698	-0.02602717	-0.000101182	-3.628416e-06	0.03816463	0.04024924	-4.187934e-05	3.423158e-05
	-0.000101182	-3.628415e-06	0.04763668	-0.02591203	-2.660674e-05	-4.012948e-05	0.03728183	0.04092673
	0.03816463	0.04024924	-2.660664e-05	-4.012959e-05	0.04920942	-0.02492669	-3.583223e-05	1.940726e-06
	-4.187933e-05	3.423158e-05	0.03728183	0.04092673	-3.583242e-05	1.940822e-06	0.04863352	-0.02469625
2e+07	0.02154678	-0.03893236	-9.72096e-05	6.692186e-05	0.08297537	0.01124081	-4.972003e-05	5.565283e-05
	-9.72096e-05	6.692186e-05	0.02056084	-0.03775114	-8.334236e-05	-1.477835e-05	0.08258669	0.01425439
	0.08297537	0.01124081	-8.334238e-05	-1.477855e-05	0.02374467	-0.03857083	-6.203766e-05	-5.169776e-06
	-4.972004e-05	5.565281e-05	0.08258669	0.01425439	-6.203766e-05	-5.169658e-06	0.02291163	-0.03747927
3e+07	-0.003682136	-0.02425814	-5.80701e-05	0.0001311208	0.06228108	-0.03692604	-3.849532e-05	0.0001076778
	-5.80701e-05	0.0001311208	-0.003691497	-0.02298909	-0.0001086791	6.793298e-05	0.0648217	-0.0341006
	0.06228109	-0.03692594	-0.0001086791	6.793288e-05	-0.001815116	-0.0257169	-0.0001047782	5.157143e-05
	-3.849533e-05	0.0001076778	0.06482171	-0.0341005	-0.0001047782	5.157152e-05	-0.001844611	-0.02419666
4e+07	-0.001857333	0.001581591	3.894629e-05	0.0001785165	0.01290162	-0.02454827	4.67817e-05	0.0001602182
	3.89463e-05	0.0001785165	-0.00250874	0.00157341	-3.979082e-05	0.0001681035	0.01486231	-0.02492311
	0.01290173	-0.02454819	-3.979093e-05	0.0001681035	-0.001886899	-8.32143e-05	-5.958053e-05	0.000169393
	4.678158e-05	0.0001602182	0.01486231	-0.02492311	-5.958045e-05	0.000169393	-0.002093515	0.0003744426
5e+07	0.01981962	0.006039497	0.0001746096	0.0001257164	0.01848843	0.0253543	0.0001732505	0.0001104454
	0.0001746096	0.0001257164	0.01651429	0.006944522	0.0001056128	0.0001729891	0.01564246	0.02571183
	0.01848843	0.0253543	0.0001056127	0.0001729891	0.01920973	0.006135939	0.0001031448	0.0001952929
	0.0001732504	0.0001104454	0.01564246	0.02571183	0.0001031448	0.0001952929	0.01665688	0.007049502
6e+07	0.02660367	-0.01274124	0.000229167	-1.436179e-05	0.06926214	0.02688453	0.0002247281	-1.837971e-05
	0.000229167	-1.436181e-05	0.02309334	-0.008072528	0.0002080478	7.093608e-05	0.06575741	0.0337126
	0.06926214	0.02688453	0.0002080469	7.093629e-05	0.02766438	-0.01178522	0.0002198946	8.512576e-05
	0.0002247281	-1.83797e-05	0.06575741	0.0337126	0.0002198946	8.512576e-05	0.02449545	-0.007445132
7e+07	0.00892887	-0.02181026	0.0002001134	-0.0001471297	0.07961116	-0.02355342	0.0002098175	-0.0001574164
	0.0002001135	-0.0001471296	0.008978008	-0.01580174	0.0002410892	-7.284862e-05	0.0828822	-0.0140987
	0.07961108	-0.02355334	0.0002410893	-7.284843e-05	0.0112271	-0.02247329	0.0002629377	-5.778869e-05
	0.0002098175	-0.0001574163	0.0828822	-0.01409869	0.0002629377	-5.778876e-05	0.01127801	-0.01636824
8e+07	-0.003518987	-0.004915644	9.922459e-05	-0.0002889746	0.03203323	-0.04250363	9.197659e-05	-0.0003205369
	9.922458e-05	-0.0002889746	-0.002176554	-0.002337771	0.0001706664	-0.0002564413	0.03903735	-0.03965401
	0.03203323	-0.04250363	0.0001706664	-0.0002564413	-0.002596977	-0.007272222	0.0002170824	-0.0002695919
	9.197659e-05	-0.0003205369	0.03903735	-0.03965401	0.0002170822	-0.0002695928	-0.0007732523	-0.004167933
9e+07	0.0118651	0.01152111	-0.0001493483	-0.0003359953	0.006407562	0.001255669	-0.000183589	-0.0003508045
	-0.0001493484	-0.0003359953	0.008591241	0.01266946	-6.749567e-05	-0.0003475424	0.006118292	-0.0006837103
	0.006407566	0.001255679	-6.749557e-05	-0.0003475424	0.01075199	0.01010682	-5.6389e-05	-0.0004081602
	-0.000183589	-0.0003508045	0.006118261	-0.0006837952	-5.638909e-05	-0.0004081601	0.008551889	0.01131267
1e+08	0.03195465	-0.000736717	-0.0003606362	-0.0001430246	0.0465638	0.03308271	-0.0003923075	-0.0001423706
	-0.0003606362	-0.0001430245	0.0254762	0.006050016	-0.0002969293	-0.0002122519	0.03910421	0.03897331
	0.0465638	0.03308271	-0.0002969293	-0.0002122519	0.03139723	2.423616e-05	-0.0003394699	-0.0002460643
	-0.0003923075	-0.0001423706	0.03910411	0.03897334	-0.0003394699	-0.0002460643	0.02564235	0.00614672
1.1e+08	0.02414058	-0.02291986	-0.0003667646	0.0001028065	0.08548265	-0.002077844	-0.0004126323	0.000105962
	-0.0003667647	0.0001028064	0.02248425	-0.01088861	-0.0003707489	1.048425e-05	0.08468318	0.01379328
	0.08548265	-0.002077844	-0.0003707489	1.048425e-05	0.02588027	-0.0223932	-0.0004050513	8.25996e-06
	-0.0004126323	0.000105962	0.08468318	0.01379328	-0.0004050513	8.25996e-06	0.02422895	-0.01073703
1.2e+08	0.001064167	-0.01917066	-0.0002803548	0.0003124117	0.05788161	-0.04723646	-0.0003278574	0.0003628955
	-0.0002803548	0.0003124117	0.005305198	-0.01061744	-0.0003341046	0.0002550721	0.06872567	-0.03592111
	0.05788161	-0.04723646	-0.0003341046	0.0002550721	0.003038487	-0.02104255	-0.0003825722	0.0002580758
	-0.0003278574	0.0003628955	0.06872567	-0.03592111	-0.0003825721	0.000258076	0.007568086	-0.01210756
1.3e+08	0.001498619	0.005450144	-2.049516e-05	0.0005068736	0.009084224	-0.02780892	-8.968413e-06	0.0005783001
	-2.049516e-05	0.0005068736	0.002158425	0.007698511	-9.067458e-05	0.000484155	0.01673323	-0.0292301
	0.009084225	-0.02780892	-9.067457e-05	0.000484155	0.001068722	0.002740128	-0.0001368564	0.0005510896
	-8.968413e-06	0.0005783001	0.01673323	-0.0292301	-0.0001368564	0.0005510896	0.002941258	0.005213107
1.4e+08	0.02815005	0.009668975	0.0003838918	0.0004033177	0.0213815	0.02342077	0.0004249891	0.0004376541
	0.0003838918	0.0004033177	0.02054298	0.01569862	0.0002995753	0.0004308329	0.01427981	0.02387405
	0.0213815	0.02342077	0.0002995751	0.000430833	0.0263767	0.009135895	0.0003440041	0.000510397
	0.0004249891	0.000437654	0.01427979	0.02387406	0.0003440042	0.0005103969	0.02002302	0.01435818
1.5e+08	0.03885403	-0.01667492	0.0005341014	3.054437e-05	0.07530565	0.01903957	0.0005781931	5.608544e-05
	0.0005341014	3.054438e-05	0.03312389	-4.206066e-05	0.0004959842	0.0001217729	0.06699488	0.03634114
	0.07530564	0.01903957	0.0004959842	0.0001217728	0.03897077	-0.01547097	0.000564138	0.0001240626
	0.0005781931	5.608544e-05	0.06699488	0.03634114	0.000564138	0.0001240626	0.03345263	8.468629e-05
1.6e+08	0.0159298	-0.03297132	0.0004461053	-0.0002673689	0.08121333	-0.03605356	0.0005254158	-0.0002728513
	0.0004461052	-0.0002673689	0.02127325	-0.015211	0.0004870304	-0.0001891784	0.09005195	-0.01333612
	0.08121333	-0.03605356	0.0004870304	-0.0001891784	0.01817634	-0.03337547	0.0005259041	-0.0001989095
	0.0005254158	-0.0002728512	0.09005186	-0.01333608	0.0005259035	-0.0001989103	0.02330615	-0.01569297
1.7e+08	-0.003855609	-0.01337613	0.0002521283	-0.0005461441	0.02817867	-0.05228444	0.0003027527	-0.0006257094
	0.0002521283	-0.0005461441	0.00424547	-0.006241648	0.0003136369	-0.0005152102	0.04571981	-0.04580979
	0.02817867	-0.05228444	0.0003136369	-0.0005152102	-0.002807792	-0.0163827	0.0003794922	-0.000552244
	0.0003027527	-0.0006257094	0.04571981	-0.04580979	0.0003794922	-0.000552244	0.00609246	-0.008697263
1.8e+08	0.01394364	0.01032395	-0.0002303438	-0.0006659719	0.003929388	-0.002750878	-0.000257268	-0.0007400126
	-0.0002303438	-0.0006659719	0.01046518	0.01374118	-0.0001544989	-0.0006619456	0.005490871	-0.007645202
	0.00392939	-0.002750878	-0.0001544989	-0.0006619456	0.01205207	0.007914382	-0.0001521211	-0.0007748486
	-0.0002572688	-0.000740012	0.005490869	-0.007645203	-0.0001521211	-0.0007748486	0.01026059	0.01086994
1.9e+08	0.04308596	-0.00390352	-0.0006541685	-0.0002909005	0.05025432	0.02894001	-0.0006918855	-0.0003279063
	-0.0006541686	-0.0002909005	0.0330454	0.01246318	-0.0005784988	-0.000356577	0.03655137	0.03970356
	0.05025432	0.02894001	-0.0005784988	-0.000356577	0.04116628	-0.003280777	-0.0006782362	-0.0004044514
	-0.0006918855	-0.0003279063	0.03655138	0.03970356	-0.0006782362	-0.0004044513	0.03192647	0.01145806
2e+08	0.0362626	-0.03670581	-0.0006275579	0.0001837218	0.0908926	-0.01246791	-0.00068921	0.0001457828
	-0.0006275579	0.0001837218	0.03812038	-0.009604489	-0.0006386297	7.897333e-05	0.0902299	0.01821318
	0.0908926	-0.01246791	-0.0006386297	7.897333e-05	0.03733964	-0.03549577	-0.0006973365	0.0001113781
	-0.00068921	0.0001457828	0.0902299	0.01821318	-0.0006973365	0.0001113781	0.03863323	-0.009344788
2.1e+08	0.003637935	-0.03758192	-0.0004451772	0.0004935996	0.05800705	-0.06142525	-0.000544004	0.0005227247
	-0.0004451772	0.0004935996	0.01885925	-0.01947212	-0.0005144343	0.0004475287	0.08042621	-0.03930734
	0.05800705	-0.06142525	-0.0005144343	0.0004475287	0.005918741	-0.03935127	-0.0005613785	0.0004630986
	-0.0005440041	0.0005227247	0.08042621	-0.03930733	-0.0005613785	0.0004630986	0.02104348	-0.02063338
2.2e+08	-0.00229027	-0.005623248	-6.058823e-05	0.0007950741	0.004174331	-0.03817992	-9.091453e-05	0.0008936465
	-6.058823e-05	0.0007950741	0.005625641	-0.002119399	-0.0001230213	0.0007845636	0.02185465	-0.04089643
	0.004174331	-0.03817992	-0.0001230213	0.0007845636	-0.002851447	-0.009343636	-0.0001841733	0.0008739709
	-9.091593e-05	0.0008936464	0.02185465	-0.04089643	-0.0001841733	0.0008739709	0.006763883	-0.005438932
2.3e+08	0.03087349	0.005458412	0.0006020185	0.0006555464	0.01922579	0.01860408	0.0006365821	0.0007179667
	0.0006020185	0.0006555464	0.02165437	0.01555003	0.000517024	0.0006796803	0.009784299	0.0173143
	0.01922579	0.01860408	0.0005170233	0.000679681	0.02767318	0.004182629	0.0005895726	0.000800248
	0.0006365821	0.0007179667	0.009784282	0.01731431	0.000589574	0.000800248	0.02031538	0.01268311
2.4e+08	0.05011958	-0.02709336	0.0008442205	1.598473e-05	0.07939774	0.01239104	0.0008779447	6.383075e-05
	0.0008442205	1.598473e-05	0.04440261	0.003690094	0.0008015036	0.0001239824	0.06612956	0.04058942
	0.07939774	0.01239104	0.0008015029	0.0001239831	0.04877119	-0.02527703	0.0009174301	0.0001083817
	0.0008779447	6.383075e-05	0.06612956	0.04058942	0.0009174301	0.0001083817	0.04289357	0.003330571
2.5e+08	0.02335087	-0.05429279	0.0006195288	-0.0004380801	0.08532746	-0.04969832	0.000708181	-0.0003987797
	0.0006195281	-0.0004380808	0.0396663	-0.02134884	0.0006864635	-0.0003494798	0.1014579	-0.01049224
	0.08532746	-0.04969832	0.0006864635	-0.0003494798	0.0254548	-0.05373368	0.0007194788	-0.000389893
	0.000708181	-0.0003987797	0.1014579	-0.01049224	0.0007194788	-0.0003898929	0.04061284	-0.02098894
2.6e+08	-0.007944593	-0.03485954	0.0003332807	-0.000758572	0.02543466	-0.06849553	0.0004348927	-0.0008198453
	0.0003332807	-0.000758572	0.01525337	-0.02288867	0.0004086132	-0.0007503549	0.05888345	-0.05625752
	0.02543466	-0.06849553	0.0004086132	-0.0007503549	-0.006425227	-0.0381371	0.0004751696	-0.000783034
	0.0004348919	-0.0008198459	0.05888345	-0.05625752	0.0004751689	-0.0007830346	0.01752943	-0.02491413
2.7e+08	0.007038845	-0.0007906885	-0.000311075	-0.0009518058	-0.003112745	-0.01310116	-0.000304575	-0.001051916
	-0.0003110763	-0.0009518055	0.00945202	0.00144868	-0.0002449506	-0.0009553739	0.005522994	-0.02292275
	-0.003112745	-0.01310116	-0.0002449514	-0.0009553745	0.004416573	-0.004338663	-0.0002284665	-0.00109759
	-0.0003045756	-0.001051916	0.005522917	-0.02292269	-0.0002284666	-0.00109759	0.009585606	-0.002611301
2.8e+08	0.04594967	-0.01135808	-0.0009678407	-0.0004140696	0.04819789	0.02356204	-0.0009950514	-0.0004697643
	-0.0009678407	-0.0004140696	0.03452982	0.01258138	-0.0008832408	-0.0004832312	0.0293979	0.03661047
	0.04819789	0.02356204	-0.0008832408	-0.0004832312	0.04214535	-0.01078689	-0.001024573	-0.0005558309
	-0.0009950508	-0.0004697651	0.02939788	0.03661049	-0.001024573	-0.0005558309	0.03202571	0.01013351
2.9e+08	0.04452726	-0.05413293	-0.0008785526	0.0003399933	0.09479176	-0.02209861	-0.0009213215	0.0002711051
	-0.0008785526	0.0003399933	0.05298616	-0.01003071	-0.0008981667	0.0002076259	0.09406347	0.02471483
	0.09479176	-0.02209861	-0.0008981667	0.0002076259	0.04452302	-0.05155438	-0.000981201	0.0002762181
	-0.0009213215	0.0002711051	0.09406347	0.02471483	-0.000981201	0.0002762181	0.05143081	-0.009499452
3e+08	0.003345073	-0.0638266	-0.0005169936	0.0006949085	0.05934794	-0.0786826	-0.0006369635	0.0006703438
	-0.0005169937	0.0006949085	0.03705036	-0.0340546	-0.0006229751	0.0006534021	0.09693531	-0.04193489
	0.05934794	-0.07868259	-0.0006229751	0.000653402	0.006110901	-0.06464998	-0.000647495	0.0006768406
	-0.0006369635	0.0006703438	0.09693531	-0.04193489	-0.0006475002	0.0006768489	0.03869682	-0.03378575
3.1e+08	-0.01386693	-0.02680134	-6.798766e-05	0.001014686	-0.003150351	-0.05554882	-0.0001582411	0.001105297
	-6.798767e-05	0.001014686	0.01074138	-0.02462085	-0.0001315518	0.001032891	0.03214456	-0.05906077
	-0.003150349	-0.05554882	-0.0001315518	0.001032891	-0.01404278	-0.0312377	-0.0002112683	0.001111068
	-0.0001582411	0.001105297	0.03214449	-0.0590607	-0.0002112683	0.001111068	0.01290536	-0.0277661
3.2e+08	0.02161685	-0.004313093	0.000802339	0.0008946712	0.009805886	0.00953942	0.0008079376	0.0009873027
	0.000802339	0.0008946712	0.01604758	0.003914407	0.0007241421	0.0009184041	0.003144195	0.002107311
	0.009805886	0.00953942	0.0007241421	0.0009184041	0.01702634	-0.006497617	0.0007905128	0.001079794
	0.0008079376	0.0009873027	0.003144195	0.002107311	0.0007905128	0.001079794	0.01476251	-0.0006724126
3.3e+08	0.05199925	-0.03821062	0.001183927	-2.41496e-05	0.07752474	0.006374741	0.001200954	4.459655e-05
	0.001183927	-2.41496e-05	0.04779871	0.004084843	0.001129161	0.0001004375	0.05933144	0.04255255
	0.07752474	0.006374741	0.001129161	0.0001004375	0.04871759	-0.03549909	0.00129245	8.800841e-05
	0.001200954	4.459655e-05	0.05933138	0.04255263	0.00129245	8.800841e-05	0.04418457	0.002615568
3.4e+08	0.02569096	-0.07749022	0.0007531823	-0.0006820678	0.08795262	-0.06290566	0.0008271031	-0.000593782
	0.0007531823	-0.0006820678	0.05708017	-0.02791431	0.0008492035	-0.0005658552	0.1118564	-0.004870486
	0.0879526	-0.06290565	0.0008492035	-0.0005658552	0.02747404	-0.07504413	0.0008777468	-0.0006428498
	0.0008271031	-0.0005937819	0.1118564	-0.004870486	0.0008777468	-0.0006428498	0.05597482	-0.02632685
3.5e+08	-0.01786748	-0.06270032	0.0003216697	-0.0009400042	0.02187837	-0.08894133	0.0004687472	-0.0009470577
	0.0003216697	-0.0009400042	0.02969709	-0.04599962	0.0004314101	-0.0009582118	0.0774792	-0.0675056
	0.02187837	-0.08894133	0.0004314108	-0.0009582115	-0.0152878	-0.06541386	0.0004808619	-0.0009705507
	0.0004687472	-0.0009470577	0.07747913	-0.06750552	0.0004808618	-0.0009705507	0.032287	-0.04621844
3.6e+08	-0.0114117	-0.01839347	-0.0003724365	-0.001169019	-0.01615528	-0.0295075	-0.0002992573	-0.001281597
	-0.0003724365	-0.001169019	0.00634401	-0.02372655	-0.0003207035	-0.001195757	0.008728204	-0.04684148
	-0.01615527	-0.0295075	-0.0003207026	-0.001195757	-0.01404654	-0.02305506	-0.0002652137	-0.001339527
	-0.0002992573	-0.001281597	0.008728204	-0.04684148	-0.0002652137	-0.001339527	0.007951726	-0.02827427
3.7e+08	0.0354411	-0.01935801	-0.001270898	-0.0005540703	0.03717333	0.01694244	-0.001275379	-0.0006468248
	-0.001270898	-0.0005540703	0.02579028	0.004032128	-0.001182568	-0.0006190371	0.01696876	0.02549414
	0.03717333	0.01694244	-0.001182568	-0.0006190371	0.02968007	-0.01906364	-0.001337758	-0.0007400157
	-0.001275379	-0.0006468248	0.01696876	0.02549414	-0.001337758	-0.0007400156	0.02262888	-0.0005655469
3.8e+08	0.04375753	-0.06909114	-0.001159666	0.0005411432	0.09313057	-0.02945852	-0.001183535	0.0004405396
	-0.001159666	0.0005411432	0.05949917	-0.01072446	-0.001175218	0.0003758991	0.09126971	0.0310638
	0.09313057	-0.02945852	-0.001175218	0.0003758991	0.04224884	-0.06466014	-0.001298825	0.0004649638
	-0.001183535	0.0004405387	0.09126971	0.0310638	-0.001298825	0.0004649638	0.05513274	-0.01052733
3.9e+08	-0.002780244	-0.0904868	-0.0005127366	0.0009505168	0.05893798	-0.09585685	-0.0006376505	0.0008604607
	-0.0005127366	0.0009505167	0.05473305	-0.04848938	-0.0006678117	0.000897181	0.113717	-0.04129771
	0.05893798	-0.09585685	-0.0006678117	0.0008971811	0.0006674785	-0.0893366	-0.0006649726	0.0009388117
	-0.0006376505	0.0008604607	0.113717	-0.04129763	-0.0006649726	0.0009388117	0.05482327	-0.04593251
4e+08	-0.03401214	-0.0522339	-1.202111e-05	0.001153867	-0.01381133	-0.07744692	-0.0001755166	0.001205931
	-1.202114e-05	0.001153867	0.01775458	-0.05481273	-9.157278e-05	0.001216249	0.04818679	-0.08020609
	-0.01381133	-0.07744692	-9.157274e-05	0.001216249	-0.03281989	-0.05682768	-0.0001807426	0.001256806
	-0.0001755166	0.001205931	0.04818674	-0.080206	-0.0001807426	0.001256806	0.02134569	-0.0562171
4.1e+08	-0.001630044	-0.01575163	0.0009425336	0.00109979	-0.008631713	-0.003105904	0.000885321	0.001231267
	0.0009425336	0.00109979	0.004069308	-0.01996382	0.0008861045	0.001129873	-0.003401458	-0.02339779
	-0.008631713	-0.003105904	0.0008861045	0.001129873	-0.006921863	-0.01921616	0.0009072063	0.001322673
	0.000885321	0.001231267	-0.003401458	-0.02339779	0.0009072062	0.001322673	0.004339709	-0.02601329
4.2e+08	0.04108525	-0.04497177	0.001542184	-3.623915e-05	0.06645993	0.002340918	0.001545609	7.584043e-05
	0.001542184	-3.623915e-05	0.03847065	-0.00031655	0.001470582	9.203987e-05	0.04441587	0.03836357
	0.06645993	0.002340918	0.001470582	9.203987e-05	0.03561376	-0.04158832	0.001673782	0.0001199705
	0.001545609	7.584043e-05	0.04441587	0.03836357	0.001673782	0.0001199705	0.03314308	-0.00399749
4.3e+08	0.02013821	-0.09571776	0.0008980852	-0.0009954128	0.08580279	-0.07267275	0.0009599252	-0.0008603197
	0.0008980852	-0.0009954128	0.06678987	-0.03193811	0.001012052	-0.0008362038	0.1158432	0.002948562
	0.08580279	-0.07267275	0.001012052	-0.0008362038	0.02133984	-0.09071819	0.001060114	-0.0009502798
	0.0009599252	-0.0008603197	0.1158432	0.002948562	0.001060114	-0.0009502798	0.06251994	-0.02945858
4.4e+08	-0.03416121	-0.08944777	0.0002055646	-0.001133975	0.01599669	-0.1095445	0.0003895402	-0.001071214
	0.0002055647	-0.001133975	0.04433494	-0.06903104	0.0003719088	-0.001170289	0.09807185	-0.0756506
	0.01599669	-0.1095445	0.0003719088	-0.001170289	-0.02989521	-0.09063925	0.0003889092	-0.00116986
	0.0003895402	-0.001071214	0.09807194	-0.07565056	0.0003889092	-0.00116986	0.04644077	-0.06608035
4.5e+08	-0.04063334	-0.03719544	-0.0004389239	-0.001278875	-0.03527087	-0.04961952	-0.0002731054	-0.001385453
	-0.0004389239	-0.001278875	0.002871072	-0.05790033	-0.0003998732	-0.001351397	0.017112	-0.07653675
	-0.03527087	-0.04961953	-0.0003998732	-0.001351397	-0.04204227	-0.04289494	-0.0002989624	-0.001464736
	-0.0002731064	-0.001385453	0.017112	-0.07653675	-0.0002989624	-0.001464736	0.007041371	-0.06138657
4.6e+08	0.01053485	-0.0235062	-0.001506199	-0.0007137176	0.01550085	0.01034001	-0.001469199	-0.0008674026
	-0.001506199	-0.0007137176	0.00635692	-0.01462516	-0.001431374	-0.0007674869	0.0007550778	0.003633672
	0.01550085	0.01034001	-0.001431374	-0.0007674869	0.003259471	-0.02421879	-0.001559754	-0.0009513603
	-0.001469199	-0.0008674026	0.0007550778	0.003633672	-0.001559754	-0.0009513603	0.004238696	-0.02177439
4.7e+08	0.03243547	-0.07565452	-0.001488863	0.0007328613	0.0832833	-0.03196965	-0.001513876	0.0005927546
	-0.001488863	0.0007328613	0.05229326	-0.0116375	-0.001485508	0.0005427685	0.07835893	0.03425924
	0.0832833	-0.03196965	-0.001485508	0.0005427675	0.02900527	-0.06945379	-0.001665557	0.0006174835
	-0.001513876	0.0005927536	0.07835893	0.03425924	-0.001665557	0.0006174835	0.04501967	-0.01312362
4.8e+08	-0.01516334	-0.1102959	-0.0004784404	0.00128663	0.05468801	-0.1087875	-0.0006059578	0.001149951
	-0.0004784405	0.00128663	0.06631635	-0.0581059	-0.000684353	0.001199582	0.1253255	-0.03626501
	0.05468801	-0.1087875	-0.0006843544	0.001199572	-0.01104755	-0.106361	-0.0006711076	0.001275726
