!$
! Info: Touchstone file created by Circ.  Input file=Tx_PCB_4dB_OSFP_27dB_OSFP_4dB_PCB_Rx_TP0_TP5_VendorY.circ
!$
# Hz S RI R 50
0	0.07138045	5.68266e-22	-9.890416e-06	7.37813e-24	0.002339671	4.879331e-20	-2.428448e-05	1.12773e-21
	-9.890472e-06	7.369377e-24	0.07044579	5.34365e-22	-2.418576e-06	9.670583e-24	0.002275549	4.834877e-20
	0.002339661	4.87933e-20	-2.418375e-06	9.666299e-24	0.07109852	5.672256e-22	-4.765083e-05	3.989865e-21
	-2.428437e-05	1.127717e-21	0.002275509	4.834891e-20	-4.765083e-05	3.989865e-21	0.07045945	5.239375e-22
1e+07	0.04942602	-0.04307571	-9.678496e-05	1.679541e-05	0.05531256	0.03800118	-3.127171e-05	3.982891e-05
	-9.678496e-05	1.679541e-05	0.04862574	-0.04282561	-3.205833e-05	-3.369313e-05	0.0545492	0.0390594
	0.05531256	0.03800118	-3.205823e-05	-3.369324e-05	0.05070053	-0.04194405	-3.212815e-05	8.929551e-06
	-3.127161e-05	3.982891e-05	0.0545492	0.0390594	-3.212824e-05	8.929673e-06	0.05018672	-0.04164608
2e+07	0.002253054	-0.04004476	-6.238536e-05	9.863011e-05	0.07693113	-0.02143355	-2.694144e-05	7.033471e-05
	-6.238536e-05	9.863012e-05	0.001901382	-0.03912783	-8.529793e-05	2.012635e-05	0.07795694	-0.01880046
	0.07693113	-0.02143355	-8.529794e-05	2.012625e-05	0.004518475	-0.04087072	-6.295205e-05	1.756035e-05
	-2.694155e-05	7.033462e-05	0.07795694	-0.01880056	-6.295204e-05	1.756045e-05	0.004167221	-0.03989914
3e+07	-0.004220867	-0.001747712	3.86563e-05	0.0001463816	0.01628376	-0.02552813	4.438536e-05	0.0001154274
	3.865622e-05	0.0001463816	-0.00483439	-0.001883258	-3.758062e-05	0.0001275498	0.01781267	-0.02565768
	0.01628376	-0.02552813	-3.758072e-05	0.0001275498	-0.00412476	-0.003319107	-4.583491e-05	0.0001178977
	4.438534e-05	0.0001154274	0.01781267	-0.02565768	-4.583481e-05	0.0001178977	-0.004432641	-0.003012204
4e+07	0.02399856	0.0005569456	0.0001666805	6.357842e-05	0.03072657	0.03195982	0.0001504066	4.396514e-05
	0.0001666806	6.357838e-05	0.02103254	0.001695799	0.0001067111	0.0001182447	0.02787992	0.03341279
	0.03072657	0.03195983	0.0001067112	0.0001182457	0.02384698	0.001203157	0.0001026921	0.0001272486
	0.0001504065	4.396517e-05	0.02787982	0.0334128	0.0001026923	0.0001272486	0.02150178	0.002294954
5e+07	0.01691215	-0.02251185	0.0001639326	-8.632389e-05	0.08212927	0.0009622031	0.0001571462	-8.344819e-05
	0.0001639326	-8.63239e-05	0.0154554	-0.01833753	0.000181195	-3.846494e-06	0.08212816	0.008074248
	0.08212929	0.000962299	0.0001811949	-3.846486e-06	0.0190863	-0.02233011	0.0001844963	1.020714e-05
	0.0001571462	-8.344798e-05	0.08212816	0.008074246	0.0001844963	1.020715e-05	0.01770166	-0.01826776
6e+07	-0.004211967	-0.007914076	7.191738e-05	-0.0002177952	0.03885253	-0.04052445	6.594357e-05	-0.0002288937
	7.191738e-05	-0.0002177952	-0.003546785	-0.005965116	0.0001425613	-0.0001832719	0.0439618	-0.03770374
	0.03885255	-0.04052436	0.0001425613	-0.0001832719	-0.003056328	-0.01006847	0.0001762752	-0.0001813588
	6.594358e-05	-0.0002288937	0.04396191	-0.03770366	0.0001762752	-0.0001813588	-0.002090314	-0.007625383
7e+07	0.01578735	0.01028259	-0.0001718979	-0.000225781	0.01190476	0.01180921	-0.0001907148	-0.0002209567
	-0.0001718979	-0.000225781	0.01217147	0.01142394	-9.566606e-05	-0.0002549166	0.009949991	0.01112478
	0.01190477	0.01180921	-9.566587e-05	-0.0002549167	0.01475383	0.009587865	-9.041207e-05	-0.0002973162
	-0.0001907147	-0.0002209567	0.009949962	0.01112479	-9.041216e-05	-0.0002973162	0.01206457	0.01076248
8e+07	0.02843543	-0.01346538	-0.0002887421	1.027958e-05	0.07045358	0.02210954	-0.0002997576	1.556077e-05
	-0.0002887421	1.027958e-05	0.02452048	-0.00637252	-0.0002673353	-7.64595e-05	0.06633662	0.03125797
	0.07045358	0.02210954	-0.0002673355	-7.646046e-05	0.02939661	-0.01243791	-0.0002929828	-9.185576e-05
	-0.0002997576	1.556077e-05	0.06633662	0.03125797	-0.0002929828	-9.185576e-05	0.02578912	-0.005795917
9e+07	0.002173876	-0.01894083	-0.0002148886	0.0002263804	0.06497771	-0.0379076	-0.0002352356	0.0002575841
	-0.0002148885	0.0002263805	0.004070612	-0.0125026	-0.0002697333	0.000164664	0.07176459	-0.02841808
	0.06497771	-0.0379076	-0.0002697333	0.0001646639	0.00434708	-0.02049767	-0.0003069053	0.0001577864
	-0.0002352356	0.0002575841	0.07176456	-0.02841818	-0.0003069052	0.0001577865	0.00635058	-0.01371847
1e+08	0.004670765	0.00953601	6.111955e-05	0.0003874151	0.009322085	-0.01682809	9.276905e-05	0.0004286389
	6.111956e-05	0.0003874151	0.003041096	0.01087788	-1.82152e-05	0.000379245	0.01275292	-0.01830964
	0.009322086	-0.01682809	-1.821613e-05	0.0003792454	0.003877511	0.007322942	-4.972754e-05	0.0004349931
	9.276904e-05	0.0004286389	0.01275292	-0.01830964	-4.972755e-05	0.0004349931	0.003345417	0.008893189
1.1e+08	0.03382014	-0.000613263	0.0003836465	0.0001587557	0.04604777	0.03009644	0.0004187554	0.0001671024
	0.0003836474	0.0001587554	0.02708781	0.007353742	0.0003178405	0.0002232811	0.03836248	0.03645934
	0.04604777	0.03009644	0.0003178405	0.0002232811	0.03307985	0.0002260795	0.0003635207	0.0002604713
	0.0004187554	0.0001671024	0.03836248	0.03645934	0.0003635207	0.0002604713	0.02709817	0.007405962
1.2e+08	0.01727954	-0.0269559	0.0003591775	-0.0001744977	0.08211966	-0.01916283	0.00041438	-0.0001826889
	0.0003591775	-0.0001744977	0.01844259	-0.01431492	0.0003823151	-8.885155e-05	0.0855579	-0.002289489
	0.08211966	-0.01916283	0.0003823152	-8.885137e-05	0.01955991	-0.02701702	0.0004169595	-8.777118e-05
	0.00041438	-0.0001826889	0.0855579	-0.002289489	0.0004169604	-8.777157e-05	0.0206567	-0.01452262
1.3e+08	-0.003591501	-0.003606503	0.0001411906	-0.0004536991	0.02537555	-0.04164993	0.0001598914	-0.0005262355
	0.0001411906	-0.0004536991	-0.0004633238	0.0003968348	0.0002068106	-0.0004197602	0.03639915	-0.03849454
	0.02537555	-0.04164993	0.0002068119	-0.0004197597	-0.003000993	-0.006602397	0.0002641137	-0.0004560648
	0.0001598914	-0.0005262355	0.03639915	-0.03849454	0.0002641137	-0.0004560648	0.001056534	-0.002121632
1.4e+08	0.02729083	0.01097217	-0.0003606288	-0.000404579	0.02021343	0.01863299	-0.0004010189	-0.0004413994
	-0.0003606288	-0.000404579	0.01993728	0.01695984	-0.0002778151	-0.000428949	0.01426897	0.01889775
	0.02021343	0.01863299	-0.0002778149	-0.000428949	0.02530933	0.01032555	-0.0003112973	-0.0005096028
	-0.0004010189	-0.0004413994	0.01426895	0.01889776	-0.0003112974	-0.0005096028	0.01928837	0.01550994
1.5e+08	0.03535172	-0.02430459	-0.000502806	6.135107e-05	0.08092245	0.006033463	-0.0005507192	3.815797e-05
	-0.000502806	6.135106e-05	0.03267887	-0.006444055	-0.0004850753	-3.40093e-05	0.07650796	0.02588298
	0.08092245	0.006033461	-0.0004850758	-3.401013e-05	0.03632854	-0.02302277	-0.0005416251	-2.935729e-05
	-0.0005507192	3.815797e-05	0.07650795	0.02588298	-0.0005416251	-2.935729e-05	0.03357076	-0.006073798
1.6e+08	-0.0002118213	-0.02416769	-0.0003343889	0.000412286	0.05332111	-0.05066573	-0.0004074859	0.000458739
	-0.0003343889	0.000412286	0.007829828	-0.01313685	-0.0003937755	0.000360158	0.06856981	-0.03664883
	0.05332111	-0.05066573	-0.0003937755	0.000360158	0.001947737	-0.02642984	-0.0004453289	0.00037162
	-0.0004074859	0.000458739	0.06856981	-0.03664883	-0.0004453288	0.0003716201	0.01024501	-0.01487698
1.7e+08	0.01091173	0.01096396	0.0001730077	0.000622046	0.006605377	-0.009448438	0.000193373	0.000698007
	0.0001730077	0.000622046	0.008073337	0.01420702	9.741604e-05	0.0006161503	0.009998143	-0.01307237
	0.006605377	-0.009448439	9.741604e-05	0.0006161503	0.009101023	0.008272207	7.830413e-05	0.0007143498
	0.000193373	0.000698007	0.009998141	-0.01307237	7.830412e-05	0.0007143498	0.00797464	0.01122623
1.8e+08	0.04508167	-0.01059618	0.0006241726	0.0001573754	0.06042511	0.0233613	0.0006600626	0.0001892442
	0.0006241726	0.0001573754	0.03700194	0.00799536	0.0005616561	0.0002357785	0.04879022	0.03820006
	0.06042511	0.0233613	0.0005616561	0.0002357785	0.0437853	-0.009250079	0.0006502417	0.0002642279
	0.0006600626	0.0001892442	0.04879013	0.03820011	0.0006502425	0.0002642273	0.03614377	0.007705003
1.9e+08	0.01692049	-0.0403017	0.0004928645	-0.0003281934	0.0789673	-0.03897547	0.0005756784	-0.0003160189
	0.0004928645	-0.0003281934	0.02596408	-0.01883685	0.0005394796	-0.0002455155	0.09019175	-0.01244984
	0.07896723	-0.03897554	0.0005394796	-0.0002455155	0.01950363	-0.04056176	0.0005794363	-0.0002635924
	0.0005756784	-0.0003160189	0.09019175	-0.01244984	0.0005794362	-0.0002635925	0.02796553	-0.01906462
2e+08	-0.004084271	-0.00605294	0.0001129641	-0.0006948472	0.01412472	-0.04180571	0.000153994	-0.000785261
	0.0001129641	-0.0006948472	0.003037834	-0.001650984	0.000181252	-0.0006767835	0.03111093	-0.04074402
	0.01412472	-0.04180571	0.0001812527	-0.0006767841	-0.004143929	-0.009955133	0.0002445041	-0.000740903
	0.000153994	-0.000785261	0.03111093	-0.04074402	0.0002445041	-0.000740903	0.004463904	-0.004949295
2.1e+08	0.03779169	0.00454143	-0.0006140669	-0.0004887189	0.03008247	0.0207283	-0.0006512517	-0.0005372425
	-0.0006140669	-0.0004887189	0.02753626	0.01777349	-0.0005293314	-0.000526973	0.0191934	0.02435397
	0.03008247	0.0207283	-0.0005293313	-0.0005269731	0.03460947	0.004179169	-0.00060421	-0.0006227723
	-0.0006512517	-0.0005372425	0.01919337	0.02435399	-0.00060421	-0.0006227723	0.02588669	0.01562392
2.2e+08	0.03937693	-0.04146691	-0.0006708615	0.0002078252	0.08754155	-0.0130064	-0.0007197802	0.0001615701
	-0.0006708615	0.0002078252	0.04307316	-0.01097266	-0.0006758242	9.709015e-05	0.08682145	0.01967421
	0.08754155	-0.0130064	-0.0006758242	9.709014e-05	0.04043395	-0.03963351	-0.0007440396	0.0001300169
	-0.0007197802	0.0001615701	0.08682146	0.01967421	-0.0007440396	0.0001300169	0.04318422	-0.01035342
2.3e+08	-0.004903164	-0.03380434	-0.0003618004	0.0006280016	0.04062217	-0.06194044	-0.000461825	0.000669753
	-0.0003618004	0.0006280016	0.01309105	-0.0204018	-0.0004387851	0.0005939331	0.06696556	-0.04583508
	0.04062217	-0.06194044	-0.0004387858	0.0005939324	-0.002739097	-0.03686773	-0.0004943453	0.0006164315
	-0.000461825	0.000669753	0.06696556	-0.04583509	-0.0004943447	0.0006164322	0.01561744	-0.02227177
2.4e+08	0.01573715	0.006744645	0.000380225	0.000799948	0.006310842	-0.004509868	0.0003925314	0.0008876688
	0.000380225	0.000799948	0.01207395	0.01192096	0.0003026605	0.0008068711	0.008329563	-0.01022788
	0.006310842	-0.004509868	0.0003026605	0.0008068711	0.0125409	0.003693842	0.0003020047	0.0009351549
	0.0003925314	0.0008876688	0.008329563	-0.01022788	0.0003020047	0.0009351549	0.01146839	0.007984121
2.5e+08	0.05238659	-0.02669166	0.0008613312	4.51054e-05	0.07232797	0.01161508	0.0008864649	8.900764e-05
	0.0008613312	4.51054e-05	0.04676038	0.005061035	0.0008073912	0.0001476376	0.05903075	0.03806981
	0.07232797	0.01161508	0.0008073912	0.0001476377	0.0504596	-0.02437703	0.00092668	0.0001542887
	0.0008864649	8.900764e-05	0.05903076	0.03806981	0.0009266799	0.0001542887	0.04466312	0.004687265
2.6e+08	0.01208957	-0.05703614	0.0005474312	-0.0005353118	0.07193798	-0.05869768	0.0006431744	-0.0004991566
	0.0005474311	-0.0005353117	0.03452549	-0.0281875	0.0006256159	-0.0004572376	0.09535896	-0.0235359
	0.07193798	-0.05869768	0.0006256159	-0.0004572376	0.01513507	-0.05731425	0.000658154	-0.0004876634
	0.0006431737	-0.0004991573	0.09535888	-0.02353583	0.000658154	-0.0004876634	0.03628946	-0.02786319
2.7e+08	-0.00698508	-0.01203132	-8.858711e-06	-0.0009156345	0.003898337	-0.04189792	5.322848e-05	-0.001011182
	-8.859481e-06	-0.0009156351	0.005672846	-0.009501303	6.397141e-05	-0.0009166242	0.02694811	-0.04499344
	0.003898338	-0.04189792	6.397142e-05	-0.0009166242	-0.007881442	-0.01680374	0.0001308062	-0.001000047
	5.322849e-05	-0.001011182	0.02694811	-0.04499345	0.0001308062	-0.001000047	0.00730212	-0.01339179
2.8e+08	0.04442544	-0.007380065	-0.0009054161	-0.0004732242	0.03950787	0.01797446	-0.0009315626	-0.0005289399
	-0.0009054161	-0.0004732242	0.03336775	0.01472359	-0.000818309	-0.0005311008	0.02410691	0.02733257
	0.03950787	0.01797446	-0.0008183086	-0.0005311015	0.03986246	-0.007035604	-0.0009290843	-0.0006308078
	-0.0009315622	-0.0005289404	0.02410691	0.02733257	-0.0009290843	-0.0006308078	0.03060422	0.01180801
2.9e+08	0.03729887	-0.06203518	-0.0007770572	0.0004316407	0.08914689	-0.03427774	-0.0008194734	0.0003600259
	-0.0007770571	0.0004316407	0.053233	-0.01909343	-0.0008118382	0.0003039077	0.09678802	0.01204457
	0.08914689	-0.03427774	-0.0008118382	0.0003039077	0.03863241	-0.05929826	-0.0008780469	0.000362725
	-0.0008194734	0.0003600259	0.09678795	0.01204464	-0.0008780469	0.000362725	0.05233331	-0.01782701
3e+08	-0.01380562	-0.04510219	-0.0002995335	0.0008462161	0.02615901	-0.07190966	-0.0004249187	0.0008733837
	-0.0002995335	0.000846216	0.0176449	-0.03283446	-0.0003955748	0.0008347925	0.06600326	-0.05651682
	0.02615901	-0.07190966	-0.0003955748	0.0008347925	-0.01154245	-0.04888728	-0.0004526439	0.0008584762
	-0.0004249187	0.0008733837	0.06600319	-0.05651675	-0.000452643	0.0008584768	0.02058554	-0.03439536
3.1e+08	0.01692078	-0.001250287	0.0006514405	0.0009049616	0.006524245	-0.002309763	0.0006463059	0.001001461
	0.0006514405	0.0009049616	0.01354547	0.005216518	0.0005716972	0.0009271207	0.006877762	-0.009917819
	0.006524245	-0.002309763	0.0005716972	0.0009271207	0.01217974	-0.004386288	0.0005863657	0.001077603
	0.0006463059	0.001001461	0.006877762	-0.009917819	0.0005863657	0.001077603	0.01265688	0.0001966327
3.2e+08	0.05322642	-0.04639196	0.001067001	-0.0001632627	0.0799551	-0.004115986	0.001076927	-0.0001019926
	0.001067001	-0.0001632627	0.05483528	-0.00087876	0.00102591	-3.262636e-05	0.06855178	0.03584314
	0.0799551	-0.004115986	0.00102591	-3.262636e-05	0.05079294	-0.04265601	0.001164604	-4.967841e-05
	0.001076927	-0.0001019926	0.06855178	0.03584314	0.001164604	-4.967841e-05	0.05116911	-0.001268796
3.3e+08	0.001069085	-0.0744103	0.0005143235	-0.0007685703	0.06038032	-0.07754841	0.0006228232	-0.0007015295
	0.0005143234	-0.0007685703	0.04204226	-0.04162724	0.0006287788	-0.000699719	0.1002667	-0.03595133
	0.06038032	-0.07754841	0.0006287788	-0.000699719	0.004838669	-0.07456964	0.0006493127	-0.0007333457
	0.0006228232	-0.0007015295	0.1002666	-0.03595125	0.0006493127	-0.0007333457	0.04357807	-0.04020351
3.4e+08	-0.01393457	-0.01940013	-0.0002061577	-0.001088634	-0.006578309	-0.04210256	-0.0001137647	-0.001184438
	-0.0002061577	-0.001088634	0.005705236	-0.02190682	-0.0001307357	-0.001111562	0.02303012	-0.05138514
	-0.006578306	-0.04210256	-0.0001307357	-0.001111562	-0.01569626	-0.02494672	-5.719705e-05	-0.001207639
	-0.0001137647	-0.001184438	0.02303012	-0.05138514	-5.719705e-05	-0.001207639	0.007977165	-0.02629939
3.5e+08	0.04526585	-0.0222378	-0.001203312	-0.0003608033	0.046385	0.01131276	-0.001211631	-0.0004319965
	-0.001203312	-0.0003608033	0.03621564	0.008805003	-0.001115148	-0.0004413511	0.02826734	0.0278757
	0.046385	0.01131276	-0.001115148	-0.0004413516	0.03934438	-0.02077739	-0.00125406	-0.0005417901
	-0.001211631	-0.0004319965	0.02826728	0.02787578	-0.00125406	-0.00054179	0.03221511	0.004909993
3.6e+08	0.02773952	-0.08309495	-0.0008060314	0.0007096348	0.08478328	-0.05628239	-0.0008447299	0.0006052844
	-0.0008060305	0.0007096352	0.06157777	-0.03025123	-0.0008770071	0.0005661538	0.1057334	0.002764089
	0.08478328	-0.05628239	-0.0008770068	0.0005661529	0.02967477	-0.07917773	-0.0009347688	0.0006440004
	-0.0008447299	0.0006052844	0.1057334	0.002764089	-0.0009347688	0.0006440004	0.05936736	-0.02792426
3.7e+08	-0.02791645	-0.05558606	-0.0001530679	0.001038526	0.009324229	-0.08013271	-0.0003112408	0.001046117
	-0.0001530669	0.001038526	0.01967644	-0.04932	-0.0002672558	0.001055575	0.06479391	-0.06878015
	0.009324232	-0.08013271	-0.0002672558	0.001055575	-0.02538681	-0.06007332	-0.0003283472	0.0010738
	-0.0003112408	0.001046117	0.06479391	-0.06878015	-0.0003283472	0.0010738	0.02339048	-0.05011198
3.8e+08	0.01312279	-0.01043044	0.0009584036	0.0009265614	0.00553785	-0.002236837	0.0009249791	0.001038532
	0.0009584036	0.0009265614	0.01123301	-0.004525989	0.000878267	0.0009650411	0.004826007	-0.01200791
	0.00553785	-0.002236837	0.000878267	0.0009650411	0.006811285	-0.01342676	0.0009025258	0.001134573
	0.0009249791	0.001038532	0.004826007	-0.01200791	0.0009025258	0.001134573	0.01032946	-0.01085819
3.9e+08	0.0465476	-0.06663489	0.001220044	-0.0004504008	0.08204972	-0.02204492	0.001217776	-0.0003600001
	0.001220044	-0.0004504008	0.06007754	-0.008997376	0.001196375	-0.0002897302	0.07672321	0.03159716
	0.08204972	-0.02204492	0.001196375	-0.0002897303	0.04389036	-0.06112565	0.00134761	-0.0003263321
	0.001217776	-0.0003600001	0.07672316	0.03159724	0.00134761	-0.0003263322	0.05448443	-0.00933893
4e+08	-0.01657626	-0.08958909	0.0003915919	-0.001002136	0.04401702	-0.09431751	0.0005211396	-0.0009003166
	0.0003915918	-0.001002136	0.04688987	-0.05820015	0.00054533	-0.0009487239	0.1040871	-0.04975505
	0.04401702	-0.09431751	0.00054533	-0.0009487239	-0.01174706	-0.08957781	0.0005553719	-0.0009787127
	0.0005211396	-0.0009003166	0.1040871	-0.04975497	0.0005553719	-0.0009787127	0.04824994	-0.05507069
4.1e+08	-0.025622	-0.02558143	-0.0004589187	-0.001194168	-0.01830924	-0.0418408	-0.0003247136	-0.00129326
	-0.0004589187	-0.001194168	0.001740978	-0.03738914	-0.0003847165	-0.001241457	0.01849232	-0.05973077
	-0.01830924	-0.0418408	-0.0003847165	-0.001241457	-0.02817587	-0.0318707	-0.0003001614	-0.001347276
	-0.0003247136	-0.00129326	0.01849232	-0.05973077	-0.0003001614	-0.001347276	0.00519494	-0.04218215
4.2e+08	0.03963948	-0.037101	-0.001480598	-0.0001582321	0.04936922	0.002225442	-0.00146936	-0.0002597438
	-0.001480598	-0.0001582321	0.03521332	0.001189499	-0.00139351	-0.0002630849	0.03108585	0.02618359
	0.04936922	0.002225442	-0.00139351	-0.0002630849	0.03251115	-0.03421358	-0.001554082	-0.0003660746
	-0.00146936	-0.0002597438	0.03108585	0.02618359	-0.001554082	-0.0003660746	0.02987333	-0.003945125
4.3e+08	0.01061366	-0.1015869	-0.0007486823	0.001018596	0.07408909	-0.07720776	-0.0007947415	0.0008750602
	-0.0007486823	0.001018596	0.06686528	-0.04357284	-0.0008615096	0.0008623101	0.1129454	-0.00816678
	0.07408907	-0.07720775	-0.0008615095	0.0008623101	0.01356476	-0.09636199	-0.0009107442	0.0009519832
	-0.0007947415	0.0008750602	0.1129454	-0.008166781	-0.0009107442	0.0009519832	0.06310448	-0.03975238
4.4e+08	-0.04719303	-0.06263272	6.677054e-05	0.001182368	-0.01018993	-0.08572423	-0.0001349786	0.001172636
	6.676938e-05	0.001182367	0.01778856	-0.06844851	-6.301213e-05	0.001233851	0.06246682	-0.08244123
	-0.01018993	-0.08572423	-6.301206e-05	0.001233851	-0.0441676	-0.06790138	-0.0001322315	0.001244505
	-0.0001349786	0.001172636	0.06246686	-0.08244109	-0.0001322314	0.001244505	0.02273816	-0.06801994
4.5e+08	0.004175976	-0.01805007	0.001273423	0.0008610073	0.002225146	-0.003086607	0.001204489	0.001001669
	0.001273423	0.0008610073	0.004311528	-0.01583844	0.001195656	0.0009159462	0.001494165	-0.01618014
	0.002225146	-0.003086607	0.001195656	0.0009159462	-0.003630676	-0.02077214	0.001224541	0.001104601
	0.001204489	0.001001669	0.001494165	-0.01618014	0.001224541	0.001104601	0.003742041	-0.02375644
4.6e+08	0.03260326	-0.08439195	0.001301643	-0.0007977526	0.0779864	-0.04021521	0.001299474	-0.0006693809
	0.001301643	-0.0007977526	0.06173046	-0.01827157	0.001301313	-0.000606452	0.08296213	0.02542139
	0.0779864	-0.04021521	0.001301313	-0.000606452	0.03008506	-0.07690383	0.001461874	-0.0006559545
	0.001299474	-0.0006693808	0.08296214	0.02542138	0.001461874	-0.0006559544	0.05389504	-0.01851898
4.7e+08	-0.04025064	-0.09987171	0.000181015	-0.001212304	0.02296187	-0.1075874	0.0003413226	-0.001085314
	0.000181015	-0.001212304	0.04783207	-0.07672881	0.0003773564	-0.001182943	0.1060277	-0.06481533
	0.02296187	-0.1075874	0.0003773573	-0.001182943	-0.03399104	-0.09978471	0.0003813968	-0.001205027
	0.0003413225	-0.001085314	0.1060277	-0.06481533	0.0003813959	-0.001205027	0.04916745	-0.07131911
4.8e+08	-0.04151471	-0.02806828	-0.0007443814	-0.001215976	-0.03182555	-0.04007623	-0.0005723663	-0.001331113
	-0.0007443813	-0.001215976	-0.006990255	-0.05428321	-0.0006768887	-0.001292664	0.01261381	-0.06960765
	-0.03182555	-0.04007623	-0.0006768878	-0.001292664	-0.04475	-0.03516595	-0.0005775877	-0.001407064
