!$
! Info: Touchstone file created by Circ.  Input file=Tx_PCB_4dB_OSFP_27dB_OSFP_4dB_PCB_Rx_TP0_TP5_VendorY.circ
!$
# Hz S RI R 50
0	0.07080334	5.700928e-22	-2.182315e-05	2.676268e-21	0.002340341	4.915631e-20	-2.634609e-05	3.231642e-21
	-2.182325e-05	2.67628e-21	0.07044579	5.34365e-22	-2.167977e-05	2.657142e-21	0.002275549	4.834877e-20
	0.002340341	4.91563e-20	-2.167977e-05	2.657142e-21	0.07080945	5.691203e-22	-2.400806e-05	2.943439e-21
	-2.634609e-05	3.231642e-21	0.002275509	4.834891e-20	-2.400796e-05	2.943427e-21	0.07045945	5.239375e-22
1e+07	0.04896234	-0.04332988	4.740554e-05	1.204947e-05	0.05486224	0.03884629	9.484866e-06	2.421314e-05
	4.740554e-05	1.204957e-05	0.04862574	-0.04282561	2.585371e-05	1.753433e-05	0.0545492	0.0390594
	0.05486224	0.03884629	2.585371e-05	1.753433e-05	0.05026599	-0.04205451	1.375553e-05	2.341825e-05
	9.484866e-06	2.421314e-05	0.0545492	0.0390594	1.375553e-05	2.341825e-05	0.05018672	-0.04164608
2e+07	0.001277365	-0.03928971	2.073586e-06	-4.916622e-05	0.07753297	-0.0192982	1.189404e-05	-7.613541e-06
	2.073597e-06	-4.916622e-05	0.001901382	-0.03912783	9.401247e-06	-2.681902e-05	0.07795694	-0.01880046
	0.07753297	-0.0192983	9.401247e-06	-2.681902e-05	0.003769458	-0.03998769	1.057165e-05	-8.642371e-06
	1.189414e-05	-7.613546e-06	0.07795694	-0.01880056	1.057165e-05	-8.64237e-06	0.004167221	-0.03989914
3e+07	-0.004511114	-0.000930509	-3.301729e-05	2.761848e-06	0.0174035	-0.02497372	-1.81271e-05	5.470004e-06
	-3.30173e-05	2.761828e-06	-0.00483439	-0.001883258	-2.524109e-05	-1.463602e-06	0.01781267	-0.02565768
	0.0174036	-0.02497373	-2.524109e-05	-1.463602e-06	-0.004268249	-0.002524048	-1.83165e-05	1.227472e-05
	-1.81271e-05	5.469994e-06	0.01781267	-0.02565768	-1.83165e-05	1.227472e-05	-0.004432641	-0.003012204
4e+07	0.0223966	0.001166265	9.068093e-07	1.420125e-05	0.02899946	0.03364246	-8.519692e-07	3.516548e-05
	9.068017e-07	1.420135e-05	0.02103254	0.001695799	-6.80281e-06	2.416492e-05	0.02787992	0.03341279
	0.02899946	0.03364247	-6.80283e-06	2.416492e-05	0.02225639	0.001938027	6.352762e-06	3.985806e-05
	-8.519695e-07	3.516548e-05	0.02787982	0.0334128	6.352762e-06	3.985806e-05	0.02150178	0.002294954
5e+07	0.01503503	-0.01964784	-8.991635e-06	-4.917498e-06	0.0822519	0.006557323	2.185161e-05	1.664109e-05
	-8.991612e-06	-4.917493e-06	0.0154554	-0.01833753	6.533326e-06	1.082264e-05	0.08212816	0.008074248
	0.0822519	0.006557322	6.533325e-06	1.082264e-05	0.01742155	-0.01918364	2.42141e-05	1.501398e-05
	2.18515e-05	1.6641e-05	0.08212816	0.008074246	2.421399e-05	1.50139e-05	0.01770166	-0.01826776
6e+07	-0.00424124	-0.005271369	-2.747512e-05	1.51644e-05	0.0423294	-0.03757889	-5.449385e-06	3.78782e-06
	-2.747512e-05	1.51644e-05	-0.003546785	-0.005965116	-1.33868e-05	5.820076e-06	0.0439618	-0.03770374
	0.04232942	-0.0375788	-1.33868e-05	5.820076e-06	-0.002721674	-0.007345025	-9.887127e-06	9.853307e-06
	-5.449354e-06	3.787826e-06	0.04396191	-0.03770366	-9.887112e-06	9.853389e-06	-0.002090314	-0.007625383
7e+07	0.01373906	0.0117287	-1.268237e-05	3.520115e-05	0.01069409	0.0127487	-1.337699e-05	4.206908e-05
	-1.268235e-05	3.520125e-05	0.01217147	0.01142394	-2.03686e-05	3.471266e-05	0.009949991	0.01112478
	0.01069408	0.01274861	-2.03686e-05	3.471266e-05	0.01285652	0.01100922	-9.023937e-06	5.585834e-05
	-1.337699e-05	4.206908e-05	0.009949962	0.01112479	-9.023916e-06	5.585843e-05	0.01206457	0.01076248
8e+07	0.02512989	-0.008410852	-4.782214e-07	2.934232e-05	0.06807156	0.02981217	2.751916e-05	4.631902e-05
	-4.781877e-07	2.934241e-05	0.02452048	-0.00637252	8.627593e-06	4.504858e-05	0.06633662	0.03125797
	0.06807156	0.02981217	8.627571e-06	4.504848e-05	0.026184	-0.007142534	3.820759e-05	5.067715e-05
	2.751916e-05	4.631903e-05	0.06633662	0.03125797	3.820769e-05	5.067713e-05	0.02578912	-0.005795917
9e+07	0.002584933	-0.0131192	-8.556248e-06	2.56935e-05	0.06987533	-0.03014246	1.958486e-05	7.694656e-06
	-8.556249e-06	2.569349e-05	0.004070612	-0.0125026	1.106931e-05	1.860114e-05	0.07176459	-0.02841808
	0.06987535	-0.03014237	1.10693e-05	1.860114e-05	0.005176209	-0.01438034	1.863251e-05	8.356635e-06
	1.958486e-05	7.694657e-06	0.07176456	-0.02841818	1.863251e-05	8.35664e-06	0.00635058	-0.01371847
1e+08	0.003616384	0.011856	-1.486749e-05	4.29691e-05	0.01153931	-0.01603258	-2.052325e-05	3.397972e-05
	-1.48675e-05	4.29691e-05	0.003041096	0.01087788	-2.091054e-05	3.128619e-05	0.01275292	-0.01830964
	0.01153931	-0.01603258	-2.091063e-05	3.128622e-05	0.003288443	0.009590745	-2.399806e-05	4.94528e-05
	-2.052315e-05	3.397969e-05	0.01275292	-0.01830964	-2.399803e-05	4.94529e-05	0.003345417	0.008893189
1.1e+08	0.02868416	0.005671748	3.807373e-06	5.737843e-05	0.04122316	0.03691707	1.829346e-05	7.551511e-05
	3.807281e-06	5.737846e-05	0.02708781	0.007353742	6.985741e-07	7.134226e-05	0.03836248	0.03645934
	0.04122316	0.03691707	6.986394e-07	7.134214e-05	0.02805571	0.00645844	3.115807e-05	9.262553e-05
	1.829347e-05	7.55151e-05	0.03836248	0.03645934	3.115811e-05	9.262541e-05	0.02709817	0.007405962
1.2e+08	0.01716117	-0.01657511	1.776142e-05	4.24895e-05	0.08541199	-0.00569264	5.164534e-05	2.953845e-05
	1.776151e-05	4.248946e-05	0.01844259	-0.01431492	3.843383e-05	4.515646e-05	0.0855579	-0.002289489
	0.08541199	-0.00569264	3.843383e-05	4.515646e-05	0.01961698	-0.01627005	6.306127e-05	3.05247e-05
	5.164534e-05	2.953845e-05	0.0855579	-0.002289489	6.306126e-05	3.05247e-05	0.0206567	-0.01452262
1.3e+08	-0.001734693	0.001001228	-2.929104e-06	3.838049e-05	0.03292063	-0.03773692	-6.939548e-06	1.364309e-05
	-2.929109e-06	3.838049e-05	-0.0004633238	0.0003968348	-8.974239e-07	1.990371e-05	0.03639915	-0.03849454
	0.03292063	-0.03773692	-8.974329e-07	1.990371e-05	-0.0004521928	-0.001758743	-1.259177e-05	2.057457e-05
	-6.939538e-06	1.364309e-05	0.03639915	-0.03849454	-1.259176e-05	2.057457e-05	0.001056534	-0.002121632
1.4e+08	0.02149711	0.01665237	-2.212693e-07	7.215841e-05	0.0160413	0.02202184	-5.805091e-06	8.681011e-05
	-2.212692e-07	7.215841e-05	0.01993728	0.01695984	-1.499872e-05	7.779348e-05	0.01426897	0.01889775
	0.0160413	0.02202184	-1.499871e-05	7.779348e-05	0.01998091	0.01567704	-1.728974e-06	0.0001127071
	-5.805092e-06	8.68101e-05	0.01426895	0.01889776	-1.728972e-06	0.0001127071	0.01928837	0.01550994
1.5e+08	0.03255301	-0.009511032	3.906885e-05	6.893589e-05	0.07933849	0.02291583	7.11751e-05	7.216463e-05
	3.906887e-05	6.893588e-05	0.03267887	-0.006444055	5.198822e-05	8.429938e-05	0.07650796	0.02588298
	0.07933849	0.02291583	5.198822e-05	8.429938e-05	0.03341757	-0.008171304	9.35401e-05	8.552922e-05
	7.11751e-05	7.216463e-05	0.07650795	0.02588298	9.354009e-05	8.552922e-05	0.03357076	-0.006073798
1.6e+08	0.00518398	-0.01409068	2.770315e-05	3.346561e-05	0.06478564	-0.03920355	3.619391e-05	1.473533e-06
	2.770324e-05	3.346557e-05	0.007829828	-0.01313685	4.191696e-05	1.851397e-05	0.06856981	-0.03664883
	0.06478564	-0.03920355	4.191696e-05	1.851397e-05	0.007843942	-0.01572788	4.214279e-05	-4.155159e-07
	3.6194e-05	1.473494e-06	0.06856981	-0.03664883	4.21428e-05	-4.155075e-07	0.01024501	-0.01487698
1.7e+08	0.008059075	0.01517754	-4.290061e-06	6.50039e-05	0.008349504	-0.008866283	-2.624e-05	6.55812e-05
	-4.290066e-06	6.50039e-05	0.008073337	0.01420702	-2.202801e-05	5.686719e-05	0.009998143	-0.01307237
	0.008349517	-0.008866278	-2.202801e-05	5.686719e-05	0.007299107	0.01230251	-3.311719e-05	8.578105e-05
	-2.623999e-05	6.55812e-05	0.009998141	-0.01307237	-3.311718e-05	8.578104e-05	0.00797464	0.01122623
1.8e+08	0.03809071	0.005686152	4.277658e-05	9.683261e-05	0.05350506	0.03839411	5.947721e-05	0.0001181816
	4.27766e-05	9.683261e-05	0.03700194	0.00799536	3.936792e-05	0.0001192077	0.04879022	0.03820006
	0.05350506	0.03839411	3.936792e-05	0.0001192077	0.03681237	0.006434917	7.91245e-05	0.0001489095
	5.947722e-05	0.0001181816	0.04879013	0.03820011	7.91245e-05	0.0001489094	0.03614377	0.007705003
1.9e+08	0.02338838	-0.02165853	6.888996e-05	4.468016e-05	0.08917669	-0.01778266	9.403413e-05	2.242026e-05
	6.888996e-05	4.468016e-05	0.02596408	-0.01883685	9.119647e-05	4.531491e-05	0.09019175	-0.01244984
	0.08917669	-0.01778266	9.119647e-05	4.531491e-05	0.02583026	-0.02126222	0.0001197314	2.502923e-05
	9.403413e-05	2.242026e-05	0.09019175	-0.01244984	0.0001197314	2.502924e-05	0.02796553	-0.01906462
2e+08	0.0005407479	-0.0007304603	9.195715e-06	3.829218e-05	0.02580063	-0.03878803	-1.314875e-05	1.899592e-05
	9.195705e-06	3.829217e-05	0.003037834	-0.001650984	2.070488e-06	1.910832e-05	0.03111093	-0.04074402
	0.02580064	-0.03878803	2.070473e-06	1.910833e-05	0.001809916	-0.004114425	-1.758035e-05	2.232369e-05
	-1.314875e-05	1.899592e-05	0.03111093	-0.04074402	-1.758034e-05	2.23237e-05	0.004463904	-0.004949295
2.1e+08	0.02863532	0.01753378	2.660301e-05	0.000108709	0.02248302	0.02876988	1.769343e-05	0.0001363588
	2.660301e-05	0.000108709	0.02753626	0.01777349	6.116196e-06	0.0001251776	0.0191934	0.02435397
	0.02248302	0.02876988	6.116196e-06	0.0001251776	0.0262852	0.01609929	2.107176e-05	0.0001729394
	1.769352e-05	0.0001363588	0.01919337	0.02435399	2.107175e-05	0.0001729393	0.02588669	0.01562392
2.2e+08	0.04193724	-0.01458736	9.970449e-05	7.717905e-05	0.09036979	0.01472296	0.0001317795	8.051234e-05
	9.97045e-05	7.717905e-05	0.04307316	-0.01097266	0.00011737	9.880584e-05	0.08682145	0.01967421
	0.09036979	0.01472296	0.00011737	9.880584e-05	0.04227589	-0.01288513	0.0001686032	0.0001033683
	0.0001317796	8.051229e-05	0.08682146	0.01967421	0.0001686032	0.0001033683	0.04318422	-0.01035342
2.3e+08	0.008776004	-0.02115382	5.241679e-05	1.307761e-05	0.06086116	-0.04876944	4.897225e-05	-1.732265e-05
	5.241687e-05	1.307755e-05	0.01309105	-0.0204018	6.519021e-05	-3.841099e-06	0.06696556	-0.04583508
	0.06086116	-0.04876944	6.519021e-05	-3.841096e-06	0.01168567	-0.02291565	6.58158e-05	-2.474822e-05
	4.897225e-05	-1.732265e-05	0.06696556	-0.04583509	6.581581e-05	-2.474821e-05	0.01561744	-0.02227177
2.4e+08	0.01125135	0.01371153	5.482692e-06	8.77763e-05	0.006772282	-0.003774683	-2.448667e-05	0.0001023163
	5.482691e-06	8.777631e-05	0.01207395	0.01192096	-2.035615e-05	8.662442e-05	0.008329563	-0.01022788
	0.006772282	-0.003774683	-2.035615e-05	8.662441e-05	0.01002017	0.009985977	-3.434226e-05	0.0001236781
	-2.448668e-05	0.0001023162	0.008329563	-0.01022788	-3.434224e-05	0.0001236781	0.01146839	0.007984121
2.5e+08	0.04730028	0.002638772	0.0001007098	0.0001174359	0.06573945	0.0374462	0.0001202847	0.0001484336
	0.0001007098	0.0001174359	0.04676038	0.005061035	9.994322e-05	0.0001523211	0.05903075	0.03806981
	0.06573945	0.0374462	9.994321e-05	0.0001523211	0.04493761	0.003478217	0.0001472073	0.0001925078
	0.0001202847	0.0001484336	0.05903076	0.03806981	0.0001472073	0.0001925078	0.04466312	0.004687265
2.6e+08	0.03033616	-0.03108558	0.0001136341	1.670048e-05	0.09288509	-0.03077742	0.0001365937	-3.183804e-06
	0.0001136341	1.670047e-05	0.03452549	-0.0281875	0.0001423034	1.92674e-05	0.09535896	-0.0235359
	0.09288509	-0.03077742	0.0001423034	1.92674e-05	0.03274596	-0.03011513	0.0001800194	1.380267e-07
	0.0001365937	-3.183801e-06	0.09535888	-0.02353583	0.0001800194	1.380388e-07	0.03628946	-0.02786319
2.7e+08	0.001719368	-0.007403358	9.608189e-06	3.493543e-05	0.01992157	-0.04120485	-1.992913e-05	2.50008e-05
	9.608178e-06	3.493542e-05	0.005672846	-0.009501303	-1.810018e-06	1.678274e-05	0.02694811	-0.04499344
	0.0199215	-0.04120478	-1.810017e-06	1.678274e-05	0.00321079	-0.01141556	-2.082209e-05	2.084796e-05
	-1.992913e-05	2.50008e-05	0.02694811	-0.04499345	-2.082208e-05	2.084796e-05	0.00730212	-0.01339179
2.8e+08	0.03419162	0.01524683	6.728808e-05	0.0001385722	0.02945663	0.03282778	5.939084e-05	0.0001804147
	6.728801e-05	0.0001385722	0.03336775	0.01472359	4.474389e-05	0.0001677792	0.02410691	0.02733257
	0.02945663	0.03282778	4.474397e-05	0.0001677791	0.03071269	0.01322059	6.182387e-05	0.0002254235
	5.939085e-05	0.0001804147	0.02410691	0.02733257	6.182386e-05	0.0002254235	0.03060422	0.01180801
2.9e+08	0.05104786	-0.02285042	0.0001612353	5.732771e-05	0.1006977	0.00474098	0.0001983526	6.780513e-05
	0.0001612354	5.73277e-05	0.053233	-0.01909343	0.0001884537	8.757087e-05	0.09678802	0.01204457
	0.1006977	0.00474098	0.0001884537	8.757087e-05	0.05057944	-0.0203472	0.0002512748	9.988252e-05
	0.0001983527	6.780506e-05	0.09678795	0.01204464	0.0002512741	9.988179e-05	0.05233331	-0.01782701
3e+08	0.01142304	-0.03264751	6.112005e-05	-1.771747e-05	0.05724292	-0.05934604	5.700222e-05	-4.278027e-05
	6.112004e-05	-1.771747e-05	0.0176449	-0.03283446	7.8039e-05	-3.602181e-05	0.06600326	-0.05651682
	0.05724292	-0.05934604	7.8039e-05	-3.60218e-05	0.01488632	-0.03418637	8.803144e-05	-5.810942e-05
	5.700223e-05	-4.278026e-05	0.06600319	-0.05651675	8.803144e-05	-5.810941e-05	0.02058554	-0.03439536
3.1e+08	0.012151	0.008755471	1.950678e-05	0.0001120568	0.005888431	-0.0009182285	-1.124148e-05	0.0001384713
	1.950677e-05	0.0001120566	0.01354547	0.005216518	-1.043147e-05	0.0001175889	0.006877762	-0.009917819
	0.005888431	-0.0009182285	-1.043149e-05	0.0001175889	0.01051089	0.003984657	-2.329019e-05	0.0001571897
	-1.124079e-05	0.0001384706	0.006877762	-0.009917819	-2.329009e-05	0.0001571898	0.01265688	0.0001966327
3.2e+08	0.05516164	-0.002988232	0.0001665879	0.0001167945	0.07731924	0.03397819	0.0001929631	0.0001596061
	0.000166588	0.0001167945	0.05483528	-0.00087876	0.0001726476	0.0001649885	0.06855178	0.03584314
	0.07731923	0.03397819	0.0001726476	0.0001649885	0.05130359	-0.001884034	0.0002271952	0.0002157385
	0.0001929631	0.0001596061	0.06855178	0.03584314	0.0002271952	0.0002157385	0.05116911	-0.001268796
3.3e+08	0.03614749	-0.04410388	0.000144171	-2.831875e-05	0.09585162	-0.04497686	0.0001741966	-4.275102e-05
	0.0001441711	-2.83187e-05	0.04204226	-0.04162724	0.0001846586	-2.396884e-05	0.1002667	-0.03595133
	0.09585162	-0.04497686	0.0001846586	-2.396883e-05	0.03860627	-0.04201255	0.0002378148	-3.97286e-05
	0.0001741966	-4.275102e-05	0.1002666	-0.03595125	0.0002378148	-3.972858e-05	0.04357807	-0.04020351
3.4e+08	0.0004045065	-0.01765648	4.059884e-06	3.397358e-05	0.01439374	-0.04521717	-2.348413e-05	3.013647e-05
	4.059862e-06	3.397357e-05	0.005705236	-0.02190682	-7.090848e-06	1.493849e-05	0.02303012	-0.05138514
	0.01439374	-0.04521717	-7.090866e-06	1.493848e-05	0.002486851	-0.02232463	-1.843629e-05	1.485002e-05
	-2.348412e-05	3.013647e-05	0.02303012	-0.05138514	-1.843627e-05	1.485e-05	0.007977165	-0.02629939
3.5e+08	0.037413	0.01074173	0.0001182971	0.0001581372	0.03607661	0.03432096	0.0001150401	0.0002119124
	0.0001182971	0.0001581372	0.03621564	0.008805003	9.693046e-05	0.0001991134	0.02826734	0.0278757
	0.03607661	0.03432096	9.693046e-05	0.0001991134	0.03254717	0.00798575	0.0001162856	0.0002622952
	0.0001150401	0.0002119124	0.02826728	0.02787578	0.0001162856	0.0002622952	0.03221511	0.004909993
3.6e+08	0.05858117	-0.03387224	0.000215132	1.65267e-05	0.109677	-0.007085795	0.0002635332	3.558247e-05
	0.000215132	1.65267e-05	0.06157777	-0.03025123	0.0002564807	5.466431e-05	0.1057334	0.002764089
	0.109677	-0.007085795	0.0002564807	5.466431e-05	0.05708411	-0.03006809	0.0003332985	7.592294e-05
	0.0002635332	3.558247e-05	0.1057334	0.002764089	0.0003332985	7.592294e-05	0.05936736	-0.02792426
3.7e+08	0.0115764	-0.04743955	5.745722e-05	-5.058954e-05	0.05315557	-0.07103181	6.201534e-05	-7.305646e-05
	5.745722e-05	-5.058956e-05	0.01967644	-0.04932	8.33214e-05	-7.273967e-05	0.06479391	-0.06878015
	0.05315557	-0.07103181	8.332141e-05	-7.273969e-05	0.01600313	-0.04841958	0.0001099715	-9.850267e-05
	6.201535e-05	-7.305646e-05	0.06479391	-0.06878015	0.0001099715	-9.850264e-05	0.02339048	-0.05011198
3.8e+08	0.009943495	0.001681192	3.923974e-05	0.0001353211	0.004837599	-0.0001822344	1.218141e-05	0.0001680452
	3.923974e-05	0.0001353211	0.01123301	-0.004525989	8.048913e-06	0.0001446033	0.004826007	-0.01200791
	0.004837599	-0.0001822344	8.048995e-06	0.0001446034	0.008003205	-0.00440423	-1.123631e-06	0.0001799022
	1.218141e-05	0.0001680452	0.004826007	-0.01200791	-1.123631e-06	0.0001799022	0.01032946	-0.01085819
3.9e+08	0.06088395	-0.01056923	0.0002336387	9.696257e-05	0.08759743	0.02817024	0.0002702037	0.000150478
	0.0002336387	9.696257e-05	0.06007754	-0.008997376	0.0002496863	0.0001570603	0.07672321	0.03159716
	0.08759743	0.02817024	0.0002496863	0.0001570603	0.0551685	-0.008998452	0.0003113031	0.0002164919
	0.0002702037	0.000150478	0.07672316	0.03159724	0.0003113031	0.0002164919	0.05448443	-0.00933893
4e+08	0.03942796	-0.0598609	0.0001607106	-8.212711e-05	0.09736677	-0.06034895	0.0002053201	-9.303308e-05
	0.0001607106	-8.212712e-05	0.04688987	-0.05820015	0.0002172763	-7.845124e-05	0.1040871	-0.04975505
	0.09736677	-0.06034895	0.0002172762	-7.845122e-05	0.04211886	-0.05609414	0.000290568	-9.15801e-05
	0.0002053201	-9.303307e-05	0.1040871	-0.04975497	0.0002905679	-9.158007e-05	0.04824994	-0.05507069
4.1e+08	-0.004444039	-0.03003634	-3.465118e-06	3.507723e-05	0.008432671	-0.05067098	-2.317479e-05	3.070491e-05
	-3.465141e-06	3.507722e-05	0.001740978	-0.03738914	-1.11426e-05	1.1134e-05	0.01849232	-0.05973077
	0.008432674	-0.05067098	-1.11426e-05	1.1134e-05	-0.001320385	-0.03541727	-9.918984e-06	6.660212e-07
	-2.317476e-05	3.070492e-05	0.01849232	-0.05973077	-9.918965e-06	6.660217e-07	0.00519494	-0.04218215
4.2e+08	0.03784729	0.004962044	0.0001757857	0.0001660137	0.0417575	0.03344461	0.000178732	0.0002274159
	0.0001757857	0.0001660137	0.03521332	0.001189499	0.0001572869	0.0002160021	0.03108585	0.02618359
	0.0417575	0.03344461	0.0001572869	0.0002160021	0.03135813	0.001319969	0.000178384	0.0002793215
	0.000178732	0.0002274159	0.03108585	0.02618359	0.000178384	0.0002793215	0.02987333	-0.003945125
4.3e+08	0.06350405	-0.04701996	0.0002587068	-3.95768e-05	0.1166372	-0.0206591	0.0003229819	-1.381954e-05
	0.0002587068	-3.95768e-05	0.06686528	-0.04357284	0.0003173336	4.085729e-06	0.1129454	-0.00816678
	0.1166372	-0.0206591	0.0003173336	4.085729e-06	0.06086096	-0.04141729	0.0004094392	3.305381e-05
	0.0003229819	-1.381954e-05	0.1129454	-0.008166781	0.0004094392	3.305381e-05	0.06310448	-0.03975238
4.4e+08	0.008095028	-0.06422053	4.537201e-05	-8.326656e-05	0.0478709	-0.08363083	6.471328e-05	-0.0001088271
	4.537205e-05	-8.326665e-05	0.01778856	-0.06844851	8.345317e-05	-0.0001132353	0.06246682	-0.08244123
	0.0478709	-0.08363083	8.345318e-05	-0.0001132353	0.0139866	-0.06436765	0.0001315638	-0.0001465579
	6.471328e-05	-0.000108827	0.06246686	-0.08244109	0.0001315637	-0.0001465579	0.02273816	-0.06801994
4.5e+08	0.004191254	-0.006233052	6.351699e-05	0.0001547385	0.002987155	-0.001297092	4.174485e-05	0.0001867241
	6.351698e-05	0.0001547386	0.004311528	-0.01583844	3.230141e-05	0.0001633729	0.001494165	-0.01618014
	0.002987155	-0.001297092	3.23014e-05	0.0001633729	0.002092072	-0.01394213	2.804453e-05	0.0001871097
	4.174485e-05	0.0001867241	0.001494165	-0.01618014	2.804453e-05	0.0001871097	0.003742041	-0.02375644
4.6e+08	0.06395738	-0.01944988	0.0002981039	6.027986e-05	0.09597667	0.02014067	0.0003463235	0.0001215868
	0.0002981039	6.027994e-05	0.06173046	-0.01827157	0.0003256341	0.0001297385	0.08296213	0.02542139
	0.09597667	0.02014067	0.0003256341	0.0001297385	0.05608325	-0.0172034	0.0003932634	0.0001944293
	0.0003463235	0.0001215868	0.08296214	0.02542138	0.0003932633	0.0001944293	0.05389504	-0.01851898
4.7e+08	0.03908663	-0.07737889	0.0001648302	-0.0001412567	0.09674446	-0.07669233	0.0002287713	-0.0001529151
	0.0001648302	-0.0001412567	0.04783207	-0.07672881	0.0002401638	-0.0001417861	0.1060277	-0.06481533
	0.09674446	-0.07669233	0.0002401638	-0.0001417861	0.04229863	-0.07144871	0.0003360572	-0.0001547387
	0.0002287713	-0.0001529151	0.1060277	-0.06481533	0.0003360572	-0.0001547387	0.04916745	-0.07131911
4.8e+08	-0.01330176	-0.04308501	-1.155345e-05	3.580604e-05	0.001439048	-0.05720965	-2.069177e-05	2.317568e-05
	-1.155343e-05	3.580605e-05	-0.006990255	-0.05428321	-1.409757e-05	1.983709e-06	0.01261381	-0.06960765
	0.001439048	-0.05720965	-1.409753e-05	1.983717e-06	-0.008663649	-0.04931445	2.555817e-06	-2.518648e-05
	-2.069178e-05	2.317568e-05	0.01261378	-0.06960756	2.555832e-06	-2.518649e-05	-0.001744635	-0.05943726
