!$
! Info: Touchstone file created by Circ.  Input file=Tx_PCB_4dB_OSFP_27dB_OSFP_4dB_PCB_Rx_TP0_TP5_VendorY.circ
!$
# Hz S RI R 50
0	0.07116881	8.016895e-22	0.9288029	-8.603938e-22	0.002358898	3.141753e-20	-0.002646355	3.232892e-19
	0.9288029	-8.604014e-22	0.07044579	5.34365e-22	-0.00266981	3.261607e-19	0.002275549	4.834877e-20
	0.002358809	3.141924e-20	-0.00266997	3.261803e-19	0.07076775	8.012515e-22	0.9287808	-8.443188e-22
	-0.002646375	3.232916e-19	0.002275509	4.834891e-20	0.9287808	-8.442077e-22	0.07045945	5.239375e-22
1e+07	0.04796765	-0.04349238	0.551979	-0.7390074	0.05457733	0.03883882	-0.004647378	-0.001301556
	0.551979	-0.7390074	0.04862574	-0.04282561	-0.004644845	-0.001289014	0.0545492	0.0390594
	0.05457733	0.03883882	-0.004644893	-0.001288952	0.04937648	-0.04230168	0.5536954	-0.7378847
	-0.004647398	-0.001301535	0.0545492	0.0390594	0.5536954	-0.7378847	0.05018672	-0.04164608
2e+07	0.0008796669	-0.03915678	-0.2536449	-0.881163	0.07795874	-0.01897136	-0.01264883	0.001576925
	-0.2536449	-0.881163	0.001901382	-0.03912783	-0.01264306	0.001581778	0.07795694	-0.01880046
	0.07795874	-0.01897136	-0.01264316	0.001581765	0.003209952	-0.03980708	-0.2499398	-0.8824129
	-0.01264883	0.001576926	0.07795694	-0.01880056	-0.2499398	-0.8824129	0.004167221	-0.03989914
3e+07	-0.00481609	-0.001455876	-0.8534451	-0.3298587	0.01816338	-0.0254978	-0.01049701	0.02070874
	-0.8534451	-0.3298587	-0.00483439	-0.001883258	-0.01049079	0.02069572	0.01781267	-0.02565768
	0.01816338	-0.0254978	-0.01049058	0.0206958	-0.004393226	-0.002706577	-0.8515676	-0.335263
	-0.01049681	0.02070872	0.01781267	-0.02565768	-0.8515676	-0.335263	-0.004432641	-0.003012204
4e+07	0.02212722	0.0008453583	-0.7745658	0.4795609	0.02880537	0.03270767	0.01646813	0.02640642
	-0.7745658	0.4795609	0.02103254	0.001695799	0.01645797	0.02641066	0.02787992	0.03341279
	0.02880527	0.03270768	0.01645803	0.02641036	0.02239126	0.001541495	-0.7786701	0.4732075
	0.01646819	0.02640612	0.02787982	0.0334128	-0.7786701	0.4732075	0.02150178	0.002294954
5e+07	0.01549196	-0.02044982	-0.08780128	0.9014269	0.08209095	0.006958601	0.03641532	0.003505392
	-0.08780128	0.9014269	0.0154554	-0.01833753	0.03642319	0.003504696	0.08212816	0.008074248
	0.08209087	0.006958717	0.03642325	0.003504463	0.01781406	-0.02014556	-0.09724095	0.9006649
	0.03641507	0.003505123	0.08212816	0.008074246	-0.09724095	0.9006649	0.01770166	-0.01826776
6e+07	-0.004115495	-0.006753729	0.6615038	0.6158347	0.04428351	-0.03739143	0.03141312	-0.0320442
	0.6615038	0.6158347	-0.003546785	-0.005965116	0.03140722	-0.03204442	0.0439618	-0.03770374
	0.04428351	-0.03739144	0.03140691	-0.03204446	-0.002563361	-0.008486236	0.6538835	0.6242173
	0.03141298	-0.03204438	0.04396191	-0.03770366	0.6538835	0.6242173	-0.002090314	-0.007625383
7e+07	0.01408387	0.0106992	0.8885417	-0.1543878	0.0125312	0.01046891	-0.009265504	-0.05251669
	0.8885417	-0.1543878	0.01217147	0.01142394	-0.009255805	-0.05251875	0.009949991	0.01112478
	0.01253118	0.01046891	-0.009255921	-0.05251873	0.01373715	0.01007362	0.890912	-0.1414823
	-0.009265617	-0.05251636	0.009949962	0.01112479	0.890912	-0.1414823	0.01206457	0.01076248
8e+07	0.0265895	-0.01036168	0.4129663	-0.7959936	0.06762245	0.02818628	-0.05295614	-0.02599789
	0.4129663	-0.7959936	0.02452048	-0.00637252	-0.05297195	-0.026007	0.06633662	0.03125797
	0.06762236	0.02818631	-0.05297195	-0.026007	0.02782826	-0.009425969	0.4262258	-0.7891187
	-0.05295614	-0.02599789	0.06633662	0.03125797	0.4262258	-0.7891187	0.02578912	-0.005795917
9e+07	0.003203955	-0.01620688	-0.379255	-0.809089	0.07133868	-0.02919275	-0.05920899	0.02772078
	-0.379255	-0.809089	0.004070612	-0.0125026	-0.05920876	0.02773901	0.07176459	-0.02841808
	0.07133868	-0.02919275	-0.05920876	0.02773902	0.005706281	-0.01735693	-0.3640697	-0.8162333
	-0.05920889	0.02772079	0.07176456	-0.02841818	-0.3640697	-0.8162333	0.00635058	-0.01371847
1e+08	0.004181403	0.00980259	-0.8724945	-0.1883683	0.0164039	-0.01786136	-0.01581203	0.07249923
	-0.8724945	-0.1883683	0.003041096	0.01087788	-0.01580854	0.07249624	0.01275292	-0.01830964
	0.0164039	-0.01786136	-0.01580845	0.07249621	0.004303865	0.007741803	-0.8686	-0.2065543
	-0.01581203	0.07249923	0.01275292	-0.01830964	-0.8686	-0.2065543	0.003345417	0.008893189
1.1e+08	0.03132001	0.002663262	-0.674507	0.5781275	0.04305843	0.03170328	0.05392034	0.06035871
	-0.674507	0.5781275	0.02708781	0.007353742	0.0539197	0.06037638	0.03836248	0.03645934
	0.04305843	0.03170328	0.05391979	0.06037634	0.03106418	0.003124986	-0.6877388	0.5626517
	0.05392031	0.06035862	0.03836248	0.03645934	-0.6877388	0.5626517	0.02709817	0.007405962
1.2e+08	0.01868937	-0.02195885	0.04862292	0.8823318	0.08502454	-0.006884478	0.08552104	-0.00591575
	0.04862292	0.8823318	0.01844259	-0.01431492	0.08554584	-0.005941952	0.0855579	-0.002289489
	0.08502454	-0.006884478	0.08554584	-0.005941952	0.02109597	-0.02183759	0.02650401	0.8834215
	0.08552104	-0.00591575	0.0855579	-0.002289489	0.02650401	0.8834215	0.0206567	-0.01452262
1.3e+08	-0.001368506	-0.002835259	0.7291827	0.4969037	0.03857964	-0.03748142	0.05298448	-0.07725032
	0.7291827	0.4969037	-0.0004633238	0.0003968348	0.05296178	-0.07726432	0.03639915	-0.03849454
	0.03857956	-0.03748137	0.05296178	-0.07726432	5.088001e-05	-0.005488408	0.7158078	0.5168445
	0.05298448	-0.07725032	0.03639915	-0.03849454	0.7158078	0.5168445	0.001056534	-0.002121632
1.4e+08	0.02490592	0.01272946	0.8345269	-0.2793416	0.0230483	0.01492634	-0.03333685	-0.09635323
	0.8345269	-0.2793416	0.01993728	0.01695984	-0.03333983	-0.0963602	0.01426897	0.01889775
	0.0230483	0.01492634	-0.03333983	-0.0963602	0.02373463	0.01164193	0.8425406	-0.254894
	-0.03333693	-0.09635318	0.01426895	0.01889776	0.8425406	-0.254894	0.01928837	0.01550994
1.5e+08	0.03562998	-0.01753724	0.2827201	-0.8275774	0.07912114	0.01563565	-0.1018169	-0.03249984
	0.2827201	-0.8275774	0.03267887	-0.006444055	-0.1018573	-0.03249163	0.07650796	0.02588298
	0.07912106	0.01563571	-0.1018572	-0.03249182	0.03664296	-0.0164796	0.3085402	-0.8184773
	-0.1018169	-0.03249984	0.07650795	0.02588298	0.3085402	-0.8184773	0.03357076	-0.006073798
1.6e+08	0.004887379	-0.02113911	-0.4827783	-0.726057	0.06719479	-0.03899857	-0.09358047	0.06263916
	-0.4827783	-0.726057	0.007829828	-0.01313685	-0.09356521	0.0626961	0.06856981	-0.03664883
	0.06719479	-0.03899857	-0.0935652	0.06269612	0.007541192	-0.02290037	-0.458293	-0.7419827
	-0.09358045	0.06263919	0.06856981	-0.03664883	-0.458293	-0.7419827	0.01024501	-0.01487698
1.7e+08	0.01090766	0.01036867	-0.8688708	-0.05581701	0.01959636	-0.01383034	-0.007835023	0.1213456
	-0.8688708	-0.05581701	0.008073337	0.01420702	-0.007812621	0.1213353	0.009998143	-0.01307237
	0.01959636	-0.01383034	-0.007812568	0.1213354	0.01025076	0.007483915	-0.8666067	-0.08673995
	-0.007834968	0.1213457	0.009998141	-0.01307237	-0.8666067	-0.08673995	0.00797464	0.01122623
1.8e+08	0.04314337	-0.004323482	-0.5673015	0.6538461	0.05840873	0.02441929	0.09799865	0.08228669
	-0.5673015	0.6538461	0.03700194	0.00799536	0.09802446	0.08229379	0.04879022	0.03820006
	0.05840873	0.02441929	0.09802454	0.08229373	0.04213606	-0.003682383	-0.5916662	0.6322099
	0.09799865	0.08228669	0.04879013	0.03820011	-0.5916662	0.6322099	0.03614377	0.007705003
1.9e+08	0.02300169	-0.03345244	0.1719886	0.8435474	0.0872257	-0.02372736	0.1289642	-0.02786404
	0.1719886	0.8435474	0.02596408	-0.01883685	0.1289801	-0.02792689	0.09019175	-0.01244984
	0.0872257	-0.02372736	0.1289801	-0.02792689	0.02559796	-0.03341449	0.1383435	0.8501461
	0.1289641	-0.02786412	0.09019175	-0.01244984	0.1383435	0.8501461	0.02796553	-0.01906462
2e+08	0.0009278381	-0.007426172	0.7735777	0.3757746	0.03540027	-0.04017842	0.06159145	-0.1254835
	0.7735777	0.3757746	0.003037834	-0.001650984	0.06153049	-0.1254914	0.03111093	-0.04074402
	0.0354002	-0.04017834	0.06153049	-0.1254914	0.002026897	-0.01102415	0.7573145	0.4080592
	0.06159145	-0.1254835	0.03111093	-0.04074402	0.7573145	0.4080592	0.004463904	-0.004949295
2.1e+08	0.03493569	0.007016392	0.7641698	-0.3872315	0.03554419	0.01290369	-0.06756393	-0.1316731
	0.7641698	-0.3872315	0.02753626	0.01777349	-0.0675745	-0.1316604	0.0191934	0.02435397
	0.03554419	0.01290369	-0.0675745	-0.1316604	0.03264269	0.005739578	0.7807728	-0.3533284
	-0.06756393	-0.1316731	0.01919337	0.02435399	0.7807728	-0.3533284	0.02588669	0.01562392
2.2e+08	0.04313011	-0.03161313	0.1560319	-0.8359797	0.08874585	-0.002618069	-0.1499882	-0.02564375
	0.1560319	-0.8359797	0.04307316	-0.01097266	-0.1500318	-0.0256046	0.08682145	0.01967421
	0.08874579	-0.00261799	-0.1500319	-0.02560453	0.0439221	-0.03013736	0.1945216	-0.828123
	-0.1499883	-0.02564368	0.08682146	0.01967421	0.1945216	-0.828123	0.04318422	-0.01035342
2.3e+08	0.005390957	-0.03230008	-0.565959	-0.631697	0.06239141	-0.05168293	-0.1170737	0.1049711
	-0.565959	-0.631697	0.01309105	-0.0204018	-0.1170094	0.1050359	0.06696556	-0.04583508
	0.06239141	-0.05168293	-0.1170094	0.105036	0.008179467	-0.03469032	-0.5350384	-0.6587521
	-0.1170737	0.1049711	0.06696556	-0.04583509	-0.5350384	-0.6587521	0.01561744	-0.02227177
2.4e+08	0.01612905	0.003867719	-0.8441402	0.06774194	0.02409911	-0.01497223	0.01237207	0.1660318
	-0.8441402	0.06774194	0.01207395	0.01192096	0.01241598	0.1659879	0.008329563	-0.01022788
	0.02409912	-0.01497222	0.01241598	0.1659879	0.01443167	0.0002643559	-0.8468098	0.02494865
	0.01237207	0.1660318	0.008329563	-0.01022788	-0.8468098	0.02494865	0.01146839	0.007984121
2.5e+08	0.0516449	-0.01793967	-0.4543247	0.7072803	0.07193318	0.01008605	0.1459809	0.09184484
	-0.4543247	0.7072803	0.04676038	0.005061035	0.1460086	0.09182762	0.05903075	0.03806981
	0.07193314	0.01008614	0.1460087	0.09182754	0.04975353	-0.01679405	-0.4911322	0.6826827
	0.1459809	0.09184484	0.05903076	0.03806981	-0.4911322	0.6826827	0.04466312	0.004687265
2.6e+08	0.02411159	-0.04982358	0.2813838	0.7871974	0.08610371	-0.04469899	0.164758	-0.06032524
	0.2813838	0.7871974	0.03452549	-0.0281875	0.164745	-0.06042438	0.09535896	-0.0235359
	0.08610371	-0.04469899	0.164745	-0.06042438	0.02693289	-0.04966452	0.2378648	0.8016619
	0.164758	-0.06032524	0.09535888	-0.02353583	0.2378648	0.8016619	0.03628946	-0.02786319
2.7e+08	0.001034801	-0.01754029	0.7956021	0.2549507	0.03137865	-0.04669822	0.05742093	-0.1738186
	0.7956021	0.2549507	0.005672846	-0.009501303	0.05731285	-0.1737947	0.02694811	-0.04499344
	0.03137865	-0.04669822	0.05731285	-0.1737947	0.001678759	-0.02203043	0.7799763	0.3001064
	0.05742085	-0.1738186	0.02694811	-0.04499345	0.7799763	0.3001064	0.00730212	-0.01339179
2.8e+08	0.04110444	-0.005224505	0.6803307	-0.4770474	0.04634749	0.004220283	-0.1095532	-0.157178
	0.6803307	-0.4770474	0.03336775	0.01472359	-0.1095623	-0.1571284	0.02410691	0.02733257
	0.04634749	0.004220283	-0.1095623	-0.1571284	0.03747959	-0.00642804	0.707763	-0.4361275
	-0.1095532	-0.157178	0.02410691	0.02733257	0.707763	-0.4361275	0.03060422	0.01180801
2.9e+08	0.04539847	-0.05036811	0.03571319	-0.823152	0.09359627	-0.0263175	-0.1950254	-0.006619506
	0.03571319	-0.823152	0.053233	-0.01909343	-0.1950539	-0.006545291	0.09678802	0.01204457
	0.09359627	-0.0263175	-0.1950539	-0.006545291	0.04597737	-0.04816182	0.08614583	-0.8197662
	-0.1950254	-0.006619506	0.09678795	0.01204464	0.08614583	-0.8197662	0.05233331	-0.01782701
3e+08	0.002089772	-0.04729315	-0.6287858	-0.5298949	0.05401246	-0.06753843	-0.1289369	0.1519013
	-0.6287858	-0.5298949	0.0176449	-0.03283446	-0.1288111	0.1519701	0.06600326	-0.05651682
	0.05401246	-0.06753843	-0.1288111	0.1519702	0.00504975	-0.05014102	-0.5939941	-0.5690221
	-0.1289369	0.1519013	0.06600319	-0.05651675	-0.5939941	-0.5690221	0.02058554	-0.03439536
3.1e+08	0.0173085	-0.008110392	-0.8008494	0.1796683	0.02619088	-0.021193	0.04293825	0.2040439
	-0.8008494	0.1796683	0.01354547	0.005216518	0.04300191	0.2039452	0.006877762	-0.009917819
	0.02619085	-0.02119291	0.04300191	0.2039452	0.01445334	-0.01224285	-0.811346	0.126495
	0.04293825	0.2040439	0.006877762	-0.009917819	-0.811346	0.126495	0.01265688	0.0001966327
3.2e+08	0.05382523	-0.03642925	-0.3393365	0.7388976	0.08027587	-0.01017663	0.195392	0.08936721
	-0.3393365	0.7388976	0.05483528	-0.00087876	0.1954025	0.08931299	0.06855178	0.03584314
	0.08027587	-0.01017663	0.1954025	0.08931299	0.05100783	-0.03445607	-0.3890418	0.7145546
	0.195392	0.08936721	0.06855178	0.03584314	-0.3890417	0.7145546	0.05116911	-0.001268796
3.3e+08	0.01927352	-0.06886716	0.3746168	0.7162402	0.07898572	-0.0688779	0.1916741	-0.1011268
	0.3746168	0.7162402	0.04204226	-0.04162724	0.1916093	-0.1012498	0.1002667	-0.03595133
	0.07898572	-0.0688779	0.1916093	-0.1012498	0.02240949	-0.06836681	0.3235589	0.7410718
	0.1916741	-0.1011268	0.1002666	-0.03595125	0.3235589	0.7410718	0.04357807	-0.04020351
3.4e+08	-0.00350312	-0.03115162	0.7965754	0.1382242	0.02333794	-0.05645637	0.04142949	-0.2196386
	0.7965754	0.1382242	0.005705236	-0.02190682	0.04126612	-0.219573	0.02303012	-0.05138514
	0.02333794	-0.05645637	0.04126612	-0.219573	-0.003307148	-0.03638787	0.784721	0.1958218
	0.04142949	-0.2196386	0.02303012	-0.05138514	0.784721	0.1958218	0.007977165	-0.02629939
3.5e+08	0.04086251	-0.02186229	0.5874616	-0.5481277	0.0518858	-0.009522193	-0.1567558	-0.1720589
	0.5874616	-0.5481277	0.03621564	0.008805003	-0.156751	-0.1719514	0.02826734	0.0278757
	0.0518858	-0.009522193	-0.156751	-0.1719514	0.03586422	-0.02273867	0.6272968	-0.5029165
	-0.1567558	-0.1720589	0.02826728	0.02787578	0.6272968	-0.5029165	0.03221511	0.004909993
3.6e+08	0.0399681	-0.0714267	-0.07516562	-0.7915105	0.09098124	-0.05345897	-0.2346384	0.02308295
	-0.07516562	-0.7915105	0.06157777	-0.03025123	-0.2346182	0.02319252	0.1057334	0.002764089
	0.09098124	-0.05345897	-0.2346182	0.02319252	0.04041595	-0.06822016	-0.01408565	-0.7955218
	-0.2346384	0.02308295	0.1057334	0.002764089	-0.01408565	-0.7955218	0.05936736	-0.02792426
3.7e+08	-0.007236197	-0.06363708	-0.6709348	-0.4242867	0.03953792	-0.08511033	-0.1289676	0.2006903
	-0.6709348	-0.4242867	0.01967644	-0.04932	-0.1287701	0.2007335	0.06479391	-0.06878015
	0.03953791	-0.08511023	-0.1287701	0.2007335	-0.004014156	-0.06677711	-0.6354448	-0.4763057
	-0.1289675	0.2006903	0.06479391	-0.06878015	-0.6354448	-0.4763057	0.02339048	-0.05011198
3.8e+08	0.01228926	-0.02293357	-0.7426742	0.2777837	0.02267047	-0.03064667	0.08194619	0.2341851
	-0.7426742	0.2777837	0.01123301	-0.004525989	0.08201977	0.2340099	0.004826007	-0.01200791
	0.02267047	-0.03064667	0.08201977	0.2340099	0.008287654	-0.02742981	-0.763351	0.2161623
	0.08194619	0.2341851	0.004826007	-0.01200791	-0.763351	0.2161623	0.01032946	-0.01085819
3.9e+08	0.04767598	-0.05703705	-0.2264085	0.7507318	0.08070928	-0.03357508	0.2433364	0.07526842
	-0.2264085	0.7507318	0.06007754	-0.008997376	0.2432987	0.07516039	0.07672321	0.03159716
	0.08070928	-0.03357508	0.2432987	0.07516036	0.04400765	-0.05398332	-0.2888899	0.7297142
	0.2433364	0.07526839	0.07672316	0.03159724	-0.2888899	0.7297142	0.05448443	-0.00933893
4e+08	0.006658769	-0.08774006	0.4505451	0.6346443	0.063887	-0.09379045	0.2081685	-0.1476638
	0.4505451	0.6346443	0.04688987	-0.05820015	0.2080194	-0.147783	0.1040871	-0.04975505
	0.063887	-0.09379045	0.2080194	-0.147783	0.01023794	-0.08670818	0.3945742	0.6714987
	0.2081685	-0.1476638	0.1040871	-0.04975497	0.3945742	0.6714987	0.04824994	-0.05507069
4.1e+08	-0.01445694	-0.04526861	0.7790495	0.02886447	0.008837083	-0.06723393	0.01485922	-0.2610286
	0.7790495	0.02886447	0.001740978	-0.03738914	0.01465484	-0.2608857	0.01849232	-0.05973077
	0.008837083	-0.06723393	0.01465484	-0.2608857	-0.01460939	-0.05110832	0.773742	0.09786582
	0.01485922	-0.2610286	0.01849232	-0.05973077	0.773742	0.09786582	0.00519494	-0.04218215
4.2e+08	0.03270398	-0.03979741	0.4891448	-0.6003168	0.04965034	-0.02528806	-0.2068164	-0.1760419
	0.4891448	-0.6003168	0.03521332	0.001189499	-0.2067756	-0.1758547	0.03108585	0.02618359
	0.04965034	-0.02528806	-0.2067756	-0.1758547	0.02640259	-0.04015129	0.5423376	-0.5536945
	-0.2068164	-0.1760419	0.03108585	0.02618359	0.5423376	-0.5536945	0.02987333	-0.003945125
4.3e+08	0.02551598	-0.09165593	-0.1743084	-0.7442616	0.07921713	-0.0806937	-0.2670249	0.06168701
	-0.1743084	-0.7442616	0.06686528	-0.04357284	-0.2669094	0.06181889	0.1129454	-0.00816678
	0.07921715	-0.0806936	-0.2669094	0.06181898	0.02598418	-0.08726332	-0.104377	-0.7580557
	-0.2670249	0.06168701	0.1129454	-0.008166781	-0.104377	-0.7580557	0.06310448	-0.03975238
4.4e+08	-0.02383872	-0.07809897	-0.6938187	-0.3188245	0.01744696	-0.1015835	-0.1175259	0.2489305
	-0.6938186	-0.3188254	0.01778856	-0.06844851	-0.1172594	0.2489012	0.06246682	-0.08244123
	0.01744719	-0.1015826	-0.1172593	0.2489012	-0.02021039	-0.08139179	-0.6605933	-0.3837588
	-0.1175259	0.2489305	0.06246686	-0.08244109	-0.6605932	-0.3837588	0.02273816	-0.06801994
4.5e+08	5.469957e-05	-0.03718426	-0.6731644	0.3607198	0.01158347	-0.04019046	0.1272121	0.2549653
	-0.6731644	0.3607198	0.004311528	-0.01583844	0.1272741	0.2546967	0.001494165	-0.01618014
	0.0115835	-0.04019037	0.1272741	0.2546967	-0.004977018	-0.04190245	-0.7058184	0.2929734
	0.1272121	0.2549653	0.001494165	-0.01618014	-0.7058184	0.2929734	0.003742041	-0.02375644
4.6e+08	0.0325201	-0.07635815	-0.1184422	0.7441352	0.07179554	-0.05633451	0.2879374	0.05062517
	-0.1184422	0.7441352	0.06173046	-0.01827157	0.2878061	0.05045454	0.08296213	0.02542139
	0.07179554	-0.0563345	0.2878061	0.05045454	0.02815292	-0.07205214	-0.1929318	0.7293714
	0.2879374	0.05062516	0.08296214	0.02542138	-0.1929308	0.7293714	0.05389504	-0.01851898
4.7e+08	-0.01437997	-0.103082	0.5092796	0.5465038	0.04005387	-0.1159208	0.2142676	-0.1980378
	0.5092796	0.5465038	0.04783207	-0.07672881	0.2140101	-0.1980931	0.1060277	-0.06481533
	0.04005422	-0.1159199	0.2140101	-0.198093	-0.01018444	-0.1014013	0.4511025	0.5964118
	0.2142676	-0.1980378	0.1060277	-0.06481533	0.4511025	0.5964118	0.04916745	-0.07131911
4.8e+08	-0.03224374	-0.05631362	0.7460325	-0.07073953	-0.01311999	-0.07573454	-0.02084714	-0.2956894
	0.7460325	-0.07073953	-0.006990255	-0.05428321	-0.02105639	-0.2954378	0.01261381	-0.06960765
	-0.01311999	-0.07573454	-0.02105639	-0.2954378	-0.0325934	-0.06263824	0.7497174	0.00811677
	-0.02084714	-0.2956894	0.01261378	-0.06960756	0.7497174	0.008116769	-0.001744635	-0.05943726
4.9e+08	0.01655235	-0.05533007	0.3890246	-0.6344276	0.03866219	-0.03914103	-0.2570217	-0.1688656
	0.3890246	-0.6344275	0.02983976	-0.006785907	-0.2569148	-0.1685876	0.03200132	0.02259543
	0.03866219	-0.03914103	-0.2569148	-0.1685876	0.009115552	-0.05502865	0.4558549	-0.5892097
	-0.2570217	-0.1688656	0.03200129	0.02259552	0.4558549	-0.5892097	0.02312745	-0.01347116
5e+08	0.002232824	-0.1075353	-0.2603373	-0.6849167	0.05817927	-0.1039466	-0.2909998	0.107331
	-0.2603373	-0.6849167	0.06831361	-0.05786636	-0.2907332	0.1074531	0.117815	-0.02050622
	0.05817927	-0.1039466	-0.2907332	0.1074531	0.002926061	-0.1018615	-0.1836855	-0.7105278
	-0.2909998	0.107331	0.117815	-0.02050622	-0.1836855	-0.7105278	0.06283819	-0.05215981
5.1e+08	-0.04746356	-0.0870346	-0.6990573	-0.2164973	-0.0121922	-0.1133061	-0.09532284	0.2944567
	-0.6990573	-0.2164973	0.0111727	-0.08847991	-0.09500972	0.294285	0.05823602	-0.0969908
	-0.0121922	-0.1133061	-0.09500972	0.294285	-0.04328086	-0.09041224	-0.6709518	-0.2937611
	-0.09532284	0.2944567	0.05823602	-0.0969908	-0.6709518	-0.2937611	0.01786397	-0.08647844
5.2e+08	-0.01881894	-0.04711138	-0.5955211	0.4277955	-0.007198864	-0.04605072	0.1765517	0.2655605
	-0.5955211	0.4277955	-0.007457024	-0.02709729	0.1765576	0.2651918	-0.003566437	-0.02191377
	-0.007198812	-0.04605064	0.1765575	0.2651918	-0.02470537	-0.05194613	-0.6413585	0.3564093
	0.1765517	0.2655605	-0.003566459	-0.02191368	-0.6413585	0.3564093	-0.007301002	-0.03692494
5.3e+08	0.00930745	-0.09074578	-0.01795585	0.7220115	0.05391903	-0.07417443	0.3272154	0.0166245
	-0.01795585	0.7220115	0.05941405	-0.02738657	0.3269419	0.01639539	0.0867828	0.01773654
	0.05391909	-0.07417435	0.3269419	0.01639539	0.004474983	-0.08510122	-0.1032799	0.7160459
	0.3272154	0.01662441	0.0867828	0.01773654	-0.1032799	0.7160459	0.04908834	-0.02754878
