!$
! Info: Touchstone file created by Circ.  Input file=Tx_PCB_4dB_OSFP_27dB_OSFP_4dB_PCB_Rx_TP0_TP5_VendorX.circ
!$
# Hz S RI R 50
0	0.06073933	-1.183888e-13	0.9345676	2.858936e-15	0.01671067	5.560152e-13	-0.01716019	1.691017e-15
	0.9345676	2.858963e-15	0.06071597	2.496001e-13	-0.01715915	1.688233e-15	0.01672761	5.969485e-13
	0.01671069	5.564724e-13	-0.01715913	1.689588e-15	0.06585482	3.983093e-13	0.9304984	-1.565854e-14
	-0.01716017	1.692369e-15	0.01672763	5.974048e-13	0.9304984	-1.565857e-14	0.06583271	2.675754e-13
1e+07	0.1009045	0.00856508	0.5741272	-0.719653	0.06452891	0.03705624	-0.007965302	0.01677158
	0.5741272	-0.719653	0.100518	0.009064806	-0.007964352	0.01676858	0.06419013	0.03779444
	0.06452892	0.03705625	-0.007964358	0.01676858	0.1090639	0.01022458	0.5712549	-0.7163408
	-0.007965309	0.01677159	0.06419014	0.03779445	0.5712549	-0.7163408	0.1087147	0.01080886
2e+07	0.09833992	-0.0523848	-0.1887017	-0.8924553	0.0922597	-0.02247177	0.01617589	0.01373288
	-0.1887017	-0.8924553	0.0983075	-0.05045399	0.01616891	0.0137331	0.0928712	-0.0205512
	0.09225971	-0.02247178	0.01616892	0.01373311	0.1081723	-0.05391807	-0.1875204	-0.8881583
	0.0161759	0.01373289	0.09287122	-0.02055121	-0.1875204	-0.8881583	0.1082095	-0.0518958
3e+07	0.03247443	-0.05622204	-0.8087689	-0.4201442	0.02700896	-0.0416805	0.01601611	-0.009970808
	-0.8087689	-0.4201442	0.03372218	-0.05479096	0.01601641	-0.009964426	0.02837301	-0.04085902
	0.02700896	-0.04168051	0.01601642	-0.009964427	0.03964173	-0.05984672	-0.8048098	-0.4186394
	0.01601611	-0.009970809	0.02837301	-0.04085903	-0.8048098	-0.4186394	0.04095122	-0.05827373
4e+07	0.0301447	0.003739595	-0.8312199	0.361169	0.01986284	0.02563668	0.002771835	-0.01529861
	-0.8312199	0.361169	0.02939103	0.004467003	0.002772246	-0.0152942	0.01891146	0.02650739
	0.01986284	0.02563668	0.002772249	-0.01529421	0.03600978	0.002134006	-0.8275782	0.359174
	0.002771838	-0.01529861	0.01891146	0.0265074	-0.8275782	0.359174	0.03537498	0.0030662
5e+07	0.08628355	-0.003076543	-0.2467334	0.8611316	0.08645693	0.01967778	-0.01126868	-0.01761448
	-0.2467334	0.8611316	0.08449512	0.001376863	-0.01125643	-0.01760828	0.08558023	0.02412069
	0.08645694	0.01967778	-0.01125643	-0.01760829	0.09457758	-0.004481429	-0.2459676	0.8568223
	-0.01126868	-0.01761448	0.08558024	0.02412069	-0.2459676	0.8568223	0.09295246	0.0001804499
6e+07	0.07564659	-0.06017243	0.5006627	0.7377763	0.07082983	-0.04467742	-0.02721121	0.00272952
	0.5006627	0.7377763	0.07805163	-0.05419285	-0.02720186	0.002713764	0.07364358	-0.04026339
	0.07082984	-0.04467743	-0.02720186	0.002713764	0.08418818	-0.06479094	0.4974881	0.7345824
	-0.02721121	0.00272952	0.07364358	-0.0402634	0.4974881	0.7345824	0.08676799	-0.05854879
7e+07	0.02075767	-0.04887578	0.8887326	0.08280816	0.01059175	-0.01978045	-0.009689174	0.02552112
	0.8887326	0.08280816	0.02371892	-0.04711243	-0.009697432	0.02551215	0.0122373	-0.01890953
	0.01059174	-0.01978045	-0.009697434	0.02551215	0.0262699	-0.05428409	0.8844358	0.08347372
	-0.009689176	0.02552113	0.01223729	-0.01890953	0.8844358	0.08347372	0.02951624	-0.0521933
8e+07	0.03896566	-0.000810433	0.6225389	-0.6322649	0.0468896	0.03365719	0.0113972	0.0225045
	0.6225389	-0.6322649	0.03668974	0.002300191	0.01138854	0.02249537	0.04433982	0.0373554
	0.0468896	0.03365719	0.01138855	0.02249538	0.04418178	-0.00394209	0.6203401	-0.6286285
	0.01139721	0.02250451	0.04433983	0.03735541	0.6203401	-0.6286285	0.04228051	-0.0005710509
9e+07	0.08383186	-0.02828652	-0.08828805	-0.8744382	0.09266266	-0.0119145	0.02926348	0.009620788
	-0.08828805	-0.8744382	0.0838154	-0.01853776	0.02923819	0.009629825	0.09362964	-0.003399884
	0.09266267	-0.01191451	0.02923819	0.009629827	0.09140854	-0.03222804	-0.08679545	-0.8702474
	0.02926348	0.009620789	0.09362965	-0.003399891	-0.08679545	-0.8702474	0.09172268	-0.02220779
1e+08	0.05330214	-0.0745231	-0.7263979	-0.4917329	0.04197054	-0.05022188	0.02847228	-0.02378353
	-0.7263979	-0.4917329	0.06013342	-0.0672051	0.02847765	-0.02375458	0.0472353	-0.0455228
	0.04197054	-0.05022189	0.02847765	-0.02375458	0.05988991	-0.08158508	-0.7219725	-0.4904616
	0.02847228	-0.02378353	0.0472353	-0.0455228	-0.7219725	-0.4904616	0.06715567	-0.07384992
1.1e+08	0.01075295	-0.04385199	-0.8415852	0.2485731	0.01345122	0.005003658	-0.005046107	-0.03632108
	-0.8415852	0.2485731	0.01375241	-0.04253015	-0.00502944	-0.03631415	0.0134631	0.006467294
	0.01345122	0.005003657	-0.005029441	-0.03631416	0.01424558	-0.0504595	-0.8380552	0.245824
	-0.005046107	-0.03632108	0.0134631	0.006467293	-0.8380552	0.245824	0.01792779	-0.04879774
1.2e+08	0.04638778	-0.01086078	-0.3394157	0.8028262	0.07350704	0.02149099	-0.02895059	-0.02065322
	-0.3394157	0.8028262	0.04374574	-0.003237507	-0.02892532	-0.02064941	0.07076229	0.03006973
	0.07350705	0.02149099	-0.02892532	-0.02064941	0.05060563	-0.01526302	-0.3392571	0.7984561
	-0.02895059	-0.02065322	0.07076229	0.03006973	-0.3392571	0.7984561	0.04860308	-0.007490949
1.3e+08	0.07449778	-0.05409423	0.3964106	0.7689691	0.07966926	-0.0404883	-0.04090197	0.008490896
	0.3964106	0.7689691	0.07959472	-0.04043396	-0.04088102	0.008454239	0.08461957	-0.02943466
	0.07966927	-0.04048831	-0.04088102	0.008454239	0.08064775	-0.06030014	0.3929921	0.7659293
	-0.04090197	0.008490896	0.08461958	-0.02943467	0.3929921	0.7659293	0.08630038	-0.046336
1.4e+08	0.02834985	-0.08278302	0.8442149	0.1876337	0.01915839	-0.03782802	-0.01752354	0.0438061
	0.8442149	0.1876337	0.03901855	-0.0771709	-0.01755185	0.04377754	0.02527117	-0.03442613
	0.01915839	-0.03782803	-0.01755185	0.04377755	0.03228354	-0.09156252	0.8395741	0.1886539
	-0.01752354	0.0438061	0.02527117	-0.03442613	0.8395741	0.1886539	0.04383201	-0.08551606
1.5e+08	0.004664843	-0.03804833	0.6804031	-0.5322552	0.03294061	0.02004936	0.02495066	0.03851615
	0.6804031	-0.5322552	0.006237847	-0.03598639	0.02492357	0.03851426	0.03048159	0.02442748
	0.03294061	0.02004936	0.02492357	0.03851426	0.005946493	-0.04510749	0.6785275	-0.5280183
	0.02495066	0.03851615	0.03048159	0.02442748	0.6785275	-0.5280183	0.008633109	-0.04296361
1.6e+08	0.05075199	-0.02546243	0.02236417	-0.85735	0.08760629	-0.00535407	0.04514144	0.008776331
	0.02236417	-0.85735	0.0506222	-0.01233814	0.04510276	0.008796515	0.08760012	0.00872523
	0.0876063	-0.005354075	0.04510276	0.008796516	0.05373437	-0.03085539	0.02434976	-0.8532694
	0.04514145	0.008776331	0.08760013	0.008725226	0.02434976	-0.8532694	0.05443649	-0.01780027
1.7e+08	0.05704973	-0.07708934	-0.6405771	-0.5637427	0.05443666	-0.05507163	0.04152844	-0.03261014
	-0.6405771	-0.5637427	0.06914028	-0.0628645	0.04153526	-0.03255102	0.06387021	-0.04423736
	0.05443666	-0.05507164	0.04153526	-0.03255102	0.06108063	-0.08510236	-0.6359548	-0.5626011
	0.04152844	-0.03261014	0.06387021	-0.04423736	-0.6359548	-0.5626011	0.07405022	-0.07059825
1.8e+08	0.003129082	-0.08248959	-0.8429784	0.1324359	0.01210685	-0.01598286	-0.003797047	-0.0567274
	-0.8429784	0.1324359	0.01520964	-0.08028033	-0.003748118	-0.05671269	0.01654705	-0.01353668
	0.01210684	-0.01598287	-0.003748118	-0.05671269	0.003971206	-0.09199238	-0.8391824	0.1292506
	-0.003797047	-0.05672741	0.01654705	-0.01353669	-0.8391824	0.1292506	0.01748203	-0.08960106
1.9e+08	0.00323923	-0.03269386	-0.4324157	0.7329431	0.05876375	0.01742513	-0.04549849	-0.03055194
	-0.4324157	0.7329431	0.003525358	-0.02765348	-0.04545728	-0.03056401	0.05519497	0.02755713
	0.05876375	0.01742513	-0.04545728	-0.03056401	0.002433079	-0.03948415	-0.4327071	0.7281145
	-0.04549849	-0.03055194	0.05519498	0.02755713	-0.4327071	0.7281145	0.004119635	-0.03486569
2e+08	0.05027067	-0.04370933	0.2864641	0.7953635	0.0835042	-0.0355581	-0.05517621	0.01196747
	0.2864641	0.7953635	0.05605744	-0.0262793	-0.05514509	0.01190896	0.08926646	-0.01758823
	0.0835042	-0.0355581	-0.05514509	0.01190896	0.05181327	-0.04982847	0.2826661	0.7925017
	-0.05517621	0.01196748	0.08926646	-0.01758824	0.2826661	0.7925017	0.05854586	-0.03270377
2.1e+08	0.03192471	-0.0937037	0.791578	0.2886994	0.02877304	-0.05185772	-0.02884191	0.05660236
	0.791578	0.2886994	0.05041455	-0.08289875	-0.02889105	0.05654227	0.04099248	-0.04370525
	0.02877303	-0.05185772	-0.02889106	0.05654227	0.03325292	-0.1028128	0.7867022	0.2898351
	-0.02884191	0.05660236	0.04099248	-0.04370525	0.7867022	0.2898351	0.05306479	-0.09189344
2.2e+08	-0.01842514	-0.07330667	0.7270895	-0.424858	0.0226748	0.002863672	0.03083577	0.0581445
	0.7270895	-0.424858	-0.007795374	-0.07397066	0.03077222	0.05815222	0.02370006	0.00693394
	0.0226748	0.002863671	0.03077222	0.05815222	-0.02071039	-0.08241719	0.7250473	-0.4200697
	0.03083577	0.0581445	0.02370006	0.006933938	0.7250473	-0.4200697	-0.0081694	-0.0834968
2.3e+08	0.006166051	-0.03031144	0.1347203	-0.8280113	0.0783522	-0.002414929	0.0621595	0.01297711
	0.1347203	-0.8280113	0.007250031	-0.02050022	0.06210935	0.01302054	0.0771882	0.01505328
	0.0783522	-0.002414931	0.06210935	0.01302054	0.003621396	-0.03628098	0.1372593	-0.823612
	0.0621595	0.01297711	0.0771882	0.01505328	0.1372593	-0.823612	0.006130185	-0.02750496
2.4e+08	0.04266982	-0.06388202	-0.5476644	-0.6294508	0.06379534	-0.0572576	0.05490693	-0.03835246
	-0.5476644	-0.6294508	0.05668421	-0.04548306	0.05491438	-0.03826084	0.07678394	-0.038869
	0.06379534	-0.0572576	0.05491438	-0.03826084	0.04255823	-0.07042065	-0.542733	-0.6285149
	0.05490694	-0.03835246	0.07678394	-0.03886901	-0.542733	-0.6285149	0.0576204	-0.05254229
2.5e+08	0.001705198	-0.1000976	-0.8322115	0.0177608	0.01384474	-0.03534434	0.003824646	-0.07356292
	-0.8322115	0.0177608	0.02362437	-0.09559035	0.00391406	-0.07352769	0.02560184	-0.0304229
	0.01384473	-0.03534435	0.00391406	-0.07352769	-3.599102e-06	-0.1093534	-0.828119	0.01439338
	0.003824646	-0.07356292	0.02560184	-0.0304229	-0.828119	0.01439338	0.02373651	-0.105159
2.6e+08	-0.0320881	-0.05762702	-0.5165174	0.6511747	0.04448966	0.008269266	-0.05745868	-0.04660629
	-0.5165174	0.6511747	-0.02458234	-0.05871314	-0.05738612	-0.04664518	0.04271877	0.01779669
	0.04448966	0.008269265	-0.05738612	-0.04664519	-0.03710332	-0.06530623	-0.5168215	0.6456926
	-0.05745868	-0.04660629	0.04271876	0.01779669	-0.5168215	0.6456926	-0.02749108	-0.06769331
2.7e+08	0.01121076	-0.0334973	0.1714569	0.8097629	0.08266561	-0.03146696	-0.07118712	0.01207512
	0.1714569	0.8097629	0.01636058	-0.01887496	-0.07115142	0.01198594	0.08827015	-0.007695
	0.08266561	-0.03146696	-0.07115142	0.01198594	0.007373935	-0.03831744	0.1670285	0.806756
	-0.07118712	0.01207512	0.08827015	-0.007695003	0.1670285	0.806756	0.01371284	-0.02527806
2.8e+08	0.0261801	-0.08245241	0.7290862	0.3845345	0.03768084	-0.0632457	-0.04166162	0.06528743
	0.7290862	0.3845345	0.04841928	-0.06750007	-0.04173041	0.06519049	0.05671613	-0.04827997
	0.03768084	-0.0632457	-0.04173041	0.06519049	0.02421842	-0.08899559	0.7239404	0.385899
	-0.04166162	0.06528743	0.05671613	-0.04827997	0.7239404	0.385899	0.04766349	-0.07480618
2.9e+08	-0.02839882	-0.09379519	0.7602795	-0.3138808	0.01518569	-0.01582832	0.02899976	0.07770856
	0.7602795	-0.3138808	-0.007240069	-0.09606373	0.02888423	0.07771781	0.02338203	-0.01192332
	0.01518568	-0.01582832	0.02888423	0.07771782	-0.03310517	-0.1021221	0.7579231	-0.3087679
	0.02899976	0.07770856	0.02338203	-0.01192333	0.7579231	-0.3087679	-0.009740789	-0.1054667
3e+08	-0.03538012	-0.04047128	0.2430483	-0.7837822	0.06637839	-0.003648823	0.07795701	0.02374447
	0.2430483	-0.7837822	-0.03048089	-0.03887473	0.07788726	0.02382765	0.06535987	0.01448583
	0.06637839	-0.003648823	0.07788726	0.02382765	-0.04237918	-0.04594035	0.2458504	-0.7787046
	0.07795701	0.02374447	0.06535987	0.01448583	0.2458504	-0.7787046	-0.03561276	-0.04662267
3.1e+08	0.01430301	-0.04328371	-0.4462187	-0.6849734	0.06983515	-0.05831437	0.06975789	-0.04146193
	-0.4462187	-0.6849734	0.02654624	-0.02605642	0.06977261	-0.04133297	0.08542924	-0.03205195
	0.06983515	-0.05831437	0.06977261	-0.04133297	0.009599985	-0.04681992	-0.4406364	-0.684094
	0.06975789	-0.04146193	0.08542924	-0.03205195	-0.4406364	-0.684094	0.02264855	-0.03153801
3.2e+08	0.001226917	-0.09431583	-0.8093326	-0.09469521	0.01642843	-0.05381187	0.01526117	-0.08631093
	-0.8093326	-0.09469521	0.02902376	-0.08669029	0.01539237	-0.086247	0.03787549	-0.04451761
	0.01642843	-0.05381187	0.01539238	-0.086247	-0.002679103	-0.1003115	-0.8049921	-0.09832903
	0.01526117	-0.08631093	0.03787549	-0.04451761	-0.8049921	-0.09832903	0.02653321	-0.09382735
3.3e+08	-0.05164934	-0.07570822	-0.5887418	0.5605242	0.03059703	-0.004451476	-0.06260786	-0.06630839
	-0.5887418	0.5605242	-0.03492392	-0.08249693	-0.06248526	-0.06637474	0.03430253	0.002911007
	0.03059703	-0.004451476	-0.06248526	-0.06637474	-0.05889012	-0.08208344	-0.5888075	0.5545405
	-0.06260786	-0.06630839	0.03430252	0.002911006	-0.5888075	0.5545405	-0.03991073	-0.09099141
3.4e+08	-0.02924292	-0.02791678	0.05505681	0.8087703	0.07758949	-0.02904495	-0.08839384	0.00681067
	0.05505681	0.8087703	-0.02428864	-0.02148745	-0.08835398	0.006673745	0.08290879	-0.001821012
	0.07758949	-0.02904495	-0.08835399	0.006673747	-0.03729054	-0.03076485	0.0500959	0.8051819
	-0.08839384	0.006810671	0.08290879	-0.001821013	0.0500959	0.8051819	-0.031144	-0.02742796
3.5e+08	0.01085112	-0.0577976	0.6551854	0.4730698	0.04536058	-0.07331182	-0.05592393	0.07107565
	0.6551854	0.4730698	0.031525	-0.04191546	-0.05601804	0.07094018	0.07128706	-0.04991729
	0.04536058	-0.07331182	-0.05601804	0.07094018	0.005623074	-0.06003171	0.6494413	0.4746918
	-0.05592393	0.07107566	0.07128706	-0.04991729	0.6494413	0.4746918	0.02672196	-0.04626472
3.6e+08	-0.02824186	-0.09457118	0.7803917	-0.200907	0.008283074	-0.03610036	0.0210442	0.09494643
	0.7803917	-0.200907	0.0004625862	-0.09602596	0.02087094	0.09494838	0.02756747	-0.0316223
	0.00828307	-0.03610036	0.02087095	0.09494838	-0.03398515	-0.09936775	0.7778114	-0.1954656
	0.0210442	0.09494643	0.02756747	-0.0316223	0.7778114	-0.1954656	-0.003717424	-0.1025724
3.7e+08	-0.06241638	-0.05096862	0.3433342	-0.7265421	0.05161842	-0.008321691	0.08965837	0.04058701
	0.3433342	-0.7265421	-0.05164051	-0.05810041	0.0895528	0.04071939	0.05342558	0.007396164
	0.05161842	-0.00832169	0.0895528	0.04071939	-0.07135573	-0.05460919	0.3460819	-0.7208164
	0.08965838	0.04058701	0.05342558	0.007396164	0.3460819	-0.7208164	-0.05878343	-0.06497754
3.8e+08	-0.01829003	-0.02461362	-0.3382714	-0.7264508	0.07227947	-0.05856636	0.08675736	-0.04081222
	-0.3382714	-0.7264508	-0.009538229	-0.01338462	0.08678665	-0.04063252	0.08945742	-0.02547425
	0.07227947	-0.05856636	0.08678665	-0.04063252	-0.02643763	-0.02481192	-0.3319401	-0.7252108
	0.08675736	-0.04081223	0.08945742	-0.02547425	-0.3319401	-0.7252108	-0.01745038	-0.01711607
3.9e+08	-0.002048595	-0.0720774	-0.7729822	-0.2036837	0.01919239	-0.07256943	0.02911214	-0.09562817
	-0.7729822	-0.2036837	0.02580059	-0.06191412	0.02928866	-0.09553554	0.05231486	-0.05674357
	0.01919238	-0.07256943	0.02928866	-0.09553555	-0.007547567	-0.07302386	-0.7681619	-0.2077395
	0.02911214	-0.09562817	0.05231485	-0.05674357	-0.7681619	-0.2077395	0.02045038	-0.06505225
4e+08	-0.0551172	-0.08124596	-0.6487325	0.4631594	0.01508026	-0.02054789	-0.06065577	-0.08683187
	-0.6487325	0.4631594	-0.03056086	-0.09043311	-0.06047307	-0.086919	0.02901519	-0.01667887
	0.01508025	-0.02054789	-0.06047307	-0.086919	-0.06232043	-0.08419492	-0.6486238	0.4567625
	-0.06065577	-0.08683187	0.02901519	-0.01667887	-0.6486238	0.4567625	-0.0363052	-0.09596122
4.1e+08	-0.05898176	-0.02758892	-0.05845607	0.7924819	0.06747859	-0.02781179	-0.1047115	-0.004972584
	-0.05845607	0.7924819	-0.05267673	-0.03067631	-0.1046575	-0.005172213	0.07340462	-0.000915987
	0.06747859	-0.02781179	-0.1046575	-0.005172212	-0.0685474	-0.02809018	-0.06362709	0.7881921
	-0.1047115	-0.004972583	0.07340461	-0.0009159866	-0.06362709	0.7881921	-0.061429	-0.03531
4.2e+08	-0.009318452	-0.03156833	0.5703469	0.5504533	0.0515625	-0.08161543	-0.07230453	0.07406683
	0.5703469	0.5504533	0.006423992	-0.01806169	-0.07243494	0.07388536	0.08359864	-0.0490328
	0.0515625	-0.08161543	-0.07243494	0.07388536	-0.01674955	-0.0294076	0.5637509	0.5520168
	-0.07230453	0.07406683	0.08359864	-0.0490328	0.5637509	0.5520168	-0.00176847	-0.01942853
4.3e+08	-0.02348747	-0.07961263	0.7862284	-0.08675593	0.00114699	-0.05920402	0.008772658	0.1090469
	0.7862284	-0.08675593	0.007721144	-0.07825953	0.008540759	0.1090414	0.03582111	-0.0527298
	0.001146986	-0.05920402	0.008540761	0.1090414	-0.02904476	-0.07926383	0.783324	-0.08078733
	0.008772658	0.1090469	0.0358211	-0.0527298	0.783324	-0.08078733	0.002126675	-0.08022416
4.4e+08	-0.07164932	-0.05732396	0.4342057	-0.658312	0.03188703	-0.01623524	0.09529234	0.06156266
	0.4342057	-0.658312	-0.05469399	-0.06992614	0.09513823	0.06174131	0.04085874	-0.006775557
	0.03188703	-0.01623524	0.09513823	0.06174131	-0.07966247	-0.05791729	0.4368735	-0.6520821
	0.09529234	0.06156266	0.04085874	-0.006775557	0.4368735	-0.6520821	-0.06177913	-0.07399115
4.5e+08	-0.04482595	-0.01338508	-0.2276015	-0.7523892	0.06958192	-0.05682549	0.1052479	-0.03477399
	-0.2276015	-0.7523892	-0.03892302	-0.009768632	0.1052888	-0.03452683	0.08729992	-0.02009307
	0.06958192	-0.05682549	0.1052888	-0.03452683	-0.05388943	-0.01077748	-0.2207738	-0.7505229
	0.1052479	-0.03477399	0.08729992	-0.02009307	-0.2207738	-0.7505229	-0.04851757	-0.01169781
4.6e+08	-0.008587324	-0.04527116	-0.7223145	-0.3058214	0.02256654	-0.09078243	0.04511681	-0.102182
	-0.7223145	-0.3058214	0.01526613	-0.03371842	0.04534992	-0.1020598	0.06823091	-0.06615518
	0.02256654	-0.09078243	0.04534992	-0.1020598	-0.01470711	-0.04125343	-0.7166764	-0.3101333
	0.04511681	-0.102182	0.06823091	-0.06615518	-0.7166764	-0.3101333	0.007571672	-0.03286051
4.7e+08	-0.04806286	-0.07533593	-0.6953855	0.3596462	-0.003277842	-0.04149966	-0.05252026	-0.1060325
	-0.6953855	0.3596462	-0.01877663	-0.08309666	-0.05227875	-0.1061379	0.02712728	-0.04195283
	-0.003277846	-0.04149966	-0.05227875	-0.1061379	-0.05344278	-0.07365673	-0.6951122	0.3526747
	-0.05252026	-0.1060325	0.02712728	-0.04195283	-0.6951122	0.3526747	-0.02441682	-0.08397686
4.8e+08	-0.07306974	-0.03047737	-0.1669578	0.7622897	0.04944275	-0.02726723	-0.1176204	-0.02299715
	-0.1669578	0.7622897	-0.06388523	-0.04061443	-0.1175382	-0.02326049	0.05842256	-0.00668068
	0.04944274	-0.02726723	-0.1175382	-0.02326049	-0.08104386	-0.02847523	-0.1721973	0.7574255
	-0.1176204	-0.02299715	0.05842256	-0.006680679	-0.1721973	0.7574255	-0.071938	-0.04276764
4.9e+08	-0.02757686	-0.01266501	0.4774165	0.6140071	0.05476169	-0.08555243	-0.09118313	0.07324249
	0.4774165	0.6140071	-0.01698031	-0.002731094	-0.09135315	0.07299883	0.09068749	-0.04511637
	0.05476169	-0.08555243	-0.09135315	0.07299883	-0.03513146	-0.007385368	0.4700833	0.6151452
	-0.09118313	0.07324249	0.09068749	-0.04511637	0.4700833	0.6151452	-0.02647463	-0.001768961
5e+08	-0.01891305	-0.05876379	0.7759629	0.02598411	-0.00493015	-0.08465577	-0.006570623	0.1201559
	0.7759629	0.02598411	0.01131289	-0.0534988	-0.006869042	0.1201482	0.04882167	-0.07361375
	-0.004930152	-0.08465577	-0.006869042	0.1201482	-0.02337503	-0.05348211	0.7723925	0.03247006
	-0.006570621	0.1201559	0.04882166	-0.07361375	0.7723925	0.03247006	0.004755502	-0.05083567
5.1e+08	-0.06758457	-0.05868966	0.5146087	-0.5794569	0.005122653	-0.029045	0.09416351	0.08424363
	0.5146087	-0.5794569	-0.04501457	-0.07241011	0.09396227	0.08446125	0.02813457	-0.03020457
	0.005122649	-0.029045	0.09396227	0.08446125	-0.07247935	-0.05566102	0.5172557	-0.5726432
	0.09416351	0.08424364	0.02813457	-0.03020457	0.5172557	-0.5726432	-0.05059607	-0.07225526
5.2e+08	-0.06029044	-0.01022537	-0.1167637	-0.7633938	0.05800251	-0.05145339	0.1233808	-0.02224585
	-0.1167637	-0.7633938	-0.05522183	-0.01276243	0.1234176	-0.02192559	0.07568393	-0.01789169
	0.05800251	-0.05145339	0.1234176	-0.0219256	-0.06731013	-0.005733545	-0.1096729	-0.760934
	0.1233808	-0.02224585	0.07568392	-0.01789169	-0.1096729	-0.760934	-0.06366516	-0.01262104
5.3e+08	-0.01603163	-0.02426224	-0.6589754	-0.3976094	0.02620993	-0.1044653	0.06371647	-0.1059004
	-0.6589754	-0.3976094	0.003288537	-0.01152369	0.06401597	-0.1057348	0.08258733	-0.06988424
