!$
! Info: Touchstone file created by Circ.  Input file=Tx_PCB_4dB_OSFP_27dB_OSFP_4dB_PCB_Rx_TP0_TP5_VendorX.circ
!$
# Hz S RI R 50
0	0.06425418	-1.17999e-13	-0.0004725573	9.077517e-18	0.01647117	5.582267e-13	-0.0003628095	8.381268e-18
	-0.0004725574	9.071087e-18	0.06071597	2.496001e-13	-4.863902e-05	1.39288e-17	0.01672761	5.969485e-13
	0.01647085	5.57955e-13	-4.863905e-05	1.355438e-17	0.0614203	4.011956e-13	-0.0001689946	1.409638e-17
	-0.0003628095	8.424126e-18	0.01672763	5.974048e-13	-0.0001689946	1.432675e-17	0.06583271	2.675754e-13
1e+07	0.1027469	0.008185408	-0.0004073872	0.0002848005	0.0642572	0.03773877	-0.0003282636	0.000179402
	-0.0004073872	0.0002848001	0.100518	0.009064806	-0.0001171459	-3.849763e-05	0.06419013	0.03779444
	0.06425711	0.03773878	-0.000117147	-3.849507e-05	0.0996825	0.007584398	-0.0001879327	4.872906e-05
	-0.0003282638	0.0001794026	0.06419014	0.03779445	-0.0001879325	4.872889e-05	0.1087147	0.01080886
2e+07	0.09998245	-0.05159746	-0.0001454995	0.0004660392	0.09334051	-0.02145888	-0.0002073837	0.0003324672
	-0.0001455	0.0004660391	0.0983075	-0.05045399	-0.0002042933	6.326303e-05	0.0928712	-0.0205512
	0.09334043	-0.02145879	-0.0002042913	6.326462e-05	0.09606439	-0.05081108	-0.0002065934	0.0001404544
	-0.0002073832	0.0003324676	0.09287122	-0.02055121	-0.0002065935	0.0001404541	0.1082095	-0.0518958
3e+07	0.03537409	-0.05515788	0.0001107267	0.0005761862	0.02838477	-0.042544	-3.447361e-05	0.0005836787
	0.0001107266	0.0005761867	0.03372218	-0.05479096	-0.0001860711	0.0003389834	0.02837301	-0.04085902
	0.02838477	-0.04254394	-0.0001860692	0.0003389822	0.03304771	-0.05362365	-0.0001660722	0.0004346109
	-3.447314e-05	0.0005836784	0.02837301	-0.04085903	-0.0001660724	0.0004346109	0.04095122	-0.05827373
4e+07	0.0328636	0.003618884	0.0006924256	0.0004239392	0.01856541	0.02494359	0.0006488519	0.0005221205
	0.000692426	0.0004239396	0.02939103	0.004467003	0.0002874759	0.0004595662	0.01891146	0.02650739
	0.01856538	0.0249436	0.0002874757	0.0004595642	0.03082376	0.003575372	0.0004132618	0.000518281
	0.0006488519	0.00052212	0.01891146	0.0265074	0.0004132617	0.0005182811	0.03537498	0.0030662
5e+07	0.08778164	-0.002269927	0.0007803249	-0.00030559	0.08606424	0.02247724	0.0007848239	-0.0002202739
	0.0007803255	-0.0003055902	0.08449512	0.001376863	0.0005454418	3.518001e-05	0.08558023	0.02412069
	0.0860642	0.0224773	0.0005454401	3.517931e-05	0.08401433	-0.0020154	0.0006442508	-1.587738e-05
	0.0007848235	-0.000220274	0.08558024	0.02412069	0.0006442507	-1.58771e-05	0.09295246	0.0001804499
6e+07	0.07850738	-0.05786021	0.0004433283	-0.0007083267	0.07436122	-0.04349649	0.0005505282	-0.0006131382
	0.0004433283	-0.0007083273	0.07805163	-0.05419285	0.0005108358	-0.0003355461	0.07364358	-0.04026339
	0.07436123	-0.04349643	0.0005108345	-0.0003355449	0.07529632	-0.05569757	0.0006120443	-0.0004047407
	0.0005505279	-0.000613138	0.07364358	-0.0402634	0.0006120446	-0.0004047405	0.08676799	-0.05854879
7e+07	0.02511205	-0.04807565	-0.0001959799	-0.001135084	0.01165842	-0.02266787	-4.658872e-05	-0.001230887
	-0.0001959804	-0.001135084	0.02371892	-0.04711243	0.0001120288	-0.0008670732	0.0122373	-0.01890953
	0.01165843	-0.02266785	0.0001120292	-0.0008670717	0.02366858	-0.04662155	0.000128721	-0.001104751
	-4.658863e-05	-0.001230886	0.01223729	-0.01890953	0.0001287212	-0.001104751	0.02951624	-0.0521933
8e+07	0.04149344	-0.0008141208	-0.001268145	-0.0005092577	0.04388511	0.03450845	-0.00130297	-0.0006334316
	-0.001268145	-0.0005092576	0.03668974	0.002300191	-0.0008001184	-0.0005829273	0.04433982	0.0373554
	0.04388509	0.03450848	-0.0008001171	-0.0005829268	0.03890083	-0.0007673758	-0.001044855	-0.000698088
	-0.00130297	-0.0006334315	0.04433983	0.03735541	-0.001044855	-0.0006980882	0.04228051	-0.0005710509
9e+07	0.08620105	-0.02582317	-0.001086732	0.0006149378	0.09472669	-0.007221036	-0.00112348	0.0005462535
	-0.001086733	0.0006149384	0.0838154	-0.01853776	-0.0008667499	0.0002134098	0.09362964	-0.003399884
	0.09472669	-0.007220988	-0.0008667488	0.0002134089	0.08238855	-0.02411482	-0.001054824	0.0002909957
	-0.00112348	0.0005462534	0.09362965	-0.003399891	-0.001054824	0.0002909955	0.09172268	-0.02220779
1e+08	0.05874867	-0.07195618	-0.0005502975	0.001222805	0.04737312	-0.0516054	-0.0007183644	0.00115898
	-0.000550297	0.001222805	0.06013342	-0.0672051	-0.0006420376	0.000795733	0.0472353	-0.0455228
	0.04737314	-0.05160538	-0.0006420378	0.0007957316	0.05680892	-0.06910479	-0.0008311805	0.0009947818
	-0.0007183644	0.001158979	0.0472353	-0.0455228	-0.0008311808	0.0009947818	0.06715567	-0.07384992
1.1e+08	0.01607621	-0.04437434	0.0007801654	0.001601748	0.01172756	0.001178993	0.0006591753	0.001801148
	0.000780166	0.001601748	0.01375241	-0.04253015	0.0003480986	0.001306622	0.0134631	0.006467294
	0.01172756	0.001179001	0.0003480975	0.001306622	0.01489059	-0.04343467	0.0004724418	0.001704627
	0.000659175	0.001801148	0.0134631	0.006467293	0.0004724417	0.001704627	0.01792779	-0.04879774
1.2e+08	0.0490022	-0.01030177	0.001866411	0.0001448448	0.07066187	0.02597464	0.001978881	0.0002580462
	0.001866412	0.0001448443	0.04374574	-0.003237507	0.00132734	0.0003507282	0.07076229	0.03006973
	0.07066186	0.02597467	0.001327339	0.0003507288	0.04571414	-0.009531496	0.001727799	0.0003899913
	0.001978881	0.0002580463	0.07076229	0.03006973	0.001727799	0.0003899915	0.04860308	-0.007490949
1.3e+08	0.07919636	-0.05065896	0.001218777	-0.001121776	0.08601156	-0.03633301	0.001284143	-0.001053264
	0.001218777	-0.001121776	0.07959472	-0.04043396	0.001052117	-0.000618833	0.08461957	-0.02943466
	0.08601158	-0.03633298	0.001052117	-0.0006188318	0.0760803	-0.04754967	0.001301437	-0.0007952917
	0.001284143	-0.001053264	0.08461958	-0.02943467	0.001301437	-0.0007952916	0.08630038	-0.046336
1.4e+08	0.03646188	-0.08185672	0.0002972001	-0.001893355	0.02369762	-0.04330162	0.000545309	-0.001904312
	0.0002971994	-0.001893355	0.03901855	-0.0771709	0.000498616	-0.001389001	0.02527117	-0.03442613
	0.02369764	-0.04330161	0.000498617	-0.001389001	0.03563314	-0.07908085	0.0006556783	-0.001792
	0.0005453092	-0.001904312	0.02527117	-0.03442613	0.0006556785	-0.001792001	0.04383201	-0.08551606
1.5e+08	0.0100299	-0.04015289	-0.00172311	-0.001657674	0.02769067	0.01831064	-0.001696174	-0.00196377
	-0.001723111	-0.001657673	0.006237847	-0.03598639	-0.001105598	-0.001443894	0.03048159	0.02442748
	0.02769067	0.01831065	-0.001105597	-0.001443894	0.008443471	-0.03940331	-0.00149181	-0.001863973
	-0.001696174	-0.00196377	0.03048159	0.02442748	-0.00149181	-0.001863974	0.008633109	-0.04296361
1.6e+08	0.05419773	-0.02412955	-0.002235712	0.0005713017	0.08837802	0.00257854	-0.002414175	0.0005066454
	-0.002235712	0.0005713023	0.0506222	-0.01233814	-0.001701316	0.0001640267	0.08760012	0.00872523
	0.08837803	0.002578564	-0.001701316	0.0001640258	0.05069569	-0.02202644	-0.002177702	0.0003038835
	-0.002414175	0.0005066452	0.08760013	0.008725226	-0.002177702	0.0003038833	0.05443649	-0.01780027
1.7e+08	0.06506243	-0.07417091	-0.001122107	0.001757685	0.06443902	-0.05515819	-0.00123866	0.001683715
	-0.001122106	0.001757686	0.06914028	-0.0628645	-0.001068385	0.001149156	0.06387021	-0.04423736
	0.06443904	-0.05515818	-0.001068385	0.001149155	0.06321387	-0.07013034	-0.001323993	0.00146491
	-0.00123866	0.001683715	0.06387021	-0.04423736	-0.001323993	0.00146491	0.07405022	-0.07059825
1.8e+08	0.01292127	-0.08487748	0.0004268611	0.002496578	0.01231406	-0.02439556	0.0001213992	0.002659107
	0.0004268616	0.002496577	0.01520964	-0.08028033	2.980754e-05	0.00195976	0.01654705	-0.01353668
	0.01231406	-0.02439555	2.98066e-05	0.00195976	0.01277635	-0.08255477	5.484167e-05	0.002552059
	0.000121399	0.002659107	0.01654705	-0.01353669	5.484162e-05	0.002552059	0.01748203	-0.08960106
1.9e+08	0.007872775	-0.0360408	0.002719572	0.001130631	0.05220931	0.0208304	0.002865085	0.001494321
	0.002719572	0.00113063	0.003525358	-0.02765348	0.001942177	0.00112138	0.05519497	0.02755713
	0.05220931	0.02083041	0.001942176	0.001121381	0.005735177	-0.0349123	0.002593747	0.001386341
	0.002865085	0.001494321	0.05519498	0.02755713	0.002593747	0.001386341	0.004119635	-0.03486569
2e+08	0.05552735	-0.04188291	0.002251824	-0.0014611	0.09075491	-0.02734225	0.002462484	-0.001471266
	0.002251824	-0.001461101	0.05605744	-0.0262793	0.001816063	-0.0008428382	0.08926646	-0.01758823
	0.09075492	-0.02734223	0.001816063	-0.0008428374	0.05254195	-0.0383177	0.002269479	-0.001185899
	0.002462484	-0.001471266	0.08926646	-0.01758824	0.002269479	-0.001185899	0.05854586	-0.03270377
2.1e+08	0.04342371	-0.09345751	0.0007263985	-0.002453778	0.03890966	-0.05883851	0.0009352348	-0.002399417
	0.0007263979	-0.002453778	0.05041455	-0.08289875	0.0008467874	-0.001760148	0.04099248	-0.04370525
	0.03890968	-0.0588385	0.0008467882	-0.001760148	0.04304105	-0.08915124	0.001041865	-0.00224688
	0.0009352349	-0.002399417	0.04099248	-0.04370525	0.001041865	-0.00224688	0.05306479	-0.09189344
2.2e+08	-0.008916447	-0.07996936	-0.001584326	-0.002734822	0.01673166	-0.00465296	-0.001316743	-0.00312083
	-0.001584326	-0.002734822	-0.007795374	-0.07397066	-0.0009370696	-0.002267077	0.02370006	0.00693394
	0.01673166	-0.004652954	-0.0009370689	-0.002267078	-0.008878928	-0.07813601	-0.001277846	-0.002939248
	-0.001316743	-0.00312083	0.02370006	0.006933938	-0.001277846	-0.002939248	-0.0081694	-0.0834968
2.3e+08	0.009737671	-0.03407087	-0.003426944	-6.571362e-05	0.07500494	0.006813119	-0.003788318	-0.0003773983
	-0.003426944	-6.57132e-05	0.007250031	-0.02050022	-0.002587253	-0.0003543567	0.0771882	0.01505328
	0.07500495	0.006813134	-0.002587253	-0.0003543575	0.007294945	-0.03202925	-0.003398405	-0.0003173652
	-0.003788318	-0.0003773985	0.0771882	0.01505328	-0.003398405	-0.0003173653	0.006130185	-0.02750496
2.4e+08	0.05079882	-0.06254141	-0.001905266	0.002356241	0.07754347	-0.05382058	-0.002109461	0.002435937
	-0.001905266	0.002356241	0.05668421	-0.04548306	-0.00165476	0.001560306	0.07678394	-0.038869
	0.07754348	-0.05382058	-0.00165476	0.001560305	0.0490109	-0.05779956	-0.002004773	0.002082606
	-0.002109461	0.002435937	0.07678394	-0.03886901	-0.002004773	0.002082606	0.0576204	-0.05254229
2.5e+08	0.01552292	-0.1049822	4.507371e-05	0.003089987	0.01905919	-0.04875912	-0.0002839627	0.003135809
	4.507414e-05	0.003089987	0.02362437	-0.09559035	-0.0003121342	0.002363971	0.02560184	-0.0304229
	0.0190592	-0.04875912	-0.0003121349	0.002363971	0.01643847	-0.1010162	-0.0003452959	0.003026057
	-0.0002839629	0.003135809	0.02560184	-0.0304229	-0.0003452959	0.003026057	0.02373651	-0.105159
2.6e+08	-0.02529109	-0.06817057	0.002949976	0.002352384	0.0339036	0.006318677	0.002883606	0.002960966
	0.002949976	0.002352384	-0.02458234	-0.05871314	0.002061444	0.002088193	0.04271877	0.01779669
	0.0339036	0.006318686	0.002061443	0.002088193	-0.025422	-0.06655415	0.002773534	0.002650615
	0.002883606	0.002960966	0.04271876	0.01779669	0.002773534	0.002650615	-0.02749108	-0.06769331
2.7e+08	0.0142246	-0.03672101	0.003603552	-0.001315051	0.08697144	-0.01932339	0.004141657	-0.001189043
	0.003603551	-0.001315051	0.01636058	-0.01887496	0.002838058	-0.0006964969	0.08827015	-0.007695
	0.08697145	-0.01932337	0.002838059	-0.0006964964	0.01202009	-0.03347362	0.003639073	-0.001096344
	0.004141657	-0.001189043	0.08827015	-0.007695003	0.003639074	-0.001096344	0.01371284	-0.02527806
2.8e+08	0.03786466	-0.08359143	0.00123576	-0.003146384	0.05415445	-0.06905635	0.001423909	-0.003267069
	0.001235759	-0.003146384	0.04841928	-0.06750007	0.001238932	-0.002233732	0.05671613	-0.04827997
	0.05415446	-0.06905635	0.001238933	-0.002233732	0.03771012	-0.07825581	0.00143263	-0.002897252
	0.00142391	-0.003267069	0.05671613	-0.04827997	0.00143263	-0.002897253	0.04766349	-0.07480618
2.9e+08	-0.01513966	-0.1056462	-0.001222448	-0.003467774	0.01147624	-0.03154978	-0.0008186833	-0.003738455
	-0.001222448	-0.003467773	-0.007240069	-0.09606373	-0.0005826427	-0.002801545	0.02338203	-0.01192332
	0.01147625	-0.03154978	-0.0005826423	-0.002801546	-0.01332811	-0.1023919	-0.0008337956	-0.003580635
	-0.0008186832	-0.003738455	0.02338203	-0.01192333	-0.0008337957	-0.003580635	-0.009740789	-0.1054667
3e+08	-0.03317289	-0.05291673	-0.00416216	-0.001251731	0.05596894	0.002782594	-0.004460822	-0.001953768
	-0.00416216	-0.001251731	-0.03048089	-0.03887473	-0.003115798	-0.001317099	0.06535987	0.01448583
	0.05596895	0.002782604	-0.003115798	-0.001317099	-0.03353196	-0.05110766	-0.004134829	-0.00155983
	-0.004460822	-0.001953768	0.06535987	0.01448583	-0.004134829	-0.00155983	-0.03561276	-0.04662267
3.1e+08	0.01818249	-0.04563977	-0.003173792	0.002720381	0.08354891	-0.04915184	-0.003762715	0.002867542
	-0.003173791	0.002720381	0.02654624	-0.02605642	-0.002619763	0.001805892	0.08542924	-0.03205195
	0.08354892	-0.04915183	-0.002619764	0.001805892	0.01686248	-0.04124638	-0.003241517	0.00253078
	-0.003762715	0.002867542	0.08542924	-0.03205195	-0.003241517	0.00253078	0.02264855	-0.03153801
3.2e+08	0.01583566	-0.1008672	-0.0002743999	0.003759096	0.02912227	-0.070134	-0.0004791093	0.003912859
	-0.0002743995	0.003759096	0.02902376	-0.08669029	-0.0005813172	0.002810654	0.03787549	-0.04451761
	0.02912228	-0.07013399	-0.0005813178	0.002810655	0.01741282	-0.09563031	-0.0005741379	0.003581069
	-0.0004791095	0.003912859	0.03787549	-0.04451761	-0.0005741378	0.00358107	0.02653321	-0.09382735
3.3e+08	-0.04310899	-0.09442372	0.002717408	0.003338866	0.0174783	-0.01613392	0.002400727	0.003930803
	0.002717408	0.003338866	-0.03492392	-0.08249693	0.001791118	0.002856828	0.03430253	0.002911007
	0.0174783	-0.01613391	0.001791118	0.002856829	-0.04084756	-0.09196313	0.002424273	0.00361094
	0.002400727	0.003930803	0.03430252	0.002911006	0.002424273	0.00361094	-0.03991073	-0.09099141
3.4e+08	-0.03185274	-0.03928994	0.004840654	-0.0004448787	0.07354899	-0.01535296	0.005563639	0.0001062405
	0.004840654	-0.0004448789	-0.02428864	-0.02148745	0.003780553	2.908661e-05	0.08290879	-0.001821012
	0.073549	-0.01535295	0.003780553	2.908699e-05	-0.03220399	-0.03694752	0.004925846	-0.0002020833
	0.005563639	0.0001062406	0.08290879	-0.001821013	0.004925846	-0.0002020833	-0.031144	-0.02742796
3.5e+08	0.01739181	-0.06039563	0.002211138	-0.003895865	0.06584194	-0.07362285	0.002694789	-0.004302499
	0.002211137	-0.003895865	0.031525	-0.04191546	0.00197938	-0.002771634	0.07128706	-0.04991729
	0.06584195	-0.07362285	0.00197938	-0.002771634	0.01749976	-0.05525136	0.002304826	-0.003713548
	0.00269479	-0.004302499	0.07128706	-0.04991729	0.002304826	-0.003713548	0.02672196	-0.04626472
3.6e+08	-0.01360776	-0.1094274	-0.0009683779	-0.004110362	0.01063685	-0.05961872	-0.0007123599	-0.004355109
	-0.000968378	-0.004110362	0.0004625862	-0.09602596	-0.0003289298	-0.003227333	0.02756747	-0.0316223
	0.01063686	-0.05961872	-0.0003289295	-0.003227333	-0.01051171	-0.1049038	-0.0005946036	-0.004062362
	-0.0007123598	-0.004355109	0.02756747	-0.0316223	-0.0005946037	-0.004062362	-0.003717424	-0.1025724
3.7e+08	-0.06252605	-0.07363211	-0.004281043	-0.002489544	0.03302591	-0.01023766	-0.00429807	-0.003367012
	-0.004281043	-0.002489543	-0.05164051	-0.05810041	-0.003124468	-0.002325548	0.05342558	0.007396164
	0.03302592	-0.01023766	-0.003124468	-0.002325549	-0.06013865	-0.07182473	-0.004154219	-0.002845625
	-0.00429807	-0.003367012	0.05342558	0.007396164	-0.004154219	-0.002845625	-0.05878343	-0.06497754
3.8e+08	-0.02377542	-0.03229836	-0.004720178	0.002420114	0.07917747	-0.04297387	-0.005747924	0.002282257
	-0.004720178	0.002420115	-0.009538229	-0.01338462	-0.003821188	0.001529632	0.08945742	-0.02547425
	0.07917748	-0.04297387	-0.003821189	0.001529631	-0.02369868	-0.02930485	-0.004845367	0.002272693
	-0.005747924	0.002282257	0.08945742	-0.02547425	-0.004845367	0.002272694	-0.01745038	-0.01711607
3.9e+08	0.008053198	-0.07782946	-0.000868881	0.004682407	0.03966684	-0.08632579	-0.001146045	0.005242746
	-0.0008688807	0.004682407	0.02580059	-0.06191412	-0.001031103	0.003467822	0.05231486	-0.05674357
	0.03966685	-0.08632579	-0.001031103	0.003467822	0.009882401	-0.072547	-0.00101238	0.004496983
	-0.001146045	0.005242746	0.05231485	-0.05674357	-0.001012379	0.004496984	0.02045038	-0.06505225
4e+08	-0.0456966	-0.1054091	0.002466965	0.004066411	0.003550279	-0.04409103	0.002201491	0.004515881
	0.002466965	0.00406641	-0.03056086	-0.09043311	0.001497921	0.003368947	0.02901519	-0.01667887
	0.003550284	-0.04409103	0.001497921	0.003368948	-0.04148998	-0.1020126	0.002090957	0.004188051
	0.002201491	0.004515881	0.02901519	-0.01667887	0.002090957	0.004188051	-0.0363052	-0.09596122
4.1e+08	-0.06940625	-0.04889343	0.005526591	0.0008507609	0.05059156	-0.01771373	0.006090003	0.001785878
	0.00552659	0.0008507607	-0.05267673	-0.03067631	0.004260478	0.001118108	0.07340462	-0.000915987
	0.05059157	-0.01771373	0.004260478	0.001118108	-0.067016	-0.04751659	0.005576591	0.001184039
	0.006090003	0.001785878	0.07340461	-0.0009159866	0.005576592	0.001184039	-0.061429	-0.03531
4.2e+08	-0.01411413	-0.03488103	0.003741062	-0.004263073	0.06970921	-0.07194328	0.004793473	-0.004683251
	0.003741061	-0.004263073	0.006423992	-0.01806169	0.003172935	-0.003025875	0.08359864	-0.0490328
	0.06970922	-0.07194329	0.003172936	-0.003025876	-0.01317164	-0.03139465	0.00383929	-0.004182827
	0.004793473	-0.004683251	0.08359864	-0.0490328	0.00383929	-0.004182827	-0.00176847	-0.01942853
4.3e+08	-0.01139582	-0.0924959	-0.0006951058	-0.005013865	0.01301655	-0.08549405	-0.000623157	-0.005607283
	-0.000695106	-0.005013865	0.007721144	-0.07825953	-0.0001094824	-0.003846032	0.03582111	-0.0527298
	0.01301656	-0.08549405	-0.0001094822	-0.003846032	-0.007853633	-0.08774321	-0.0004695367	-0.004850016
	-0.000623157	-0.005607283	0.0358211	-0.0527298	-0.0004695368	-0.004850016	0.002126675	-0.08022416
4.4e+08	-0.07350546	-0.08809612	-0.004117345	-0.003446686	0.007926101	-0.03135428	-0.004012032	-0.004181701
	-0.004117345	-0.003446686	-0.05469399	-0.06992614	-0.002865653	-0.003064435	0.04085874	-0.006775557
	0.007926108	-0.03135428	-0.002865654	-0.003064435	-0.06864808	-0.08601379	-0.003833151	-0.003725611
	-0.004012032	-0.004181701	0.04085874	-0.006775557	-0.003833151	-0.003725611	-0.06177913	-0.07399115
4.5e+08	-0.06353608	-0.02753034	-0.006029333	0.001414693	0.06200962	-0.03750218	-0.007168996	0.0007927416
	-0.006029333	0.001414693	-0.03892302	-0.009768632	-0.004830008	0.0006539063	0.08729992	-0.02009307
	0.06200963	-0.03750217	-0.004830008	0.0006539063	-0.06109093	-0.02642047	-0.006195977	0.001194244
	-0.007168996	0.0007927417	0.08729992	-0.02009307	-0.006195977	0.001194244	-0.04851757	-0.01169781
4.6e+08	-0.009151235	-0.0464755	-0.002058118	0.005602256	0.04703081	-0.09409893	-0.002812775	0.006518105
	-0.002058117	0.005602256	0.01526613	-0.03371842	-0.001951988	0.004155583	0.06823091	-0.06615518
	0.04703082	-0.09409894	-0.001951988	0.004155583	-0.007039208	-0.04288047	-0.002108925	0.005523599
	-0.002812775	0.006518105	0.06823091	-0.06615518	-0.002108925	0.005523599	0.007571672	-0.03286051
4.7e+08	-0.03892314	-0.09832951	0.002361788	0.00487129	-0.00702332	-0.07412994	0.002428613	0.005450417
	0.002361788	0.00487129	-0.01877663	-0.08309666	0.00136641	0.00389394	0.02712728	-0.04195283
	-0.007023314	-0.07412994	0.00136641	0.003893941	-0.03393532	-0.09468623	0.002048527	0.004786321
	0.002428613	0.005450417	0.02712728	-0.04195283	0.002048527	0.004786321	-0.02441682	-0.08397686
4.8e+08	-0.09026026	-0.06105628	0.005679095	0.002082137	0.01948752	-0.02754238	0.005987075	0.003030075
	0.005679094	0.002082137	-0.06388523	-0.04061443	0.004244213	0.002138515	0.05842256	-0.00668068
	0.01948752	-0.02754238	0.004244213	0.002138516	-0.08515557	-0.06030588	0.005560021	0.002445297
	0.005987075	0.003030075	0.05842256	-0.006680679	0.005560021	0.002445297	-0.071938	-0.04276764
4.9e+08	-0.04900343	-0.01599172	0.005479618	-0.003902924	0.06122462	-0.06431175	0.006960052	-0.003949053
	0.005479617	-0.003902924	-0.01698031	-0.002731094	0.004555845	-0.002665716	0.09068749	-0.04511637
	0.06122463	-0.06431176	0.004555846	-0.002665716	-0.04637538	-0.01512564	0.005658927	-0.003822561
