!$
! Info: Touchstone file created by Circ.  Input file=Tx_PCB_4dB_OSFP_22dB_OSFP_4dB_PCB_Rx_TP0_TP5_VendorX.circ
!$
# Hz S RI R 50
0	0.05585561	2.090113e-13	2.257601e-06	-1.113912e-18	0.01383331	4.653829e-13	1.410017e-06	-1.983036e-17
	2.257601e-06	-1.110534e-18	0.05008618	1.96145e-13	3.200429e-06	1.584454e-17	0.01324979	4.652449e-13
	0.01383331	4.659925e-13	3.200429e-06	1.584872e-17	0.05053031	1.955876e-13	2.137582e-06	-9.323468e-18
	1.410017e-06	-1.982614e-17	0.01324981	4.656908e-13	2.137582e-06	-9.323889e-18	0.05536366	2.103457e-13
1e+07	0.08938945	0.02240315	1.417557e-06	-1.341137e-06	0.04788952	0.04091323	7.028437e-07	-1.07082e-06
	1.417557e-06	-1.341137e-06	0.08305068	0.02026183	2.166942e-06	-1.635872e-06	0.0474584	0.04080823
	0.04788952	0.04091323	2.166942e-06	-1.635872e-06	0.08212489	0.020524	1.296695e-06	-1.306133e-06
	7.028437e-07	-1.07082e-06	0.0474584	0.04080824	1.296695e-06	-1.306133e-06	0.09046371	0.02192763
2e+07	0.1169337	-0.01661661	-2.436316e-07	-1.258296e-06	0.09520401	0.01278754	-4.065993e-07	-8.900705e-07
	-2.436316e-07	-1.258296e-06	0.1081061	-0.01879234	-1.686786e-07	-1.573639e-06	0.09490003	0.0121996
	0.09520401	0.01278754	-1.686785e-07	-1.573639e-06	0.1070663	-0.01689415	-3.571111e-07	-1.187878e-06
	-4.065993e-07	-8.900705e-07	0.09490005	0.0121996	-3.571111e-07	-1.187878e-06	0.1177958	-0.0188108
3e+07	0.08811737	-0.06099941	-1.107873e-06	5.013911e-07	0.07704776	-0.04037449	-6.147798e-07	1.604975e-07
	-1.107873e-06	5.013911e-07	0.07817302	-0.06077646	-1.741264e-06	1.11332e-06	0.07651573	-0.04137378
	0.07704776	-0.04037449	-1.741264e-06	1.11332e-06	0.07863939	-0.05793752	-1.201269e-06	6.021051e-07
	-6.147798e-07	1.604975e-07	0.07651574	-0.0413738	-1.201269e-06	6.021051e-07	0.0874203	-0.06380211
4e+07	0.03585795	-0.05267228	4.569985e-07	2.347182e-06	0.01990129	-0.03390471	5.28179e-07	7.331884e-07
	4.569985e-07	2.347182e-06	0.02807624	-0.05044694	4.052812e-07	4.43843e-06	0.01927311	-0.03501424
	0.01990129	-0.03390471	4.052812e-07	4.43843e-06	0.02933381	-0.04870109	3.957485e-07	2.448326e-06
	5.28179e-07	7.331884e-07	0.0192731	-0.03501424	3.957485e-07	2.448326e-06	0.03479947	-0.05435725
5e+07	0.02779571	-0.003887846	3.0801e-06	1.257344e-06	0.01481055	0.02386989	1.600305e-06	-4.599694e-07
	3.0801e-06	1.257344e-06	0.02289772	-0.003390184	4.792538e-06	3.404937e-06	0.01432943	0.02243344
	0.01481055	0.02386989	4.792538e-06	3.404937e-06	0.0224699	-0.002110911	2.990984e-06	1.322136e-06
	1.600305e-06	-4.599694e-07	0.01432943	0.02243344	2.990984e-06	1.322136e-06	0.02853374	-0.005650318
6e+07	0.07099466	0.01450578	2.72655e-06	-1.829226e-06	0.06978501	0.03998825	7.51518e-07	-1.961372e-06
	2.72655e-06	-1.829226e-06	0.06529386	0.01132225	4.900673e-06	-1.429967e-06	0.06915314	0.03799286
	0.06978501	0.03998825	4.900673e-06	-1.429967e-06	0.0635098	0.01515619	2.557549e-06	-1.706159e-06
	7.51518e-07	-1.961372e-06	0.06915315	0.03799286	2.557549e-06	-1.706159e-06	0.07255837	0.009940903
7e+07	0.1010196	-0.02250912	-5.931673e-07	-2.486178e-06	0.09661101	-0.009251289	-8.748811e-07	-1.751671e-06
	-5.931673e-07	-2.486178e-06	0.09128048	-0.02625793	-3.488671e-07	-2.909703e-06	0.09556488	-0.01147137
	0.09661101	-0.009251289	-3.488671e-07	-2.909703e-06	0.09169129	-0.0195586	-7.406895e-07	-2.242097e-06
	-8.748811e-07	-1.751671e-06	0.09556489	-0.01147138	-7.406895e-07	-2.242097e-06	0.1000933	-0.02949853
8e+07	0.07602067	-0.06456534	-2.495152e-06	9.056879e-07	0.05502786	-0.0458258	-1.215602e-06	-1.186393e-07
	-2.495152e-06	9.056879e-07	0.06436543	-0.06446185	-3.880033e-06	2.614869e-06	0.05393846	-0.04795226
	0.05502786	-0.0458258	-3.880033e-06	2.614869e-06	0.06819714	-0.05877061	-2.517484e-06	1.208641e-06
	-1.215602e-06	-1.186394e-07	0.05393846	-0.04795227	-2.517484e-06	1.208641e-06	0.07211	-0.07025817
9e+07	0.02903817	-0.05516061	7.359154e-07	4.087877e-06	0.01045655	-0.01261427	6.177498e-07	6.27247e-07
	7.359154e-07	4.087877e-06	0.02080107	-0.05206204	1.135815e-06	8.452903e-06	0.009748367	-0.01510919
	0.01045655	-0.01261427	1.135815e-06	8.452903e-06	0.0241184	-0.04961132	8.376325e-07	4.248377e-06
	6.177498e-07	6.27247e-07	0.009748365	-0.01510919	8.376324e-07	4.248377e-06	0.0260171	-0.05811886
1e+08	0.02662237	-0.0100004	4.929286e-06	1.408709e-06	0.03466052	0.03790981	1.823186e-06	-1.3866e-06
	4.929286e-06	1.408709e-06	0.02241427	-0.009746791	8.554797e-06	4.829046e-06	0.03377102	0.03443908
	0.03466052	0.03790981	8.554797e-06	4.829046e-06	0.02193226	-0.006772727	4.821562e-06	1.399379e-06
	1.823186e-06	-1.3866e-06	0.03377102	0.03443908	4.821562e-06	1.399379e-06	0.02690842	-0.01402708
1.1e+08	0.06979488	0.001480922	3.293534e-06	-3.453648e-06	0.08864599	0.02433607	1.612845e-07	-3.116948e-06
	3.293534e-06	-3.453648e-06	0.06377742	-0.003412436	6.741961e-06	-3.362425e-06	0.08675759	0.02045015
	0.08864599	0.02433607	6.741961e-06	-3.362425e-06	0.06284095	0.004560543	2.969508e-06	-3.21771e-06
	1.612845e-07	-3.116948e-06	0.0867576	0.02045015	2.969508e-06	-3.21771e-06	0.06993728	-0.007154433
1.2e+08	0.09392692	-0.03912534	-2.083917e-06	-3.241147e-06	0.0871051	-0.03019945	-1.966655e-06	-2.244357e-06
	-2.083917e-06	-3.241147e-06	0.08199866	-0.04386771	-2.195661e-06	-3.605833e-06	0.08465899	-0.03344947
	0.0871051	-0.03019945	-2.195661e-06	-3.605833e-06	0.08621699	-0.03346671	-2.246208e-06	-2.719256e-06
	-1.966655e-06	-2.244357e-06	0.08465899	-0.03344948	-2.246208e-06	-2.719256e-06	0.08922202	-0.04966471
1.3e+08	0.06236183	-0.07728394	-3.482234e-06	2.586732e-06	0.03437669	-0.04041377	-1.75984e-06	1.847862e-07
	-3.482234e-06	2.586731e-06	0.04877879	-0.07607448	-5.049082e-06	6.165462e-06	0.03266108	-0.04326102
	0.03437669	-0.04041377	-5.049083e-06	6.165462e-06	0.05677084	-0.06975523	-3.281974e-06	3.105783e-06
	-1.75984e-06	1.847862e-07	0.03266107	-0.04326103	-3.281974e-06	3.105783e-06	0.05440856	-0.08407182
1.4e+08	0.01690412	-0.05961828	2.525908e-06	5.567558e-06	0.01357671	0.009351363	1.084807e-06	3.137814e-07
	2.525908e-06	5.567558e-06	0.008846793	-0.0552912	4.759845e-06	1.194898e-05	0.01263366	0.005321628
	0.01357671	0.009351363	4.759845e-06	1.194898e-05	0.01353883	-0.05306407	2.838988e-06	5.609996e-06
	1.084807e-06	3.137814e-07	0.01263366	0.005321626	2.838988e-06	5.609996e-06	0.01194304	-0.06297392
1.5e+08	0.02310068	-0.01384175	6.880997e-06	4.710524e-08	0.05886695	0.03985119	1.604828e-06	-2.80745e-06
	6.880997e-06	4.710522e-08	0.01949272	-0.01447385	1.293869e-05	3.517192e-06	0.05683034	0.03423599
	0.05886695	0.03985119	1.293869e-05	3.517192e-06	0.0193445	-0.00905332	6.589358e-06	-6.695721e-08
	1.604828e-06	-2.80745e-06	0.05683035	0.03423599	6.589358e-06	-6.695721e-08	0.02221915	-0.02023932
1.6e+08	0.06923247	-0.01079992	2.608792e-06	-5.543879e-06	0.09791495	0.00204454	-1.183753e-06	-4.096946e-06
	2.608792e-06	-5.543879e-06	0.06165211	-0.01744345	6.786637e-06	-6.404531e-06	0.09392698	-0.0031756
	0.09791495	0.00204454	6.786637e-06	-6.404531e-06	0.06378072	-0.005531434	2.098892e-06	-5.033517e-06
	-1.183753e-06	-4.096946e-06	0.09392699	-0.003175605	2.098892e-06	-5.033517e-06	0.06607397	-0.02297872
1.7e+08	0.08545316	-0.05769996	-4.217728e-06	-2.923369e-06	0.07023039	-0.04325836	-3.355941e-06	-2.077073e-06
	-4.217728e-06	-2.923369e-06	0.07045787	-0.06214838	-4.925336e-06	-2.737137e-06	0.06617395	-0.04668498
	0.07023039	-0.04325836	-4.925336e-06	-2.737137e-06	0.08006838	-0.05024106	-4.240916e-06	-2.039059e-06
	-3.355941e-06	-2.077073e-06	0.06617395	-0.04668498	-4.240916e-06	-2.039059e-06	0.07545593	-0.06984715
1.8e+08	0.04393228	-0.08974269	-3.312347e-06	5.080985e-06	0.02091509	-0.02612174	-1.863671e-06	8.01042e-07
	-3.312347e-06	5.080985e-06	0.02895883	-0.08619986	-4.067201e-06	1.091521e-05	0.0188102	-0.02939358
	0.02091509	-0.02612174	-4.067201e-06	1.091521e-05	0.04063331	-0.08124604	-2.724709e-06	5.653466e-06
	-1.863671e-06	8.01042e-07	0.0188102	-0.02939358	-2.724709e-06	5.653466e-06	0.03192035	-0.09564225
1.9e+08	0.001721174	-0.05999285	5.414853e-06	5.863104e-06	0.02790076	0.02609961	1.584986e-06	-6.066953e-07
	5.414853e-06	5.863104e-06	-0.005422194	-0.05458655	1.055454e-05	1.334732e-05	0.02645517	0.02028228
	0.02790076	0.02609961	1.055454e-05	1.334732e-05	3.90816e-05	-0.05260995	5.754401e-06	5.5609e-06
	1.584986e-06	-6.066953e-07	0.02645517	0.02028227	5.754401e-06	5.5609e-06	-0.004870115	-0.0631337
2e+08	0.02026021	-0.01457779	8.01376e-06	-2.640852e-06	0.08134591	0.02991287	5.275848e-07	-4.382784e-06
	8.01376e-06	-2.640852e-06	0.01669302	-0.01664619	1.636119e-05	-3.460752e-07	0.07724183	0.0223658
	0.08134591	0.02991287	1.636119e-05	-3.460752e-07	0.01811975	-0.008462442	7.298317e-06	-2.684294e-06
	5.275848e-07	-4.382784e-06	0.07724183	0.0223658	7.298317e-06	-2.684294e-06	0.01726686	-0.02319611
2.1e+08	0.06885318	-0.02385634	5.870618e-07	-7.328048e-06	0.09652164	-0.02109497	-3.128753e-06	-4.472781e-06
	5.870618e-07	-7.328048e-06	0.05846578	-0.03159015	4.774753e-06	-9.340773e-06	0.08987262	-0.02668239
	0.09652164	-0.02109497	4.774753e-06	-9.340773e-06	0.0656115	-0.01715961	1.285269e-08	-6.310027e-06
	-3.128753e-06	-4.472781e-06	0.08987262	-0.0266824	1.285268e-08	-6.310027e-06	0.06072526	-0.03820445
2.2e+08	0.07252244	-0.07699431	-6.298719e-06	-1.278542e-06	0.05133867	-0.04630375	-4.61963e-06	-1.198699e-06
	-6.298719e-06	-1.278542e-06	0.05428447	-0.07943962	-7.448966e-06	9.371667e-08	0.04596904	-0.04911597
	0.05133867	-0.04630375	-7.448966e-06	9.371666e-08	0.06969351	-0.0686752	-5.91462e-06	-6.87269e-08
	-4.61963e-06	-1.198699e-06	0.04596904	-0.04911598	-5.91462e-06	-6.87269e-08	0.05664658	-0.0882196
2.3e+08	0.02035661	-0.0974096	-1.60382e-06	7.592094e-06	0.01787966	-0.007850112	-1.431505e-06	1.25808e-06
	-1.60382e-06	7.592094e-06	0.005141992	-0.09064195	-3.402402e-07	1.553175e-05	0.01570351	-0.01166564
	0.01787966	-0.007850112	-3.402402e-07	1.553175e-05	0.01931191	-0.08851519	-5.895341e-07	7.878241e-06
	-1.431505e-06	1.25808e-06	0.01570351	-0.01166565	-5.895341e-07	7.878241e-06	0.005153328	-0.1006302
2.4e+08	-0.0129959	-0.05390707	8.571329e-06	4.452973e-06	0.04933359	0.03337054	1.548964e-06	-2.165838e-06
	8.571329e-06	4.452973e-06	-0.01861366	-0.04795258	1.718089e-05	1.170878e-05	0.04677273	0.02546288
	0.04933359	0.03337054	1.718089e-05	1.170878e-05	-0.01273024	-0.04600162	8.541046e-06	3.739625e-06
	1.548964e-06	-2.165838e-06	0.04677273	0.02546288	8.541046e-06	3.739625e-06	-0.02076295	-0.05650527
2.5e+08	0.02053285	-0.01390318	7.69927e-06	-6.058591e-06	0.09725981	0.01103087	-1.485047e-06	-5.569149e-06
	7.69927e-06	-6.058591e-06	0.01615318	-0.01766292	1.769646e-05	-5.922489e-06	0.09013165	0.00215454
	0.09725981	0.01103087	1.769646e-05	-5.922489e-06	0.02054754	-0.007063641	6.481961e-06	-5.643454e-06
	-1.485047e-06	-5.569149e-06	0.09013166	0.002154537	6.481961e-06	-5.643454e-06	0.01444156	-0.02420237
2.6e+08	0.067054	-0.03920111	-2.49395e-06	-8.13627e-06	0.08631317	-0.0400686	-5.320019e-06	-4.00268e-06
	-2.49395e-06	-8.13627e-06	0.05295655	-0.04671474	1.044834e-06	-1.108566e-05	0.07689276	-0.04484458
	0.08631317	-0.0400686	1.044834e-06	-1.108566e-05	0.06630593	-0.03203097	-2.806099e-06	-6.469765e-06
	-5.320019e-06	-4.00268e-06	0.07689276	-0.04484458	-2.806099e-06	-6.469765e-06	0.05289691	-0.05359859
2.7e+08	0.05310833	-0.09428059	-7.593315e-06	1.570568e-06	0.03568536	-0.0403041	-5.400444e-06	1.911422e-07
	-7.593315e-06	1.570568e-06	0.03236094	-0.09293492	-8.601897e-06	4.670152e-06	0.0297128	-0.04200636
	0.03568536	-0.0403041	-8.601897e-06	4.670152e-06	0.05271396	-0.08591462	-6.538719e-06	2.844035e-06
	-5.400444e-06	1.911422e-07	0.0297128	-0.04200636	-6.538719e-06	2.844035e-06	0.0319708	-0.101901
2.8e+08	-0.005910628	-0.09658451	1.545934e-06	9.225468e-06	0.02537907	0.008836933	-7.267316e-07	1.133049e-06
	1.545934e-06	9.225468e-06	-0.01975573	-0.08634692	5.957147e-06	1.852447e-05	0.023367	0.003976127
	0.02537907	0.008836933	5.957147e-06	1.852447e-05	-0.004770319	-0.08773161	2.740364e-06	8.838547e-06
	-7.267316e-07	1.133049e-06	0.023367	0.003976125	2.740364e-06	8.838547e-06	-0.02268159	-0.09594923
2.9e+08	-0.02309936	-0.04192899	1.103302e-05	1.330901e-06	0.07253536	0.02969583	4.987917e-07	-3.980411e-06
	1.103302e-05	1.330901e-06	-0.02689232	-0.03630898	2.306533e-05	6.893707e-06	0.0679835	0.01948505
	0.07253536	0.02969583	2.306533e-05	6.893707e-06	-0.02061429	-0.03398454	1.018802e-05	4.784799e-07
	4.987917e-07	-3.980411e-06	0.0679835	0.01948504	1.018802e-05	4.7848e-07	-0.0316215	-0.04399092
3e+08	0.02444034	-0.01481077	5.683698e-06	-9.426416e-06	0.1041276	-0.01232231	-4.178298e-06	-5.889141e-06
	5.683698e-06	-9.426416e-06	0.0182236	-0.02008891	1.637936e-05	-1.204439e-05	0.09317803	-0.0215356
	0.1041276	-0.01232231	1.637936e-05	-1.204439e-05	0.02685483	-0.008101945	4.208142e-06	-8.108185e-06
	-4.178298e-06	-5.889141e-06	0.09317803	-0.0215356	4.208142e-06	-8.108185e-06	0.01437664	-0.02581157
3.1e+08	0.06120886	-0.05680205	-6.102699e-06	-7.500643e-06	0.07103317	-0.0518859	-7.36255e-06	-2.660483e-06
	-6.102699e-06	-7.500643e-06	0.04315153	-0.06230778	-3.629473e-06	-1.085651e-05	0.05927978	-0.05465575
	0.07103317	-0.0518859	-3.629473e-06	-1.085651e-05	0.06280394	-0.05008392	-5.7079e-06	-5.290251e-06
	-7.36255e-06	-2.660483e-06	0.05927977	-0.05465575	-5.7079e-06	-5.290251e-06	0.04090853	-0.06865971
3.2e+08	0.02726162	-0.1056275	-7.495577e-06	5.154102e-06	0.02690407	-0.02854401	-5.519755e-06	1.731571e-06
	-7.495577e-06	5.154102e-06	0.005680187	-0.09909308	-7.43066e-06	1.019754e-05	0.02129379	-0.02913253
	0.02690407	-0.02854401	-7.43066e-06	1.019754e-05	0.02898421	-0.0977955	-5.687949e-06	6.008578e-06
	-5.519755e-06	1.731571e-06	0.02129379	-0.02913253	-5.687949e-06	6.008578e-06	0.00271446	-0.1073873
3.3e+08	-0.03028082	-0.08561651	5.579291e-06	9.233149e-06	0.04101232	0.01948557	-2.695835e-07	2.575852e-07
	5.579291e-06	9.233149e-06	-0.04103093	-0.07255264	1.391353e-05	1.863534e-05	0.03904255	0.01275861
	0.04101232	0.01948557	1.391353e-05	1.863534e-05	-0.0269871	-0.07720786	6.389545e-06	7.969038e-06
	-2.695835e-07	2.575852e-07	0.03904255	0.01275861	6.389545e-06	7.969038e-06	-0.04660257	-0.08089407
3.4e+08	-0.02549803	-0.02722095	1.197393e-05	-3.034566e-06	0.09275969	0.01612406	-1.727975e-06	-5.40617e-06
	1.197393e-05	-3.034566e-06	-0.02766876	-0.02300915	2.681116e-05	-5.039354e-07	0.08503419	0.003738134
	0.09275969	0.01612406	2.681116e-05	-5.039353e-07	-0.02065549	-0.01993204	1.008559e-05	-3.401413e-06
	-1.727975e-06	-5.40617e-06	0.08503418	0.003738133	1.008559e-05	-3.401413e-06	-0.03457806	-0.02900767
3.5e+08	0.03026967	-0.02006154	2.081339e-06	-1.19683e-05	0.1019454	-0.03571123	-7.093567e-06	-5.086145e-06
	2.081339e-06	-1.19683e-05	0.0212237	-0.02616742	1.240276e-05	-1.750362e-05	0.0867367	-0.04387401
	0.1019454	-0.03571123	1.240276e-05	-1.750362e-05	0.03492218	-0.01441309	9.235743e-07	-9.484863e-06
	-7.093567e-06	-5.086145e-06	0.0867367	-0.04387401	9.235744e-07	-9.484863e-06	0.01567487	-0.03035703
3.6e+08	0.04890887	-0.07454902	-9.555624e-06	-5.214684e-06	0.0548933	-0.055961	-8.922207e-06	-5.958777e-07
	-9.555624e-06	-5.214684e-06	0.02753754	-0.07610142	-8.206518e-06	-8.289758e-06	0.04180581	-0.05577912
	0.0548933	-0.055961	-8.206518e-06	-8.289758e-06	0.05236074	-0.06898228	-8.065107e-06	-2.881823e-06
	-8.922207e-06	-5.958778e-07	0.04180581	-0.05577912	-8.065107e-06	-2.881823e-06	0.02351469	-0.081238
3.7e+08	-0.002330297	-0.1072636	-5.665412e-06	8.732884e-06	0.02635507	-0.0152333	-5.038073e-06	3.01438e-06
	-5.665412e-06	8.732884e-06	-0.02233022	-0.09502302	-3.438749e-06	1.544245e-05	0.02204059	-0.01532567
	0.02635507	-0.0152333	-3.438749e-06	1.544245e-05	0.001163427	-0.1003226	-3.369574e-06	8.590233e-06
	-5.038073e-06	3.01438e-06	0.02204058	-0.01532567	-3.369574e-06	8.590233e-06	-0.0274475	-0.1019152
3.8e+08	-0.04754376	-0.06581614	9.596267e-06	7.217599e-06	0.06103391	0.02158837	-6.427979e-07	-1.154223e-06
	9.596267e-06	7.217599e-06	-0.05383414	-0.05150843	2.207562e-05	1.516089e-05	0.05842215	0.01206716
	0.06103391	0.02158837	2.207562e-05	1.516089e-05	-0.04211939	-0.05833114	9.284834e-06	5.301123e-06
	-6.427979e-07	-1.154223e-06	0.05842215	0.01206716	9.284834e-06	5.301123e-06	-0.06151465	-0.05784023
3.9e+08	-0.01945228	-0.01440086	1.087951e-05	-7.841285e-06	0.1067336	-0.004653075	-4.878826e-06	-5.777579e-06
	1.087951e-05	-7.841285e-06	-0.02081094	-0.01259381	2.745769e-05	-9.371417e-06	0.09450828	-0.01855797
	0.1067336	-0.004653075	2.745769e-05	-9.371417e-06	-0.01240287	-0.008604007	8.197728e-06	-6.931995e-06
	-4.878826e-06	-5.777579e-06	0.09450828	-0.01855797	8.197728e-06	-6.931995e-06	-0.02923994	-0.01624651
4e+08	0.03468449	-0.03080547	-2.695919e-06	-1.301996e-05	0.0925382	-0.05578084	-9.7365e-06	-3.173992e-06
	-2.69592e-06	-1.301996e-05	0.02210157	-0.03652604	6.218704e-06	-2.121747e-05	0.07318708	-0.06126927
	0.0925382	-0.05578084	6.218704e-06	-2.121747e-05	0.04100595	-0.02700122	-2.782605e-06	-9.525686e-06
	-9.7365e-06	-3.173992e-06	0.07318708	-0.06126927	-2.782605e-06	-9.525686e-06	0.0155262	-0.03866276
4.1e+08	0.02936063	-0.08867761	-1.210064e-05	-1.366852e-06	0.04133933	-0.05372226	-9.784108e-06	1.931115e-06
	-1.210064e-05	-1.366852e-06	0.006312418	-0.08461598	-1.153229e-05	-3.509481e-06	0.02835217	-0.05015655
	0.04133933	-0.05372226	-1.15323e-05	-3.509481e-06	0.03402987	-0.08462939	-9.398354e-06	3.944875e-07
	-9.784108e-06	1.931115e-06	0.02835217	-0.05015655	-9.398354e-06	3.944875e-07	0.001108965	-0.08806055
4.2e+08	-0.03073491	-0.0972165	-2.1455e-06	1.141433e-05	0.03329089	-0.004223391	-4.262399e-06	3.723188e-06
	-2.1455e-06	1.141433e-05	-0.04645673	-0.08001847	3.223417e-06	1.895818e-05	0.03085331	-0.005042368
	0.03329089	-0.004223391	3.223417e-06	1.895818e-05	-0.02573729	-0.09140297	-5.549385e-08	9.855304e-06
	-4.262399e-06	3.723188e-06	0.0308533	-0.005042369	-5.549391e-08	9.855305e-06	-0.05312137	-0.08496219
4.3e+08	-0.05369308	-0.04138147	1.254767e-05	3.274689e-06	0.08153836	0.01462072	-2.237484e-06	-2.504155e-06
	1.254767e-05	3.274689e-06	-0.05501187	-0.02814434	2.876543e-05	8.157115e-06	0.07695728	0.001567829
	0.08153836	0.01462072	2.876543e-05	8.157114e-06	-0.04626787	-0.03543222	1.054084e-05	1.488788e-06
	-2.237484e-06	-2.504155e-06	0.07695728	0.00156783	1.054084e-05	1.488789e-06	-0.06405725	-0.03190291
4.4e+08	-0.0070076	-0.007912486	7.651033e-06	-1.213034e-05	0.1129358	-0.02935691	-8.346495e-06	-4.662328e-06
	7.651033e-06	-1.213034e-05	-0.008932898	-0.009102472	2.461526e-05	-1.83376e-05	0.09498991	-0.04349762
	0.1129358	-0.02935691	2.461526e-05	-1.83376e-05	0.001712463	-0.004417168	4.999171e-06	-9.360748e-06
	-8.346495e-06	-4.662328e-06	0.09498991	-0.04349762	4.999171e-06	-9.360748e-06	-0.01800746	-0.009988741
4.5e+08	0.03403249	-0.04583276	-7.999344e-06	-1.211941e-05	0.07859158	-0.07078459	-1.172671e-05	-3.817929e-07
	-7.999344e-06	-1.211941e-05	0.0177652	-0.04954847	-1.343817e-06	-2.235638e-05	0.0558829	-0.07198463
	0.07859158	-0.07078459	-1.343817e-06	-2.235638e-05	0.04117088	-0.04431747	-6.389773e-06	-8.273694e-06
	-1.172671e-05	-3.817929e-07	0.0558829	-0.07198463	-6.389773e-06	-8.273694e-06	0.0109911	-0.04939672
4.6e+08	0.004289169	-0.09503809	-1.303071e-05	3.621214e-06	0.03231554	-0.04770537	-9.871253e-06	4.615885e-06
	-1.303071e-05	3.621214e-06	-0.01792557	-0.08449614	-1.254554e-05	2.820708e-06	0.02105908	-0.04104253
	0.03231554	-0.04770537	-1.254554e-05	2.820708e-06	0.009583123	-0.09256225	-9.444833e-06	4.022082e-06
	-9.871253e-06	4.615885e-06	0.02105908	-0.04104254	-9.444833e-06	4.022082e-06	-0.0236155	-0.08602331
4.7e+08	-0.05212043	-0.07648182	2.551347e-06	1.23478e-05	0.04562282	0.001813589	-3.687635e-06	3.774232e-06
	2.551347e-06	1.23478e-05	-0.0612479	-0.05648766	1.16559e-05	1.942337e-05	0.04497409	-0.00140131
	0.04562282	0.001813589	1.16559e-05	1.942337e-05	-0.0458078	-0.07204831	3.399674e-06	9.419857e-06
	-3.687635e-06	3.774232e-06	0.04497409	-0.001401309	3.399674e-06	9.419857e-06	-0.06874089	-0.05914503
4.8e+08	-0.04741002	-0.01830988	1.350608e-05	-1.955216e-06	0.09928755	-0.0004767391	-5.031542e-06	-2.965259e-06
	1.350608e-05	-1.955216e-06	-0.04446532	-0.008729201	3.247394e-05	-1.516248e-06	0.09082614	-0.0172716
	0.09928755	-0.0004767391	3.247394e-05	-1.516248e-06	-0.03836552	-0.01459086	9.786197e-06	-2.395951e-06
