!$
! Info: Touchstone file created by Circ.  Input file=Tx_PCB_4dB_OSFP_27dB_OSFP_4dB_PCB_Rx_TP0_TP5_VendorX.circ
!$
# Hz S RI R 50
0	0.06426438	2.49545e-13	6.193263e-08	-3.75939e-20	0.0164901	6.004111e-13	2.30929e-08	-3.045222e-20
	6.193275e-08	-3.758227e-20	0.06071597	2.496001e-13	2.294827e-08	-2.526204e-20	0.01672761	5.969485e-13
	0.01648978	6.001391e-13	2.294827e-08	-2.524718e-20	0.06141673	2.694156e-13	-2.823632e-08	-9.337845e-21
	2.30929e-08	-3.047537e-20	0.01672763	5.974048e-13	-2.823634e-08	-9.345912e-21	0.06583271	2.675754e-13
1e+07	0.1023733	0.008625715	4.416349e-07	2.055835e-07	0.06396451	0.0385129	1.208542e-07	1.432871e-07
	4.416349e-07	2.055835e-07	0.100518	0.009064806	1.809831e-07	-9.364453e-09	0.06419013	0.03779444
	0.06396442	0.0385129	1.809831e-07	-9.364414e-09	0.09909838	0.008005602	6.88745e-09	2.21728e-08
	1.208542e-07	1.432871e-07	0.06419014	0.03779445	6.887441e-09	2.217279e-08	0.1087147	0.01080886
2e+07	0.09991451	-0.04938681	-3.653395e-07	7.180702e-08	0.09395974	-0.01953923	-6.708925e-08	1.732572e-07
	-3.653395e-07	7.180703e-08	0.0983075	-0.05045399	-1.835952e-07	-2.038086e-07	0.0928712	-0.0205512
	0.09395966	-0.01953915	-1.835951e-07	-2.038085e-07	0.0958811	-0.0489154	-1.075048e-08	-2.103079e-08
	-6.708926e-08	1.732572e-07	0.09287122	-0.02055121	-1.07505e-08	-2.103081e-08	0.1082095	-0.0518958
3e+07	0.03683862	-0.05346926	-8.538584e-07	1.939442e-06	0.02969997	-0.04167618	-2.088226e-07	7.106549e-07
	-8.538583e-07	1.939442e-06	0.03372218	-0.05479096	-4.500584e-07	5.618698e-07	0.02837301	-0.04085902
	0.02969997	-0.04167612	-4.500583e-07	5.618698e-07	0.03404499	-0.0523744	-8.892241e-08	5.246544e-08
	-2.088226e-07	7.106549e-07	0.02837301	-0.04085903	-8.892244e-08	5.246544e-08	0.04095122	-0.05827373
4e+07	0.03212149	0.004437174	1.309039e-06	2.506848e-06	0.01761915	0.02586301	3.356249e-07	9.270702e-07
	1.309039e-06	2.506848e-06	0.02939103	0.004467003	6.092681e-07	7.599868e-07	0.01891146	0.02650739
	0.01761912	0.02586302	6.092681e-07	7.599868e-07	0.02960953	0.004240837	3.640667e-08	1.262543e-07
	3.356249e-07	9.270702e-07	0.01891146	0.0265074	3.640666e-08	1.262543e-07	0.03537498	0.0030662
5e+07	0.08573505	0.002626039	1.002791e-06	2.322827e-07	0.08511554	0.02690991	2.420253e-07	4.641682e-07
	1.002791e-06	2.322827e-07	0.08449512	0.001376863	5.100793e-07	-4.673588e-07	0.08558023	0.02412069
	0.0851155	0.02690997	5.100794e-07	-4.673587e-07	0.08179176	0.002513459	5.986509e-08	-5.075128e-09
	2.420253e-07	4.641681e-07	0.08558024	0.02412069	5.986505e-08	-5.075153e-09	0.09295246	0.0001804499
6e+07	0.08095102	-0.0510708	-2.033473e-06	1.464232e-06	0.07705504	-0.03895213	-4.754713e-07	8.165238e-07
	-2.033473e-06	1.464232e-06	0.07805163	-0.05419285	-9.565503e-07	-6.723475e-08	0.07364358	-0.04026339
	0.07705504	-0.03895207	-9.565502e-07	-6.723474e-08	0.07723401	-0.04965344	-1.069892e-07	-2.471848e-08
	-4.754713e-07	8.165238e-07	0.07364358	-0.0402634	-1.069893e-07	-2.471849e-08	0.08676799	-0.05854879
7e+07	0.02837361	-0.0457623	-3.988774e-07	5.214615e-06	0.01337359	-0.0216851	-1.157219e-07	1.828262e-06
	-3.988774e-07	5.214615e-06	0.02371892	-0.04711243	-2.58054e-07	1.683649e-06	0.0122373	-0.01890953
	0.0133736	-0.02168508	-2.58054e-07	1.683649e-06	0.02606991	-0.04470018	-1.149913e-07	2.368182e-07
	-1.157219e-07	1.828262e-06	0.01223729	-0.01890953	-1.149914e-07	2.368182e-07	0.02951624	-0.0521933
8e+07	0.03904752	0.002692454	2.989761e-06	2.940378e-06	0.04127313	0.03805041	7.126014e-07	1.345053e-06
	2.98976e-06	2.940378e-06	0.03668974	0.002300191	1.493151e-06	5.370084e-07	0.04433982	0.0373554
	0.0412731	0.03805043	1.493151e-06	5.370084e-07	0.03604264	0.002534477	1.599618e-07	1.597535e-07
	7.126014e-07	1.345053e-06	0.04433983	0.03735541	1.599618e-07	1.597535e-07	0.04228051	-0.0005710509
9e+07	0.08573646	-0.01497067	-5.331845e-07	2.112173e-07	0.09528468	0.001375681	-1.16836e-07	7.852433e-07
	-5.331844e-07	2.112173e-07	0.0838154	-0.01853776	-1.292934e-07	-1.009366e-06	0.09362964	-0.003399884
	0.09528468	0.001375729	-1.292932e-07	-1.009366e-06	0.08156362	-0.01409018	3.437893e-08	-7.015905e-08
	-1.16836e-07	7.852433e-07	0.09362965	-0.003399891	3.437888e-08	-7.015906e-08	0.09172268	-0.02220779
1e+08	0.06582802	-0.06310251	-3.322462e-06	4.924239e-06	0.05257501	-0.04647453	-8.501746e-07	1.93298e-06
	-3.322462e-06	4.924239e-06	0.06013342	-0.0672051	-1.623631e-06	1.046053e-06	0.0472353	-0.0455228
	0.05257502	-0.0464745	-1.623631e-06	1.046053e-06	0.06278771	-0.06108604	-2.619155e-07	7.658903e-08
	-8.501746e-07	1.93298e-06	0.0472353	-0.0455228	-2.619156e-07	7.658906e-08	0.06715567	-0.07384992
1.1e+08	0.01963489	-0.04219222	2.014119e-06	7.483346e-06	0.01199257	0.002541771	4.414429e-07	2.729114e-06
	2.014119e-06	7.483346e-06	0.01375241	-0.04253015	9.038467e-07	2.408093e-06	0.0134631	0.006467294
	0.01199257	0.002541779	9.038466e-07	2.408093e-06	0.01747491	-0.0413601	-6.628891e-09	4.322778e-07
	4.414429e-07	2.729114e-06	0.0134631	0.006467293	-6.628903e-09	4.322778e-07	0.01792779	-0.04879774
1.2e+08	0.04594618	-0.001879958	3.116114e-06	1.726251e-06	0.06740126	0.03419649	7.213078e-07	1.389243e-06
	3.116114e-06	1.726251e-06	0.04374574	-0.003237507	1.721701e-06	-5.100902e-07	0.07076229	0.03006973
	0.06740125	0.03419651	1.721701e-06	-5.100901e-07	0.04237414	-0.001586809	2.511818e-07	8.699061e-08
	7.213078e-07	1.389243e-06	0.07076229	0.03006973	2.511817e-07	8.699059e-08	0.04860308	-0.007490949
1.3e+08	0.08382272	-0.03485091	-3.419983e-06	2.045154e-06	0.09025741	-0.02465966	-8.236577e-07	1.487933e-06
	-3.419983e-06	2.045154e-06	0.07959472	-0.04043396	-1.451529e-06	-7.600866e-07	0.08461957	-0.02943466
	0.09025743	-0.02465963	-1.451529e-06	-7.600866e-07	0.07986146	-0.03293171	-1.047799e-07	-1.226768e-07
	-8.236577e-07	1.487933e-06	0.08461958	-0.02943467	-1.0478e-07	-1.226768e-07	0.08630038	-0.046336
1.4e+08	0.04811053	-0.07394764	-2.447418e-06	9.383083e-06	0.03022469	-0.03922392	-7.624727e-07	3.375254e-06
	-2.447418e-06	9.383083e-06	0.03901855	-0.0771709	-1.321982e-06	2.736696e-06	0.02527117	-0.03442613
	0.0302247	-0.03922391	-1.321982e-06	2.736696e-06	0.0457479	-0.07172429	-3.683229e-07	3.403493e-07
	-7.624728e-07	3.375254e-06	0.02527117	-0.03442613	-3.68323e-07	3.403493e-07	0.04383201	-0.08551606
1.5e+08	0.0124488	-0.03722858	4.770791e-06	7.258828e-06	0.02541747	0.02207511	1.114175e-06	3.023771e-06
	4.770791e-06	7.258828e-06	0.006237847	-0.03598639	2.400734e-06	1.975353e-06	0.03048159	0.02442748
	0.02541747	0.02207512	2.400734e-06	1.975353e-06	0.01008034	-0.03650563	2.378381e-07	5.093307e-07
	1.114175e-06	3.023771e-06	0.03048159	0.02442748	2.378381e-07	5.093307e-07	0.008633109	-0.04296361
1.6e+08	0.05325792	-0.009473304	6.701437e-07	7.790625e-07	0.08705988	0.01662124	1.194174e-07	1.481933e-06
	6.701437e-07	7.790626e-07	0.0506222	-0.01233814	7.747389e-07	-1.596989e-06	0.08760012	0.00872523
	0.08705988	0.01662127	7.74739e-07	-1.596989e-06	0.04931932	-0.00835719	2.36294e-07	-7.587273e-08
	1.194174e-07	1.481933e-06	0.08760013	0.008725226	2.362939e-07	-7.587273e-08	0.05443649	-0.01780027
1.7e+08	0.07725204	-0.05639504	-5.672199e-06	6.426532e-06	0.07341221	-0.04273373	-1.489592e-06	2.797844e-06
	-5.672199e-06	6.426532e-06	0.06914028	-0.0628645	-2.625356e-06	6.742751e-07	0.06387021	-0.04423736
	0.07341222	-0.04273371	-2.625356e-06	6.74275e-07	0.07385614	-0.05361633	-3.611254e-07	-5.248314e-08
	-1.489592e-06	2.797844e-06	0.06387021	-0.04423736	-3.611255e-07	-5.248311e-08	0.07405022	-0.07059825
1.8e+08	0.02720044	-0.08009281	9.208112e-07	1.263438e-05	0.01790864	-0.02154027	-1.414667e-08	4.630252e-06
	9.208111e-07	1.263438e-05	0.01520964	-0.08028033	2.465268e-07	4.030826e-06	0.01654705	-0.01353668
	0.01790865	-0.02154027	2.465267e-07	4.030826e-06	0.02532501	-0.07790983	-2.633987e-07	7.010607e-07
	-1.414671e-08	4.630252e-06	0.01654705	-0.01353669	-2.633987e-07	7.010608e-07	0.01748203	-0.08960106
1.9e+08	0.008900319	-0.03027331	5.570107e-06	4.863896e-06	0.04806724	0.02985547	1.314362e-06	2.748476e-06
	5.570107e-06	4.863896e-06	0.003525358	-0.02765348	3.157379e-06	3.645607e-07	0.05519497	0.02755713
	0.04806724	0.02985549	3.157379e-06	3.645608e-07	0.006154481	-0.02936298	4.863414e-07	3.69986e-07
	1.314362e-06	2.748476e-06	0.05519498	0.02755713	4.863414e-07	3.69986e-07	0.004119635	-0.03486569
2e+08	0.06031707	-0.02150493	-3.540469e-06	2.197487e-06	0.09452833	-0.008180563	-9.326992e-07	2.101225e-06
	-3.540469e-06	2.197487e-06	0.05605744	-0.0262793	-1.133032e-06	-1.74414e-06	0.08926646	-0.01758823
	0.09452834	-0.008180545	-1.133032e-06	-1.74414e-06	0.05636355	-0.01937325	4.826801e-08	-2.381111e-07
	-9.326992e-07	2.101225e-06	0.08926646	-0.01758824	4.826795e-08	-2.381111e-07	0.05854586	-0.03270377
2.1e+08	0.06357729	-0.07777505	-5.291449e-06	1.228013e-05	0.0518036	-0.0482407	-1.621902e-06	4.582733e-06
	-5.291449e-06	1.228013e-05	0.05041455	-0.08289875	-2.698018e-06	2.962841e-06	0.04099248	-0.04370525
	0.05180361	-0.04824069	-2.698018e-06	2.96284e-06	0.06093563	-0.07442178	-6.14463e-07	2.469127e-07
	-1.621902e-06	4.582733e-06	0.04099248	-0.04370525	-6.14463e-07	2.469127e-07	0.05306479	-0.09189344
2.2e+08	0.005182021	-0.07859987	5.198422e-06	1.280962e-05	0.01928234	-0.00119164	1.096763e-06	5.139076e-06
	5.198422e-06	1.280962e-05	-0.007795374	-0.07397066	2.508828e-06	3.946069e-06	0.02370006	0.00693394
	0.01928234	-0.001191634	2.508828e-06	3.946069e-06	0.003545911	-0.07651737	1.034294e-07	9.488697e-07
	1.096763e-06	5.139076e-06	0.02370006	0.006933938	1.034294e-07	9.488697e-07	-0.0081694	-0.0834968
2.3e+08	0.01098647	-0.02330257	3.029894e-06	2.401998e-06	0.07175617	0.02344352	6.609293e-07	2.417709e-06
	3.029894e-06	2.401998e-06	0.007250031	-0.02050022	2.374751e-06	-1.576996e-06	0.0771882	0.01505328
	0.07175618	0.02344353	2.374751e-06	-1.576996e-06	0.007906157	-0.02187394	5.684488e-07	5.257427e-08
	6.609293e-07	2.417709e-06	0.0771882	0.01505328	5.684487e-07	5.257426e-08	0.006130185	-0.02750496
2.4e+08	0.06449126	-0.03915009	-7.279226e-06	6.918594e-06	0.08878459	-0.03219162	-1.968335e-06	3.495985e-06
	-7.279226e-06	6.918594e-06	0.05668421	-0.04548306	-3.093098e-06	-3.708081e-07	0.07678394	-0.038869
	0.0887846	-0.03219161	-3.093098e-06	-3.708082e-07	0.0609016	-0.03600353	-3.133727e-07	-2.672033e-07
	-1.968335e-06	3.495985e-06	0.07678394	-0.03886901	-3.133727e-07	-2.672033e-07	0.0576204	-0.05254229
2.5e+08	0.04166429	-0.09509729	-1.604818e-06	1.720082e-05	0.03336467	-0.04146201	-9.06645e-07	6.345542e-06
	-1.604818e-06	1.720082e-05	0.02362437	-0.09559035	-1.167944e-06	5.102989e-06	0.02560184	-0.0304229
	0.03336468	-0.041462	-1.167944e-06	5.102988e-06	0.039803	-0.09144612	-6.569662e-07	7.61358e-07
	-9.06645e-07	6.345542e-06	0.02560184	-0.0304229	-6.569662e-07	7.613581e-07	0.02373651	-0.105159
2.6e+08	-0.01365551	-0.06849406	7.672746e-06	9.792644e-06	0.03295179	0.01382108	1.855891e-06	4.721917e-06
	7.672746e-06	9.792644e-06	-0.02458234	-0.05871314	4.241917e-06	2.17851e-06	0.04271877	0.01779669
	0.03295179	0.01382109	4.241917e-06	2.17851e-06	-0.01523653	-0.06641084	5.940406e-07	8.797116e-07
	1.855891e-06	4.721917e-06	0.04271876	0.01779669	5.940406e-07	8.797116e-07	-0.02749108	-0.06769331
2.7e+08	0.01886973	-0.02003073	-2.235061e-06	2.525927e-06	0.08890285	0.005293942	-7.27937e-07	2.708975e-06
	-2.235061e-06	2.525927e-06	0.01636058	-0.01887496	9.690589e-08	-2.607765e-06	0.08827015	-0.007695
	0.08890286	0.005293955	9.690613e-08	-2.607765e-06	0.01566948	-0.01783534	3.802744e-07	-3.025603e-07
	-7.27937e-07	2.708975e-06	0.08827015	-0.007695003	3.802743e-07	-3.025603e-07	0.01371284	-0.02527806
2.8e+08	0.06190737	-0.06154296	-8.110079e-06	1.396812e-05	0.07331113	-0.04875143	-2.431891e-06	5.549707e-06
	-8.110079e-06	1.396812e-05	0.04841928	-0.06750007	-3.96462e-06	2.314448e-06	0.05671613	-0.04827997
	0.07331114	-0.04875142	-3.96462e-06	2.314447e-06	0.05899132	-0.05753111	-7.498244e-07	-2.342629e-08
	-2.431891e-06	5.549707e-06	0.05671613	-0.04827997	-7.498245e-07	-2.342623e-08	0.04766349	-0.07480618
2.9e+08	0.01321399	-0.103567	4.037323e-06	1.876727e-05	0.02403326	-0.02688215	5.306911e-07	7.388771e-06
	4.037323e-06	1.876727e-05	-0.007240069	-0.09606373	1.608415e-06	5.892408e-06	0.02338203	-0.01192332
	0.02403326	-0.02688214	1.608415e-06	5.892408e-06	0.01206078	-0.09980843	-3.172375e-07	1.28812e-06
	5.30691e-07	7.388771e-06	0.02338203	-0.01192333	-3.172375e-07	1.28812e-06	-0.009740789	-0.1054667
3e+08	-0.02457725	-0.05193838	6.169769e-06	5.641742e-06	0.05362208	0.01806021	1.550901e-06	3.838596e-06
	6.169769e-06	5.641742e-06	-0.03048089	-0.03887473	4.252663e-06	-5.611184e-07	0.06535987	0.01448583
	0.05362208	0.01806022	4.252663e-06	-5.611183e-07	-0.02615571	-0.04967998	9.373588e-07	4.492431e-07
	1.550901e-06	3.838596e-06	0.06535987	0.01448583	9.373588e-07	4.492431e-07	-0.03561276	-0.04662267
3.1e+08	0.02995252	-0.02418362	-7.741986e-06	6.791627e-06	0.09498158	-0.01879883	-2.259877e-06	4.040416e-06
	-7.741986e-06	6.791627e-06	0.02654624	-0.02605642	-2.734664e-06	-1.802842e-06	0.08542924	-0.03205195
	0.09498159	-0.01879882	-2.734663e-06	-1.802842e-06	0.02693037	-0.02111361	-8.034351e-08	-5.129398e-07
	-2.259877e-06	4.040416e-06	0.08542924	-0.03205195	-8.034358e-08	-5.129397e-07	0.02264855	-0.03153801
3.2e+08	0.04919488	-0.08499109	-4.840207e-06	2.076139e-05	0.0542505	-0.05462917	-1.924259e-06	7.777018e-06
	-4.840207e-06	2.076139e-05	0.02902376	-0.08669029	-2.967706e-06	5.323392e-06	0.03787549	-0.04451761
	0.05425051	-0.05462917	-2.967706e-06	5.323392e-06	0.04715424	-0.08033334	-1.041622e-06	5.547646e-07
	-1.924259e-06	7.777018e-06	0.03787549	-0.04451761	-1.041622e-06	5.547647e-07	0.02653321	-0.09382735
3.3e+08	-0.01686597	-0.09966318	8.698247e-06	1.611476e-05	0.02600919	-0.01106444	2.005079e-06	7.227394e-06
	8.698247e-06	1.611476e-05	-0.03492392	-0.08249693	4.425647e-06	4.608081e-06	0.03430253	0.002911007
	0.0260092	-0.01106444	4.425647e-06	4.608081e-06	-0.01739509	-0.0958903	3.693101e-07	1.503166e-06
	2.005079e-06	7.227394e-06	0.03430252	0.002911006	3.693101e-07	1.503166e-06	-0.03991073	-0.09099141
3.4e+08	-0.02465361	-0.03404193	6.18875e-07	3.620917e-06	0.07442862	0.01002642	2.94079e-08	3.419372e-06
	6.18875e-07	3.620917e-06	-0.02428864	-0.02148745	2.141088e-06	-2.817783e-06	0.08290879	-0.001821012
	0.07442862	0.01002643	2.141088e-06	-2.817783e-06	-0.02615586	-0.03145683	8.938465e-07	-1.723051e-07
	2.940792e-08	3.419372e-06	0.08290879	-0.001821013	8.938465e-07	-1.723051e-07	-0.031144	-0.02742796
3.5e+08	0.03923857	-0.03751926	-1.042415e-05	1.457632e-05	0.08948366	-0.04212088	-3.195071e-06	6.317181e-06
	-1.042415e-05	1.457632e-05	0.031525	-0.04191546	-4.728021e-06	8.995992e-07	0.07128706	-0.04991729
	0.08948367	-0.04212087	-4.728021e-06	8.99599e-07	0.03668985	-0.0336001	-7.072008e-07	-4.061499e-07
	-3.195071e-06	6.317181e-06	0.07128706	-0.04991729	-7.072008e-07	-4.061498e-07	0.02672196	-0.04626472
3.6e+08	0.02553105	-0.1035795	1.601096e-06	2.436127e-05	0.0379261	-0.05056501	-4.161185e-07	9.462179e-06
	1.601096e-06	2.436127e-05	0.0004625862	-0.09602596	-1.539924e-07	7.281105e-06	0.02756747	-0.0316223
	0.03792611	-0.050565	-1.539925e-07	7.281104e-06	0.02447912	-0.09849705	-9.213237e-07	1.337816e-06
	-4.161186e-07	9.462179e-06	0.02756747	-0.0316223	-9.213238e-07	1.337816e-06	-0.003717424	-0.1025724
3.7e+08	-0.04172444	-0.08322929	9.378162e-06	1.076853e-05	0.03764558	-0.0001794082	2.537633e-06	6.006991e-06
	9.378162e-06	1.076853e-05	-0.05164051	-0.05810041	5.749871e-06	1.557865e-06	0.05342558	0.007396164
	0.03764559	-0.0001794008	5.749871e-06	1.557865e-06	-0.04166591	-0.07948423	1.100628e-06	1.172502e-06
	2.537633e-06	6.006991e-06	0.05342558	0.007396164	1.100628e-06	1.172502e-06	-0.05878343	-0.06497754
3.8e+08	-0.01445279	-0.02122715	-6.60513e-06	6.31081e-06	0.08931291	-0.008046692	-2.117335e-06	4.278913e-06
	-6.60513e-06	6.31081e-06	-0.009538229	-0.01338462	-1.343694e-06	-3.16353e-06	0.08945742	-0.02547425
	0.08931292	-0.008046684	-1.343694e-06	-3.16353e-06	-0.01573684	-0.01824414	3.974343e-07	-6.907285e-07
	-2.117335e-06	4.278913e-06	0.08945742	-0.02547425	3.974342e-07	-6.907285e-07	-0.01745038	-0.01711607
3.9e+08	0.04093927	-0.05840938	-8.321408e-06	2.320522e-05	0.07538181	-0.05932855	-3.01043e-06	8.996101e-06
	-8.321408e-06	2.320522e-05	0.02580059	-0.06191412	-4.729046e-06	4.593919e-06	0.05231486	-0.05674357
	0.07538182	-0.05932854	-4.729046e-06	4.593919e-06	0.03910882	-0.05375176	-1.282718e-06	1.250614e-07
	-3.01043e-06	8.996101e-06	0.05231485	-0.05674357	-1.282718e-06	1.250615e-07	0.02045038	-0.06505225
4e+08	-0.006038857	-0.1111553	8.34572e-06	2.305445e-05	0.02872856	-0.0403235	1.601122e-06	9.910713e-06
	8.34572e-06	2.305445e-05	-0.03056086	-0.09043311	3.462102e-06	7.066128e-06	0.02901519	-0.01667887
	0.02872857	-0.04032349	3.462102e-06	7.066128e-06	-0.006026975	-0.1058471	-2.532959e-07	1.976082e-06
	1.601122e-06	9.910713e-06	0.02901519	-0.01667887	-2.532959e-07	1.976082e-06	-0.0363052	-0.09596122
4.1e+08	-0.05505116	-0.05832928	4.816797e-06	6.1977e-06	0.05465352	0.001798674	1.442483e-06	4.648177e-06
	4.816797e-06	6.1977e-06	-0.05267673	-0.03067631	4.558122e-06	-1.870225e-06	0.07340462	-0.000915987
	0.05465352	0.001798681	4.558122e-06	-1.870225e-06	-0.05439103	-0.05467033	1.451012e-06	3.541094e-07
	1.442483e-06	4.648177e-06	0.07340461	-0.0009159866	1.451012e-06	3.541094e-07	-0.061429	-0.03531
4.2e+08	0.001616735	-0.01881682	-1.17686e-05	1.398149e-05	0.09465348	-0.03151528	-3.853403e-06	6.590958e-06
	-1.17686e-05	1.398149e-05	0.006423992	-0.01806169	-4.607516e-06	-1.016113e-06	0.08359864	-0.0490328
	0.09465349	-0.03151527	-4.607516e-06	-1.016113e-06	0.0006935363	-0.01544572	-4.201511e-07	-8.332292e-07
	-3.853403e-06	6.590958e-06	0.08359864	-0.0490328	-4.201512e-07	-8.332292e-07	-0.00176847	-0.01942853
4.3e+08	0.03079427	-0.08167708	-1.753247e-06	2.91828e-05	0.05753137	-0.06787458	-1.59578e-06	1.130237e-05
	-1.753247e-06	2.91828e-05	0.007721144	-0.07825953	-2.410134e-06	7.768701e-06	0.03582111	-0.0527298
	0.05753137	-0.06787458	-2.410134e-06	7.768701e-06	0.02987778	-0.07642624	-1.505713e-06	1.035958e-06
	-1.59578e-06	1.130237e-05	0.0358211	-0.0527298	-1.505713e-06	1.035958e-06	0.002126675	-0.08022416
4.4e+08	-0.03886034	-0.1039456	1.181768e-05	1.749115e-05	0.02812486	-0.02888073	3.1339e-06	8.852108e-06
	1.181768e-05	1.749115e-05	-0.05469399	-0.06992614	6.228409e-06	4.448456e-06	0.04085874	-0.006775557
	0.02812487	-0.02888073	6.228409e-06	4.448456e-06	-0.03770783	-0.09861405	7.866176e-07	2.04789e-06
	3.1339e-06	8.852108e-06	0.04085874	-0.006775557	7.866176e-07	2.04789e-06	-0.06177913	-0.07399115
4.5e+08	-0.05368249	-0.03231547	-3.413247e-06	6.106873e-06	0.07182757	-0.006240207	-1.084302e-06	4.429569e-06
	-3.413247e-06	6.106873e-06	-0.03892302	-0.009768632	1.044539e-06	-3.812247e-06	0.08729992	-0.02009307
	0.07182758	-0.006240201	1.044539e-06	-3.812248e-06	-0.05240447	-0.0288583	1.139002e-06	-5.855631e-07
	-1.084302e-06	4.429569e-06	0.08729992	-0.02009307	1.139002e-06	-5.85563e-07	-0.04851757	-0.01169781
4.6e+08	0.01651976	-0.02881146	-1.177687e-05	2.416965e-05	0.08982747	-0.05510418	-4.292497e-06	9.771102e-06
	-1.177687e-05	2.416965e-05	0.01526613	-0.03371842	-6.009235e-06	2.981636e-06	0.06823091	-0.06615518
	0.08982748	-0.05510418	-6.009235e-06	2.981636e-06	0.01606295	-0.02510134	-1.291982e-06	-4.476705e-07
	-4.292497e-06	9.771102e-06	0.06823091	-0.06615518	-1.291982e-06	-4.476704e-07	0.007571672	-0.03286051
4.7e+08	0.008195003	-0.09998613	6.617531e-06	2.993105e-05	0.04073627	-0.06818996	6.814285e-07	1.246991e-05
	6.617531e-06	2.993105e-05	-0.01877663	-0.08309666	1.493118e-06	8.960492e-06	0.02712728	-0.04195283
	0.04073628	-0.06818996	1.493118e-06	8.960492e-06	0.008372839	-0.09430293	-1.110039e-06	2.049326e-06
	6.814284e-07	1.246991e-05	0.02712728	-0.04195283	-1.110039e-06	2.049326e-06	-0.02441682	-0.08397686
4.8e+08	-0.06465538	-0.08258989	9.536047e-06	1.076934e-05	0.03493653	-0.02067678	3.069972e-06	6.834949e-06
	9.536047e-06	1.076934e-05	-0.06388523	-0.04061443	6.589453e-06	4.119588e-07	0.05842256	-0.00668068
	0.03493654	-0.02067677	6.589454e-06	4.119589e-07	-0.06228797	-0.07749146	1.704571e-06	1.343544e-06
