# GHz S RI R 45
0.000     0.011864869000    0.000000000000    0.000016022464    -0.000000000000    0.000433169080    -0.000000000000    0.000000506373    -0.000000000000
            0.000016022365    -0.000000000000    0.011265201000    0.000000000000    0.000008690605    -0.000000000000    0.000434740820    -0.000000000000
            0.000433165490    -0.000000000000    0.000008690309    -0.000000000000    0.011825220000    0.000000000000    -0.000001400718    0.000000000000
            0.000000506100    -0.000000000000    0.000434737760    -0.000000000000    -0.000001400679    0.000000000000    0.011178701000    0.000000000000
0.025     0.016170190998    0.011277526712    -0.000002645306    -0.000004959008    0.002175603718    0.010166959265    -0.000000113634    0.000006298699
            -0.000002645350    -0.000004959001    0.015165234130    0.010442332654    -0.000000019880    0.000000879356    0.001980580699    0.009419451373
            0.002175573760    0.010167006581    -0.000000020051    0.000000879655    0.016107431592    0.011251475063    -0.000000403881    0.000008413458
            -0.000000113910    0.000006298747    0.001980549946    0.009419498612    -0.000000403850    0.000008413453    0.015097936866    0.010409929811
0.050     0.022310472554    0.019064877682    -0.000003616418    0.000009580184    0.006826944728    0.019233625560    0.000003845884    0.000013691905
            -0.000003616466    0.000009580205    0.020805714558    0.017723082724    0.000003005797    0.000012509298    0.006209185133    0.017933435609
            0.006826928275    0.019233635644    0.000003005519    0.000012509409    0.022240381527    0.019039414826    0.000004695668    0.000016309656
            0.000003845629    0.000013692009    0.006209168900    0.017933444405    0.000004695683    0.000016309653    0.020728046194    0.017675350143
0.075     0.030528349313    0.024702348853    0.000003930898    0.000018705048    0.013992328197    0.026529274752    0.000010745733    0.000018774544
            0.000003930852    0.000018705072    0.028418399056    0.023136888925    0.000010704214    0.000019236778    0.012798894876    0.024909741066
            0.013992318000    0.026529276739    0.000010703966    0.000019236934    0.030459279127    0.024677525682    0.000012612689    0.000021818817
            0.000010745507    0.000018774693    0.012798884353    0.024909741976    0.000012612706    0.000021818811    0.028331555013    0.023079913620
0.100     0.040406982059    0.027570295584    0.000014577061    0.000022567133    0.023093207578    0.031435538759    0.000019386755    0.000021028463
            0.000014577018    0.000022567168    0.037690186646    0.026112177822    0.000020713541    0.000021861069    0.021263815448    0.029795530122
            0.023093205976    0.031435541177    0.000020713327    0.000021861267    0.040345573843    0.027550078183    0.000022401748    0.000024292033
            0.000019386559    0.000021028651    0.021263813428    0.029795532792    0.000022401762    0.000024292022    0.037597924512    0.026055749968
0.125     0.051055183312    0.027152861923    0.000025649657    0.000021657225    0.033413870211    0.033523911044    0.000028669301    0.000020272267
            0.000025649621    0.000021657261    0.047877019098    0.026124173745    0.000031195954    0.000020488264    0.031008757911    0.032190113131
            0.033413869867    0.033523914210    0.000031195780    0.000020488498    0.051010708580    0.027130949389    0.000032937290    0.000023453414
            0.000028669144    0.000020272485    0.031008756920    0.032190115474    0.000032937303    0.000023453404    0.047785391911    0.026090286705
0.150     0.061741307768    0.023410775074    0.000035727812    0.000016724757    0.044159099804    0.032515527898    0.000037734502    0.000016590934
            0.000035727782    0.000016724797    0.058360339756    0.023132023758    0.000040958086    0.000015549886    0.041368234390    0.031801383199
            0.044159099474    0.032515530032    0.000040957960    0.000015550136    0.061729483635    0.023399686858    0.000043277738    0.000019348337
            0.000037734400    0.000016591164    0.041368234310    0.031801386584    0.000043277749    0.000019348325    0.058287302885    0.023123282295
0.175     0.071472168955    0.016335910922    0.000043688562    0.000008731081    0.054491270787    0.028368231329    0.000045812669    0.000010288074
            0.000043688539    0.000008731126    0.068284334885    0.017035006425    0.000049030368    0.000007699867    0.051625948663    0.028529701575
            0.054491270684    0.028368233693    0.000049030292    0.000007700140    0.071510928703    0.016333720212    0.000052562914    0.000012275447
            0.000045812646    0.000010288351    0.051625949418    0.028529704344    0.000052562923    0.000012275435    0.068251047390    0.017054730891
0.200     0.079338616993    0.006222805056    0.000049015929    -0.000001375780    0.063597060017    0.021246159147    0.000052354508    0.000001751044
            0.000049015913    -0.000001375734    0.076841448503    0.008001534939    0.000054868047    -0.000002349187    0.061071584725    0.022445534987
            0.063597061543    0.021246160891    0.000054868028    -0.000002348944    0.079446706270    0.006219823351    0.000060163535    0.000002644022
            0.000052354488    0.000001751302    0.061071585818    0.022445537809    0.000060163539    0.000002644008    0.076872104634    0.008049078865
0.225     0.084537948045    -0.006420447310    0.000051438236    -0.000012616709    0.070722601410    0.011500926387    0.000056924824    -0.000008543000
            0.000051438229    -0.000012616655    0.083293015008    -0.003615382706    0.000058116027    -0.000013833877    0.069027577140    0.013776290928
            0.070722603063    0.011500928683    0.000058116049    -0.000013833635    0.084733483587    -0.006441452827    0.000065569347    -0.000009028409
            0.000056924853    -0.000008542747    0.069027577640    0.013776293533    0.000065569350    -0.000009028406    0.083414151171    -0.003547841914
0.250     0.086424296544    -0.020896467485    0.000051006451    -0.000024224891    0.075217748795    -0.000347174724    0.000059228328    -0.000020130125
            0.000051006448    -0.000024224887    0.087013587820    -0.017292203274    0.000058666863    -0.000026103770    0.074886755334    0.002894885184
            0.075217750801    -0.000347173433    0.000058666935    -0.000026103537    0.086722546441    -0.020959813118    0.000068428441    -0.000022225846
            0.000059228400    -0.000020129895    0.074886757236    0.002894887745    0.000068428443    -0.000022225939    0.087251940517    -0.017220177817
0.275     0.084523264588    -0.036367819168    0.000047894635    -0.000035497248    0.076560617961    -0.013633088145    0.000059053683    -0.000032509068
            0.000047894643    -0.000035497197    0.087502121912    -0.032376023481    0.000056517428    -0.000038530842    0.078131843847    -0.009697080181
            0.076560620881    -0.013633083150    0.000056517540    -0.000038530630    0.084934649413    -0.036504322019    0.000068481878    -0.000036383958
            0.000059053799    -0.000032508862    0.078131846069    -0.009697078519    0.000068481886    -0.000036383953    0.087882919916    -0.032323543229
0.300     0.078574352915    -0.051895915908    0.000042378969    -0.000045948468    0.074393627994    -0.027579984544    0.000056266531    -0.000045198394
            0.000042378979    -0.000045948467    0.084422218940    -0.048110638623    0.000051762413    -0.000050613154    0.078367087094    -0.023393237916
            0.074393630351    -0.027579983941    0.000051762557    -0.000050612971    0.079101849712    -0.052142963159    0.000065564298    -0.000050954948
            0.000056266677    -0.000045198223    0.078367089419    -0.023393237121    0.000065564273    -0.000050955038    0.084966010461    -0.048110443645
0.325     0.068533746233    -0.066485783546    0.000034779961    -0.000055148670    0.068538733608    -0.041328055425    0.000050805443    -0.000057685155
            0.000034779982    -0.000055148626    0.077603529955    -0.063672315649    0.000044552961    -0.000061867130    0.075330283702    -0.037503155969
            0.068538736042    -0.041328055261    0.000044553152    -0.000061866938    0.069170964272    -0.066884913303    0.000059594544    -0.000065353333
            0.000050805612    -0.000057685009    0.075330286147    -0.037503155545    0.000059594505    -0.000065353421    0.078324172205    -0.063764630731
0.350     0.054598774059    -0.079141096326    0.000025415171    -0.000062809421    0.059022847518    -0.053982073939    0.000042676025    -0.000069457490
            0.000025415223    -0.000062809339    0.067067155659    -0.078210911936    0.000035074057    -0.000071888015    0.068915938258    -0.051287587128
            0.059022849936    -0.053982074259    0.000035074252    -0.000071887901    0.055327417782    -0.079736280174    0.000050571551    -0.000078995919
            0.000042676298    -0.000069457434    0.068915940758    -0.051287587119    0.000050571560    -0.000078995921    0.067969318372    -0.078442124605
0.375     0.037197937897    -0.088908270278    0.000014628710    -0.000068671486    0.046082983368    -0.064645946144    0.000031975377    -0.000079979596
            0.000014628714    -0.000068671493    0.053018399540    -0.090881884837    0.000023566118    -0.000080278561    0.059179502702    -0.063981795436
            0.046082986238    -0.064645947782    0.000023566343    -0.000080278445    0.037986650524    -0.089742747358    0.000038598850    -0.000091273324
            0.000031975582    -0.000079979528    0.059179505176    -0.063981795871    0.000038598858    -0.000091273329    0.054095384024    -0.091302437043
0.400     0.016989256292    -0.094941141217    0.000002744173    -0.000072549657    0.030171393419    -0.072484991373    0.000018891853    -0.000088720788
            0.000002744165    -0.000072549675    0.035852099056    -0.100895697338    0.000010302664    -0.000086685936    0.046347881209    -0.074841518378
            0.030171395453    -0.072484992693    0.000010302844    -0.000086685892    0.017791990046    -0.096053787344    0.000023881379    -0.000101583952
            0.000018892061    -0.000088720761    0.046347884095    -0.074841520120    0.000023881386    -0.000101583950    0.037084405461    -0.101557386834
0.425     -0.005166181061    -0.096544537415    -0.000009875789    -0.000074285335    0.011943457134    -0.076765090262    0.000003733083    -0.000095162133
            -0.000009875699    -0.000074285299    0.016136224698    -0.107548736319    -0.000004368528    -0.000090780691    0.030812281089    -0.083167909439
            0.011943501150    -0.076765073293    -0.000004368329    -0.000090780681    -0.004410856192    -0.097966516813    0.000006758194    -0.000109341554
            0.000003733286    -0.000095162138    0.030812283583    -0.083167911715    0.000006758157    -0.000109341576    0.017490575753    -0.108501054414
0.450     -0.028240449038    -0.093236567133    -0.000022863181    -0.000073766836    -0.007768838997    -0.076917895497    -0.000013073628    -0.000098830694
            -0.000022863088    -0.000073766855    -0.005405858267    -0.110271293119    -0.000020039241    -0.000092279612    0.013120117301    -0.088357715824
            -0.007768837855    -0.076917897622    -0.000020038960    -0.000092279564    -0.027611179466    -0.094986446130    -0.000012302354    -0.000114010264
            -0.000013073442    -0.000098830743    0.013120119137    -0.088357717573    -0.000012302344    -0.000114010265    -0.003977391583    -0.111558209426
0.475     -0.051088154541    -0.084781711676    -0.000035802617    -0.000070907576    -0.027997202152    -0.072574886935    -0.000030974764    -0.000099311509
            -0.000035802521    -0.000070907571    -0.027924823029    -0.108652772385    -0.000036223665    -0.000090930411    -0.006045336662    -0.089926237660
            -0.027997202152    -0.072574886935    -0.000036223485    -0.000090930468    -0.050687105967    -0.086861272776    -0.000032696143    -0.000115113934
            -0.000030974580    -0.000099311587    -0.006045335361    -0.089926241756    -0.000032696171    -0.000115113957    -0.026483746596    -0.110309944691
0.500     -0.072514853354    -0.071228186388    -0.000048322689    -0.000065685261    -0.047712820560    -0.063613318290    -0.000049358472    -0.000096304656
            -0.000048322569    -0.000065685265    -0.050484950954    -0.102477713488    -0.000052466336    -0.000086575463    -0.025896915874    -0.087551134587
            -0.047712822360    -0.063613320690    -0.000052466073    -0.000086575540    -0.072501948873    -0.073617199330    -0.000053779847    -0.000112308814
            -0.000049358329    -0.000096304751    -0.025896915874    -0.087551134587    -0.000053779955    -0.000112308840    -0.049105439067    -0.104529530371
0.525     -0.091348356147    -0.052908025377    -0.000059995452    -0.000058207250    -0.066028601732    -0.050186384449    -0.000067507188    -0.000089692695
            -0.000059995340    -0.000058207243    -0.072107948868    -0.091736691510    -0.000068309229    -0.000079260229    -0.045577469582    -0.081083645709
            -0.066028595361    -0.050186397788    -0.000068309050    -0.000079260357    -0.092231576574    -0.055624515645    -0.000074905617    -0.000105521476
            -0.000067507047    -0.000089692801    -0.045577470562    -0.081083647452    -0.000074905617    -0.000105521476    -0.070873397016    -0.094196203549
0.550     -0.106524097480    -0.030487454880    -0.000070382005    -0.000048651676    -0.080479655456    -0.033730975932    -0.000084639718    -0.000079535906
            -0.000070381969    -0.000048651651    -0.091830608594    -0.076641104374    -0.000082145239    -0.000069531726    -0.064212654295    -0.070574600511
            -0.080479655456    -0.033730975932    -0.000082145070    -0.000069531927    -0.106023841357    -0.035142941953    -0.000093788513    -0.000095177558
            -0.000084639593    -0.000079536010    -0.064212647361    -0.070574617636    -0.000093788495    -0.000095177506    -0.090826660871    -0.079508082876
0.575     -0.117058903038    -0.004710227344    -0.000079073338    -0.000037188374    -0.092397024942    -0.012179671698    -0.000099994343    -0.000065935724
            -0.000079073259    -0.000037188370    -0.108753921347    -0.057616094802    -0.000095095105    -0.000056207103    -0.080951499333    -0.056268331536
            -0.092397024942    -0.012179671698    -0.000095095052    -0.000056207251    -0.117484846348    -0.008470967230    -0.000112123718    -0.000079951357
            -0.000099994206    -0.000065935859    -0.080951499333    -0.056268331536    -0.000112123710    -0.000079951351    -0.108060023475    -0.060873835702
0.600     -0.122061805791    0.023227244598    -0.000085630060    -0.000024181768    -0.099799132064    0.011288442126    -0.000112743582    -0.000049305865
            -0.000085630111    -0.000024181750    -0.122095237105    -0.035288770200    -0.000105698600    -0.000040888714    -0.095022949008    -0.038602071508
            -0.099799142001    0.011288443250    -0.000105698515    -0.000040888851    -0.123544676036    0.019379011419    -0.000127619820    -0.000061730025
            -0.000112743531    -0.000049306031    -0.095022958273    -0.038602075271    -0.000127619820    -0.000061730025    -0.121781047711    -0.038897260169
0.625     -0.121732028476    0.051371404595    -0.000089956663    -0.000010402152    -0.102598513128    0.035823218764    -0.000122463843    -0.000030651564
            -0.000089956631    -0.000010402164    -0.131220634081    -0.010450767698    -0.000113629023    -0.000023701728    -0.105763998699    -0.018175726300
            -0.102598513128    0.035823218764    -0.000113628927    -0.000023701894    -0.123974123449    0.048200213941    -0.000139810090    -0.000040654232
            -0.000122463844    -0.000030651724    -0.105763998699    -0.018175726300    -0.000139810141    -0.000040654273    -0.131347136597    -0.014345691716
0.650     -0.116166400015    0.079767510072    -0.000092099463    0.000004216312    -0.100647085611    0.061106674218    -0.000129032854    -0.000010003343
            -0.000092099448    0.000004216215    -0.135686358383    0.015988607309    -0.000118574232    -0.000005138041    -0.112668194036    0.004280834955
            -0.100647085611    0.061106674218    -0.000118574246    -0.000005138187    -0.118707038500    0.076837207611    -0.000148200821    -0.000017366722
            -0.000129032915    -0.000010003461    -0.112668194036    0.004280834955    -0.000148200880    -0.000017366651    -0.136305715998    0.011890254628
0.675     -0.104975487853    0.106798624645    -0.000091716474    0.000019114499    -0.093679957458    0.085827398550    -0.000131801901    0.000011831759
            -0.000091716445    0.000019114443    -0.135254865092    0.043052552147    -0.000120348607    0.000014228265    -0.115394561991    0.027951400281
            -0.093679957458    0.085827398550    -0.000120349081    0.000014227916    -0.107960248766    0.104086151570    -0.000152462216    0.000007359745
            -0.000131801954    0.000011831625    -0.115394600904    0.027951367063    -0.000152462215    0.000007359772    -0.136407496503    0.038846093097
0.700     -0.088762652388    0.131247893568    -0.000088882822    0.000033794947    -0.082054237897    0.108929597679    -0.000130705442    0.000034045413
            -0.000088882756    0.000033794815    -0.129910693564    0.069751414081    -0.000118886872    0.000033821739    -0.113796080293    0.051981423943
            -0.082054237897    0.108929597679    -0.000118886848    0.000033821530    -0.092202328538    0.128855827700    -0.000152437714    0.000032736978
            -0.000130705454    0.000034045246    -0.113796089389    0.051981428098    -0.000152437828    0.000032737114    -0.131619744714    0.065537990469
0.725     -0.068263727329    0.152179227558    -0.000083741770    0.000047857518    -0.066269687196    0.129528412096    -0.000125804426    0.000055928911
            -0.000083741806    0.000047857499    -0.119845538239    0.095128354893    -0.000114236049    0.000053092588    -0.107901605321    0.075517234183
            -0.066269709803    0.129528400530    -0.000114236078    0.000053092432    -0.072112564240    0.150207397975    -0.000148133231    0.000057993644
            -0.000125804400    0.000055928452    -0.107901605321    0.075517234183    -0.000148133213    0.000057993607    -0.122114747753    0.091011714485
0.750     -0.044350135964    0.168868572262    -0.000076483692    0.000060964236    -0.046970343828    0.146900333769    -0.000117282789    0.000076840854
            -0.000076483714    0.000060964166    -0.105444160414    0.118309220952    -0.000106535371    0.000071533941    -0.097918235096    0.097754547670
            -0.046970343828    0.146900333769    -0.000106535450    0.000071533859    -0.048533171584    0.167400642198    -0.000139692611    0.000082414450
            -0.000117282913    0.000076840994    -0.097918235096    0.097754547670    -0.000139692602    0.000082414445    -0.108256160306    0.114391385285
0.775     -0.017986852976    0.180809369628    -0.000067339230    0.000072845179    -0.024901648650    0.160485767883    -0.000105414849    0.000096220688
            -0.000067339200    0.000072845121    -0.087250122030    0.138534219300    -0.000095998132    0.000088704718    -0.084197922156    0.117961638394
            -0.024901659323    0.160485725748    -0.000095998203    0.000088704876    -0.022410038425    0.179910037496    -0.000127370783    0.000105363049
