# GHz S RI R 45
0.000     0.011864869000    0.000000000000    -0.000002864460    0.000000000000    0.000433169080    -0.000000000000    -0.000007520418    0.000000000000
            -0.000002864498    0.000000000000    0.010456038000    0.000000000000    0.000005342095    0.000000000000    0.000349075740    -0.000000000000
            0.000433165490    -0.000000000000    0.000005342075    0.000000000000    0.011825220000    0.000000000000    -0.000008510760    0.000000000000
            -0.000007520578    0.000000000000    0.000349071140    -0.000000000000    -0.000008510733    0.000000000000    0.010422940000    0.000000000000
0.025     0.016170190998    0.011277526712    -0.000004016816    0.000001387749    0.002175603718    0.010166959265    0.000001516042    0.000006876147
            -0.000004016852    0.000001387758    0.014305689007    0.009878010473    0.000014018306    0.000060117966    0.001833158744    0.008871789967
            0.002175573760    0.010167006581    0.000014018288    0.000060117970    0.016107431592    0.011251475063    0.000002346905    0.000008166147
            0.000001515886    0.000006876174    0.001833127158    0.008871837134    0.000002346938    0.000008166144    0.014236335656    0.009795140504
0.050     0.022310472554    0.019064877682    -0.000003437028    0.000004108993    0.006826944728    0.019233625560    0.000005335552    0.000004498473
            -0.000003437070    0.000004109011    0.019697377720    0.016753960507    0.000032263292    0.000115711042    0.005834150726    0.016893480760
            0.006826928275    0.019233635644    0.000032263272    0.000115711047    0.022240381527    0.019039414826    0.000006669837    0.000005262046
            0.000005335391    0.000004498532    0.005834132509    0.016893489168    0.000006669864    0.000005262042    0.019597820658    0.016617734428
0.075     0.030528349313    0.024702348853    -0.000001904431    0.000006108114    0.013992328197    0.026529274752    0.000006567212    0.000002837753
            -0.000001904463    0.000006108142    0.026991494197    0.021922466816    0.000058170879    0.000165880073    0.012080381516    0.023526739063
            0.013992318000    0.026529276739    0.000058170862    0.000165880079    0.030459279127    0.024677525682    0.000007675689    0.000003397955
            0.000006567069    0.000002837835    0.012080369834    0.023526740565    0.000007675719    0.000003397946    0.026855810983    0.021742762445
0.100     0.040406982059    0.027570295584    -0.000000028202    0.000007450565    0.023093207578    0.031435538759    0.000007218045    0.000001569314
            -0.000000028226    0.000007450592    0.035943972283    0.024857217039    0.000090673465    0.000210710808    0.020157818086    0.028266183073
            0.023093205976    0.031435541177    0.000090673454    0.000210710824    0.040345573843    0.027550078183    0.000007887399    0.000002305485
            0.000007217915    0.000001569422    0.020157815126    0.028266185183    0.000007887429    0.000002305471    0.035768009658    0.024650531044
0.125     0.051055183312    0.027152861923    0.000002029602    0.000008330594    0.033413870211    0.033523911044    0.000007648305    0.000000493754
            0.000002029580    0.000008330627    0.045885808798    0.025044323729    0.000129152914    0.000252611486    0.029550905843    0.030731909591
            0.033413869867    0.033523914210    0.000129152901    0.000252611504    0.051010708580    0.027130949389    0.000007955743    0.000001855194
            0.000007648204    0.000000493870    0.029550903854    0.030731912891    0.000007955778    0.000001855172    0.045674140060    0.024828496610
0.150     0.061741307768    0.023410775074    0.000004116307    0.000008749341    0.044159099804    0.032515527898    0.000007917602    -0.000000502241
            0.000004116294    0.000008749373    0.056319544563    0.022435652716    0.000173995074    0.000288319176    0.039680265612    0.030628411893
            0.044159099474    0.032515530032    0.000173995064    0.000288319193    0.061729483635    0.023399686858    0.000008074687    0.000001743783
            0.000007917524    -0.000000502113    0.039680264265    0.030628415274    0.000008074713    0.000001743763    0.056073445851    0.022238414960
0.175     0.071472168955    0.016335910922    0.000006160660    0.000008837307    0.054491270787    0.028368231329    0.000008080175    -0.000001425049
            0.000006160655    0.000008837343    0.066458213693    0.016874683851    0.000224250736    0.000317096021    0.049911774029    0.027824082164
            0.054491270684    0.028368233693    0.000224250730    0.000317096037    0.071510928703    0.016333720212    0.000008404472    0.000001865421
            0.000008080117    -0.000001424901    0.049911773445    0.027824085264    0.000008404500    0.000001865393    0.066197869621    0.016719049211
0.200     0.079338616993    0.006222805056    0.000008200616    0.000008687197    0.063597060017    0.021246159147    0.000008188029    -0.000002273683
            0.000008200616    0.000008687230    0.075562250921    0.008458978733    0.000278934894    0.000338326116    0.059606988042    0.022333830638
            0.063597061543    0.021246160891    0.000278934888    0.000338326133    0.079446706270    0.006219823351    0.000009028733    0.000002105046
            0.000008187993    -0.000002273531    0.059606988746    0.022333834461    0.000009028754    0.000002105019    0.075315526846    0.008358140534
0.225     0.084537948045    -0.006420447310    0.000010312827    0.000008342259    0.070722601410    0.011500926387    0.000008321924    -0.000003072910
            0.000010312833    0.000008342299    0.082944725696    -0.002553244751    0.000337036164    0.000351490480    0.068144668264    0.014308975716
            0.070722603063    0.011500928683    0.000337036165    0.000351490493    0.084733483587    -0.006441452827    0.000010050535    0.000002308937
            0.000008321923    -0.000003072756    0.068144669722    0.014308978506    0.000010050556    0.000002308904    0.082743273382    -0.002595010799
0.250     0.086424296544    -0.020896467485    0.000012606311    0.000007744777    0.075217748795    -0.000347174724    0.000008551667    -0.000003882133
            0.000012606322    0.000007744806    0.088005109628    -0.015749274403    0.000397495714    0.000356152810    0.074954642024    0.004030800306
            0.075217750801    -0.000347173433    0.000397495716    0.000356152837    0.086722546441    -0.020959813118    0.000011502086    0.000002312460
            0.000008551685    -0.000003881978    0.074954642889    0.004030802846    0.000011502103    0.000002312420    0.087883085756    -0.015735464558
0.275     0.084523264588    -0.036367819168    0.000015154980    0.000006760400    0.076560617961    -0.013633088145    0.000008931988    -0.000004821136
            0.000015155000    0.000006760432    0.090238551819    -0.030596534123    0.000459189489    0.000351956582    0.079533769140    -0.008102630642
            0.076560620881    -0.013633083150    0.000459189492    0.000351956610    0.084934649413    -0.036504322019    0.000013383072    0.000001884571
            0.000008932028    -0.000004820999    0.079533771399    -0.008102628207    0.000013383082    0.000001884529    0.090230936191    -0.030539470133
0.300     0.078574352915    -0.051895915908    0.000017967517    0.000005160318    0.074393627994    -0.027579984544    0.000009463331    -0.000006045547
            0.000017967542    0.000005160343    0.089273660481    -0.046460616943    0.000520909361    0.000338643936    0.081475914754    -0.021594969257
            0.074393630351    -0.027579983941    0.000520909372    0.000338643956    0.079101849712    -0.052142963159    0.000015606268    0.000000795707
            0.000009463396    -0.000006045410    0.081475918408    -0.021594967181    0.000015606274    0.000000795662    0.089414661232    -0.046382688871
0.325     0.068533746233    -0.066485783546    0.000020946447    0.000002673937    0.068538733608    -0.041328055425    0.000010080913    -0.000007755354
            0.000020946476    0.000002673959    0.084873936716    -0.062635945722    0.000581354163    0.000316079360    0.080480921480    -0.035868444252
            0.068538736042    -0.041328055261    0.000581354166    0.000316079375    0.069170964272    -0.066884913303    0.000017999866    -0.000001217695
            0.000010080994    -0.000007755235    0.080480925472    -0.035868442663    0.000017999865    -0.000001217741    0.085194495395    -0.062569462209
0.350     0.054598774059    -0.079141096326    0.000023870707    -0.000001006146    0.059022847518    -0.053982073939    0.000010640238    -0.000010161238
            0.000023870738    -0.000001006125    0.076963635909    -0.078378662951    0.000639139603    0.000284280192    0.076377507776    -0.050292454487
            0.059022849936    -0.053982074259    0.000639139616    0.000284280212    0.055327417782    -0.079736280174    0.000020298778    -0.000004393900
            0.000010640335    -0.000010161133    0.076377511202    -0.050292452921    0.000020298772    -0.000004393947    0.077488758674    -0.078365462167
0.375     0.037197937897    -0.088908270278    0.000026413134    -0.000006190237    0.046082983368    -0.064645946144    0.000010933325    -0.000013504530
            0.000026413162    -0.000006190229    0.065620237258    -0.092933497114    0.000692838892    0.000243423140    0.069124595105    -0.064201552535
            0.046082986238    -0.064645947782    0.000692838907    0.000243423159    0.037986650524    -0.089742747358    0.000022165761    -0.000008983531
            0.000010933437    -0.000013504444    0.069124598423    -0.064201553370    0.000022165751    -0.000008983573    0.066367130043    -0.093023986357
0.400     0.016989256292    -0.094941141217    0.000028223512    -0.000013253989    0.030171393419    -0.072484991373    0.000010772274    -0.000018091112
            0.000028223551    -0.000013253982    0.051083602078    -0.105573317964    0.000741096086    0.000193799950    0.058823624150    -0.076933024969
            0.030171395453    -0.072484992693    0.000741096106    0.000193799955    0.017791990046    -0.096053787344    0.000023290273    -0.000015286876
            0.000010772395    -0.000018091049    0.058823626708    -0.076933025531    0.000023290253    -0.000015286923    0.052059722771    -0.105825579723
0.425     -0.005166181061    -0.096544537415    0.000029339297    -0.000022768865    0.011943457134    -0.076765090262    0.000010345717    -0.000024423153
            0.000029339320    -0.000022768867    0.033742012326    -0.115622578336    0.000783032650    0.000135677222    0.045712081325    -0.087843659686
            0.011943501150    -0.076765073293    0.000783032669    0.000135677227    -0.004410856192    -0.097966516813    0.000023785889    -0.000023833225
            0.000010345869    -0.000024423152    0.045712085776    -0.087843660751    0.000023785862    -0.000023833266    0.034943343278    -0.116101455640
0.450     -0.028240449038    -0.093236567133    0.000031780152    -0.000034883590    -0.007768838997    -0.076917895497    0.000011596625    -0.000032542262
            0.000031780185    -0.000034883596    0.014122448005    -0.122496005474    0.000819756636    0.000069923570    0.030161332180    -0.096349937954
            -0.007768837855    -0.076917897622    0.000819756656    0.000069923568    -0.027611179466    -0.094986446130    0.000025813117    -0.000034719819
            0.000011596751    -0.000032542246    0.030161333861    -0.096349937428    0.000025813078    -0.000034719856    0.015532558852    -0.123272276444
0.475     -0.051088154541    -0.084781711676    0.000037956426    -0.000042851390    -0.027997202152    -0.072574886935    0.000016417425    -0.000036464103
            0.000037956447    -0.000042851403    -0.007127245578    -0.125715267634    0.000852576670    0.000004041739    0.012664391414    -0.101941460724
            -0.027997202152    -0.072574886935    0.000852576700    0.000004041738    -0.050687105967    -0.086861272776    0.000031791878    -0.000041062678
            0.000016417554    -0.000036464109    0.012664394426    -0.101941470427    0.000031791832    -0.000041062712    -0.005541361319    -0.126866518008
0.500     -0.072514853354    -0.071228186388    0.000036448955    -0.000043619537    -0.047712820560    -0.063613318290    0.000014821600    -0.000034184915
            0.000036448979    -0.000043619555    -0.029253795476    -0.124940649875    0.000870055147    -0.000058707804    -0.006177326899    -0.104218717028
            -0.047712822360    -0.063613320690    0.000870055177    -0.000058707804    -0.072501948873    -0.073617199330    0.000030171061    -0.000040142628
            0.000014821727    -0.000034184937    -0.006177326899    -0.104218717028    0.000030171009    -0.000040142662    -0.027554494004    -0.126550872749
0.525     -0.091348356147    -0.052908025377    0.000028097962    -0.000046498404    -0.066028601732    -0.050186384449    0.000008031059    -0.000033730011
            0.000028097976    -0.000046498422    -0.051409980318    -0.120007758794    0.000873387134    -0.000126112406    -0.025666628460    -0.102914222595
            -0.066028595361    -0.050186397788    0.000873387144    -0.000126112410    -0.092231576574    -0.055624515645    0.000022138001    -0.000041472208
            0.000008031177    -0.000033730045    -0.025666587696    -0.102914212149    0.000022137947    -0.000041472227    -0.049719988412    -0.122138647065
0.550     -0.106524097480    -0.030487454880    0.000017750034    -0.000050181603    -0.080479655456    -0.033730975932    -0.000000103621    -0.000034142253
            0.000017750055    -0.000050181624    -0.072745173217    -0.111017908032    0.000867511694    -0.000194979711    -0.045077958996    -0.097957734951
            -0.080479655456    -0.033730975932    0.000867511704    -0.000194979713    -0.106023841357    -0.035142941953    0.000012889020    -0.000043597425
            -0.000000103520    -0.000034142313    -0.045077958996    -0.097957734951    0.000012888969    -0.000043597441    -0.071228448103    -0.113606669581
0.575     -0.117058903038    -0.004710227344    0.000006404059    -0.000052737146    -0.092397024942    -0.012179671698    -0.000008498340    -0.000033891838
            0.000006404068    -0.000052737168    -0.092595019957    -0.098207786046    0.000852207807    -0.000262785484    -0.063765965356    -0.089398302573
            -0.092397024942    -0.012179671698    0.000852207826    -0.000262785490    -0.117484846348    -0.008470967230    0.000002668746    -0.000044757163
            -0.000008498250    -0.000033891905    -0.063765965356    -0.089398302573    0.000002668688    -0.000044757168    -0.091283780436    -0.101096290966
0.600     -0.122061805791    0.023227244598    -0.000005328510    -0.000053045126    -0.099799132064    0.011288442126    -0.000016739480    -0.000032126420
            -0.000005328555    -0.000053045234    -0.110281606270    -0.081770873317    0.000828844998    -0.000327367253    -0.081065364374    -0.077332106179
            -0.099799142001    0.011288443250    0.000828845026    -0.000327367264    -0.123544676036    0.019379011419    -0.000007507203    -0.000044102833
            -0.000016739411    -0.000032126492    -0.081065364374    -0.077332106179    -0.000007507258    -0.000044102833    -0.109138272929    -0.084921697855
0.625     -0.121732028476    0.051371404595    -0.000016787258    -0.000050879700    -0.102598513128    0.035823218764    -0.000024410058    -0.000028738451
            -0.000016787256    -0.000050879724    -0.125048708086    -0.062114466687    0.000798132496    -0.000387372545    -0.096266052809    -0.062040117387
            -0.102598513128    0.035823218764    0.000798132505    -0.000387372549    -0.123974123449    0.048200213941    -0.000017275877    -0.000041284336
            -0.000024410004    -0.000028738540    -0.096266052809    -0.062040117387    -0.000017275939    -0.000041284322    -0.124110530852    -0.065552815929
0.650     -0.116166400015    0.079767510072    -0.000027540079    -0.000046120381    -0.100647085611    0.061106674218    -0.000031271600    -0.000023647197
            -0.000027540081    -0.000046120402    -0.136280683505    -0.039857483259    0.000761106993    -0.000441880561    -0.108755379386    -0.043977477402
            -0.100647085611    0.061106674218    0.000761106985    -0.000441880574    -0.118707038500    0.076837207611    -0.000026103408    -0.000036329774
            -0.000031271559    -0.000023647285    -0.108755379386    -0.043977477402    -0.000026103466    -0.000036329748    -0.135622079247    -0.043587669213
0.675     -0.104975487853    0.106798624645    -0.000036790251    -0.000038958719    -0.093679957458    0.085827398550    -0.000036792866    -0.000017046720
            -0.000036790263    -0.000038958732    -0.143525995749    -0.015725573687    0.000718917500    -0.000490312180    -0.118032636787    -0.023704469572
            -0.093679957458    0.085827398550    0.000718917500    -0.000490312180    -0.107960248766    0.104086151570    -0.000033481701    -0.000029511797
            -0.000036792836    -0.000017046816    -0.118032636787    -0.023704469572    -0.000033481755    -0.000029511761    -0.143221629376    -0.019721203871
0.700     -0.088762652388    0.131247893568    -0.000043981116    -0.000029903610    -0.082054237897    0.108929597679    -0.000040647694    -0.000009344089
            -0.000043981135    -0.000029903611    -0.146499880235    0.009494468664    0.000672674566    -0.000532384919    -0.123732955239    -0.001858365520
            -0.082054237897    0.108929597679    0.000672674565    -0.000532384937    -0.092202328538    0.128855827700    -0.000039011889    -0.000021264691
            -0.000040647701    -0.000009344150    -0.123732955239    -0.001858365520    -0.000039011966    -0.000021264600    -0.146612034420    0.005282804814
0.725     -0.068263727329    0.152179227558    -0.000048747034    -0.000019581873    -0.066269687196    0.129528412096    -0.000042651964    -0.000001004397
            -0.000048747085    -0.000019581903    -0.145077258372    0.034983616319    0.000623378904    -0.000568031401    -0.125618112059    0.020871365837
            -0.066269709803    0.129528400530    0.000623378924    -0.000568031439    -0.072112564240    0.150207397975    -0.000042450569    -0.000012120972
            -0.000042651975    -0.000001004449    -0.125618112059    0.020871365837    -0.000042450615    -0.000012120913    -0.145652808675    0.030622713656
0.750     -0.044350135964    0.168868572262    -0.000050924394    -0.000008678021    -0.046970343828    0.146900333769    -0.000042763443    0.000007485068
            -0.000050924409    -0.000008678033    -0.139298789845    0.059926958563    0.000571895712    -0.000597328299    -0.123597086048    0.043774529986
            -0.046970343828    0.146900333769    0.000571895705    -0.000597328292    -0.048533171584    0.167400642198    -0.000043723676    -0.000002644298
            -0.000042763463    0.000007485017    -0.123597086048    0.043774529986    -0.000043723726    -0.000002644179    -0.140367638361    0.055494700468
0.775     -0.017986852976    0.180809369628    -0.000050557042    0.000002131980    -0.024901648650    0.160485767883    -0.000041082497    0.000015667598
            -0.000050557055    0.000002131962    -0.129357879589    0.083541608709    0.000518939824    -0.000620422809    -0.117710315569    0.066141501428
            -0.024901659323    0.160485725748    0.000518939818    -0.000620422801    -0.022410038425    0.179910037496    -0.000042923161    0.000006632568
            -0.000041082515    0.000015667499    -0.117710315569    0.066141501428    -0.000042923182    0.000006632632    -0.130932636187    0.079122845703
