# GHz S RI R 45
0.000     0.011864869000    0.000000000000    0.000000500897    -0.000000000000    0.000433169080    -0.000000000000    -0.000003154738    0.000000000000
            0.000000501038    -0.000000000000    0.012186511000    0.000000000000    -0.000014538833    0.000000000000    0.000444511790    0.000000000000
            0.000433165490    -0.000000000000    -0.000014538741    0.000000000000    0.011825220000    0.000000000000    -0.000004159934    0.000000000000
            -0.000003154688    0.000000000000    0.000444589110    0.000000000000    -0.000004160077    0.000000000000    0.012140100000    0.000000000000
0.025     0.016170190998    0.011277526712    -0.000010602371    -0.000027674245    0.002175603718    0.010166959265    -0.000012685938    -0.000030899511
            -0.000010602228    -0.000027674263    0.015613859937    0.010536038774    -0.000009204942    -0.000015580733    0.001580223205    0.009507909050
            0.002175573760    0.010167006581    -0.000009204893    -0.000015580738    0.016107431592    0.011251475063    -0.000012963297    -0.000028905839
            -0.000012685893    -0.000030899509    0.001580181799    0.009507739951    -0.000012963450    -0.000028905816    0.015560125481    0.010550304334
0.050     0.022310472554    0.019064877682    -0.000024358627    -0.000045728531    0.006826944728    0.019233625560    -0.000027614963    -0.000054315431
            -0.000024358520    -0.000045728560    0.019659478720    0.018155439890    -0.000015689620    -0.000039355658    0.004554158147    0.018366562093
            0.006826928275    0.019233635644    -0.000015689576    -0.000039355666    0.022240381527    0.019039414826    -0.000026824326    -0.000051137303
            -0.000027614983    -0.000054315423    0.004554265856    0.018366543628    -0.000026824528    -0.000051137254    0.019603365247    0.018198863023
0.075     0.030528349313    0.024702348853    -0.000041840296    -0.000060446225    0.013992328197    0.026529274752    -0.000048418023    -0.000073367691
            -0.000041840146    -0.000060446279    0.024657981644    0.024590365430    -0.000032634363    -0.000057667514    0.009151200601    0.026258185095
            0.013992318000    0.026529276739    -0.000032634317    -0.000057667526    0.030459279127    0.024677525682    -0.000046539170    -0.000069264433
            -0.000048417989    -0.000073367695    0.009151283776    0.026258173051    -0.000046539367    -0.000069264361    0.024606241194    0.024663582449
0.100     0.040406982059    0.027570295584    -0.000063307929    -0.000070429293    0.023093207578    0.031435538759    -0.000074396175    -0.000086518851
            -0.000063307838    -0.000070429339    0.030515918639    0.029607454835    -0.000054945021    -0.000069494576    0.015064960735    0.032861967898
            0.023093205976    0.031435541177    -0.000054945019    -0.000069494575    0.040345573843    0.027550078183    -0.000071296365    -0.000081769314
            -0.000074396095    -0.000086518880    0.015065035915    0.032861953235    -0.000071296547    -0.000081769235    0.030473188869    0.029711211102
0.125     0.051055183312    0.027152861923    -0.000087528800    -0.000074680098    0.033413870211    0.033523911044    -0.000103937891    -0.000092649873
            -0.000087528678    -0.000074680179    0.036796856323    0.032986180192    -0.000080259417    -0.000074301912    0.021931480851    0.037977162316
            0.033413869867    0.033523914210    -0.000080259322    -0.000074301955    0.051010708580    0.027130949389    -0.000099550828    -0.000087519621
            -0.000103937820    -0.000092649908    0.021931556810    0.037977143855    -0.000099550911    -0.000087519571    0.036779634948    0.033124632215
0.150     0.061741307768    0.023410775074    -0.000112990223    -0.000072909509    0.044159099804    0.032515527898    -0.000135200499    -0.000091432592
            -0.000112990147    -0.000072909572    0.043168708830    0.034841639847    -0.000106642632    -0.000072157113    0.029343742650    0.041441361084
            0.044159099474    0.032515530032    -0.000106642548    -0.000072157165    0.061729483635    0.023399686858    -0.000129511749    -0.000086149093
            -0.000135200491    -0.000091432587    0.029343816552    0.041441338163    -0.000129511834    -0.000086149019    0.043177204448    0.035005632947
0.175     0.071472168955    0.016335910922    -0.000138330199    -0.000065212368    0.054491270787    0.028368231329    -0.000166535994    -0.000082955078
            -0.000138330117    -0.000065212447    0.049216675478    0.035226930298    -0.000132369637    -0.000063446073    0.036872838661    0.043235494823
            0.054491270684    0.028368233693    -0.000132369557    -0.000063446149    0.071510928703    0.016333720212    -0.000159537077    -0.000077694721
            -0.000166535994    -0.000082955078    0.036872911917    0.043235469148    -0.000159537158    -0.000077694623    0.049255017771    0.035411321921
0.200     0.079338616993    0.006222805056    -0.000162431159    -0.000052021192    0.063597060017    0.021246159147    -0.000196582984    -0.000067686647
            -0.000162431095    -0.000052021296    0.054550178626    0.034335537041    -0.000156203890    -0.000048875684    0.044109690908    0.043454482306
            0.063597061543    0.021246160891    -0.000156203880    -0.000048875681    0.079446706270    0.006219823351    -0.000188259006    -0.000062597447
            -0.000196582913    -0.000067686699    0.044109763047    0.043454453251    -0.000188259127    -0.000062597305    0.054623832126    0.034534975813
0.225     0.084537948045    -0.006420447310    -0.000184412451    -0.000033865515    0.070722601410    0.011500926387    -0.000224241039    -0.000046216785
            -0.000184412403    -0.000033865606    0.058860772613    0.032463021625    -0.000177135818    -0.000029278304    0.050691872394    0.042288427843
            0.070722603063    0.011500928683    -0.000177135744    -0.000029278387    0.084733483587    -0.006441452827    -0.000214538121    -0.000041440643
            -0.000224240984    -0.000046216856    0.050691943495    0.042288394129    -0.000214538202    -0.000041440542    0.058975280505    0.032670051078
0.250     0.086424296544    -0.020896467485    -0.000203647959    -0.000011327680    0.075217748795    -0.000347174724    -0.000248698936    -0.000019202186
            -0.000203647905    -0.000011327748    0.061938081264    0.029991855307    -0.000194577923    -0.000005486544    0.056324783909    0.040012978287
            0.075217750801    -0.000347173433    -0.000194577870    -0.000005486644    0.086722546441    -0.020959813118    -0.000237542405    -0.000014906192
            -0.000248698853    -0.000019202223    0.056324852947    0.040012941539    -0.000237542423    -0.000014906069    0.062097429060    0.030196649299
0.275     0.084523264588    -0.036367819168    -0.000219641108    0.000015070414    0.076560617961    -0.013633088145    -0.000269290133    0.000012746835
            -0.000219641086    0.000015070297    0.063692925875    0.027339393638    -0.000208082644    0.000021702872    0.060797647324    0.036963518632
            0.076560620881    -0.013633083150    -0.000208082605    0.000021702867    0.084934649413    -0.036504322019    -0.000256587219    0.000016344171
            -0.000269290096    0.000012746786    0.060797698362    0.036963482808    -0.000256587216    0.000016344216    0.063898679876    0.027530058866
0.300     0.078574352915    -0.051895915908    -0.000232016969    0.000044875789    0.074393627994    -0.027579984544    -0.000285482006    0.000049087816
            -0.000232016965    0.000044875705    0.064156118467    0.024938461412    -0.000217426727    0.000051650600    0.063997386442    0.033518871533
            0.074393630351    -0.027579983941    -0.000217426708    0.000051650636    0.079101849712    -0.052142963159    -0.000271155532    0.000051706850
            -0.000285482006    0.000049087816    0.063997451395    0.033518827266    -0.000271155532    0.000051706850    0.064406599303    0.025101475471
0.325     0.068533746233    -0.066485783546    -0.000240379368    0.000077712657    0.068538733608    -0.041328055425    -0.000296725041    0.000089335222
            -0.000240379368    0.000077712657    0.063478245084    0.023192101931    -0.000222388915    0.000083788213    0.065913368793    0.030070570214
            0.068538736042    -0.041328055261    -0.000222388906    0.000083788210    0.069170964272    -0.066884913303    -0.000280739604    0.000090628374
            -0.000296725022    0.000089335216    0.065913430796    0.030070523449    -0.000280739575    0.000090628365    0.063767601611    0.023313524426
0.350     0.054598774059    -0.079141096326    -0.000244313081    0.000113250236    0.059022847518    -0.053982073939    -0.000302459353    0.000133040125
            -0.000244313081    0.000113250236    0.061918574264    0.022456556917    -0.000222780776    0.000117693076    0.066643952760    0.027003970951
            0.059022849936    -0.053982074259    -0.000222780776    0.000117693076    0.055327417782    -0.079736280174    -0.000284848800    0.000132604871
            -0.000302459353    0.000133040125    0.066644012503    0.027003922035    -0.000284848800    0.000132604871    0.062236455707    0.022523084509
0.375     0.037197937897    -0.088908270278    -0.000243280128    0.000151130381    0.046082983368    -0.064645946144    -0.000302003046    0.000179699624
            -0.000243280154    0.000151130397    0.059828475483    0.023003713592    -0.000218309345    0.000152933805    0.066387449853    0.024663253385
            0.046082986238    -0.064645947782    -0.000218309321    0.000152933788    0.037986650524    -0.089742747358    -0.000282895832    0.000177094123
            -0.000302003029    0.000179699613    0.066387514468    0.024663194318    -0.000282895823    0.000177094118    0.060160364459    0.023004246116
0.400     0.016989256292    -0.094941141217    -0.000236666700    0.000190910035    0.030171393419    -0.072484991373    -0.000294612765    0.000228698415
            -0.000236666820    0.000190909042    0.057632215260    0.025009278977    -0.000208611573    0.000189089564    0.065437714661    0.023333197477
            0.030171395453    -0.072484992693    -0.000208611566    0.000189089557    0.017791990046    -0.096053787344    -0.000274247398    0.000223474319
            -0.000294612725    0.000228698467    0.065437713719    0.023333197142    -0.000274247374    0.000223474300    0.057959561206    0.024936171569
0.425     -0.005166181061    -0.096544537415    -0.000223761126    0.000231941151    0.011943457134    -0.076765090262    -0.000279462859    0.000279186049
            -0.000223761126    0.000231941151    0.055797100048    0.028525924223    -0.000193226712    0.000225577212    0.064160350455    0.023205979066
            0.011943501150    -0.076765073293    -0.000193226712    0.000225577212    -0.004410856192    -0.097966516813    -0.000258196930    0.000270920278
            -0.000279462852    0.000279186042    0.064160415090    0.023205906204    -0.000258196930    0.000270920278    0.056098801436    0.028376128367
0.450     -0.028240449038    -0.093236567133    -0.000203860965    0.000273310075    -0.007768838997    -0.076917895497    -0.000255770113    0.000330004591
            -0.000203861031    0.000273310064    0.054805422717    0.033480272868    -0.000171678057    0.000261632013    0.062974304785    0.024369966023
            -0.007768837855    -0.076917897622    -0.000171678035    0.000261631980    -0.027611179466    -0.094986446130    -0.000234076788    0.000318347761
            -0.000255770088    0.000330004559    0.062974365007    0.024369890758    -0.000234076715    0.000318347778    0.055059859342    0.033255933143
0.475     -0.051088154541    -0.084781711676    -0.000176246147    0.000313739678    -0.027997202152    -0.072574886935    -0.000222748590    0.000379590032
            -0.000176246167    0.000313739713    0.055114381533    0.039663920221    -0.000143446311    0.000296174859    0.062313839451    0.026787914040
            -0.027997202152    -0.072574886935    -0.000143446246    0.000296174857    -0.050687105967    -0.086861272776    -0.000201214113    0.000364305753
            -0.000222748580    0.000379590014    0.062313895680    0.026787836415    -0.000201214045    0.000364305779    0.055303269425    0.039371273388
0.500     -0.072514853354    -0.071228186388    -0.000140418725    0.000351870773    -0.047712820560    -0.063613318290    -0.000179864568    0.000426323519
            -0.000140418725    0.000351870773    0.057118153926    0.046752145601    -0.000108141343    0.000328143231    0.062596173813    0.030305290349
            -0.047712822360    -0.063613320690    -0.000108141400    0.000328143212    -0.072501948873    -0.073617199330    -0.000159119032    0.000407372400
            -0.000179864568    0.000426323519    0.062596226399    0.030305209270    -0.000159119032    0.000407372400    0.057236780601    0.046393370707
0.525     -0.091348356147    -0.052908025377    -0.000096481691    0.000386006460    -0.066028601732    -0.050186384449    -0.000127269501    0.000468199624
            -0.000096481693    0.000386006470    0.061038707761    0.054354292502    -0.000065812398    0.000356651148    0.064140013795    0.034673416176
            -0.066028595361    -0.050186397788    -0.000065812646    0.000356650747    -0.092231576574    -0.055624515645    -0.000107833142    0.000446360701
            -0.000127269501    0.000468199624    0.064140061821    0.034673333644    -0.000107833142    0.000446360701    0.061178394013    0.053882525666
0.550     -0.106524097480    -0.030487454880    -0.000044912715    0.000413513199    -0.080479655456    -0.033730975932    -0.000065665037    0.000502742510
            -0.000044912731    0.000413513278    0.067341118581    0.061008888554    -0.000021203958    0.000376270000    0.067369148552    0.038955097724
            -0.080479655456    -0.033730975932    -0.000021203941    0.000376269931    -0.106023841357    -0.035142941953    -0.000053155002    0.000475038540
            -0.000065665026    0.000502742491    0.067369192682    0.038955013414    -0.000053154359    0.000475039246    0.067286395866    0.061308071151
0.575     -0.117058903038    -0.004710227344    0.000013814626    0.000433578456    -0.092397024942    -0.012179671698    0.000004287381    0.000527897630
            0.000013814626    0.000433578456    0.075996185851    0.068053199968    0.000034873642    0.000390388052    0.072471879350    0.043815310178
            -0.092397024942    -0.012179671698    0.000034873642    0.000390388052    -0.117484846348    -0.008470967230    0.000015914101    0.000496663355
            0.000004287381    0.000527897620    0.072471920499    0.043815222788    0.000015914449    0.000496663674    0.075709960315    0.068079179417
0.600     -0.122061805791    0.023227244598    0.000077460705    0.000443342481    -0.099799132064    0.011288442126    0.000080273134    0.000541075985
            0.000077460697    0.000443342523    0.086613820299    0.073539880981    0.000093063781    0.000395721211    0.079309506378    0.047915953326
            -0.099799142001    0.011288443250    0.000093063765    0.000395721174    -0.123544676036    0.019379011419    0.000088294208    0.000507721192
            0.000080273124    0.000541075987    0.079309539536    0.047915869437    0.000088294199    0.000507721194    0.086338443567    0.073550611398
0.625     -0.121732028476    0.051371404595    0.000143300458    0.000442836816    -0.102598513128    0.035823218764    0.000158734000    0.000542305440
            0.000143300015    0.000442836581    0.099089985908    0.077175969468    0.000153164196    0.000390979306    0.087701347636    0.050889668007
            -0.102598513128    0.035823218764    0.000153164199    0.000390979273    -0.123974123449    0.048200213941    0.000163571950    0.000506540734
            0.000158734002    0.000542305377    0.087701362968    0.050889621660    0.000163572342    0.000506540922    0.098615397449    0.077128035249
0.650     -0.116166400015    0.079767510072    0.000211035826    0.000431013817    -0.100647085611    0.061106674218    0.000239767780    0.000530587085
            0.000211035863    0.000431013854    0.113036763968    0.078497994400    0.000213323265    0.000375653718    0.097580901219    0.052465839955
            -0.100647085611    0.061106674218    0.000213323258    0.000375653676    -0.118707038500    0.076837207611    0.000239701051    0.000492526767
            0.000239767741    0.000530587048    0.097580928473    0.052465747031    0.000239701051    0.000492526723    0.112408972006    0.078656951619
0.675     -0.104975487853    0.106798624645    0.000277284597    0.000407003273    -0.093679957458    0.085827398550    0.000319470810    0.000504637490
            0.000277284597    0.000407003273    0.127922814520    0.077150692119    0.000271264342    0.000349719659    0.108606120799    0.052124655412
            -0.093679957458    0.085827398550    0.000271264342    0.000349719659    -0.107960248766    0.104086151570    0.000313972516    0.000465440710
            0.000319470785    0.000504637470    0.108606132708    0.052124607488    0.000313972505    0.000465440694    0.127249464477    0.077536017631
0.700     -0.088762652388    0.131247893568    0.000339502685    0.000371556405    -0.082054237897    0.108929597679    0.000394908118    0.000465297793
            0.000339502692    0.000371556439    0.143160135283    0.072911421933    0.000324827815    0.000313803094    0.120312615279    0.049583803476
            -0.082054237897    0.108929597679    0.000324827768    0.000313803071    -0.092202328538    0.128855827700    0.000383787322    0.000425908562
            0.000394908102    0.000465297741    0.120312611817    0.049583811876    0.000383787281    0.000425908532    0.142500812694    0.073529562601
0.725     -0.068263727329    0.152179227558    0.000395506403    0.000325791179    -0.066269687196    0.129528412096    0.000463597409    0.000413783151
            0.000395506405    0.000325791192    0.158118510217    0.065700594916    0.000372078218    0.000269011373    0.132200481796    0.044673540391
            -0.066269709803    0.129528400530    0.000372078189    0.000269011362    -0.072112564240    0.150207397975    0.000446810365    0.000375099804
            0.000463597409    0.000413783151    0.132200485578    0.044673497965    0.000446810358    0.000375099812    0.157529917008    0.066552262592
0.750     -0.044350135964    0.168868572262    0.000443512136    0.000271251024    -0.046970343828    0.146900333769    0.000523496993    0.000351776720
            0.000443511289    0.000271251048    0.172173622643    0.055582412169    0.000411473157    0.000216860902    0.143755744412    0.037342835394
            -0.046970343828    0.146900333769    0.000411472156    0.000216860806    -0.048533171584    0.167400642198    0.000501138666    0.000314671227
            0.000523496941    0.000351776672    0.143755758196    0.037342742555    0.000501139537    0.000314671213    0.171712078933    0.056659150570
0.775     -0.017986852976    0.180809369628    0.000482164566    0.000209755545    -0.024901648650    0.160485767883    0.000573034800    0.000281261832
            0.000482164585    0.000209755553    0.184732330450    0.042758311252    0.000441891465    0.000159117698    0.154464638790    0.027653320420
            -0.024901659323    0.160485725748    0.000441891446    0.000159117692    -0.022410038425    0.179910037496    0.000545334544    0.000246568333
            0.000573034742    0.000281261792    0.154464645356    0.027653226996    0.000545335417    0.000246568223    0.184453779038    0.044039190476
