# GHz S RI R 45
0.000     0.011864869000    0.000000000000    -0.000023886189    0.000000000000    0.000433169080    -0.000000000000    -0.000029356270    0.000000000000
            -0.000023885586    0.000000000000    0.012289156000    0.000000000000    -0.000019109214    0.000000000000    0.000293150690    0.000000000000
            0.000433165490    -0.000000000000    -0.000019108861    0.000000000000    0.011825220000    0.000000000000    -0.000029000954    0.000000000000
            -0.000029355877    0.000000000000    0.000293126420    0.000000000000    -0.000029001321    0.000000000000    0.012236466000    0.000000000000
0.025     0.016170190998    0.011277526712    -0.000036382893    -0.000063487509    0.002175603718    0.010166959265    -0.000040705387    -0.000073032957
            -0.000036382490    -0.000063487552    0.016022597589    0.011671208596    -0.000047441081    -0.000067422156    0.001480947807    0.010649630042
            0.002175573760    0.010167006581    -0.000047440391    -0.000067422250    0.016107431592    0.011251475063    -0.000052923305    -0.000072513925
            -0.000040704959    -0.000073032999    0.001480800913    0.010649460660    -0.000052923672    -0.000072513870    0.015946313479    0.011635825628
0.050     0.022310472554    0.019064877682    -0.000068239291    -0.000120069734    0.006826944728    0.019233625560    -0.000076681389    -0.000141599504
            -0.000068238798    -0.000120069841    0.020639978456    0.020257638511    -0.000082917200    -0.000110831740    0.004956249087    0.020655284631
            0.006826928275    0.019233635644    -0.000082916529    -0.000110831892    0.022240381527    0.019039414826    -0.000090546994    -0.000126816408
            -0.000076680907    -0.000141599617    0.004956254431    0.020655275122    -0.000090547369    -0.000126816325    0.020521276189    0.020215180594
0.075     0.030528349313    0.024702348853    -0.000118275990    -0.000163585525    0.013992328197    0.026529274752    -0.000135454064    -0.000194598688
            -0.000118275634    -0.000163585634    0.026466535087    0.027398812691    -0.000128648394    -0.000144195786    0.010372130961    0.029458231269
            0.013992318000    0.026529276739    -0.000128647838    -0.000144195973    0.030459279127    0.024677525682    -0.000143583232    -0.000168341803
            -0.000135453655    -0.000194598826    0.010372111124    0.029458234013    -0.000143583629    -0.000168341674    0.026293970977    0.027369164950
0.100     0.040406982059    0.027570295584    -0.000180631661    -0.000190659371    0.023093207578    0.031435538759    -0.000209236178    -0.000228121146
            -0.000180631252    -0.000190659538    0.033302524827    0.032801736849    -0.000183857138    -0.000164166408    0.017311802163    0.036669704996
            0.023093205976    0.031435541177    -0.000183856630    -0.000164166646    0.040345573843    0.027550078183    -0.000208522699    -0.000193456187
            -0.000209235779    -0.000228121350    0.017311777842    0.036669709843    -0.000208523087    -0.000193456005    0.033069391463    0.032811113787
0.125     0.051055183312    0.027152861923    -0.000250012671    -0.000199203697    0.033413870211    0.033523911044    -0.000291717049    -0.000239738909
            -0.000250012353    -0.000199203872    0.040604523291    0.036266723906    -0.000244766171    -0.000168303463    0.025296236414    0.042058637142
            0.033413869867    0.033523914210    -0.000244765634    -0.000168303785    0.051010708580    0.027130949389    -0.000280473983    -0.000199556421
            -0.000291716632    -0.000239739164    0.025296213720    0.042058642622    -0.000280474390    -0.000199556194    0.040304907664    0.036342148648
0.150     0.061741307768    0.023410775074    -0.000321253539    -0.000189386746    0.044159099804    0.032515527898    -0.000376840744    -0.000229566484
            -0.000321253531    -0.000189386741    0.047897418102    0.037854282145    -0.000306922886    -0.000156567721    0.033806981679    0.045465908670
            0.044159099474    0.032515530032    -0.000306922886    -0.000156567721    0.061729483635    0.023399686858    -0.000354116241    -0.000186694520
            -0.000376839964    -0.000229567092    0.033806954287    0.045465916576    -0.000354116218    -0.000186694586    0.047555114955    0.038031401543
0.175     0.071472168955    0.016335910922    -0.000389991759    -0.000162402911    0.054491270787    0.028368231329    -0.000459438823    -0.000198885863
            -0.000389991031    -0.000162403567    0.054670289987    0.037712804279    -0.000366617433    -0.000129839652    0.042312058644    0.046911870235
            0.054491270684    0.028368233693    -0.000366617089    -0.000129839963    0.071510928703    0.016333720212    -0.000424981496    -0.000155932383
            -0.000459438475    -0.000198886189    0.042312035571    0.046911877579    -0.000424981505    -0.000155932387    0.054315780239    0.038016609382
0.200     0.079338616993    0.006222805056    -0.000453116110    -0.000120403992    0.063597060017    0.021246159147    -0.000535795072    -0.000150083972
            -0.000453115453    -0.000120404749    0.060464458253    0.036135812726    -0.000421088441    -0.000089997454    0.050322022107    0.046558394316
            0.063597061543    0.021246160891    -0.000421087798    -0.000089998162    0.079446706270    0.006219823351    -0.000489785076    -0.000109455163
            -0.000535795046    -0.000150084065    0.050321995421    0.046558405489    -0.000489785745    -0.000109454415    0.060135664961    0.036581151561
0.225     0.084537948045    -0.006420447310    -0.000508379777    -0.000065702129    0.070722601410    0.011500926387    -0.000603119621    -0.000085754262
            -0.000508379767    -0.000065702127    0.064934654252    0.033531317526    -0.000468371983    -0.000038992791    0.057417548334    0.044684886825
            0.070722603063    0.011500928683    -0.000468371710    -0.000038993180    0.084733483587    -0.006441452827    -0.000546101627    -0.000049550283
            -0.000603119061    -0.000085755149    0.057417527175    0.044684896103    -0.000546101637    -0.000049550284    0.064674676631    0.034120490698
0.250     0.086424296544    -0.020896467485    -0.000554618739    -0.000000505679    0.075217748795    -0.000347174724    -0.000659863963    -0.000008409676
            -0.000554618739    -0.000000505679    0.067873932006    0.030399370808    -0.000507388827    0.000021223489    0.063280064548    0.041669184879
            0.075217750801    -0.000347173433    -0.000507388827    0.000021223489    0.086722546441    -0.020959813118    -0.000592570480    0.000021491730
            -0.000659863482    -0.000008410592    0.063280047577    0.041669194287    -0.000592570490    0.000021491730    0.067727641580    0.031121468260
0.275     0.084523264588    -0.036367819168    -0.000591092622    0.000073349693    0.076560617961    -0.013633088145    -0.000704928389    0.000079800268
            -0.000591092622    0.000073349693    0.069233090716    0.027269974470    -0.000537433468    0.000089066269    0.067706583618    0.037953321053
            0.076560620881    -0.013633083150    -0.000537433069    0.000089065432    0.084934649413    -0.036504322019    -0.000628224427    0.000101746779
            -0.000704928216    0.000079799750    0.067706558820    0.037953336660    -0.000628224632    0.000101747262    0.069242969997    0.028100205894
0.300     0.078574352915    -0.051895915908    -0.000617501487    0.000154569441    0.074393627994    -0.027579984544    -0.000737730202    0.000177292029
            -0.000617501458    0.000154569434    0.069120835551    0.024673211943    -0.000558156377    0.000163339655    0.070627671923    0.034017793038
            0.074393630351    -0.027579983941    -0.000558156097    0.000163338727    0.079101849712    -0.052142963159    -0.000652542424    0.000189729188
            -0.000737730243    0.000177291902    0.070627656690    0.034017803924    -0.000652542729    0.000189730142    0.069323132913    0.025573357717
0.325     0.068533746233    -0.066485783546    -0.000633391918    0.000242271616    0.068538733608    -0.041328055425    -0.000757525051    0.000282863742
            -0.000633391844    0.000242271081    0.067795401452    0.023083791938    -0.000569072108    0.000243212452    0.072107838732    0.030341080824
            0.068538736042    -0.041328055261    -0.000569071890    0.000243211536    0.069170964272    -0.066884913303    -0.000664855767    0.000284297104
            -0.000757524870    0.000282862771    0.072107800195    0.030341110530    -0.000664855767    0.000284297104    0.068215831953    0.024004173939
0.350     0.054598774059    -0.079141096326    -0.000638121330    0.000335977922    0.059022847518    -0.053982073939    -0.000763407237    0.000395720502
            -0.000638121295    0.000335977903    0.065649668045    0.022894926409    -0.000569542339    0.000328125594    0.072351462995    0.027370780123
            0.059022849936    -0.053982074259    -0.000569542263    0.000328124623    0.055327417782    -0.079736280174    -0.000664380810    0.000384605715
            -0.000763407208    0.000395719472    0.072351463931    0.027370780477    -0.000664380836    0.000384605730    0.066300222456    0.023777575743
0.375     0.037197937897    -0.088908270278    -0.000630481120    0.000435224227    0.046082983368    -0.064645946144    -0.000753898188    0.000515012305
            -0.000630481107    0.000435223243    0.063182026716    0.024373312094    -0.000558456134    0.000417514723    0.071683891594    0.025478771667
            0.046082986238    -0.064645947782    -0.000558456188    0.000417513700    0.037986650524    -0.089742747358    -0.000649847904    0.000489754916
            -0.000753898188    0.000515012305    0.071683857079    0.025478803084    -0.000649847904    0.000489754916    0.064058615811    0.025155367951
0.400     0.016989256292    -0.094941141217    -0.000608773089    0.000539381054    0.030171393419    -0.072484991373    -0.000727060412    0.000639688045
            -0.000608773074    0.000539381041    0.060967837096    0.027640735875    -0.000534334330    0.000510614554    0.070539972029    0.024934972346
            0.030171395453    -0.072484992693    -0.000534334381    0.000510614602    0.017791990046    -0.096053787344    -0.000619648592    0.000598631436
            -0.000727060405    0.000639688038    0.070539973914    0.024934973012    -0.000619648599    0.000598631443    0.062048118138    0.028259565195
0.425     -0.005166181061    -0.096544537415    -0.000570768047    0.000647171510    0.011943457134    -0.076765090262    -0.000680461342    0.000767948441
            -0.000570768181    0.000647170979    0.059611750771    0.032645108291    -0.000495284458    0.000606093828    0.069424073003    0.025867752368
            0.011943501150    -0.076765073293    -0.000495284719    0.000606092852    -0.004410856192    -0.097966516813    -0.000571786106    0.000709477535
            -0.000680461480    0.000767947517    0.069424075328    0.025867751855    -0.000571786059    0.000709477984    0.060855551442    0.033043276776
0.450     -0.028240449038    -0.093236567133    -0.000514029822    0.000756474434    -0.007768838997    -0.076917895497    -0.000611539378    0.000897088133
            -0.000514029782    0.000756474377    0.059706115406    0.039158895589    -0.000439316693    0.000701879894    0.068877713526    0.028252220263
            -0.007768837855    -0.076917897622    -0.000439317013    0.000701879044    -0.027611179466    -0.094986446130    -0.000504227988    0.000819765091
            -0.000611539378    0.000897088133    0.068877715869    0.028252219820    -0.000504227982    0.000819765082    0.061056702380    0.039289266186
0.475     -0.051088154541    -0.084781711676    -0.000436231346    0.000863988046    -0.027997202152    -0.072574886935    -0.000517951073    0.001023146612
            -0.000436231664    0.000863987549    0.061772248232    0.046776564716    -0.000364588753    0.000794944501    0.069422349662    0.031891362349
            -0.027997202152    -0.072574886935    -0.000364588893    0.000794944073    -0.050687105967    -0.086861272776    -0.000415171790    0.000925949908
            -0.000517951340    0.001023146253    0.069422352592    0.031891360761    -0.000415171430    0.000925950836    0.063159777717    0.046607447122
0.500     -0.072514853354    -0.071228186388    -0.000335706683    0.000965309181    -0.047712820560    -0.063613318290    -0.000398139565    0.001141022349
            -0.000335707160    0.000965308380    0.066215879993    0.054942550553    -0.000269845634    0.000881496048    0.071516710126    0.036432747971
            -0.047712822360    -0.063613320690    -0.000269846065    0.000881495257    -0.072501948873    -0.073617199330    -0.000303487244    0.001023737523
            -0.000398139565    0.001141022349    0.071516710126    0.036432747971    -0.000303487244    0.001023737523    0.067561894863    0.054460598050
0.525     -0.091348356147    -0.052908025377    -0.000211907150    0.001055007250    -0.066028601732    -0.050186384449    -0.000251828683    0.001244587369
            -0.000211907150    0.001055007250    0.073274933991    0.062980944557    -0.000154529722    0.000958225671    0.075499298366    0.041384655296
            -0.066028595361    -0.050186397788    -0.000154530286    0.000958224911    -0.092231576574    -0.055624515645    -0.000168828806    0.001109562165
            -0.000251829452    0.001244586703    0.075499298366    0.041384655296    -0.000168828567    0.001109562808    0.074499055042    0.062195478130
0.550     -0.106524097480    -0.030487454880    -0.000066233177    0.001127257377    -0.080479655456    -0.033730975932    -0.000080905346    0.001327329655
            -0.000066233177    0.001127257377    0.082995269805    0.070154268105    -0.000032079360    0.001012217796    0.081558777596    0.046164810972
            -0.080479655456    -0.033730975932    -0.000032079343    0.001012217796    -0.106023841357    -0.035142941953    -0.000027248448    0.001168409713
            -0.000080905323    0.001327329657    0.081558782559    0.046164806263    -0.000027247791    0.001168410429    0.084021464252    0.069097285598
0.575     -0.117058903038    -0.004710227344    0.000098995405    0.001175451416    -0.092397024942    -0.012179671698    0.000111832607    0.001382042427
            0.000098995376    0.001175451318    0.095208019155    0.075718359662    0.000121610472    0.001047392672    0.089699576618    0.050144622828
            -0.092397024942    -0.012179671698    0.000121610126    0.001047392410    -0.117484846348    -0.008470967230    0.000149841140    0.001205756582
            0.000111831900    0.001382041782    0.089699530233    0.050144705802    0.000149841131    0.001205756684    0.095969716747    0.074445198458
0.600     -0.122061805791    0.023227244598    0.000278034817    0.001193863675    -0.099799132064    0.011288442126    0.000319721794    0.001402402728
            0.000278034838    0.001193863670    0.109544208482    0.078990168525    0.000281491351    0.001057881775    0.099748097850    0.052713064025
            -0.099799142001    0.011288443250    0.000281490599    0.001057881251    -0.123544676036    0.019379011419    0.000332870699    0.001214905588
            0.000319721818    0.001402402722    0.099748105210    0.052713050098    0.000332871483    0.001214906202    0.109988982300    0.077575341534
0.625     -0.121732028476    0.051371404595    0.000462522214    0.001181854431    -0.102598513128    0.035823218764    0.000533191058    0.001388069993
            0.000462522157    0.001181854346    0.125451091355    0.079402661034    0.000446029699    0.001039526475    0.111355181827    0.053322615185
            -0.102598513128    0.035823218764    0.000446029699    0.001039526475    -0.123974123449    0.048200213941    0.000520388519    0.001191378720
            0.000533187004    0.001388067908    0.111355181827    0.053322615185    0.000520389250    0.001191379601    0.125545008108    0.077932162616
0.650     -0.116166400015    0.079767510072    0.000650243982    0.001136314528    -0.100647085611    0.061106674218    0.000750046955    0.001335701257
            0.000650242256    0.001136313903    0.142246926376    0.076549907294    0.000609174229    0.000991049796    0.124041547514    0.051540957285
            -0.100647085611    0.061106674218    0.000609174211    0.000991049689    -0.118707038500    0.076837207611    0.000705685371    0.001133932153
            0.000750047123    0.001335701392    0.124041551113    0.051540948625    0.000705685364    0.001133932628    0.141977435937    0.075115995709
0.675     -0.104975487853    0.106798624645    0.000831113223    0.001055608559    -0.093679957458    0.085827398550    0.000958952052    0.001243482092
            0.000831113322    0.001055608608    0.159159948724    0.070215030953    0.000764296609    0.000913125107    0.137223735682    0.047075658727
            -0.093679957458    0.085827398550    0.000764296177    0.000913124947    -0.107960248766    0.104086151570    0.000881412479    0.001043457649
            0.000958947648    0.001243480689    0.137223720892    0.047075701837    0.000881412435    0.001043457818    0.158539319441    0.068908821142
0.700     -0.088762652388    0.131247893568    0.000997564874    0.000942508172    -0.082054237897    0.108929597679    0.001151460482    0.001114613653
            0.000997564817    0.000942508086    0.175399712620    0.060377566309    0.000905325946    0.000808132926    0.150276705514    0.039793195030
            -0.082054237897    0.108929597679    0.000905324978    0.000808132659    -0.092202328538    0.128855827700    0.001040862556    0.000922723736
            0.001151460482    0.001114613653    0.150276683983    0.039793276338    0.001040862572    0.000922723718    0.174462715902    0.059284625527
0.725     -0.068263727329    0.152179227558    0.001143220156    0.000800985857    -0.066269687196    0.129528412096    0.001320542804    0.000953575375
            0.001143220224    0.000800985935    0.190195717131    0.047208209885    0.001027057330    0.000679806507    0.162561259358    0.029715078311
            -0.066269709803    0.129528400530    0.001027057246    0.000679806452    -0.072112564240    0.150207397975    0.001178286764    0.000775958622
            0.001320542820    0.000953575352    0.162561244318    0.029715160590    0.001178286750    0.000775958643    0.188998828739    0.046401404551
0.750     -0.044350135964    0.168868572262    0.001263092430    0.000636241282    -0.046970343828    0.146900333769    0.001460661880    0.000766170296
            0.001263092419    0.000636241304    0.202854220950    0.031043548852    0.001125588918    0.000532908802    0.173478229492    0.017007925612
            -0.046970343828    0.146900333769    0.001125588927    0.000532908782    -0.048533171584    0.167400642198    0.001289396920    0.000608536555
            0.001460661893    0.000766170271    0.173478210338    0.017008018497    0.001289396920    0.000608536555    0.201470200132    0.030581492231
0.775     -0.017986852976    0.180809369628    0.001353654694    0.000454230325    -0.024901648650    0.160485767883    0.001567904842    0.000559027997
            0.001353654694    0.000454230325    0.212779744981    0.012361069752    0.001198357126    0.000372715381    0.182478367838    0.001961515825
            -0.024901659323    0.160485725748    0.001198357126    0.000372715381    -0.022410038425    0.179910037496    0.001371392035    0.000426381891
            0.001567904842    0.000559027997    0.182478357431    0.001961553617    0.001371392035    0.000426381891    0.211293926703    0.012283257586
