# GHz S RI R 45
0.000     0.011864869000    0.000000000000    -0.000055467435    0.000000000000    0.000433169080    -0.000000000000    -0.000068467880    0.000000000000
            -0.000055467292    0.000000000000    0.012057673000    0.000000000000    -0.000045516702    0.000000000000    0.000354509070    0.000000000000
            0.000433165490    -0.000000000000    -0.000045516310    0.000000000000    0.011825220000    0.000000000000    -0.000070809282    0.000000000000
            -0.000068467548    0.000000000000    0.000354510990    0.000000000000    -0.000070809467    0.000000000000    0.012033259000    0.000000000000
0.025     0.016170190998    0.011277526712    -0.000082166138    -0.000214744043    0.002175603718    0.010166959265    -0.000106591633    -0.000278484947
            -0.000082166056    -0.000214744053    0.015858938825    0.011540842763    -0.000069526302    -0.000171525464    0.001669091125    0.010501403769
            0.002175573760    0.010167006581    -0.000069525977    -0.000171525520    0.016107431592    0.011251475063    -0.000081819196    -0.000207744899
            -0.000106591841    -0.000278485199    0.001668970916    0.010501238590    -0.000081819428    -0.000207744743    0.015787568888    0.011498091419
0.050     0.022310472554    0.019064877682    -0.000184593438    -0.000421756410    0.006826944728    0.019233625560    -0.000236573798    -0.000543147679
            -0.000184593360    -0.000421756433    0.020336867197    0.019931715420    -0.000152342811    -0.000334079642    0.005008352726    0.020220338459
            0.006826928275    0.019233635644    -0.000152342433    -0.000334079738    0.022240381527    0.019039414826    -0.000178572207    -0.000425363543
            -0.000236573494    -0.000543147757    0.005008384232    0.020220326535    -0.000178572281    -0.000425363511    0.020221930275    0.019860035479
0.075     0.030528349313    0.024702348853    -0.000354388505    -0.000585091224    0.013992328197    0.026529274752    -0.000449884258    -0.000755425412
            -0.000354388505    -0.000585091224    0.025898884393    0.026991167663    -0.000287977490    -0.000461848049    0.010130531509    0.028858905997
            0.013992318000    0.026529276739    -0.000287977045    -0.000461848232    0.030459279127    0.024677525682    -0.000350509101    -0.000597607276
            -0.000449883817    -0.000755425571    0.010130537885    0.028858904819    -0.000350509206    -0.000597607215    0.025718856510    0.026914104617
0.100     0.040406982059    0.027570295584    -0.000569707872    -0.000692881597    0.023093207578    0.031435538759    -0.000721876803    -0.000900564334
            -0.000569707866    -0.000692881589    0.032419126148    0.032456194995    -0.000459584232    -0.000545359308    0.016701599069    0.036058976637
            0.023093205976    0.031435541177    -0.000459583303    -0.000545359751    0.040345573843    0.027550078183    -0.000571242343    -0.000712798276
            -0.000721876803    -0.000900564334    0.016701600328    0.036058976054    -0.000571243239    -0.000712797865    0.032162012193    0.032404545668
0.125     0.051055183312    0.027152861923    -0.000812688546    -0.000737929778    0.033413870211    0.033523911044    -0.001031909339    -0.000968823697
            -0.000812688546    -0.000737929778    0.039417855362    0.036137770591    -0.000653091235    -0.000578757606    0.024309519770    0.041599538850
            0.033413869867    0.033523914210    -0.000653090819    -0.000578757848    0.051010708580    0.027130949389    -0.000822415538    -0.000763619085
            -0.001031909339    -0.000968823697    0.024309521222    0.041599538001    -0.000822415878    -0.000763618866    0.039081905912    0.036151353576
0.150     0.061741307768    0.023410775074    -0.001066035874    -0.000719527633    0.044159099804    0.032515527898    -0.001359487450    -0.000957938372
            -0.001066035123    -0.000719528209    0.046480889852    0.038079686654    -0.000854726316    -0.000561408821    0.032491837515    0.045316855005
            0.044159099474    0.032515530032    -0.000854726316    -0.000561408821    0.061729483635    0.023399686858    -0.001086702599    -0.000748726294
            -0.001359487450    -0.000957938372    0.032491839097    0.045316853870    -0.001086702599    -0.000748726294    0.046077581578    0.038191538550
0.175     0.071472168955    0.016335910922    -0.001314695169    -0.000640732050    0.054491270787    0.028368231329    -0.001686332387    -0.000869857432
            -0.001314694968    -0.000640732235    0.053145571555    0.038400586219    -0.001052501666    -0.000495591702    0.040772141140    0.047208931316
            0.054491270684    0.028368233693    -0.001052501402    -0.000495592027    0.071510928703    0.016333720212    -0.001348677254    -0.000670173239
            -0.001686331906    -0.000869857929    0.040772142787    0.047208929892    -0.001348677254    -0.000670173239    0.052701648012    0.038643246199
0.200     0.079338616993    0.006222805056    -0.001547303667    -0.000507798561    0.063597060017    0.021246159147    -0.001997924521    -0.000710433424
            -0.001547303667    -0.000507798561    0.058988287444    0.037351216650    -0.001237303765    -0.000386133049    0.048704084253    0.047401596111
            0.063597061543    0.021246160891    -0.001237303861    -0.000386133079    0.079446706270    0.006219823351    -0.001596305667    -0.000533093645
            -0.001997924521    -0.000710433424    0.048704075596    0.047401599272    -0.001596305667    -0.000533093645    0.058542773993    0.037748632582
0.225     0.084537948045    -0.006420447310    -0.001755358542    -0.000328083432    0.070722601410    0.011500926387    -0.002282605393    -0.000486987259
            -0.001755358542    -0.000328083432    0.063686811933    0.035286393206    -0.001402172164    -0.000238667777    0.055901662316    0.046125305639
            0.070722603063    0.011500928683    -0.001402171925    -0.000238667988    0.084733483587    -0.006441452827    -0.001819781539    -0.000343841423
            -0.002282605112    -0.000486987615    0.055901662350    0.046125304027    -0.001819781539    -0.000343841423    0.063287441536    0.035849351173
0.250     0.086424296544    -0.020896467485    -0.001933880622    -0.000108946870    0.075217748795    -0.000347174724    -0.002532375958    -0.000207295494
            -0.001933880622    -0.000108946870    0.067038754310    0.032648177134    -0.001542789450    -0.000058874555    0.062062724994    0.043701259653
            0.075217750801    -0.000347173433    -0.001542788909    -0.000058875613    0.086722546441    -0.020959813118    -0.002012394908    -0.000109084989
            -0.002532375487    -0.000207296345    0.062062725811    0.043701260228    -0.002012394908    -0.000109084989    0.066736915898    0.033371981222
0.275     0.084523264588    -0.036367819168    -0.002079650118    0.000143191246    0.076560617961    -0.013633088145    -0.002741012771    0.000121407473
            -0.002079650118    0.000143191246    0.068983505982    0.029907294833    -0.001656113518    0.000148194901    0.066985410497    0.040509694955
            0.076560620881    -0.013633083150    -0.001656113245    0.000148194585    0.084934649413    -0.036504322019    -0.002168758537    0.000164812539
            -0.002741012593    0.000121406985    0.066985411204    0.040509693786    -0.002168758537    0.000164812539    0.068829449747    0.030771319756
0.300     0.078574352915    -0.051895915908    -0.002191113180    0.000423549939    0.074393627994    -0.027579984544    -0.002904077430    0.000493136979
            -0.002191113180    0.000423549939    0.069599788197    0.027538846939    -0.001740295343    0.000378616658    0.070582330283    0.036969925418
            0.074393630351    -0.027579983941    -0.001740295343    0.000378616658    0.079101849712    -0.052142963159    -0.002284982026    0.000472434721
            -0.002904077430    0.000493136979    0.070582330283    0.036969925418    -0.002284982252    0.000472435599    0.069637992742    0.028506966350
0.325     0.068533746233    -0.066485783546    -0.002266614619    0.000728791321    0.068538733608    -0.041328055425    -0.003017038420    0.000902845167
            -0.002266614619    0.000728791321    0.069100249712    0.025970249200    -0.001793351085    0.000629359945    0.072882666586    0.033502992626
            0.068538736042    -0.041328055261    -0.001793351085    0.000629359945    0.069170964272    -0.066884913303    -0.002357144933    0.000808875548
            -0.003017038420    0.000902845167    0.072882667495    0.033502993044    -0.002357144933    0.000808875548    0.069364736404    0.026993162276
0.350     0.054598774059    -0.079141096326    -0.002304038528    0.001057068676    0.059022847518    -0.053982073939    -0.003075197717    0.001346517064
            -0.002304038528    0.001057068676    0.067817215384    0.025561257168    -0.001812999867    0.000898286837    0.074037282940    0.030509861803
            0.059022849936    -0.053982074259    -0.001812999867    0.000898286837    0.055327417782    -0.079736280174    -0.002381302381    0.001169894316
            -0.003075197717    0.001346517064    0.074037283865    0.030509862184    -0.002381302381    0.001169894316    0.068328093138    0.026579704862
0.375     0.037197937897    -0.088908270278    -0.002299564210    0.001406923311    0.046082983368    -0.064645946144    -0.003072282504    0.001819932473
            -0.002299564210    0.001406923311    0.066178153174    0.026561560838    -0.001795722695    0.001183265636    0.074303809134    0.028330303063
            0.046082986238    -0.064645947782    -0.001795722695    0.001183265636    0.037986650524    -0.089742747358    -0.002352531687    0.001550850683
            -0.003072282345    0.001819928033    0.074303811002    0.028330303775    -0.002352531687    0.001550850683    0.066938606514    0.027510323328
0.400     0.016989256292    -0.094941141217    -0.002247650214    0.001776659101    0.030171393419    -0.072484991373    -0.003000828183    0.002318130052
            -0.002247650214    0.001776659101    0.064679993113    0.029098037949    -0.001736981610    0.001481732863    0.074037877256    0.027222942534
            0.030171395453    -0.072484992693    -0.001736981610    0.001481732863    0.017791990046    -0.096053787344    -0.002265247646    0.001946416807
            -0.003000828183    0.002318130052    0.074037879133    0.027222943224    -0.002265247646    0.001946416807    0.065675305243    0.029911166795
0.425     -0.005166181061    -0.096544537415    -0.002140750151    0.002162820349    0.011943457134    -0.076765090262    -0.002851871047    0.002833849003
            -0.002140750151    0.002162820349    0.063849873703    0.033146469609    -0.001630983503    0.001789560408    0.073660532324    0.027329274652
            0.011943501150    -0.076765073293    -0.001630983503    0.001789560408    -0.004410856192    -0.097966516813    -0.002113107973    0.002349320868
            -0.002851871047    0.002833849003    0.073660534199    0.027329275348    -0.002113107973    0.002349320868    0.065047154748    0.033763083922
0.450     -0.028240449038    -0.093236567133    -0.001970184095    0.002559343241    -0.007768838997    -0.076917895497    -0.002616043330    0.003356864343
            -0.001970184095    0.002559343241    0.064209655521    0.038532899779    -0.001471532630    0.002100548736    0.073633332594    0.028663575056
            -0.007768837855    -0.076917897622    -0.001471532630    0.002100548736    -0.027611179466    -0.094986446130    -0.001889946216    0.002750109880
            -0.002616043330    0.003356864343    0.073633335459    0.028663573212    -0.001889946159    0.002750109797    0.065560537313    0.038901873489
0.475     -0.051088154541    -0.084781711676    -0.001727002342    0.002956299787    -0.027997202152    -0.072574886935    -0.002284583709    0.003872815902
            -0.001727002393    0.002956299874    0.066226624760    0.044927244928    -0.001252689321    0.002405677183    0.074411190481    0.031093251252
            -0.027997202152    -0.072574886935    -0.001252689321    0.002405677183    -0.050687105967    -0.086861272776    -0.001590490683    0.003136382266
            -0.002284583709    0.003872815902    0.074411192869    0.031093250725    -0.001590490683    0.003136382266    0.067671516785    0.045011724999
0.500     -0.072514853354    -0.071228186388    -0.001403747748    0.003339837544    -0.047712820560    -0.063613318290    -0.001851098258    0.004363391323
            -0.001403747127    0.003339837697    0.070276099922    0.051866276662    -0.000969954146    0.002693685139    0.076407868544    0.034348912900
            -0.047712822360    -0.063613320690    -0.000969959132    0.002693676861    -0.072501948873    -0.073617199330    -0.001211583952    0.003493784512
            -0.001851098297    0.004363391415    0.076407869456    0.034348913310    -0.001211583952    0.003493784512    0.071750387343    0.051643028399
0.525     -0.091348356147    -0.052908025377    -0.000996026179    0.003692021268    -0.066028601732    -0.050186384449    -0.001313256886    0.004806337985
            -0.000996026179    0.003692021268    0.076595893358    0.058776780892    -0.000620850432    0.002955268680    0.079941050696    0.038028517337
            -0.066028595361    -0.050186397788    -0.000620850432    0.002955268680    -0.092231576574    -0.055624515645    -0.000752571347    0.003811539914
            -0.001313256886    0.004806337985    0.079941056060    0.038028513045    -0.000752571327    0.003811539816    0.078029485106    0.058226170082
0.550     -0.106524097480    -0.030487454880    -0.000505720230    0.003992678394    -0.080479655456    -0.033730975932    -0.000676495526    0.005177688855
            -0.000505720242    0.003992678494    0.085265518432    0.065024787332    -0.000249914771    0.003143625371    0.085190356203    0.041646608164
            -0.080479655456    -0.033730975932    -0.000249914771    0.003143625371    -0.106023841357    -0.035142941953    -0.000273166925    0.004030855583
            -0.000676495526    0.005177688855    0.085190356203    0.041646608164    -0.000273166925    0.004030855583    0.086552689032    0.064131932439
0.575     -0.117058903038    -0.004710227344    0.000062567301    0.004218273813    -0.092397024942    -0.012179671698    0.000051155455    0.005450616752
            0.000062567520    0.004218273709    0.096183825847    0.069957632070    0.000229646084    0.003281145799    0.092189155150    0.044703098543
            -0.092397024942    -0.012179671698    0.000229645919    0.003281145911    -0.117484846348    -0.008470967230    0.000337752561    0.004184402237
            0.000051155455    0.005450616752    0.092189146932    0.044703092571    0.000337752561    0.004184402237    0.097189988858    0.068775111256
0.600     -0.122061805791    0.023227244598    0.000692818423    0.004346914165    -0.099799132064    0.011288442126    0.000848703634    0.005600964287
            0.000692818347    0.004346914177    0.109071992976    0.072957447870    0.000732084964    0.003342863316    0.100866434699    0.046685783561
            -0.099799142001    0.011288443250    0.000732085001    0.003342863205    -0.123544676036    0.019379011419    0.000969233854    0.004242722098
            0.000848703634    0.005600964287    0.100866437958    0.046685776520    0.000969233780    0.004242722115    0.109719163697    0.071591980586
0.625     -0.121732028476    0.051371404595    0.001359091366    0.004371016948    -0.102598513128    0.035823218764    0.001684114723    0.005622589528
            0.001359091290    0.004371016972    0.123478957433    0.073490315627    0.001255804839    0.003314379532    0.110982090763    0.047085101342
            -0.102598513128    0.035823218764    0.001255804862    0.003314379417    -0.123974123449    0.048200213941    0.001620540935    0.004190196595
            0.001684114723    0.005622589528    0.110982093228    0.047085095531    0.001620540862    0.004190196624    0.123739548806    0.072041824069
0.650     -0.116166400015    0.079767510072    0.002053487190    0.004275941555    -0.100647085611    0.061106674218    0.002549100623    0.005499686237
            0.002053487190    0.004275941555    0.138830802931    0.071150619387    0.001782307025    0.003189651933    0.122158174194    0.045480396653
            -0.100647085611    0.061106674218    0.001782307025    0.003189651933    -0.118707038500    0.076837207611    0.002269849432    0.004021390721
            0.002549100623    0.005499686237    0.122158174194    0.045480396653    0.002269849432    0.004021390721    0.138698701471    0.069712995346
0.675     -0.104975487853    0.106798624645    0.002741761427    0.004050783671    -0.093679957458    0.085827398550    0.003402873847    0.005220765536
            0.002741761427    0.004050783671    0.154459687470    0.065688978636    0.002290370500    0.002968607168    0.133910794232    0.041567325510
            -0.093679957458    0.085827398550    0.002290370552    0.002968607128    -0.107960248766    0.104086151570    0.002892493018    0.003737797635
            0.003402873847    0.005220765536    0.133910794232    0.041567325510    0.002892492953    0.003737797685    0.153948284561    0.064354781233
0.700     -0.088762652388    0.131247893568    0.003395529936    0.003699566976    -0.082054237897    0.108929597679    0.004212788456    0.004792136063
            0.003395529795    0.003699566563    0.169663544219    0.057027022744    0.002759751693    0.002656708152    0.145706660157    0.035176223737
            -0.082054237897    0.108929597679    0.002759752100    0.002656708450    -0.092202328538    0.128855827700    0.003465368345    0.003347050733
            0.004212788372    0.004792136137    0.145706660157    0.035176223737    0.003465368345    0.003347050733    0.168806041299    0.055885785139
0.725     -0.068263727329    0.152179227558    0.003988823013    0.003231457018    -0.066269687196    0.129528412096    0.004949497404    0.004225459001
            0.003988823147    0.003231457011    0.183738735402    0.045258199903    0.003172253555    0.002264118995    0.156982177691    0.026271683323
            -0.066269709803    0.129528400530    0.003172253594    0.002264118940    -0.072112564240    0.150207397975    0.003968009680    0.002861902641
            0.004949492744    0.004225458607    0.156982169250    0.026271673179    0.003968009711    0.002861902769    0.182588247800    0.044389521343
0.750     -0.044350135964    0.168868572262    0.004499138269    0.002661225690    -0.046970343828    0.146900333769    0.005587808818    0.003538429569
            0.004499138269    0.002661225690    0.196033365371    0.030630920814    0.003513369693    0.001804938008    0.167194549219    0.014949449395
            -0.046970343828    0.146900333769    0.003513369725    0.001804937946    -0.048533171584    0.167400642198    0.004384353814    0.002299281815
            0.005587808818    0.003538429569    0.167194549219    0.014949449395    0.004384353774    0.002299281892    0.194660168271    0.030101768592
0.775     -0.017986852976    0.180809369628    0.004908192998    0.002007905070    -0.024901648650    0.160485767883    0.006107492263    0.002753183420
            0.004908193090    0.002007905108    0.205968979650    0.013531208600    0.003772631691    0.001295603831    0.175833530509    0.001420712080
            -0.024901659323    0.160485725748    0.003772631786    0.001295603864    -0.022410038425    0.179910037496    0.004703001632    0.001678575547
            0.006107492263    0.002753183420    0.175833530509    0.001420712080    0.004703001632    0.001678575547    0.204457435704    0.013390997256
