# GHz S RI R 45
0.000     0.011864869000    0.000000000000    0.000001807420    0.000000000000    0.000433169080    -0.000000000000    -0.000013651128    0.000000000000
            0.000001807616    0.000000000000    0.011780514000    0.000000000000    0.000012654398    0.000000000000    0.000383751780    0.000000000000
            0.000433165490    -0.000000000000    0.000012656406    0.000000000000    0.011825220000    0.000000000000    -0.000005937755    0.000000000000
            -0.000013650985    0.000000000000    0.000383751730    0.000000000000    -0.000005937739    0.000000000000    0.011771005000    0.000000000000
0.025     0.016170190998    0.011277526712    -0.000016795602    -0.000065506386    0.002175603718    0.010166959265    -0.000026873944    -0.000066219343
            -0.000016795610    -0.000065506370    0.015164671524    0.010475643481    -0.000021209441    -0.000076863872    0.001468485787    0.009307929258
            0.002175573760    0.010167006581    -0.000021209457    -0.000076863877    0.016107431592    0.011251475063    -0.000016455677    -0.000068536822
            -0.000026873939    -0.000066219330    0.001468363218    0.009307764445    -0.000016455699    -0.000068536806    0.015087172238    0.010481014220
0.050     0.022310472554    0.019064877682    -0.000048149259    -0.000116419278    0.006826944728    0.019233625560    -0.000061874946    -0.000124732734
            -0.000048149263    -0.000116419287    0.019119505058    0.018062624529    -0.000058252144    -0.000123249341    0.004281197941    0.017996428340
            0.006826928275    0.019233635644    -0.000058252148    -0.000123249350    0.022240381527    0.019039414826    -0.000048696194    -0.000131584827
            -0.000061874946    -0.000124732734    0.004281228111    0.017996417051    -0.000048696217    -0.000131584818    0.019021402872    0.018086414278
0.075     0.030528349313    0.024702348853    -0.000092024026    -0.000158144595    0.013992328197    0.026529274752    -0.000113617755    -0.000168340403
            -0.000092024053    -0.000158144579    0.023972151358    0.024516216514    -0.000102376934    -0.000162700001    0.008623184916    0.025797266530
            0.013992318000    0.026529276739    -0.000102376934    -0.000162700001    0.030459279127    0.024677525682    -0.000099510404    -0.000182362291
            -0.000113617685    -0.000168340426    0.008623190502    0.025797266771    -0.000099510404    -0.000182362291    0.023847728791    0.024571197771
0.100     0.040406982059    0.027570295584    -0.000147070175    -0.000187473953    0.023093207578    0.031435538759    -0.000176463084    -0.000194988169
            -0.000147070175    -0.000187473953    0.029656097811    0.029631794192    -0.000156667264    -0.000191679381    0.014222062070    0.032424491813
            0.023093205976    0.031435541177    -0.000156667344    -0.000191679342    0.040345573843    0.027550078183    -0.000164051847    -0.000217335206
            -0.000176462996    -0.000194988208    0.014222061504    0.032424492061    -0.000164051935    -0.000217335165    0.029503683515    0.029733069781
0.125     0.051055183312    0.027152861923    -0.000209513234    -0.000202677082    0.033413870211    0.033523911044    -0.000246214850    -0.000204250115
            -0.000209513234    -0.000202677082    0.035784688660    0.033202084901    -0.000219001813    -0.000207457399    0.020758557302    0.037697612168
            0.033413869867    0.033523914210    -0.000219001813    -0.000207457399    0.051010708580    0.027130949389    -0.000237140629    -0.000234743212
            -0.000246214850    -0.000204250115    0.020758557784    0.037697613044    -0.000237140629    -0.000234743212    0.035602540897    0.033365256289
0.150     0.061741307768    0.023410775074    -0.000276121961    -0.000202541188    0.044159099804    0.032515527898    -0.000317884212    -0.000194942053
            -0.000276122020    -0.000202541157    0.042037336321    0.035335187615    -0.000286111594    -0.000208605492    0.027873329037    0.041457151981
            0.044159099474    0.032515530032    -0.000286111594    -0.000208605492    0.061729483635    0.023399686858    -0.000314440693    -0.000233565994
            -0.000317884144    -0.000194942088    0.027873329037    0.041457151981    -0.000314440693    -0.000233565994    0.041840209849    0.035581651594
0.175     0.071472168955    0.016335910922    -0.000343444206    -0.000187108727    0.054491270787    0.028368231329    -0.000386933191    -0.000168180067
            -0.000343444206    -0.000187108727    0.048043006610    0.036070824647    -0.000354885674    -0.000194723057    0.035184339584    0.043672700764
            0.054491270684    0.028368233693    -0.000354885674    -0.000194723057    0.071510928703    0.016333720212    -0.000391560790    -0.000214272910
            -0.000386933191    -0.000168180067    0.035184339584    0.043672700764    -0.000391560808    -0.000214272920    0.047851827762    0.036416016663
0.200     0.079338616993    0.006222805056    -0.000408552994    -0.000157193632    0.063597060017    0.021246159147    -0.000449880924    -0.000126077789
            -0.000408552994    -0.000157193632    0.053440869633    0.035576495084    -0.000422435096    -0.000166206263    0.042324313657    0.044413631692
            0.063597061543    0.021246160891    -0.000422435096    -0.000166206263    0.079446706270    0.006219823351    -0.000464939052    -0.000178284498
            -0.000449880943    -0.000126077795    0.042324313657    0.044413631692    -0.000464939040    -0.000178284586    0.053281266971    0.036029412474
0.225     0.084537948045    -0.006420447310    -0.000469027909    -0.000113985935    0.070722601410    0.011500926387    -0.000504190049    -0.000071200767
            -0.000469027909    -0.000113985935    0.057941123498    0.034113184580    -0.000486347207    -0.000123802842    0.048963654174    0.043832827069
            0.070722603063    0.011500928683    -0.000486347207    -0.000123802842    0.084733483587    -0.006441452827    -0.000531740585    -0.000127539680
            -0.000504189749    -0.000071201174    0.048963654174    0.043832827069    -0.000531740585    -0.000127539680    0.057842276408    0.034674853796
0.250     0.086424296544    -0.020896467485    -0.000523043632    -0.000058884963    0.075217748795    -0.000347174724    -0.000548405795    -0.000006204311
            -0.000523043642    -0.000058884964    0.061340141245    0.032023263469    -0.000544605188    -0.000068545095    0.054829525288    0.042160000037
            0.075217750801    -0.000347173433    -0.000544605188    -0.000068545095    0.086722546441    -0.020959813118    -0.000590055509    -0.000064188070
            -0.000548405795    -0.000006204311    0.054829525288    0.042160000037    -0.000590055499    -0.000064188069    0.061332177383    0.032686745194
0.275     0.084523264588    -0.036367819168    -0.000569147011    0.000006705415    0.076560617961    -0.013633088145    -0.000581793575    0.000066457861
            -0.000569147011    0.000006705415    0.063542949068    0.029682783769    -0.000595525055    -0.000001449740    0.059719405724    0.039678554026
            0.076560620881    -0.013633083150    -0.000595525055    -0.000001449740    0.084934649413    -0.036504322019    -0.000638582531    0.000009653961
            -0.000581793585    0.000066457863    0.059719405724    0.039678554026    -0.000638582521    0.000009653961    0.063655104546    0.030432538616
0.300     0.078574352915    -0.051895915908    -0.000606237224    0.000081458539    0.074393627994    -0.027579984544    -0.000604274447    0.000144777676
            -0.000606237234    0.000081458540    0.064562855498    0.027485655477    -0.000637645048    0.000076462728    0.063514166735    0.036713177086
            0.074393630351    -0.027579983941    -0.000637645048    0.000076462728    0.079101849712    -0.052142963159    -0.000676623131    0.000092119970
            -0.000604274457    0.000144777678    0.063514167601    0.036713177587    -0.000676623131    0.000092119970    0.064820984459    0.028297705211
0.325     0.068533746233    -0.066485783546    -0.000633300805    0.000164101513    0.068538733608    -0.041328055425    -0.000616002717    0.000227221933
            -0.000633300805    0.000164101513    0.064521348954    0.025800610117    -0.000669527083    0.000164273585    0.066181617238    0.033602577569
            0.068538736042    -0.041328055261    -0.000669527083    0.000164273585    0.069170964272    -0.066884913303    -0.000703714263    0.000181583584
            -0.000616002717    0.000227221933    0.066181617238    0.033602577569    -0.000703714263    0.000181583584    0.064945673077    0.026643678074
0.350     0.054598774059    -0.079141096326    -0.000649397689    0.000253334000    0.059022847518    -0.053982073939    -0.000617239753    0.000312807606
            -0.000649397735    0.000253334018    0.063638908985    0.024957733759    -0.000689708517    0.000261055302    0.067783796742    0.030684600446
            0.059022849936    -0.053982074259    -0.000689708489    0.000261055292    0.055327417782    -0.079736280174    -0.000719564248    0.000276663492
            -0.000617239735    0.000312807597    0.067783796742    0.030684600446    -0.000719564248    0.000276663492    0.064242034005    0.025794579531
0.375     0.037197937897    -0.088908270278    -0.000653435075    0.000347497280    0.046082983368    -0.064645946144    -0.000608002811    0.000400900334
            -0.000653435066    0.000347497276    0.062220657975    0.025213618258    -0.000696515705    0.000365780809    0.068468695720    0.028265614451
            0.046082986238    -0.064645947782    -0.000696515722    0.000365780818    0.037986650524    -0.089742747358    -0.000723725816    0.000375851791
            -0.000608002811    0.000400900334    0.068468695720    0.028265614451    -0.000723725816    0.000375851791    0.063005749597    0.026002782202
0.400     0.016989256292    -0.094941141217    -0.000644063467    0.000444015702    0.030171393419    -0.072484991373    -0.000588016076    0.000491114468
            -0.000644063467    0.000444015702    0.060639169832    0.026741055608    -0.000688154592    0.000477146135    0.068468378159    0.026605936421
            0.030171395453    -0.072484992693    -0.000688154592    0.000477146135    0.017791990046    -0.096053787344    -0.000715442892    0.000476925900
            -0.000588016076    0.000491114468    0.068468378159    0.026605936421    -0.000715442892    0.000476925900    0.061599005679    0.027439698721
0.425     -0.005166181061    -0.096544537415    -0.000618383925    0.000538059645    0.011943457134    -0.076765090262    -0.000556574439    0.000582912157
            -0.000618383925    0.000538059645    0.059308806146    0.029604301174    -0.000662701728    0.000593303829    0.068079405717    0.025890613796
            0.011943501150    -0.076765073293    -0.000662701728    0.000593303829    -0.004410856192    -0.097966516813    -0.000692235556    0.000575272025
            -0.000556574439    0.000582912157    0.068079405717    0.025890613796    -0.000692235548    0.000575272018    0.060425288187    0.030170752777
0.450     -0.028240449038    -0.093236567133    -0.000565491977    0.000623367345    -0.007768838997    -0.076917895497    -0.000512580538    0.000675151873
            -0.000565491977    0.000623367345    0.058662283042    0.033756784527    -0.000618304392    0.000711418260    0.067648516802    0.026220053261
            -0.007768837855    -0.076917897622    -0.000618304392    0.000711418260    -0.027611179466    -0.094986446130    -0.000642085250    0.000664074835
            -0.000512580538    0.000675151873    0.067648516802    0.026220053261    -0.000642085250    0.000664074835    0.059906718610    0.034153185291
0.475     -0.051088154541    -0.084781711676    -0.000466941802    0.000718695542    -0.027997202152    -0.072574886935    -0.000453532382    0.000765904771
            -0.000466941556    0.000718695988    0.059116511862    0.039029720279    -0.000552058386    0.000827471549    0.067542686037    0.027589027873
            -0.027997202152    -0.072574886935    -0.000552058397    0.000827471566    -0.050687105967    -0.086861272776    -0.000542380735    0.000767220556
            -0.000453532382    0.000765904771    0.067542686037    0.027589027873    -0.000542380735    0.000767220556    0.060450703105    0.039225204477
0.500     -0.072514853354    -0.071228186388    -0.000362052592    0.000841730346    -0.047712820560    -0.063613318290    -0.000377301411    0.000854848192
            -0.000362052592    0.000841730346    0.061045001053    0.045142772473    -0.000461167534    0.000939177950    0.068125792004    0.029889719459
            -0.047712822360    -0.063613320690    -0.000461167534    0.000939177950    -0.072501948873    -0.073617199330    -0.000441804236    0.000904927214
            -0.000377301411    0.000854848192    0.068125792004    0.029889719459    -0.000441804236    0.000904927214    0.062423393493    0.045115737459
0.525     -0.091348356147    -0.052908025377    -0.000258673776    0.000948912107    -0.066028601732    -0.050186384449    -0.000284207856    0.000939125314
            -0.000258673776    0.000948912107    0.064742766673    0.051710610283    -0.000345843916    0.001045641119    0.069722745685    0.032907230605
            -0.066028595361    -0.050186397788    -0.000345843916    0.001045641119    -0.092231576574    -0.055624515645    -0.000342994843    0.001027636120
            -0.000284207856    0.000939125314    0.069722745685    0.032907230605    -0.000342994875    0.001027636214    0.066115801242    0.051451433687
0.550     -0.106524097480    -0.030487454880    -0.000138693224    0.001032885009    -0.080479655456    -0.033730975932    -0.000173991883    0.001014396904
            -0.000138693224    0.001032885009    0.070404541552    0.058270586976    -0.000220499345    0.001131474278    0.072596265075    0.036339816487
            -0.080479655456    -0.033730975932    -0.000220499345    0.001131474278    -0.106023841357    -0.035142941953    -0.000234122181    0.001122590133
            -0.000173991883    0.001014396904    0.072596265075    0.036339816487    -0.000234122181    0.001122590133    0.071720958163    0.057783278269
0.575     -0.117058903038    -0.004710227344    0.000000483963    0.001093804593    -0.092397024942    -0.012179671698    -0.000046125498    0.001075909427
            0.000000483963    0.001093804593    0.078097721784    0.064306592051    -0.000060662239    0.001201177083    0.076915023927    0.039811897349
            -0.092397024942    -0.012179671698    -0.000060662239    0.001201177083    -0.117484846348    -0.008470967230    -0.000089317077    0.001202584630
            -0.000046125498    0.001075909427    0.076915023232    0.039811898691    -0.000089317077    0.001202584630    0.079307355271    0.063610267172
0.600     -0.122061805791    0.023227244598    0.000154709669    0.001128931138    -0.099799132064    0.011288442126    0.000096977694    0.001118500327
            0.000154709669    0.001128931138    0.087757275567    0.069288812183    0.000111264707    0.001246800805    0.082744081018    0.042909736000
            -0.099799142001    0.011288443250    0.000111264729    0.001246800803    -0.123544676036    0.019379011419    0.000070479502    0.001261033276
            0.000096977694    0.001118500327    0.082744081018    0.042909736000    0.000070479480    0.001261033277    0.088813397003    0.068415561917
0.625     -0.121732028476    0.051371404595    0.000316300888    0.001138887919    -0.102598513128    0.035823218764    0.000249418443    0.001141229314
            0.000316300888    0.001138887919    0.099176992175    0.072707251623    0.000294626609    0.001263736813    0.090027992084    0.045204221097
            -0.102598513128    0.035823218764    0.000294626609    0.001263736813    -0.123974123449    0.048200213941    0.000245365983    0.001293793685
            0.000249418443    0.001141229314    0.090027992084    0.045204221097    0.000245365961    0.001293793689    0.100040096691    0.071699670081
0.650     -0.116166400015    0.079767510072    0.000485544900    0.001121509411    -0.100647085611    0.061106674218    0.000413088024    0.001140878152
            0.000485544900    0.001121509411    0.112027696396    0.074110903103    0.000484038452    0.001249256551    0.098604011397    0.046292057867
            -0.100647085611    0.061106674218    0.000484038452    0.001249256551    -0.118707038500    0.076837207611    0.000430772742    0.001297657035
            0.000413088024    0.001140878152    0.098604011397    0.046292057867    0.000430772764    0.001297657028    0.112668460178    0.073018986860
0.675     -0.104975487853    0.106798624645    0.000654044835    0.001073719117    -0.093679957458    0.085827398550    0.000580882858    0.001112764910
            0.000654044835    0.001073719117    0.125867830851    0.073136300848    0.000673012963    0.001202203385    0.108202116123    0.045817804137
            -0.093679957458    0.085827398550    0.000673012984    0.001202203373    -0.107960248766    0.104086151570    0.000620888400    0.001270504871
            0.000580882858    0.001112764910    0.108202117722    0.045817800360    0.000620888378    0.001270504882    0.126271059836    0.072015367086
0.700     -0.088762652388    0.131247893568    0.000815363761    0.000996895225    -0.082054237897    0.108929597679    0.000747014364    0.001056609755
            0.000815363761    0.000996895225    0.140181791561    0.069533529707    0.000855063549    0.001123049202    0.118476701428    0.043504792378
            -0.082054237897    0.108929597679    0.000855063549    0.001123049202    -0.092202328538    0.128855827700    0.000809610402    0.001211550541
            0.000747014364    0.001056609755    0.118476701428    0.043504792378    0.000809610402    0.001211550541    0.140345886611    0.068440595640
0.725     -0.068263727329    0.152179227558    0.000963908546    0.000893261444    -0.066269687196    0.129528412096    0.000906062552    0.000972962077
            0.000963908546    0.000893261444    0.154402012161    0.063179693170    0.001023973068    0.001013711577    0.129017891683    0.039165493670
            -0.066269709803    0.129528400530    0.001023973086    0.001013711559    -0.072112564240    0.150207397975    0.000990767032    0.001121337827
            0.000906062569    0.000972962061    0.129017891683    0.039165493670    0.000990767032    0.001121337827    0.154340723659    0.062170481739
0.750     -0.044350135964    0.168868572262    0.001094934936    0.000766109621    -0.046970343828    0.146900333769    0.001052985704    0.000863505120
            0.001094934936    0.000766109621    0.167952358283    0.054083126097    0.001174342978    0.000877494991    0.139390204177    0.032714596158
            -0.046970343828    0.146900333769    0.001174342993    0.000877494970    -0.048533171584    0.167400642198    0.001158633661    0.001001800839
            0.001052985704    0.000863505120    0.139390203606    0.032714598590    0.001158633644    0.001001800860    0.167692372002    0.053209482523
0.775     -0.017986852976    0.180809369628    0.001204658553    0.000619525908    -0.024901648650    0.160485767883    0.001183277033    0.000730912982
            0.001204658553    0.000619525908    0.180270564875    0.042380597825    0.001301747768    0.000718662870    0.149145959341    0.024164784943
            -0.024901659323    0.160485725748    0.001301747768    0.000718662870    -0.022410038425    0.179910037496    0.001308123449    0.000855955002
            0.001183277033    0.000730912982    0.149145959341    0.024164784943    0.001308123419    0.000855955047    0.179850379923    0.041686729101
