# GHz S RI R 45
0.000     0.011864869000    0.000000000000    0.000006870300    -0.000000000000    0.000433169080    -0.000000000000    0.000000776334    -0.000000000000
            0.000006870346    -0.000000000000    0.010874456000    0.000000000000    0.000003574022    -0.000000000000    0.000388485580    -0.000000000000
            0.000433165490    -0.000000000000    0.000003573962    -0.000000000000    0.011825220000    0.000000000000    0.000003288806    -0.000000000000
            0.000000776341    -0.000000000000    0.000388402570    -0.000000000000    0.000003288769    -0.000000000000    0.010834662000    0.000000000000
0.025     0.016170190998    0.011277526712    -0.000001429725    -0.000002385970    0.002175603718    0.010166959265    -0.000000452059    0.000001848254
            -0.000001429689    -0.000002385985    0.014732585737    0.010201252967    0.000001560577    0.000001412519    0.001906038089    0.009151475381
            0.002175573760    0.010167006581    0.000001560523    0.000001412533    0.016107431592    0.011251475063    0.000004386324    0.000002834679
            -0.000000452103    0.000001848261    0.001905926190    0.009151534233    0.000004386300    0.000002834684    0.014664576043    0.010134493807
0.050     0.022310472554    0.019064877682    -0.000002003029    0.000003719534    0.006826944728    0.019233625560    0.000000598080    0.000005230392
            -0.000002002988    0.000003719516    0.020226922487    0.017324304179    0.000002427241    0.000005276262    0.006008360297    0.017420826285
            0.006826928275    0.019233635644    0.000002427185    0.000005276283    0.022240381527    0.019039414826    0.000006236163    0.000004800165
            0.000000598043    0.000005230406    0.006008266931    0.017420857428    0.000006236134    0.000004800178    0.020141300932    0.017199427352
0.075     0.030528349313    0.024702348853    0.000000844475    0.000007715863    0.013992328197    0.026529274752    0.000003292673    0.000007597142
            0.000000844513    0.000007715839    0.027647689980    0.022670433051    0.000005506148    0.000007791824    0.012403339056    0.024234343620
            0.013992318000    0.026529276739    0.000005506099    0.000007791852    0.030459279127    0.024677525682    0.000008753180    0.000006072969
            0.000003292640    0.000007597163    0.012403258886    0.024234376788    0.000008753151    0.000006072989    0.027534148071    0.022496964427
0.100     0.040406982059    0.027570295584    0.000005030456    0.000009676114    0.023093207578    0.031435538759    0.000006770175    0.000008761879
            0.000005030480    0.000009676089    0.036720210509    0.025691191951    0.000009426081    0.000008780648    0.020645404748    0.029064056023
            0.023093205976    0.031435541177    0.000009426032    0.000008780687    0.040345573843    0.027550078183    0.000011801410    0.000006486490
            0.000006770146    0.000008761904    0.020645332429    0.029064102487    0.000011801387    0.000006486516    0.036574570922    0.025484859673
0.125     0.051055183312    0.027152861923    0.000009534812    0.000009786777    0.033413870211    0.033523911044    0.000010553935    0.000008675692
            0.000009534833    0.000009786743    0.046745017648    0.025883576509    0.000013555931    0.000008237258    0.030181329306    0.031520213663
            0.033413869867    0.033523914210    0.000013555892    0.000008237300    0.051010708580    0.027130949389    0.000015122443    0.000005884913
            0.000010553913    0.000008675719    0.030181267676    0.031520267137    0.000015122433    0.000005884935    0.046570982748    0.025652814266
0.150     0.061741307768    0.023410775074    0.000013808583    0.000008294062    0.044159099804    0.032515527898    0.000014276493    0.000007387368
            0.000013808597    0.000008294025    0.057156504276    0.023175457945    0.000017421184    0.000006310635    0.040392154957    0.031309573425
            0.044159099474    0.032515530032    0.000017421150    0.000006310687    0.061729483635    0.023399686858    0.000018411584    0.000004258331
            0.000014276476    0.000007387398    0.040392104556    0.031309630285    0.000018411579    0.000004258355    0.056964765638    0.022946196862
0.175     0.071472168955    0.016335910922    0.000017408982    0.000005513922    0.054491270787    0.028368231329    0.000017619318    0.000005022493
            0.000017408989    0.000005513884    0.067145042243    0.017450444407    0.000020649169    0.000003229318    0.050605985696    0.028315957942
            0.054491270684    0.028368233693    0.000020649147    0.000003229370    0.071510928703    0.016333720212    0.000021412867    0.000001642971
            0.000017619304    0.000005022529    0.050605941796    0.028316026160    0.000021412868    0.000001642996    0.066952731046    0.017237244210
0.200     0.079338616993    0.006222805056    0.000020098807    0.000001770428    0.063597060017    0.021246159147    0.000020354074    0.000001747777
            0.000020098804    0.000001770396    0.075941613735    0.008840410170    0.000023010812    -0.000000734131    0.060150980722    0.022580246552
            0.063597061543    0.021246160891    0.000023010797    -0.000000734071    0.079446706270    0.006219823351    0.000023892508    -0.000001847190
            0.000020354069    0.000001747810    0.060150945153    0.022580324231    0.000023892513    -0.000001847166    0.075770837888    0.008651096033
0.225     0.084537948045    -0.006420447310    0.000021725294    -0.000002591164    0.070722601410    0.011500926387    0.000022302855    -0.000002236508
            0.000021725285    -0.000002591208    0.082835981961    -0.002352072546    0.000024357078    -0.000005288590    0.068379737672    0.014289242291
            0.070722603063    0.011500928683    0.000024357075    -0.000005288530    0.084733483587    -0.006441452827    0.000025666616    -0.000006082470
            0.000022302855    -0.000002236475    0.068379714360    0.014289319626    0.000025666627    -0.000006082449    0.082712438723    -0.002517297979
0.250     0.086424296544    -0.020896467485    0.000022252989    -0.000007281908    0.075217748795    -0.000347174724    0.000023352154    -0.000006731220
            0.000022252975    -0.000007281935    0.087216289397    -0.015662609224    0.000024633599    -0.000010171498    0.074705001266    0.003766931205
            0.075217750801    -0.000347173433    0.000024633606    -0.000010171435    0.086722546441    -0.020959813118    0.000026581477    -0.000010891684
            0.000023352160    -0.000006731188    0.074704988490    0.003767005853    0.000026581490    -0.000010891666    0.087167429606    -0.015811176346
0.275     0.084523264588    -0.036367819168    0.000021697245    -0.000012025208    0.076560617961    -0.013633088145    0.000023427784    -0.000011527082
            0.000021697225    -0.000012025237    0.088580174806    -0.030502621758    0.000023834148    -0.000015131737    0.078616650298    -0.008540590965
            0.076560620881    -0.013633083150    0.000023834161    -0.000015131685    0.084934649413    -0.036504322019    0.000026522723    -0.000016100456
            0.000023427795    -0.000011527052    0.078616648470    -0.008540505940    0.000026522742    -0.000016100438    0.088633250809    -0.030650388775
0.300     0.078574352915    -0.051895915908    0.000020121070    -0.000016609762    0.074393627994    -0.027579984544    0.000022493732    -0.000016426798
            0.000020121044    -0.000016609791    0.086573041407    -0.046181696240    0.000021996068    -0.000019961093    0.079712569348    -0.022085901114
            0.074393630351    -0.027579983941    0.000021996098    -0.000019961001    0.079101849712    -0.052142963159    0.000025405534    -0.000021506876
            0.000022493749    -0.000016426771    0.079712580912    -0.022085806944    0.000025405557    -0.000021506874    0.086752338823    -0.046353181562
0.325     0.068533746233    -0.066485783546    0.000017615028    -0.000020840918    0.068538733608    -0.041328055425    0.000020546549    -0.000021230351
            0.000017615000    -0.000020840935    0.080989066553    -0.061939375755    0.000019184571    -0.000024466198    0.077708835686    -0.036238375055
            0.068538736042    -0.041328055261    0.000019184595    -0.000024466157    0.069170964272    -0.066884913303    0.000023179869    -0.000026908629
            0.000020546569    -0.000021230323    0.077708860399    -0.036238284204    0.000023179888    -0.000026908633    0.081313773954    -0.062167502628
0.350     0.054598774059    -0.079141096326    0.000014281747    -0.000024571337    0.059022847518    -0.053982073939    0.000017610078    -0.000025747122
            0.000014281711    -0.000024571353    0.071797056154    -0.076982539479    0.000015481995    -0.000028485760    0.072462876849    -0.050316022207
            0.059022849936    -0.053982074259    0.000015482002    -0.000028485768    0.055327417782    -0.079736280174    0.000019831101    -0.000032083258
            0.000017610106    -0.000025747095    0.072462913933    -0.050315935488    0.000019831169    -0.000032083185    0.072278829375    -0.077307295881
0.375     0.037197937897    -0.088908270278    0.000010244241    -0.000027669857    0.046082983368    -0.064645946144    0.000013741974    -0.000029790524
            0.000010244225    -0.000027669844    0.059133176525    -0.090513655247    0.000010993546    -0.000031873951    0.063976363904    -0.063605342179
            0.046082986238    -0.064645947782    0.000010993581    -0.000031873921    0.037986650524    -0.089742747358    0.000015382888    -0.000036813196
            0.000013742026    -0.000029790482    0.063976386477    -0.063605302454    0.000015382937    -0.000036813176    0.059773518220    -0.090980874018
0.400     0.016989256292    -0.094941141217    0.000005628736    -0.000030036484    0.030171393419    -0.072484991373    0.000009028786    -0.000033184800
            0.000005628724    -0.000030036467    0.043308272682    -0.101775460946    0.000005838200    -0.000034508737    0.052406225837    -0.075403036616
            0.030171395453    -0.072484992693    0.000005838267    -0.000034508817    0.017791990046    -0.096053787344    0.000009904959    -0.000040874997
            0.000009028862    -0.000033184743    0.052406286012    -0.075402963130    0.000009905042    -0.000040874949    0.044096763685    -0.102434735494
0.425     -0.005166181061    -0.096544537415    0.000000587525    -0.000031596275    0.011943457134    -0.076765090262    0.000003597806    -0.000035774086
            0.000000587474    -0.000031596280    0.024793406147    -0.110077171185    0.000000168876    -0.000036296217    0.038058588455    -0.085036034121
            0.011943501150    -0.076765073293    0.000000168919    -0.000036296199    -0.004410856192    -0.097966516813    0.000003516664    -0.000044068250
            0.000003597808    -0.000035774094    0.038058659312    -0.085035969541    0.000003516675    -0.000044068271    0.025704582566    -0.110979916518
0.450     -0.028240449038    -0.093236567133    -0.000004691706    -0.000032292162    -0.007768838997    -0.076917895497    -0.000002370077    -0.000037419921
            -0.000004691714    -0.000032292137    0.004206268890    -0.114838953168    -0.000005796665    -0.000037152317    0.021382374228    -0.091907412297
            -0.007768837855    -0.076917897622    -0.000005796580    -0.000037152293    -0.027611179466    -0.094986446130    -0.000003579789    -0.000046201856
            -0.000002369990    -0.000037419893    0.021382452917    -0.091907358055    -0.000003579783    -0.000046201878    0.005196543266    -0.116035567145
0.475     -0.051088154541    -0.084781711676    -0.000009998195    -0.000031988606    -0.027997202152    -0.072574886935    -0.000008653644    -0.000037942062
            -0.000009998241    -0.000031988596    -0.017713699133    -0.115613086501    -0.000011822721    -0.000036846552    0.002949447063    -0.095515376434
            -0.027997202152    -0.072574886935    -0.000011822630    -0.000036846535    -0.050687105967    -0.086861272776    -0.000011137469    -0.000047009324
            -0.000008653647    -0.000037942074    0.002949532546    -0.095515334776    -0.000011137475    -0.000047009349    -0.016714956380    -0.117152922533
0.500     -0.072514853354    -0.071228186388    -0.000015340856    -0.000030623353    -0.047712820560    -0.063613318290    -0.000015171694    -0.000037222257
            -0.000015340844    -0.000030623330    -0.040137414509    -0.112117578514    -0.000018030498    -0.000035294799    -0.016585188489    -0.095497579268
            -0.047712822360    -0.063613320690    -0.000018030506    -0.000035294815    -0.072501948873    -0.073617199330    -0.000019117424    -0.000046325126
            -0.000015171699    -0.000037222268    -0.016585098948    -0.095497548131    -0.000019117425    -0.000046325150    -0.039262245771    -0.114058174454
0.525     -0.091348356147    -0.052908025377    -0.000020551477    -0.000028368231    -0.066028601732    -0.050186384449    -0.000021750842    -0.000035360523
            -0.000020551468    -0.000028368207    -0.062183341365    -0.104245051482    -0.000024238785    -0.000032784414    -0.036632210108    -0.091716790073
            -0.066028595361    -0.050186397788    -0.000024238747    -0.000032784422    -0.092231576574    -0.055624515645    -0.000027348011    -0.000044307356
            -0.000021750758    -0.000035360539    -0.036632110782    -0.091716773750    -0.000027348021    -0.000044307389    -0.061870242190    -0.106821255651
0.550     -0.106524097480    -0.030487454880    -0.000025399612    -0.000025286537    -0.080479655456    -0.033730975932    -0.000027657603    -0.000032499125
            -0.000025399594    -0.000025286519    -0.082948129010    -0.092099661856    -0.000029677294    -0.000029445582    -0.054674937750    -0.084482671581
            -0.080479655456    -0.033730975932    -0.000029677306    -0.000029445584    -0.106023841357    -0.035142941953    -0.000034385535    -0.000041163064
            -0.000027657609    -0.000032499132    -0.054674851604    -0.084482667775    -0.000034385455    -0.000041163099    -0.080454620149    -0.095933314777
0.575     -0.117058903038    -0.004710227344    -0.000029719264    -0.000021391116    -0.092397024942    -0.012179671698    -0.000033472720    -0.000028216485
            -0.000029719290    -0.000021391079    -0.101552787620    -0.075862248568    -0.000034973264    -0.000024837131    -0.073022418412    -0.072321463939
            -0.092397024942    -0.012179671698    -0.000034973231    -0.000024837153    -0.117484846348    -0.008470967230    -0.000041903314    -0.000035943263
            -0.000033472736    -0.000028216488    -0.073022364747    -0.072321461281    -0.000041903347    -0.000035943329    -0.100089842774    -0.079278023815
0.600     -0.122061805791    0.023227244598    -0.000033294911    -0.000016785369    -0.099799132064    0.011288442126    -0.000038445699    -0.000023071621
            -0.000033294882    -0.000016785354    -0.116936677476    -0.055968335257    -0.000039421278    -0.000019507725    -0.088841823243    -0.057126853863
            -0.099799142001    0.011288443250    -0.000039421209    -0.000019507768    -0.123544676036    0.019379011419    -0.000048434141    -0.000029767688
            -0.000038445712    -0.000023071628    -0.088841724483    -0.057126878027    -0.000048434085    -0.000029767747    -0.116226638375    -0.059972292855
0.625     -0.121732028476    0.051371404595    -0.000036117715    -0.000011896607    -0.102598513128    0.035823218764    -0.000042526745    -0.000017278662
            -0.000036117724    -0.000011896575    -0.128603626464    -0.033972636785    -0.000043010119    -0.000013653529    -0.101833139549    -0.039370097667
            -0.102598513128    0.035823218764    -0.000043010137    -0.000013653526    -0.123974123449    0.048200213941    -0.000053924714    -0.000022500432
            -0.000042526720    -0.000017278695    -0.101833046774    -0.039370143518    -0.000053924702    -0.000022500472    -0.128716845221    -0.037801102586
0.650     -0.116166400015    0.079767510072    -0.000038341740    -0.000006489680    -0.100647085611    0.061106674218    -0.000045750479    -0.000010771940
            -0.000038341710    -0.000006489682    -0.136753951254    -0.009576942937    -0.000045799626    -0.000007185560    -0.111822765214    -0.019009658603
            -0.100647085611    0.061106674218    -0.000045799570    -0.000007185625    -0.118707038500    0.076837207611    -0.000058213681    -0.000014313875
            -0.000045750492    -0.000010771934    -0.111822686250    -0.019009705422    -0.000058213709    -0.000014313882    -0.137104924918    -0.013454320508
0.675     -0.104975487853    0.106798624645    -0.000039703727    -0.000000745797    -0.093679957458    0.085827398550    -0.000047898090    -0.000003759946
            -0.000039703695    -0.000000745803    -0.140322231825    0.016277681954    -0.000047591434    -0.000000284892    -0.118009170450    0.003191173151
            -0.093679957458    0.085827398550    -0.000047591423    -0.000000284925    -0.107960248766    0.104086151570    -0.000061183287    -0.000005432985
            -0.000047898075    -0.000003759979    -0.118009131021    0.003191151473    -0.000061183289    -0.000005433017    -0.141049244495    0.012233277521
0.700     -0.088762652388    0.131247893568    -0.000040217944    0.000005155041    -0.082054237897    0.108929597679    -0.000048948219    0.000003542229
            -0.000040217922    0.000005155038    -0.139200818448    0.042536071644    -0.000048371751    0.000006862951    -0.120166007666    0.026397191067
            -0.082054237897    0.108929597679    -0.000048371761    0.000006862952    -0.092202328538    0.128855827700    -0.000062758116    0.000003913240
            -0.000048948240    0.000003542239    -0.120165943351    0.026397110984    -0.000062758150    0.000003913253    -0.140386204909    0.038381118250
0.725     -0.068263727329    0.152179227558    -0.000039915416    0.000011098812    -0.066269687196    0.129528412096    -0.000048912640    0.000010966368
            -0.000039915389    0.000011098797    -0.133448656615    0.068279781857    -0.000048153046    0.000014118239    -0.118201125214    0.049817588056
            -0.066269709803    0.129528400530    -0.000048153026    0.000014118159    -0.072112564240    0.150207397975    -0.000062909117    0.000013505129
            -0.000048912648    0.000010966379    -0.118201068884    0.049817515726    -0.000062909140    0.000013505145    -0.135129898708    0.064099346713
0.750     -0.044350135964    0.168868572262    -0.000038825241    0.000016990251    -0.046970343828    0.146900333769    -0.000047817513    0.000018363927
            -0.000038825234    0.000016990321    -0.123287103218    0.092648130144    -0.000046953104    0.000021356061    -0.112177130095    0.072680446278
            -0.046970343828    0.146900333769    -0.000046953114    0.000021356075    -0.048533171584    0.167400642198    -0.000061637385    0.000023133157
            -0.000047817519    0.000018363939    -0.112177088326    0.072680363621    -0.000061637407    0.000023133178    -0.125474321223    0.088533651094
0.775     -0.017986852976    0.180809369628    -0.000036982898    0.000022759132    -0.024901648650    0.160485767883    -0.000045705257    0.000025614851
            -0.000036982880    0.000022759112    -0.109091481050    0.114854931683    -0.000044802536    0.000028476866    -0.102291532817    0.094252378332
            -0.024901659323    0.160485725748    -0.000044802542    0.000028476880    -0.022410038425    0.179910037496    -0.000058973113    0.000032612758
