# GHz S RI R 45
0.000     0.011864869000    0.000000000000    -0.000025665586    0.000000000000    0.000433169080    -0.000000000000    -0.000024720947    0.000000000000
            -0.000025665491    0.000000000000    0.012426918000    0.000000000000    -0.000003149943    0.000000000000    0.000185461710    0.000000000000
            0.000433165490    -0.000000000000    -0.000003149916    0.000000000000    0.011825220000    0.000000000000    -0.000004358479    0.000000000000
            -0.000024720751    0.000000000000    0.000185437490    0.000000000000    -0.000004358563    0.000000000000    0.012338578000    0.000000000000
0.025     0.016170190998    0.011277526712    -0.000008975826    -0.000012980122    0.002175603718    0.010166959265    -0.000013277521    -0.000020031351
            -0.000008975778    -0.000012980136    0.016363657565    0.012104518377    -0.000004808265    -0.000021134529    0.001502589909    0.011015695328
            0.002175573760    0.010167006581    -0.000004808236    -0.000021134535    0.016107431592    0.011251475063    -0.000007978734    -0.000024299327
            -0.000013277420    -0.000020031366    0.001502442323    0.011015530764    -0.000007978819    -0.000024299314    0.016264730017    0.012039750374
0.050     0.022310472554    0.019064877682    -0.000011665522    -0.000048383769    0.006826944728    0.019233625560    -0.000021253947    -0.000056241120
            -0.000011665463    -0.000048383783    0.021328389333    0.020893960242    -0.000014967424    -0.000042319039    0.005241935045    0.021256617349
            0.006826928275    0.019233635644    -0.000014967394    -0.000042319048    0.022240381527    0.019039414826    -0.000019465404    -0.000047057140
            -0.000021253844    -0.000056241144    0.005241939808    0.021256607935    -0.000019465483    -0.000047057122    0.021183712895    0.020769012645
0.075     0.030528349313    0.024702348853    -0.000033895591    -0.000075062239    0.013992328197    0.026529274752    -0.000046484322    -0.000083533958
            -0.000033895549    -0.000075062251    0.027560086985    0.028074136590    -0.000032067778    -0.000059033290    0.011004556697    0.030170068052
            0.013992318000    0.026529276739    -0.000032067746    -0.000059033304    0.030459279127    0.024677525682    -0.000038206575    -0.000065235634
            -0.000046484228    -0.000083533993    0.011004536896    0.030170071016    -0.000038206641    -0.000065235616    0.027337912374    0.027916304533
0.100     0.040406982059    0.027570295584    -0.000064064227    -0.000091820904    0.023093207578    0.031435538759    -0.000079776435    -0.000100504120
            -0.000064064227    -0.000091820904    0.034815975367    0.033342971399    -0.000053862101    -0.000070053570    0.018333611501    0.037343888224
            0.023093205976    0.031435541177    -0.000053862103    -0.000070053572    0.040345573843    0.027550078183    -0.000062059167    -0.000077435162
            -0.000079776353    -0.000100504160    0.018333586256    0.037343892820    -0.000062059250    -0.000077435127    0.034500239354    0.033187687681
0.125     0.051055183312    0.027152861923    -0.000098107968    -0.000098409969    0.033413870211    0.033523911044    -0.000117165321    -0.000106580283
            -0.000098107919    -0.000098409989    0.042484494920    0.036492871172    -0.000078458146    -0.000074717398    0.026695709665    0.042537187192
            0.033413869867    0.033523914210    -0.000078458100    -0.000074717433    0.051010708580    0.027130949389    -0.000089127123    -0.000082830469
            -0.000117165198    -0.000106580358    0.026695681334    0.042537193166    -0.000089127202    -0.000082830428    0.042081592208    0.036382631381
0.150     0.061741307768    0.023410775074    -0.000133200729    -0.000095291027    0.044159099804    0.032515527898    -0.000155598366    -0.000102159736
            -0.000133200663    -0.000095291085    0.050047197561    0.037624042985    -0.000104152319    -0.000072957203    0.035518866018    0.045600092287
            0.044159099474    0.032515530032    -0.000104152319    -0.000072957203    0.061729483635    0.023399686858    -0.000117602266    -0.000081255363
            -0.000155598226    -0.000102159839    0.035518838566    0.045600099727    -0.000117602333    -0.000081255318    0.049564996363    0.037588703553
0.175     0.071472168955    0.016335910922    -0.000166875616    -0.000083340402    0.054491270787    0.028368231329    -0.000192436884    -0.000088105906
            -0.000166875584    -0.000083340423    0.056942640364    0.036910694985    -0.000129433585    -0.000065088518    0.044221982931    0.046577850284
            0.054491270684    0.028368233693    -0.000129433574    -0.000065088541    0.071510928703    0.016333720212    -0.000145869311    -0.000072940698
            -0.000192436792    -0.000088105986    0.044221964416    0.046577856831    -0.000145869376    -0.000072940635    0.056402802943    0.036980963182
0.200     0.079338616993    0.006222805056    -0.000197563578    -0.000063782206    0.063597060017    0.021246159147    -0.000225948667    -0.000065728110
            -0.000197563506    -0.000063782297    0.062671912461    0.034694270907    -0.000153200502    -0.000051704101    0.052275562979    0.045671177217
            0.063597061543    0.021246160891    -0.000153200446    -0.000051704172    0.079446706270    0.006219823351    -0.000172696878    -0.000058438342
            -0.000225948544    -0.000065728246    0.052275536449    0.045671187823    -0.000172696937    -0.000058438261    0.062107763471    0.034894168968
0.225     0.084537948045    -0.006420447310    -0.000224041454    -0.000037971568    0.070722601410    0.011500926387    -0.000254785539    -0.000036464266
            -0.000224041418    -0.000037971602    0.066866065696    0.031443683770    -0.000174606591    -0.000033492346    0.059232460495    0.043209481189
            0.070722603063    0.011500928683    -0.000174606569    -0.000033492405    0.084733483587    -0.006441452827    -0.000197110185    -0.000038406387
            -0.000254785477    -0.000036464347    0.059232434102    0.043209493615    -0.000197110244    -0.000038406291    0.066319427461    0.031785546272
0.250     0.086424296544    -0.020896467485    -0.000245768460    -0.000007126804    0.075217748795    -0.000347174724    -0.000278319606    -0.000001641983
            -0.000245768460    -0.000007126804    0.069313775957    0.027726626745    -0.000193146673    -0.000011102877    0.064761375490    0.039628354499
            0.075217750801    -0.000347173433    -0.000193146683    -0.000011102878    0.086722546441    -0.020959813118    -0.000218467677    -0.000013499038
            -0.000278319606    -0.000001641983    0.064761350407    0.039628368667    -0.000218467722    -0.000013498964    0.068830367104    0.028208742204
0.275     0.084523264588    -0.036367819168    -0.000262384887    0.000027651939    0.076560617961    -0.013633088145    -0.000296117103    0.000037538094
            -0.000262384887    0.000027651939    0.069981312959    0.024141450395    -0.000208445947    0.000014907511    0.068663300849    0.035431496894
            0.076560620881    -0.013633083150    -0.000208445947    0.000014907511    0.084934649413    -0.036504322019    -0.000236259441    0.000015709233
            -0.000296117103    0.000037538094    0.068663284541    0.035431506689    -0.000236259458    0.000015709276    0.069606698558    0.024747665115
0.300     0.078574352915    -0.051895915908    -0.000273831457    0.000065616176    0.074393627994    -0.027579984544    -0.000308069904    0.000080228745
            -0.000273831457    0.000065616176    0.069013489299    0.021282673788    -0.000220249761    0.000044157335    0.070891513651    0.031160688459
            0.074393630351    -0.027579983941    -0.000220249761    0.000044157335    0.079101849712    -0.052142963159    -0.000250096500    0.000048789620
            -0.000308069933    0.000080228753    0.070891513651    0.031160688459    -0.000250096529    0.000048789580    0.068788224541    0.021981721188
0.325     0.068533746233    -0.066485783546    -0.000279988134    0.000106172074    0.068538733608    -0.041328055425    -0.000314010470    0.000125734219
            -0.000279988134    0.000106172074    0.066724108644    0.019679567279    -0.000228237001    0.000076373455    0.071551701429    0.027350061411
            0.068538736042    -0.041328055261    -0.000228237001    0.000076373455    0.069170964272    -0.066884913303    -0.000259525263    0.000085401705
            -0.000314010479    0.000125734222    0.071551661867    0.027350092090    -0.000259525263    0.000085401705    0.066679392670    0.020427361188
0.350     0.054598774059    -0.079141096326    -0.000280686857    0.000149006652    0.059022847518    -0.053982073939    -0.000313732670    0.000173642822
            -0.000280686857    0.000149006652    0.063578862329    0.019764432390    -0.000231990632    0.000111392542    0.070907335483    0.024491739375
            0.059022849936    -0.053982074259    -0.000231990632    0.000111392542    0.055327417782    -0.079736280174    -0.000264007875    0.000125286079
            -0.000313732670    0.000173642822    0.070907336428    0.024491739701    -0.000264007875    0.000125286079    0.063732662167    0.020506431721
0.375     0.037197937897    -0.088908270278    -0.000275515933    0.000193795798    0.046082983368    -0.064645946144    -0.000306793476    0.000223519391
            -0.000275515933    0.000193795798    0.060162662036    0.021821541406    -0.000230885667    0.000149004430    0.069358401130    0.022984814696
            0.046082986238    -0.064645947782    -0.000230885667    0.000149004430    0.037986650524    -0.089742747358    -0.000262810758    0.000168113078
            -0.000306793476    0.000223519391    0.069358402080    0.022984815011    -0.000262810758    0.000168113078    0.060516608770    0.022497188387
0.400     0.016989256292    -0.094941141217    -0.000263840274    0.000240216536    0.030171393419    -0.072484991373    -0.000292538938    0.000274921114
            -0.000263840274    0.000240216536    0.057144255605    0.025964920839    -0.000224113764    0.000188886764    0.067424519087    0.023103973057
            0.030171395453    -0.072484992693    -0.000224113764    0.000188886764    0.017791990046    -0.096053787344    -0.000255036657    0.000213412079
            -0.000292538938    0.000274921114    0.067424520033    0.023103973381    -0.000255036657    0.000213412079    0.057681879272    0.026511750617
0.425     -0.005166181061    -0.096544537415    -0.000244804115    0.000287640607    0.011943457134    -0.076765090262    -0.000270106941    0.000327090460
            -0.000244804102    0.000287640592    0.055221152181    0.032104720060    -0.000210698991    0.000230415678    0.065698139567    0.024955084436
            0.011943501150    -0.076765073293    -0.000210698998    0.000230415686    -0.004410856192    -0.097966516813    -0.000239645794    0.000260390378
            -0.000270106941    0.000327090460    0.065698108495    0.024955121180    -0.000239645787    0.000260390371    0.055907560524    0.032464279150
0.450     -0.028240449038    -0.093236567133    -0.000217442165    0.000335110258    -0.007768838997    -0.076917895497    -0.000238550527    0.000378927226
            -0.000217442095    0.000335110279    0.055067399873    0.039947047373    -0.000189623867    0.000272606121    0.064802407934    0.028462477478
            -0.007768837855    -0.076917897622    -0.000189623885    0.000272606146    -0.027611179466    -0.094986446130    -0.000215594326    0.000307875560
            -0.000238550797    0.000378926335    0.064802408849    0.028462477880    -0.000215594332    0.000307875568    0.055851134054    0.040069165650
0.475     -0.051088154541    -0.084781711676    -0.000180868960    0.000381140889    -0.027997202152    -0.072574886935    -0.000197028609    0.000428801784
            -0.000180869160    0.000381140451    0.057263319335    0.048996148805    -0.000159979590    0.000314008919    0.065323235876    0.033353113555
            -0.027997202152    -0.072574886935    -0.000159979585    0.000314008911    -0.050687105967    -0.086861272776    -0.000181985676    0.000354224130
            -0.000197028609    0.000428801784    0.065323235876    0.033353113555    -0.000181985676    0.000354224130    0.058081389424    0.048841370060
0.500     -0.072514853354    -0.071228186388    -0.000134493092    0.000423796549    -0.047712820560    -0.063613318290    -0.000145021866    0.000474630749
            -0.000134493092    0.000423796549    0.062236351102    0.058598814527    -0.000121159963    0.000352816197    0.067754047510    0.039184774334
            -0.047712822360    -0.063613320690    -0.000121159963    0.000352816197    -0.072501948873    -0.073617199330    -0.000138258444    0.000397434412
            -0.000145021869    0.000474630759    0.067754052843    0.039184771106    -0.000138258514    0.000397434388    0.063026093194    0.058129725674
0.525     -0.091348356147    -0.052908025377    -0.000078308178    0.000460783545    -0.066028601732    -0.050186384449    -0.000082582903    0.000513941611
            -0.000078308178    0.000460783545    0.070134398489    0.068060270384    -0.000072962381    0.000387482012    0.072395804144    0.045416369550
            -0.066028595361    -0.050186397788    -0.000072962381    0.000387482012    -0.092231576574    -0.055624515645    -0.000084242032    0.000435800578
            -0.000082583172    0.000513941224    0.072395782113    0.045416410314    -0.000084242034    0.000435800588    0.070920258275    0.067161325701
0.550     -0.106524097480    -0.030487454880    -0.000013183157    0.000488614737    -0.080479655456    -0.033730975932    -0.000010724037    0.000543804829
            -0.000013183121    0.000488614698    0.080940543364    0.075304801606    -0.000021519741    0.000411521667    0.079351692858    0.050665410022
            -0.080479655456    -0.033730975932    -0.000021519736    0.000411521708    -0.106023841357    -0.035142941953    -0.000026820987    0.000462926064
            -0.000010724037    0.000543804829    0.079351692858    0.050665410022    -0.000026820987    0.000462926064    0.081711708810    0.075116003939
0.575     -0.117058903038    -0.004710227344    0.000060304330    0.000506340420    -0.092397024942    -0.012179671698    0.000069531543    0.000561904334
            0.000060304338    0.000506340409    0.095032748858    0.081823485757    0.000044272841    0.000427756139    0.089021391835    0.055497134267
            -0.092397024942    -0.012179671698    0.000044272483    0.000427755815    -0.117484846348    -0.008470967230    0.000046016539    0.000480728432
            0.000069531543    0.000561904334    0.089021377075    0.055497176846    0.000046016539    0.000480728432    0.095285464584    0.081107659350
0.600     -0.122061805791    0.023227244598    0.000138725343    0.000510422296    -0.099799132064    0.011288442126    0.000154992998    0.000565392587
            0.000138725343    0.000510422296    0.111086446352    0.085335606947    0.000112612158    0.000432809373    0.100608228919    0.058330929561
            -0.099799142001    0.011288443250    0.000112612170    0.000432809359    -0.123544676036    0.019379011419    0.000121653608    0.000486415206
            0.000154992988    0.000565392590    0.100608232991    0.058330922537    0.000121653597    0.000486415198    0.111132612841    0.084344547547
0.625     -0.121732028476    0.051371404595    0.000218473785    0.000500977653    -0.102598513128    0.035823218764    0.000241400898    0.000554499601
            0.000218473798    0.000500977659    0.128720029887    0.085496881403    0.000182765926    0.000425058805    0.113616428616    0.058776504545
            -0.102598513128    0.035823218764    0.000182765934    0.000425058802    -0.123974123449    0.048200213941    0.000199041917    0.000478222472
            0.000241400516    0.000554499385    0.113616428616    0.058776504545    0.000199041903    0.000478222510    0.128225579365    0.084316621539
0.650     -0.116166400015    0.079767510072    0.000298593179    0.000477013993    -0.100647085611    0.061106674218    0.000328173927    0.000528349171
            0.000298593084    0.000477013970    0.147141827494    0.081912460875    0.000252132764    0.000404082789    0.127728475762    0.056550101721
            -0.100647085611    0.061106674218    0.000252132764    0.000404082789    -0.118707038500    0.076837207611    0.000275650742    0.000455820212
            0.000328173929    0.000528349193    0.127728475762    0.056550101721    0.000275650733    0.000455820252    0.146221422766    0.080905351872
0.675     -0.104975487853    0.106798624645    0.000374724511    0.000438072473    -0.093679957458    0.085827398550    0.000410653014    0.000486285674
            0.000374724511    0.000438072473    0.165447478511    0.074430371438    0.000317701481    0.000370250645    0.142210341382    0.051236780420
            -0.093679957458    0.085827398550    0.000317701488    0.000370250640    -0.107960248766    0.104086151570    0.000348236411    0.000419481341
            0.000410653022    0.000486285667    0.142210341382    0.051236780420    0.000348236404    0.000419481347    0.164204804791    0.073650301242
0.700     -0.088762652388    0.131247893568    0.000443678661    0.000385625792    -0.082054237897    0.108929597679    0.000485477617    0.000429924780
            0.000443678562    0.000385625814    0.182754644932    0.063115009396    0.000376802833    0.000324767255    0.156315708266    0.042783273276
            -0.082054237897    0.108929597679    0.000376802825    0.000324767249    -0.092202328538    0.128855827700    0.000413941578    0.000370509582
            0.000485477587    0.000429924769    0.156315703101    0.042783254267    0.000413941578    0.000370509582    0.181247563523    0.062624194718
0.725     -0.068263727329    0.152179227558    0.000502879952    0.000321633269    -0.066269687196    0.129528412096    0.000549990307    0.000361345474
            0.000502879935    0.000321633258    0.198226036244    0.048235817642    0.000427220045    0.000269410225    0.169336255737    0.031297873337
            -0.066269709803    0.129528400530    0.000427220062    0.000269410235    -0.072112564240    0.150207397975    0.000470420934    0.000310792455
            0.000549989836    0.000361345426    0.169336248090    0.031297914713    0.000470420932    0.000310792477    0.196525029589    0.048093476805
0.750     -0.044350135964    0.168868572262    0.000550398507    0.000248502451    -0.046970343828    0.146900333769    0.000602204935    0.000283072731
            0.000550398503    0.000248502461    0.211130699273    0.030236439386    0.000467351624    0.000206357873    0.180633967695    0.017037692016
            -0.046970343828    0.146900333769    0.000467351619    0.000206357861    -0.048533171584    0.167400642198    0.000515972061    0.000242630543
            0.000602204926    0.000283072727    0.180633949740    0.017037775884    0.000515972052    0.000242630539    0.209319310150    0.030487702924
0.775     -0.017986852976    0.180809369628    0.000584975005    0.000168892727    -0.024901648650    0.160485767883    0.000640838001    0.000197874578
            0.000584975014    0.000168892730    0.220863166221    0.009702078505    0.000496207723    0.000137975233    0.189644354412    0.000382425577
            -0.024901659323    0.160485725748    0.000496207711    0.000137975239    -0.022410038425    0.179910037496    0.000549535033    0.000168507267
            0.000640838010    0.000197874581    0.189644344430    0.000382416851    0.000549535033    0.000168507267    0.219035569677    0.010371682194
