# GHz S RI R 45
0.000     0.011864869000    0.000000000000    0.987735190000    -0.000000000000    0.000433169080    -0.000000000000    -0.000604153500    0.000000000000
            0.987735190000    -0.000000000000    0.011685204000    0.000000000000    -0.000605461170    0.000000000000    0.000229740280    0.000000000000
            0.000433165490    -0.000000000000    -0.000605434570    0.000000000000    0.011825220000    0.000000000000    0.987759760000    -0.000000000000
            -0.000604125880    0.000000000000    0.000229738640    0.000000000000    0.987759760000    -0.000000000000    0.011637443000    0.000000000000
0.025     0.016170190998    0.011277526712    0.977514079410    -0.123869370260    0.002175603718    0.010166959265    -0.001038468594    -0.002501162483
            0.977514079410    -0.123869370260    0.015335298202    0.011411650621    -0.001035340588    -0.002497935023    0.001520088946    0.010301308759
            0.002175573760    0.010167006581    -0.001035304661    -0.002498002414    0.016107431592    0.011251475063    0.977618130933    -0.123518714453
            -0.001038533755    -0.002501247928    0.001519965617    0.010301143997    0.977618130933    -0.123518714453    0.015250562699    0.011390926186
0.050     0.022310472554    0.019064877682    0.952919139434    -0.243074040429    0.006826944728    0.019233625560    -0.002332988693    -0.004729407588
            0.952919139434    -0.243074040429    0.019659469188    0.019749701672    -0.002326991249    -0.004727141946    0.004688245681    0.019819505568
            0.006826928275    0.019233635644    -0.002326962593    -0.004727156609    0.022240381527    0.019039414826    0.953156941890    -0.242420448952
            -0.002332960776    -0.004729423812    0.004688274855    0.019819494557    0.953156941890    -0.242420448952    0.019541933773    0.019735318415
0.075     0.030528349313    0.024702348853    0.914115810607    -0.357838545203    0.013992328197    0.026529274752    -0.004294882665    -0.006403156478
            0.914115810607    -0.357838545203    0.025000282564    0.026832978021    -0.004286797350    -0.006401513438    0.009518859873    0.028356992977
            0.013992318000    0.026529276739    -0.004286768263    -0.006401523168    0.030459279127    0.024677525682    0.914555247399    -0.356909425496
            -0.004294854851    -0.006403165742    0.009518864469    0.028356993544    0.914555247399    -0.356909425496    0.024841356809    0.026838497561
0.100     0.040406982059    0.027570295584    0.861646453267    -0.466437861094    0.023093207578    0.031435538759    -0.006691812627    -0.007415414865
            0.861646453267    -0.466437861094    0.031263910893    0.032435595460    -0.006680763248    -0.007414355853    0.015732046245    0.035594295685
            0.023093205976    0.031435541177    -0.006680735158    -0.007414368915    0.040345573843    0.027550078183    0.862354553236    -0.465276201494
            -0.006691786137    -0.007415429746    0.015732044164    0.035594297698    0.862354553236    -0.465276201494    0.031057663775    0.032480477819
0.125     0.051055183312    0.027152861923    0.796351640979    -0.567284940707    0.033413870211    0.033523911044    -0.009303459231    -0.007737902040
            0.796351640979    -0.567284940707    0.038009850068    0.036373451015    -0.009285753653    -0.007753623163    0.022970596723    0.041330373112
            0.033413869867    0.033523914210    -0.009285729152    -0.007753638464    0.051010708580    0.027130949389    0.797389177270    -0.565947252062
            -0.009303436875    -0.007737916409    0.022970595045    0.041330375189    0.797389177270    -0.565947252062    0.037766554957    0.036483854695
0.150     0.061741307768    0.023410775074    0.719552054472    -0.658850385320    0.044159099804    0.032515527898    -0.011948929401    -0.007374008178
            0.719552054472    -0.658850385320    0.044888612765    0.038713265985    -0.011929049058    -0.007407731460    0.030830911028    0.045401187083
            0.044159099474    0.032515530032    -0.011929025048    -0.007407751169    0.061729483635    0.023399686858    0.720966842576    -0.657404024636
            -0.011948904596    -0.007374027426    0.030830910005    0.045401188987    0.720966842576    -0.657404024636    0.044613143825    0.038904122366
0.175     0.071472168955    0.016335910922    0.632605425658    -0.739959445494    0.054491270787    0.028368231329    -0.014461913648    -0.006389674191
            0.632605425658    -0.739959445494    0.051487447136    0.039538482719    -0.014443286949    -0.006442409745    0.038891213222    0.047786776745
            0.054491270684    0.028368233693    -0.014443265870    -0.006442427544    0.071510928703    0.016333720212    0.634433028644    -0.738479485314
            -0.014461891520    -0.006389694582    0.038891220953    0.047786774320    0.634433028644    -0.738479485314    0.051194515151    0.039828426208
0.200     0.079338616993    0.006222805056    0.536921565723    -0.809636605614    0.063597060017    0.021246159147    -0.016725394024    -0.004890096499
            0.536921565723    -0.809636605614    0.057419810449    0.039058137629    -0.016711195796    -0.004963291958    0.046751859005    0.048578553098
            0.063597061543    0.021246160891    -0.016711175537    -0.004963314507    0.079446706270    0.006219823351    0.539186892777    -0.808204367956
            -0.016725374718    -0.004890116204    0.046751858157    0.048578553914    0.539186892777    -0.808204367956    0.057132419595    0.039462879839
0.225     0.084537948045    -0.006420447310    0.433951381228    -0.867064080551    0.070722601410    0.011500926387    -0.018674802246    -0.002992616072
            0.433951381228    -0.867064080551    0.062386814782    0.037576309358    -0.018668770294    -0.003088405583    0.054061839571    0.047959803733
            0.070722603063    0.011500928683    -0.018668753156    -0.003088429527    0.084733483587    -0.006441452827    0.436662677153    -0.865765271374
            -0.018674785231    -0.002992640090    0.054061838734    0.047959804677    0.436662677153    -0.865765271374    0.062134337578    0.038104778465
0.250     0.086424296544    -0.020896467485    0.325185396987    -0.911582152828    0.075217748795    -0.000347174724    -0.020297889885    -0.000805542880
            0.325185396987    -0.911582152828    0.066193896814    0.035478707142    -0.020305000779    -0.000926423361    0.060539196969    0.046195047476
            0.075217750801    -0.000347173433    -0.020304990980    -0.000926440670    0.086722546441    -0.020959813118    0.328337885577    -0.910503237091
            -0.020297880189    -0.000805560237    0.060539196162    0.046195048533    0.328337885577    -0.910503237091    0.066009352043    0.036131226116
0.275     0.084523264588    -0.036367819168    0.212149807049    -0.942671650467    0.076560617961    -0.013633088145    -0.021618870301    0.001591414546
            0.212149807049    -0.942671650467    0.068770992801    0.033178020416    -0.021646175179    0.001442936105    0.065985736636    0.043602772533
            0.076560620881    -0.013633083150    -0.021646165462    0.001442916483    0.084934649413    -0.036504322019    0.215729279082    -0.941901512778
            -0.021618859280    0.001591387179    0.065985739827    0.043602771333    0.215729279082    -0.941901512778    0.068688341675    0.033945546552
0.300     0.078574352915    -0.051895915908    0.096410341767    -0.959964797249    0.074393627994    -0.027579984544    -0.022683545454    0.004159146039
            0.096410341767    -0.959964797249    0.070170554923    0.031094651917    -0.022740584690    0.003981273116    0.070299854743    0.040539320242
            0.074393630351    -0.027579983941    -0.022740576749    0.003981243092    0.079101849712    -0.052142963159    0.100382556736    -0.959588757924
            -0.022683536039    0.004159119760    0.070299854743    0.040539320242    0.100382556736    -0.959588757924    0.070222282204    0.031957984885
0.325     0.068533746233    -0.066485783546    -0.020430775374    -0.963232349446    0.068538733608    -0.041328055425    -0.023534742031    0.006902006917
            -0.020430775374    -0.963232349446    0.070563104718    0.029608889652    -0.023633701321    0.006694640677    0.073478301217    0.037366704868
            0.068538736042    -0.041328055261    -0.023633694862    0.006694612112    0.069170964272    -0.066884913303    -0.016110209637    -0.963335330948
            -0.023534736539    0.006901983003    0.073478299674    0.037366705697    -0.016110209637    -0.963335330948    0.070776768757    0.030539485960
0.350     0.054598774059    -0.079141096326    -0.136739427394    -0.952413022066    0.059022847518    -0.053982073939    -0.024194043957    0.009863905702
            -0.136739427394    -0.952413022066    0.070224843637    0.029044964870    -0.024350393719    0.009629358415    0.075622284275    0.034435507606
            0.059022849936    -0.053982074259    -0.024350393003    0.009629338473    0.055327417782    -0.079736280174    -0.132132154974    -0.953073195077
            -0.024194040788    0.009863889637    0.075622283674    0.034435508926    -0.132132154974    -0.953073195077    0.070621026097    0.030006408606
0.375     0.037197937897    -0.088908270278    -0.250849883082    -0.927608937580    0.046082983368    -0.064645946144    -0.024641114870    0.013112882116
            -0.250849883082    -0.927608937580    0.069515792004    0.029633093135    -0.024874112388    0.012856943225    0.076923879368    0.032049019827
            0.046082986238    -0.064645947782    -0.024874112059    0.012856915549    0.037986650524    -0.089742747358    -0.246029076825    -0.928898534560
            -0.024641114837    0.013112854506    0.076923877522    0.032049019058    -0.246029076825    -0.928898534560    0.070105687878    0.030582616630
0.400     0.016989256292    -0.094941141217    -0.361083338537    -0.889117268964    0.030171393419    -0.072484991373    -0.024805051261    0.016722407538
            -0.361083338537    -0.889117268964    0.068859241771    0.031499986130    -0.025139229146    0.016455306974    0.077661726069    0.030448159189
            0.030171395453    -0.072484992693    -0.025139231069    0.016455289429    0.017791990046    -0.096053787344    -0.356137689375    -0.891098677956
            -0.024805054245    0.016722378065    0.077661724607    0.030448160179    -0.356137689375    -0.891098677956    0.069642795987    0.032391412281
0.425     -0.005166181061    -0.096544537415    -0.465762092468    -0.837441734725    0.011943457134    -0.076765090262    -0.024559529029    0.020744993378
            -0.465762092468    -0.837441734725    0.068706809695    0.034643803252    -0.025028347532    0.020482729725    0.078172963027    0.029779626373
            0.011943501150    -0.076765073293    -0.025028353799    0.020482698384    -0.004410856192    -0.097966516813    -0.460794022122    -0.840164507766
            -0.024559534345    0.020744968489    0.078172961573    0.029779627381    -0.460794026931    -0.840164516534    0.069672262681    0.035430366778
0.450     -0.028240449038    -0.093236567133    -0.563249167146    -0.773310578372    -0.007768838997    -0.076917895497    -0.023733171943    0.025189178626
            -0.563249167146    -0.773310578372    0.069509941934    0.038936147741    -0.024389863581    0.024956047429    0.078835469856    0.030088964795
            -0.007768837855    -0.076917897622    -0.024389871218    0.024956020389    -0.027611179466    -0.094986446130    -0.558371356085    -0.776807890619
            -0.023733180613    0.025189152595    0.078835467463    0.030088965458    -0.558371356085    -0.776807890619    0.070634064191    0.039573117506
0.475     -0.051088154541    -0.084781711676    -0.651978619684    -0.697682772272    -0.027997202152    -0.072574886935    -0.022125989339    0.029997006066
            -0.651978619684    -0.697682772272    0.071677292840    0.044116774951    -0.023077154740    0.029832051821    0.080027445409    0.031302568290
            -0.027997202152    -0.072574886935    -0.023077154740    0.029832051821    -0.050687105967    -0.086861272776    -0.647313156766    -0.701972147409
            -0.022125989339    0.029997006066    0.080027445409    0.031302568290    -0.647313156766    -0.701972147409    0.072927789022    0.044563488322
0.500     -0.072514853354    -0.071228186388    -0.730510255886    -0.611754748342    -0.047712820560    -0.063613318290    -0.019538428563    0.035035288759
            -0.730510255886    -0.611754748342    0.075539964627    0.049818761326    -0.021085469007    0.035009833715    0.082099332786    0.033240773857
            -0.047712822360    -0.063613320690    -0.021085475118    0.035009830035    -0.072501948873    -0.073617199330    -0.726180252764    -0.616824646346
            -0.019538478562    0.035035205916    0.082099328265    0.033240777029    -0.726180252764    -0.616824646346    0.076883838337    0.050033231536
0.525     -0.091348356147    -0.052908025377    -0.797579925012    -0.516920395985    -0.066028601732    -0.050186384449    -0.015805244934    0.040101372580
            -0.797579925012    -0.516920395985    0.081258670458    0.055625198121    -0.019584469285    0.040162189268    0.085299558158    0.035647535260
            -0.066028595361    -0.050186397788    -0.019584494690    0.040162152403    -0.092231576574    -0.055624515645    -0.793696148626    -0.522703055018
            -0.015805270762    0.040101335528    0.085299554446    0.035647538956    -0.793696148626    -0.522703055018    0.082727955165    0.055520175993
0.550     -0.106524097480    -0.030487454880    -0.852158744386    -0.415029054109    -0.080479655456    -0.033730975932    -0.010804783701    0.044876887601
            -0.852158744386    -0.415029054109    0.089053915634    0.060179551087    -0.008277901786    0.038026337999    0.089884213865    0.037642582198
            -0.080479655456    -0.033730975932    -0.008277901573    0.038026337022    -0.106023841357    -0.035142941953    -0.849152501015    -0.421588541707
            -0.010804783467    0.044876886629    0.089884213865    0.037642582198    -0.849152501015    -0.421588541707    0.090517732453    0.060503591832
0.575     -0.117058903038    -0.004710227344    -0.893269600794    -0.307396907982    -0.092397024942    -0.012179671698    -0.004374152354    0.049291757370
            -0.893269600794    -0.307396907982    0.099036883949    0.064546074736    -0.003229066712    0.046760651657    0.096090187400    0.039791040890
            -0.092397024942    -0.012179671698    -0.003229066712    0.046760651657    -0.117484846348    -0.008470967230    -0.890872359759    -0.314630399311
            -0.004374152354    0.049291757370    0.096090187400    0.039791040890    -0.890872359759    -0.314630399311    0.100288680968    0.064401196062
0.600     -0.122061805791    0.023227244598    -0.920613335161    -0.196207940414    -0.099799132064    0.011288442126    0.004303135229    0.052772768051
            -0.920613335161    -0.196207940414    0.110605021606    0.067063665207    0.003624033813    0.050315446015    0.103618838816    0.040926044215
            -0.099799142001    0.011288443250    0.003623957420    0.050315390359    -0.123544676036    0.019379011419    -0.919036695970    -0.203946136070
            0.004303135229    0.052772768051    0.103618835958    0.040926051449    -0.919036695970    -0.203946136070    0.111820851964    0.066638681521
0.625     -0.121732028476    0.051371404595    -0.934047015697    -0.083188120100    -0.102598513128    0.035823218764    0.013317041862    0.052275418899
            -0.934047015697    -0.083188120100    0.123575028499    0.067447824423    0.011728174525    0.052091437004    0.112242923714    0.040750799157
            -0.102598513128    0.035823218764    0.011728132039    0.052091413769    -0.123974123449    0.048200213941    -0.933339909422    -0.091376958856
            0.013317041862    0.052275418899    0.112242923003    0.040750801116    -0.933339909422    -0.091376958856    0.124511484332    0.066745481306
0.650     -0.116166400015    0.079767510072    -0.933404017124    0.029839909007    -0.100647085611    0.061106674218    0.021358777512    0.051717990560
            -0.933404017124    0.029839909007    0.137489954331    0.065314839646    0.020579387160    0.052097776801    0.121859925938    0.039045940239
            -0.100647085611    0.061106674218    0.020579386250    0.052097777160    -0.118707038500    0.076837207611    -0.933722317335    0.021307334579
            0.021358777512    0.051717990560    0.121859925938    0.039045940239    -0.933722317335    0.021307334579    0.138165854196    0.064582009037
0.675     -0.104975487853    0.106798624645    -0.919109753312    0.140997857575    -0.093679957458    0.085827398550    0.030151371133    0.049750237932
            -0.919109753312    0.140997857575    0.151771093430    0.060414114440    0.029695261229    0.050191561356    0.132083395374    0.035403178024
            -0.093679957458    0.085827398550    0.029695171639    0.050191531865    -0.107960248766    0.104086151570    -0.920518560638    0.132284369993
            0.030151371652    0.049750238787    0.132083403180    0.035403187529    -0.920518570536    0.132284371416    0.152233881841    0.059692825046
0.700     -0.088762652388    0.131247893568    -0.891762792510    0.248677812104    -0.082054237897    0.108929597679    0.038873609169    0.045868085018
            -0.891762792510    0.248677812104    0.165808887494    0.052633853016    0.038584768946    0.046333299288    0.142453482430    0.029647613877
            -0.082054237897    0.108929597679    0.038584768946    0.046333299288    -0.092202328538    0.128855827700    -0.894296672975    0.239934079761
            0.038873609169    0.045868085018    0.142453482430    0.029647613877    -0.894296672975    0.239934079761    0.166073160773    0.051970362085
0.725     -0.068263727329    0.152179227558    -0.852128755237    0.351401873640    -0.066269687196    0.129528412096    0.046930929455    0.040120977365
            -0.852128755237    0.351401873640    0.178973968609    0.042008937917    0.046762046214    0.040601358781    0.152492115937    0.021710508687
            -0.066269709803    0.129528400530    0.046761999050    0.040601353615    -0.072112564240    0.150207397975    -0.855802219697    0.342783771729
            0.046930929514    0.040120978834    0.152492115369    0.021710512679    -0.855802219697    0.342783771729    0.179063366998    0.041452585355
0.750     -0.044350135964    0.168868572262    -0.801115969471    0.447875205048    -0.046970343828    0.146900333769    0.053847289729    0.032714088151
            -0.801115969471    0.447875205048    0.190668280371    0.028713433361    0.053780533335    0.033198110676    0.161730599412    0.011632018937
            -0.046970343828    0.146900333769    0.053780441196    0.033198109541    -0.048533171584    0.167400642198    -0.805923045734    0.439531978497
            0.053847290584    0.032714088670    0.161730598843    0.011632026841    -0.805923045734    0.439531978497    0.190618168028    0.028309952800
0.775     -0.017986852976    0.180809369628    -0.739736862139    0.536970898225    -0.024901648650    0.160485767883    0.059237008735    0.023962811146
            -0.739736862139    0.536970898225    0.200344795898    0.013051699352    0.059261557641    0.024436271595    0.169713611834    -0.000446810949
            -0.024901659323    0.160485725748    0.059261553588    0.024436273554    -0.022410038425    0.179910037496    -0.745652368133    0.529049926268
            0.059237005208    0.023962814531    0.169713611834    -0.000446810742    -0.745652368133    0.529049926268    0.200201926632    0.012837306567
