# GHz S RI R 45
0.000     0.011864869000    0.000000000000    -0.000000035503    -0.000000000000    0.000433169080    -0.000000000000    -0.000002411685    0.000000000000
            -0.000000035495    -0.000000000000    0.010936298000    0.000000000000    -0.000002342649    0.000000000000    0.000435742980    -0.000000000000
            0.000433165490    -0.000000000000    -0.000002342640    0.000000000000    0.011825220000    0.000000000000    0.000000205911    -0.000000000000
            -0.000002411670    0.000000000000    0.000435745050    -0.000000000000    0.000000205902    -0.000000000000    0.010865843000    0.000000000000
0.025     0.016170190998    0.011277526712    -0.000001256300    -0.000002709039    0.002175603718    0.010166959265    -0.000000539050    -0.000001258910
            -0.000001256291    -0.000002709041    0.014517874013    0.009394178048    -0.000001653811    -0.000002181701    0.001730080467    0.008252547893
            0.002175573760    0.010167006581    -0.000001653812    -0.000002181701    0.016107431592    0.011251475063    -0.000001318391    -0.000003896982
            -0.000000539040    -0.000001258912    0.001730055732    0.008252593437    -0.000001318405    -0.000003896980    0.014446094437    0.009330345671
0.050     0.022310472554    0.019064877682    -0.000002970568    -0.000004345597    0.006826944728    0.019233625560    -0.000001427832    -0.000004753120
            -0.000002970556    -0.000004345602    0.019544677470    0.015932079531    -0.000003095365    -0.000005468589    0.005329820246    0.015782169775
            0.006826928275    0.019233635644    -0.000003095363    -0.000005468590    0.022240381527    0.019039414826    -0.000003790364    -0.000006452139
            -0.000001427828    -0.000004753121    0.005329808811    0.015782176804    -0.000003790378    -0.000006452134    0.019457600955    0.015817747047
0.075     0.030528349313    0.024702348853    -0.000005228202    -0.000005407719    0.013992328197    0.026529274752    -0.000004288257    -0.000007038687
            -0.000005228200    -0.000005407721    0.026298405936    0.020846176533    -0.000006285217    -0.000007570940    0.010971217342    0.022036320939
            0.013992318000    0.026529276739    -0.000006285212    -0.000007570943    0.030459279127    0.024677525682    -0.000007094081    -0.000008145229
            -0.000004288250    -0.000007038691    0.010971211328    0.022036319465    -0.000007094086    -0.000008145226    0.026190642010    0.020688455386
0.100     0.040406982059    0.027570295584    -0.000007942916    -0.000005671222    0.023093207578    0.031435538759    -0.000008008730    -0.000007911919
            -0.000007942914    -0.000005671225    0.034533627467    0.023666189932    -0.000010302205    -0.000008253339    0.018256908129    0.026559633194
            0.023093205976    0.031435541177    -0.000010302207    -0.000008253338    0.040345573843    0.027550078183    -0.000011095572    -0.000008640121
            -0.000008008721    -0.000007911925    0.018256909056    0.026559632557    -0.000011095583    -0.000008640111    0.034403461232    0.023477380900
0.125     0.051055183312    0.027152861923    -0.000010863524    -0.000004984055    0.033413870211    0.033523911044    -0.000012005896    -0.000007324588
            -0.000010863517    -0.000004984063    0.043629625754    0.023930838504    -0.000014605935    -0.000007395506    0.026711204494    0.029016905835
            0.033413869867    0.033523914210    -0.000014605934    -0.000007395505    0.051010708580    0.027130949389    -0.000015390962    -0.000007746728
            -0.000012005888    -0.000007324598    0.026711205507    0.029016904903    -0.000015390969    -0.000007746722    0.043474891577    0.023723898455
0.150     0.061741307768    0.023410775074    -0.000013692961    -0.000003310832    0.044159099804    0.032515527898    -0.000015826660    -0.000005329129
            -0.000013692961    -0.000003310834    0.053104461247    0.021605355897    -0.000018712519    -0.000005035916    0.035802822596    0.029139208860
            0.044159099474    0.032515530032    -0.000018712519    -0.000005035913    0.061729483635    0.023399686858    -0.000019555886    -0.000005418347
            -0.000015826655    -0.000005329139    0.035802823346    0.029139206354    -0.000019555886    -0.000005418347    0.052939050838    0.021402883525
0.175     0.071472168955    0.016335910922    -0.000016148790    -0.000000694719    0.054491270787    0.028368231329    -0.000019070035    -0.000002083332
            -0.000016148788    -0.000000694725    0.062236705760    0.016562030898    -0.000022188891    -0.000001315306    0.044949137545    0.026814424626
            0.054491270684    0.028368233693    -0.000022188889    -0.000001315309    0.071510928703    0.016333720212    -0.000023184850    -0.000001738940
            -0.000019070030    -0.000002083341    0.044949138013    0.026814423842    -0.000023184855    -0.000001738928    0.062079282609    0.016376325216
0.200     0.079338616993    0.006222805056    -0.000017975570    0.000002745098    0.063597060017    0.021246159147    -0.000021427287    0.000002193822
            -0.000017975576    0.000002745099    0.070337934737    0.008902395092    -0.000024693289    0.000003535884    0.053564756800    0.022065484388
            0.063597061543    0.021246160891    -0.000024693291    0.000003535880    0.079446706270    0.006219823351    -0.000025922785    0.000003117245
            -0.000021427288    0.000002193822    0.053564755876    0.022065484007    -0.000025922787    0.000003117259    0.070210939038    0.008739034230
0.225     0.084537948045    -0.006420447310    -0.000018957451    0.000006836145    0.070722601410    0.011500926387    -0.000022659634    0.000007222949
            -0.000018957452    0.000006836138    0.076767459769    -0.001118802301    -0.000025950107    0.000009222013    0.061081891000    0.015041373455
            0.070722603063    0.011500928683    -0.000025950107    0.000009222013    0.084733483587    -0.006441452827    -0.000027475366    0.000008898832
            -0.000022659634    0.000007222936    0.061081890292    0.015041372150    -0.000027475366    0.000008898832    0.076696457508    -0.001261235137
0.250     0.086424296544    -0.020896467485    -0.000018927840    0.000011358858    0.075217748795    -0.000347174724    -0.000022609850    0.000012703809
            -0.000018927840    0.000011358849    0.080967543467    -0.013099510662    -0.000025778225    0.000015413367    0.066980791812    0.006010933436
            0.075217750801    -0.000347173433    -0.000025778227    0.000015413368    0.086722546441    -0.020959813118    -0.000027618984    0.000015300248
            -0.000022609846    0.000012703713    0.066980790879    0.006010932646    -0.000027618981    0.000015300252    0.080979509143    -0.013229790800
0.275     0.084523264588    -0.036367819168    -0.000017772029    0.000016060644    0.076560617961    -0.013633088145    -0.000021190097    0.000018310901
            -0.000017772034    0.000016060643    0.082474329876    -0.026524561139    -0.000024067697    0.000021746833    0.070805784924    -0.004649108115
            0.076560620881    -0.013633083150    -0.000024067698    0.000021746834    0.084934649413    -0.036504322019    -0.000026202012    0.000021974583
            -0.000021190097    0.000018310901    0.070805783845    -0.004649109286    -0.000026202011    0.000021974582    0.082595797126    -0.026659328067
0.300     0.078574352915    -0.051895915908    -0.000015436118    0.000020665142    0.074393627994    -0.027579984544    -0.000018382744    0.000023720280
            -0.000015436121    0.000020665146    0.080951879945    -0.040783085083    -0.000020794191    0.000027858004    0.072191229306    -0.016471103338
            0.074393630351    -0.027579983941    -0.000020794185    0.000027858006    0.079101849712    -0.052142963159    -0.000023153425    0.000028548560
            -0.000018382748    0.000023720277    0.072191227006    -0.016471113418    -0.000023153425    0.000028548560    0.081207150830    -0.040947496126
0.325     0.068533746233    -0.066485783546    -0.000011927756    0.000024882663    0.068538733608    -0.041328055425    -0.000014238590    0.000028604787
            -0.000011927757    0.000024882666    0.076195142351    -0.055198102993    -0.000016008757    0.000033373637    0.070872792546    -0.028912171170
            0.068538736042    -0.041328055261    -0.000016008757    0.000033373637    0.069170964272    -0.066884913303    -0.000018482238    0.000034634362
            -0.000014238590    0.000028604789    0.070872791620    -0.028912170793    -0.000018482238    0.000034634362    0.076604133640    -0.055424970133
0.350     0.054598774059    -0.079141096326    -0.000007323354    0.000028424811    0.059022847518    -0.053982073939    -0.000008874074    0.000032655644
            -0.000007323359    0.000028424811    0.068153573782    -0.069057303177    -0.000009842253    0.000037943117    0.066706475754    -0.041380386955
            0.059022849936    -0.053982074259    -0.000009842252    0.000037943114    0.055327417782    -0.079736280174    -0.000012285313    0.000039847530
            -0.000008874074    0.000032655644    0.066706474904    -0.041380386428    -0.000012285313    0.000039847531    0.068729821789    -0.069386835575
0.375     0.037197937897    -0.088908270278    -0.000001767343    0.000031015999    0.046082983368    -0.064645946144    -0.000002475073    0.000035584236
            -0.000001767346    0.000031016001    0.056925549478    -0.081639458852    -0.000002503930    0.000041236227    0.059673158953    -0.053252262757
            0.046082986238    -0.064645947782    -0.000002503930    0.000041236229    0.037986650524    -0.089742747358    -0.000004745640    0.000043820185
            -0.000002475075    0.000035584237    0.059673158207    -0.053252262092    -0.000004745638    0.000043820185    0.057674489658    -0.082118381223
0.400     0.016989256292    -0.094941141217    0.000004527193    0.000032412920    0.030171393419    -0.072484991373    0.000004710300    0.000037143808
            0.000004527189    0.000032412926    0.042766761167    -0.092252788312    0.000005724460    0.000042973481    0.049888993360    -0.063907880670
            0.030171395453    -0.072484992693    0.000005724455    0.000042973483    0.017791990046    -0.096053787344    0.000003866806    0.000046225097
            0.000004710295    0.000037143809    0.049888992745    -0.063907879882    0.000003866811    0.000046225091    0.043684163444    -0.092932609552
0.425     -0.005166181061    -0.096544537415    0.000011285256    0.000032418751    0.011943457134    -0.076765090262    0.000012372291    0.000037138938
            0.000011285253    0.000032418754    0.026077800967    -0.100258674823    0.000014492340    0.000042931818    0.037601703337    -0.072748673374
            0.011943501150    -0.076765073293    0.000014492339    0.000042931816    -0.004410856192    -0.097966516813    0.000013203265    0.000046791426
            0.000012372291    0.000037138938    0.037601702878    -0.072748672486    0.000013203267    0.000046791426    0.027148859506    -0.101195061135
0.450     -0.028240449038    -0.093236567133    0.000018183180    0.000030905162    -0.007768838997    -0.076917895497    0.000020157641    0.000035446591
            0.000018183182    0.000030905167    0.007394885021    -0.105109430660    0.000023401734    0.000040973138    0.023187604220    -0.079235150440
            -0.007768837855    -0.076917897622    0.000023401738    0.000040973138    -0.027611179466    -0.094986446130    0.000022851276    0.000045332258
            0.000020157553    0.000035446554    0.023187603939    -0.079235149480    0.000022851278    0.000045332254    0.008592802746    -0.106361333486
0.475     -0.051088154541    -0.084781711676    0.000024861642    0.000027835867    -0.027997202152    -0.072574886935    0.000027679612    0.000032037752
            0.000024861632    0.000027835917    -0.012627396073    -0.106367784983    0.000032017228    0.000037066252    0.007141015437    -0.082904328461
            -0.027997202152    -0.072574886935    0.000032017228    0.000037066253    -0.050687105967    -0.086861272776    0.000032353012    0.000041770264
            0.000027679612    0.000032037754    0.007141015351    -0.082904327465    0.000032353014    0.000041770260    -0.011344450850    -0.107997976001
0.500     -0.072514853354    -0.071228186388    0.000030922983    0.000023264744    -0.047712820560    -0.063613318290    0.000034522292    0.000026977114
            0.000030922986    0.000023264753    -0.033234162186    -0.103739178024    0.000039868199    0.000031281062    -0.009940780254    -0.083405111623
            -0.047712822360    -0.063613320690    0.000039868197    0.000031281054    -0.072501948873    -0.073617199330    0.000041209320    0.000036137685
            0.000034522197    0.000026977105    -0.009940780135    -0.083405110630    0.000041209320    0.000036137687    -0.031934525965    -0.105812298016
0.525     -0.091348356147    -0.052908025377    0.000036000969    0.000017325382    -0.066028601732    -0.050186384449    0.000040298506    0.000020407758
            0.000036000973    0.000017325385    -0.053585966320    -0.097109023071    0.000046572014    0.000023777855    -0.027371794715    -0.080523415660
            -0.066028595361    -0.050186397788    0.000046572014    0.000023777855    -0.092231576574    -0.055624515645    0.000049004626    0.000028560536
            0.000040298506    0.000020407760    -0.027371794393    -0.080523414714    0.000049004624    0.000028560535    -0.052389650982    -0.099664093194
0.550     -0.106524097480    -0.030487454880    0.000039795477    0.000010286244    -0.080479655456    -0.033730975932    0.000044674557    0.000012597073
            0.000039795484    0.000010286256    -0.072851420392    -0.086619433251    0.000051393130    0.000015235070    -0.044447503077    -0.074238664261
            -0.080479655456    -0.033730975932    0.000051393130    0.000015235071    -0.106023841357    -0.035142941953    0.000054879518    0.000019713830
            0.000044674469    0.000012597100    -0.044447502563    -0.074238663403    0.000054879518    0.000019713827    -0.071904688208    -0.089580366321
0.575     -0.117058903038    -0.004710227344    0.000042066292    0.000002422496    -0.092397024942    -0.012179671698    0.000047358219    0.000003844763
            0.000042066254    0.000002422517    -0.090372906842    -0.072542273933    0.000054599023    0.000005124807    -0.060544020366    -0.064647506891
            -0.092397024942    -0.012179671698    0.000054599026    0.000005124808    -0.117484846348    -0.008470967230    0.000059097466    0.000008969522
            0.000047358221    0.000003844768    -0.060544018316    -0.064647504702    0.000059097463    0.000008969515    -0.089695669740    -0.075756785035
0.600     -0.122061805791    0.023227244598    0.000042603264    -0.000005882922    -0.099799132064    0.011288442126    0.000048125311    -0.000005410034
            0.000042603269    -0.000005882922    -0.105479329379    -0.055134165977    0.000055758250    -0.000005432553    -0.075021951753    -0.051903061385
            -0.099799142001    0.011288443250    0.000055758250    -0.000005432551    -0.123544676036    0.019379011419    0.000061130715    -0.000002414575
            0.000048125312    -0.000005410033    -0.075021948464    -0.051903059109    0.000061130797    -0.000002414621    -0.105036957314    -0.058561980562
0.625     -0.121732028476    0.051371404595    0.000041478411    -0.000014105620    -0.102598513128    0.035823218764    0.000047063114    -0.000014591200
            0.000041478419    -0.000014105619    -0.117457714678    -0.034871959165    0.000054746019    -0.000016128173    -0.087221727237    -0.036346719012
            -0.102598513128    0.035823218764    0.000054746017    -0.000016128173    -0.123974123449    0.048200213941    0.000060831196    -0.000014123037
            0.000047063080    -0.000014591171    -0.087221727237    -0.036346719012    0.000060831195    -0.000014123038    -0.117284992916    -0.038521561852
0.650     -0.116166400015    0.079767510072    0.000038702486    -0.000022118489    -0.100647085611    0.061106674218    0.000044197784    -0.000023574107
            0.000038702495    -0.000022118488    -0.125752671918    -0.012427974472    0.000051581342    -0.000026494218    -0.096596988085    -0.018482360651
            -0.100647085611    0.061106674218    0.000051581338    -0.000026494216    -0.118707038500    0.076837207611    0.000058180872    -0.000025660985
            0.000044197788    -0.000023574106    -0.096596988085    -0.018482360651    0.000058180872    -0.000025660986    -0.125914158843    -0.016285665274
0.675     -0.104975487853    0.106798624645    0.000034303488    -0.000029441428    -0.093679957458    0.085827398550    0.000039540598    -0.000031847632
            0.000034303490    -0.000029441430    -0.129985644200    0.011430315163    0.000046405990    -0.000036079492    -0.102727326349    0.001091038972
            -0.093679957458    0.085827398550    0.000046405994    -0.000036079494    -0.107960248766    0.104086151570    0.000053285840    -0.000036535565
            0.000039540600    -0.000031847631    -0.102727326349    0.001091038972    0.000053285835    -0.000036535566    -0.130540959137    0.007405590012
0.700     -0.088762652388    0.131247893568    0.000028524117    -0.000035746714    -0.082054237897    0.108929597679    0.000033341271    -0.000039051631
            0.000028524126    -0.000035746718    -0.129954144194    0.035888372945    0.000039453963    -0.000044498175    -0.105337417996    0.021713996445
            -0.082054237897    0.108929597679    0.000039453958    -0.000044498175    -0.092202328538    0.128855827700    0.000046355369    -0.000046310691
            0.000033341274    -0.000039051634    -0.105337417996    0.021713996445    0.000046355369    -0.000046310691    -0.130947808003    0.031756526602
0.725     -0.068263727329    0.152179227558    0.000021638333    -0.000040795805    -0.066269687196    0.129528412096    0.000025885831    -0.000044920187
            0.000021638334    -0.000040795807    -0.125625106329    0.060115884966    0.000031026503    -0.000051437702    -0.104288470656    0.042692123724
            -0.066269709803    0.129528400530    0.000031026503    -0.000051437703    -0.072112564240    0.150207397975    0.000037677298    -0.000054619256
            0.000025885831    -0.000044920187    -0.104288461401    0.042692119935    0.000037677296    -0.000054619256    -0.127084511728    0.055950216685
0.750     -0.044350135964    0.168868572262    0.000013946111    -0.000044427724    -0.046970343828    0.146900333769    0.000017490687    -0.000049268754
            0.000013946111    -0.000044427724    -0.117134089577    0.083307434156    0.000021469544    -0.000056672355    -0.099590311002    0.063332308674
            -0.046970343828    0.146900333769    0.000021469547    -0.000056672361    -0.048533171584    0.167400642198    0.000027597364    -0.000061179980
            0.000017490687    -0.000049268753    -0.099590311002    0.063332308674    0.000027597360    -0.000061179977    -0.119068266715    0.079187632213
0.775     -0.017986852976    0.180809369628    0.000005755205    -0.000046554161    -0.024901648650    0.160485767883    0.000008483071    -0.000051989328
            0.000005755207    -0.000046554165    -0.104769680406    0.104709903032    0.000011148405    -0.000060060073    -0.091383107575    0.082964838157
            -0.024901659323    0.160485725748    0.000011148407    -0.000060060079    -0.022410038425    0.179910037496    0.000016491147    -0.000065796826
