# GHz S RI R 45
0.000     0.011864869000    0.000000000000    0.000000275692    -0.000000000000    0.000433169080    -0.000000000000    -0.000000407112    0.000000000000
            0.000000275750    -0.000000000000    0.011403914000    0.000000000000    -0.000001685345    0.000000000000    0.000429976460    -0.000000000000
            0.000433165490    -0.000000000000    -0.000001685380    0.000000000000    0.011825220000    0.000000000000    0.000000154685    -0.000000000000
            -0.000000407266    0.000000000000    0.000429945350    -0.000000000000    0.000000154350    -0.000000000000    0.011378349000    0.000000000000
0.025     0.016170190998    0.011277526712    -0.000002029680    0.000011674887    0.002175603718    0.010166959265    0.000002013644    0.000016754509
            -0.000002029541    0.000011674863    0.015560036988    0.010739160663    0.000001478373    0.000018067385    0.002041534095    0.009732853786
            0.002175573760    0.010167006581    0.000001478407    0.000018067384    0.016107431592    0.011251475063    0.000004405884    0.000021536563
            0.000002013561    0.000016754522    0.002041475198    0.009732905273    0.000004405842    0.000021536570    0.015489352114    0.010691978597
0.050     0.022310472554    0.019064877682    0.000004395724    0.000026754161    0.006826944728    0.019233625560    0.000011425831    0.000032397205
            0.000004395835    0.000026754118    0.021392308901    0.018178162866    0.000011061641    0.000034187754    0.006435752083    0.018496692273
            0.006826928275    0.019233635644    0.000011061686    0.000034187741    0.022240381527    0.019039414826    0.000016193607    0.000040500053
            0.000011425749    0.000032397234    0.006435708184    0.018496708606    0.000016193564    0.000040500074    0.021310367804    0.018110719382
0.075     0.030528349313    0.024702348853    0.000016830884    0.000038119836    0.013992328197    0.026529274752    0.000026567051    0.000044142501
            0.000016830985    0.000038119775    0.029232657564    0.023649003185    0.000025940369    0.000046635793    0.013259669936    0.025629810213
            0.013992318000    0.026529276739    0.000025940405    0.000046635775    0.030459279127    0.024677525682    0.000034585606    0.000054994036
            0.000026566975    0.000044142546    0.013259636326    0.025629821972    0.000034585569    0.000054994067    0.029145057923    0.023563836322
0.100     0.040406982059    0.027570295584    0.000033192180    0.000044699046    0.023093207578    0.031435538759    0.000045955402    0.000050586819
            0.000033192269    0.000044698969    0.038735346806    0.026559149013    0.000044969679    0.000054016908    0.021988200872    0.030553615670
            0.023093205976    0.031435541177    0.000044969719    0.000054016878    0.040345573843    0.027550078183    0.000058127919    0.000063322467
            0.000045955329    0.000050586877    0.021988178957    0.030553630209    0.000058127900    0.000063322499    0.038647262074    0.026462716051
0.125     0.051055183312    0.027152861923    0.000051805831    0.000045809899    0.033413870211    0.033523911044    0.000067916261    0.000050744772
            0.000051805906    0.000045809805    0.049097270910    0.026383842866    0.000066590596    0.000055331509    0.031979246769    0.032855289366
            0.033413869867    0.033523914210    0.000066590627    0.000055331480    0.051010708580    0.027130949389    0.000084981869    0.000064201857
            0.000067916199    0.000050744842    0.031979224281    0.032855309859    0.000084981856    0.000064201891    0.049011758554    0.026280803909
0.150     0.061741307768    0.023410775074    0.000071127209    0.000041068761    0.044159099804    0.032515527898    0.000090666006    0.000044116659
            0.000071127268    0.000041068653    0.059665574170    0.023078950174    0.000089099044    0.000050028844    0.042516781376    0.032247192362
            0.044159099474    0.032515530032    0.000089099070    0.000050028818    0.061729483635    0.023399686858    0.000113062461    0.000056940246
            0.000090666004    0.000044116662    0.042516764821    0.032247212535    0.000113062465    0.000056940283    0.059600952763    0.022986241258
0.175     0.071472168955    0.016335910922    0.000089555103    0.000030498853    0.054491270787    0.028368231329    0.000112383354    0.000030658427
            0.000089555143    0.000030498740    0.069527973516    0.016579390174    0.000110722574    0.000038012476    0.052837402824    0.028649967000
            0.054491270684    0.028368233693    0.000110722599    0.000038012433    0.071510928703    0.016333720212    0.000140224873    0.000041357002
            0.000112383329    0.000030658480    0.052837388565    0.028649989101    0.000140224886    0.000041357030    0.069505442829    0.016499842890
0.200     0.079338616993    0.006222805056    0.000105619117    0.000014431519    0.063597060017    0.021246159147    0.000131352205    0.000010733852
            0.000105619132    0.000014431408    0.077837461392    0.007099654103    0.000129763614    0.000019585559    0.062189971214    0.022167890190
            0.063597061543    0.021246160891    0.000129763613    0.000019585561    0.079446706270    0.006219823351    0.000164387669    0.000017773147
            0.000131352204    0.000010733856    0.062189960431    0.022167914483    0.000164387657    0.000017773266    0.077880058587    0.007028048506
0.225     0.084537948045    -0.006420447310    0.000117958272    -0.000006441663    0.070722601410    0.011500926387    0.000145986708    -0.000014910091
            0.000117958266    -0.000006441773    0.083829803895    -0.004951186540    0.000144639637    -0.000004556833    0.069865590970    0.013074114069
            0.070722603063    0.011500928683    0.000144639654    -0.000004556924    0.084733483587    -0.006441452827    0.000183598688    -0.000013036401
            0.000145986707    -0.000014909994    0.069865581632    0.013074147660    0.000183598703    -0.000013036328    0.083961380988    -0.005027760320
0.250     0.086424296544    -0.020896467485    0.000125425752    -0.000031190542    0.075217748795    -0.000347174724    0.000154929899    -0.000045220514
            0.000125425735    -0.000031190649    0.086868907346    -0.018985838362    0.000153974793    -0.000033405688    0.075238151290    0.001796281681
            0.075217750801    -0.000347173433    0.000153974794    -0.000033405682    0.086722546441    -0.020959813118    0.000196134305    -0.000049898748
            0.000154929907    -0.000045220416    0.075238147435    0.001796317458    0.000196134330    -0.000049898732    0.087112514012    -0.019088275635
0.275     0.084523264588    -0.036367819168    0.000127096859    -0.000058625323    0.076560617961    -0.013633088145    0.000157068058    -0.000078863281
            0.000127096823    -0.000058625425    0.086460816070    -0.034283000712    0.000156634511    -0.000065658574    0.077785003926    -0.011102822437
            0.076560620881    -0.013633083150    0.000156634504    -0.000065658616    0.084934649413    -0.036504322019    0.000200543043    -0.000091287953
            0.000157068081    -0.000078863190    0.077785003729    -0.011102809664    0.000200543091    -0.000091287895    0.086835875307    -0.034440106255
0.300     0.078574352915    -0.051895915908    0.000122320047    -0.000087404237    0.074393627994    -0.027579984544    0.000151587810    -0.000114301755
            0.000122319994    -0.000087404328    0.082293049041    -0.050017958722    0.000151774497    -0.000099797762    0.077120957378    -0.024952438770
            0.074393630351    -0.027579983941    0.000151774497    -0.000099797762    0.079101849712    -0.052142963159    0.000195712522    -0.000135393741
            0.000151587844    -0.000114301660    0.077120953652    -0.024952440539    0.000195712583    -0.000135393652    0.082813721137    -0.050266910567
0.325     0.068533746233    -0.066485783546    0.000110738384    -0.000116029180    0.068538733608    -0.041328055425    0.000137997870    -0.000149818357
            0.000110738314    -0.000116029261    0.074238027859    -0.065301468672    0.000138880617    -0.000134117486    0.073010745654    -0.038997574436
            0.068538736042    -0.041328055261    0.000138880601    -0.000134117532    0.069170964272    -0.066884913303    0.000180907019    -0.000180164246
            0.000137997909    -0.000149818321    0.073010742327    -0.038997574297    0.000180907063    -0.000180164259    0.074910634566    -0.065686199449
0.350     0.054598774059    -0.079141096326    0.000092315204    -0.000142944542    0.059022847518    -0.053982073939    0.000116171629    -0.000183597842
            0.000092315122    -0.000142944607    0.062377628576    -0.079225935433    0.000117796695    -0.000166803196    0.065393625465    -0.052438045585
            0.059022849936    -0.053982074259    0.000117796695    -0.000166803196    0.055327417782    -0.079736280174    0.000155825207    -0.000223389431
            0.000116171690    -0.000183597768    0.065393622209    -0.052438044850    0.000155825246    -0.000223389452    0.063198275643    -0.079795925387
0.375     0.037197937897    -0.088908270278    0.000067363381    -0.000166557087    0.046082983368    -0.064645946144    0.000086372373    -0.000213764043
            0.000067363295    -0.000166557143    0.046995049644    -0.090900981033    0.000088768536    -0.000195979733    0.054387381330    -0.064455967859
            0.046082986238    -0.064645947782    0.000088768507    -0.000195979768    0.037986650524    -0.089742747358    0.000120637021    -0.000262760829
            0.000086372444    -0.000213763982    0.054387410880    -0.064455929841    0.000120637052    -0.000262760859    0.047948134994    -0.091709332957
0.400     0.016989256292    -0.094941141217    0.000036549178    -0.000185339326    0.030171393419    -0.072484991373    0.000049281872    -0.000238485386
            0.000036549086    -0.000185339355    0.028578151693    -0.099508151986    0.000052456370    -0.000219808420    0.040297907640    -0.074266867802
            0.030171395453    -0.072484992693    0.000052456299    -0.000219808478    0.017791990046    -0.096053787344    0.000076020048    -0.000295983508
            0.000049281954    -0.000238485339    0.040297904913    -0.074266865869    0.000076020073    -0.000295983543    0.029635150400    -0.100609444310
0.425     -0.005166181061    -0.096544537415    0.000000912471    -0.000197888556    0.011943457134    -0.076765090262    0.000006012740    -0.000256048722
            0.000000912378    -0.000197888577    0.007800181217    -0.104335533381    0.000009955706    -0.000236568926    0.023611248891    -0.081149271267
            0.011943501150    -0.076765073293    0.000009955706    -0.000236568926    -0.004410856192    -0.097966516813    0.000023180236    -0.000320876535
            0.000006012829    -0.000256048680    0.023611246637    -0.081149268798    0.000023180250    -0.000320876574    0.008918794964    -0.105783726868
0.450     -0.028240449038    -0.093236567133    -0.000038169055    -0.000203038747    -0.007768838997    -0.076917895497    -0.000041911220    -0.000264981709
            -0.000038169243    -0.000203038773    -0.014502141992    -0.104830255996    -0.000037225799    -0.000244777963    0.004980166684    -0.084500224859
            -0.007768837855    -0.076917897622    -0.000037225795    -0.000244777964    -0.027611179466    -0.094986446130    -0.000036165900    -0.000335510241
            -0.000041911127    -0.000264981694    0.004980253172    -0.084500185702    -0.000036165888    -0.000335510293    -0.013379190180    -0.106677191033
0.475     -0.051088154541    -0.084781711676    -0.000079011329    -0.000199935230    -0.027997202152    -0.072574886935    -0.000092595287    -0.000264155214
            -0.000079011441    -0.000199935207    -0.037361498898    -0.100626611380    -0.000087213468    -0.000243283920    -0.014797926985    -0.083862529556
            -0.027997202152    -0.072574886935    -0.000087213474    -0.000243283939    -0.050687105967    -0.086861272776    -0.000099843748    -0.000338339342
            -0.000092595294    -0.000264155233    -0.014797926289    -0.083862525617    -0.000099843753    -0.000338339361    -0.036308957154    -0.102921020600
0.500     -0.072514853354    -0.071228186388    -0.000119721857    -0.000188142556    -0.047712820560    -0.063613318290    -0.000143875654    -0.000252894785
            -0.000119721934    -0.000188142531    -0.059718000957    -0.091588847887    -0.000137881313    -0.000231399968    -0.034817529142    -0.078974307210
            -0.047712822360    -0.063613320690    -0.000137881302    -0.000231399951    -0.072501948873    -0.073617199330    -0.000165355677    -0.000328337201
            -0.000143875668    -0.000252894811    -0.034817529142    -0.078974307210    -0.000165355713    -0.000328337272    -0.058840058871    -0.094371021447
0.525     -0.091348356147    -0.052908025377    -0.000158274097    -0.000167741347    -0.066028601732    -0.050186384449    -0.000193428975    -0.000231062311
            -0.000158274083    -0.000167741332    -0.080463022486    -0.077854200578    -0.000187168982    -0.000209126787    -0.054102327197    -0.069798469699
            -0.066028595361    -0.050186397788    -0.000187168969    -0.000209126772    -0.092231576574    -0.055624515645    -0.000230303780    -0.000305246730
            -0.000193429022    -0.000231062285    -0.054102231366    -0.069798471861    -0.000230303817    -0.000305246778    -0.079912841792    -0.081118099643
0.550     -0.106524097480    -0.030487454880    -0.000192736895    -0.000139499071    -0.080479655456    -0.033730975932    -0.000238890562    -0.000199165130
            -0.000192736886    -0.000139499065    -0.098583505687    -0.059895249458    -0.000229854431    -0.000178277438    -0.071715724498    -0.056569715420
            -0.080479655456    -0.033730975932    -0.000229854439    -0.000178277444    -0.106023841357    -0.035142941953    -0.000288044054    -0.000270643633
            -0.000238890593    -0.000199165156    -0.071715731231    -0.056569700426    -0.000288044091    -0.000270643667    -0.098507270533    -0.063495138405
0.575     -0.117058903038    -0.004710227344    -0.000221510374    -0.000104217493    -0.092397024942    -0.012179671698    -0.000278082274    -0.000157926885
            -0.000221510374    -0.000104217493    -0.113326326282    -0.038320666665    -0.000269020939    -0.000136112327    -0.086863838956    -0.039677091758
            -0.092397024942    -0.012179671698    -0.000269020921    -0.000136112317    -0.117484846348    -0.008470967230    -0.000342430850    -0.000221034688
            -0.000278082291    -0.000157926895    -0.086863840424    -0.039677074105    -0.000342430892    -0.000221034715    -0.113702206742    -0.042060648384
0.600     -0.122061805791    0.023227244598    -0.000242927138    -0.000063240248    -0.099799132064    0.011288442126    -0.000308725120    -0.000108952265
            -0.000242927118    -0.000063240243    -0.123960936353    -0.013758759154    -0.000300050613    -0.000087355084    -0.098790272381    -0.019618811095
            -0.099799142001    0.011288443250    -0.000300051389    -0.000087354458    -0.123544676036    0.019379011419    -0.000387158640    -0.000162203869
            -0.000308725158    -0.000108952278    -0.098790183641    -0.019618847238    -0.000387158742    -0.000162203912    -0.124732058091    -0.017583674371
0.625     -0.121732028476    0.051371404595    -0.000256345612    -0.000019258346    -0.102598513128    0.035823218764    -0.000329958752    -0.000055533054
            -0.000256345565    -0.000019258297    -0.129825417133    0.012886216952    -0.000321713991    -0.000032854158    -0.106821289553    0.002869360331
            -0.102598513128    0.035823218764    -0.000321714011    -0.000032854160    -0.123974123449    0.048200213941    -0.000420723288    -0.000095084646
            -0.000329958792    -0.000055533060    -0.106821211084    0.002869302252    -0.000420723356    -0.000095084661    -0.131021236642    0.008996598456
0.650     -0.116166400015    0.079767510072    -0.000261743248    0.000027330437    -0.100647085611    0.061106674218    -0.000341745797    0.000002088646
            -0.000261743277    0.000027330440    -0.130549154603    0.040539487913    -0.000333068610    0.000025362419    -0.110511869266    0.026898595921
            -0.100647085611    0.061106674218    -0.000333069120    0.000025363101    -0.118707038500    0.076837207611    -0.000441746889    -0.000021986825
            -0.000341745848    0.000002088587    -0.110511864571    0.026898615209    -0.000441746999    -0.000021986831    -0.132220668343    0.036637942947
0.675     -0.104975487853    0.106798624645    -0.000258229088    0.000074341081    -0.093679957458    0.085827398550    -0.000342637063    0.000061389949
            -0.000258229069    0.000074341076    -0.126038905835    0.068093754483    -0.000333759720    0.000085095441    -0.109636390564    0.051523836616
            -0.093679957458    0.085827398550    -0.000333759720    0.000085095441    -0.107960248766    0.104086151570    -0.000449448052    0.000054479609
            -0.000342636832    0.000061389538    -0.109636354305    0.051523796215    -0.000449448071    0.000054479612    -0.128219118908    0.064258694059
0.700     -0.088762652388    0.131247893568    -0.000246283036    0.000119883622    -0.082054237897    0.108929597679    -0.000332915689    0.000120048781
            -0.000246283036    0.000119883622    -0.116454908672    0.094479261355    -0.000323929422    0.000144266977    -0.104193031749    0.075803296690
            -0.082054237897    0.108929597679    -0.000323929422    0.000144266977    -0.092202328538    0.128855827700    -0.000443627887    0.000131746028
            -0.000332915736    0.000120048798    -0.104193031749    0.075803296690    -0.000443627912    0.000131746119    -0.119150480474    0.090801243459
0.725     -0.068263727329    0.152179227558    -0.000226647596    0.000162475883    -0.066269687196    0.129528412096    -0.000313209013    0.000176174863
            -0.000226647580    0.000162475872    -0.102177905597    0.118708303885    -0.000304120408    0.000201002589    -0.094373311240    0.098837019272
            -0.066269709803    0.129528400530    -0.000304120390    0.000201002653    -0.072112564240    0.150207397975    -0.000424592976    0.000207387701
            -0.000313209043    0.000176174952    -0.094373311240    0.098837019272    -0.000424593003    0.000207387806    -0.105369532116    0.115281777762
0.750     -0.044350135964    0.168868572262    -0.000200263932    0.000200939656    -0.046970343828    0.146900333769    -0.000284413813    0.000228181433
            -0.000200263861    0.000200939586    -0.083778780362    0.139925332734    -0.000275183621    0.000253699961    -0.080549010792    0.119816624360
            -0.046970343828    0.146900333769    -0.000275183658    0.000253699995    -0.048533171584    0.167400642198    -0.000393066506    0.000279225814
            -0.000284413782    0.000228181408    -0.080548987070    0.119816543910    -0.000393066514    0.000279225820    -0.087423659829    0.136840228767
0.775     -0.017986852976    0.180809369628    -0.000168180446    0.000234407504    -0.024901648650    0.160485767883    -0.000247609150    0.000274803793
            -0.000168180434    0.000234407488    -0.061974662819    0.157431674912    -0.000238166216    0.000301064601    -0.063230237703    0.138043730373
            -0.024901659323    0.160485725748    -0.000238166222    0.000301064609    -0.022410038425    0.179910037496    -0.000350075961    0.000345384162
