# GHz S RI R 45
0.000     0.011864869000    0.000000000000    0.000001465310    -0.000000000000    0.000433169080    -0.000000000000    -0.000003147296    0.000000000000
            0.000001465205    -0.000000000000    0.012515103000    0.000000000000    -0.000003287699    0.000000000000    0.000502898860    0.000000000000
            0.000433165490    -0.000000000000    -0.000003287741    0.000000000000    0.011825220000    0.000000000000    0.000028370610    -0.000000000000
            -0.000003147316    0.000000000000    0.000503009860    0.000000000000    0.000028370721    -0.000000000000    0.012530422000    0.000000000000
0.025     0.016170190998    0.011277526712    0.000001543530    -0.000006313044    0.002175603718    0.010166959265    -0.000000009979    -0.000006144285
            0.000001543422    -0.000006313029    0.016101572013    0.010803805850    0.000001703346    -0.000003218471    0.001677390668    0.009767933524
            0.002175573760    0.010167006581    0.000001703313    -0.000003218484    0.016107431592    0.011251475063    -0.000011562061    -0.000031772817
            -0.000000010007    -0.000006144286    0.001677383341    0.009767763105    -0.000011561959    -0.000031772828    0.016019057262    0.010759463691
0.050     0.022310472554    0.019064877682    -0.000001473701    -0.000013148577    0.006826944728    0.019233625560    -0.000002478939    -0.000016266210
            -0.000001473806    -0.000013148552    0.020384443621    0.018590496962    0.000000310870    -0.000011990484    0.004848979245    0.018866090215
            0.006826928275    0.019233635644    0.000000310845    -0.000011990482    0.022240381527    0.019039414826    -0.000028601358    -0.000022653808
            -0.000002478967    -0.000016266209    0.004849120118    0.018866067430    -0.000028601251    -0.000022653836    0.020260626046    0.018518085725
0.075     0.030528349313    0.024702348853    -0.000006633737    -0.000018590991    0.013992328197    0.026529274752    -0.000009218265    -0.000024257458
            -0.000006633834    -0.000018590954    0.025721624579    0.025075079085    -0.000004932539    -0.000018681281    0.009762938204    0.026888882773
            0.013992318000    0.026529276739    -0.000004932563    -0.000018681280    0.030459279127    0.024677525682    -0.000034179881    -0.000017264879
            -0.000009218288    -0.000024257456    0.009763053864    0.026888866311    -0.000034179779    -0.000017264917    0.025536966457    0.024995254198
0.100     0.040406982059    0.027570295584    -0.000013290918    -0.000022273170    0.023093207578    0.031435538759    -0.000018256567    -0.000029630971
            -0.000013291011    -0.000022273122    0.031972918999    0.029985992087    -0.000012107519    -0.000023056526    0.016060502939    0.033481403436
            0.023093205976    0.031435541177    -0.000012107543    -0.000023056524    0.040345573843    0.027550078183    -0.000037870606    -0.000014083403
            -0.000018256583    -0.000029630973    0.016060613070    0.033481382772    -0.000037870508    -0.000014083457    0.031716047004    0.029926365835
0.125     0.051055183312    0.027152861923    -0.000020816206    -0.000024032216    0.033413870211    0.033523911044    -0.000028586819    -0.000032224426
            -0.000020816290    -0.000024032160    0.038652586969    0.033091980768    -0.000020250725    -0.000025086721    0.023324055095    0.038424932027
            0.033413869867    0.033523914210    -0.000020250756    -0.000025086714    0.051010708580    0.027130949389    -0.000041419276    -0.000011886105
            -0.000028586845    -0.000032224421    0.023324162755    0.038424905280    -0.000041419186    -0.000011886165    0.038322114298    0.033089016825
0.150     0.061741307768    0.023410775074    -0.000028717526    -0.000023840411    0.044159099804    0.032515527898    -0.000039488329    -0.000032042470
            -0.000028717607    -0.000023840343    0.045347950983    0.034493424780    -0.000028743592    -0.000024855486    0.031089400126    0.041556855224
            0.044159099474    0.032515530032    -0.000028743620    -0.000024855483    0.061729483635    0.023399686858    -0.000045295588    -0.000009782140
            -0.000039488403    -0.000032042427    0.031089511124    0.041556822139    -0.000045295506    -0.000009782205    0.044951066769    0.034576949421
0.175     0.071472168955    0.016335910922    -0.000036537052    -0.000021804506    0.054491270787    0.028368231329    -0.000050290451    -0.000029222712
            -0.000036537118    -0.000021804433    0.051587101778    0.034275225569    -0.000037032574    -0.000022554198    0.038874089567    0.042875493433
            0.054491270684    0.028368233693    -0.000037032590    -0.000022554199    0.071510928703    0.016333720212    -0.000049656218    -0.000007294544
            -0.000050290453    -0.000029222724    0.038874194778    0.042875456084    -0.000049656143    -0.000007294621    0.051145985119    0.034475233038
0.200     0.079338616993    0.006222805056    -0.000043954644    -0.000018084685    0.063597060017    0.021246159147    -0.000060523262    -0.000023991110
            -0.000043954710    -0.000018084595    0.056930715614    0.032675789679    -0.000044765713    -0.000018419870    0.046222746451    0.042507911643
            0.063597061543    0.021246160891    -0.000044765785    -0.000018419809    0.079446706270    0.006219823351    -0.000054376065    -0.000004070309
            -0.000060523333    -0.000023991053    0.046222854477    0.042507868041    -0.000054376002    -0.000004070400    0.056479158315    0.033015530632
0.225     0.084537948045    -0.006420447310    -0.000050716074    -0.000012880223    0.070722601410    0.011500926387    -0.000069782754    -0.000016624018
            -0.000050716125    -0.000012880132    0.061035551119    0.030047917934    -0.000051663091    -0.000012724020    0.052737095842    0.040689287096
            0.070722603063    0.011500928683    -0.000051663157    -0.000012723960    0.084733483587    -0.006441452827    -0.000059354154    0.000000185649
            -0.000069782788    -0.000016624000    0.052737196584    0.040689240013    -0.000059354132    0.000000185597    0.060615768694    0.030539310039
0.250     0.086424296544    -0.020896467485    -0.000056664255    -0.000006363766    0.075217748795    -0.000347174724    -0.000077814016    -0.000007382462
            -0.000056664292    -0.000006363670    0.063674023495    0.026840414747    -0.000057575333    -0.000005693566    0.058100596892    0.037750016512
            0.075217750801    -0.000347173433    -0.000057575342    -0.000005693587    0.086722546441    -0.020959813118    -0.000064334932    0.000005628555
            -0.000077814075    -0.000007382399    0.058100691229    0.037749966761    -0.000064334892    0.000005628461    0.063332079629    0.027481891031
0.275     0.084523264588    -0.036367819168    -0.000061672235    0.000001308831    0.076560617961    -0.013633088145    -0.000084390487    0.000003476044
            -0.000061672262    0.000001308940    0.064759001231    0.023540805938    -0.000062383893    0.000002463872    0.062095780523    0.034085938996
            0.076560620881    -0.013633083150    -0.000062383926    0.000002463906    0.084934649413    -0.036504322019    -0.000069096291    0.000012445396
            -0.000084390501    0.000003476045    0.062095876893    0.034085881889    -0.000069096261    0.000012445291    0.064540527242    0.024316504897
0.300     0.078574352915    -0.051895915908    -0.000065643021    0.000010034921    0.074393627994    -0.027579984544    -0.000089352710    0.000015750405
            -0.000065643037    0.000010035018    0.064343235123    0.020651207820    -0.000066013714    0.000011612464    0.064620515310    0.030138429307
            0.074393630351    -0.027579983941    -0.000066013761    0.000011612543    0.079101849712    -0.052142963159    -0.000073329411    0.000020685786
            -0.000089352725    0.000015750408    0.064620604080    0.030138369094    -0.000073329393    0.000020685684    0.064289424848    0.021531429543
0.325     0.068533746233    -0.066485783546    -0.000068456815    0.000019730702    0.068538733608    -0.041328055425    -0.000092520222    0.000029241690
            -0.000068456817    0.000019730806    0.062618915569    0.018637918359    -0.000068366620    0.000021635266    0.065692703693    0.026359301183
            0.068538736042    -0.041328055261    -0.000068366639    0.000021635259    0.069170964272    -0.066884913303    -0.000076714986    0.000030433629
            -0.000092520248    0.000029241733    0.065692793406    0.026359233350    -0.000076714986    0.000030433520    0.062762203247    0.019580861681
0.350     0.054598774059    -0.079141096326    -0.000069966155    0.000030340234    0.059022847518    -0.053982073939    -0.000093712023    0.000043784984
            -0.000069966145    0.000030340331    0.059905086049    0.017909164084    -0.000069320731    0.000032455976    0.065456915408    0.023186534751
            0.059022849936    -0.053982074259    -0.000069320750    0.000032455970    0.055327417782    -0.079736280174    -0.000078885383    0.000041638218
            -0.000093712032    0.000043784989    0.065457004610    0.023186459629    -0.000078885388    0.000041638116    0.060265979575    0.018863684616
0.375     0.037197937897    -0.088908270278    -0.000069967068    0.000041782165    0.046082983368    -0.064645946144    -0.000092700575    0.000059173213
            -0.000069967047    0.000041782268    0.056628771755    0.018772741865    -0.000068699571    0.000043972250    0.064174089578    0.021004884266
            0.046082986238    -0.064645947782    -0.000068699588    0.000043972346    0.037986650524    -0.089742747358    -0.000079431084    0.000054234180
            -0.000092700602    0.000059173208    0.064174167376    0.021004810526    -0.000079431109    0.000054234074    0.057213277024    0.019681969147
0.400     0.016989256292    -0.094941141217    -0.000068209664    0.000053939104    0.030171393419    -0.072484991373    -0.000089236513    0.000075169653
            -0.000068209626    0.000053939209    0.053301047422    0.021418654167    -0.000066282241    0.000056054829    0.062213712633    0.020121980852
            0.030171395453    -0.072484992693    -0.000066282248    0.000056054934    0.017791990046    -0.096053787344    -0.000077933612    0.000068003263
            -0.000089236542    0.000075169650    0.062213779285    0.020121911253    -0.000077933642    0.000068003169    0.054099412431    0.022224659420
0.425     -0.005166181061    -0.096544537415    -0.000064405440    0.000066599046    0.011943457134    -0.076765090262    -0.000083051753    0.000091431952
            -0.000064405393    0.000066599137    0.050482469997    0.025888734704    -0.000061813656    0.000068481954    0.060026117045    0.020730578911
            0.011943501150    -0.076765073293    -0.000061813658    0.000068482052    -0.004410856192    -0.097966516813    -0.000073956271    0.000082642262
            -0.000083051755    0.000091432018    0.060026179073    0.020730506524    -0.000073956317    0.000082642168    0.051469115200    0.026537045035
0.450     -0.028240449038    -0.093236567133    -0.000058266999    0.000079436908    -0.007768838997    -0.076917895497    -0.000073904863    0.000107514232
            -0.000058266951    0.000079436988    0.048747133481    0.032070405331    -0.000055041280    0.000080928636    0.058116812553    0.022893526652
            -0.007768837855    -0.076917897622    -0.000055041292    0.000080928653    -0.027611179466    -0.094986446130    -0.000067129524    0.000097668185
            -0.000073904846    0.000107514329    0.058116869908    0.022893451992    -0.000067129570    0.000097668105    0.049882782879    0.032515289018
0.475     -0.051088154541    -0.084781711676    -0.000049520032    0.000091970834    -0.027997202152    -0.072574886935    -0.000061588605    0.000122812928
            -0.000049519987    0.000091970904    0.048635997762    0.039685985554    -0.000045726600    0.000092919878    0.057002642718    0.026519532026
            -0.027997202152    -0.072574886935    -0.000045726609    0.000092919896    -0.050687105967    -0.086861272776    -0.000057113804    0.000112455235
            -0.000061588614    0.000122812946    0.057002696567    0.026519454210    -0.000057113864    0.000112455159    0.049871852631    0.039893810339
0.500     -0.072514853354    -0.071228186388    -0.000037973384    0.000103662750    -0.047712820560    -0.063613318290    -0.000045999576    0.000136696576
            -0.000037973325    0.000103662814    0.050615170845    0.048307939202    -0.000033703680    0.000103957825    0.057173422892    0.031366968230
            -0.047712822360    -0.063613320690    -0.000033703686    0.000103957844    -0.072501948873    -0.073617199330    -0.000043706515    0.000126337391
            -0.000045999530    0.000136696676    0.057173472167    0.031366888810    -0.000043706594    0.000126337332    0.051899382172    0.048256043900
0.525     -0.091348356147    -0.052908025377    -0.000023666338    0.000113850968    -0.066028601732    -0.050186384449    -0.000027296242    0.000148423496
            -0.000023666267    0.000113851024    0.055027920847    0.057376046050    -0.000019004938    0.000113562968    0.059036783407    0.037041446962
            -0.066028595361    -0.050186397788    -0.000019004925    0.000113563021    -0.092231576574    -0.055624515645    -0.000026921691    0.000138719440
            -0.000027296206    0.000148423594    0.059036852672    0.037041325279    -0.000026921756    0.000138719386    0.056305305829    0.057040472055
0.550     -0.106524097480    -0.030487454880    -0.000006854847    0.000121811317    -0.080479655456    -0.033730975932    -0.000005882359    0.000157220155
            -0.000006854777    0.000121811361    0.062064690584    0.066242461708    -0.000003193823    0.000120187902    0.062863759746    0.043040101590
            -0.080479655456    -0.033730975932    -0.000003193903    0.000120187980    -0.106023841357    -0.035142941953    -0.000008794250    0.000147678944
            -0.000005882371    0.000157220174    0.062863800926    0.043040020203    -0.000008794324    0.000147678889    0.063241584752    0.065593667311
0.575     -0.117058903038    -0.004710227344    0.000012112038    0.000126780108    -0.092397024942    -0.012179671698    0.000017770917    0.000162290214
            0.000012112114    0.000126780151    0.071735243545    0.074212299341    0.000016230420    0.000124161158    0.068774380932    0.048824981377
            -0.092397024942    -0.012179671698    0.000016230481    0.000124161241    -0.117484846348    -0.008470967230    0.000013991681    0.000153637699
            0.000017770911    0.000162290235    0.068774433054    0.048824861318    0.000013991678    0.000153637729    0.072676005773    0.073285513604
0.600     -0.122061805791    0.023227244598    0.000032485143    0.000128127635    -0.099799132064    0.011288442126    0.000042768127    0.000163008678
            0.000032485222    0.000128127667    0.083860972891    0.080595948474    0.000036389716    0.000124785697    0.076779307947    0.053827387987
            -0.099799142001    0.011288443250    0.000036389791    0.000124785779    -0.123544676036    0.019379011419    0.000037798908    0.000155806593
            0.000042768126    0.000163008699    0.076779333992    0.053827300317    0.000037798904    0.000155806615    0.084483557136    0.079489727222
0.625     -0.121732028476    0.051371404595    0.000053232270    0.000125854050    -0.102598513128    0.035823218764    0.000067886668    0.000159485991
            0.000053232310    0.000125854054    0.098073132757    0.084761083356    0.000056948170    0.000121591611    0.086709323090    0.057454623303
            -0.102598513128    0.035823218764    0.000056948174    0.000121591642    -0.123974123449    0.048200213941    0.000062323731    0.000153587370
            0.000067886671    0.000159486022    0.086709353548    0.057454541128    0.000062323734    0.000153587401    0.098350415688    0.083568519207
0.650     -0.116166400015    0.079767510072    0.000074061379    0.000119658111    -0.100647085611    0.061106674218    0.000092873872    0.000151486168
            0.000074061294    0.000119658058    0.113853549282    0.086184875397    0.000077070816    0.000114471757    0.098231959706    0.059185822492
            -0.100647085611    0.061106674218    0.000077070821    0.000114471777    -0.118707038500    0.076837207611    0.000086621986    0.000146830094
            0.000092873869    0.000151486170    0.098231985961    0.059185740162    0.000086621991    0.000146830114    0.113779714434    0.084991020298
0.675     -0.104975487853    0.106798624645    0.000093766793    0.000109449039    -0.093679957458    0.085827398550    0.000116385948    0.000138940686
            0.000093766788    0.000109449017    0.130563491779    0.084489223357    0.000095875267    0.000103586815    0.110884591498    0.058608290918
            -0.093679957458    0.085827398550    0.000095875282    0.000103586842    -0.107960248766    0.104086151570    0.000109702720    0.000135680641
            0.000116385954    0.000138940707    0.110884628395    0.058608156910    0.000109702727    0.000135680660    0.130149032018    0.083377754821
0.700     -0.088762652388    0.131247893568    0.000111485224    0.000095653696    -0.082054237897    0.108929597679    0.000137495682    0.000122386693
            0.000111485228    0.000095653584    0.147497736885    0.079465545278    0.000112576087    0.000089324213    0.124127725758    0.055444062344
            -0.082054237897    0.108929597679    0.000112576108    0.000089324236    -0.092202328538    0.128855827700    0.000130675993    0.000120539611
            0.000137495697    0.000122386706    0.124127737073    0.055443963451    0.000130676003    0.000120539629    0.146770300621    0.078517303041
0.725     -0.068263727329    0.152179227558    0.000126522857    0.000078824910    -0.066269687196    0.129528412096    0.000155479179    0.000102478002
            0.000126522843    0.000078824895    0.163922233439    0.071080881571    0.000126523538    0.000072243590    0.137369886421    0.049554582743
            -0.066269709803    0.129528400530    0.000126523551    0.000072243607    -0.072112564240    0.150207397975    0.000148802869    0.000101986691
            0.000155479189    0.000102478024    0.137369912582    0.049554451284    0.000148802886    0.000101986702    0.162927085581    0.070368873524
0.750     -0.044350135964    0.168868572262    0.000138374928    0.000059641864    -0.046970343828    0.146900333769    0.000169829551    0.000079986457
            0.000138374895    0.000059641841    0.179127867032    0.059469881201    0.000137257514    0.000053028842    0.150018840215    0.040944564919
            -0.046970343828    0.146900333769    0.000137257540    0.000053028860    -0.048533171584    0.167400642198    0.000163547138    0.000080745205
            0.000169829599    0.000079986472    0.150018867370    0.040944389462    0.000163547161    0.000080745249    0.177926136742    0.059056906428
0.775     -0.017986852976    0.180809369628    0.000146721537    0.000038841392    -0.024901648650    0.160485767883    0.000180244843    0.000055727601
            0.000146721966    0.000038841333    0.192460061252    0.044920512145    0.000144507744    0.000032414111    0.161500700478    0.029747123309
            -0.024901659323    0.160485725748    0.000144507767    0.000032414146    -0.022410038425    0.179910037496    0.000174575166    0.000057586591
            0.000180244877    0.000055727629    0.161500715535    0.029747041566    0.000174574736    0.000057586651    0.191125451162    0.044853349579
