# GHz S RI R 45
0.000     0.011864869000    0.000000000000    0.000018022707    -0.000000000000    0.000433169080    -0.000000000000    0.000008843601    -0.000000000000
            0.000018022710    -0.000000000000    0.011315337000    0.000000000000    0.000000522760    -0.000000000000    0.000464518880    -0.000000000000
            0.000433165490    -0.000000000000    0.000000522773    -0.000000000000    0.011825220000    0.000000000000    0.000008181446    0.000000000000
            0.000008843611    -0.000000000000    0.000464510590    -0.000000000000    0.000008181416    0.000000000000    0.011191490000    0.000000000000
0.025     0.016170190998    0.011277526712    -0.000012247292    -0.000020813218    0.002175603718    0.010166959265    -0.000005069838    -0.000012278160
            -0.000012247222    -0.000020813224    0.014929032187    0.009571870492    -0.000003961268    -0.000006920202    0.001798988676    0.008512541318
            0.002175573760    0.010167006581    -0.000003961250    -0.000006920202    0.016107431592    0.011251475063    -0.000003465111    -0.000012070555
            -0.000005069831    -0.000012278161    0.001798952313    0.008512589580    -0.000003465142    -0.000012070551    0.014869459663    0.009551704177
0.050     0.022310472554    0.019064877682    -0.000024105381    -0.000010429027    0.006826944728    0.019233625560    -0.000012395463    -0.000010379211
            -0.000024105287    -0.000010429056    0.020077566225    0.016215410974    -0.000008148243    -0.000009609221    0.005516102123    0.016266100122
            0.006826928275    0.019233635644    -0.000008148227    -0.000009609226    0.022240381527    0.019039414826    -0.000010601032    -0.000012466955
            -0.000012395447    -0.000010379217    0.005516079807    0.016266110858    -0.000010601059    -0.000012466946    0.020007821667    0.016175678077
0.075     0.030528349313    0.024702348853    -0.000026675248    -0.000003272903    0.013992328197    0.026529274752    -0.000016677315    -0.000008878638
            -0.000026675247    -0.000003272903    0.026989299656    0.021157464575    -0.000012990634    -0.000011406535    0.011330011796    0.022674946618
            0.013992318000    0.026529276739    -0.000012990622    -0.000011406540    0.030459279127    0.024677525682    -0.000015909204    -0.000012735335
            -0.000016677309    -0.000008878642    0.011329996999    0.022674950657    -0.000015909233    -0.000012735322    0.026899831031    0.021106892543
0.100     0.040406982059    0.027570295584    -0.000027340004    0.000001854660    0.023093207578    0.031435538759    -0.000020749570    -0.000006978914
            -0.000027340002    0.000001854655    0.035384923064    0.023907625069    -0.000018726352    -0.000011690374    0.018812802209    0.027261459195
            0.023093205976    0.031435541177    -0.000018726337    -0.000011690383    0.040345573843    0.027550078183    -0.000021593139    -0.000012075338
            -0.000020749573    -0.000006978911    0.018812798679    0.027261465276    -0.000021593162    -0.000012075321    0.035273510946    0.023859784804
0.125     0.051055183312    0.027152861923    -0.000027551331    0.000005951871    0.033413870211    0.033523911044    -0.000024773695    -0.000004090869
            -0.000027551330    0.000005951871    0.044599287800    0.024013174939    -0.000024939044    -0.000010030963    0.027451931393    0.029679555541
            0.033413869867    0.033523914210    -0.000024939031    -0.000010030973    0.051010708580    0.027130949389    -0.000027621308    -0.000009848854
            -0.000024773697    -0.000004090860    0.027451928607    0.029679560842    -0.000027621316    -0.000009848846    0.044470109676    0.023973878209
0.150     0.061741307768    0.023410775074    -0.000027664664    0.000009784787    0.044159099804    0.032515527898    -0.000028436472    0.000000050698
            -0.000027664664    0.000009784781    0.054113835710    0.021421309247    -0.000031015450    -0.000006264859    0.036676851917    0.029661377903
            0.044159099474    0.032515530032    -0.000031015449    -0.000006264859    0.061729483635    0.023399686858    -0.000033515985    -0.000005738818
            -0.000028436472    0.000000050703    0.036676850108    0.029661384910    -0.000033516042    -0.000005738744    0.053978505191    0.021412800204
0.175     0.071472168955    0.016335910922    -0.000027716084    0.000013789727    0.054491270787    0.028368231329    -0.000031345224    0.000005483911
            -0.000027716062    0.000013789685    0.063164104365    0.016034127392    -0.000036330377    -0.000000415439    0.045866697906    0.027108754019
            0.054491270684    0.028368233693    -0.000036330352    -0.000000415483    0.071510928703    0.016333720212    -0.000038723016    0.000000338573
            -0.000031345222    0.000005483917    0.045866695757    0.027108763551    -0.000038723040    0.000000338620    0.063039332127    0.016067612668
0.200     0.079338616993    0.006222805056    -0.000027462511    0.000018236937    0.063597060017    0.021246159147    -0.000033086911    0.000012052782
            -0.000027462511    0.000018236937    0.071027164637    0.007990017566    -0.000040282874    0.000007294648    0.054401950899    0.022069532893
            0.063597061543    0.021246160891    -0.000040282873    0.000007294655    0.079446706270    0.006219823351    -0.000042649403    0.000008239609
            -0.000033086910    0.000012052788    0.054401952139    0.022069537819    -0.000042649401    0.000008239609    0.070933620181    0.008070048286
0.225     0.084537948045    -0.006420447310    -0.000026623443    0.000023261425    0.070722601410    0.011500926387    -0.000033305921    0.000019497063
            -0.000026623438    0.000023261372    0.077038201200    -0.002409897190    -0.000042346600    0.000016503839    0.061687748852    0.014727497112
            0.070722603063    0.011500928683    -0.000042346594    0.000016503844    0.084733483587    -0.006441452827    -0.000044760351    0.000017673828
            -0.000033305921    0.000019497063    0.061687750429    0.014727507731    -0.000044760352    0.000017673828    0.076999191163    -0.002286007235
0.250     0.086424296544    -0.020896467485    -0.000024845759    0.000028766799    0.075217748795    -0.000347174724    -0.000031727010    0.000027427957
            -0.000024845761    0.000028766699    0.080628192181    -0.014710590883    -0.000042108989    0.000026707499    0.067186496070    0.005394284818
            0.075217750801    -0.000347173433    -0.000042108987    0.000026707498    0.086722546441    -0.020959813118    -0.000044604858    0.000028178314
            -0.000031727005    0.000027427963    0.067186499709    0.005394289477    -0.000044604857    0.000028178411    0.080667698692    -0.014552392900
0.275     0.084523264588    -0.036367819168    -0.000021822639    0.000034583753    0.076560617961    -0.013633088145    -0.000028169116    0.000035403513
            -0.000021822654    0.000034583657    0.081335876854    -0.028339607260    -0.000039281088    0.000037314608    0.070434993831    -0.005504936856
            0.076560620881    -0.013633083150    -0.000039281085    0.000037314606    0.084934649413    -0.036504322019    -0.000041849543    0.000039192796
            -0.000028169109    0.000035403517    0.070434998491    -0.005504928563    -0.000041849542    0.000039192795    0.081476485255    -0.028164208631
0.300     0.078574352915    -0.051895915908    -0.000017328055    0.000040345284    0.074393627994    -0.027579984544    -0.000022576302    0.000042918327
            -0.000017328089    0.000040345189    0.078842639216    -0.042627907760    -0.000033735041    0.000047663379    0.071072686688    -0.017450618297
            0.074393630351    -0.027579983941    -0.000033735039    0.000047663377    0.079101849712    -0.052142963159    -0.000036313799    0.000050056024
            -0.000022576303    0.000042918328    0.071072692457    -0.017450615768    -0.000036313799    0.000050056024    0.079104105562    -0.042460123815
0.325     0.068533746233    -0.066485783546    -0.000011224745    0.000045658898    0.068538733608    -0.041328055425    -0.000015006066    0.000049458241
            -0.000011224792    0.000045658813    0.072976503178    -0.056842460743    -0.000025495962    0.000057064178    0.068853102807    -0.029847192019
            0.068538736042    -0.041328055261    -0.000025495960    0.000057064174    0.069170964272    -0.066884913303    -0.000027972358    0.000060067724
            -0.000015006090    0.000049458194    0.068853108437    -0.029847191604    -0.000027972357    0.000060067722    0.073372892751    -0.056713962281
0.350     0.054598774059    -0.079141096326    -0.000003540884    0.000050031333    0.059022847518    -0.053982073939    -0.000005656865    0.000054511416
            -0.000003540885    0.000050031335    0.063734914502    -0.070221265839    -0.000014766477    0.000064836010    0.063663798024    -0.042052064452
            0.059022849936    -0.053982074259    -0.000014766476    0.000064836006    0.055327417782    -0.079736280174    -0.000016985771    0.000068511749
            -0.000005656860    0.000054511416    0.063663804398    -0.042052063874    -0.000016985771    0.000068511748    0.064272635506    -0.070169536395
0.375     0.037197937897    -0.088908270278    0.000005586619    0.000052995749    0.046082983368    -0.064645946144    0.000005153850    0.000057609556
            0.000005586614    0.000052995752    0.051278723970    -0.082002634436    -0.000001910926    0.000070340129    0.055531484441    -0.053396601429
            0.046082986238    -0.064645947782    -0.000001910957    0.000070340091    0.037986650524    -0.089742747358    -0.000003685511    0.000074706255
            0.000005153851    0.000057609556    0.055531490841    -0.053396601987    -0.000003685445    0.000074706325    0.051954694154    -0.082069510366
0.400     0.016989256292    -0.094941141217    0.000015837135    0.000054098576    0.030171393419    -0.072484991373    0.000016976487    0.000058356688
            0.000015837131    0.000054098582    0.035938782520    -0.091468295681    0.000012542405    0.000073029602    0.044630750643    -0.063224856597
            0.030171395453    -0.072484992693    0.000012542413    0.000073029591    0.017791990046    -0.096053787344    0.000011415194    0.000078047687
            0.000016976488    0.000058356687    0.044630756837    -0.063224858345    0.000011415265    0.000078047751    0.036738265271    -0.091697859943
0.425     -0.005166181061    -0.096544537415    0.000026790312    0.000052975150    0.011943457134    -0.076765090262    0.000029263243    0.000056461266
            0.000026790308    0.000052975153    0.018201210181    -0.097970877163    0.000027928776    0.000072479375    0.031279649741    -0.070915273894
            0.011943501150    -0.076765073293    0.000027928732    0.000072479348    -0.004410856192    -0.097966516813    0.000027654167    0.000078051906
            0.000029263243    0.000056461264    0.031279655472    -0.070915276831    0.000027654167    0.000078051906    0.019096101627    -0.098406980424
0.450     -0.028240449038    -0.093236567133    0.000037887394    0.000049379366    -0.007768838997    -0.076917895497    0.000041383712    0.000051773054
            0.000037887301    0.000049379336    -0.001306602812    -0.100975986805    0.000043478261    0.000068436761    0.015931146502    -0.075923523576
            -0.007768837855    -0.076917897622    0.000043478172    0.000068436716    -0.027611179466    -0.094986446130    0.000044245134    0.000074406289
            0.000041383713    0.000051773048    0.015931150384    -0.075923528892    0.000044245134    0.000074406289    -0.000361262581    -0.101660228106
0.475     -0.051088154541    -0.084781711676    0.000048520910    0.000043226009    -0.027997202152    -0.072574886935    0.000052670819    0.000044316152
            0.000048520815    0.000043225990    -0.021841700580    -0.100085784001    0.000058357958    0.000060856066    -0.000845204580    -0.077803512271
            -0.027997202152    -0.072574886935    0.000058357910    0.000060856055    -0.050687105967    -0.086861272776    0.000060328180    0.000067013506
            0.000052670818    0.000044316151    -0.000845156944    -0.077803502788    0.000060328180    0.000067013506    -0.020914535251    -0.101055976317
0.500     -0.072514853354    -0.071228186388    0.000058009926    0.000034607420    -0.047712820560    -0.063613318290    0.000062433070    0.000034283731
            0.000058009834    0.000034607420    -0.042578104367    -0.095070292896    0.000071702116    0.000049899810    -0.018403737845    -0.076246707824
            -0.047712822360    -0.063613320690    0.000071702117    0.000049899803    -0.072501948873    -0.073617199330    0.000074999087    0.000055983520
            0.000062433071    0.000034283727    -0.018403739018    -0.076246712685    0.000074999086    0.000055983517    -0.041793132152    -0.096365890616
0.525     -0.091348356147    -0.052908025377    0.000065736021    0.000023757798    -0.066028601732    -0.050186384449    0.000070148202    0.000022000131
            0.000065736024    0.000023757797    -0.062645758157    -0.085877258182    0.000082805515    0.000035903129    -0.036168540181    -0.071154542003
            -0.066028595361    -0.050186397788    0.000082805511    0.000035903122    -0.092231576574    -0.055624515645    0.000087628138    0.000041595231
            0.000070148201    0.000022000128    -0.036168530028    -0.071154552773    0.000087628187    0.000041595230    -0.062411810458    -0.087669427267
0.550     -0.106524097480    -0.030487454880    0.000071163712    0.000011147477    -0.080479655456    -0.033730975932    0.000074726297    0.000008722213
            0.000071163620    0.000011147500    -0.081164379171    -0.072671023670    0.000090396930    0.000020172595    -0.051825542912    -0.062999102459
            -0.080479655456    -0.033730975932    0.000090396926    0.000020172591    -0.106023841357    -0.035142941953    0.000096074024    0.000026039255
            0.000074726290    0.000008722211    -0.051825535093    -0.062999115366    0.000096074025    0.000026039253    -0.079111564270    -0.075721443350
0.575     -0.117058903038    -0.004710227344    0.000073814941    -0.000002735807    -0.092397024942    -0.012179671698    0.000076535678    -0.000006581794
            0.000073814860    -0.000002735760    -0.097278596630    -0.055690650085    0.000094696135    0.000001763906    -0.067341818730    -0.050251270319
            -0.092397024942    -0.012179671698    0.000094696127    0.000001763899    -0.117484846348    -0.008470967230    0.000101614916    0.000006268330
            0.000076535588    -0.000006581757    -0.067341813166    -0.050251284464    0.000101614906    0.000006268329    -0.096113863088    -0.058264812040
0.600     -0.122061805791    0.023227244598    0.000073321332    -0.000017076321    -0.099799132064    0.011288442126    0.000075054083    -0.000021813143
            0.000073321339    -0.000017076316    -0.110003490792    -0.035458594548    0.000095036938    -0.000017094484    -0.080237116062    -0.034885893000
            -0.099799142001    0.011288443250    0.000095036926    -0.000017094489    -0.123544676036    0.019379011419    0.000103193196    -0.000013853142
            0.000075054081    -0.000021813144    -0.080237119730    -0.034885894595    0.000103193281    -0.000013853190    -0.109565298591    -0.038459431713
0.625     -0.121732028476    0.051371404595    0.000070154609    -0.000030842035    -0.102598513128    0.035823218764    0.000070550536    -0.000036267871
            0.000070154576    -0.000030842003    -0.118965393561    -0.013453782569    0.000091584417    -0.000035547065    -0.090256588464    -0.017386920188
            -0.102598513128    0.035823218764    0.000091584334    -0.000035547003    -0.123974123449    0.048200213941    0.000100565785    -0.000034034568
            0.000070550533    -0.000036267873    -0.090256594356    -0.017386921323    0.000100565786    -0.000034034566    -0.119248453740    -0.016190825846
0.650     -0.116166400015    0.079767510072    0.000064259671    -0.000044189191    -0.100647085611    0.061106674218    0.000063175089    -0.000049769879
            0.000064259682    -0.000044189190    -0.124255065925    0.010536270924    0.000084418490    -0.000053245583    -0.097217313638    0.002244366624
            -0.100647085611    0.061106674218    0.000084418480    -0.000053245584    -0.118707038500    0.076837207611    0.000093820815    -0.000053407873
            0.000063175085    -0.000049769881    -0.097217320636    0.002244366785    0.000093820806    -0.000053407869    -0.124759384268    0.007816076571
0.675     -0.104975487853    0.106798624645    0.000055640068    -0.000056122649    -0.093679957458    0.085827398550    0.000053121623    -0.000061488066
            0.000055640093    -0.000056122661    -0.124974407847    0.035492905238    0.000073706769    -0.000069172995    -0.100441349439    0.023200936611
            -0.093679957458    0.085827398550    0.000073706739    -0.000069172997    -0.107960248766    0.104086151570    0.000083278101    -0.000071114117
            0.000053121599    -0.000061488028    -0.100441349439    0.023200936611    0.000083278110    -0.000071114122    -0.125832589466    0.032702742858
0.700     -0.088762652388    0.131247893568    0.000044816934    -0.000066099538    -0.082054237897    0.108929597679    0.000040953932    -0.000070910701
            0.000044816907    -0.000066099451    -0.121108767525    0.060378539765    0.000060026922    -0.000082634333    -0.099797877304    0.044660311286
            -0.082054237897    0.108929597679    0.000060026918    -0.000082634337    -0.092202328538    0.128855827700    0.000069431247    -0.000086430687
            0.000040953929    -0.000070910700    -0.099797894227    0.044660297953    0.000069431240    -0.000086430680    -0.122386378221    0.057581578928
0.725     -0.068263727329    0.152179227558    0.000032308799    -0.000073768045    -0.066269687196    0.129528412096    0.000027263420    -0.000077714282
            0.000032308801    -0.000073768045    -0.112802118192    0.084292229944    0.000044024379    -0.000093131214    -0.095287924934    0.065855301421
            -0.066269709803    0.129528400530    0.000044024377    -0.000093131215    -0.072112564240    0.150207397975    0.000052894126    -0.000098784308
            0.000027263416    -0.000077714280    -0.095287924934    0.065855301421    0.000052894125    -0.000098784309    -0.114521295858    0.081572522359
0.750     -0.044350135964    0.168868572262    0.000018659031    -0.000078914086    -0.046970343828    0.146900333769    0.000012657526    -0.000081732383
            0.000018659032    -0.000078914085    -0.100357931214    0.106404415720    0.000026395636    -0.000100341528    -0.087060736513    0.086055729750
            -0.046970343828    0.146900333769    0.000026395635    -0.000100341529    -0.048533171584    0.167400642198    0.000034358170    -0.000107774930
            0.000012657526    -0.000081732384    -0.087060743625    0.086055736780    0.000034358173    -0.000107774940    -0.102514464606    0.103848920662
0.775     -0.017986852976    0.180809369628    0.000004399063    -0.000081450318    -0.024901648650    0.160485767883    -0.000002277754    -0.000082940351
            0.000004399067    -0.000081450316    -0.084228541548    0.125976465529    0.000007845004    -0.000104107058    -0.075396882300    0.104586248638
            -0.024901659323    0.160485725748    0.000007845001    -0.000104107068    -0.022410038425    0.179910037496    0.000014539820    -0.000113169941
