# GHz S RI R 45
0.000     0.011864869000    0.000000000000    -0.000004601430    0.000000000000    0.000433169080    -0.000000000000    0.000000052858    -0.000000000000
            -0.000004601340    0.000000000000    0.011557868000    0.000000000000    -0.000008039414    0.000000000000    0.000469568350    -0.000000000000
            0.000433165490    -0.000000000000    -0.000008039063    0.000000000000    0.011825220000    0.000000000000    0.000016085664    -0.000000000000
            0.000000052854    -0.000000000000    0.000469568360    -0.000000000000    0.000016085685    -0.000000000000    0.011376604000    0.000000000000
0.025     0.016170190998    0.011277526712    -0.000001961449    -0.000005913971    0.002175603718    0.010166959265    -0.000001102020    -0.000009378188
            -0.000001961357    -0.000005913990    0.015327200205    0.009928850404    -0.000001571995    -0.000005344563    0.001864453450    0.008851426293
            0.002175573760    0.010167006581    -0.000001571865    -0.000005344579    0.016107431592    0.011251475063    -0.000008491135    -0.000023903806
            -0.000001102021    -0.000009378190    0.001864426780    0.008851472788    -0.000008491140    -0.000023903806    0.015269526442    0.009902231566
0.050     0.022310472554    0.019064877682    -0.000006162045    -0.000015338021    0.006826944728    0.019233625560    -0.000007444164    -0.000018076205
            -0.000006161963    -0.000015338049    0.020668746626    0.016782259361    -0.000005237552    -0.000018562339    0.005740533706    0.016888113379
            0.006826928275    0.019233635644    -0.000005237459    -0.000018562369    0.022240381527    0.019039414826    -0.000022377432    -0.000023206107
            -0.000007444167    -0.000018076204    0.005740519934    0.016888121229    -0.000022377431    -0.000023206106    0.020606143646    0.016743214243
0.075     0.030528349313    0.024702348853    -0.000015389146    -0.000021192261    0.013992328197    0.026529274752    -0.000017293644    -0.000023701217
            -0.000015389067    -0.000021192301    0.027804747469    0.021840051943    -0.000016658293    -0.000027045019    0.011783353099    0.023493702145
            0.013992318000    0.026529276739    -0.000016658209    -0.000027045063    0.030459279127    0.024677525682    -0.000031891576    -0.000022898804
            -0.000017293652    -0.000023701211    0.011783345155    0.023493701655    -0.000031891571    -0.000022898809    0.027741961877    0.021792989286
0.100     0.040406982059    0.027570295584    -0.000026913500    -0.000022717427    0.023093207578    0.031435538759    -0.000029423669    -0.000025301014
            -0.000026913433    -0.000022717474    0.036431128209    0.024593124636    -0.000031336626    -0.000029858615    0.019528873374    0.028166616509
            0.023093205976    0.031435541177    -0.000031336551    -0.000029858669    0.040345573843    0.027550078183    -0.000041958535    -0.000021406382
            -0.000029423663    -0.000025301018    0.019528872882    0.028166616850    -0.000041958531    -0.000021406389    0.036374561706    0.024543986406
0.125     0.051055183312    0.027152861923    -0.000038997325    -0.000019670441    0.033413870211    0.033523911044    -0.000042357814    -0.000022391050
            -0.000038997262    -0.000019670503    0.045836673632    0.024570200225    -0.000046916442    -0.000026777729    0.028423571136    0.030549275573
            0.033413869867    0.033523914210    -0.000046916378    -0.000026777790    0.051010708580    0.027130949389    -0.000052852045    -0.000017383349
            -0.000042357816    -0.000022391042    0.028423571136    0.030549275573    -0.000052852045    -0.000017383349    0.045793369313    0.024533932303
0.150     0.061741307768    0.023410775074    -0.000050176325    -0.000012256871    0.044159099804    0.032515527898    -0.000054671189    -0.000014941659
            -0.000050176269    -0.000012256950    0.055463259862    0.021744819318    -0.000061533388    -0.000018065737    0.037850092864    0.030375091663
            0.044159099474    0.032515530032    -0.000061533330    -0.000018065814    0.061729483635    0.023399686858    -0.000063811973    -0.000010009827
            -0.000054671190    -0.000014941660    0.037850092864    0.030375091663    -0.000063811973    -0.000010009827    0.055451406810    0.021720741742
0.175     0.071472168955    0.016335910922    -0.000059159007    -0.000001039059    0.054491270787    0.028368231329    -0.000065015388    -0.000003323367
            -0.000059158962    -0.000001039151    0.064495201899    0.016037030727    -0.000073524239    -0.000004422002    0.047143702570    0.027561996751
            0.054491270684    0.028368233693    -0.000073524195    -0.000004422076    0.071510928703    0.016333720212    -0.000073863609    0.000001104083
            -0.000065015388    -0.000003323367    0.047143702570    0.027561996751    -0.000073863610    0.000001104083    0.064534343117    0.016022212146
0.200     0.079338616993    0.006222805056    -0.000064976835    0.000013184579    0.063597060017    0.021246159147    -0.000072269815    0.000011793389
            -0.000064976806    0.000013184479    0.072172071186    0.007622237952    -0.000081646197    0.000013176290    0.055646669998    0.022186886836
            0.063597061543    0.021246160891    -0.000081646167    0.000013176198    0.079446706270    0.006219823351    -0.000081796215    0.000015876951
            -0.000072269815    0.000011793389    0.055646669998    0.022186886836    -0.000081796216    0.000015876952    0.072282643116    0.007609570658
0.225     0.084537948045    -0.006420447310    -0.000066903587    0.000029415999    0.070722601410    0.011500926387    -0.000075521976    0.000029476848
            -0.000066903570    0.000029415908    0.077802793860    -0.003148819659    -0.000084946124    0.000033486723    0.062733921933    0.014473476130
            0.070722603063    0.011500928683    -0.000084946108    0.000033486631    0.084733483587    -0.006441452827    -0.000086480879    0.000033925844
            -0.000075521969    0.000029476860    0.062733921933    0.014473476130    -0.000086480878    0.000033925844    0.078005638018    -0.003172613995
0.250     0.086424296544    -0.020896467485    -0.000064515374    0.000046596230    0.075217748795    -0.000347174724    -0.000074143286    0.000048644817
            -0.000064515367    0.000046596140    0.080806174891    -0.015763358682    -0.000082854618    0.000055194547    0.067848197235    0.004781655333
            0.075217750801    -0.000347173433    -0.000082854611    0.000055194458    0.086722546441    -0.020959813118    -0.000086861503    0.000054427928
            -0.000074143283    0.000048644815    0.067848197235    0.004781655333    -0.000086861498    0.000054428031    0.081120682019    -0.015818064168
0.275     0.084523264588    -0.036367819168    -0.000057637177    0.000063590439    0.076560617961    -0.013633088145    -0.000067769490    0.000068079477
            -0.000057637181    0.000063590354    0.080723484309    -0.029585696567    -0.000075111455    0.000076875241    0.070519374322    -0.006408674807
            0.076560620881    -0.013633083150    -0.000075111467    0.000076875145    0.084934649413    -0.036504322019    -0.000082115743    0.000076334598
            -0.000067769488    0.000068079475    0.070519374322    -0.006408674807    -0.000082115738    0.000076334647    0.081165966366    -0.029697769525
0.300     0.078574352915    -0.051895915908    -0.000046350663    0.000079296935    0.074393627994    -0.027579984544    -0.000056330614    0.000086527602
            -0.000046350662    0.000079296933    0.077256056625    -0.043883057645    -0.000061779984    0.000097148675    0.070393402467    -0.018520113371
            0.074393630351    -0.027579983941    -0.000061780002    0.000097148592    0.079101849712    -0.052142963159    -0.000071712297    0.000098291864
            -0.000056330614    0.000086527602    0.070393402467    -0.018520113371    -0.000071712297    0.000098291864    0.077837507550    -0.044085888924
0.325     0.068533746233    -0.066485783546    -0.000030984545    0.000092626790    0.068538733608    -0.041328055425    -0.000040048629    0.000102711846
            -0.000030984588    0.000092626704    0.070268363511    -0.057860996975    -0.000043232738    0.000114640496    0.067245685341    -0.030898422890
            0.068538736042    -0.041328055261    -0.000043232748    0.000114640461    0.069170964272    -0.066884913303    -0.000055456822    0.000118837419
            -0.000040048629    0.000102711846    0.067245685341    -0.030898422890    -0.000055456822    0.000118837419    0.070992336430    -0.058193298121
0.350     0.054598774059    -0.079141096326    -0.000012097580    0.000102594087    0.059022847518    -0.053982073939    -0.000019439054    0.000115426634
            -0.000012097576    0.000102594078    0.059811332734    -0.070703021602    -0.000020127631    0.000128106813    0.061001394219    -0.042845473482
            0.059022849936    -0.053982074259    -0.000020127631    0.000128106813    0.055327417782    -0.079736280174    -0.000033569350    0.000136405856
            -0.000019439046    0.000115426626    0.061001394219    -0.042845473482    -0.000033569269    0.000136405938    0.060672429947    -0.071207497952
0.375     0.037197937897    -0.088908270278    0.000009512179    0.000108322774    0.046082983368    -0.064645946144    0.000004685616    0.000123568465
            0.000009512147    0.000108322737    0.046115884692    -0.081603915153    0.000006580168    0.000136430358    0.051741208503    -0.053643538365
            0.046082986238    -0.064645947782    0.000006580103    0.000136430291    0.037986650524    -0.089742747358    -0.000006657178    0.000149488311
            0.000004685620    0.000123568464    0.051741208503    -0.053643538365    -0.000006657183    0.000149488311    0.047097741537    -0.082324821275
0.400     0.016989256292    -0.094941141217    0.000032848454    0.000109129494    0.030171393419    -0.072484991373    0.000031247713    0.000126231629
            0.000032848376    0.000109129434    0.029597113172    -0.089817165341    0.000035692118    0.000138728763    0.039709293560    -0.062598690045
            0.030171395453    -0.072484992693    0.000035692044    0.000138728710    0.017791990046    -0.096053787344    0.000024241013    0.000156708368
            0.000031247713    0.000126231629    0.039709293560    -0.062598690045    0.000024241015    0.000156708368    0.030671423263    -0.090797761948
0.425     -0.005166181061    -0.096544537415    0.000056726202    0.000104558580    0.011943457134    -0.076765090262    0.000058923641    0.000122760610
            0.000056726120    0.000104558534    0.010837543623    -0.094687165408    0.000065774596    0.000134386729    0.025307977897    -0.069067260706
            0.011943501150    -0.076765073293    0.000065774596    0.000134386729    -0.004410856192    -0.097966516813    0.000057732712    0.000156949508
            0.000058923643    0.000122760609    0.025307977897    -0.069067260706    0.000057732712    0.000156949508    0.011963809311    -0.095966682419
0.450     -0.028240449038    -0.093236567133    0.000079849762    0.000094449672    -0.007768838997    -0.076917895497    0.000086222761    0.000112836875
            0.000079849674    0.000094449642    -0.009431682527    -0.095695712245    0.000095254132    0.000123142773    0.009086633933    -0.072503157294
            -0.007768837855    -0.076917897622    0.000095254132    0.000123142773    -0.027611179466    -0.094986446130    0.000092106510    0.000149461278
            0.000086222761    0.000112836875    0.009086633933    -0.072503157294    0.000092106510    0.000149461278    -0.008306270101    -0.097305764207
0.475     -0.051088154541    -0.084781711676    0.000100864385    0.000078976677    -0.027997202152    -0.072574886935    0.000111555214    0.000096526567
            0.000100864337    0.000078976674    -0.030361162900    -0.092488150685    0.000122474785    0.000105129206    -0.008277636019    -0.072482824547
            -0.027997202152    -0.072574886935    0.000122474785    0.000105129206    -0.050687105967    -0.086861272776    0.000125459543    0.000133944505
            0.000111555214    0.000096526567    -0.008277636019    -0.072482824547    0.000125459543    0.000133944505    -0.029300858783    -0.094450444102
0.500     -0.072514853354    -0.071228186388    0.000118456147    0.000058661860    -0.047712820560    -0.063613318290    0.000133342349    0.000074309950
            0.000118456148    0.000058661858    -0.051024177800    -0.084907683105    0.000145829956    0.000080883999    -0.026014416324    -0.068745313094
            -0.047712822360    -0.063613320690    0.000145829955    0.000080884001    -0.072501948873    -0.073617199330    0.000155809511    0.000110602005
            0.000133342349    0.000074309950    -0.026014416324    -0.068745313094    0.000155809511    0.000110602005    -0.050103013726    -0.087231276166
0.525     -0.091348356147    -0.052908025377    0.000131458157    0.000034354484    -0.066028601732    -0.050186384449    0.000150148143    0.000047063902
            0.000131458139    0.000034354472    -0.070462255440    -0.073006054412    0.000164030240    0.000051309477    -0.043294508863    -0.061205425375
            -0.066028595361    -0.050186397788    0.000164030222    0.000051309465    -0.092231576574    -0.055624515645    0.000181458279    0.000080109696
            0.000150148140    0.000047063878    -0.043294508863    -0.061205425375    0.000181458280    0.000080109719    -0.069760173137    -0.075687782668
0.550     -0.106524097480    -0.030487454880    0.000138972089    0.000007248223    -0.080479655456    -0.033730975932    0.000160813111    0.000016096213
            0.000138972089    0.000007248222    -0.087743518644    -0.057054403804    0.000174887297    0.000019207639    -0.059283610283    -0.049973731694
            -0.080479655456    -0.033730975932    0.000174887248    0.000019207623    -0.106023841357    -0.035142941953    0.000199482871    0.000045370029
            0.000160813111    0.000016096213    -0.059283610283    -0.049973731694    0.000199482891    0.000045370074    -0.087340527755    -0.060077702982
0.575     -0.117058903038    -0.004710227344    0.000140324543    -0.000021371774    -0.092397024942    -0.012179671698    0.000164422678    -0.000017153489
            0.000140324543    -0.000021371774    -0.102013413033    -0.037535103482    0.000178753739    -0.000017127288    -0.073184539326    -0.035350995456
            -0.092397024942    -0.012179671698    0.000178753739    -0.000017127288    -0.117484846348    -0.008470967230    0.000210103948    0.000004258471
            0.000164422678    -0.000017153489    -0.073184539326    -0.035350995456    0.000210103948    0.000004258472    -0.101980829637    -0.040867919727
0.600     -0.122061805791    0.023227244598    0.000135212588    -0.000049857062    -0.099799132064    0.011288442126    0.000160458465    -0.000050800235
            0.000135212504    -0.000049857087    -0.112547254215    -0.015123605376    0.000174995087    -0.000053384619    -0.084292923311    -0.017820917210
            -0.099799142001    0.011288443250    0.000174995086    -0.000053384622    -0.123544676036    0.019379011419    0.000212034515    -0.000038345747
            0.000160458382    -0.000050800264    -0.084292923311    -0.017820917210    0.000212034515    -0.000038345744    -0.112943792722    -0.018713480559
0.625     -0.121732028476    0.051371404595    0.000124422148    -0.000076427668    -0.102598513128    0.035823218764    0.000149643458    -0.000082659530
            0.000124422148    -0.000076427668    -0.118783163234    0.009349146928    0.000163564234    -0.000088285510    -0.092026203808    0.001980845983
            -0.102598513128    0.035823218764    0.000163564233    -0.000088285512    -0.123974123449    0.048200213941    0.000204829295    -0.000080974356
            0.000149643458    -0.000082659530    -0.092026203808    0.001980845983    0.000204829296    -0.000080974352    -0.119655875219    0.005576292033
0.650     -0.116166400015    0.079767510072    0.000108257917    -0.000100607789    -0.100647085611    0.061106674218    0.000132332748    -0.000112155956
            0.000108257917    -0.000100607789    -0.120359524998    0.034949633607    0.000144988241    -0.000120183099    -0.095966563275    0.023305457415
            -0.100647085611    0.061106674218    0.000144988241    -0.000120183099    -0.118707038500    0.076837207611    0.000188705042    -0.000121615904
            0.000132332748    -0.000112155956    -0.095966563275    0.023305457415    0.000188705042    -0.000121615904    -0.121743104236    0.031083391078
0.675     -0.104975487853    0.106798624645    0.000087325737    -0.000120844678    -0.093679957458    0.085827398550    0.000109064774    -0.000137419125
            0.000087325737    -0.000120844678    -0.117128778623    0.060692785832    0.000120207777    -0.000147606086    -0.095870088411    0.045335435393
            -0.093679957458    0.085827398550    0.000120207775    -0.000147606088    -0.107960248766    0.104086151570    0.000164394058    -0.000158363137
            0.000109064753    -0.000137419129    -0.095870088411    0.045335435393    0.000164394039    -0.000158363113    -0.119044081336    0.056831952063
0.700     -0.088762652388    0.131247893568    0.000062816607    -0.000136278165    -0.082054237897    0.108929597679    0.000081154287    -0.000157307988
            0.000062816607    -0.000136278165    -0.109166466552    0.085600151236    0.000090440202    -0.000169415007    -0.091685981777    0.067235457110
            -0.082054237897    0.108929597679    0.000090440202    -0.000169415007    -0.092202328538    0.128855827700    0.000133027846    -0.000189612656
            0.000081154287    -0.000157307988    -0.091685981777    0.067235457110    0.000133027846    -0.000189612656    -0.111616004375    0.081846111550
0.725     -0.068263727329    0.152179227558    0.000035940478    -0.000146411608    -0.066269687196    0.129528412096    0.000049983755    -0.000171108097
            0.000035940410    -0.000146411121    -0.096753981719    0.108745402580    0.000057077693    -0.000184818668    -0.083537672271    0.088191577896
            -0.066269709803    0.129528400530    0.000057077674    -0.000184818664    -0.072112564240    0.150207397975    0.000096009203    -0.000214105524
            0.000049983747    -0.000171108089    -0.083537672271    0.088191577896    0.000096009203    -0.000214105524    -0.099720684589    0.105198490566
0.750     -0.044350135964    0.168868572262    0.000007898946    -0.000151060914    -0.046970343828    0.146900333769    0.000016962203    -0.000178471475
            0.000007898927    -0.000151060865    -0.080356916062    0.129303530666    0.000021573936    -0.000193400186    -0.071716111344    0.107458387564
            -0.046970343828    0.146900333769    0.000021573930    -0.000193400187    -0.048533171584    0.167400642198    0.000054914538    -0.000230982851
            0.000016962167    -0.000178471459    -0.071716111344    0.107458387564    0.000054914542    -0.000230982850    -0.083803314434    0.126058363090
0.775     -0.017986852976    0.180809369628    -0.000020179697    -0.000150306195    -0.024901648650    0.160485767883    -0.000016553645    -0.000179372130
            -0.000020179697    -0.000150306195    -0.060589385114    0.146579460612    -0.000014647016    -0.000195074623    -0.056645464329    0.124379957721
            -0.024901659323    0.160485725748    -0.000014647021    -0.000195074593    -0.022410038425    0.179910037496    0.000011370777    -0.000239758827
