# GHz S RI R 45
0.000     0.011864869000    0.000000000000    0.000000238201    -0.000000000000    0.000433169080    -0.000000000000    -0.000016894543    0.000000000000
            0.000000238184    -0.000000000000    0.010435671000    0.000000000000    0.000005603657    -0.000000000000    0.000398854420    -0.000000000000
            0.000433165490    -0.000000000000    0.000005603611    -0.000000000000    0.011825220000    0.000000000000    -0.000012456480    0.000000000000
            -0.000016894539    0.000000000000    0.000398875290    -0.000000000000    -0.000012456479    0.000000000000    0.010403672000    0.000000000000
0.025     0.016170190998    0.011277526712    0.000000114454    -0.000001288821    0.002175603718    0.010166959265    0.000002332281    0.000009602204
            0.000000114436    -0.000001288819    0.014087113659    0.009041642559    -0.000001930094    -0.000005902568    0.001663096688    0.007955177077
            0.002175573760    0.010167006581    -0.000001930146    -0.000005902560    0.016107431592    0.011251475063    0.000000026926    0.000004952454
            0.000002332291    0.000009602202    0.001663090597    0.007955220032    0.000000026918    0.000004952454    0.014020106135    0.008987764806
0.050     0.022310472554    0.019064877682    -0.000000518598    -0.000002637198    0.006826944728    0.019233625560    0.000006606818    -0.000000588703
            -0.000000518614    -0.000002637193    0.019015035601    0.015286804266    -0.000005201806    -0.000004104387    0.005168007768    0.015215276847
            0.006826928275    0.019233635644    -0.000005201858    -0.000004104369    0.022240381527    0.019039414826    0.000001625678    -0.000002915109
            0.000006606835    -0.000000588709    0.005168013513    0.015215278064    0.000001625681    -0.000002915111    0.018926048177    0.015204930379
0.075     0.030528349313    0.024702348853    -0.000001708955    -0.000003721972    0.013992328197    0.026529274752    0.000003619261    -0.000007041356
            -0.000001708971    -0.000003721966    0.025638052892    0.019976226915    -0.000006398147    -0.000002991764    0.010669173111    0.021260388072
            0.013992318000    0.026529276739    -0.000006398195    -0.000002991739    0.030459279127    0.024677525682    -0.000001936464    -0.000007723658
            0.000003619270    -0.000007041361    0.010669184010    0.021260379246    -0.000001936471    -0.000007723657    0.025525471666    0.019874041343
0.100     0.040406982059    0.027570295584    -0.000003319157    -0.000004422159    0.023093207578    0.031435538759    -0.000001631476    -0.000010069817
            -0.000003319177    -0.000004422146    0.033742317662    0.022659391945    -0.000007331269    -0.000002226866    0.017796700047    0.025655473903
            0.023093205976    0.031435541177    -0.000007331313    -0.000002226833    0.040345573843    0.027550078183    -0.000007227835    -0.000009553601
            -0.000001631460    -0.000010069827    0.017796716289    0.025655463854    -0.000007227841    -0.000009553598    0.033605649214    0.022549765519
0.125     0.051055183312    0.027152861923    -0.000005251884    -0.000004612029    0.033413870211    0.033523911044    -0.000007200048    -0.000010231782
            -0.000005251899    -0.000004612017    0.042739262001    0.022875305699    -0.000008329941    -0.000001509010    0.026107861557    0.028075421132
            0.033413869867    0.033523914210    -0.000008329971    -0.000001508971    0.051010708580    0.027130949389    -0.000012684334    -0.000008767043
            -0.000007200038    -0.000010231793    0.026107875958    0.028075409106    -0.000012684342    -0.000008767038    0.042585502251    0.022783323803
0.150     0.061741307768    0.023410775074    -0.000007362621    -0.000004187839    0.044159099804    0.032515527898    -0.000012212520    -0.000008071421
            -0.000007362634    -0.000004187827    0.052205835847    0.020599221199    -0.000009430129    -0.000000596901    0.035107073026    0.028250261371
            0.044159099474    0.032515530032    -0.000009430159    -0.000000596855    0.061729483635    0.023399686858    -0.000017486502    -0.000005805635
            -0.000012212513    -0.000008071432    0.035107085639    0.028250247292    -0.000017486508    -0.000005805634    0.052041220062    0.020532556602
0.175     0.071472168955    0.016335910922    -0.000009478374    -0.000003082725    0.054491270787    0.028368231329    -0.000015986554    -0.000004224567
            -0.000009478385    -0.000003082708    0.061446257553    0.015670687307    -0.000010580068    0.000000664778    0.044246265818    0.026055355946
            0.054491270684    0.028368233693    -0.000010580091    0.000000664825    0.071510928703    0.016333720212    -0.000020999962    -0.000001231246
            -0.000015986549    -0.000004224578    0.044246276230    0.026055340236    -0.000020999969    -0.000001231243    0.061288458773    0.015642525027
0.200     0.079338616993    0.006222805056    -0.000011396996    -0.000001282789    0.063597060017    0.021246159147    -0.000018211955    0.000000714254
            -0.000011397006    -0.000001282774    0.069799564160    0.008160278387    -0.000011633934    0.000002361768    0.052970323480    0.021491177234
            0.063597061543    0.021246160891    -0.000011633944    0.000002361810    0.079446706270    0.006219823351    -0.000022915109    0.000004386389
            -0.000018211953    0.000000714241    0.052970332460    0.021491160420    -0.000022915110    0.000004386385    0.069672621182    0.008178797427
0.225     0.084537948045    -0.006420447310    -0.000012916375    0.000001170402    0.070722601410    0.011500926387    -0.000018741577    0.000006119678
            -0.000012916383    0.000001170419    0.076648481235    -0.001716506421    -0.000012437516    0.000004536134    0.060735982171    0.014675757359
            0.070722603063    0.011500928683    -0.000012437521    0.000004536180    0.084733483587    -0.006441452827    -0.000023079422    0.000010450834
            -0.000018741574    0.000006119663    0.060735988725    0.014675738748    -0.000023079427    0.000010450831    0.076579336445    -0.001650043385
0.250     0.086424296544    -0.020896467485    -0.000013844321    0.000004173641    0.075217748795    -0.000347174724    -0.000017628020    0.000011489997
            -0.000013844326    0.000004173669    0.081447707681    -0.013604795900    -0.000012810671    0.000007136878    0.067040131265    0.005840408299
            0.075217750801    -0.000347173433    -0.000012810668    0.000007136929    0.086722546441    -0.020959813118    -0.000021535392    0.000016464961
            -0.000017628022    0.000011489994    0.067040134940    0.005840389166    -0.000021535394    0.000016464962    0.081464871185    -0.013495517935
0.275     0.084523264588    -0.036367819168    -0.000014019326    0.000007572128    0.076560617961    -0.013633088145    -0.000015030436    0.000016360153
            -0.000014019325    0.000007572150    0.083733840242    -0.027041347573    -0.000012595288    0.000010080334    0.071434662223    -0.004680981897
            0.076560620881    -0.013633083150    -0.000012595276    0.000010080386    0.084934649413    -0.036504322019    -0.000018423961    0.000021967363
            -0.000015030435    0.000016360152    0.071434662977    -0.004681000979    -0.000018423966    0.000021967361    0.083865865138    -0.026901625462
0.300     0.078574352915    -0.051895915908    -0.000013323821    0.000011167279    0.074393627994    -0.027579984544    -0.000011188590    0.000020403218
            -0.000013323818    0.000011167308    0.083158044045    -0.041468216959    -0.000011662228    0.000013204962    0.073552063430    -0.016466566725
            0.074393630351    -0.027579983941    -0.000011662206    0.000013205011    0.079101849712    -0.052142963159    -0.000013972701    0.000026621128
            -0.000011188590    0.000020403217    0.073552061358    -0.016466585134    -0.000013972702    0.000026621131    0.083432428273    -0.041318405402
0.325     0.068533746233    -0.066485783546    -0.000011693731    0.000014730290    0.068538733608    -0.041328055425    -0.000006401288    0.000023347736
            -0.000011693727    0.000014730310    0.079489758889    -0.056260604383    -0.000009923552    0.000016330177    0.073114588055    -0.029020965891
            0.068538736042    -0.041328055261    -0.000009923526    0.000016330217    0.069170964272    -0.066884913303    -0.000008463935    0.000030139737
            -0.000006401288    0.000023347737    0.073114583752    -0.029020984863    -0.000008463925    0.000030139781    0.079930558802    -0.056128807714
0.350     0.054598774059    -0.079141096326    -0.000009125975    0.000018016787    0.059022847518    -0.053982073939    -0.000000979305    0.000025037241
            -0.000009125969    0.000018016807    0.072639814037    -0.070754291873    -0.000007352446    0.000019232987    0.069954194845    -0.041798976375
            0.059022849936    -0.053982074259    -0.000007352441    0.000019232984    0.055327417782    -0.079736280174    -0.000002201896    0.000032344991
            -0.000000979304    0.000025037243    0.069954194845    -0.041798976375    -0.000002201854    0.000032345074    0.073265494607    -0.070675890816
0.375     0.037197937897    -0.088908270278    -0.000005681124    0.000020781497    0.046082983368    -0.064645946144    0.000004736593    0.000025375026
            -0.000005681064    0.000020781576    0.062655540391    -0.084270491106    -0.000003973913    0.000021691401    0.064015288011    -0.054221451160
            0.046082986238    -0.064645947782    -0.000003973880    0.000021691433    0.037986650524    -0.089742747358    0.000004478894    0.000033112616
            0.000004736595    0.000025375027    0.064015288011    -0.054221451160    0.000004478891    0.000033112618    0.063476998159    -0.084286853941
0.400     0.016989256292    -0.094941141217    -0.000001482681    0.000022795882    0.030171393419    -0.072484991373    0.000010428895    0.000024352436
            -0.000001482613    0.000022795949    0.049729606191    -0.096150475939    0.000000116445    0.000023481775    0.055365440178    -0.065706815679
            0.030171395453    -0.072484992693    0.000000116448    0.000023481767    0.017791990046    -0.096053787344    0.000011255962    0.000032404652
            0.000010428897    0.000024352438    0.055365382608    -0.065706891649    0.000011255953    0.000032404656    0.050748333153    -0.096307477547
0.425     -0.005166181061    -0.096544537415    0.000003288656    0.000023861939    0.011943457134    -0.076765090262    0.000015775860    0.000022023462
            0.000003288694    0.000023861971    0.034188705288    -0.105777327509    0.000004773023    0.000024406518    0.044191392876    -0.075686862026
            0.011943501150    -0.076765073293    0.000004773066    0.000024406535    -0.004410856192    -0.097966516813    0.000017798555    0.000030241583
            0.000015775822    0.000022023435    0.044191359297    -0.075686895528    0.000017798551    0.000030241589    0.035395283955    -0.106123125468
0.450     -0.028240449038    -0.093236567133    0.000008411051    0.000023831934    -0.007768838997    -0.076917895497    0.000020508121    0.000018509597
            0.000008411046    0.000023831936    0.016486058655    -0.112611032497    0.000009798818    0.000024307112    0.030797366823    -0.083640462988
            -0.007768837855    -0.076917897622    0.000009798823    0.000024307101    -0.027611179466    -0.094986446130    0.000023817953    0.000026714394
            0.000020508114    0.000018509600    0.030797291484    -0.083640519500    0.000023817955    0.000026714401    0.017858871630    -0.113193820310
0.475     -0.051088154541    -0.084781711676    0.000013627547    0.000022645932    -0.027997202152    -0.072574886935    0.000024380015    0.000014019923
            0.000013627548    0.000022645939    -0.002816405979    -0.116205425181    0.000014964853    0.000023107307    0.015594103497    -0.089108086696
            -0.027997202152    -0.072574886935    0.000014964897    0.000023107313    -0.050687105967    -0.086861272776    0.000029043792    0.000022001850
            0.000024380016    0.000014019929    0.015594018465    -0.089108132033    0.000029043793    0.000022001858    -0.001311381901    -0.117070865438
0.500     -0.072514853354    -0.071228186388    0.000018605862    0.000020301160    -0.047712820560    -0.063613318290    0.000027156055    0.000008793989
            0.000018605864    0.000020301167    -0.023069829328    -0.116235042867    0.000019956176    0.000020782572    -0.000916573996    -0.091722352490
            -0.047712822360    -0.063613320690    0.000019956267    0.000020782571    -0.072501948873    -0.073617199330    0.000033206508    0.000016316862
            0.000027156055    0.000008793989    -0.000916573996    -0.091722352490    0.000033206606    0.000016316887    -0.021479456910    -0.117425229542
0.525     -0.091348356147    -0.052908025377    0.000023061801    0.000016816487    -0.066028601732    -0.050186384449    0.000028696299    0.000003068473
            0.000023061804    0.000016816492    -0.043564787686    -0.112505969317    0.000024540062    0.000017327899    -0.018159685599    -0.091216274970
            -0.066028595361    -0.050186397788    0.000024540058    0.000017327890    -0.092231576574    -0.055624515645    0.000036162110    0.000009857788
            0.000028696300    0.000003068472    -0.018159772815    -0.091216297372    0.000036162110    0.000009857792    -0.041946058645    -0.114058322820
0.550     -0.106524097480    -0.030487454880    0.000026748567    0.000012334213    -0.080479655456    -0.033730975932    0.000028953840    -0.000002859392
            0.000026748665    0.000012334201    -0.063564921885    -0.104972673710    0.000028161726    0.000013064976    -0.035516623203    -0.087447454534
            -0.080479655456    -0.033730975932    0.000028161720    0.000013064970    -0.106023841357    -0.035142941953    0.000037652225    0.000003243962
            0.000028953841    -0.000002859389    -0.035516623203    -0.087447454534    0.000037652229    0.000003243964    -0.061980696842    -0.106917624841
0.575     -0.117058903038    -0.004710227344    0.000029437081    0.000007032649    -0.092397024942    -0.012179671698    0.000027913879    -0.000008699863
            0.000029437087    0.000007032654    -0.082335855369    -0.093742086441    0.000031083350    0.000007608448    -0.052345970362    -0.080399648132
            -0.092397024942    -0.012179671698    0.000031083386    0.000007608425    -0.117484846348    -0.008470967230    0.000037771965    -0.000003942843
            0.000027913883    -0.000008699860    -0.052345971454    -0.080399649808    0.000037772019    -0.000003942851    -0.080849020296    -0.096098139023
0.600     -0.122061805791    0.023227244598    0.000030936299    0.000001182947    -0.099799132064    0.011288442126    0.000025630027    -0.000014138666
            0.000030936306    0.000001182950    -0.099177075545    -0.079076641431    0.000032878414    0.000001662682    -0.068017072911    -0.070194695037
            -0.099799142001    0.011288443250    0.000032878489    0.000001662633    -0.123544676036    0.019379011419    0.000036564573    -0.000010874492
            0.000025630026    -0.000014138669    -0.068017072911    -0.070194695037    0.000036564666    -0.000010874528    -0.097849788030    -0.081842779483
0.625     -0.121732028476    0.051371404595    0.000031227786    -0.000004849684    -0.102598513128    0.035823218764    0.000022360648    -0.000018857949
            0.000031227794    -0.000004849682    -0.113443253368    -0.061378896681    0.000033443805    -0.000004627982    -0.081926859923    -0.057080489384
            -0.102598513128    0.035823218764    0.000033443795    -0.000004627985    -0.123974123449    0.048200213941    0.000034071042    -0.000017380069
            0.000022360612    -0.000018857923    -0.081926859923    -0.057080489384    0.000034071046    -0.000017380065    -0.112340260963    -0.064533644916
0.650     -0.116166400015    0.079767510072    0.000030298624    -0.000010940214    -0.100647085611    0.061106674218    0.000018240321    -0.000022834534
            0.000030298699    -0.000010940280    -0.124580072239    -0.041172048248    0.000032732159    -0.000010997080    -0.093536300715    -0.041423726741
            -0.100647085611    0.061106674218    0.000032732152    -0.000010997078    -0.118707038500    0.076837207611    0.000030426063    -0.000023233221
            0.000018240324    -0.000022834534    -0.093536300715    -0.041423726741    0.000030426067    -0.000023233223    -0.123767637768    -0.044676790820
0.675     -0.104975487853    0.106798624645    0.000028122175    -0.000016756739    -0.093679957458    0.085827398550    0.000013443179    -0.000025832377
            0.000028122213    -0.000016756778    -0.132144208417    -0.019077397965    0.000030763273    -0.000017171354    -0.102382987010    -0.023689907447
            -0.093679957458    0.085827398550    0.000030763263    -0.000017171353    -0.107960248766    0.104086151570    0.000025816991    -0.000028240762
            0.000013443155    -0.000025832344    -0.102382987010    -0.023689907447    0.000025816999    -0.000028240761    -0.131686526870    -0.022880630548
0.700     -0.088762652388    0.131247893568    0.000024820656    -0.000022038028    -0.082054237897    0.108929597679    0.000008232708    -0.000027761744
            0.000024820664    -0.000022038033    -0.135828342095    0.004212551971    0.000027616815    -0.000022899292    -0.108112926809    -0.004423648297
            -0.082054237897    0.108929597679    0.000027616809    -0.000022899285    -0.092202328538    0.128855827700    0.000020451826    -0.000032266263
            0.000008232716    -0.000027761748    -0.108112926809    -0.004423648297    0.000020451835    -0.000032266270    -0.135781750456    0.000172476947
0.725     -0.068263727329    0.152179227558    0.000020551303    -0.000026576724    -0.066269687196    0.129528412096    0.000002859651    -0.000028602925
            0.000020551323    -0.000026576768    -0.135466528331    0.027959961057    0.000023418514    -0.000027961846    -0.110480742461    0.015773533862
            -0.066269709803    0.129528400530    0.000023418540    -0.000027961929    -0.072112564240    0.150207397975    0.000014551970    -0.000035224302
            0.000002859647    -0.000028602921    -0.110480742461    0.015773533862    0.000014551974    -0.000035224302    -0.135876087295    0.023754521317
0.750     -0.044350135964    0.168868572262    0.000015501800    -0.000030214025    -0.046970343828    0.146900333769    -0.000002449465    -0.000028391481
            0.000015501802    -0.000030214030    -0.131042664070    0.051416463549    0.000018332073    -0.000032180308    -0.109369508737    0.036272880821
            -0.046970343828    0.146900333769    0.000018332064    -0.000032180299    -0.048533171584    0.167400642198    0.000008333191    -0.000037079463
            -0.000002449468    -0.000028391475    -0.109369508737    0.036272880821    0.000008333196    -0.000037079465    -0.131939018106    0.047124001414
0.775     -0.017986852976    0.180809369628    0.000009875920    -0.000032839731    -0.024901648650    0.160485767883    -0.000007491704    -0.000027208773
            0.000009875922    -0.000032839736    -0.122683498968    0.073848988283    0.000012542464    -0.000035419051    -0.104780382448    0.056437461366
            -0.024901659323    0.160485725748    0.000012542458    -0.000035419042    -0.022410038425    0.179910037496    0.000002000280    -0.000037839905
