# GHz S RI R 45
0.000     0.012552374621    0.001934159413    -0.000000016636    -0.000000113360    0.000662975497    0.001653962700    -0.000000013010    -0.000000112397
            -0.000000016636    -0.000000113360    0.011305715714    0.001434174380    0.000000003397    -0.000000082917    0.000534142682    0.001234993432
            0.000662975410    0.001653962734    0.000000003397    -0.000000082917    0.012504370987    0.001921648426    0.000000009567    -0.000000078969
            -0.000000013010    -0.000000112397    0.000534142639    0.001234993450    0.000000009567    -0.000000078969    0.011238795254    0.001425818357
0.025     0.016744246852    0.010887041752    -0.000000076403    -0.000000251086    0.002235003023    0.009645949561    -0.000000070565    -0.000000249243
            -0.000000076403    -0.000000251086    0.014755817897    0.008923562168    -0.000000032551    -0.000000188838    0.001713377238    0.007750058969
            0.002232397854    0.009648723291    -0.000000032551    -0.000000188837    0.016671303658    0.010827380888    -0.000000021676    -0.000000180840
            -0.000000070565    -0.000000249243    0.001713204486    0.007750091935    -0.000000021676    -0.000000180840    0.014679868215    0.008841911757
0.050     0.022954966962    0.018002782115    -0.000000227353    -0.000000443953    0.006688380370    0.018245602332    -0.000000218860    -0.000000443041
            -0.000000227353    -0.000000443953    0.019749283939    0.014811648079    -0.000000139040    -0.000000346921    0.005117328895    0.014788791023
            0.006688346071    0.018245631946    -0.000000139040    -0.000000346921    0.022850984379    0.017874186192    -0.000000120905    -0.000000336608
            -0.000000218860    -0.000000443041    0.005117298729    0.014788794054    -0.000000120905    -0.000000336608    0.019647602971    0.014669146355
0.075     0.030913172405    0.022813845733    -0.000000440084    -0.000000578093    0.013509161161    0.025074879074    -0.000000429513    -0.000000579371
            -0.000000440084    -0.000000578093    0.026177441355    0.018994975085    -0.000000298090    -0.000000464785    0.010400503831    0.020583814899
            0.013509153611    0.025074879733    -0.000000298090    -0.000000464785    0.030761883689    0.022644893351    -0.000000272237    -0.000000455139
            -0.000000429513    -0.000000579371    0.010400495919    0.020583814415    -0.000000272237    -0.000000455139    0.026044577282    0.018801041788
0.100     0.040203129870    0.024909547396    -0.000000700722    -0.000000641734    0.022095239876    0.029594570293    -0.000000688660    -0.000000646176
            -0.000000700722    -0.000000641734    0.033812275853    0.021167550746    -0.000000499009    -0.000000531155    0.017171033588    0.024743092298
            0.022095239876    0.029594570293    -0.000000499009    -0.000000531155    0.039996787837    0.024721734652    -0.000000465209    -0.000000524934
            -0.000000688660    -0.000000646176    0.017171033156    0.024743092598    -0.000000465209    -0.000000524934    0.033644442059    0.020936662382
0.125     0.049974492770    0.023885687492    -0.000000990276    -0.000000623200    0.031752813400    0.031425927387    -0.000000977659    -0.000000631744
            -0.000000990276    -0.000000623200    0.042126655594    0.020934251994    -0.000000727863    -0.000000535779    0.024979954477    0.026975906403
            0.031752813400    0.031425927387    -0.000000727863    -0.000000535779    0.049713389587    0.023693523012    -0.000000686471    -0.000000535965
            -0.000000977659    -0.000000631744    0.024979954477    0.026975906403    -0.000000686471    -0.000000535965    0.041921220711    0.020681786419
0.150     0.059559018807    0.019772946338    -0.000001286882    -0.000000516474    0.041722677839    0.030337196936    -0.000001274836    -0.000000529637
            -0.000001286882    -0.000000516474    0.050580854360    0.018348039144    -0.000000968268    -0.000000472490    0.033339386247    0.027042991828
            0.041722677839    0.030337196936    -0.000000968268    -0.000000472490    0.059255890783    0.019610045549    -0.000000920585    -0.000000481711
            -0.000001274836    -0.000000529637    0.033339386247    0.027042991828    -0.000000920585    -0.000000481711    0.050348139280    0.018100629184
0.175     0.068026994239    0.012619472254    -0.000001568155    -0.000000320462    0.051207501171    0.026309676624    -0.000001558031    -0.000000338611
            -0.000001568155    -0.000000320462    0.058585666710    0.013323816365    -0.000001203396    -0.000000338781    0.041705397452    0.024850054549
            0.051207501171    0.026309676624    -0.000001203396    -0.000000338781    0.067702163354    0.012506098258    -0.000001151349    -0.000000359406
            -0.000001558031    -0.000000338611    0.041705397452    0.024850054549    -0.000001151349    -0.000000359406    0.058343475344    0.013097747511
0.200     0.074540256815    0.002758255349    -0.000001811817    -0.000000039166    0.059436760785    0.019527521856    -0.000001805174    -0.000000062222
            -0.000001811817    -0.000000039166    0.065528092903    0.005964142289    -0.000001415848    -0.000000135640    0.049534243165    0.020430169743
            0.059436760785    0.019527521856    -0.000001415848    -0.000000135640    0.074220660444    0.002705948176    -0.000001361998    -0.000000169564
            -0.000001805174    -0.000000062222    0.049534243165    0.020430169743    -0.000001361998    -0.000000169564    0.065299329568    0.005769214036
0.225     0.078368968469    -0.009277322910    -0.000001996935    0.000000318830    0.065702179211    0.010356031078    -0.000001995429    0.000000291315
            -0.000001996935    0.000000318830    0.070822914872    -0.003477776689    -0.000001588863    0.000000132147    0.056300188227    0.013933820261
            0.065702179211    0.010356031078    -0.000001588863    0.000000132147    0.078085817894    -0.009267011479    -0.000001536368    0.000000083624
            -0.000001995429    0.000000291315    0.056300188227    0.013933820261    -0.000001536368    0.000000083624    0.070634647082    -0.003638900755
0.250     0.078945399042    -0.022774874895    -0.000002104327    0.000000740239    0.069404431115    -0.000676906916    -0.000002109580    0.000000709230
            -0.000002104327    0.000000740239    0.073965144381    -0.014601805011    -0.000001706315    0.000000456147    0.061525157761    0.005624282390
            0.069404431115    -0.000676906916    -0.000001706315    0.000000456147    0.078731690833    -0.022710345216    -0.000001658760    0.000000392556
            -0.000002109580    0.000000709230    0.061525157761    0.005624282390    -0.000001658760    0.000000392556    0.073846438156    -0.014734136408
0.275     0.075878679777    -0.036894593486    -0.000002117971    0.000001207795    0.070076305359    -0.012906809820    -0.000002131474    0.000001174746
            -0.000002117971    0.000001207795    0.074545271902    -0.026902426587    -0.000001754248    0.000000824546    0.064793136896    -0.004134536071
            0.070076305359    -0.012906809820    -0.000001754248    0.000000824546    0.075766099727    -0.036795388436    -0.000001715460    0.000000746337
            -0.000002131474    0.000001174746    0.064793136896    -0.004134536071    -0.000001715460    0.000000746337    0.074525573713    -0.027019356128
0.300     0.068998939326    -0.050710879148    -0.000002025286    0.000001700354    0.067419786421    -0.025567824759    -0.000002048180    0.000001667274
            -0.000002025286    0.000001700354    0.072283368962    -0.039786685554    -0.000001720671    0.000001222096    0.065776808225    -0.014894008580
            0.067419786421    -0.025567824759    -0.000001720671    0.000001222096    0.069014361657    -0.050607815101    -0.000001694419    0.000001130795
            -0.000002048180    0.000001667274    0.065776808225    -0.014894008580    -0.000001694419    0.000001130795    0.072390623743    -0.039910696936
0.325     0.058356470403    -0.063262017578    -0.000001818363    0.000002194208    0.061319835569    -0.037824716984    -0.000001851488    0.000002163399
            -0.000001818363    0.000002194208    0.067029516525    -0.052607014385    -0.000001597130    0.000001631050    0.064247134478    -0.026137403533
            0.061319835569    -0.037824716984    -0.000001597130    0.000001631050    0.058518834760    -0.063195201434    -0.000001586936    0.000001529164
            -0.000001851488    0.000002163399    0.064247134478    -0.026137403533    -0.000001586936    0.000001529164    0.067287463466    -0.052769180000
0.350     0.044242741726    -0.073608207552    -0.000001494290    0.000002663060    0.051866335513    -0.048822457182    -0.000001537873    0.000002637286
            -0.000001494290    0.000002663060    0.058784620987    -0.064691714040    -0.000001378524    0.000002030998    0.060092266434    -0.037305265430
            0.051866335513    -0.048822457182    -0.000001378524    0.000002030998    0.044559717194    -0.073625790976    -0.000001387325    0.000001922004
            -0.000001537873    0.000002637286    0.060092266434    -0.037305265430    -0.000001387325    0.000001922004    0.059210739234    -0.064931187947
0.375     0.027173545177    -0.080879745615    -0.000001056162    0.000003079901    0.039355373310    -0.057724502048    -0.000001109759    0.000003062205
            -0.000001056162    0.000003079901    0.047692703980    -0.075372102663    -0.000001064536    0.000002400339    0.053320566829    -0.047814054911
            0.039355373310    -0.057724502048    -0.000001064536    0.000002400339    0.027638865395    -0.081034414366    -0.000001094477    0.000002288622
            -0.000001109759    0.000003062205    0.053320566829    -0.047814054911    -0.000001094477    0.000002288622    0.048296594864    -0.075735084438
0.400     0.007879396100    -0.084340628264    -0.000000512881    0.000003417346    0.024288781296    -0.063774689449    -0.000000575406    0.000003410884
            -0.000000512881    0.000003417346    0.034046387293    -0.084019262910    -0.000000659347    0.000002716085    0.044069235899    -0.057089795367
            0.024288781296    -0.063774689449    -0.000000659347    0.000002716085    0.008470474904    -0.084686538408    -0.000000711562    0.000002606746
            -0.000000575406    0.000003410884    0.044069235899    -0.057089795367    -0.000000711562    0.000002606746    0.034827655112    -0.084557512256
0.425     -0.012730214629    -0.083432354600    0.000000120466    0.000003649701    0.007354518309    -0.066336854168    0.000000050812    0.000003657673
            0.000000120466    0.000003649701    0.018272136658    -0.090067221675    -0.000000172050    0.000002955967    0.032599352507    -0.064586273202
            0.007354518309    -0.066336854168    -0.000000172050    0.000002955967    -0.012054172257    -0.084020196949    -0.000000246801    0.000002854587
            0.000000050812    0.000003657673    0.032599352507    -0.064586273202    -0.000000246801    0.000002854587    0.019219327475    -0.090837339358
0.450     -0.033611940782    -0.077828604709    0.000000824618    0.000003753864    -0.010606551978    -0.064955148793    0.000000749849    0.000003779092
            0.000000824618    0.000003753864    0.000918395163    -0.093049316838    0.000000385662    0.000003098795    0.019290560007    -0.069821417569
            -0.010606551978    -0.064955148793    0.000000385662    0.000003098795    -0.032912195668    -0.078700587275    0.000000288664    0.000003011020
            0.000000749849    0.000003779092    0.019290560007    -0.069821417569    0.000000288664    0.000003011020    0.002007323741    -0.094110676934
0.475     -0.053645656127    -0.067460850738    0.000001575897    0.000003718059    -0.028646781505    -0.059382051821    0.000001498792    0.000003761254
            0.000001575897    0.000003718059    -0.017364814455    -0.092614354127    0.000000998665    0.000003136005    0.004628900536    -0.072392393824
            -0.028646781505    -0.059382051821    0.000000998665    0.000003136005    -0.053010455798    -0.068644794462    0.000000880671    0.000003065025
            0.000001498792    0.000003761254    0.004628900536    -0.072392393824    0.000000880671    0.000003065025    -0.016173488035    -0.094029994176
0.500     -0.071707925609    -0.052543006539    0.000002332852    0.000003534205    -0.045790481100    -0.049613581515    0.000002259710    0.000003595752
            0.000002332852    0.000003534205    -0.035845808316    -0.088556530044    0.000001629261    0.000003059283    -0.010810025351    -0.072009987547
            -0.045790481100    -0.049613581515    0.000001629261    0.000003059283    -0.071282605560    -0.054044111967    0.000001497000    0.000003008093
            0.000002259710    0.000003595752    -0.010810025351    -0.072009987547    0.000001497000    0.000003008093    -0.034617661817    -0.090389790212
0.525     -0.086742352874    -0.033558781663    0.000003060690    0.000003190225    -0.061220892103    -0.035891259113    0.000002998172    0.000003271045
            0.000003060690    0.000003190225    -0.053730948923    -0.080846535846    0.000002256718    0.000002851630    -0.026377821050    -0.068518941037
            -0.061220892103    -0.035891259113    0.000002256718    0.000002851630    -0.086994441620    -0.035392361799    0.000002117152    0.000002825318
            0.000002998172    0.000003271045    -0.026377821050    -0.068518941037    0.000002117152    0.000002825318    -0.052578579088    -0.083135103343
0.550     -0.097850720672    -0.011286496762    0.000003728360    0.000002693045    -0.072864544315    -0.019760906721    0.000003681972    0.000002790351
            0.000003728360    0.000002693045    -0.070255086874    -0.069695800909    0.000002805143    0.000002538249    -0.041422394519    -0.061945658894
            -0.072864544315    -0.019760906721    0.000002805143    0.000002538249    -0.096863411684    -0.015079702659    0.000002663810    0.000002537090
            0.000003681972    0.000002790351    -0.041422394519    -0.061945658894    0.000002663810    0.000002537090    -0.069310999832    -0.072371448529
0.575     -0.104235571522    0.013420530603    0.000004306172    0.000002053218    -0.081675521619    0.000699855422    0.000004278197    0.000002162229
            0.000004306172    0.000002053218    -0.084825889325    -0.055430515854    0.000003341246    0.000002056730    -0.055371277319    -0.052420735201
            -0.081675521619    0.000699855422    0.000003341246    0.000002056730    -0.103913386604    0.010335705092    0.000003203744    0.000002080209
            0.000004278197    0.000002162229    -0.055371277319    -0.052420735201    0.000003203744    0.000002080209    -0.084106840295    -0.058361930556
0.600     -0.105255705811    0.039342252194    0.000004760711    0.000001289627    -0.086211132594    0.022442741402    0.000004752696    0.000001406915
            0.000004760711    0.000001289627    -0.096852153482    -0.038368245248    0.000003787810    0.000001483871    -0.067644570384    -0.040133258568
            -0.086211132594    0.022442741402    0.000003787810    0.000001483871    -0.105809089558    0.036075485679    0.000003657652    0.000001531223
            0.000004752696    0.000001406915    -0.067644570384    -0.040133258568    0.000003657652    0.000001531223    -0.096331650744    -0.041525735509
0.625     -0.101317213702    0.064677671369    0.000005071273    0.000000441050    -0.086483484310    0.044682538244    0.000005085163    0.000000563294
            0.000005071273    0.000000441050    -0.105728048129    -0.019027383822    0.000004126993    0.000000820498    -0.077661477354    -0.025446649195
            -0.086483484310    0.044682538244    0.000004126993    0.000000820498    -0.102456343157    0.061872487725    0.000004009288    0.000000890520
            0.000005085163    0.000000563294    -0.077661477354    -0.025446649195    0.000004009288    0.000000890520    -0.105445500822    -0.022420461812
0.650     -0.092605182763    0.089420726594    0.000005226176    -0.000000479253    -0.082399718110    0.067085280476    0.000005264169    -0.000000356054
            0.000005226176    -0.000000479253    -0.111013202813    0.001908690133    0.000004341087    0.000000088069    -0.084958787225    -0.008864633522
            -0.082399718110    0.067085280476    0.000004341087    0.000000088069    -0.093989229509    0.086645668800    0.000004240992    0.000000178122
            0.000005264169    -0.000000356054    -0.084958787225    -0.008864633522    0.000004240992    0.000000178122    -0.111033717931    -0.001706439389
0.675     -0.079005811955    0.112082163645    0.000005204321    -0.000001433788    -0.073882573035    0.088444344282    0.000005267575    -0.000001314699
            0.000005204321    -0.000001433788    -0.112443105663    0.023684923378    0.000004419086    -0.000000687543    -0.089197174546    0.009031174691
            -0.073882573035    0.088444344282    0.000004419086    -0.000000687543    -0.080804098872    0.109326603194    0.000004341032    -0.000000581358
            0.000005267575    -0.000001314699    -0.089197174546    0.009031174691    0.000004341032    -0.000000581358    -0.112826386722    0.019887392164
0.700     -0.061258715286    0.131629120430    0.000005003278    -0.000002385326    -0.061375438756    0.107849444802    0.000005091539    -0.000002275646
            0.000005003278    -0.000002385326    -0.109924681647    0.045521662633    0.000004354746    -0.000001479713    -0.090176271250    0.027614680109
            -0.061375438756    0.107849444802    0.000004354746    -0.000001479713    -0.063510616187    0.128991894587    0.000004302081    -0.000001362172
            0.000005091539    -0.000002275646    -0.090176271250    0.027614680109    0.000004302081    -0.000001362172    -0.110715461848    0.041599240186
0.725     -0.040196262235    0.147315580763    0.000004627708    -0.000003300341    -0.045430885304    0.124560723131    0.000004739417    -0.000003205419
            0.000004627708    -0.000003300341    -0.103526884375    0.066644130299    0.000004148052    -0.000002262315    -0.087824843490    0.046238713169
            -0.045430885304    0.124560723131    0.000004148052    -0.000002262315    -0.042889234022    0.144894980268    0.000004122995    -0.000002138701
            0.000004739417    -0.000003205419    -0.087824843490    0.046238713169    0.000004122995    -0.000002138701    -0.104753115242    0.062666953824
0.750     -0.016744799696    0.158615718519    0.000004087458    -0.000004147217    -0.026713931707    0.137998776013    0.000004219929    -0.000004071846
            0.000004087458    -0.000004147217    -0.093474728607    0.086320539879    0.000003802895    -0.000003009998    -0.082209024545    0.064269036421
            -0.026713931707    0.137998776013    0.000003802895    -0.000003009998    -0.019838416972    0.156499951541    0.000003806466    -0.000002886047
            0.000004219929    -0.000004071846    -0.082209024545    0.064269036421    0.000003806466    -0.000002886047    -0.095146583193    0.082364681254
0.775     0.008115089521    0.165223570447    0.000003397851    -0.000004898611    -0.005962982128    0.147744035322    0.000003547503    -0.000004846931
            0.000003397851    -0.000004898611    -0.080131751874    0.103886754679    0.000003327908    -0.000003700249    -0.073513475844    0.081103334427
            -0.005962982128    0.147744035322    0.000003327908    -0.000003700249    0.004680838682    0.163488325117    0.000003360086    -0.000003581560
