# GHz S RI R 45
0.000     0.012552374621    0.001934159413    0.000000440800    0.000000964809    0.000662975497    0.001653962700    0.000000463815    0.000001042520
            0.000000440800    0.000000964809    0.011497991169    0.001928123633    0.000000490084    0.000001051696    0.000597451739    0.001651024074
            0.000662975410    0.001653962734    0.000000490088    0.000001051696    0.012504370987    0.001921648426    0.000000503682    0.000001140099
            0.000000463856    0.000001042520    0.000597451561    0.001651024033    0.000000503671    0.000001140098    0.011459670044    0.001936919730
0.025     0.016744246852    0.010887041752    0.000001036966    0.000002089100    0.002235003023    0.009645949561    0.000001103674    0.000002231990
            0.000001036966    0.000002089094    0.015236770359    0.009857545641    0.000001141100    0.000002326072    0.001983194788    0.008673857118
            0.002232397854    0.009648723291    0.000001141100    0.000002326077    0.016671303658    0.010827380888    0.000001196993    0.000002425044
            0.000001103675    0.000002231989    0.001981966022    0.008673529688    0.000001196995    0.000002425047    0.015170110119    0.009811262391
0.050     0.022954966962    0.018002782115    0.000002371113    0.000003594489    0.006688380370    0.018245602332    0.000002532359    0.000003836829
            0.000002371113    0.000003594489    0.020859338492    0.016361140544    0.000002590555    0.000004013252    0.005939519925    0.016476965502
            0.006688346071    0.018245631946    0.000002590555    0.000004013252    0.022850984379    0.017874186192    0.000002747094    0.000004171852
            0.000002532359    0.000003836829    0.005939514800    0.016476968413    0.000002747094    0.000004171852    0.020790388719    0.016294317324
0.075     0.030913172405    0.022813845733    0.000004201693    0.000004544312    0.013509161161    0.025074879074    0.000004493602    0.000004850688
            0.000004201693    0.000004544312    0.028111881160    0.020902271148    0.000004576870    0.000005100864    0.012049500759    0.022811558044
            0.013509153611    0.025074879733    0.000004576870    0.000005100864    0.030761883689    0.022644893351    0.000004875919    0.000005279906
            0.000004493602    0.000004850689    0.012049468042    0.022811515386    0.000004875919    0.000005279906    0.028043039243    0.020810147415
0.100     0.040203129870    0.024909547396    0.000006375652    0.000004844947    0.022095239876    0.029594570293    0.000006826324    0.000005173463
            0.000006375652    0.000004844947    0.036712579662    0.023133884431    0.000006937039    0.000005489820    0.019849313677    0.027217902224
            0.022095239876    0.029594570293    0.000006937039    0.000005489820    0.039996787837    0.024721734652    0.000007410790    0.000005642412
            0.000006826324    0.000005173463    0.019849314266    0.027217903032    0.000007410790    0.000005642412    0.036648686312    0.023022303939
0.125     0.049974492770    0.023885687492    0.000008703822    0.000004411725    0.031752813400    0.031425927387    0.000009330924    0.000004713161
            0.000008703822    0.000004411725    0.046035432979    0.022630347103    0.000009470198    0.000005087997    0.028800380182    0.029351947732
            0.031752813400    0.031425927387    0.000009470198    0.000005087997    0.049713389587    0.023693523012    0.000010138970    0.000005158734
            0.000009330924    0.000004713161    0.028800380182    0.029351947732    0.000010138970    0.000005158734    0.045986365273    0.022494691442
0.150     0.059559018807    0.019772946338    0.000010977517    0.000003234646    0.041722677839    0.030337196936    0.000011785877    0.000003457162
            0.000010977517    0.000003234646    0.055458138752    0.019427071105    0.000011952150    0.000003883673    0.038312248276    0.028954579518
            0.041722677839    0.030337196936    0.000011952150    0.000003883673    0.059255890783    0.019610045549    0.000012821719    0.000003813826
            0.000011785877    0.000003457162    0.038312248276    0.028954579518    0.000012821719    0.000003813826    0.055436663628    0.019281312328
0.175     0.068026994239    0.012619472254    0.000012997748    0.000001341031    0.051207501171    0.026309676624    0.000013979501    0.000001431649
            0.000012997748    0.000001341031    0.064287356288    0.013458888062    0.000014170017    0.000001904293    0.047740595018    0.025934409859
            0.051207501171    0.026309676624    0.000014170017    0.000001904293    0.067702163354    0.012506098258    0.000015231766    0.000001633366
            0.000013979501    0.000001431649    0.047740595018    0.025934409859    0.000015231766    0.000001633366    0.064310007179    0.013303607159
0.200     0.074540256815    0.002758255349    0.000014580649    -0.000001190596    0.059436760785    0.019527521856    0.000015715732    -0.000001282825
            0.000014580649    -0.000001190596    0.071818266552    0.004875175923    0.000015926469    -0.000000768305    0.056445228242    0.020352829165
            0.059436760785    0.019527521856    0.000015926469    -0.000000768305    0.074220660444    0.002705948176    0.000017157761    -0.000001298922
            0.000015715732    -0.000001282825    0.056445228242    0.020352829165    0.000017157761    -0.000001298922    0.071902730091    0.004703989647
0.225     0.078368968469    -0.009277322910    0.000015564771    -0.000004242950    0.065702179211    0.010356031078    0.000016820700    -0.000004564641
            0.000015564771    -0.000004242950    0.077388826341    -0.006003264656    0.000017047027    -0.000004011077    0.063812464428    0.012411767117
            0.065702179211    0.010356031078    0.000017047027    -0.000004011077    0.078085817894    -0.009267011479    0.000018410891    -0.000004855420
            0.000016820700    -0.000004564641    0.063812464428    0.012411767117    0.000018410891    -0.000004855420    0.077553210560    -0.006203052561
0.250     0.078945399042    -0.022774874895    0.000015823383    -0.000007663246    0.069404431115    -0.000676906916    0.000017156935    -0.000008253868
            0.000015823383    -0.000007663246    0.080438910953    -0.018691083490    0.000017394078    -0.000007662637    0.069292314208    0.002446330549
            0.069404431115    -0.000676906916    0.000017394078    -0.000007662637    0.078731690833    -0.022710345216    0.000018840954    -0.000008866940
            0.000017156935    -0.000008253868    0.069292314208    0.002446330549    0.000018840954    -0.000008866940    0.080699556874    -0.018938457812
0.275     0.075878679777    -0.036894593486    0.000015265014    -0.000011273789    0.070076305359    -0.012906809820    0.000016623505    -0.000012163475
            0.000015265014    -0.000011273789    0.080525166860    -0.032585847279    0.000016866415    -0.000011534722    0.072414324314    -0.009091440595
            0.070076305359    -0.012906809820    0.000016866415    -0.000011534722    0.075766099727    -0.036795388436    0.000018335597    -0.000013134824
            0.000016623505    -0.000012163475    0.072414324314    -0.009091440595    0.000018335597    -0.000013134824    0.080895106678    -0.032905531527
0.300     0.068998939326    -0.050710879148    0.000013842400    -0.000014879548    0.067419786421    -0.025567824759    0.000015165798    -0.000016087159
            0.000013842400    -0.000014879548    0.077360208471    -0.046991133120    0.000015409845    -0.000015419768    0.072820618964    -0.021653817284
            0.067419786421    -0.025567824759    0.000015409845    -0.000015419768    0.069014361657    -0.050607815101    0.000016831880    -0.000017438736
            0.000015165798    -0.000016087159    0.072820618964    -0.021653817284    0.000016831880    -0.000017438736    0.077847073758    -0.047413988796
0.325     0.058356470403    -0.063262017578    0.000011550226    -0.000018275588    0.061319835569    -0.037824716984    0.000012773507    -0.000019807091
            0.000011550226    -0.000018275588    0.070810787130    -0.061155237034    0.000013014450    -0.000019099217    0.070273932955    -0.034618027344
            0.061319835569    -0.037824716984    0.000013014450    -0.000019099217    0.058518834760    -0.063195201434    0.000014313536    -0.000021545337
            0.000012773507    -0.000019807091    0.070273932955    -0.034618027344    0.000014313536    -0.000021545337    0.071415336772    -0.061716517638
0.350     0.044242741726    -0.073608207552    0.000008431651    -0.000021258476    0.051866335513    -0.048822457182    0.000009487451    -0.000023105814
            0.000008431651    -0.000021258476    0.060921499266    -0.074308234669    0.000009721591    -0.000022354875    0.064680900364    -0.047318861456
            0.051866335513    -0.048822457182    0.000009721591    -0.000022354875    0.044559717194    -0.073625790976    0.000010819055    -0.000025220379
            0.000009487451    -0.000023105814    0.064680900364    -0.047318861456    0.000010819055    -0.000025220379    0.061635482044    -0.075046250911
0.375     0.027173545177    -0.080879745615    0.000004574848    -0.000023632668    0.039355373310    -0.057724502048    0.000005396421    -0.000025773159
            0.000004574848    -0.000023632668    0.047903161848    -0.085693671064    0.000005620655    -0.000024976485    0.056092435362    -0.059070905904
            0.039355373310    -0.057724502048    0.000005620655    -0.000024976485    0.027638865395    -0.081034414366    0.000006437906    -0.000028236519
            0.000005396421    -0.000025773159    0.056092435362    -0.059070905904    0.000006437906    -0.000028236519    0.048708008155    -0.086648107388
0.400     0.007879396100    -0.084340628264    0.000000115157    -0.000025225901    0.024288781296    -0.063774689449    0.000000639341    -0.000027621993
            0.000000115157    -0.000025225901    0.032137091148    -0.094613402815    0.000000851481    -0.000026777635    0.044712633357    -0.069210956067
            0.024288781296    -0.063774689449    0.000000851481    -0.000026777635    0.008470474904    -0.084686538408    0.000001313635    -0.000030390000
            0.000000639341    -0.000027621993    0.044712633357    -0.069210956067    0.000001313635    -0.000030390000    0.033002679231    -0.095822769291
0.425     -0.012730214629    -0.083432354600    -0.000004769226    -0.000025897071    0.007354518309    -0.066336854168    -0.000004599887    -0.000028496484
            -0.000004769226    -0.000025897071    0.014154936892    -0.100454654732    -0.000004399207    -0.000027604917    0.030889049284    -0.077119186637
            0.007354518309    -0.066336854168    -0.000004399207    -0.000027604917    -0.012054172257    -0.084020196949    -0.000004361353    -0.000031509617
            -0.000004599887    -0.000028496484    0.030889049284    -0.077119186637    -0.000004361353    -0.000031509617    0.015038357250    -0.101954089394
0.450     -0.033611940782    -0.077828604709    -0.000009855423    -0.000025550205    -0.010606551978    -0.064955148793    -0.000010092486    -0.000028287457
            -0.000009855423    -0.000025550205    -0.005378879084    -0.102732352212    -0.000009890914    -0.000027351312    0.015103188420    -0.082264084104
            -0.010606551978    -0.064955148793    -0.000009890914    -0.000027351312    -0.032912195668    -0.078700587275    -0.000010343198    -0.000031472808
            -0.000010092486    -0.000028287457    0.015103188420    -0.082264084104    -0.000010343198    -0.000031472808    -0.004536117374    -0.104550862674
0.475     -0.053645656127    -0.067460850738    -0.000014888383    -0.000024106609    -0.028646781505    -0.059382051821    -0.000015577481    -0.000026914545
            -0.000014888383    -0.000024106609    -0.025697851808    -0.101107792186    -0.000015348248    -0.000025907001    -0.002052998206    -0.084219239921
            -0.028646781505    -0.059382051821    -0.000015348248    -0.000025907001    -0.053010455798    -0.068644794462    -0.000016352221    -0.000030174943
            -0.000015577481    -0.000026914545    -0.002052998206    -0.084219239921    -0.000016352221    -0.000030174943    -0.024975731633    -0.103268056415
0.500     -0.071707925609    -0.052543006539    -0.000019673504    -0.000021552842    -0.045790481100    -0.049613581515    -0.000020836573    -0.000024361214
            -0.000019673504    -0.000021552842    -0.045969279665    -0.095419108134    -0.000020604575    -0.000023243820    -0.019919743065    -0.082704194900
            -0.045790481100    -0.049613581515    -0.000020604575    -0.000023243820    -0.071282605560    -0.054044111967    -0.000022181827    -0.000027584970
            -0.000020836573    -0.000024361214    -0.019919743065    -0.082704194900    -0.000022181827    -0.000027584970    -0.045500682917    -0.097943590836
0.525     -0.086742352874    -0.033558781663    -0.000023976603    -0.000018000925    -0.061220892103    -0.035891259113    -0.000025661958    -0.000020728688
            -0.000023976603    -0.000018000925    -0.065333913324    -0.085683605142    -0.000025446506    -0.000019511160    -0.037914339260    -0.077644887271
            -0.061220892103    -0.035891259113    -0.000025446506    -0.000019511160    -0.086994441620    -0.035392361799    -0.000027653268    -0.000023829472
            -0.000025661958    -0.000020728688    -0.037914339260    -0.077644887271    -0.000027653268    -0.000023829472    -0.065536390906    -0.088731839498
0.550     -0.097850720672    -0.011286496762    -0.000027561651    -0.000013593678    -0.072864544315    -0.019760906721    -0.000029470781    -0.000016363904
            -0.000027561651    -0.000013593678    -0.082945930715    -0.072126954998    -0.000029264187    -0.000015050152    -0.053777613453    -0.069566097956
            -0.072864544315    -0.019760906721    -0.000029264187    -0.000015050152    -0.096863411684    -0.015079702659    -0.000031740559    -0.000019468193
            -0.000029470781    -0.000016363904    -0.053777613453    -0.069566097956    -0.000031740559    -0.000019468193    -0.081383325119    -0.076413658730
0.575     -0.104235571522    0.013420530603    -0.000030222239    -0.000008464885    -0.081675521619    0.000699855422    -0.000032590860    -0.000010850375
            -0.000030222239    -0.000008464885    -0.097996631806    -0.055056561385    -0.000032385335    -0.000009436141    -0.069391697584    -0.056947747229
            -0.081675521619    0.000699855422    -0.000032385335    -0.000009436141    -0.103913386604    0.010335705092    -0.000035440483    -0.000013472105
            -0.000032590860    -0.000010850375    -0.069391697584    -0.056947747229    -0.000035440483    -0.000013472105    -0.097456713623    -0.058831553741
0.600     -0.105255705811    0.039342252194    -0.000031767253    -0.000002858698    -0.086211132594    0.022442741402    -0.000034562070    -0.000004916080
            -0.000031767253    -0.000002858698    -0.109563333302    -0.035025167389    -0.000034348233    -0.000003396268    -0.082380174625    -0.041782513231
            -0.086211132594    0.022442741402    -0.000034348233    -0.000003396268    -0.105809089558    0.036075485679    -0.000037939030    -0.000007116635
            -0.000034562070    -0.000004916080    -0.082380174625    -0.041782513231    -0.000037939030    -0.000007116635    -0.109850213526    -0.039185802819
0.625     -0.101317213702    0.064677671369    -0.000032273315    0.000002792998    -0.086483484310    0.044682538244    -0.000035393551    0.000001204039
            -0.000032273315    0.000002792998    -0.117331908781    -0.013552668096    -0.000035161600    0.000002835552    -0.092507489447    -0.024551644254
            -0.086483484310    0.044682538244    -0.000035161600    0.000002835552    -0.102456343157    0.061872487725    -0.000039182278    -0.000000395223
            -0.000035393551    0.000001204039    -0.092507489447    -0.024551644254    -0.000039182278    -0.000000395223    -0.118435184381    -0.017381702843
0.650     -0.092605182763    0.089420726594    -0.000031780820    0.000008588716    -0.082399718110    0.067085280476    -0.000035103128    0.000007453518
            -0.000031780820    0.000008588716    -0.121498569050    0.009561931393    -0.000034840008    0.000009200957    -0.099599467110    -0.005268020053
            -0.082399718110    0.067085280476    -0.000034840008    0.000009200957    -0.093989229509    0.086645668800    -0.000039142102    0.000006450275
            -0.000035103128    0.000007453518    -0.099599467110    -0.005268020053    -0.000039142102    0.000006450275    -0.122886596640    0.005840906425
0.675     -0.079005811955    0.112082163645    -0.000030172787    0.000014199471    -0.073882573035    0.088444344282    -0.000033638768    0.000013540242
            -0.000030172787    0.000014199471    -0.121235422453    0.033323420142    -0.000033330664    0.000015405539    -0.103018278879    0.015267977619
            -0.073882573035    0.088444344282    -0.000033330664    0.000015405539    -0.080804098872    0.109326603194    -0.000037847509    0.000013163501
            -0.000033638768    0.000013540242    -0.103018278879    0.015267977619    -0.000037847509    0.000013163501    -0.123015070363    0.029632283578
0.700     -0.061258715286    0.131629120430    -0.000027571480    0.000019395661    -0.061375438756    0.107849444802    -0.000031104356    0.000019235057
            -0.000027571480    0.000019395661    -0.116599997150    0.056720332808    -0.000030736631    0.000021217489    -0.102656924403    0.036255381540
            -0.061375438756    0.107849444802    -0.000030736631    0.000021217489    -0.063510616187    0.128991894587    -0.000035379865    0.000019515228
            -0.000031104356    0.000019235057    -0.102656924403    0.036255381540    -0.000035379865    0.000019515228    -0.118810493046    0.053128684783
0.725     -0.040196262235    0.147315580763    -0.000024110152    0.000024013528    -0.045430885304    0.124560723131    -0.000027626690    0.000024359949
            -0.000024110152    0.000024013528    -0.107801853331    0.078895302412    -0.000027184286    0.000026455751    -0.098530902135    0.056950764458
            -0.045430885304    0.124560723131    -0.000027184286    0.000026455751    -0.042889234022    0.144894980268    -0.000031856679    0.000025308189
            -0.000027626690    0.000024359949    -0.098530902135    0.056950764458    -0.000031856679    0.000025308189    -0.110437015427    0.075488630564
0.750     -0.016744799696    0.158615718519    -0.000019938047    0.000027931390    -0.026713931707    0.137998776013    -0.000023354769    0.000028778808
            -0.000019938047    0.000027931390    -0.095199294036    0.099075174181    -0.000022822955    0.000030980783    -0.090799721977    0.076649604372
            -0.026713931707    0.137998776013    -0.000022822955    0.000030980783    -0.019838416972    0.156499951541    -0.000027425439    0.000030385677
            -0.000023354769    0.000028778808    -0.090799721977    0.076649604372    -0.000027425439    0.000030385677    -0.098226063533    0.095936198861
0.775     0.008115089521    0.165223570447    -0.000015210377    0.000031064639    -0.005962982128    0.147744035322    -0.000018446133    0.000032393562
            -0.000015210377    0.000031064639    -0.079286538542    0.116586219479    -0.000017811436    0.000034691165    -0.079743805651    0.094700658604
            -0.005962982128    0.147744035322    -0.000017811436    0.000034691165    0.004680838682    0.163488325117    -0.000022246167    0.000034629454
