# GHz S RI R 45
0.000     0.012552374621    0.001934159413    0.000000329851    0.000001141838    0.000662975497    0.001653962700    0.000000321015    0.000001134107
            0.000000329851    0.000001141838    0.013328058365    0.001495108709    0.000000356383    0.000001178199    0.000662908101    0.001404491495
            0.000662975410    0.001653962734    0.000000356383    0.000001178199    0.012504370987    0.001921648426    0.000000358146    0.000001187383
            0.000000321015    0.000001134107    0.000662907433    0.001404491478    0.000000358146    0.000001187383    0.013263700280    0.001499218785
0.025     0.016744246852    0.010887041752    0.000000920027    0.000002523570    0.002235003023    0.009645949561    0.000000898929    0.000002509378
            0.000000920023    0.000002523572    0.016845332968    0.010860070586    0.000000971120    0.000002604946    0.001873197945    0.009932292880
            0.002232397854    0.009648723291    0.000000971119    0.000002604947    0.016671303658    0.010827380888    0.000000971188    0.000002627141
            0.000000898928    0.000002509379    0.001875588808    0.009931947511    0.000000971189    0.000002627140    0.016790327776    0.010924717435
0.050     0.022954966962    0.018002782115    0.000002194283    0.000004426650    0.006688380370    0.018245602332    0.000002159719    0.000004415910
            0.000002194283    0.000004426651    0.021587600255    0.018370789709    0.000002288682    0.000004561127    0.005358640395    0.019095792312
            0.006688346071    0.018245631946    0.000002288682    0.000004561127    0.022850984379    0.017874186192    0.000002294364    0.000004610972
            0.000002159720    0.000004415910    0.005358675047    0.019095799206    0.000002294364    0.000004610972    0.021550779174    0.018500975357
0.075     0.030913172405    0.022813845733    0.000003869941    0.000005899025    0.013509161161    0.025074879074    0.000003827357    0.000005895648
            0.000003869941    0.000005899025    0.027335171118    0.024257677878    0.000004013406    0.000006072260    0.010702270882    0.026977056253
            0.013509153611    0.025074879733    0.000004013406    0.000006072260    0.030761883689    0.022644893351    0.000004033456    0.000006147746
            0.000003827357    0.000005895648    0.010702285603    0.026977059020    0.000004033456    0.000006147746    0.027333618412    0.024453572218
0.100     0.040203129870    0.024909547396    0.000005885751    0.000006913041    0.022095239876    0.029594570293    0.000005838060    0.000006919281
            0.000005885751    0.000006913040    0.033863696937    0.028356723575    0.000006084606    0.000007113022    0.017450844011    0.033213664829
            0.022095239876    0.029594570293    0.000006084606    0.000007113022    0.039996787837    0.024721734652    0.000006125715    0.000007211152
            0.000005838060    0.000006919281    0.017450843431    0.033213665134    0.000006125715    0.000007211152    0.033913608628    0.028609519299
0.125     0.049974492770    0.023885687492    0.000008139733    0.000007424332    0.031752813400    0.031425927387    0.000008090088    0.000007441943
            0.000008139733    0.000007424332    0.040573062324    0.030477789360    0.000008397809    0.000007638265    0.025114245050    0.037586745879
            0.031752813400    0.031425927387    0.000008397809    0.000007638265    0.049713389587    0.023693523012    0.000008466188    0.000007754984
            0.000008090088    0.000007441943    0.025114245050    0.037586745879    0.000008466188    0.000007754984    0.040680753840    0.030771986979
0.150     0.059559018807    0.019772946338    0.000010520203    0.000007419839    0.041722677839    0.030337196936    0.000010471918    0.000007449535
            0.000010520203    0.000007419839    0.047130734494    0.030808931269    0.000010840904    0.000007636353    0.033151440557    0.039951932336
            0.041722677839    0.030337196936    0.000010840904    0.000007636353    0.059255890783    0.019610045549    0.000010942077    0.000007766023
            0.000010471918    0.000007449535    0.033151471407    0.039951918433    0.000010942076    0.000007766023    0.047313698723    0.031133924395
0.175     0.068026994239    0.012619472254    0.000012931037    0.000006910293    0.051207501171    0.026309676624    0.000012887394    0.000006951767
            0.000012931037    0.000006910293    0.052970862241    0.029464765221    0.000013315070    0.000007117580    0.041014977399    0.040347633378
            0.051207501171    0.026309676624    0.000013315070    0.000007117580    0.067702163354    0.012506098258    0.000013453536    0.000007253407
            0.000012887394    0.000006951767    0.041014994352    0.040347624700    0.000013453536    0.000007253407    0.053240142670    0.029801532512
0.200     0.074540256815    0.002758255349    0.000015293378    0.000005921833    0.059436760785    0.019527521856    0.000015257492    0.000005973886
            0.000015293378    0.000005921833    0.057617352093    0.026766646201    0.000015739748    0.000006109309    0.048196520650    0.038959965226
            0.059436760785    0.019527521856    0.000015739748    0.000006109309    0.074220660444    0.002705948176    0.000015918832    0.000006243571
            0.000015257492    0.000005973886    0.048196520650    0.038959965226    0.000015918832    0.000006243571    0.057977785132    0.027092015154
0.225     0.078368968469    -0.009277322910    0.000017544575    0.000004482426    0.065702179211    0.010356031078    0.000017519290    0.000004543106
            0.000017544575    0.000004482426    0.060726749837    0.023156581085    0.000018051451    0.000004640553    0.054261414082    0.036097844475
            0.065702179211    0.010356031078    0.000018051451    0.000004640553    0.078085817894    -0.009267011479    0.000018273005    0.000004764609
            0.000017519290    0.000004543106    0.054261414082    0.036097844475    0.000018273005    0.000004764609    0.061176845244    0.023444989501
0.250     0.078945399042    -0.022774874895    0.000019635929    0.000002619946    0.069404431115    -0.000676906916    0.000019623254    0.000002686611
            0.000019635929    0.000002619946    0.062100799608    0.019169842412    0.000020201425    0.000002739979    0.058879142777    0.032177708501
            0.069404431115    -0.000676906916    0.000020201425    0.000002739979    0.078731690833    -0.022710345216    0.000020465378    0.000002844690
            0.000019623254    0.000002686611    0.058879142777    0.032177708501    0.000020465378    0.000002844690    0.062631715891    0.019395196177
0.275     0.075878679777    -0.036894593486    0.000021526220    0.000000353316    0.070076305359    -0.012906809820    0.000021527360    0.000000422901
            0.000021526220    0.000000353316    0.061704191148    0.015371939952    0.000022148157    0.000000426605    0.061844105986    0.027685966590
            0.070076305359    -0.012906809820    0.000022148157    0.000000426605    0.075766099727    -0.036795388436    0.000022452951    0.000000502640
            0.000021527360    0.000000422901    0.061844105986    0.027685966590    0.000022452951    0.000000502640    0.062299707247    0.015509676341
0.300     0.068998939326    -0.050710879148    0.000023174947    -0.000002306429    0.067419786421    -0.025567824759    0.000023190283    -0.000002237188
            0.000023174947    -0.000002306429    0.059664907585    0.012329994190    0.000023851319    -0.000002288898    0.063094266757    0.023153273304
            0.067419786421    -0.025567824759    0.000023851319    -0.000002288898    0.069014361657    -0.050607815101    0.000024193303    -0.000002250632
            0.000023190283    -0.000002237188    0.063094266757    0.023153273304    0.000024193303    -0.000002250632    0.060301130993    0.012358898902
0.325     0.058356470403    -0.063262017578    0.000024533375    -0.000005357165    0.061319835569    -0.037824716984    0.000024562534    -0.000005291261
            0.000024533375    -0.000005357165    0.056269937734    0.010555046598    0.000025261651    -0.000005405262    0.062715493498    0.019108762841
            0.061319835569    -0.037824716984    0.000025261651    -0.000005405262    0.058518834760    -0.063195201434    0.000025635597    -0.000005413337
            0.000024562534    -0.000005291261    0.062715493498    0.019108762841    0.000025635597    -0.000005413337    0.056916142895    0.010459771719
0.350     0.044242741726    -0.073608207552    0.000025538317    -0.000008798013    0.051866335513    -0.048822457182    0.000025580317    -0.000008738328
            0.000025538317    -0.000008798013    0.051949128841    0.010474366623    0.000026315390    -0.000008922912    0.060946395300    0.016048985051
            0.051866335513    -0.048822457182    0.000026315390    -0.000008922912    0.044559717194    -0.073625790976    0.000026714201    -0.000008984989
            0.000025580317    -0.000008738328    0.060946395300    0.016048985051    0.000026714201    -0.000008984989    0.052568874388    0.010247442902
0.375     0.027173545177    -0.080879745615    0.000026107078    -0.000012622202    0.039355373310    -0.057724502048    0.000026160250    -0.000012571174
            0.000026107078    -0.000012622202    0.047248803349    0.012381509064    0.000026927973    -0.000012836615    0.058162199128    0.014387951578
            0.039355373310    -0.057724502048    0.000026927973    -0.000012836615    0.027638865395    -0.081034414366    0.000027343240    -0.000012959173
            0.000026160250    -0.000012571174    0.058162199128    0.014387951578    0.000027343240    -0.000012959173    0.047802147563    0.012025468204
0.400     0.007879396100    -0.084340628264    0.000026137176    -0.000016804462    0.024288781296    -0.063774689449    0.000026199469    -0.000016763888
            0.000026137176    -0.000016804462    0.042798649608    0.016416328411    0.000026994564    -0.000017122547    0.054857788590    0.014426752098
            0.024288781296    -0.063774689449    0.000026994564    -0.000017122547    0.008470474904    -0.084686538408    0.000027416609    -0.000017310570
            0.000026199469    -0.000016763888    0.054857788590    0.014426752098    0.000027416609    -0.000017310570    0.043244672823    0.015944995427
0.425     -0.012730214629    -0.083432354600    0.000025510869    -0.000021290334    0.007354518309    -0.066336854168    0.000025580122    -0.000021261740
            0.000025510869    -0.000021290334    0.039264605254    0.022532158577    0.000026393814    -0.000021727385    0.051608459900    0.016310379372
            0.007354518309    -0.066336854168    0.000026393814    -0.000021727385    -0.012054172257    -0.084020196949    0.000026811965    -0.000021984316
            0.000025580122    -0.000021261740    0.051608459900    0.016310379372    0.000026811965    -0.000021984316    0.039564907532    0.021970964156
0.450     -0.033611940782    -0.077828604709    0.000024105498    -0.000025985932    -0.010606551978    -0.064955148793    0.000024179295    -0.000025970378
            0.000024105498    -0.000025985932    0.037301104686    0.030492986715    0.000024998450    -0.000026558072    0.049030005730    0.020012923555
            -0.010606551978    -0.064955148793    0.000024998450    -0.000026558072    -0.032912195668    -0.078700587275    0.000025401343    -0.000026885680
            0.000024179295    -0.000025970378    0.049030005730    0.020012923555    0.000025401343    -0.000026885680    0.037423182437    0.029879205446
0.475     -0.053645656127    -0.067460850738    0.000021813030    -0.000030754053    -0.028646781505    -0.059382051821    0.000021889211    -0.000030752452
            0.000021813030    -0.000030754053    0.037490317261    0.039870346674    0.000022695035    -0.000031479054    0.047719347202    0.025317920069
            -0.028646781505    -0.059382051821    0.000022695035    -0.000031479054    -0.053010455798    -0.068644794462    0.000023071070    -0.000031877407
            0.000021889211    -0.000030752452    0.047719347202    0.025317920069    0.000023071070    -0.000031877407    0.037411127036    0.039251010601
0.500     -0.071707925609    -0.052543006539    0.000018557611    -0.000035402943    -0.045790481100    -0.049613581515    0.000018634070    -0.000035415409
            0.000018557611    -0.000035402943    0.040291811392    0.050072108747    0.000019399936    -0.000036303276    0.048204202610    0.031835350030
            -0.045790481100    -0.049613581515    0.000019399936    -0.000036303276    -0.071282605560    -0.054044111967    0.000019737502    -0.000036770272
            0.000018634070    -0.000035415409    0.048204202610    0.031835350030    0.000019737502    -0.000036770272    0.040001922983    0.049501307418
0.525     -0.086742352874    -0.033558781663    0.000014299576    -0.000039707049    -0.061220892103    -0.035891259113    0.000014373809    -0.000039733414
            0.000014299576    -0.000039707049    0.045988458472    0.060374448287    0.000015060738    -0.000040862342    0.050882323298    0.039019510636
            -0.061220892103    -0.035891259113    0.000015060738    -0.000040862342    -0.086994441620    -0.035392361799    0.000015348012    -0.000041394141
            0.000014373809    -0.000039733414    0.050882323298    0.039019510636    0.000015348012    -0.000041394141    0.045494599211    0.059910915915
0.550     -0.097850720672    -0.011286496762    0.000009078771    -0.000043429529    -0.072864544315    -0.019760906721    0.000009148034    -0.000043469584
            0.000009078771    -0.000043429529    0.054658296109    0.069983610349    0.000010129869    -0.000044534609    0.055987023571    0.046221485984
            -0.072864544315    -0.019760906721    0.000010129869    -0.000044534609    -0.096863411684    -0.015079702659    0.000010355186    -0.000045124383
            0.000009148034    -0.000043469584    0.055987023571    0.046221485984    0.000010355186    -0.000045124383    0.053984607537    0.069686333958
0.575     -0.104235571522    0.013420530603    0.000002972136    -0.000046308078    -0.081675521619    0.000699855422    0.000003033427    -0.000046360994
            0.000002972136    -0.000046308078    0.066151196138    0.078094268533    0.000003704033    -0.000047582052    0.063550388408    0.052737662473
            -0.081675521619    0.000699855422    0.000003704033    -0.000047582052    -0.103913386604    0.010335705092    0.000003855977    -0.000048223273
            0.000003033427    -0.000046360994    0.063550388408    0.052737662473    0.000003855977    -0.000048223273    0.065338370683    0.078019987038
0.600     -0.105255705811    0.039342252194    -0.000003816582    -0.000048095284    -0.086211132594    0.022442741402    -0.000003765943    -0.000048159256
            -0.000003816582    -0.000048095284    0.080102382797    0.083961716712    -0.000003252262    -0.000049598481    0.073407655548    0.057878356019
            -0.086211132594    0.022442741402    -0.000003252262    -0.000049598481    -0.105809089558    0.036075485679    -0.000003183411    -0.000050281151
            -0.000003765943    -0.000048159256    0.073407655548    0.057878356019    -0.000003183411    -0.000050281151    0.079204120612    0.084158846871
0.625     -0.101317213702    0.064677671369    -0.000010938410    -0.000048754257    -0.086483484310    0.044682538244    -0.000010899607    -0.000048828043
            -0.000010938410    -0.000048754257    0.095950788803    0.086958210513    -0.000010679707    -0.000050391912    0.085200877839    0.061018224494
            -0.086483484310    0.044682538244    -0.000010679707    -0.000050391912    -0.102456343157    0.061872487725    -0.000010702831    -0.000051104558
            -0.000010899607    -0.000048828043    0.085200879969    0.061018221520    -0.000010702831    -0.000051104558    0.095031557538    0.087461142245
0.650     -0.092605182763    0.089420726594    -0.000018361069    -0.000048183517    -0.082399718110    0.067085280476    -0.000018337680    -0.000048265731
            -0.000018361068    -0.000048183516    0.112992382055    0.086623774429    -0.000018321874    -0.000049859553    0.098423596889    0.061652572280
            -0.082399718110    0.067085280476    -0.000018321874    -0.000049859553    -0.093989229509    0.086645668800    -0.000018443681    -0.000050588747
            -0.000018337680    -0.000048265731    0.098423596889    0.061652572280    -0.000018443681    -0.000050588747    0.112123921965    0.087449297690
0.675     -0.079005811955    0.112082163645    -0.000025710740    -0.000046267337    -0.073882573035    0.088444344282    -0.000025704913    -0.000046354096
            -0.000025710740    -0.000046267337    0.130425300070    0.082692734756    -0.000025890006    -0.000047981758    0.112451418003    0.059424383425
            -0.073882573035    0.088444344282    -0.000025890006    -0.000047981758    -0.080804098872    0.109326603194    -0.000026115130    -0.000048712371
            -0.000025704913    -0.000046354096    0.112451418003    0.059424383425    -0.000026115130    -0.000048712371    0.129683747438    0.083838022624
0.700     -0.061258715286    0.131629120430    -0.000032695668    -0.000043084335    -0.061375438756    0.107849444802    -0.000032708683    -0.000043171464
            -0.000032695668    -0.000043084335    0.147417251438    0.075106939742    -0.000033105554    -0.000044809881    0.126604219640    0.054148510618
            -0.061375438756    0.107849444802    -0.000033105554    -0.000044809881    -0.063510616187    0.128991894587    -0.000033436283    -0.000045526010
            -0.000032708683    -0.000043171464    0.126604219640    0.054148510618    -0.000033436283    -0.000045526010    0.146879240888    0.076549581956
0.725     -0.040196262235    0.147315580763    -0.000039074019    -0.000038760375    -0.045430885304    0.124560723131    -0.000039106081    -0.000038843250
            -0.000039074019    -0.000038760375    0.163151305908    0.064008472429    -0.000039719470    -0.000040461945    0.140178761541    0.045807535607
            -0.045430885304    0.124560723131    -0.000039719470    -0.000040461945    -0.042889234022    0.144894980268    -0.000040155048    -0.000041146826
            -0.000039106081    -0.000038843250    0.140178761541    0.045807535607    -0.000040155048    -0.000041146826    0.162889639628    0.065707197298
0.750     -0.016744799696    0.158615718519    -0.000044648904    -0.000033464501    -0.026713931707    0.137998776013    -0.000044698900    -0.000033538283
            -0.000044648904    -0.000033464501    0.176882335273    0.049718342825    -0.000045526355    -0.000035105630    0.152503332720    0.034546396472
            -0.026713931707    0.137998776013    -0.000045526355    -0.000035105630    -0.019838416972    0.156499951541    -0.000046063239    -0.000035742493
            -0.000044698900    -0.000033538283    0.152503332720    0.034546396472    -0.000046063239    -0.000035742493    0.176959870806    0.051615800039
0.775     0.008115089521    0.165223570447    -0.000049277576    -0.000027398243    -0.005962982128    0.147744035322    -0.000049343212    -0.000027458462
            -0.000049277576    -0.000027398243    0.187962480970    0.032710427820    -0.000050376455    -0.000028943826    0.162957122345    0.020649441559
            -0.005962982128    0.147744035322    -0.000050376455    -0.000028943826    0.004680838682    0.163488325117    -0.000051007890    -0.000029516535
            -0.000049343212    -0.000027458462    0.162957122345    0.020649441559    -0.000051007890    -0.000029516535    0.188430422307    0.034733907208
