# GHz S RI R 45
0.000     0.012552374621    0.001934159413    0.000000371549    0.000000417502    0.000662975497    0.001653962700    0.000000229249    0.000000450428
            0.000000371549    0.000000417502    0.011083489401    0.001766537858    0.000009002106    0.000000426913    0.000524393202    0.001490647054
            0.000662975410    0.001653962734    0.000009002106    0.000000426913    0.012504370987    0.001921648426    0.000000402532    0.000000466192
            0.000000229249    0.000000450428    0.000524393391    0.001490647093    0.000000402532    0.000000466192    0.011042752032    0.001779826026
0.025     0.016744246852    0.010887041752    0.000000781470    0.000001501606    0.002235003023    0.009645949561    0.000000532613    0.000000959165
            0.000000781508    0.000001501587    0.014715509589    0.009088785189    0.000014664493    0.000057840458    0.001794377497    0.007966546047
            0.002232397854    0.009648723291    0.000014664495    0.000057840461    0.016671303658    0.010827380888    0.000000827616    0.000001618082
            0.000000532617    0.000000959167    0.001792838029    0.007965059299    0.000000827625    0.000001618103    0.014652682974    0.009070311585
0.050     0.022954966962    0.018002782115    0.000001742386    0.000002611119    0.006688380370    0.018245602332    0.000001176938    0.000001583615
            0.000001742387    0.000002611118    0.019948471902    0.015002536225    0.000031823516    0.000114172122    0.005405957123    0.015152357370
            0.006688346071    0.018245631946    0.000031823516    0.000114172122    0.022850984379    0.017874186192    0.000001814095    0.000002833923
            0.000001176938    0.000001583615    0.005405934674    0.015152306984    0.000001814095    0.000002833924    0.019889762940    0.014977787766
0.075     0.030913172405    0.022813845733    0.000002908046    0.000003211874    0.013509161161    0.025074879074    0.000001990898    0.000001913954
            0.000002908047    0.000003211874    0.026680359750    0.019146395603    0.000057560273    0.000164667976    0.010986198840    0.021036388182
            0.013509153611    0.025074879733    0.000057560273    0.000164667976    0.030761883689    0.022644893351    0.000003023920    0.000003541271
            0.000001990898    0.000001913954    0.010986191114    0.021036387705    0.000003023921    0.000003541271    0.026634619838    0.019118110965
0.100     0.040203129870    0.024909547396    0.000004083784    0.000003396388    0.022095239876    0.029594570293    0.000002881349    0.000001944735
            0.000004083784    0.000003396388    0.034693244965    0.021214096622    0.000090040761    0.000209551082    0.018142452196    0.025217230294
            0.022095239876    0.029594570293    0.000090040761    0.000209551082    0.039996787837    0.024721734652    0.000004273289    0.000003821790
            0.000002881349    0.000001944735    0.018142451755    0.025217230611    0.000004273289    0.000003821790    0.034670727130    0.021183998580
0.125     0.049974492770    0.023885687492    0.000005246036    0.000003338202    0.031752813400    0.031425927387    0.000003791050    0.000001696080
            0.000005246036    0.000003338202    0.043388227773    0.020810771089    0.000128478104    0.000251320144    0.026416569565    0.027384871830
            0.031752813400    0.031425927387    0.000128478104    0.000251320144    0.049713389587    0.023693523012    0.000005535708    0.000003833757
            0.000003791050    0.000001696080    0.026416579386    0.027384860967    0.000005535707    0.000003833757    0.043404402922    0.020776972283
0.150     0.059559018807    0.019772946338    0.000006297474    0.000003030433    0.041722677839    0.030337196936    0.000004630782    0.000001198314
            0.000006297474    0.000003030433    0.052366118793    0.017954081104    0.000173203857    0.000286793159    0.035302607107    0.027287659146
            0.041722677839    0.030337196936    0.000173203857    0.000286793159    0.059255890783    0.019610045549    0.000006711360    0.000003548140
            0.000004630782    0.000001198314    0.035302607107    0.027287659146    0.000006711360    0.000003548140    0.052427392145    0.017923408536
0.175     0.068026994239    0.012619472254    0.000007223210    0.000002577203    0.051207501171    0.026309676624    0.000005360305    0.000000498443
            0.000007223210    0.000002577203    0.060932847911    0.012532308969    0.000223233181    0.000315268243    0.044242293231    0.024818652336
            0.051207501171    0.026309676624    0.000223233181    0.000315268243    0.067702163354    0.012506098258    0.000007764972    0.000003047400
            0.000005360305    0.000000498443    0.044242293231    0.024818652336    0.000007764972    0.000003047400    0.061059338249    0.012504330897
0.200     0.074540256815    0.002758255349    0.000008069871    0.000002058670    0.059436760785    0.019527521856    0.000005968951    -0.000000358914
            0.000008069871    0.000002058670    0.068444579259    0.004660394212    0.000277556209    0.000336164842    0.052673725359    0.019999949866
            0.059436760785    0.019527521856    0.000277556209    0.000336164842    0.074220660444    0.002705948176    0.000008709540    0.000002399136
            0.000005968951    -0.000000358914    0.052673725359    0.019999949866    0.000008709540    0.000002399136    0.068658522005    0.004624908574
0.225     0.078368968469    -0.009277322910    0.000008923715    0.000001499415    0.065702179211    0.010356031078    0.000006467198    -0.000001350515
            0.000008923715    0.000001499415    0.074304995133    -0.005406411032    0.000335133801    0.000349001603    0.060050154480    0.012973838880
            0.065702179211    0.010356031078    0.000335133801    0.000349001603    0.078085817894    -0.009267011479    0.000009588539    0.000001630612
            0.000006467198    -0.000001350515    0.060050154254    0.012973839928    0.000009588539    0.000001630612    0.074626592671    -0.005467251228
0.250     0.078945399042    -0.022774874895    0.000009879563    0.000000853503    0.069404431115    -0.000676906916    0.000006873869    -0.000002483164
            0.000009879563    0.000000853503    0.077998615211    -0.017273618967    0.000394884515    0.000353387957    0.065871647920    0.003999249699
            0.069404431115    -0.000676906916    0.000394884515    0.000353387957    0.078731690833    -0.022710345216    0.000010452425    0.000000718521
            0.000006873869    -0.000002483164    0.065871647920    0.003999249699    0.000010452425    0.000000718521    0.078444611344    -0.017383120175
0.275     0.075878679777    -0.036894593486    0.000011002374    0.000000001093    0.070076305359    -0.012906809820    0.000007195278    -0.000003799087
            0.000011002374    0.000000001093    0.079099335837    -0.030441435984    0.000455667463    0.000349027676    0.069699317968    -0.006561235443
            0.070076305359    -0.012906809820    0.000455667463    0.000349027676    0.075766099727    -0.036795388436    0.000011328475    -0.000000413372
            0.000007195278    -0.000003799087    0.069699317968    -0.006561235443    0.000011328475    -0.000000413372    0.079683097243    -0.030628053374
0.300     0.068998939326    -0.050710879148    0.000012293367    -0.000001237136    0.067419786421    -0.025567824759    0.000007408403    -0.000005370410
            0.000012293367    -0.000001237136    0.077307622578    -0.044319672554    0.000516270402    0.000335737510    0.071183721721    -0.018256871208
            0.067419786421    -0.025567824759    0.000516270402    0.000335737510    0.069014361657    -0.050607815101    0.000012196710    -0.000001882306
            0.000007408403    -0.000005370410    0.071183721721    -0.018256871208    0.000012196710    -0.000001882306    0.078037242726    -0.044617523197
0.325     0.058356470403    -0.063262017578    0.000013662610    -0.000003076760    0.061319835569    -0.037824716984    0.000007444668    -0.000007289843
            0.000013662610    -0.000003076760    0.072451501413    -0.058260710277    0.000575408484    0.000313472223    0.070073321212    -0.030566684736
            0.061319835569    -0.037824716984    0.000575408484    0.000313472223    0.058518834760    -0.063195201434    0.000012970226    -0.000003829592
            0.000007444668    -0.000007289843    0.070073321212    -0.030566684736    0.000012970226    -0.000003829592    0.073328385077    -0.058707477968
0.350     0.044242741726    -0.073608207552    0.000014920142    -0.000005743068    0.051866335513    -0.048822457182    0.000007187890    -0.000009661714
            0.000014920142    -0.000005743068    0.064509765442    -0.071588651688    0.000631742070    0.000282349624    0.066234598742    -0.042924533281
            0.051866335513    -0.048822457182    0.000631742070    0.000282349624    0.044559717194    -0.073625790976    0.000013492428    -0.000006403974
            0.000007187890    -0.000009661714    0.066234598742    -0.042924533281    0.000013492428    -0.000006403974    0.065527729231    -0.072225833166
0.375     0.027173545177    -0.080879745615    0.000015790005    -0.000009463252    0.039355373310    -0.057724502048    0.000006487424    -0.000012608825
            0.000015790005    -0.000009463252    0.053603230254    -0.083628375684    0.000683919381    0.000242653588    0.059653165634    -0.054738110580
            0.039355373310    -0.057724502048    0.000683919381    0.000242653588    0.027638865395    -0.081034414366    0.000013553105    -0.000009766144
            0.000006487424    -0.000012608825    0.059653165634    -0.054738110580    0.000013553105    -0.000009766144    0.054747139251    -0.084498988221
0.400     0.007879396100    -0.084340628264    0.000015990703    -0.000014516562    0.024288781296    -0.063774689449    0.000005231108    -0.000016327541
            0.000015990703    -0.000014516562    0.040000856507    -0.093740783777    0.000730683774    0.000194780325    0.050443862520    -0.065422115563
            0.024288781296    -0.063774689449    0.000730683774    0.000194780325    0.008470474904    -0.084686538408    0.000012967124    -0.000014152253
            0.000005231108    -0.000016327541    0.050443862520    -0.065422115563    0.000012967124    -0.000014152253    0.041246576914    -0.094888456814
0.425     -0.012730214629    -0.083432354600    0.000015575500    -0.000021393924    0.007354518309    -0.066336854168    0.000003653193    -0.000021213948
            0.000015575500    -0.000021393924    0.024103856940    -0.101347264523    0.000771226215    0.000139092056    0.038843023916    -0.074415829925
            0.007354518309    -0.066336854168    0.000771226215    0.000139092056    -0.012054172257    -0.084020196949    0.000011912967    -0.000020044166
            0.000003653193    -0.000021213948    0.038843023916    -0.074415829925    0.000011912967    -0.000020044166    0.025417817924    -0.102814669563
0.450     -0.033611940782    -0.077828604709    0.000016381510    -0.000030371621    -0.010606551978    -0.064955148793    0.000003563916    -0.000027368567
            0.000016381510    -0.000030371621    0.006434460648    -0.105962486834    0.000806539468    0.000076383159    0.025205542655    -0.081217746491
            -0.010606551978    -0.064955148793    0.000806539468    0.000076383159    -0.032912195668    -0.078700587275    0.000012388019    -0.000027721868
            0.000003563916    -0.000027368567    0.025205542655    -0.081217746491    0.000012388019    -0.000027721868    0.007773639044    -0.107791225622
0.475     -0.053645656127    -0.067460850738    0.000021082289    -0.000035745449    -0.028646781505    -0.059382051821    0.000007007789    -0.000029632223
            0.000021082289    -0.000035745449    -0.012384457558    -0.107210372138    0.000838110157    0.000013241295    0.009991928758    -0.085399272608
            -0.028646781505    -0.059382051821    0.000838110157    0.000013241295    -0.053010455798    -0.068644794462    0.000017100523    -0.000031408786
            0.000007007789    -0.000029632223    0.009991928758    -0.085399272608    0.000017100523    -0.000031408786    -0.011074002988    -0.109441517067
0.500     -0.071707925609    -0.052543006539    0.000019994855    -0.000034092224    -0.045790481100    -0.049613581515    0.000005430738    -0.000025865133
            0.000019994855    -0.000034092224    -0.031646626982    -0.104851356718    0.000856079213    -0.000046938738    -0.006246285204    -0.086637635656
            -0.045790481100    -0.049613581515    0.000856079213    -0.000046938738    -0.071282605560    -0.054044111967    0.000016246839    -0.000028031249
            0.000005430738    -0.000025865133    -0.006246285204    -0.086637635656    0.000016246839    -0.000028031249    -0.030440255510    -0.107524728922
0.525     -0.086742352874    -0.033558781663    0.000013267450    -0.000033712714    -0.061220892103    -0.035891259113    -0.000000316181    -0.000023250442
            0.000013267450    -0.000033712714    -0.050576467601    -0.098811437872    0.000861175797    -0.000111020406    -0.022879407763    -0.084733993563
            -0.061220892103    -0.035891259113    0.000861175797    -0.000111020406    -0.086994441620    -0.035392361799    0.000010274132    -0.000026102733
            -0.000000316181    -0.000023250442    -0.022879407763    -0.084733993563    0.000010274132    -0.000026102733    -0.049595412776    -0.101941492528
0.550     -0.097850720672    -0.011286496762    0.000005297643    -0.000033936033    -0.072864544315    -0.019760906721    -0.000006741089    -0.000021221442
            0.000005297643    -0.000033936033    -0.068414951485    -0.089256183293    0.000857813398    -0.000176629553    -0.039264934093    -0.079666657448
            -0.072864544315    -0.019760906721    0.000857813398    -0.000176629553    -0.096863411684    -0.015079702659    0.000003789842    -0.000024985329
            -0.000006741089    -0.000021221442    -0.039264934093    -0.079666657448    0.000003789842    -0.000024985329    -0.067804316578    -0.092745280389
0.575     -0.104235571522    0.013420530603    -0.000002871754    -0.000033272517    -0.081675521619    0.000699855422    -0.000012773688    -0.000018648288
            -0.000002871754    -0.000033272517    -0.084578338642    -0.076468847445    0.000846111360    -0.000241293735    -0.054836475441    -0.071515392445
            -0.081675521619    0.000699855422    0.000846111360    -0.000241293735    -0.103913386604    0.010335705092    -0.000002691704    -0.000023183756
            -0.000012773688    -0.000018648288    -0.054836475441    -0.071515392445    -0.000002691704    -0.000023183756    -0.084359242378    -0.080140806068
0.600     -0.105255705811    0.039342252194    -0.000010651797    -0.000030960727    -0.086211132594    0.022442741402    -0.000018021833    -0.000014986584
            -0.000010651797    -0.000030960727    -0.098482314130    -0.060701935946    0.000827119181    -0.000303424196    -0.069013130387    -0.060406557104
            -0.086211132594    0.022442741402    0.000827119181    -0.000303424196    -0.105809089558    0.036075485679    -0.000008432312    -0.000020284605
            -0.000018021833    -0.000014986584    -0.069013130387    -0.060406557104    -0.000008432312    -0.000020284605    -0.098612933726    -0.064486307510
0.625     -0.101317213702    0.064677671369    -0.000017558074    -0.000026963132    -0.086483484310    0.044682538244    -0.000022210735    -0.000010278677
            -0.000017558074    -0.000026963132    -0.109498616173    -0.042398208562    0.000801476245    -0.000361919555    -0.081189761739    -0.046633157375
            -0.086483484310    0.044682538244    0.000801476245    -0.000361919555    -0.102456343157    0.061872487725    -0.000013160033    -0.000016165330
            -0.000022210735    -0.000010278677    -0.081189761739    -0.046633157375    -0.000013160033    -0.000016165330    -0.109995445912    -0.046275987375
0.650     -0.092605182763    0.089420726594    -0.000023226833    -0.000021339217    -0.082399718110    0.067085280476    -0.000025129637    -0.000004600718
            -0.000023226833    -0.000021339217    -0.117141865745    -0.022175267565    0.000769990407    -0.000416061276    -0.090859122211    -0.030635883453
            -0.082399718110    0.067085280476    0.000769990407    -0.000416061276    -0.093989229509    0.086645668800    -0.000016560033    -0.000011023728
            -0.000025129637    -0.000004600718    -0.090859122211    -0.030635883453    -0.000016560033    -0.000011023728    -0.118045051830    -0.026110392405
0.675     -0.079005811955    0.112082163645    -0.000027148057    -0.000014454351    -0.073882573035    0.088444344282    -0.000026478373    0.000001696168
            -0.000027148057    -0.000014454351    -0.121087125192    -0.000732375829    0.000733521937    -0.000465391227    -0.097621606631    -0.012940314161
            -0.073882573035    0.088444344282    0.000733521937    -0.000465391227    -0.080804098872    0.109326603194    -0.000018392073    -0.000005223121
            -0.000026478373    0.000001696168    -0.097621606631    -0.012940314161    -0.000018392073    -0.000005223121    -0.122428075994    -0.004666277564
0.700     -0.061258715286    0.131629120430    -0.000029046867    -0.000006849978    -0.061375438756    0.107849444802    -0.000026152755    0.000008172804
            -0.000029046867    -0.000006849978    -0.121167343427    0.021192351247    0.000692865299    -0.000509658225    -0.101203754020    0.005868335487
            -0.061375438756    0.107849444802    0.000692865299    -0.000509658225    -0.063510616187    0.128991894587    -0.000018541834    0.000000788541
            -0.000026152755    0.000008172804    -0.101203754020    0.005868335487    -0.000018541834    0.000000788541    -0.122959141567    0.017331926932
0.725     -0.040196262235    0.147315580763    -0.000028824283    0.000000882253    -0.045430885304    0.124560723131    -0.000024175117    0.000014379358
            -0.000028824283    0.000000882253    -0.117366603946    0.042849135697    0.000648717491    -0.000548739997    -0.101449119498    0.025168211921
            -0.045430885304    0.124560723131    0.000648717491    -0.000548739997    -0.042889234022    0.144894980268    -0.000017037765    0.000006539196
            -0.000024175117    0.000014379358    -0.101449119498    0.025168211921    -0.000017037765    0.000006539196    -0.119602956477    0.039141976318
0.750     -0.016744799696    0.158615718519    -0.000026563064    0.000008154335    -0.026713931707    0.137998776013    -0.000020696798    0.000019893513
            -0.000026563064    0.000008154335    -0.109819586329    0.063510470257    0.000601666514    -0.000582580931    -0.098334114170    0.044330233576
            -0.026713931707    0.137998776013    0.000601666514    -0.000582580931    -0.019838416972    0.156499951541    -0.000014050109    0.000011590598
            -0.000020696798    0.000019893513    -0.098334114170    0.044330233576    -0.000014050109    0.000011590598    -0.112474809783    0.060037439864
0.775     0.008115089521    0.165223570447    -0.000022511131    0.000014438588    -0.005962982128    0.147744035322    -0.000015978899    0.000024358721
            -0.000022511131    0.000014438588    -0.098798810720    0.082496417463    0.000552205727    -0.000611139281    -0.091951345576    0.062736549441
            -0.005962982128    0.147744035322    0.000552205727    -0.000611139281    0.004680838682    0.163488325117    -0.000009866146    0.000015582194
            -0.000015978899    0.000024358721    -0.091951345576    0.062736549441    -0.000009866146    0.000015582194    -0.101828631409    0.079334725798
