# GHz S RI R 45
0.000     0.012552374621    0.001934159413    -0.000000014702    -0.000000096878    0.000662975497    0.001653962700    -0.000000017800    -0.000000100889
            -0.000000014702    -0.000000096878    0.010965727991    0.001577792252    -0.000000000663    -0.000000074263    0.000518220973    0.001403453506
            0.000662975410    0.001653962734    -0.000000000663    -0.000000074263    0.012504370987    0.001921648426    -0.000000003746    -0.000000078515
            -0.000000017800    -0.000000100889    0.000518220718    0.001403453494    -0.000000003746    -0.000000078515    0.010930726410    0.001561545805
0.025     0.016744246852    0.010887041752    -0.000000066944    -0.000000216233    0.002235003023    0.009645949561    -0.000000073451    -0.000000226637
            -0.000000066944    -0.000000216233    0.014554426141    0.008804021063    -0.000000035336    -0.000000170896    0.001754310205    0.007818690153
            0.002232397854    0.009648723291    -0.000000035336    -0.000000170896    0.016671303658    0.010827380888    -0.000000041667    -0.000000181069
            -0.000000073451    -0.000000226637    0.001754690141    0.007817944055    -0.000000041667    -0.000000181071    0.014488177157    0.008724559442
0.050     0.022954966962    0.018002782115    -0.000000197554    -0.000000380882    0.006688380370    0.018245602332    -0.000000210772    -0.000000398318
            -0.000000197554    -0.000000380882    0.019625543349    0.014557602530    -0.000000132856    -0.000000310976    0.005291733185    0.014888354286
            0.006688346071    0.018245631946    -0.000000132856    -0.000000310976    0.022850984379    0.017874186192    -0.000000145854    -0.000000327938
            -0.000000210772    -0.000000398318    0.005291761775    0.014888351554    -0.000000145854    -0.000000327938    0.019524656681    0.014442169316
0.075     0.030913172405    0.022813845733    -0.000000379690    -0.000000495238    0.013509161161    0.025074879074    -0.000000401531    -0.000000516901
            -0.000000379690    -0.000000495238    0.026192265533    0.018600943922    -0.000000275383    -0.000000414779    0.010785152379    0.020682365229
            0.013509153611    0.025074879733    -0.000000275383    -0.000000414779    0.030761883689    0.022644893351    -0.000000296947    -0.000000435706
            -0.000000401531    -0.000000516901    0.010785147066    0.020682369128    -0.000000296947    -0.000000435706    0.026053608648    0.018452499123
0.100     0.040203129870    0.024909547396    -0.000000602600    -0.000000549641    0.022095239876    0.029594570293    -0.000000634415    -0.000000572748
            -0.000000602600    -0.000000549641    0.034025399037    0.020605587208    -0.000000454746    -0.000000472742    0.017837528030    0.024791716579
            0.022095239876    0.029594570293    -0.000000454746    -0.000000472742    0.039996787837    0.024721734652    -0.000000486152    -0.000000494855
            -0.000000634415    -0.000000572748    0.017837528030    0.024791716579    -0.000000486152    -0.000000494855    0.033845046614    0.020441813027
0.125     0.049974492770    0.023885687492    -0.000000850275    -0.000000534079    0.031752813400    0.031425927387    -0.000000892738    -0.000000555541
            -0.000000850275    -0.000000534079    0.042537617900    0.020178393778    -0.000000658589    -0.000000475643    0.025992864698    0.026909619987
            0.031752813400    0.031425927387    -0.000000658589    -0.000000475643    0.049713389587    0.023693523012    -0.000000700571    -0.000000495887
            -0.000000892738    -0.000000555541    0.025992864698    0.026909619987    -0.000000700571    -0.000000495887    0.042320836514    0.020029267740
0.150     0.059559018807    0.019772946338    -0.000001104152    -0.000000443069    0.041722677839    0.030337196936    -0.000001157262    -0.000000459789
            -0.000001104152    -0.000000443069    0.051321934314    0.017339315377    -0.000000872379    -0.000000417924    0.034747402742    0.026784021571
            0.041722677839    0.030337196936    -0.000000872379    -0.000000417924    0.059255890783    0.019610045549    -0.000000924718    -0.000000433194
            -0.000001157262    -0.000000459789    0.034747402742    0.026784021571    -0.000000924718    -0.000000433194    0.051073746940    0.017218389061
0.175     0.068026994239    0.012619472254    -0.000001345066    -0.000000275645    0.051207501171    0.026309676624    -0.000001408042    -0.000000284537
            -0.000001345066    -0.000000275645    0.059695758923    0.011975063625    -0.000001081040    -0.000000297172    0.043544350646    0.024310195825
            0.051207501171    0.026309676624    -0.000001081040    -0.000000297172    0.067702163354    0.012506098258    -0.000001142854    -0.000000304524
            -0.000001408042    -0.000000284537    0.043544350646    0.024310195825    -0.000001142854    -0.000000304524    0.059434611046    0.011900914664
0.200     0.074540256815    0.002758255349    -0.000001553872    -0.000000035048    0.059436760785    0.019527521856    -0.000001625226    -0.000000033242
            -0.000001553872    -0.000000035048    0.067019777643    0.004198662690    -0.000001268722    -0.000000114244    0.051824346140    0.019512905338
            0.059436760785    0.019527521856    -0.000001268722    -0.000000114244    0.074220660444    0.002705948176    -0.000001338518    -0.000000110989
            -0.000001625226    -0.000000033242    0.051824346140    0.019512905338    -0.000001338518    -0.000000110989    0.066771583982    0.004184253014
0.225     0.078368968469    -0.009277322910    -0.000001712393    0.000000271397    0.065702179211    0.010356031078    -0.000001790026    0.000000286405
            -0.000001712393    0.000000271397    0.072702338541    -0.005734381998    -0.000001420016    0.000000126373    0.059043859209    0.012537209607
            0.065702179211    0.010356031078    -0.000001420016    0.000000126373    0.078085817894    -0.009267011479    -0.000001495764    0.000000142579
            -0.000001790026    0.000000286405    0.059043859209    0.012537209607    -0.000001495764    0.000000142579    0.072497284245    -0.005683628737
0.250     0.078945399042    -0.022774874895    -0.000001803923    0.000000632069    0.069404431115    -0.000676906916    -0.000001885184    0.000000662352
            -0.000001803923    0.000000632069    0.076233189900    -0.017429452112    -0.000001520161    0.000000416518    0.064706829843    0.003644684122
            0.069404431115    -0.000676906916    -0.000001520161    0.000000416518    0.078731690833    -0.022710345216    -0.000001599336    0.000000447655
            -0.000001885184    0.000000662352    0.064706829843    0.003644684122    -0.000001599336    0.000000447655    0.076103441250    -0.017315533892
0.275     0.075878679777    -0.036894593486    -0.000001814585    0.000001031816    0.070076305359    -0.012906809820    -0.000001896360    0.000001078953
            -0.000001814585    0.000001031816    0.077192615067    -0.030387021743    -0.000001556628    0.000000744745    0.068379167365    -0.006799320775
            0.070076305359    -0.012906809820    -0.000001556628    0.000000744745    0.075766099727    -0.036795388436    -0.000001636287    0.000000792292
            -0.000001896360    0.000001078953    0.068379167365    -0.006799320775    -0.000001636287    0.000000792292    0.077171180371    -0.030220108316
0.300     0.068998939326    -0.050710879148    -0.000001733674    0.000001451889    0.067419786421    -0.025567824759    -0.000001812500    0.000001516819
            -0.000001733674    0.000001451889    0.075288038150    -0.044018349887    -0.000001519099    0.000001096387    0.069717415556    -0.018342477034
            0.067419786421    -0.025567824759    -0.000001519099    0.000001096387    0.069014361657    -0.050607815101    -0.000001595905    0.000001161306
            -0.000001812500    0.000001516819    0.069717415556    -0.018342477034    -0.000001595905    0.000001161306    0.075407066316    -0.043817792429
0.325     0.058356470403    -0.063262017578    -0.000001554960    0.000001871218    0.061319835569    -0.037824716984    -0.000001627006    0.000001954335
            -0.000001554960    0.000001871218    0.070355089016    -0.057677810263    -0.000001400957    0.000001454581    0.068477149625    -0.030462508365
            0.061319835569    -0.037824716984    -0.000001400957    0.000001454581    0.058518834760    -0.063195201434    -0.000001471284    0.000001537190
            -0.000001627006    0.000001954335    0.068477149625    -0.030462508365    -0.000001471284    0.000001537190    0.070642876486    -0.057471825326
0.350     0.044242741726    -0.073608207552    -0.000001276780    0.000002266695    0.051866335513    -0.048822457182    -0.000001338074    0.000002367595
            -0.000001276780    0.000002266695    0.062380670012    -0.070693664716    -0.000001199107    0.000001800282    0.064532668291    -0.042593504350
            0.051866335513    -0.048822457182    -0.000001199107    0.000001800282    0.044559717194    -0.073625790976    -0.000001259127    0.000001900204
            -0.000001338074    0.000002367595    0.064532668291    -0.042593504350    -0.000001259127    0.000001900204    0.062859997318    -0.070518633056
0.375     0.027173545177    -0.080879745615    -0.000000902853    0.000002614793    0.039355373310    -0.057724502048    -0.000000949305    0.000002732364
            -0.000000902853    0.000002614793    0.051494308355    -0.082396131909    -0.000000915045    0.000002113851    0.057878794544    -0.054144918258
            0.039355373310    -0.057724502048    -0.000000915045    0.000002113851    0.027638865395    -0.081034414366    -0.000000960752    0.000002229977
            -0.000000949305    0.000002732364    0.057878794544    -0.054144918258    -0.000000960752    0.000002229977    0.052179576744    -0.082295566127
0.400     0.007879396100    -0.084340628264    -0.000000441994    0.000002891506    0.024288781296    -0.063774689449    -0.000000469578    0.000003023904
            -0.000000441994    0.000002891506    0.037973546720    -0.092155039048    -0.000000554300    0.000002374588    0.048639288871    -0.064535848129
            0.024288781296    -0.063774689449    -0.000000554300    0.000002374588    0.008470474904    -0.084686538408    -0.000000581786    0.000002504945
            -0.000000469578    0.000003023904    0.048639288871    -0.064535848129    -0.000000581786    0.000002504945    0.038869089069    -0.092177151702
0.425     -0.012730214629    -0.083432354600    0.000000093103    0.000003073853    0.007354518309    -0.066336854168    0.000000087978    0.000003218676
            0.000000093103    0.000003073853    0.022228033063    -0.099403051815    -0.000000125592    0.000002562127    0.037060005318    -0.073212261708
            0.007354518309    -0.066336854168    -0.000000125592    0.000002562127    -0.012054172257    -0.084020196949    -0.000000131055    0.000002703961
            0.000000087978    0.000003218676    0.037060005318    -0.073212261708    -0.000000131055    0.000002703961    0.023326179935    -0.099598882747
0.450     -0.033611940782    -0.077828604709    0.000000692124    0.000003141604    -0.010606551978    -0.064955148793    0.000000711532    0.000003295988
            0.000000692124    0.000003141604    0.004786211778    -0.103670505007    0.000000365969    0.000002657628    0.023503844425    -0.079682854029
            -0.010606551978    -0.064955148793    0.000000365969    0.000002657628    -0.032912195668    -0.078700587275    0.000000385623    0.000002807553
            0.000000711532    0.000003295988    0.023503844425    -0.079682854029    0.000000385623    0.000002807553    0.006066606972    -0.104090492737
0.475     -0.053645656127    -0.067460850738    0.000001344827    0.000003103352    -0.028646781505    -0.059382051821    0.000001388215    0.000003261001
            0.000001344827    0.000003103352    -0.013727350215    -0.104602017080    0.000000916643    0.000002672111    0.008435668820    -0.083533153743
            -0.028646781505    -0.059382051821    0.000000916643    0.000002672111    -0.053010455798    -0.068644794462    0.000000962833    0.000002825440
            0.000001388215    0.000003261001    0.008435668820    -0.083533153743    0.000000962833    0.000002825440    -0.012298370046    -0.105294308470
0.500     -0.071707925609    -0.052543006539    0.000001986735    0.000002965298    -0.045790481100    -0.049613581515    0.000002057491    0.000003116948
            0.000001986735    0.000002965298    -0.032619488302    -0.101981161578    0.000001464375    0.000002611636    -0.007597459945    -0.084456649499
            -0.045790481100    -0.049613581515    0.000001464375    0.000002611636    -0.071282605560    -0.054044111967    0.000001538815    0.000002761629
            0.000002057491    0.000003116948    -0.007597459945    -0.084456649499    0.000001538815    0.000002761629    -0.031089024650    -0.102989162424
0.525     -0.086742352874    -0.033558781663    0.000002588885    0.000002690815    -0.061220892103    -0.035891259113    0.000002689738    0.000002831373
            0.000002588885    0.000002690815    -0.051158880037    -0.095736811947    0.000001991819    0.000002435695    -0.023987745124    -0.082259959629
            -0.061220892103    -0.035891259113    0.000001991819    0.000002435695    -0.086994441620    -0.035392361799    0.000002095928    0.000002576398
            0.000002689738    0.000002831373    -0.023987745124    -0.082259959629    0.000002095928    0.000002576398    -0.049584509350    -0.097098424203
0.550     -0.097850720672    -0.011286496762    0.000003139088    0.000002284477    -0.072864544315    -0.019760906721    0.000003269498    0.000002408822
            0.000003139088    0.000002284477    -0.068614751376    -0.085954429788    0.000002449555    0.000002165899    -0.040100310425    -0.076884682854
            -0.072864544315    -0.019760906721    0.000002449555    0.000002165899    -0.096863411684    -0.015079702659    0.000002580712    0.000002292187
            0.000003269498    0.000002408822    -0.040100310425    -0.076884682854    0.000002580712    0.000002292187    -0.067060182659    -0.087699688837
0.575     -0.104235571522    0.013420530603    0.000003615256    0.000001758547    -0.081675521619    0.000699855422    0.000003772578    0.000001861029
            0.000003615256    0.000001758547    -0.084286897418    -0.072874314326    0.000002896350    0.000001754773    -0.055296363522    -0.068403877621
            -0.081675521619    0.000699855422    0.000002896350    0.000001754773    -0.103913386604    0.010335705092    0.000003054060    0.000001859168
            0.000003772578    0.000001861029    -0.055296363522    -0.068403877621    0.000003054060    0.000001859168    -0.082816403085    -0.075020798572
0.600     -0.105255705811    0.039342252194    0.000003991451    0.000001132600    -0.086211132594    0.022442741402    0.000004171330    0.000001207817
            0.000003991451    0.000001132600    -0.097540551614    -0.056886341109    0.000003268189    0.000001270061    -0.068969689520    -0.057029525107
            -0.086211132594    0.022442741402    0.000003268189    0.000001270061    -0.105809089558    0.036075485679    0.000003448106    0.000001347811
            0.000004171330    0.000001207817    -0.068969689520    -0.057029525107    0.000003448106    0.000001347811    -0.096216548461    -0.059432856891
0.625     -0.101317213702    0.064677671369    0.000004253620    0.000000439400    -0.086483484310    0.044682538244    0.000004450699    0.000000483154
            0.000004253620    0.000000439400    -0.107826361402    -0.038509618372    0.000003553217    0.000000712829    -0.080563136382    -0.043095434326
            -0.086483484310    0.044682538244    0.000003553217    0.000000712829    -0.102456343157    0.061872487725    0.000003749989    0.000000759184
            0.000004450699    0.000000483154    -0.080563136382    -0.043095434326    0.000003749989    0.000000759184    -0.106712632750    -0.041433704859
0.650     -0.092605182763    0.089420726594    0.000004394134    -0.000000312785    -0.082399718110    0.067085280476    0.000004602464    -0.000000304578
            0.000004394134    -0.000000312785    -0.114712675553    -0.018364096052    0.000003738486    0.000000099223    -0.089604128284    -0.027044822346
            -0.082399718110    0.067085280476    0.000003738486    0.000000099223    -0.093989229509    0.086645668800    0.000003945765    0.000000110484
            0.000004602464    -0.000000304578    -0.089604128284    -0.027044822346    0.000003945765    0.000000110484    -0.113872820952    -0.021626658068
0.675     -0.079005811955    0.112082163645    0.000004395680    -0.000001095598    -0.073882573035    0.088444344282    0.000004608094    -0.000001125469
            0.000004395680    -0.000001095598    -0.117901889644    0.002856587462    0.000003815517    -0.000000551707    -0.095714747299    -0.009405742953
            -0.073882573035    0.088444344282    0.000003815517    -0.000000551707    -0.080804098872    0.109326603194    0.000004026230    -0.000000577638
            0.000004608094    -0.000001125469    -0.095714747299    -0.009405742953    0.000004026230    -0.000000577638    -0.117396007480    -0.000692511092
0.700     -0.061258715286    0.131629120430    0.000004255576    -0.000001881149    -0.061375438756    0.107849444802    0.000004464594    -0.000001949937
            0.000004255576    -0.000001881149    -0.117247829833    0.024418221013    0.000003778637    -0.000001220268    -0.098639520134    0.009233170645
            -0.061375438756    0.107849444802    0.000003778637    -0.000001220268    -0.063510616187    0.128991894587    0.000003985444    -0.000001284091
            0.000004464594    -0.000001949937    -0.098639520134    0.009233170645    0.000003985444    -0.000001284091    -0.117127605797    0.020644705306
0.725     -0.040196262235    0.147315580763    0.000003976040    -0.000002644286    -0.045430885304    0.124560723131    0.000004174179    -0.000002751337
            0.000003976040    -0.000002644286    -0.112756511307    0.045575497749    0.000003626458    -0.000001887030    -0.098240868891    0.028247436620
            -0.045430885304    0.124560723131    0.000003626458    -0.000001887030    -0.042889234022    0.144894980268    0.000003822010    -0.000001987855
            0.000004174179    -0.000002751337    -0.098240868891    0.028247436620    0.000003822010    -0.000001987855    -0.113061245503    0.041647802062
0.750     -0.016744799696    0.158615718519    0.000003562652    -0.000003360916    -0.026713931707    0.137998776013    0.000003742771    -0.000003503959
            0.000003562652    -0.000003360916    -0.104584521684    0.065607832567    0.000003359947    -0.000002532715    -0.094514271435    0.047008143252
            -0.026713931707    0.137998776013    0.000003359947    -0.000002532715    -0.019838416972    0.156499951541    0.000003537303    -0.000002668034
            0.000003742771    -0.000003503959    -0.094514271435    0.047008143252    0.000003537303    -0.000002668034    -0.105339125296    0.061601664324
0.775     0.008115089521    0.165223570447    0.000003025103    -0.000004009459    -0.005962982128    0.147744035322    0.000003180590    -0.000004184975
            0.000003025103    -0.000004009459    -0.093026762906    0.083844793153    0.000002983504    -0.000003139477    -0.087572245297    0.064901177907
            -0.005962982128    0.147744035322    0.000002983504    -0.000003139477    0.004680838682    0.163488325117    0.000003136399    -0.000003305523
