# GHz S RI R 45
0.000     0.012552374621    0.001934159413    0.000000402582    0.000000524113    0.000662975497    0.001653962700    0.000000575895    0.000000801071
            0.000000402586    0.000000524113    0.011929642134    0.001432919903    0.000000598326    0.000000826782    0.000563619560    0.001235939453
            0.000662975410    0.001653962734    0.000000598590    0.000000826782    0.012504370987    0.001921648426    0.000000830549    0.000001205030
            0.000000575893    0.000000801071    0.000563619560    0.001235939453    0.000000830571    0.000001205030    0.011745396557    0.001428182987
0.025     0.016744246852    0.010887041752    0.000000830392    0.000001081522    0.002235003023    0.009645949561    0.000001206297    0.000001654920
            0.000000830390    0.000001081519    0.015546133016    0.009420392715    0.000001252028    0.000001723957    0.001827477370    0.008313218389
            0.002232397854    0.009648723291    0.000001252027    0.000001723960    0.016671303658    0.010827380888    0.000001754567    0.000002496440
            0.000001206301    0.000001654923    0.001827220978    0.008313488531    0.000001754567    0.000002496440    0.015477535767    0.009365671545
0.050     0.022954966962    0.018002782115    0.000001670356    0.000001658012    0.006688380370    0.018245602332    0.000002455239    0.000002570647
            0.000001670356    0.000001658012    0.020827954358    0.015610231828    0.000002539485    0.000002686239    0.005473047067    0.015830519300
            0.006688346071    0.018245631946    0.000002539485    0.000002686239    0.022850984379    0.017874186192    0.000003592172    0.000003917254
            0.000002455239    0.000002570647    0.005473034910    0.015830523503    0.000003592172    0.000003917254    0.020741256209    0.015524603170
0.075     0.030913172405    0.022813845733    0.000002670579    0.000001855229    0.013509161161    0.025074879074    0.000003957676    0.000002935252
            0.000002670579    0.000001855229    0.027581699698    0.019931632737    0.000004090472    0.000003082599    0.011100025031    0.021967784420
            0.013509153611    0.025074879733    0.000004090472    0.000003082599    0.030761883689    0.022644893351    0.000005819925    0.000004543707
            0.000003957676    0.000002935253    0.011100017476    0.021967783756    0.000005819925    0.000004543707    0.027474879590    0.019821914185
0.100     0.040203129870    0.024909547396    0.000003754803    0.000001668905    0.022095239876    0.029594570293    0.000005607967    0.000002738759
            0.000003754803    0.000001668905    0.035534794689    0.022058007770    0.000005796984    0.000002901557    0.018259126957    0.026293572203
            0.022095239876    0.029594570293    0.000005796984    0.000002901557    0.039996787837    0.024721734652    0.000008292750    0.000004356971
            0.000005607967    0.000002738759    0.018259126957    0.026293572203    0.000008292750    0.000004356971    0.035409110862    0.021936083721
0.125     0.049974492770    0.023885687492    0.000004808774    0.000001079181    0.031752813400    0.031425927387    0.000007243764    0.000001944406
            0.000004808774    0.000001079181    0.044053964471    0.021596761322    0.000007492557    0.000002104183    0.026433093846    0.028499926351
            0.031752813400    0.031425927387    0.000007492557    0.000002104183    0.049713389587    0.023693523012    0.000010783940    0.000003292925
            0.000007243764    0.000001944406    0.026433093531    0.028499928007    0.000010783940    0.000003292925    0.043914224834    0.021484370679
0.150     0.059559018807    0.019772946338    0.000005715725    0.000000114420    0.041722677839    0.030337196936    0.000008695521    0.000000584622
            0.000005715725    0.000000114420    0.052593615656    0.018606757388    0.000009002932    0.000000722280    0.035058182186    0.028352245101
            0.041722677839    0.030337196936    0.000009002932    0.000000722280    0.059255890783    0.019610045549    0.000013044439    0.000001388388
            0.000008695521    0.000000584622    0.035058182257    0.028352248195    0.000013044439    0.000001388388    0.052454305122    0.018511384854
0.175     0.068026994239    0.012619472254    0.000006369062    -0.000001178687    0.051207501171    0.026309676624    0.000009806258    -0.000001283230
            0.000006369062    -0.000001178687    0.060452185209    0.013044087117    0.000010165703    -0.000001186613    0.043519104421    0.025784825713
            0.051207501171    0.026309676624    0.000010165703    -0.000001186613    0.067702163354    0.012506098258    0.000014847198    -0.000001286257
            0.000009806258    -0.000001283230    0.043519098901    0.025784840914    0.000014847198    -0.000001286257    0.060332758588    0.012971509858
0.200     0.074540256815    0.002758255349    0.000006679017    -0.000002724118    0.059436760785    0.019527521856    0.000010439538    -0.000003558950
            0.000006679017    -0.000002724118    0.066949111623    0.005086809228    0.000010839122    -0.000003520450    0.051209444834    0.020881139323
            0.059436760785    0.019527521856    0.000010839122    -0.000003520450    0.074220660444    0.002705948176    0.000015988826    -0.000004600062
            0.000010439538    -0.000003558950    0.051209444834    0.020881139323    0.000015988826    -0.000004600062    0.066872359989    0.005038242671
0.225     0.078368968469    -0.009277322910    0.000006575603    -0.000004426621    0.065702179211    0.010356031078    0.000010484318    -0.000006113279
            0.000006575603    -0.000004426621    0.071460113255    -0.004918252297    0.000010907465    -0.000006146695    0.057555358851    0.013860667784
            0.065702179211    0.010356031078    0.000010907465    -0.000006146695    0.078085817894    -0.009267011479    0.000016297026    -0.000008378170
            0.000010484318    -0.000006113279    0.057555358851    0.013860667784    0.000016297026    -0.000008378170    0.071451041202    -0.004948545318
0.250     0.078945399042    -0.022774874895    0.000006016276    -0.000006174800    0.069404431115    -0.000676906916    0.000009866363    -0.000008790891
            0.000006016276    -0.000006174800    0.073468650559    -0.016467946368    0.000010292904    -0.000008905465    0.062048770701    0.005069978388
            0.069404431115    -0.000676906916    0.000010292904    -0.000008905465    0.078731690833    -0.022710345216    0.000015649513    -0.000012404463
            0.000009866363    -0.000008790891    0.062048770701    0.005069978388    0.000015649513    -0.000012404463    0.073552350794    -0.016493257538
0.275     0.075878679777    -0.036894593486    0.000004984637    -0.000007848695    0.070076305359    -0.012906809820    0.000008547400    -0.000011421308
            0.000004984637    -0.000007848695    0.072580683496    -0.028947362114    0.000008954823    -0.000011621031    0.064265628570    -0.005033365519
            0.070076305359    -0.012906809820    0.000008954823    -0.000011621031    0.075766099727    -0.036795388436    0.000013973171    -0.000016437082
            0.000008547400    -0.000011421308    0.064265628570    -0.005033365519    0.000013973171    -0.000016437082    0.072780309748    -0.028988984108
0.300     0.068998939326    -0.050710879148    0.000003495210    -0.000009325213    0.067419786421    -0.025567824759    0.000006532544    -0.000013825760
            0.000003495210    -0.000009325213    0.068560905109    -0.041655863444    0.000006897545    -0.000014108965    0.063894774509    -0.015902213101
            0.067419786421    -0.025567824759    0.000006897545    -0.000014108965    0.069014361657    -0.050607815101    0.000011256662    -0.000020217982
            0.000006532544    -0.000013825760    0.063894774509    -0.015902213101    0.000011256662    -0.000020217982    0.068895582549    -0.041743418805
0.325     0.058356470403    -0.063262017578    0.000001591296    -0.000010483841    0.061319835569    -0.037824716984    0.000003867909    -0.000015825808
            0.000001591296    -0.000010483841    0.061333191887    -0.053845157730    0.000004167772    -0.000016185100    0.060749828298    -0.026921406122
            0.061319835569    -0.037824716984    0.000004167772    -0.000016185100    0.058518834760    -0.063195201434    0.000007547190    -0.000023485849
            0.000003867909    -0.000015825808    0.060749828298    -0.026921406122    0.000007547190    -0.000023485849    0.061815293573    -0.054014920532
0.350     0.044242741726    -0.073608207552    -0.000000652432    -0.000011214442    0.051866335513    -0.048822457182    0.000000645095    -0.000017253815
            -0.000000652432    -0.000011214442    0.051000916752    -0.064757409125    0.000000859146    -0.000017676824    0.054788292113    -0.037439503161
            0.051866335513    -0.048822457182    0.000000859146    -0.000017676824    0.044559717194    -0.073625790976    0.000002957446    -0.000025990707
            0.000000645095    -0.000017253815    0.054788292113    -0.037439503161    0.000002957446    -0.000025990707    0.051634055986    -0.065051622655
0.375     0.027173545177    -0.080879745615    -0.000003133368    -0.000011423384    0.039355373310    -0.057724502048    -0.000003003147    -0.000017961507
            -0.000003133368    -0.000011423384    0.037837270645    -0.073659876643    -0.000002892723    -0.000018431426    0.046115635241    -0.046794521959
            0.039355373310    -0.057724502048    -0.000002892723    -0.000018431426    0.027638865395    -0.081034414366    -0.000002340366    -0.000027506474
            -0.000003003147    -0.000017961507    0.046115635241    -0.046794521959    -0.000002340366    -0.000027506474    0.038614645555    -0.074123940511
0.400     0.007879396100    -0.084340628264    -0.000005722662    -0.000011042762    0.024288781296    -0.063774689449    -0.000006904147    -0.000017833632
            -0.000005722662    -0.000011042762    0.022286356298    -0.079889482477    -0.000006911557    -0.000018330245    0.034990528937    -0.054355081109
            0.024288781296    -0.063774689449    -0.000006911557    -0.000018330245    0.008470474904    -0.084686538408    -0.000008115614    -0.000027849289
            -0.000006904147    -0.000017833632    0.034990528937    -0.054355081109    -0.000008115614    -0.000027849289    0.023189033555    -0.080569894431
0.425     -0.012730214629    -0.083432354600    -0.000008271769    -0.000010036668    0.007354518309    -0.066336854168    -0.000010853824    -0.000016796253
            -0.000008271769    -0.000010036668    0.004942776325    -0.082883984869    -0.000010989513    -0.000017296857    0.021817162251    -0.059546870639
            0.007354518309    -0.066336854168    -0.000010989513    -0.000017296857    -0.012054172257    -0.084020196949    -0.000014090625    -0.000026889226
            -0.000010853824    -0.000016796253    0.021817162251    -0.059546870639    -0.000014090625    -0.000026889226    0.005938905163    -0.083824764446
0.450     -0.033611940782    -0.077828604709    -0.000010620142    -0.000008409567    -0.010606551978    -0.064955148793    -0.000014626202    -0.000014829521
            -0.000010620142    -0.000008409567    -0.013470310372    -0.082224231812    -0.000014896529    -0.000015309453    0.007131985525    -0.061895835173
            -0.010606551978    -0.064955148793    -0.000014896529    -0.000015309453    -0.032912195668    -0.078700587275    -0.000019952428    -0.000024567949
            -0.000014626202    -0.000014829521    0.007131985525    -0.061895835173    -0.000019952428    -0.000024567949    -0.012425749995    -0.083463574179
0.475     -0.053645656127    -0.067460850738    -0.000012606036    -0.000006206946    -0.028646781505    -0.059382051821    -0.000017987919    -0.000011969622
            -0.000012606036    -0.000006206946    -0.032134361015    -0.077656905090    -0.000018395069    -0.000012402012    -0.008417971401    -0.061051156136
            -0.028646781505    -0.059382051821    -0.000018395069    -0.000012402012    -0.053010455798    -0.068644794462    -0.000025371995    -0.000020900902
            -0.000017987919    -0.000011969622    -0.008417971401    -0.061051156136    -0.000025371995    -0.000020900902    -0.031098095151    -0.079224015119
0.500     -0.071707925609    -0.052543006539    -0.000014084333    -0.000003518993    -0.045790481100    -0.049613581515    -0.000020720680    -0.000008315771
            -0.000014084333    -0.000003518993    -0.050177179751    -0.069121803531    -0.000021265337    -0.000008670609    -0.024110381905    -0.056820103228
            -0.045790481100    -0.049613581515    -0.000021265337    -0.000008670609    -0.071282605560    -0.054044111967    -0.000030036184    -0.000015988346
            -0.000020720680    -0.000008315771    -0.024110381905    -0.056820103228    -0.000030036184    -0.000015988346    -0.049217339328    -0.071034883161
0.525     -0.086742352874    -0.033558781663    -0.000014933849    -0.000000478593    -0.061220892103    -0.035891259113    -0.000022632111    -0.000004028002
            -0.000014933849    -0.000000478593    -0.066718185615    -0.056757777228    -0.000023327590    -0.000004265549    -0.039180941950    -0.049176420813
            -0.061220892103    -0.035891259113    -0.000023327590    -0.000004265549    -0.086994441620    -0.035392361799    -0.000033682808    -0.000010007268
            -0.000022632111    -0.000004028002    -0.039180941950    -0.049176420813    -0.000033682808    -0.000010007268    -0.065910513902    -0.059023061564
0.550     -0.097850720672    -0.011286496762    -0.000015073344    0.000002747154    -0.072864544315    -0.019760906721    -0.000023577472    0.000000679372
            -0.000015073344    0.000002747154    -0.080924817451    -0.040906275923    -0.000024358495    0.000000423346    -0.052875917223    -0.038275640068
            -0.072864544315    -0.019760906721    -0.000024358495    0.000000423346    -0.096863411684    -0.015079702659    -0.000035923163    -0.000003477137
            -0.000023577472    0.000000679372    -0.052875917223    -0.038275640068    -0.000035923163    -0.000003477137    -0.080346564203    -0.043517049791
0.575     -0.104235571522    0.013420530603    -0.000014453531    0.000005984869    -0.081675521619    0.000699855422    -0.000023450234    0.000005579260
            -0.000014453531    0.000005984869    -0.092058180565    -0.022097441284    -0.000024307829    0.000005539394    -0.064489234943    -0.024444292942
            -0.081675521619    0.000699855422    -0.000024307829    0.000005539394    -0.103913386604    0.010335705092    -0.000036742278    0.000003866729
            -0.000023450234    0.000005579260    -0.064489234943    -0.024444292942    -0.000036742278    0.000003866729    -0.091780811560    -0.025031941541
0.600     -0.105255705811    0.039342252194    -0.000013078741    0.000009026735    -0.086211132594    0.022442741402    -0.000022208204    0.000010384362
            -0.000013078741    0.000009026735    -0.099520708900    -0.001026825360    -0.000023184853    0.000010546097    -0.073414287023    -0.008169788090
            -0.086211132594    0.022442741402    -0.000023184853    0.000010546097    -0.105809089558    0.036075485679    -0.000036046710    0.000011249002
            -0.000022208204    0.000010384362    -0.073414287023    -0.008169788090    -0.000036046710    0.000011249002    -0.099605037091    -0.004243861944
0.625     -0.101317213702    0.064677671369    -0.000011101243    0.000011666668    -0.086483484310    0.044682538244    -0.000020018540    0.000014781145
            -0.000011101243    0.000011666668    -0.102882199656    0.021483541649    -0.000021002637    0.000015242273    -0.079166685619    0.009932146474
            -0.086483484310    0.044682538244    -0.000021002637    0.000015242273    -0.102456343157    0.061872487725    -0.000033809944    0.000018407516
            -0.000020018540    0.000014781145    -0.079166685619    0.009932146474    -0.000033809944    0.000018407516    -0.103379205991    0.018046334081
0.650     -0.092605182763    0.089420726594    -0.000008579558    0.000013873555    -0.082399718110    0.067085280476    -0.000016937316    0.000018723064
            -0.000008579558    0.000013873555    -0.101909019787    0.044538440476    -0.000017861054    0.000019400326    -0.081420454298    0.029154843519
            -0.082399718110    0.067085280476    -0.000017861054    0.000019400326    -0.093989229509    0.086645668800    -0.000030118260    0.000025016731
            -0.000016937316    0.000018723064    -0.081420454298    0.029154843519    -0.000030118260    0.000025016731    -0.102858953675    0.040958961366
0.675     -0.079005811955    0.112082163645    -0.000005623962    0.000015474563    -0.073882573035    0.088444344282    -0.000013067764    0.000021937036
            -0.000005623962    0.000015474563    -0.096572150062    0.067218127607    -0.000013914804    0.000022826547    -0.080012610780    0.048742585356
            -0.073882573035    0.088444344282    -0.000013914804    0.000022826547    -0.080804098872    0.109326603194    -0.000025136144    0.000030781822
            -0.000013067764    0.000021937036    -0.080012610780    0.048742585356    -0.000025136144    0.000030781822    -0.098002444739    0.063584284667
0.700     -0.061258715286    0.131629120430    -0.000002407667    0.000016400589    -0.061375438756    0.107849444802    -0.000008624353    0.000024281668
            -0.000002407667    0.000016400589    -0.087047466704    0.088632455567    -0.000009353374    0.000025377391    -0.074955968697    0.067937535949
            -0.061375438756    0.107849444802    -0.000009353374    0.000025377391    -0.063510616187    0.128991894587    -0.000019083809    0.000035464185
            -0.000008624353    0.000024281668    -0.074955968697    0.067937535949    -0.000019083809    0.000035464185    -0.088969203617    0.085036089138
0.725     -0.040196262235    0.147315580763    0.000000905996    0.000016631015    -0.045430885304    0.124560723131    -0.000003818754    0.000025679187
            0.000000905996    0.000016631015    -0.073697099937    0.107961253859    -0.000004384372    0.000026960754    -0.066419817784    0.086013222107
            -0.045430885304    0.124560723131    -0.000004384372    0.000026960754    -0.042889234022    0.144894980268    -0.000012216818    0.000038885380
            -0.000003818754    0.000025679187    -0.066419817784    0.086013222107    -0.000012216818    0.000038885380    -0.076102995710    0.104494945470
0.750     -0.016744799696    0.158615718519    0.000004164515    0.000016183862    -0.026713931707    0.137998776013    0.000001140271    0.000026103258
            0.000004164515    0.000016183862    -0.057042814110    0.124497977360    0.000000779655    0.000027537135    -0.054720256790    0.102316533178
            -0.026713931707    0.137998776013    0.000000779655    0.000027537135    -0.019838416972    0.156499951541    -0.000004811124    0.000040932440
            0.000001140271    0.000026103258    -0.054720256790    0.102316533178    -0.000004811124    0.000040932440    -0.059906867412    0.121249946688
0.775     0.008115089521    0.165223570447    0.000007233613    0.000015108024    -0.005962982128    0.147744035322    0.000006057155    0.000025570874
            0.000007233613    0.000015108024    -0.037731443770    0.137672720196    0.000005935141    0.000027112031    -0.040288085368    0.116283805724
            -0.005962982128    0.147744035322    0.000005935141    0.000027112031    0.004680838682    0.163488325117    0.000002855574    0.000041551703
