# GHz S RI R 45
0.000     0.012552374621    0.001934159413    0.987160657909    -0.008471837429    0.000662975497    0.001653962700    -0.000651513818    -0.000584662902
            0.987160657909    -0.008471837429    0.012614529818    0.001863793619    -0.000651305287    -0.000584615536    0.000661622611    0.001664424435
            0.000662975410    0.001653962734    -0.000651305493    -0.000584615516    0.012504370987    0.001921648426    0.987203088642    -0.008475429321
            -0.000651513900    -0.000584662976    0.000661622408    0.001664424516    0.987203088642    -0.008475429321    0.012569679065    0.001851731339
0.025     0.016744246852    0.010887041752    0.976566136782    -0.126670251714    0.002235003023    0.009645949561    -0.001108256784    -0.002232676442
            0.976566109179    -0.126670386782    0.016102186275    0.011028344246    -0.001105267781    -0.002231899048    0.001778605023    0.009777085586
            0.002232397854    0.009648723291    -0.001104937182    -0.002232792235    0.016671303658    0.010827380888    0.976669168474    -0.126331552644
            -0.001109587520    -0.002231993396    0.001770703179    0.009774900925    0.976669217193    -0.126331331906    0.016036974965    0.010943847297
0.050     0.022954966962    0.018002782115    0.950684230104    -0.248121389481    0.006688380370    0.018245602332    -0.002340949337    -0.004064412629
            0.950684230104    -0.248121389481    0.020632720188    0.018825657060    -0.002339363218    -0.004064404006    0.004919015242    0.018868758449
            0.006688346071    0.018245631946    -0.002339336263    -0.004064434290    0.022850984379    0.017874186192    0.950917387931    -0.247470059669
            -0.002340952606    -0.004064429787    0.004919075332    0.018868692146    0.950917387931    -0.247470059669    0.020522122044    0.018701139619
0.075     0.030913172405    0.022813845733    0.910206993867    -0.364711144844    0.013509161161    0.025074879074    -0.004090910704    -0.005356016857
            0.910206993867    -0.364711144844    0.026078033142    0.025149406389    -0.004087625752    -0.005356212645    0.009760389655    0.026885037674
            0.013509153611    0.025074879733    -0.004087623797    -0.005356215899    0.030761883689    0.022644893351    0.910649124001    -0.363780683132
            -0.004090905836    -0.005356016297    0.009760388076    0.026885090376    0.910649124001    -0.363780683132    0.025909723350    0.024986792413
0.100     0.040203129870    0.024909547396    0.855700153747    -0.474771093248    0.022095239876    0.029594570293    -0.006152758238    -0.006052068303
            0.855700153747    -0.474771093248    0.032287542792    0.029906364399    -0.006146858110    -0.006053206953    0.015931764572    0.033532983556
            0.022095239876    0.029594570293    -0.006146855355    -0.006053208467    0.039996787837    0.024721734652    0.856422257296    -0.473610471324
            -0.006152756981    -0.006052071293    0.015931763987    0.033532983834    0.856422257296    -0.473610471324    0.032048574540    0.029728586451
0.125     0.049974492770    0.023885687492    0.788037268274    -0.576681052702    0.031752813400    0.031425927387    -0.008335073367    -0.006154636149
            0.788037268274    -0.576681052702    0.038807354524    0.032959752706    -0.008323806187    -0.006173445481    0.023052925275    0.038624955443
            0.031752813400    0.031425927387    -0.008323805913    -0.006173447530    0.049713389587    0.023693523012    0.789099610155    -0.575351360781
            -0.008335071488    -0.006154637010    0.023052925275    0.038624955443    0.789099610155    -0.575351360781    0.038502581861    0.032794584717
0.150     0.059559018807    0.019772946338    0.708570885893    -0.668865386865    0.041722677839    0.030337196936    -0.010489659563    -0.005686910841
            0.708570885893    -0.668865386865    0.045305022490    0.034428137303    -0.010478126198    -0.005724257358    0.030701488482    0.042018567485
            0.041722677839    0.030337196936    -0.010478126198    -0.005724257358    0.059255890783    0.019610045549    0.710020461503    -0.667439488836
            -0.010489659563    -0.005686910841    0.030701488482    0.042018567485    0.710020461503    -0.667439488836    0.044933463807    0.034296348880
0.175     0.068026994239    0.012619472254    0.618718817761    -0.750092080125    0.051207501171    0.026309676624    -0.012482975760    -0.004721948505
            0.618718817761    -0.750092080125    0.051367261480    0.034416661144    -0.012475483893    -0.004778390010    0.038441186639    0.043708788496
            0.051207501171    0.026309676624    -0.012475483893    -0.004778390010    0.067702163354    0.012506098258    0.620588863539    -0.748649575410
            -0.012482974936    -0.004721950684    0.038441186639    0.043708788496    0.620588863539    -0.748649575410    0.050939818915    0.034341269773
0.200     0.074540256815    0.002758255349    0.519959595529    -0.819329961157    0.059436760785    0.019527521856    -0.014228243104    -0.003364426278
            0.519959595529    -0.819329961157    0.056612076046    0.033165579864    -0.014228803122    -0.003440566947    0.045861056923    0.043809528213
            0.059436760785    0.019527521856    -0.014228803122    -0.003440566947    0.074220660444    0.002705948176    0.522271789326    -0.817956749331
            -0.014228243104    -0.003364426278    0.045861056923    0.043809528213    0.522271789326    -0.817956749331    0.056148204138    0.033165609297
0.225     0.078368968469    -0.009277322910    0.413833806501    -0.875716131611    0.065702179211    0.010356031078    -0.015688555071    -0.001723604835
            0.413833806501    -0.875716131611    0.060751740506    0.031008758476    -0.015701562967    -0.001819965472    0.052602500725    0.042528477740
            0.065702179211    0.010356031078    -0.015701562967    -0.001819965472    0.078085817894    -0.009267011479    0.416590830077    -0.874498989889
            -0.015688555071    -0.001723604835    0.052602500725    0.042528477740    0.416590830077    -0.874498989889    0.060277397221    0.031095991597
0.250     0.078945399042    -0.022774874895    0.301929952872    -0.918558149826    0.069404431115    -0.000676906916    -0.016874135541    0.000105924579
            0.301929952872    -0.918558149826    0.063610644214    0.028361755213    -0.016904702114    -0.000011462411    0.058384109972    0.040159573077
            0.069404431115    -0.000676906916    -0.016904702114    -0.000011462411    0.078731690833    -0.022710345216    0.305124135095    -0.917587686470
            -0.016874135541    0.000105924579    0.058384109972    0.040159573077    0.305124135095    -0.917587686470    0.063155216932    0.028539448791
0.275     0.075878679777    -0.036894593486    0.185888811051    -0.947321104241    0.070076305359    -0.012906809820    -0.017826161180    0.002062396422
            0.185888811051    -0.947321104241    0.065144681572    0.025661482467    -0.017880750148    0.001923821161    0.063014766389    0.037050194424
            0.070076305359    -0.012906809820    -0.017880750148    0.001923821161    0.075766099727    -0.036795388436    0.189499158182    -0.946686108997
            -0.017826161180    0.002062396422    0.063014766389    0.037050194424    0.189499158182    -0.946686108997    0.064738623578    0.025923260438
0.300     0.068998939326    -0.050710879148    0.067391015196    -0.961639945901    0.067419786421    -0.025567824759    -0.018600252722    0.004126792049
            0.067391015196    -0.961639945901    0.065439181061    0.023347737892    -0.018686995159    0.003967039518    0.066409550322    0.033585063763
            0.067419786421    -0.025567824759    -0.018686995159    0.003967039518    0.069014361657    -0.050607815101    0.071376524920    -0.961426907022
            -0.018600252722    0.004126792049    0.066409550322    0.033585063763    0.071376524920    -0.961426907022    0.065111004303    0.023677309742
0.325     0.058356470403    -0.063262017578    -0.051839016338    -0.961312358493    0.061319835569    -0.037824716984    -0.019242447740    0.006323309008
            -0.051839016338    -0.961312358493    0.064703056292    0.021810919193    -0.019371526556    0.006144373875    0.068589769092    0.030150211710
            0.061319835569    -0.037824716984    -0.019371526556    0.006144373875    0.058518834760    -0.063195201434    -0.047527752187    -0.961604535792
            -0.019242447740    0.006323309008    0.068589769092    0.030150211710    -0.047527752187    -0.961604535792    0.064475943636    0.022182736129
0.350     0.044242741726    -0.073608207552    -0.170046490369    -0.946323839067    0.051866335513    -0.048822457182    -0.019770927022    0.008712640579
            -0.170046490369    -0.946323839067    0.063253754778    0.021375666459    -0.019954968665    0.008518057221    0.069688380505    0.027113241341
            0.051866335513    -0.048822457182    -0.019954968665    0.008518057221    0.044559717194    -0.073625790976    -0.165477688704    -0.947198459437
            -0.019770927022    0.008712640579    0.069688380505    0.027113241341    -0.165477688704    -0.947198459437    0.063143328180    0.021756642187
0.375     0.027173545177    -0.080879745615    -0.285453370741    -0.916849900158    0.039355373310    -0.057724502048    -0.020157744880    0.011374390552
            -0.285453370741    -0.916849900158    0.061493374365    0.022260312612    -0.020412524008    0.011170955935    0.069934576560    0.024785096103
            0.039355373310    -0.057724502048    -0.020412524008    0.011170955935    0.027638865395    -0.081034414366    -0.280705513471    -0.918376817287
            -0.020157744880    0.011374390552    0.069934576560    0.024785096103    -0.280705513471    -0.918376817287    0.061505454165    0.022612059256
0.400     0.007879396100    -0.084340628264    -0.396276112009    -0.873283587698    0.024288781296    -0.063774689449    -0.020321795957    0.014387025516
            -0.396276112009    -0.873283587698    0.059883227059    0.024567920951    -0.020668138582    0.014184506828    0.069645925562    0.023403362517
            0.024288781296    -0.063774689449    -0.020668138582    0.014184506828    0.008470474904    -0.084686538408    -0.391446044612    -0.875521064027
            -0.020321795957    0.014387025516    0.069645925562    0.023403362517    -0.391446044612    -0.875521064027    0.060012056846    0.024849488421
0.425     -0.012730214629    -0.083432354600    -0.500752576848    -0.816247731875    0.007354518309    -0.066336854168    -0.020128898301    0.017800185441
            -0.500752576848    -0.816247731875    0.058906057991    0.028261234863    -0.020596223516    0.017613901718    0.069197061957    0.023099347505
            0.007354518309    -0.066336854168    -0.020596223516    0.017613901718    -0.012054172257    -0.084020196949    -0.495949305097    -0.819240681384
            -0.020128898301    0.017800185441    0.069197061957    0.023099347505    -0.495949305097    -0.819240681384    0.059134092634    0.028432457488
0.450     -0.033611940782    -0.077828604709    -0.597185681590    -0.746605194237    -0.010606551978    -0.064955148793    -0.019404194884    0.021613325397
            -0.597185681590    -0.746605194237    0.059033147805    0.033167733655    -0.020042075734    0.021466760801    0.068997707151    0.023892130319
            -0.010606551978    -0.064955148793    -0.020042075734    0.021466760801    -0.032912195668    -0.078700587275    -0.592528479582    -0.750381308980
            -0.019404194884    0.021613325397    0.068997707151    0.023892130319    -0.592528479582    -0.750381308980    0.059331650734    0.033191966018
0.475     -0.053645656127    -0.067460850738    -0.683975167126    -0.665466452855    -0.028646781505    -0.059382051821    -0.017953284628    0.025756155253
            -0.683975167126    -0.665466452855    0.060678681591    0.038977314297    -0.018864785030    0.025689317212    0.069448199490    0.025672283415
            -0.028646781505    -0.059382051821    -0.018864785030    0.025689317212    -0.053010455798    -0.068644794462    -0.679591486315    -0.670032785915
            -0.017953284628    0.025756155253    0.069448199490    0.025672283415    -0.679591486315    -0.670032785915    0.061010443255    0.038823090203
0.500     -0.071707925609    -0.052543006539    -0.759676598061    -0.574177361141    -0.045790481100    -0.049613581515    -0.015592430136    0.030083301591
            -0.759676598061    -0.574177361141    0.064164609074    0.045272672826    -0.017074242228    0.030178289150    0.070910625643    0.028219390272
            -0.045790481100    -0.049613581515    -0.017074242228    0.030178289150    -0.071282605560    -0.054044111967    -0.755694925032    -0.579517542098
            -0.015592430136    0.030083301591    0.070910625643    0.028219390272    -0.755694925032    -0.579517542098    0.064491539994    0.044908160802
0.525     -0.086742352874    -0.033558781663    -0.823051182426    -0.474285790971    -0.061220892103    -0.035891259113    -0.012180428982    0.034386933341
            -0.823051182426    -0.474285790971    0.069630872329    0.051597020905    -0.015867778730    0.034672862966    0.073633246357    0.031237774025
            -0.061220892103    -0.035891259113    -0.015867778730    0.034672862966    -0.086994441620    -0.035392361799    -0.819590441443    -0.480330488422
            -0.012180428982    0.034386933341    0.073633246357    0.031237774025    -0.819590441443    -0.480330488422    0.069975514922    0.050938970017
0.550     -0.097850720672    -0.011286496762    -0.873160274754    -0.367754008850    -0.072864544315    -0.019760906721    -0.007637054785    0.038360684782
            -0.873160274754    -0.367754008850    0.077175998345    0.056548380990    -0.005402084392    0.031404174203    0.077807047694    0.033803718398
            -0.072864544315    -0.019760906721    -0.005402084392    0.031404174203    -0.096863411684    -0.015079702659    -0.870577206350    -0.374511418522
            -0.007637054785    0.038360684782    0.077807047694    0.033803718398    -0.870577206350    -0.374511418522    0.077489004815    0.056360436454
0.575     -0.104235571522    0.013420530603    -0.909057989169    -0.256073447311    -0.081675521619    0.000699855422    -0.001813788665    0.041929462815
            -0.909057989169    -0.256073447311    0.087020271764    0.061144273814    -0.000721362610    0.039327312747    0.083735374757    0.036431043800
            -0.081675521619    0.000699855422    -0.000721362610    0.039327312747    -0.103913386604    0.010335705092    -0.907186673341    -0.263454097916
            -0.001813788665    0.041929462815    0.083735374757    0.036431043800    -0.907186673341    -0.263454097916    0.087001994708    0.060565216472
0.600     -0.105255705811    0.039342252194    -0.930569555118    -0.141468463688    -0.086211132594    0.022442741402    0.006055255882    0.044518683200
            -0.930569555118    -0.141468463688    0.098395551394    0.063761515885    0.005327558309    0.042068109501    0.091013980046    0.037957701565
            -0.086211132594    0.022442741402    0.005327558309    0.042068109501    -0.105809089558    0.036075485679    -0.929586564308    -0.149305030484
            0.006055255882    0.044518683200    0.091013980046    0.037957701565    -0.929586564308    -0.149305030484    0.098242563572    0.062966200678
0.625     -0.101317213702    0.064677671369    -0.937625414480    -0.025759692414    -0.086483484310    0.044682538244    0.013883265381    0.043240064079
            -0.937625414480    -0.025759692414    0.111079158492    0.064105489848    0.012372070652    0.043086163992    0.099386128783    0.038082692800
            -0.086483484310    0.044682538244    0.012372070176    0.043086165169    -0.102456343157    0.061872487725    -0.937591482072    -0.033970110071
            0.013883265381    0.043240064079    0.099386128783    0.038082692800    -0.937591482072    -0.033970110071    0.110552059876    0.063132915156
0.650     -0.092605182763    0.089420726594    -0.930205444743    0.089161266059    -0.082399718110    0.067085280476    0.020600581325    0.042125770792
            -0.930205444743    0.089161266059    0.124558519329    0.061822411840    0.019915250089    0.042462979464    0.108721906328    0.036569775281
            -0.082399718110    0.067085280476    0.019915249348    0.042462979811    -0.093989229509    0.086645668800    -0.931245611049    0.080707339244
            0.020600581325    0.042125770792    0.108721906328    0.036569775281    -0.931245611049    0.080707339244    0.123709225679    0.060922645393
0.675     -0.079005811955    0.112082163645    -0.908826063780    0.201412992485    -0.073882573035    0.088444344282    0.027872933356    0.039777157967
            -0.908826063780    0.201412992485    0.138214323133    0.056702793332    0.027491824969    0.040137277475    0.118581789793    0.033024424263
            -0.073882573035    0.088444344282    0.027491824969    0.040137277475    -0.080804098872    0.109326603194    -0.910991656582    0.192882584335
            0.027872933356    0.039777157967    0.118581789793    0.033024424263    -0.910991656582    0.192882584335    0.137099410971    0.055918620254
0.700     -0.061258715286    0.131629120430    -0.874171679322    0.309360406199    -0.061375438756    0.107849444802    0.034892070045    0.035783504336
            -0.874171679322    0.309360406199    0.151401833388    0.048686608088    0.034652197378    0.036144356102    0.128469060617    0.027296522725
            -0.061375438756    0.107849444802    0.034652197378    0.036144356102    -0.063510616187    0.128991894587    -0.877483674337    0.300916509409
            0.034892070045    0.035783504336    0.128469060617    0.027296522725    -0.877483674337    0.300916509409    0.150047409890    0.048067888263
0.725     -0.040196262235    0.147315580763    -0.827092411562    0.411518723044    -0.045430885304    0.124560723131    0.041124359596    0.030263946552
            -0.827092411562    0.411518723044    0.163472487032    0.037867555885    0.040974397559    0.030627181321    0.137874481442    0.019349003190
            -0.045430885304    0.124560723131    0.040974397559    0.030627181321    -0.042889234022    0.144894980268    -0.831548176075    0.403321925931
            0.041124359874    0.030263947862    0.137874481442    0.019349003190    -0.831548176075    0.403321925931    0.161913245360    0.037466015988
0.750     -0.016744799696    0.158615718519    -0.768568446824    0.506581228924    -0.026713931707    0.137998776013    0.046174321085    0.023471685484
            -0.768568446824    0.506581228924    0.173819247986    0.024483399498    0.046094514532    0.023835370760    0.146303807990    0.009259185269
            -0.026713931707    0.137998776013    0.046094514532    0.023835370760    -0.019838416972    0.156499951541    -0.774144511241    0.498786980442
            0.046174321085    0.023471685484    0.146303807990    0.009259185269    -0.774144511241    0.498786980442    0.172102330031    0.024344848717
0.775     0.008115089521    0.165223570447    -0.699681628634    0.593410753667    -0.005962982128    0.147744035322    0.049751807546    0.015747185192
            -0.699681628634    0.593410753667    0.181900776602    0.008903374834    0.049731940188    0.016106578717    0.153283527869    -0.002788518796
            -0.005962982128    0.147744035322    0.049731940188    0.016106578717    0.004680838682    0.163488325117    -0.706334776165    0.586170982238
            0.049751807546    0.015747185192    0.153283527869    -0.002788518796    -0.706334776165    0.586170982238    0.180084115434    0.009062290340
