# GHz S RI R 45
0.000     0.012552374621    0.001934159413    -0.000002170095    -0.000004773646    0.000662975497    0.001653962700    -0.000003117433    -0.000006930980
            -0.000002170096    -0.000004773646    0.012809974167    0.001507561827    -0.000001478812    -0.000003144814    0.000695034361    0.001406223179
            0.000662975410    0.001653962734    -0.000001478811    -0.000003144815    0.012504370987    0.001921648426    -0.000002221061    -0.000004848572
            -0.000003117428    -0.000006930980    0.000695034071    0.001406223210    -0.000002221060    -0.000004848572    0.012749302261    0.001517561661
0.025     0.016744246852    0.010887041752    -0.000004866463    -0.000010483407    0.002235003023    0.009645949561    -0.000006962028    -0.000015231842
            -0.000004866374    -0.000010483432    0.016073069792    0.010298066142    -0.000003295236    -0.000006899269    0.001726846339    0.009364794454
            0.002232397854    0.009648723291    -0.000003295299    -0.000006899253    0.016671303658    0.010827380888    -0.000004947843    -0.000010651055
            -0.000006962027    -0.000015231839    0.001729210360    0.009363186746    -0.000004947839    -0.000010651057    0.016014438243    0.010337398813
0.050     0.022954966962    0.018002782115    -0.000010493327    -0.000018093655    0.006688380370    0.018245602332    -0.000014947537    -0.000026382014
            -0.000010493327    -0.000018093655    0.020311583496    0.017604451784    -0.000007090809    -0.000011860991    0.004774221888    0.018120814959
            0.006688346071    0.018245631946    -0.000007090809    -0.000011860991    0.022850984379    0.017874186192    -0.000010622100    -0.000018410185
            -0.000014947542    -0.000026382011    0.004774350390    0.018120875208    -0.000010622100    -0.000018410185    0.020254978217    0.017683417417
0.075     0.030913172405    0.022813845733    -0.000017720575    -0.000023687460    0.013509161161    0.025074879074    -0.000025218105    -0.000034764223
            -0.000017720575    -0.000023687460    0.025461461381    0.023518532389    -0.000011961568    -0.000015430478    0.009499291304    0.025815365926
            0.013509153611    0.025074879733    -0.000011961568    -0.000015430478    0.030761883689    0.022644893351    -0.000017924384    -0.000024173013
            -0.000025218105    -0.000034764223    0.009499290673    0.025815372552    -0.000017924383    -0.000024173012    0.025411970131    0.023642010282
0.100     0.040203129870    0.024909547396    -0.000026254012    -0.000027223210    0.022095239876    0.029594570293    -0.000037438083    -0.000040331999
            -0.000026254011    -0.000027223209    0.031359479598    0.027914092425    -0.000017685345    -0.000017574560    0.015531941791    0.032137632399
            0.022095239876    0.029594570293    -0.000017685345    -0.000017574560    0.039996787837    0.024721734652    -0.000026593946    -0.000027897414
            -0.000037438083    -0.000040331999    0.015531919297    0.032137638828    -0.000026593946    -0.000027897414    0.031322481805    0.028083926599
0.125     0.049974492770    0.023885687492    -0.000035625815    -0.000028514596    0.031752813400    0.031425927387    -0.000051015042    -0.000042792700
            -0.000035625815    -0.000028514596    0.037483636375    0.030606725879    -0.000023927426    -0.000018172235    0.022481777209    0.036895656974
            0.031752813400    0.031425927387    -0.000023927426    -0.000018172235    0.049713389587    0.023693523012    -0.000036191446    -0.000029376588
            -0.000051015042    -0.000042792700    0.022481777209    0.036895656974    -0.000036191446    -0.000029376588    0.037478282900    0.030829769159
0.150     0.059559018807    0.019772946338    -0.000045333043    -0.000027565718    0.041722677839    0.030337196936    -0.000065288560    -0.000042083412
            -0.000045333043    -0.000027565718    0.043641905716    0.031779078587    -0.000030331693    -0.000017239771    0.029913095517    0.039937805370
            0.041722677839    0.030337196936    -0.000030331693    -0.000017239771    0.059255890783    0.019610045549    -0.000046231467    -0.000028572892
            -0.000065288560    -0.000042083412    0.029913095517    0.039937805370    -0.000046231467    -0.000028572892    0.043668755945    0.032043517152
0.175     0.068026994239    0.012619472254    -0.000054928611    -0.000024443848    0.051207501171    0.026309676624    -0.000079644924    -0.000038217685
            -0.000054928611    -0.000024443848    0.049343971014    0.031478624628    -0.000036587933    -0.000014836500    0.037376402476    0.041263263781
            0.051207501171    0.026309676624    -0.000036587933    -0.000014836500    0.067702163354    0.012506098258    -0.000056264787    -0.000025506134
            -0.000079644924    -0.000038217685    0.037376402476    0.041263263781    -0.000056264787    -0.000025506134    0.049408481552    0.031778836773
0.200     0.074540256815    0.002758255349    -0.000064043635    -0.000019314132    0.059436760785    0.019527521856    -0.000093547097    -0.000031343109
            -0.000064043635    -0.000019314132    0.054179603689    0.029940182526    -0.000042442096    -0.000011091352    0.044446721496    0.040990805625
            0.059436760785    0.019527521856    -0.000042442096    -0.000011091352    0.074220660444    0.002705948176    -0.000065901559    -0.000020290247
            -0.000093547097    -0.000031343109    0.044446721496    0.040990805625    -0.000065901559    -0.000020290247    0.054288850729    0.030270457620
0.225     0.078368968469    -0.009277322910    -0.000072385909    -0.000012360434    0.065702179211    0.010356031078    -0.000106534523    -0.000021636492
            -0.000072385909    -0.000012360434    0.057846971569    0.027501458484    -0.000047696501    -0.000006143606    0.050751040633    0.039337833869
            0.065702179211    0.010356031078    -0.000047696501    -0.000006143606    0.078085817894    -0.009267011479    -0.000074805086    -0.000013064726
            -0.000106534523    -0.000021636492    0.050751040633    0.039337833869    -0.000074805086    -0.000013064726    0.058008180009    0.027854012482
0.250     0.078945399042    -0.022774874895    -0.000079746420    -0.000003780889    0.069404431115    -0.000676906916    -0.000118230889    -0.000009316912
            -0.000079746420    -0.000003780889    0.060158623750    0.024582552497    -0.000052212513    -0.000000140602    0.055993209313    0.036612614937
            0.069404431115    -0.000676906916    -0.000052212513    -0.000000140602    0.078731690833    -0.022710345216    -0.000082702016    -0.000003995365
            -0.000118230889    -0.000009316912    0.055993209313    0.036612614937    -0.000082702016    -0.000003995365    0.060377188103    0.024946732740
0.275     0.075878679777    -0.036894593486    -0.000085957427    0.000006261460    0.070076305359    -0.012906809820    -0.000128299603    0.000005417500
            -0.000085957427    0.000006261460    0.061056115400    0.021630734968    -0.000055879811    0.000006794502    0.059970125110    0.033182918819
            0.070076305359    -0.012906809820    -0.000055879811    0.000006794502    0.075766099727    -0.036795388436    -0.000089344962    0.000006759204
            -0.000128299603    0.000005417500    0.059970125110    0.033182918819    -0.000089344962    0.000006759204    0.061334828653    0.021993833957
0.300     0.068998939326    -0.050710879148    -0.000090884678    0.000017631164    0.067419786421    -0.025567824759    -0.000136441707    0.000022365805
            -0.000090884678    0.000017631164    0.060609513796    0.019101320206    -0.000058610868    0.000014559482    0.062587308564    0.029459010740
            0.067419786421    -0.025567824759    -0.000058610868    0.000014559482    0.069014361657    -0.050607815101    -0.000094513534    0.000019044637
            -0.000136441707    0.000022365805    0.062587308564    0.029459010740    -0.000094513534    0.000019044637    0.060947309335    0.019448845354
0.325     0.058356470403    -0.063262017578    -0.000094373943    0.000030229858    0.061319835569    -0.037824716984    -0.000142339851    0.000041343824
            -0.000094373943    0.000030229858    0.059014504098    0.017408897783    -0.000060302226    0.000023078050    0.063862787889    0.025858246396
            0.061319835569    -0.037824716984    -0.000060302226    0.000023078050    0.058518834760    -0.063195201434    -0.000097971821    0.000032708981
            -0.000142339851    0.000041343824    0.063862787889    0.025858246396    -0.000097971821    0.000032708981    0.059405918641    0.017726119381
0.350     0.044242741726    -0.073608207552    -0.000096246170    0.000043977087    0.051866335513    -0.048822457182    -0.000145660751    0.000062152082
            -0.000096246170    0.000043977087    0.056579576166    0.016909602955    -0.000060834380    0.000032278489    0.063932318725    0.022783245776
            0.051866335513    -0.048822457182    -0.000060834380    0.000032278489    0.044559717194    -0.073625790976    -0.000099477514    0.000047582058
            -0.000145660751    0.000062152082    0.063932318725    0.022783245776    -0.000099477514    0.000047582058    0.057014616959    0.017182930373
0.375     0.027173545177    -0.080879745615    -0.000096259233    0.000058776559    0.039355373310    -0.057724502048    -0.000146017858    0.000084555429
            -0.000096259233    0.000058776559    0.053706393004    0.017860643120    -0.000060043701    0.000042077717    0.063038306601    0.020583205865
            0.039355373310    -0.057724502048    -0.000060043701    0.000042077717    0.027638865395    -0.081034414366    -0.000098751362    0.000063457284
            -0.000146017858    0.000084555429    0.063038306601    0.020583205865    -0.000098751362    0.000063457284    0.054170570504    0.018078778477
0.400     0.007879396100    -0.084340628264    -0.000094123125    0.000074485831    0.024288781296    -0.063774689449    -0.000143000816    0.000108232297
            -0.000094123125    0.000074485831    0.050865801154    0.020407974279    -0.000057739525    0.000052354986    0.061520550713    0.019534384359
            0.024288781296    -0.063774689449    -0.000057739525    0.000052354986    0.008470474904    -0.084686538408    -0.000095508446    0.000080067416
            -0.000143000816    0.000108232297    0.061520550713    0.019534384359    -0.000095508446    0.000080067416    0.051341098595    0.020563765698
0.425     -0.012730214629    -0.083432354600    -0.000089498400    0.000090868054    0.007354518309    -0.066336854168    -0.000136175449    0.000132738634
            -0.000089498400    0.000090868054    0.048563700432    0.024559453283    -0.000053702188    0.000062920355    0.059789132418    0.019804416885
            0.007354518309    -0.066336854168    -0.000053702188    0.000062920355    -0.012054172257    -0.084020196949    -0.000089455630    0.000097049684
            -0.000136175449    0.000132738634    0.059789132418    0.019804416885    -0.000089455630    0.000097049684    0.049029853721    0.024650751462
0.450     -0.033611940782    -0.077828604709    -0.000082045909    0.000107555908    -0.010606551978    -0.064955148793    -0.000125147806    0.000157475600
            -0.000082045909    0.000107555908    0.047307994797    0.030184794563    -0.000047726686    0.000073490545    0.058299286462    0.021442674964
            -0.010606551978    -0.064955148793    -0.000047726686    0.000073490545    -0.032912195668    -0.078700587275    -0.000080349578    0.000113927354
            -0.000125147806    0.000157475600    0.058299286462    0.021442674964    -0.000080349578    0.000113927354    0.047744768463    0.030214767682
0.475     -0.053645656127    -0.067460850738    -0.000071422839    0.000124016313    -0.028646781505    -0.059382051821    -0.000109546851    0.000181654300
            -0.000071422839    0.000124016313    0.047564018696    0.037009985319    -0.000039609854    0.000083668870    0.057509174853    0.024360516255
            -0.028646781505    -0.059382051821    -0.000039609854    0.000083668870    -0.053010455798    -0.068644794462    -0.000067976631    0.000130090948
            -0.000109546851    0.000181654300    0.057509174853    0.024360516255    -0.000067976631    0.000130090948    0.047954696945    0.036985161689
0.500     -0.071707925609    -0.052543006539    -0.000057387443    0.000139660928    -0.045790481100    -0.049613581515    -0.000089148401    0.000204441651
            -0.000057387443    0.000139660928    0.049714365528    0.044642183279    -0.000029220553    0.000093063055    0.057844517053    0.028344628386
            -0.045790481100    -0.049613581515    -0.000029220553    0.000093063055    -0.071282605560    -0.054044111967    -0.000052224018    0.000144965458
            -0.000089148401    0.000204441651    0.057844517053    0.028344628386    -0.000052224018    0.000144965458    0.050055434835    0.044563796758
0.525     -0.086742352874    -0.033558781663    -0.000039946176    0.000153763831    -0.061220892103    -0.035891259113    -0.000064045598    0.000224857949
            -0.000039946176    0.000153763831    0.053954724439    0.052635223708    -0.000016589440    0.000101388066    0.059615571967    0.033089883452
            -0.061220892103    -0.035891259113    -0.000016589440    0.000101388066    -0.086994441620    -0.035392361799    -0.000033196147    0.000158159634
            -0.000064045598    0.000224857949    0.059615571967    0.033089883452    -0.000033196147    0.000158159634    0.054331455250    0.052444088397
0.550     -0.097850720672    -0.011286496762    -0.000019329448    0.000165201128    -0.072864544315    -0.019760906721    -0.000034623349    0.000241749569
            -0.000019329448    0.000165201128    0.060578544313    0.059449971359    -0.000003671243    0.000106624736    0.063147110877    0.037591162498
            -0.072864544315    -0.019760906721    -0.000003671243    0.000106624736    -0.096863411684    -0.015079702659    -0.000013723464    0.000166947660
            -0.000034623349    0.000241749569    0.063147110877    0.037591162498    -0.000013723464    0.000166947660    0.060891192104    0.060044255381
0.575     -0.104235571522    0.013420530603    0.000004333601    0.000173611122    -0.081675521619    0.000699855422    -0.000001253341    0.000254117619
            0.000004333601    0.000173611122    0.069719422932    0.066373321475    0.000013248746    0.000110141325    0.068712036026    0.042451965590
            -0.081675521619    0.000699855422    0.000013248746    0.000110141325    -0.103913386604    0.010335705092    0.000011443292    0.000173160297
            -0.000001253341    0.000254117619    0.068712036026    0.042451965590    0.000011443292    0.000173160297    0.069800647989    0.066725065913
0.600     -0.105255705811    0.039342252194    0.000030073992    0.000177856199    -0.086211132594    0.022442741402    0.000034971640    0.000260865277
            0.000030073992    0.000177856199    0.080742951303    0.071492262280    0.000030457593    0.000110864074    0.076009920086    0.046333674857
            -0.086211132594    0.022442741402    0.000030457593    0.000110864074    -0.105809089558    0.036075485679    0.000037097519    0.000175444045
            0.000034971640    0.000260865277    0.076009920086    0.046333674857    0.000037097519    0.000175444045    0.080865168665    0.071821941297
0.625     -0.101317213702    0.064677671369    0.000056874148    0.000177791827    -0.086483484310    0.044682538244    0.000072535905    0.000261887000
            0.000056874148    0.000177791827    0.093489088546    0.074498137555    0.000047960427    0.000108414650    0.084805742975    0.048867537120
            -0.086483484310    0.044682538244    0.000047960427    0.000108414650    -0.102456343157    0.061872487725    0.000063260420    0.000173299478
            0.000072535905    0.000261887000    0.084805742975    0.048867537120    0.000063260420    0.000173299478    0.093438406896    0.074790377527
0.650     -0.092605182763    0.089420726594    0.000084355008    0.000173002411    -0.082399718110    0.067085280476    0.000111186381    0.000256723610
            0.000084355008    0.000173002411    0.107487634583    0.074960836786    0.000065149778    0.000102724825    0.094984999752    0.049768303847
            -0.082399718110    0.067085280476    0.000065149778    0.000102724825    -0.093989229509    0.086645668800    0.000089191696    0.000166653448
            0.000111186381    0.000256723610    0.094984999752    0.049768303847    0.000089191696    0.000166653448    0.107348164544    0.075469429025
0.675     -0.079005811955    0.112082163645    0.000111204140    0.000163218444    -0.073882573035    0.088444344282    0.000149220737    0.000244927282
            0.000111204140    0.000163218444    0.122140029637    0.072581182654    0.000081301626    0.000093899422    0.106121273018    0.048543965318
            -0.073882573035    0.088444344282    0.000081301626    0.000093899422    -0.080804098872    0.109326603194    0.000113941196    0.000155608804
            0.000149220737    0.000244927282    0.106121273018    0.048543965318    0.000113941196    0.000155608804    0.122021817844    0.073307876332
0.700     -0.061258715286    0.131629120430    0.000136374514    0.000148727755    -0.061375438756    0.107849444802    0.000185313437    0.000226864511
            0.000136374514    0.000148727755    0.136803452946    0.067208002014    0.000095771164    0.000082251737    0.117692792775    0.044959593353
            -0.061375438756    0.107849444802    0.000095771164    0.000082251737    -0.063510616187    0.128991894587    0.000136671354    0.000140544387
            0.000185313437    0.000226864511    0.117692792775    0.044959593353    0.000136671354    0.000140544387    0.136767260810    0.068147496941
0.725     -0.040196262235    0.147315580763    0.000158943803    0.000129994468    -0.045430885304    0.124560723131    0.000218338378    0.000203078129
            0.000158943803    0.000129994468    0.150812616816    0.058844322318    0.000108018123    0.000068228715    0.129153914867    0.038901672270
            -0.045430885304    0.124560723131    0.000108018123    0.000068228715    -0.042889234022    0.144894980268    0.000156677516    0.000122001887
            0.000218338378    0.000203078129    0.129153914867    0.038901672270    0.000156677519    0.000122001885    0.150915581461    0.059985717037
0.750     -0.016744799696    0.158615718519    0.000178161253    0.000107663199    -0.026713931707    0.137998776013    0.000247344015    0.000174331924
            0.000178161253    0.000107663199    0.163527462542    0.047643137640    0.000117660028    0.000052381599    0.139958307592    0.030383584122
            -0.026713931707    0.137998776013    0.000117660028    0.000052381599    -0.019838416972    0.156499951541    0.000173439302    0.000100646360
            0.000247344015    0.000174331924    0.139958307592    0.030383584122    0.000173439302    0.000100646360    0.163824650645    0.048966274485
0.775     0.008115089521    0.165223570447    0.000193450013    0.000082502465    -0.005962982128    0.147744035322    0.000271602673    0.000141514180
            0.000193450013    0.000082502465    0.174358328304    0.033895966054    0.000124458439    0.000035308114    0.149571403615    0.019536787952
            -0.005962982128    0.147744035322    0.000124458439    0.000035308114    0.004680838682    0.163488325117    0.000186615624    0.000077198830
            0.000271602673    0.000141514180    0.149571403615    0.019536787952    0.000186615624    0.000077198830    0.174901864178    0.035367957371
