# GHz S RI R 45
0.000     0.012552374621    0.001934159413    -0.000000011349    0.000000509259    0.000662975497    0.001653962700    -0.000000222934    0.000000113944
            -0.000000011347    0.000000509259    0.013125203511    0.001346953591    0.000000144756    0.000000802324    0.000705234016    0.001238943811
            0.000662975410    0.001653962734    0.000000144738    0.000000802324    0.012504370987    0.001921648426    -0.000000011194    0.000000519247
            -0.000000222934    0.000000113944    0.000705234066    0.001238943898    -0.000000011194    0.000000519247    0.013143770886    0.001358873544
0.025     0.016744246852    0.010887041752    0.000000171071    0.000001150869    0.002235003023    0.009645949561    -0.000000270134    0.000000288873
            0.000000171072    0.000001150872    0.016500400660    0.010217097258    0.000000500221    0.000001792861    0.001756321403    0.009236940418
            0.002232397854    0.009648723291    0.000000500220    0.000001792849    0.016671303658    0.010827380888    0.000000178025    0.000001176401
            -0.000000270135    0.000000288873    0.001756353290    0.009235218752    0.000000178024    0.000001176400    0.016427427873    0.010190097019
0.050     0.022954966962    0.018002782115    0.000000662256    0.000002147816    0.006688380370    0.018245602332    -0.000000222642    0.000000688447
            0.000000662257    0.000002147816    0.020844436613    0.017380771947    0.000001330513    0.000003237668    0.004879289364    0.017852939746
            0.006688346071    0.018245631946    0.000001330513    0.000003237668    0.022850984379    0.017874186192    0.000000686173    0.000002191947
            -0.000000222642    0.000000688447    0.004879345163    0.017852903762    0.000000686173    0.000002191947    0.020726833106    0.017368989108
0.075     0.030913172405    0.022813845733    0.000001398241    0.000003001101    0.013509161161    0.025074879074    -0.000000034617    0.000001079746
            0.000001398241    0.000003001101    0.026149308787    0.023096300239    0.000002483845    0.000004422228    0.009720468891    0.025343358550
            0.013509153611    0.025074879733    0.000002483845    0.000004422228    0.030761883689    0.022644893351    0.000001440667    0.000003050042
            -0.000000034617    0.000001079746    0.009720475905    0.025343362286    0.000001440667    0.000003050042    0.025978717738    0.023108162018
0.100     0.040203129870    0.024909547396    0.000002348167    0.000003667961    0.022095239876    0.029594570293    0.000000264044    0.000001418298
            0.000002348167    0.000003667961    0.032229509194    0.027192500903    0.000003919629    0.000005308886    0.015880807406    0.031377236934
            0.022095239876    0.029594570293    0.000003919629    0.000005308886    0.039996787837    0.024721734652    0.000002402239    0.000003709227
            0.000000264044    0.000001418298    0.015880807406    0.031377236934    0.000002402239    0.000003709227    0.031998084087    0.027254780709
0.125     0.049974492770    0.023885687492    0.000003470545    0.000004113360    0.031752813400    0.031425927387    0.000000646627    0.000001686988
            0.000003470545    0.000004113360    0.038594020704    0.029478449894    0.000005574136    0.000005852431    0.022934041543    0.035749306359
            0.031752813400    0.031425927387    0.000005574136    0.000005852431    0.049713389587    0.023693523012    0.000003521907    0.000004138981
            0.000000646627    0.000001686988    0.022934040295    0.035749307160    0.000003521907    0.000004138981    0.038302669102    0.029618888688
0.150     0.059559018807    0.019772946338    0.000004718361    0.000004309990    0.041722677839    0.030337196936    0.000001095710    0.000001869597
            0.000004718361    0.000004309990    0.044840560067    0.030087176762    0.000007375392    0.000006030457    0.030408482783    0.038309365104
            0.041722677839    0.030337196936    0.000007375392    0.000006030457    0.059255890783    0.019610045549    0.000004747052    0.000004321903
            0.000001095710    0.000001869597    0.030408482783    0.038309365104    0.000004747052    0.000004321903    0.044499676902    0.030344678971
0.175     0.068026994239    0.012619472254    0.000006044670    0.000004241985    0.051207501171    0.026309676624    0.000001589947    0.000001961327
            0.000006044670    0.000004241985    0.050502161264    0.029123922348    0.000009255722    0.000005829743    0.037816754830    0.039066845551
            0.051207501171    0.026309676624    0.000009255722    0.000005829743    0.067702163354    0.012506098258    0.000006030391    0.000004253453
            0.000001589947    0.000001961327    0.037816754830    0.039066845551    0.000006030391    0.000004253453    0.050139856907    0.029527074045
0.200     0.074540256815    0.002758255349    0.000007402657    0.000003900342    0.059436760785    0.019527521856    0.000002113089    0.000001958273
            0.000007402657    0.000003900342    0.055147789015    0.026847606972    0.000011150479    0.000005249826    0.044699695038    0.038162573977
            0.059436760785    0.019527521856    0.000011150479    0.000005249826    0.074220660444    0.002705948176    0.000007330053    0.000003936580
            0.000002113089    0.000001958273    0.044699695038    0.038162573977    0.000007330053    0.000003936580    0.054801653330    0.027415851842
0.225     0.078368968469    -0.009277322910    0.000008747224    0.000003282848    0.065702179211    0.010356031078    0.000002650621    0.000001861840
            0.000008747224    0.000003282848    0.058443690560    0.023630485237    0.000013001797    0.000004297484    0.050656475051    0.035846489595
            0.065702179211    0.010356031078    0.000013001797    0.000004297484    0.078085817894    -0.009267011479    0.000008611341    0.000003379328
            0.000002650621    0.000001861840    0.050656475051    0.035846489595    0.000008611341    0.000003379328    0.058158577055    0.024371675192
0.250     0.078945399042    -0.022774874895    0.000010034124    0.000002392363    0.069404431115    -0.000676906916    0.000003191004    0.000001671807
            0.000010034124    0.000002392363    0.060175797927    0.019940515213    0.000014757357    0.000002984968    0.055371706255    0.032467087128
            0.069404431115    -0.000676906916    0.000014757357    0.000002984968    0.078731690833    -0.022710345216    0.000009845343    0.000002590863
            0.000003191004    0.000001671807    0.055371706255    0.032467087128    0.000009845343    0.000002590863    0.059999866726    0.020849404004
0.275     0.075878679777    -0.036894593486    0.000011221657    0.000001236350    0.070076305359    -0.012906809820    0.000003725551    0.000001389602
            0.000011221657    0.000001236350    0.060274350440    0.016282100762    0.000016369845    0.000001325478    0.058633410076    0.028438781167
            0.070076305359    -0.012906809820    0.000016369845    0.000001325478    0.075766099727    -0.036795388436    0.000011009033    0.000001578939
            0.000003725551    0.000001389602    0.058633410076    0.028438781167    0.000011009033    0.000001578939    0.060255068061    0.017339110046
0.300     0.068998939326    -0.050710879148    0.000012268010    -0.000000173965    0.067419786421    -0.025567824759    0.000004245684    0.000001012951
            0.000012268010    -0.000000173965    0.058814222100    0.013171898940    0.000017793852    -0.000000666641    0.060350221897    0.024222057034
            0.067419786421    -0.025567824759    0.000017793852    -0.000000666641    0.069014361657    -0.050607815101    0.000012080349    0.000000347556
            0.000004245684    0.000001012951    0.060350221897    0.024222057034    0.000012080349    0.000000347556    0.058994063870    0.014343403339
0.325     0.058356470403    -0.063262017578    0.000013133149    -0.000001823622    0.061319835569    -0.037824716984    0.000004743619    0.000000538804
            0.000013133149    -0.000001823622    0.056013517146    0.011085136516    0.000018983518    -0.000002977626    0.060556600897    0.020285302855
            0.061319835569    -0.037824716984    0.000018983518    -0.000002977626    0.058518834760    -0.063195201434    0.000013037074    -0.000001103449
            0.000004743619    0.000000538804    0.060556600897    0.020285302855    0.000013037074    -0.000001103449    0.056425758728    0.012325424405
0.350     0.044242741726    -0.073608207552    0.000013775159    -0.000003692953    0.051866335513    -0.048822457182    0.000005207479    -0.000000039334
            0.000013775159    -0.000003692953    0.052219885888    0.010433139269    0.000019888386    -0.000005591260    0.059418945568    0.017079498517
            0.051866335513    -0.048822457182    0.000019888386    -0.000005591260    0.044559717194    -0.073625790976    0.000013850435    -0.000002777263
            0.000005207479    -0.000000039334    0.059418945568    0.017079498517    0.000013850435    -0.000002777263    0.052885268311    0.011687183740
0.375     0.027173545177    -0.080879745615    0.000014153000    -0.000005756980    0.039355373310    -0.057724502048    0.000005622883    -0.000000728099
            0.000014153000    -0.000005756980    0.047890150630    0.011519014637    0.000020453534    -0.000008487153    0.057224148002    0.014996038162
            0.039355373310    -0.057724502048    0.000020453534    -0.000008487153    0.027638865395    -0.081034414366    0.000014484823    -0.000004677598
            0.000005622883    -0.000000728099    0.057224148002    0.014996038162    0.000014484823    -0.000004677598    0.048814150979    0.012726212861
0.400     0.007879396100    -0.084340628264    0.000014224258    -0.000007983002    0.024288781296    -0.063774689449    0.000005967514    -0.000001533802
            0.000014224258    -0.000007983002    0.043563587804    0.014520096996    0.000020616542    -0.000011635255    0.054369105307    0.014341791968
            0.024288781296    -0.063774689449    0.000020616542    -0.000011635255    0.008470474904    -0.084686538408    0.000014892320    -0.000006803546
            0.000005967514    -0.000001533802    0.054369105307    0.014341791968    0.000014892320    -0.000006803546    0.044735186408    0.015619216608
0.425     -0.012730214629    -0.083432354600    0.000013948522    -0.000010330606    0.007354518309    -0.066336854168    0.000006214309    -0.000002459393
            0.000013948522    -0.000010330606    0.039824273779    0.019457592863    0.000020310896    -0.000014993101    0.051331384735    0.015301022752
            0.007354518309    -0.066336854168    0.000020310896    -0.000014993101    -0.012054172257    -0.084020196949    0.000015015845    -0.000009145940
            0.000006214309    -0.000002459393    0.051331384735    0.015301022752    0.000015015845    -0.000009145940    0.041216642580    0.020391583872
0.450     -0.033611940782    -0.077828604709    0.000013286507    -0.000012750710    -0.010606551978    -0.064955148793    0.000006327092    -0.000003503945
            0.000013286507    -0.000012750710    0.037263653412    0.026192250201    0.000019466672    -0.000018501805    0.048639996479    0.017920144839
            -0.010606551978    -0.064955148793    0.000019466672    -0.000018501805    -0.032912195668    -0.078700587275    0.000014787037    -0.000011682182
            0.000006327092    -0.000003503945    0.048639996479    0.017920144839    0.000014787037    -0.000011682182    0.038835785522    0.026913405784
0.475     -0.053645656127    -0.067460850738    0.000012213475    -0.000015189477    -0.028646781505    -0.059382051821    0.000006276341    -0.000004662985
            0.000012213475    -0.000015189477    0.036430625862    0.034415717318    0.000018026274    -0.000022088660    0.046829662621    0.022085438513
            -0.028646781505    -0.059382051821    0.000018026274    -0.000022088660    -0.053010455798    -0.068644794462    0.000014143474    -0.000014377076
            0.000006276341    -0.000004662985    0.046829662621    0.022085438513    0.000014143474    -0.000014377076    0.038132574923    0.034888869862
0.500     -0.071707925609    -0.052543006539    0.000010717889    -0.000017564956    -0.045790481100    -0.049613581515    0.000006034709    -0.000005899361
            0.000010717889    -0.000017564956    0.037789794400    0.043669072960    0.000015946769    -0.000025643121    0.046400310551    0.027528710765
            -0.045790481100    -0.049613581515    0.000015946769    -0.000025643121    -0.071282605560    -0.054044111967    0.000013030109    -0.000017151223
            0.000006034709    -0.000005899361    0.046400310551    0.027528710765    0.000013030109    -0.000017151223    0.039568431237    0.043870328174
0.525     -0.086742352874    -0.033558781663    0.000008781373    -0.000019792541    -0.061220892103    -0.035891259113    0.000005555691    -0.000007169613
            0.000008781373    -0.000019792541    0.041673188721    0.053363021223    0.000013184686    -0.000029069315    0.047760386474    0.033828127643
            -0.061220892103    -0.035891259113    0.000013184686    -0.000029069315    -0.086994441620    -0.035392361799    0.000011383872    -0.000019921429
            0.000005555691    -0.000007169613    0.047760386474    0.033828127643    0.000011383872    -0.000019921429    0.043471339349    0.053267419804
0.550     -0.097850720672    -0.011286496762    0.000006415443    -0.000021792806    -0.072864544315    -0.019760906721    0.000004811536    -0.000008428363
            0.000006415443    -0.000021792806    0.048252133235    0.062825984560    0.000009938804    -0.000032021222    0.051174742806    0.040456488220
            -0.072864544315    -0.019760906721    0.000009938804    -0.000032021222    -0.096863411684    -0.015079702659    0.000009234242    -0.000022470817
            0.000004811536    -0.000008428363    0.051174742806    0.040456488220    0.000009234242    -0.000022470817    0.049973307709    0.062405664693
0.575     -0.104235571522    0.013420530603    0.000003634149    -0.000023469093    -0.081675521619    0.000699855422    0.000003782501    -0.000009613677
            0.000003634149    -0.000023469093    0.057510777276    0.071347202984    0.000005746945    -0.000034657769    0.056752143151    0.046855056733
            -0.081675521619    0.000699855422    0.000005746945    -0.000034657769    -0.103913386604    0.010335705092    0.000006407083    -0.000024850559
            0.000003782501    -0.000009613677    0.056752143151    0.046855056733    0.000006407083    -0.000024850559    0.059019921528    0.070641888813
0.600     -0.105255705811    0.039342252194    0.000000504134    -0.000024708471    -0.086211132594    0.022442741402    0.000002480955    -0.000010632915
            0.000000504134    -0.000024708471    0.069242023237    0.078230906467    0.000001076328    -0.000036707256    0.064487715951    0.052437964225
            -0.086211132594    0.022442741402    0.000001076328    -0.000036707256    -0.105809089558    0.036075485679    0.000003084490    -0.000026835287
            0.000002480955    -0.000010632915    0.064487715951    0.052437964225    0.000003084490    -0.000026835287    0.070461819407    0.077340763999
0.625     -0.101317213702    0.064677671369    -0.000002809867    -0.000025522570    -0.086483484310    0.044682538244    0.000001006525    -0.000011475924
            -0.000002809867    -0.000025522570    0.083049919025    0.082846979931    -0.000004058664    -0.000038037455    0.074192466850    0.056600230363
            -0.086483484310    0.044682538244    -0.000004058664    -0.000038037455    -0.102456343157    0.061872487725    -0.000000705158    -0.000028305645
            0.000001006525    -0.000011475924    0.074192466850    0.056600230363    -0.000000705158    -0.000028305645    0.083956985467    0.081863967143
0.650     -0.092605182763    0.089420726594    -0.000006395619    -0.000025866610    -0.082399718110    0.067085280476    -0.000000725775    -0.000012102154
            -0.000006395619    -0.000025866610    0.098391392049    0.084682435777    -0.000009529581    -0.000038542066    0.085512726940    0.058815976161
            -0.082399718110    0.067085280476    -0.000009529581    -0.000038542066    -0.093989229509    0.086645668800    -0.000004863293    -0.000029147887
            -0.000000725775    -0.000012102154    0.085512726940    0.058815976161    -0.000004863293    -0.000029147887    0.098982688365    0.083689547199
0.675     -0.079005811955    0.112082163645    -0.000010098018    -0.000025627835    -0.073882573035    0.088444344282    -0.000002620244    -0.000012403894
            -0.000010098018    -0.000025627835    0.114606114647    0.083374426904    -0.000015175712    -0.000038154825    0.097965819108    0.058670697917
            -0.073882573035    0.088444344282    -0.000015175712    -0.000038154825    -0.080804098872    0.109326603194    -0.000009259104    -0.000029280836
            -0.000002620244    -0.000012403894    0.097965819108    0.058670697917    -0.000009259104    -0.000029280836    0.114895406173    0.082452164330
0.700     -0.061258715286    0.131629120430    -0.000013799343    -0.000024807083    -0.061375438756    0.107849444802    -0.000004595470    -0.000012359435
            -0.000013799343    -0.000024807083    0.130972558728    0.078732959960    -0.000020824284    -0.000036844629    0.110991788199    0.055889285952
            -0.061375438756    0.107849444802    -0.000020824284    -0.000036844629    -0.063510616187    0.128991894587    -0.000013743834    -0.000028654671
            -0.000004595470    -0.000012359435    0.110991788199    0.055889285952    -0.000013743834    -0.000028654671    0.130990055461    0.077959169881
0.725     -0.040196262235    0.147315580763    -0.000017399118    -0.000023418922    -0.045430885304    0.124560723131    -0.000006577190    -0.000011961619
            -0.000017399118    -0.000023418922    0.146744058835    0.070746822886    -0.000026301706    -0.000034623002    0.123979417264    0.050338114925
            -0.045430885304    0.124560723131    -0.000026301706    -0.000034623002    -0.042889234022    0.144894980268    -0.000018162612    -0.000027259880
            -0.000006577190    -0.000011961619    0.123979417264    0.050338114925    -0.000018162612    -0.000027259880    0.146538241993    0.070190711502
0.750     -0.016744799696    0.158615718519    -0.000020802288    -0.000021492544    -0.026713931707    0.137998776013    -0.000008491137    -0.000011217148
            -0.000020802288    -0.000021492544    0.161202705613    0.059574413806    -0.000031442025    -0.000031537413    0.136315691762    0.042031326862
            -0.026713931707    0.137998776013    -0.000031442025    -0.000031537413    -0.019838416972    0.156499951541    -0.000022362064    -0.000025121935
            -0.000008491137    -0.000011217148    0.136315691762    0.042031326862    -0.000022362064    -0.000025121935    0.160837071016    0.059293694079
0.775     0.008115089521    0.165223570447    -0.000023927422    -0.000019076128    -0.005962982128    0.147744035322    -0.000010270651    -0.000010152678
            -0.000023927422    -0.000019076128    0.173687881783    0.045529172919    -0.000036100252    -0.000027670628    0.147405825501    0.031115937183
            -0.005962982128    0.147744035322    -0.000036100252    -0.000027670628    0.004680838682    0.163488325117    -0.000026204758    -0.000022302857
            -0.000010270651    -0.000010152678    0.147405825501    0.031115937183    -0.000026204758    -0.000022302857    0.173238605672    0.045565656076
