# GHz S RI R 45
0.000     0.012552374621    0.001934159413    0.000001891235    0.000003781698    0.000662975497    0.001653962700    0.000002057539    0.000004422554
            0.000001891170    0.000003781697    0.012011157412    0.001928081396    0.000002277555    0.000004444896    0.000627347076    0.001652624205
            0.000662975410    0.001653962734    0.000002277484    0.000004444897    0.012504370987    0.001921648426    0.000002486967    0.000005270196
            0.000002057473    0.000004422553    0.000627347220    0.001652624151    0.000002486681    0.000005270194    0.011985114214    0.001938945570
0.025     0.016744246852    0.010887041752    0.000004336945    0.000008591092    0.002235003023    0.009645949561    0.000004855157    0.000009524303
            0.000004336944    0.000008591083    0.016048249436    0.010360108206    0.000005212388    0.000010668406    0.002109766213    0.009236661006
            0.002232397854    0.009648723291    0.000005212398    0.000010668408    0.016671303658    0.010827380888    0.000005816675    0.000011564963
            0.000004855165    0.000009524294    0.002108958604    0.009236631776    0.000005816680    0.000011564963    0.015981619733    0.010332254709
0.050     0.022954966962    0.018002782115    0.000009793982    0.000014765331    0.006688380370    0.018245602332    0.000011105452    0.000016271984
            0.000009793982    0.000014765331    0.021977187427    0.017140011301    0.000011616762    0.000018415629    0.006332232176    0.017501926183
            0.006688346071    0.018245631946    0.000011616763    0.000018415629    0.022850984379    0.017874186192    0.000013221139    0.000019821536
            0.000011105452    0.000016271984    0.006332220831    0.017501919653    0.000013221139    0.000019821536    0.021912676663    0.017087063925
0.075     0.030913172405    0.022813845733    0.000017223289    0.000018611638    0.013509161161    0.025074879074    0.000019618926    0.000020369970
            0.000017223289    0.000018611638    0.029584121905    0.021779817483    0.000020284588    0.000023466767    0.012820002042    0.024143121967
            0.013509153611    0.025074879733    0.000020284589    0.000023466768    0.030761883689    0.022644893351    0.000023282548    0.000024971107
            0.000019618925    0.000020369970    0.012819994267    0.024143121567    0.000023282548    0.000024971107    0.029523270152    0.021710127948
0.100     0.040203129870    0.024909547396    0.000025971142    0.000019763801    0.022095239876    0.029594570293    0.000029662962    0.000021400334
            0.000025971142    0.000019763801    0.038525542921    0.023903079892    0.000030488070    0.000025411872    0.021040032940    0.028654689254
            0.022095239876    0.029594570293    0.000030488070    0.000025411872    0.039996787837    0.024721734652    0.000035169837    0.000026538577
            0.000029662962    0.000021400334    0.021040033032    0.028654690427    0.000035169837    0.000026538577    0.038475344349    0.023820210384
0.125     0.049974492770    0.023885687492    0.000035232024    0.000017901070    0.031752813400    0.031425927387    0.000040330745    0.000018986542
            0.000035232024    0.000017901070    0.048078833591    0.023069243524    0.000041314263    0.000023876046    0.030373340636    0.030674405217
            0.031752813400    0.031425927387    0.000041314263    0.000023876046    0.049713389587    0.023693523012    0.000047841331    0.000024074227
            0.000040330745    0.000018986542    0.030373340636    0.030674405217    0.000047841331    0.000024074227    0.048041281385    0.022974237302
0.150     0.059559018807    0.019772946338    0.000044134471    0.000013009089    0.041722677839    0.030337196936    0.000050636363    0.000013098241
            0.000044134471    0.000013009089    0.057552385974    0.019353324282    0.000051768407    0.000018832518    0.040141788647    0.029951018232
            0.041722677839    0.030337196936    0.000051768407    0.000018832518    0.059255890783    0.019610045549    0.000060155379    0.000017527492
            0.000050636363    0.000013098241    0.040141788647    0.029951018232    0.000060155379    0.000017527492    0.057548867977    0.019258321579
0.175     0.068026994239    0.012619472254    0.000051848060    0.000005244328    0.051207501171    0.026309676624    0.000059635508    0.000003893492
            0.000051848060    0.000005244328    0.066161988667    0.012739708227    0.000060896903    0.000010445497    0.049618836970    0.026430296701
            0.051207501171    0.026309676624    0.000060896903    0.000010445497    0.067702163354    0.012506098258    0.000071012467    0.000007060103
            0.000059635508    0.000003893492    0.049618836970    0.026430296701    0.000071012467    0.000007060103    0.066212586179    0.012641484215
0.200     0.074540256815    0.002758255349    0.000057621410    -0.000005022734    0.059436760785    0.019527521856    0.000066467243    -0.000008226949
            0.000057621410    -0.000005022734    0.073136463877    0.003458785193    0.000067831190    -0.000000875143    0.058094072165    0.020235298699
            0.059436760785    0.019527521856    0.000067831190    -0.000000875143    0.074220660444    0.002705948176    0.000079401819    -0.000006883597
            0.000066467243    -0.000008226949    0.058094072165    0.020235298699    0.000079401819    -0.000006883597    0.073260546271    0.003346597580
0.225     0.078368968469    -0.009277322910    0.000060805336    -0.000017261664    0.065702179211    0.010356031078    0.000070379880    -0.000022680394
            0.000060805336    -0.000017261664    0.077772282806    -0.008064790816    0.000071813816    -0.000014535203    0.064900996217    0.011650649621
            0.065702179211    0.010356031078    0.000071813816    -0.000014535203    0.078085817894    -0.009267011479    0.000084432213    -0.000023646966
            0.000070379880    -0.000022680394    0.064900996217    0.011650649621    0.000084432213    -0.000023646966    0.077988382693    -0.008208711031
0.250     0.078945399042    -0.022774874895    0.000060908000    -0.000030798722    0.069404431115    -0.000676906916    0.000070794529    -0.000038718337
            0.000060908000    -0.000030798722    0.079498047723    -0.021228850027    0.000072263419    -0.000029772964    0.069459151853    0.001110092083
            0.069404431115    -0.000676906916    0.000072263419    -0.000029772964    0.078731690833    -0.022710345216    0.000085406438    -0.000042375743
            0.000070794529    -0.000038718337    0.069459151853    0.001110092083    0.000085406438    -0.000042375743    0.079822326451    -0.021428917895
0.275     0.075878679777    -0.036894593486    0.000057590572    -0.000044859393    0.070076305359    -0.012906809820    0.000067300669    -0.000055473958
            0.000057590572    -0.000044859393    0.077891524296    -0.035306738612    0.000068770325    -0.000045706903    0.071293916459    -0.010824711260
            0.070076305359    -0.012906809820    0.000068770325    -0.000045706903    0.075766099727    -0.036795388436    0.000081817791    -0.000062072666
            0.000067300669    -0.000055473958    0.071293916459    -0.010824711260    0.000081817791    -0.000062072666    0.078335069003    -0.035593913882
0.300     0.068998939326    -0.050710879148    0.000050709873    -0.000058602375    0.067419786421    -0.025567824759    0.000059704952    -0.000071999312
            0.000050709873    -0.000058602375    0.072719525392    -0.049480673196    0.000061146610    -0.000061374437    0.070071221165    -0.023491670548
            0.067419786421    -0.025567824759    0.000061146610    -0.000061374437    0.069014361657    -0.050607815101    0.000073408944    -0.000081638924
            0.000059704952    -0.000071999312    0.070071221165    -0.023491670548    0.000073408944    -0.000081638924    0.073287179481    -0.049892337685
0.325     0.058356470403    -0.063262017578    0.000040307483    -0.000071149931    0.061319835569    -0.037824716984    0.000048020014    -0.000087298641
            0.000040307483    -0.000071149931    0.063937508240    -0.062885918745    0.000049414617    -0.000075766145    0.065609367355    -0.036154664687
            0.061319835569    -0.037824716984    0.000049414617    -0.000075766145    0.058518834760    -0.063195201434    0.000060159311    -0.000099912636
            0.000048020014    -0.000087298641    0.065609367355    -0.036154664687    0.000060159311    -0.000099912636    0.064625256030    -0.063464303072
0.350     0.044242741726    -0.073608207552    0.000026639663    -0.000081639957    0.051866335513    -0.048822457182    0.000032499589    -0.000100385060
            0.000026639663    -0.000081639957    0.051710831412    -0.074658524124    0.000033842740    -0.000087884810    0.057901707931    -0.048044449144
            0.051866335513    -0.048822457182    0.000033842740    -0.000087884810    0.044559717194    -0.073625790976    0.000042330305    -0.000115737252
            0.000032499589    -0.000100385060    0.057901707931    -0.048044449144    0.000042330305    -0.000115737252    0.052503996329    -0.075448099046
0.375     0.027173545177    -0.080879745615    0.000010164361    -0.000089254611    0.039355373310    -0.057724502048    0.000013625422    -0.000110315404
            0.000010164361    -0.000089254611    0.036401049766    -0.083973881307    0.000014929071    -0.000096778639    0.047118237546    -0.058388380899
            0.039355373310    -0.057724502048    0.000014929071    -0.000096778639    0.027638865395    -0.081034414366    0.000020445070    -0.000127995987
            0.000013625422    -0.000110315404    0.047118237546    -0.058388380899    0.000020445070    -0.000127995987    0.037273640503    -0.085019860440
0.400     0.007879396100    -0.084340628264    -0.000008452527    -0.000093292286    0.024288781296    -0.063774689449    -0.000007884747    -0.000116266360
            -0.000008452527    -0.000093292286    0.018564694673    -0.090100065727    -0.000006588481    -0.000101622108    0.033610839014    -0.066462023515
            0.024288781296    -0.063774689449    -0.000006588481    -0.000101622108    0.008470474904    -0.084686538408    -0.000004696515    -0.000135704895
            -0.000007884747    -0.000116266360    0.033610839014    -0.066462023515    -0.000004696515    -0.000135704895    0.019478709369    -0.091445835789
0.425     -0.012730214629    -0.083432354600    -0.000028365452    -0.000093198686    0.007354518309    -0.066336854168    -0.000031106358    -0.000117570724
            -0.000028365452    -0.000093198686    -0.001073037147    -0.092433687914    -0.000029765428    -0.000101751851    0.017900645095    -0.071619816393
            0.007354518309    -0.066336854168    -0.000029765428    -0.000101751851    -0.012054172257    -0.084020196949    -0.000032052359    -0.000138052424
            -0.000031106358    -0.000117570724    0.017900645095    -0.071619816393    -0.000032052359    -0.000138052424    -0.000167844528    -0.094118763339
0.450     -0.033611940782    -0.077828604709    -0.000048582204    -0.000088643897    -0.010606551978    -0.064955148793    -0.000054942597    -0.000113807319
            -0.000048582204    -0.000088643897    -0.021647473306    -0.090547700748    -0.000053485953    -0.000096752614    0.000659649281    -0.073348006809
            -0.010606551978    -0.064955148793    -0.000053485953    -0.000096752614    -0.032912195668    -0.078700587275    -0.000060376631    -0.000134501215
            -0.000054942597    -0.000113807319    0.000659649281    -0.073348006809    -0.000060376631    -0.000134501215    -0.020813022672    -0.092605890233
0.475     -0.053645656127    -0.067460850738    -0.000068016683    -0.000079541143    -0.028646781505    -0.059382051821    -0.000078183136    -0.000104817707
            -0.000068016683    -0.000079541143    -0.042191883224    -0.084215407211    -0.000076525224    -0.000086476930    -0.017316854750    -0.071289120046
            -0.028646781505    -0.059382051821    -0.000076525224    -0.000086476930    -0.053010455798    -0.068644794462    -0.000088288776    -0.000124804096
            -0.000078183136    -0.000104817707    -0.017316854750    -0.071289120046    -0.000088288776    -0.000124804096    -0.041504185394    -0.086674749879
0.500     -0.071707925609    -0.052543006539    -0.000085574328    -0.000066098308    -0.045790481100    -0.049613581515    -0.000099598070    -0.000090766991
            -0.000085574328    -0.000066098308    -0.061683591325    -0.073446222426    -0.000097654329    -0.000071104326    -0.035152066807    -0.065285919474
            -0.045790481100    -0.049613581515    -0.000097654329    -0.000071104326    -0.071282605560    -0.054044111967    -0.000114392902    -0.000109081746
            -0.000099598070    -0.000090766991    -0.035152066807    -0.065285919474    -0.000114392902    -0.000109081746    -0.061242202485    -0.076322656399
0.525     -0.086742352874    -0.033558781663    -0.000100215144    -0.000048823251    -0.061220892103    -0.035891259113    -0.000118010014    -0.000072131417
            -0.000100215144    -0.000048823251    -0.079091689900    -0.058516675917    -0.000115834842    -0.000051160414    -0.051928674748    -0.055402638679
            -0.061220892103    -0.035891259113    -0.000115834842    -0.000051160414    -0.086994441620    -0.035392361799    -0.000137503060    -0.000087823302
            -0.000118010014    -0.000072131417    -0.051928674748    -0.055402638679    -0.000137503060    -0.000087823302    -0.079033877128    -0.061779359942
0.550     -0.097850720672    -0.011286496762    -0.000111126609    -0.000028573381    -0.072864544315    -0.019760906721    -0.000132399984    -0.000049719287
            -0.000111126609    -0.000028573381    -0.093518459373    -0.040010462061    -0.000128932194    -0.000028550505    -0.066797931221    -0.041955146848
            -0.072864544315    -0.019760906721    -0.000128932194    -0.000028550505    -0.096863411684    -0.015079702659    -0.000154967803    -0.000062966484
            -0.000132399984    -0.000049719287    -0.066797931221    -0.041955146848    -0.000154967803    -0.000062966484    -0.093961710702    -0.043502765312
0.575     -0.104235571522    0.013420530603    -0.000117678143    -0.000006170731    -0.081675521619    0.000699855422    -0.000141934664    -0.000024443545
            -0.000117678143    -0.000006170731    -0.104334711028    -0.018620917052    -0.000137980308    -0.000001735304    -0.079061236665    -0.025391899253
            -0.081675521619    0.000699855422    -0.000137980308    -0.000001735304    -0.103913386604    0.010335705092    -0.000168012144    -0.000032754883
            -0.000141934664    -0.000024443545    -0.079061236665    -0.025391899253    -0.000168012144    -0.000032754883    -0.105237223829    -0.022153616723
0.600     -0.105255705811    0.039342252194    -0.000119418719    0.000017299271    -0.086211132594    0.022442741402    -0.000145978543    0.000002423594
            -0.000119418719    0.000017299271    -0.110958906052    0.004945877059    -0.000141744958    0.000026131619    -0.088074810290    -0.006261089834
            -0.086211132594    0.022442741402    -0.000141744958    0.000026131619    -0.105809089558    0.036075485679    -0.000174935564    -0.000000864491
            -0.000145978543    0.000002423594    -0.088074810290    -0.006261089834    -0.000174935564    -0.000000864491    -0.112253505047    0.001430543210
0.625     -0.101317213702    0.064677671369    -0.000116599243    0.000040380438    -0.086483484310    0.044682538244    -0.000144790521    0.000029191051
            -0.000116599243    0.000040380438    -0.112915390965    0.029749763926    -0.000139997255    0.000054301694    -0.093302486637    0.014683445608
            -0.086483484310    0.044682538244    -0.000139997255    0.000054301694    -0.102456343157    0.061872487725    -0.000175468851    0.000031870758
            -0.000144790521    0.000029191051    -0.093302486637    0.014683445608    -0.000175468851    0.000031870758    -0.114611484493    0.026281725742
0.650     -0.092605182763    0.089420726594    -0.000109413885    0.000062725516    -0.082399718110    0.067085280476    -0.000138564239    0.000055524834
            -0.000109413885    0.000062725516    -0.110021815121    0.054734355678    -0.000132887098    0.000081596111    -0.094438221949    0.036574851083
            -0.082399718110    0.067085280476    -0.000132887098    0.000081596111    -0.093989229509    0.086645668800    -0.000169680485    0.000064118774
            -0.000138564239    0.000055524834    -0.094438221949    0.036574851083    -0.000169680485    0.000064118774    -0.112143539370    0.051370763395
0.675     -0.079005811955    0.112082163645    -0.000098025132    0.000083137270    -0.073882573035    0.088444344282    -0.000127340931    0.000080049025
            -0.000098025132    0.000083137270    -0.102363597126    0.078854236054    -0.000120862327    0.000106928638    -0.091384888352    0.058522570209
            -0.073882573035    0.088444344282    -0.000120862327    0.000106928638    -0.080804098872    0.109326603194    -0.000157947430    0.000094605159
            -0.000127340931    0.000080049025    -0.091384888352    0.058522570209    -0.000157947430    0.000094605159    -0.104914913747    0.075670362578
0.700     -0.061258715286    0.131629120430    -0.000083151127    0.000100839397    -0.061375438756    0.107849444802    -0.000111844532    0.000101817056
            -0.000083151127    0.000100839397    -0.090258970412    0.101138677393    -0.000104585365    0.000129427819    -0.084251497949    0.079666497573
            -0.061375438756    0.107849444802    -0.000104585365    0.000129427819    -0.063510616187    0.128991894587    -0.000140904509    0.000122256005
            -0.000111844532    0.000101817056    -0.084251497949    0.079666497573    -0.000140904509    0.000122256005    -0.093218485045    0.098214482898
0.725     -0.040196262235    0.147315580763    -0.000065542655    0.000115320679    -0.045430885304    0.124560723131    -0.000092856807    0.000120166940
            -0.000065542655    0.000115320679    -0.074221766412    0.120730681837    -0.000084830622    0.000148436214    -0.073317460765    0.099208571718
            -0.045430885304    0.124560723131    -0.000084830622    0.000148436214    -0.042889234022    0.144894980268    -0.000119341433    0.000146210102
            -0.000092856807    0.000120166940    -0.073317460765    0.099208571718    -0.000119341433    0.000146210102    -0.077544193224    0.118142701137
0.750     -0.016744799696    0.158615718519    -0.000045976368    0.000126290090    -0.026713931707    0.137998776013    -0.000071211969    0.000134673062
            -0.000045976368    0.000126290090    -0.054923942446    0.136927348548    -0.000062437875    0.000163528330    -0.059018394840    0.116456363735
            -0.026713931707    0.137998776013    -0.000062437875    0.000163528330    -0.019838416972    0.156499951541    -0.000094155397    0.000165853250
            -0.000071211969    0.000134673062    -0.059018394840    0.116456363735    -0.000094155397    0.000165853250    -0.058544634150    0.134741888616
0.775     0.008115089521    0.165223570447    -0.000025188933    0.000133630921    -0.005962982128    0.147744035322    -0.000047726685    0.000145101362
            -0.000025188933    0.000133630921    -0.033150605629    0.149198109482    -0.000038232054    0.000174474987    -0.041901059751    0.130833516267
            -0.005962982128    0.147744035322    -0.000038232054    0.000174474987    0.004680838682    0.163488325117    -0.000066258498    0.000180780290
