# GHz S RI R 45
0.000     0.012552374621    0.001934159413    -0.000001766575    -0.000003851836    0.000662975497    0.001653962700    -0.000001961654    -0.000004203001
            -0.000001766575    -0.000003851836    0.013290891854    0.001703103848    -0.000001595423    -0.000003525172    0.000679448902    0.001490382349
            0.000662975410    0.001653962734    -0.000001595423    -0.000003525172    0.012504370987    0.001921648426    -0.000001752222    -0.000003808863
            -0.000001961654    -0.000004203001    0.000679449032    0.001490382290    -0.000001752222    -0.000003808863    0.013234610500    0.001692178622
0.025     0.016744246852    0.010887041752    -0.000003901529    -0.000008380405    0.002235003023    0.009645949561    -0.000004287881    -0.000009148010
            -0.000003901535    -0.000008380414    0.017157531994    0.011474262807    -0.000003546028    -0.000007673580    0.001947206213    0.010178884572
            0.002232397854    0.009648723291    -0.000003546023    -0.000007673563    0.016671303658    0.010827380888    -0.000003857303    -0.000008293101
            -0.000004287877    -0.000009147996    0.001945822086    0.010178898802    -0.000003857296    -0.000008293091    0.017081896344    0.011396966840
0.050     0.022954966962    0.018002782115    -0.000008326009    -0.000014525431    0.006688380370    0.018245602332    -0.000009102817    -0.000015859332
            -0.000008326009    -0.000014525431    0.022238354804    0.019374305257    -0.000007596327    -0.000013307669    0.005565373100    0.019520019562
            0.006688346071    0.018245631946    -0.000007596328    -0.000013307670    0.022850984379    0.017874186192    -0.000008224539    -0.000014386088
            -0.000009102817    -0.000015859332    0.005565383249    0.019519927241    -0.000008224539    -0.000014386088    0.022104270862    0.019232450865
0.075     0.030913172405    0.022813845733    -0.000014081180    -0.000019097440    0.013509161161    0.025074879074    -0.000015358646    -0.000020870044
            -0.000014081180    -0.000019097440    0.028368601849    0.025518940409    -0.000012872227    -0.000017501041    0.011082772544    0.027522475011
            0.013509153611    0.025074879733    -0.000012872227    -0.000017501041    0.030761883689    0.022644893351    -0.000013908716    -0.000018933453
            -0.000015358646    -0.000020870044    0.011082776707    0.027522470100    -0.000013908716    -0.000018933453    0.028155742195    0.025341985635
0.100     0.040203129870    0.024909547396    -0.000020900135    -0.000022031946    0.022095239876    0.029594570293    -0.000022781226    -0.000024117868
            -0.000020900135    -0.000022031946    0.035308358069    0.029751571076    -0.000019126080    -0.000020190829    0.018026824599    0.033814955910
            0.022095239876    0.029594570293    -0.000019126080    -0.000020190829    0.039996787837    0.024721734652    -0.000020655322    -0.000021873899
            -0.000022781226    -0.000024117868    0.018026847138    0.033814948428    -0.000020655322    -0.000021873899    0.035001666786    0.029573490414
0.125     0.049974492770    0.023885687492    -0.000028410729    -0.000023198825    0.031752813400    0.031425927387    -0.000030978013    -0.000025455027
            -0.000028410729    -0.000023198825    0.042418757293    0.031871552060    -0.000026017481    -0.000021257294    0.025884632692    0.038176701649
            0.031752813400    0.031425927387    -0.000026017481    -0.000021257294    0.049713389587    0.023693523012    -0.000028106045    -0.000023073194
            -0.000030978013    -0.000025455027    0.025884632587    0.038176702929    -0.000028106045    -0.000023073194    0.042021499862    0.031740151900
0.150     0.059559018807    0.019772946338    -0.000036207383    -0.000022590551    0.041722677839    0.030337196936    -0.000039518702    -0.000024862652
            -0.000036207383    -0.000022590551    0.049343546913    0.032119014275    -0.000033169194    -0.000020692556    0.034092233684    0.040469849130
            0.041722677839    0.030337196936    -0.000033169194    -0.000020692556    0.059255890783    0.019610045549    -0.000035863587    -0.000022513221
            -0.000039518702    -0.000024862652    0.034092233684    0.040469849130    -0.000035863587    -0.000022513221    0.048867366340    0.032054529656
0.175     0.068026994239    0.012619472254    -0.000043952480    -0.000020276734    0.051207501171    0.026309676624    -0.000048036681    -0.000022400689
            -0.000043952480    -0.000020276734    0.055486085547    0.030603809981    -0.000040272604    -0.000018561587    0.042082575118    0.040746606624
            0.051207501171    0.026309676624    -0.000040272604    -0.000018561587    0.067702163354    0.012506098258    -0.000043594646    -0.000020251537
            -0.000048036681    -0.000022400689    0.042082575118    0.040746606624    -0.000043594646    -0.000020251537    0.054952402376    0.030636458782
0.200     0.074540256815    0.002758255349    -0.000051378005    -0.000016386518    0.059436760785    0.019527521856    -0.000056235497    -0.000018194293
            -0.000051378005    -0.000016386518    0.060347332788    0.027672680002    -0.000047081545    -0.000014981927    0.049333729074    0.039213116895
            0.059436760785    0.019527521856    -0.000047081545    -0.000014981927    0.074220660444    0.002705948176    -0.000051028825    -0.000016403489
            -0.000056235497    -0.000018194293    0.049333729074    0.039213116895    -0.000051028825    -0.000016403489    0.059787928083    0.027826743172
0.225     0.078368968469    -0.009277322910    -0.000058277243    -0.000011047800    0.065702179211    0.010356031078    -0.000063878276    -0.000012371492
            -0.000058277243    -0.000011047800    0.063571153369    0.023804193493    -0.000053405560    -0.000010069289    0.055404380921    0.036201552491
            0.065702179211    0.010356031078    -0.000053405560    -0.000010069289    0.078085817894    -0.009267011479    -0.000057950900    -0.000011085358
            -0.000063878276    -0.000012371492    0.055404380921    0.036201552491    -0.000057950900    -0.000011085358    0.063026460936    0.024092810563
0.250     0.078945399042    -0.022774874895    -0.000064501674    -0.000004386018    0.069404431115    -0.000676906916    -0.000070787477    -0.000005060561
            -0.000064501674    -0.000004386018    0.064959853847    0.019574869728    -0.000059106170    -0.000003939702    0.059965569051    0.032153844874
            0.069404431115    -0.000676906916    -0.000059106170    -0.000003939702    0.078731690833    -0.022710345216    -0.000064198335    -0.000004415621
            -0.000070787477    -0.000005060561    0.059965569051    0.032153844874    -0.000064198335    -0.000004415621    0.064474501869    0.019997038480
0.275     0.075878679777    -0.036894593486    -0.000069926519    0.000003510219    0.070076305359    -0.012906809820    -0.000076808255    0.000003641774
            -0.000069926519    0.000003510219    0.064491726950    0.015588433519    -0.000064067207    0.000003326147    0.062821572279    0.027581018583
            0.070076305359    -0.012906809820    -0.000064067207    0.000003326147    0.075766099727    -0.036795388436    -0.000069629785    0.000003517680
            -0.000076808255    0.000003641774    0.062821572279    0.027581018583    -0.000069629785    0.000003517680    0.064110241617    0.016128264545
0.300     0.068998939326    -0.050710879148    -0.000074436594    0.000012584622    0.067419786421    -0.025567824759    -0.000081796187    0.000013664522
            -0.000074436594    0.000012584622    0.062320826576    0.012445427339    -0.000068180039    0.000011674596    0.063928576928    0.023034946793
            0.067419786421    -0.025567824759    -0.000068180039    0.000011674596    0.069014361657    -0.050607815101    -0.000074112722    0.000012649043
            -0.000081796187    0.000013664522    0.063928576928    0.023034946793    -0.000074112722    0.000012649043    0.062082970824    0.013072306798
0.325     0.058356470403    -0.063262017578    -0.000077882656    0.000022809354    0.061319835569    -0.037824716984    -0.000085573401    0.000024965837
            -0.000077882656    0.000022809354    0.058770818606    0.010680448813    -0.000071305520    0.000021079185    0.063398951256    0.019060944976
            0.061319835569    -0.037824716984    -0.000071305520    0.000021079185    0.058518834760    -0.063195201434    -0.000077484243    0.000022938096
            -0.000085573401    0.000024965837    0.063398951256    0.019060944976    -0.000077484243    0.000022938096    0.058707216474    0.011350773584
0.350     0.044242741726    -0.073608207552    -0.000080071685    0.000034167509    0.051866335513    -0.048822457182    -0.000087921197    0.000037502693
            -0.000080071685    0.000034167509    0.054316318750    0.010732224310    -0.000073263730    0.000031521352    0.061503667866    0.016162929363
            0.051866335513    -0.048822457182    -0.000073263730    0.000031521352    0.044559717194    -0.073625790976    -0.000079544220    0.000034342637
            -0.000087921197    0.000037502693    0.061503667866    0.016162929363    -0.000079544220    0.000034342637    0.054444221547    0.011392318370
0.375     0.027173545177    -0.080879745615    -0.000080738390    0.000046614764    0.039355373310    -0.057724502048    -0.000088551511    0.000051202440
            -0.000080738390    0.000046614764    0.049552692127    0.012890967497    -0.000073810356    0.000042954721    0.058653916842    0.014750978951
            0.039355373310    -0.057724502048    -0.000073810356    0.000042954721    0.027638865395    -0.081034414366    -0.000080028906    0.000046795401
            -0.000088551511    0.000051202440    0.058653916842    0.014750978951    -0.000080028906    0.000046795401    0.049873294594    0.013480672388
0.400     0.007879396100    -0.084340628264    -0.000079559721    0.000060044038    0.024288781296    -0.063774689449    -0.000087123475    0.000065924796
            -0.000079559721    0.000060044038    0.045158692614    0.017276499935    -0.000072647217    0.000055278576    0.055381540844    0.015110185177
            0.024288781296    -0.063774689449    -0.000072647217    0.000055278576    0.008470474904    -0.084686538408    -0.000078629325    0.000060160944
            -0.000087123475    0.000065924796    0.055381540844    0.015110185177    -0.000078629325    0.000060160944    0.045655164058    0.017734472245
0.425     -0.012730214629    -0.083432354600    -0.000076164462    0.000074240787    0.007354518309    -0.066336854168    -0.000083255971    0.000081413245
            -0.000076164462    0.000074240787    0.041843154936    0.023804794365    -0.000069436304    0.000068286817    0.052293699463    0.017356036169
            0.007354518309    -0.066336854168    -0.000069436304    0.000068286817    -0.012054172257    -0.084020196949    -0.000074996434    0.000074207488
            -0.000083255971    0.000081413245    0.052293699463    0.017356036169    -0.000074996434    0.000074207488    0.042480387759    0.024073289104
0.450     -0.033611940782    -0.077828604709    -0.000070183117    0.000088853944    -0.010606551978    -0.064955148793    -0.000076575030    0.000097279247
            -0.000070183117    0.000088853944    0.040291412895    0.032188628279    -0.000063839057    0.000081656495    0.050029374556    0.021421532436
            -0.010606551978    -0.064955148793    -0.000063839057    0.000081656495    -0.032912195668    -0.078700587275    -0.000068793039    0.000088572227
            -0.000076575030    0.000097279247    0.050029374556    0.021421532436    -0.000068793039    0.000088572227    0.041018396198    0.032218453939
0.475     -0.053645656127    -0.067460850738    -0.000061295317    0.000103377824    -0.028646781505    -0.059382051821    -0.000066765402    0.000112971967
            -0.000061295317    0.000103377824    0.041097577783    0.041939424723    -0.000055568930    0.000094922803    0.049192985571    0.027041560428
            -0.028646781505    -0.059382051821    -0.000055568930    0.000094922803    -0.053010455798    -0.068644794462    -0.000059736945    0.000102757410
            -0.000066765402    0.000112971967    0.049192985571    0.027041560428    -0.000059736945    0.000102757410    0.041851454908    0.041691659810
0.500     -0.071707925609    -0.052543006539    -0.000049309651    0.000117166589    -0.045790481100    -0.049613581515    -0.000053649366    0.000127802969
            -0.000049309651    0.000117166589    0.044705590589    0.052411936408    -0.000044442839    0.000107515339    0.050299728232    0.033781339083
            -0.045790481100    -0.049613581515    -0.000044442839    0.000107515339    -0.071282605560    -0.054044111967    -0.000047657337    0.000116158668
            -0.000053649366    0.000127802969    0.050299728232    0.033781339083    -0.000047657337    0.000116158668    0.045424415887    0.051849486128
0.525     -0.086742352874    -0.033558781663    -0.000034211344    0.000129489407    -0.061220892103    -0.035891259113    -0.000037222680    0.000140987996
            -0.000034211344    0.000129489407    0.051283640020    0.062918242356    -0.000030418910    0.000118950940    0.053675809872    0.041103656536
            -0.061220892103    -0.035891259113    -0.000030418910    0.000118950940    -0.086994441620    -0.035392361799    -0.000032519268    0.000128264939
            -0.000037222680    0.000140987996    0.053675809872    0.041103656536    -0.000032519268    0.000128264939    0.051991751207    0.061924253126
0.550     -0.097850720672    -0.011286496762    -0.000016305351    0.000139314306    -0.072864544315    -0.019760906721    -0.000017791693    0.000151635108
            -0.000016305351    0.000139314306    0.060844343906    0.071380556391    -0.000015207612    0.000127213304    0.059460750274    0.047622041205
            -0.072864544315    -0.019760906721    -0.000015207612    0.000127213304    -0.096863411684    -0.015079702659    -0.000016158211    0.000137095100
            -0.000017791693    0.000151635108    0.059460750274    0.047622041205    -0.000016158211    0.000137095100    0.061540786739    0.071094765951
0.575     -0.104235571522    0.013420530603    0.000004280878    0.000146272931    -0.081675521619    0.000699855422    0.000004347285    0.000159026881
            0.000004280878    0.000146272931    0.073794018632    0.079299921994    0.000004301425    0.000133356617    0.068079306694    0.053904485084
            -0.081675521619    0.000699855422    0.000004301425    0.000133356617    -0.103913386604    0.010335705092    0.000004671308    0.000143516177
            0.000004347285    0.000159026881    0.068079306694    0.053904485084    0.000004671308    0.000143516177    0.073963868055    0.078487262994
0.600     -0.105255705811    0.039342252194    0.000026519988    0.000149376889    -0.086211132594    0.022442741402    0.000028271175    0.000162330401
            0.000026519988    0.000149376889    0.088842181830    0.084374711456    0.000024705137    0.000136201247    0.078774904202    0.058343702038
            -0.086211132594    0.022442741402    0.000024705137    0.000136201247    -0.105809089558    0.036075485679    0.000026440018    0.000146464667
            0.000028271175    0.000162330401    0.078774904202    0.058343702038    0.000026440018    0.000146464667    0.088799269908    0.083282440692
0.625     -0.101317213702    0.064677671369    0.000049330812    0.000148649597    -0.086483484310    0.044682538244    0.000052739214    0.000161593952
            0.000049330812    0.000148649597    0.105637570245    0.086235721792    0.000045806974    0.000135312762    0.091081127771    0.060520627690
            -0.086483484310    0.044682538244    0.000045806974    0.000135312762    -0.102456343157    0.061872487725    0.000048878372    0.000145496405
            0.000052739214    0.000161593952    0.091081127771    0.060520627690    0.000048878372    0.000145496405    0.105045529408    0.084951104756
0.650     -0.092605182763    0.089420726594    0.000072493967    0.000143833714    -0.082399718110    0.067085280476    0.000077622243    0.000156567340
            0.000072493967    0.000143833714    0.123411855345    0.084463160873    0.000066851527    0.000130557561    0.104704339675    0.060117593066
            -0.082399718110    0.067085280476    0.000066851527    0.000130557561    -0.093989229509    0.086645668800    0.000071280351    0.000140493499
            0.000077622243    0.000156567340    0.104704339675    0.060117593066    0.000071280351    0.000140493499    0.122386201027    0.083348150862
0.675     -0.079005811955    0.112082163645    0.000094774770    0.000134752292    -0.073882573035    0.088444344282    0.000101600195    0.000147020153
            0.000094774770    0.000134752292    0.141281388580    0.078862812426    0.000086977771    0.000122028655    0.118926316359    0.056670868818
            -0.073882573035    0.088444344282    0.000086977771    0.000122028655    -0.080804098872    0.109326603194    0.000092727957    0.000131520865
            0.000101600195    0.000147020153    0.118926316359    0.056670868818    0.000092727957    0.000131520865    0.139923784090    0.077969846850
0.700     -0.061258715286    0.131629120430    0.000115269294    0.000121813699    -0.061375438756    0.107849444802    0.000123725290    0.000133383274
            0.000115269294    0.000121813699    0.158365181786    0.069453816527    0.000105415670    0.000110055853    0.132996701894    0.050077231293
            -0.061375438756    0.107849444802    0.000105415670    0.000110055853    -0.063510616187    0.128991894587    0.000112419180    0.000118925798
            0.000123725290    0.000133383274    0.132996701894    0.050077231293    0.000112419180    0.000118925798    0.156731359459    0.068846012891
0.725     -0.040196262235    0.147315580763    0.000133256602    0.000105549865    -0.045430885304    0.124560723131    0.000143252429    0.000116205573
            0.000133256602    0.000105549865    0.173815630799    0.056461720550    0.000121522236    0.000095128792    0.146191640607    0.040396510394
            -0.045430885304    0.124560723131    0.000121522236    0.000095128792    -0.042889234022    0.144894980268    0.000129692690    0.000103214806
            0.000143252429    0.000116205573    0.146191640607    0.040396510394    0.000129692690    0.000103214806    0.171974118154    0.056199677030
0.750     -0.016744799696    0.158615718519    0.000148198840    0.000086615397    -0.026713931707    0.137998776013    0.000159612242    0.000096165030
            0.000148198840    0.000086615397    0.186876686582    0.040293167764    0.000134828405    0.000077852312    0.157839500836    0.027845528258
            -0.026713931707    0.137998776013    0.000134828405    0.000077852312    -0.019838416972    0.156499951541    0.000144057732    0.000085014326
            0.000159612242    0.000096165030    0.157839500836    0.027845528258    0.000144057732    0.000085014326    0.184909334275    0.040423831140
0.775     0.008115089521    0.165223570447    0.000159737635    0.000065735251    -0.005962982128    0.147744035322    0.000172432711    0.000074001952
            0.000159737635    0.000065735251    0.196908325803    0.021505825028    0.000145032539    0.000058892533    0.167334088024    0.012775281145
            -0.005962982128    0.147744035322    0.000145032539    0.000058892533    0.004680838682    0.163488325117    0.000155203792    0.000065002492
            0.000172432711    0.000074001952    0.167334088024    0.012775281145    0.000155203792    0.000065002492    0.194908355325    0.022056678133
