# GHz S RI R 45
0.000     0.012552374621    0.001934159413    0.000000050307    -0.000000037626    0.000662975497    0.001653962700    0.000000078677    -0.000000005089
            0.000000050307    -0.000000037626    0.011834887747    0.001580356789    0.000000101473    0.000000037443    0.000595239643    0.001403612106
            0.000662975410    0.001653962734    0.000000101473    0.000000037443    0.012504370987    0.001921648426    0.000000142090    0.000000086062
            0.000000078677    -0.000000005089    0.000595240162    0.001403612103    0.000000142090    0.000000086062    0.011717761477    0.001570575432
0.025     0.016744246852    0.010887041752    0.000000055511    -0.000000093484    0.002235003023    0.009645949561    0.000000110180    -0.000000026431
            0.000000055511    -0.000000093484    0.015421345551    0.009409948864    0.000000162448    0.000000060776    0.001895187616    0.008413134535
            0.002232397854    0.009648723291    0.000000162449    0.000000060776    0.016671303658    0.010827380888    0.000000242856    0.000000160584
            0.000000110180    -0.000000026431    0.001896704332    0.008413042851    0.000000242856    0.000000160585    0.015351511540    0.009357521091
0.050     0.022954966962    0.018002782115    0.000000025337    -0.000000206892    0.006688380370    0.018245602332    0.000000132388    -0.000000106287
            0.000000025337    -0.000000206892    0.020745038876    0.015617329420    0.000000245486    0.000000035307    0.005663724491    0.016021122158
            0.006688346071    0.018245631946    0.000000245486    0.000000035307    0.022850984379    0.017874186192    0.000000400244    0.000000187934
            0.000000132388    -0.000000106287    0.005663708918    0.016021140391    0.000000400244    0.000000187934    0.020651481845    0.015538269984
0.075     0.030913172405    0.022813845733    -0.000000046384    -0.000000314407    0.013509161161    0.025074879074    0.000000119610    -0.000000201585
            -0.000000046384    -0.000000314407    0.027635330687    0.019954747695    0.000000308425    -0.000000030757    0.011500095474    0.022212168154
            0.013509153611    0.025074879733    0.000000308425    -0.000000030757    0.030761883689    0.022644893351    0.000000549478    0.000000143466
            0.000000119610    -0.000000201585    0.011500088280    0.022212168500    0.000000549478    0.000000143466    0.027505416978    0.019855184296
0.100     0.040203129870    0.024909547396    -0.000000156077    -0.000000403998    0.022095239876    0.029594570293    0.000000073542    -0.000000300597
            -0.000000156077    -0.000000403998    0.035797003635    0.022060586313    0.000000349876    -0.000000127340    0.018944206449    0.026533777574
            0.022095239876    0.029594570293    0.000000349876    -0.000000127340    0.039996787837    0.024721734652    0.000000685708    0.000000038278
            0.000000073542    -0.000000300597    0.018944206449    0.026533777574    0.000000685708    0.000000038278    0.035625238357    0.021958355850
0.125     0.049974492770    0.023885687492    -0.000000299125    -0.000000466442    0.031752813400    0.031425927387    -0.000000006504    -0.000000394831
            -0.000000299125    -0.000000466442    0.044565518658    0.021550322717    0.000000360732    -0.000000248588    0.027465324834    0.028658212541
            0.031752813400    0.031425927387    0.000000360732    -0.000000248588    0.049713389587    0.023693523012    0.000000791545    -0.000000124229
            -0.000000006504    -0.000000394831    0.027465325451    0.028658209180    0.000000791545    -0.000000124229    0.044353276283    0.021456892166
0.150     0.059559018807    0.019772946338    -0.000000469591    -0.000000491160    0.041722677839    0.030337196936    -0.000000121211    -0.000000472555
            -0.000000469591    -0.000000491160    0.053434563269    0.018419137620    0.000000332855    -0.000000383346    0.036479463742    0.028337426338
            0.041722677839    0.030337196936    0.000000332855    -0.000000383346    0.059255890783    0.019610045549    0.000000850726    -0.000000331495
            -0.000000121211    -0.000000472555    0.036479463742    0.028337426338    0.000000850726    -0.000000331495    0.053192723088    0.018363341563
0.175     0.068026994239    0.012619472254    -0.000000658887    -0.000000470826    0.051207501171    0.026309676624    -0.000000267079    -0.000000524572
            -0.000000658887    -0.000000470826    0.061652953883    0.012618739917    0.000000261614    -0.000000520696    0.045353807648    0.025496213077
            0.051207501171    0.026309676624    0.000000261614    -0.000000520696    0.067702163354    0.012506098258    0.000000850017    -0.000000570320
            -0.000000267079    -0.000000524572    0.045353807648    0.025496213077    0.000000850017    -0.000000570320    0.061399165119    0.012618644152
0.200     0.074540256815    0.002758255349    -0.000000856281    -0.000000398714    0.059436760785    0.019527521856    -0.000000438908    -0.000000540426
            -0.000000856281    -0.000000398714    0.068519750345    0.004333520732    0.000000144361    -0.000000647223    0.053462099496    0.020210820182
            0.059436760785    0.019527521856    0.000000144361    -0.000000647223    0.074220660444    0.002705948176    0.000000779630    -0.000000822993
            -0.000000438908    -0.000000540426    0.053462099496    0.020210820182    0.000000779630    -0.000000822993    0.068277252308    0.004400212882
0.225     0.078368968469    -0.009277322910    -0.000001049874    -0.000000271105    0.065702179211    0.010356031078    -0.000000628662    -0.000000512171
            -0.000001049874    -0.000000271105    0.073397769545    -0.006091492107    -0.000000017139    -0.000000749531    0.060208385990    0.012697470774
            0.065702179211    0.010356031078    -0.000000017139    -0.000000749531    0.078085817894    -0.009267011479    0.000000634614    -0.000001069851
            -0.000000628662    -0.000000512171    0.060208385990    0.012697470774    0.000000634614    -0.000001069851    0.073194073816    -0.005954730909
0.250     0.078945399042    -0.022774874895    -0.000001225528    -0.000000086397    0.069404431115    -0.000676906916    -0.000000825418    -0.000000432262
            -0.000001225528    -0.000000086397    0.075756286177    -0.018157750528    -0.000000217778    -0.000000813363    0.065062915147    0.003303657635
            0.069404431115    -0.000676906916    -0.000000217778    -0.000000813363    0.078731690833    -0.022710345216    0.000000415445    -0.000001289439
            -0.000000825418    -0.000000432262    0.065062915147    0.003303657635    0.000000415445    -0.000001289439    0.075621315911    -0.017955879096
0.275     0.075878679777    -0.036894593486    -0.000001369350    0.000000153556    0.070076305359    -0.012906809820    -0.000001016882    -0.000000296828
            -0.000001369350    0.000000153556    0.075183580497    -0.031253354234    -0.000000448239    -0.000000827001    0.067580139586    -0.007508231612
            0.070076305359    -0.012906809820    -0.000000448239    -0.000000827001    0.075766099727    -0.036795388436    0.000000128201    -0.000001461199
            -0.000001016882    -0.000000296828    0.067580139586    -0.007508231612    0.000000128201    -0.000001461199    0.075147204155    -0.031000272942
0.300     0.068998939326    -0.050710879148    -0.000001466212    0.000000443542    0.067419786421    -0.025567824759    -0.000001188210    -0.000000104097
            -0.000001466212    0.000000443542    0.071425219908    -0.044677034711    -0.000000695822    -0.000000779672    0.067429262894    -0.019183119412
            0.067419786421    -0.025567824759    -0.000000695822    -0.000000779672    0.069014361657    -0.050607815101    -0.000000215581    -0.000001565465
            -0.000001188210    -0.000000104097    0.067429262894    -0.019183119412    -0.000000215581    -0.000001565465    0.071514536939    -0.044396421071
0.325     0.058356470403    -0.063262017578    -0.000001502763    0.000000775022    0.061319835569    -0.037824716984    -0.000001324909    0.000000143613
            -0.000001502763    0.000000775022    0.064384988445    -0.057676532502    -0.000000945035    -0.000000665119    0.064404673622    -0.031095148405
            0.061319835569    -0.037824716984    -0.000000945035    -0.000000665119    0.058518834760    -0.063195201434    -0.000000599364    -0.000001586162
            -0.000001324909    0.000000143613    0.064404673622    -0.031095148405    -0.000000599364    -0.000001586162    0.064621940204    -0.057400490480
0.350     0.044242741726    -0.073608207552    -0.000001466012    0.000001135406    0.051866335513    -0.048822457182    -0.000001411010    0.000000440520
            -0.000001466012    0.000001135406    0.054147165360    -0.069486684274    -0.000001177670    -0.000000479783    0.058447119658    -0.042580236603
            0.051866335513    -0.048822457182    -0.000001177670    -0.000000479783    0.044559717194    -0.073625790976    -0.000001001991    -0.000001510622
            -0.000001411010    0.000000440520    0.058447119658    -0.042580236603    -0.000001001991    -0.000001510622    0.054545526569    -0.069254936984
0.375     0.027173545177    -0.080879745615    -0.000001346220    0.000001509332    0.039355373310    -0.057724502048    -0.000001432648    0.000000776783
            -0.000001346220    0.000001509332    0.040965619207    -0.079364012283    -0.000001374953    -0.000000226003    0.049645158664    -0.052961126304
            0.039355373310    -0.057724502048    -0.000001374953    -0.000000226003    0.027638865395    -0.081034414366    -0.000001399093    -0.000001332286
            -0.000001432648    0.000000776783    0.049645158664    -0.052961126304    -0.000001399093    -0.000001332286    0.041528903431    -0.079222625549
0.400     0.007879396100    -0.084340628264    -0.000001135995    0.000001877268    0.024288781296    -0.063774689449    -0.000001376309    0.000001138054
            -0.000001135995    0.000001877268    0.025265757132    -0.086632477064    -0.000001516956    0.000000089497    0.038241886285    -0.061589236836
            0.024288781296    -0.063774689449    -0.000001516956    0.000000089497    0.008470474904    -0.084686538408    -0.000001763570    -0.000001050396
            -0.000001376309    0.000001138054    0.038241886285    -0.061589236836    -0.000001763570    -0.000001050396    0.025984691114    -0.086630426761
0.425     -0.012730214629    -0.083432354600    -0.000000832499    0.000002217912    0.007354518309    -0.066336854168    -0.000001232274    0.000001506308
            -0.000000832499    0.000002217912    0.007623088559    -0.090712643218    -0.000001585897    0.000000453462    0.024625351919    -0.067869279695
            0.007354518309    -0.066336854168    -0.000001585897    0.000000453462    -0.012054172257    -0.084020196949    -0.000002067961    -0.000000672410
            -0.000001232274    0.000001506308    0.024625351919    -0.067869279695    -0.000002067961    -0.000000672410    0.008473486153    -0.090900205825
0.450     -0.033611940782    -0.077828604709    -0.000000435991    0.000002506815    -0.010606551978    -0.064955148793    -0.000000991976    0.000001858998
            -0.000000435991    0.000002506815    -0.011258075799    -0.091164241810    -0.000001563649    0.000000847566    0.009315823407    -0.071303685027
            -0.010606551978    -0.064955148793    -0.000001563649    0.000000847566    -0.032912195668    -0.078700587275    -0.000002283225    -0.000000212914
            -0.000000991976    0.000001858998    0.009315823407    -0.071303685027    -0.000002283225    -0.000000212914    -0.010318297225    -0.091588575990
0.475     -0.053645656127    -0.067460850738    0.000000048961    0.000002725084    -0.028646781505    -0.059382051821    -0.000000650980    0.000002177862
            0.000000048961    0.000002725084    -0.030577113668    -0.087706428343    -0.000001435846    0.000001254790    -0.007059145620    -0.071511778763
            -0.028646781505    -0.059382051821    -0.000001435846    0.000001254790    -0.053010455798    -0.068644794462    -0.000002382372    0.000000313155
            -0.000000650980    0.000002177862    -0.007059145620    -0.071511778763    -0.000002382372    0.000000313155    -0.029615468381    -0.088410374476
0.500     -0.071707925609    -0.052543006539    0.000000601048    0.000002853847    -0.045790481100    -0.049613581515    -0.000000222594    0.000002442367
            0.000000601048    0.000002853847    -0.049478242801    -0.080246088722    -0.000001205464    0.000001654558    -0.023810990109    -0.068267452227
            -0.045790481100    -0.049613581515    -0.000001205464    0.000001654558    -0.071282605560    -0.054044111967    -0.000002358446    0.000000884664
            -0.000000222594    0.000002442367    -0.023810990109    -0.068267452227    -0.000002358446    0.000000884664    -0.048617212649    -0.081269039807
0.525     -0.086742352874    -0.033558781663    0.000001198921    0.000002867088    -0.061220892103    -0.035891259113    0.000000283412    0.000002623165
            0.000001198921    0.000002867088    -0.067093274009    -0.068879641922    -0.000000872626    0.000002014034    -0.040335543557    -0.061545656410
            -0.061220892103    -0.035891259113    -0.000000872626    0.000002014034    -0.086994441620    -0.035392361799    -0.000002200324    0.000001465471
            0.000000283412    0.000002623165    -0.040335543557    -0.061545656410    -0.000002200324    0.000001465471    -0.066738149575    -0.070361440333
0.550     -0.097850720672    -0.011286496762    0.000001819313    0.000002749561    -0.072864544315    -0.019760906721    0.000000810731    0.000002700098
            0.000001819313    0.000002749561    -0.082587182898    -0.053922159199    -0.000000483733    0.000002307712    -0.054520426695    -0.052059595441
            -0.072864544315    -0.019760906721    -0.000000483733    0.000002307712    -0.096863411684    -0.015079702659    -0.000001957282    0.000001993133
            0.000000810731    0.000002700098    -0.054520426695    -0.052059595441    -0.000001957282    0.000001993133    -0.080566006638    -0.056789253962
0.575     -0.104235571522    0.013420530603    0.000002434866    0.000002490301    -0.081675521619    0.000699855422    0.000001415270    0.000002632259
            0.000002434866    0.000002490301    -0.095170667999    -0.035769382952    0.000000025087    0.000002487528    -0.067921602396    -0.038232054792
            -0.081675521619    0.000699855422    0.000000025087    0.000002487528    -0.103913386604    0.010335705092    -0.000001515487    0.000002461430
            0.000001415270    0.000002632259    -0.067921602396    -0.038232054792    -0.000001515487    0.000002461430    -0.093910986218    -0.038165396440
0.600     -0.105255705811    0.039342252194    0.000003008219    0.000002085899    -0.086211132594    0.022442741402    0.000002016204    0.000002437088
            0.000003008219    0.000002085899    -0.103993482529    -0.015091124566    0.000000580375    0.000002561621    -0.078472570341    -0.022192097538
            -0.086211132594    0.022442741402    0.000000580375    0.000002561621    -0.105809089558    0.036075485679    -0.000000980579    0.000002841478
            0.000002016204    0.000002437088    -0.078472570341    -0.022192097538    -0.000000980579    0.000002841478    -0.103426837773    -0.017886575008
0.625     -0.101317213702    0.064677671369    0.000003500470    0.000001563540    -0.086483484310    0.044682538244    0.000002579584    0.000002107452
            0.000003500470    0.000001563540    -0.108890359264    0.006604071380    0.000001152313    0.000002512530    -0.085976619528    -0.004457198294
            -0.086483484310    0.044682538244    0.000001152313    0.000002512530    -0.102456343157    0.061872487725    -0.000000359435    0.000003100908
            0.000002579584    0.000002107452    -0.085976619528    -0.004457198294    -0.000000359435    0.000003100908    -0.108957725723    0.004054311631
0.650     -0.092605182763    0.089420726594    0.000003906186    0.000000926249    -0.082399718110    0.067085280476    0.000003087986    0.000001652907
            0.000003906186    0.000000926249    -0.109998497923    0.029453041988    0.000001726363    0.000002338167    -0.090249022089    0.014887585485
            -0.082399718110    0.067085280476    0.000001726363    0.000002338167    -0.093989229509    0.086645668800    0.000000320654    0.000003219968
            0.000003087986    0.000001652907    -0.090249022089    0.014887585485    0.000000320654    0.000003219968    -0.110264458832    0.026868017694
0.675     -0.079005811955    0.112082163645    0.000004185436    0.000000190238    -0.073882573035    0.088444344282    0.000003508962    0.000001079645
            0.000004185436    0.000000190238    -0.106659861539    0.052364081571    0.000002269453    0.000002033051    -0.090780370333    0.034970791529
            -0.073882573035    0.088444344282    0.000002269453    0.000002033051    -0.080804098872    0.109326603194    0.000001026666    0.000003188440
            0.000003508962    0.000001079645    -0.090780370333    0.034970791529    0.000001026666    0.000003188440    -0.107269262336    0.049674679727
0.700     -0.061258715286    0.131629120430    0.000004316688    -0.000000612868    -0.061375438756    0.107849444802    0.000003814498    0.000000408996
            0.000004316688    -0.000000612868    -0.099060610023    0.074333480411    0.000002751135    0.000001606419    -0.087569888100    0.054981272071
            -0.061375438756    0.107849444802    0.000002751135    0.000001606419    -0.063510616187    0.128991894587    0.000001724960    0.000003003032
            0.000003814498    0.000000408996    -0.087569888100    0.054981272071    0.000001724960    0.000003003032    -0.100080654038    0.071607548866
0.725     -0.040196262235    0.147315580763    0.000004288080    -0.000001451039    -0.045430885304    0.124560723131    0.000003985151    -0.000000332709
            0.000004288080    -0.000001451039    -0.087529315556    0.094526338662    0.000003146409    0.000001074015    -0.080739552456    0.074180755475
            -0.045430885304    0.124560723131    0.000003146409    0.000001074015    -0.042889234022    0.144894980268    0.000002382878    0.000002669041
            0.000003985151    -0.000000332709    -0.080739552456    0.074180755475    0.000002382878    0.000002669041    -0.088983330730    0.091849428730
0.750     -0.016744799696    0.158615718519    0.000004093630    -0.000002290554    -0.026713931707    0.137998776013    0.000004006786    -0.000001116085
            0.000004093630    -0.000002290554    -0.072537015084    0.112216089186    0.000003433781    0.000000455128    -0.070550468125    0.091892739891
            -0.026713931707    0.137998776013    0.000003433781    0.000000455128    -0.019838416972    0.156499951541    0.000002970130    0.000002197284
            0.000004006786    -0.000001116085    -0.070550468125    0.091892739891    0.000002970130    0.000002197284    -0.074422215459    0.109675150950
0.775     0.008115089521    0.165223570447    0.000003735645    -0.000003098901    -0.005962982128    0.147744035322    0.000003873515    -0.000001910487
            0.000003735645    -0.000003098901    -0.054679767903    0.126799757309    0.000003597813    -0.000000227022    -0.057380487998    0.107515675620
            -0.005962982128    0.147744035322    0.000003597813    -0.000000227022    0.004680838682    0.163488325117    0.000003460666    0.000001604931
            0.000003873515    -0.000001910487    -0.057380487998    0.107515675620    0.000003460666    0.000001604931    -0.056972605169    0.124479369686
