# GHz S RI R 45
0.000     0.012552374621    0.001934159413    -0.000015054822    -0.000039716728    0.000662975497    0.001653962700    -0.000021338991    -0.000054951190
            -0.000015054774    -0.000039716728    0.012836875220    0.001706141446    -0.000011326532    -0.000029666693    0.000711553563    0.001488107164
            0.000662975410    0.001653962734    -0.000011326544    -0.000029666692    0.012504370987    0.001921648426    -0.000015180840    -0.000039682291
            -0.000021338957    -0.000054951188    0.000711553840    0.001488107143    -0.000015180927    -0.000039682290    0.012807535189    0.001697141740
0.025     0.016744246852    0.010887041752    -0.000035739486    -0.000087623884    0.002235003023    0.009645949561    -0.000049968730    -0.000121814855
            -0.000035739500    -0.000087623832    0.016377876458    0.010864299692    -0.000026829171    -0.000065321565    0.001795218569    0.009598949371
            0.002232397854    0.009648723291    -0.000026829161    -0.000065321540    0.016671303658    0.010827380888    -0.000035730579    -0.000087521269
            -0.000049969296    -0.000121815022    0.001795240682    0.009598161883    -0.000035730603    -0.000087521196    0.016292054670    0.010785299224
0.050     0.022954966962    0.018002782115    -0.000081006704    -0.000154528574    0.006688380370    0.018245602332    -0.000111770542    -0.000214915322
            -0.000081006704    -0.000154528574    0.020915905796    0.018506428693    -0.000060815059    -0.000115149827    0.004966550349    0.018526532324
            0.006688346071    0.018245631946    -0.000060815059    -0.000115149827    0.022850984379    0.017874186192    -0.000080577212    -0.000154556863
            -0.000111770542    -0.000214915322    0.004966576152    0.018526526442    -0.000080577212    -0.000154556863    0.020778644794    0.018374904919
0.075     0.030913172405    0.022813845733    -0.000141774138    -0.000205212028    0.013509161161    0.025074879074    -0.000194448677    -0.000286552549
            -0.000141774138    -0.000205212028    0.026399463249    0.024650156234    -0.000106529855    -0.000152738152    0.009850988982    0.026343496894
            0.013509153611    0.025074879733    -0.000106529855    -0.000152738152    0.030761883689    0.022644893351    -0.000140909035    -0.000205843394
            -0.000194448677    -0.000286552549    0.009851003848    0.026343498808    -0.000140909035    -0.000205843394    0.026187288231    0.024487659632
0.100     0.040203129870    0.024909547396    -0.000214750633    -0.000238398620    0.022095239876    0.029594570293    -0.000294230219    -0.000335260257
            -0.000214750633    -0.000238398620    0.032653680836    0.029172628653    -0.000161431721    -0.000177054051    0.016066239980    0.032731685286
            0.022095239876    0.029594570293    -0.000161431721    -0.000177054051    0.039996787837    0.024721734652    -0.000213763493    -0.000240112407
            -0.000294230219    -0.000335260257    0.016066239408    0.032731685567    -0.000213763493    -0.000240112407    0.032352012992    0.029011010665
0.125     0.049974492770    0.023885687492    -0.000295724809    -0.000252363062    0.031752813400    0.031425927387    -0.000405999645    -0.000358524374
            -0.000295724809    -0.000252363062    0.039157446041    0.031893706925    -0.000222307620    -0.000186793671    0.023204690146    0.037496308001
            0.031752813400    0.031425927387    -0.000222307620    -0.000186793671    0.049713389587    0.023693523012    -0.000295259032    -0.000255485693
            -0.000405999645    -0.000358524374    0.023204672213    0.037496261475    -0.000295259032    -0.000255485693    0.038763213336    0.031774039436
0.150     0.059559018807    0.019772946338    -0.000380219224    -0.000246846214    0.041722677839    0.030337196936    -0.000524162275    -0.000355543884
            -0.000380219224    -0.000246846214    0.045646919086    0.033010404439    -0.000285735582    -0.000181741626    0.030810051919    0.040489038758
            0.041722677839    0.030337196936    -0.000285735582    -0.000181741626    0.059255890783    0.019610045549    -0.000381133835    -0.000251374552
            -0.000524162275    -0.000355543884    0.030810052625    0.040489038220    -0.000381133835    -0.000251374552    0.045167417578    0.032967700231
0.175     0.068026994239    0.012619472254    -0.000464232333    -0.000222414398    0.051207501171    0.026309676624    -0.000643516528    -0.000326410738
            -0.000464232333    -0.000222414398    0.051623365828    0.032575600309    -0.000348668598    -0.000162330052    0.038415907615    0.041718789734
            0.051207501171    0.026309676624    -0.000348668598    -0.000162330052    0.067702163354    0.012506098258    -0.000467461550    -0.000227916249
            -0.000643516528    -0.000326410738    0.038415907615    0.041718789734    -0.000467461550    -0.000227916249    0.051082825318    0.032644080319
0.200     0.074540256815    0.002758255349    -0.000544499534    -0.000180491166    0.059436760785    0.019527521856    -0.000759547275    -0.000272319290
            -0.000544499534    -0.000180491166    0.056663388339    0.030847591539    -0.000408617340    -0.000129619800    0.045584533057    0.041318896395
            0.059436760785    0.019527521856    -0.000408617340    -0.000129619800    0.074220660444    0.002705948176    -0.000550855252    -0.000186058034
            -0.000759547275    -0.000272319290    0.045584533798    0.041318897067    -0.000550855252    -0.000186058034    0.056099149707    0.031053323787
0.225     0.078368968469    -0.009277322910    -0.000618485851    -0.000122666327    0.065702179211    0.010356031078    -0.000868431972    -0.000194764723
            -0.000618485851    -0.000122666327    0.060456268675    0.028193857106    -0.000463619378    -0.000084799035    0.051935394500    0.039524976883
            0.065702179211    0.010356031078    -0.000463619378    -0.000084799035    0.078085817894    -0.009267011479    -0.000628444868    -0.000126964652
            -0.000868431972    -0.000194764723    0.051935394500    0.039524976883    -0.000628444868    -0.000126964652    0.059914218571    0.028549610618
0.250     0.078945399042    -0.022774874895    -0.000684389607    -0.000050664242    0.069404431115    -0.000676906916    -0.000967095270    -0.000095548316
            -0.000684389607    -0.000050664242    0.062814413555    0.025067051449    -0.000512242570    -0.000029154869    0.057170757269    0.036664848990
            0.069404431115    -0.000676906916    -0.000512242570    -0.000029154869    0.078731690833    -0.022710345216    -0.000697899220    -0.000052056882
            -0.000967095270    -0.000095548316    0.057170757269    0.036664848990    -0.000697899220    -0.000052056882    0.062344514559    0.025570406464
0.275     0.075878679777    -0.036894593486    -0.000740834380    0.000034126463    0.070076305359    -0.012906809820    -0.001052846204    0.000023703609
            -0.000740834380    0.000034126463    0.063689025077    0.021944189789    -0.000553344176    0.000036251411    0.061092534454    0.033126386330
            0.070076305359    -0.012906809820    -0.000553344176    0.000036251411    0.075766099727    -0.036795388436    -0.000757177526    0.000037385196
            -0.001052846204    0.000023703609    0.061092534454    0.033126386330    -0.000757177526    0.000037385196    0.063340145171    0.022576760902
0.300     0.068998939326    -0.050710879148    -0.000786733449    0.000130617599    0.067419786421    -0.025567824759    -0.001123310119    0.000161432609
            -0.000786733449    0.000130617599    0.063169391355    0.019306725883    -0.000585981531    0.000110537003    0.063617869338    0.029338115305
            0.067419786421    -0.025567824759    -0.000585981531    0.000110537003    0.069014361657    -0.050607815101    -0.000804453723    0.000140101483
            -0.001123310119    0.000161432609    0.063617869338    0.029338115305    -0.000804453723    0.000140101483    0.062984602890    0.020034616253
0.325     0.058356470403    -0.063262017578    -0.000820846532    0.000238080145    0.061319835569    -0.037824716984    -0.001175936492    0.000316274778
            -0.000820846532    0.000238080145    0.061478301677    0.017587853596    -0.000609081004    0.000193069611    0.064782567977    0.025731794477
            0.061319835569    -0.037824716984    -0.000609081004    0.000193069611    0.058518834760    -0.063195201434    -0.000837797855    0.000254912250
            -0.001175936492    0.000316274778    0.064782567977    0.025731794477    -0.000837797855    0.000254912250    0.061490278478    0.018364049188
0.350     0.044242741726    -0.073608207552    -0.000841662836    0.000356035812    0.051866335513    -0.048822457182    -0.001208027625    0.000486867857
            -0.000841662836    0.000356035812    0.058957563085    0.017153420932    -0.000621389441    0.000283279102    0.064745618825    0.022718660138
            0.051866335513    -0.048822457182    -0.000621389441    0.000283279102    0.044559717194    -0.073625790976    -0.000855152716    0.000380602253
            -0.001208027625    0.000486867857    0.064745618825    0.022718660138    -0.000855152716    0.000380602253    0.059185175745    0.017921098237
0.375     0.027173545177    -0.080879745615    -0.000847063152    0.000483898987    0.039355373310    -0.057724502048    -0.001216329203    0.000671470844
            -0.000847063152    0.000483898987    0.056045727544    0.018258971454    -0.000621210182    0.000380519277    0.063775780012    0.020649045324
            0.039355373310    -0.057724502048    -0.000621210182    0.000380519277    0.027638865395    -0.081034414366    -0.000854114600    0.000515625112
            -0.001216329203    0.000671470844    0.063775780012    0.020649045324    -0.000854114600    0.000515625112    0.056491089264    0.018955655440
0.400     0.007879396100    -0.084340628264    -0.000834388969    0.000620742466    0.024288781296    -0.063774689449    -0.001197234850    0.000867792154
            -0.000834388969    0.000620742466    0.053250894842    0.021036694002    -0.000606533891    0.000483762727    0.062241234097    0.019790896668
            0.024288781296    -0.063774689449    -0.000606533891    0.000483762727    0.008470474904    -0.084686538408    -0.000832081055    0.000657988281
            -0.001197234850    0.000867792154    0.062241234097    0.019790896668    -0.000832081055    0.000657988281    0.053898307462    0.021599427274
0.425     -0.012730214629    -0.083432354600    -0.000800420530    0.000764796647    0.007354518309    -0.066336854168    -0.001146815818    0.001072433023
            -0.000800420530    0.000764796647    0.051112694277    0.025467396624    -0.000575014654    0.000591332343    0.060578282843    0.020293743006
            0.007354518309    -0.066336854168    -0.000575014654    0.000591332343    -0.012054172257    -0.084020196949    -0.000786309855    0.000804813513
            -0.001146815818    0.001072433023    0.060578284386    0.020293744699    -0.000786309855    0.000804813513    0.051928807282    0.025838116059
0.450     -0.033611940782    -0.077828604709    -0.000741784744    0.000913205793    -0.010606551978    -0.064955148793    -0.001061288885    0.001280742358
            -0.000741784744    0.000913205793    0.050165927385    0.031381034687    -0.000524293712    0.000700743523    0.059264698389    0.022178397120
            -0.010606551978    -0.064955148793    -0.000524293712    0.000700743523    -0.032912195668    -0.078700587275    -0.000714259541    0.000952336969
            -0.001061288885    0.001280742358    0.059264698389    0.022178397120    -0.000714259541    0.000952336969    0.051102046774    0.031512121150
0.475     -0.053645656127    -0.067460850738    -0.000655275186    0.001061651413    -0.028646781505    -0.059382051821    -0.000937372586    0.001486537731
            -0.000655275186    0.001061651413    0.050891954853    0.038451366701    -0.000452275712    0.000808481555    0.058773412947    0.025317138760
            -0.028646781505    -0.059382051821    -0.000452275712    0.000808481555    -0.053010455798    -0.068644794462    -0.000613903907    0.001095727409
            -0.000937372586    0.001486537731    0.058773412947    0.025317138760    -0.000613903907    0.001095727409    0.051888778045    0.038309062308
0.500     -0.071707925609    -0.052543006539    -0.000538558150    0.001204524666    -0.045790481100    -0.049613581515    -0.000773031923    0.001682212160
            -0.000538558150    0.001204524666    0.053681517152    0.046218115756    -0.000357557063    0.000910320140    0.059538146174    0.029443394688
            -0.045790481100    -0.049613581515    -0.000357557063    0.000910320140    -0.071282605560    -0.054044111967    -0.000484190674    0.001229493572
            -0.000773031923    0.001682212160    0.059538146174    0.029443394688    -0.000484190674    0.001229493572    0.054675252473    0.045782265442
0.525     -0.086742352874    -0.033558781663    -0.000390584715    0.001334932687    -0.061220892103    -0.035891259113    -0.000567979384    0.001858980159
            -0.000390584715    0.001334932687    0.058790371762    0.054109754248    -0.000239576540    0.001002933019    0.061898542791    0.034155307418
            -0.061220892103    -0.035891259113    -0.000239576540    0.001002933019    -0.086994441620    -0.035392361799    -0.000325103660    0.001349792457
            -0.000567979384    0.001858980159    0.061898542791    0.034155307418    -0.000325103660    0.001349792457    0.059711477633    0.053363483376
0.550     -0.097850720672    -0.011286496762    -0.000212746293    0.001445458308    -0.072864544315    -0.019760906721    -0.000324933344    0.002007745461
            -0.000212746293    0.001445458308    0.066317244434    0.061491323083    -0.000114553364    0.001069259262    0.066057573888    0.038964418539
            -0.072864544315    -0.019760906721    -0.000114553364    0.001069259262    -0.096863411684    -0.015079702659    -0.000159366251    0.001433728504
            -0.000324933344    0.002007745461    0.066057573888    0.038964418539    -0.000159366251    0.001433728504    0.067061120128    0.060422669607
0.575     -0.104235571522    0.013420530603    -0.000007445159    0.001527784859    -0.081675521619    0.000699855422    -0.000047560290    0.002118596028
            -0.000007445159    0.001527784859    0.076182585206    0.067706583228    0.000048431623    0.001118527460    0.072073487611    0.043362763351
            -0.081675521619    0.000699855422    0.000048431623    0.001118527460    -0.103913386604    0.010335705092    0.000055531736    0.001496035606
            -0.000047560290    0.002118596028    0.072073487611    0.043362763351    0.000055531736    0.001496035606    0.076616143518    0.066370770199
0.600     -0.105255705811    0.039342252194    0.000219060359    0.001574514432    -0.086211132594    0.022442741402    0.000255921508    0.002182946999
            0.000219060359    0.001574514432    0.088130129834    0.072129383396    0.000218369666    0.001141693801    0.079900172794    0.046825244976
            -0.086211132594    0.022442741402    0.000218369666    0.001141693801    -0.105809089558    0.036075485679    0.000277232646    0.001524887591
            0.000255921508    0.002182946999    0.079900172794    0.046825244976    0.000277232646    0.001524887591    0.088176944168    0.070635218075
0.625     -0.101317213702    0.064677671369    0.000457067374    0.001583335683    -0.086483484310    0.044682538244    0.000573259851    0.002198732392
            0.000457067374    0.001583335683    0.101732105879    0.074211517298    0.000394864638    0.001134256340    0.089321794357    0.048822176833
            -0.086483484310    0.044682538244    0.000394864638    0.001134256340    -0.102456343157    0.061872487725    0.000506120084    0.001515161972
            0.000573259851    0.002198732392    0.089321794357    0.048822176833    0.000506120084    0.001515161972    0.101366458680    0.072660719912
0.650     -0.092605182763    0.089420726594    0.000703382771    0.001549977674    -0.082399718110    0.067085280476    0.000901050277    0.002161152979
            0.000703382771    0.001549977674    0.116434192797    0.073526792296    0.000571650535    0.001094649215    0.099979203246    0.048906350409
            -0.082399718110    0.067085280476    0.000571650555    0.001094649205    -0.093989229509    0.086645668800    0.000734731609    0.001465333689
            0.000901050277    0.002161152979    0.099979203246    0.048906350409    0.000734731609    0.001465333689    0.115651033754    0.072014504081
0.675     -0.079005811955    0.112082163645    0.000946102512    0.001471388073    -0.073882573035    0.088444344282    0.001224836201    0.002066511640
            0.000946102512    0.001471388073    0.131584598252    0.069798868098    0.000741727271    0.001023279833    0.111402376046    0.046741054555
            -0.073882573035    0.088444344282    0.000741727271    0.001023279833    -0.080804098872    0.109326603194    0.000954715601    0.001376224442
            0.001224836201    0.002066511640    0.111402376046    0.046741054555    0.000954715601    0.001376224442    0.130398133400    0.068419411853
0.700     -0.061258715286    0.131629120430    0.001175543096    0.001349619901    -0.061375438756    0.107849444802    0.001532998889    0.001917509371
            0.001175543096    0.001349619901    0.146488317529    0.062919461085    0.000898550625    0.000922343506    0.123061517432    0.042121012427
            -0.061375438756    0.107849444802    0.000898550625    0.000922343506    -0.063510616187    0.128991894587    0.001158454521    0.001250616708
            0.001532998889    0.001917509371    0.123061517432    0.042121012427    0.001158454521    0.001250616708    0.144932083674    0.061763938934
0.725     -0.040196262235    0.147315580763    0.001383118510    0.001188413916    -0.045430885304    0.124560723131    0.001815465425    0.001718584535
            0.001383118510    0.001188413916    0.160441166967    0.052949441929    0.001036441480    0.000795471689    0.134387960038    0.034973887240
            -0.045430885304    0.124560723131    0.001036441480    0.000795471689    -0.042889234022    0.144894980268    0.001339294078    0.001092939935
            0.001815465455    0.001718584503    0.134387960038    0.034973887240    0.001339294078    0.001092939935    0.158569810623    0.052099740848
0.750     -0.016744799696    0.158615718519    0.001561534326    0.000993314662    -0.026713931707    0.137998776013    0.002063607025    0.001476223963
            0.001561534326    0.000993314662    0.172780782284    0.040107793985    0.001150972516    0.000647442599    0.144822429531    0.025362310334
            -0.026713931707    0.137998776013    0.001150972516    0.000647442599    -0.019838416972    0.156499951541    0.001492094051    0.000908893932
            0.002063607025    0.001476223963    0.144822429531    0.025362310334    0.001492094051    0.000908893932    0.170665355201    0.039633601587
0.775     0.008115089521    0.165223570447    0.001705126629    0.000771145767    -0.005962982128    0.147744035322    0.002270747559    0.001198191415
            0.001705126629    0.000771145767    0.182910989364    0.024755021507    0.001239054858    0.000483739090    0.153829452959    0.013469727847
            -0.005962982128    0.147744035322    0.001239054858    0.000483739090    0.004680838682    0.163488325117    0.001613344942    0.000704816054
            0.002270747559    0.001198191415    0.153829452959    0.013469727847    0.001613344942    0.000704816054    0.180637184927    0.024708112386
