# GHz S RI R 45
0.000     0.012552374621    0.001934159413    0.000000596957    0.000001169427    0.000662975497    0.001653962700    0.000000672193    0.000001302016
            0.000000596957    0.000001169427    0.011886697895    0.001759375882    0.000000680734    0.000001306187    0.000601744599    0.001483678322
            0.000662975410    0.001653962734    0.000000680733    0.000001306187    0.012504370987    0.001921648426    0.000000772384    0.000001466875
            0.000000672194    0.000001302016    0.000601745270    0.001483678266    0.000000772395    0.000001466875    0.011798259451    0.001774118502
0.025     0.016744246852    0.010887041752    0.000001367703    0.000002471718    0.002235003023    0.009645949561    0.000001530353    0.000002754357
            0.000001367704    0.000002471718    0.015571147713    0.009700110452    0.000001542566    0.000002762265    0.001948105780    0.008553524760
            0.002232397854    0.009648723291    0.000001542566    0.000002762266    0.016671303658    0.010827380888    0.000001740366    0.000003104077
            0.000001530353    0.000002754356    0.001945809051    0.008551779005    0.000001740368    0.000003104081    0.015495691181    0.009699042367
0.050     0.022954966962    0.018002782115    0.000003032331    0.000004136431    0.006688380370    0.018245602332    0.000003380312    0.000004609516
            0.000003032331    0.000004136431    0.021051003209    0.016049517108    0.000003397840    0.000004621202    0.005767968769    0.016264841765
            0.006688346071    0.018245631946    0.000003397841    0.000004621202    0.022850984379    0.017874186192    0.000003819504    0.000005192797
            0.000003380312    0.000004609516    0.005767949511    0.016264831618    0.000003819504    0.000005192797    0.020996562692    0.016065344034
0.075     0.030913172405    0.022813845733    0.000005233093    0.000005094142    0.013509161161    0.025074879074    0.000005822802    0.000005682328
            0.000005233093    0.000005094142    0.028089982283    0.020484387453    0.000005845837    0.000005695373    0.011679818398    0.022539693742
            0.013509153611    0.025074879733    0.000005845837    0.000005695373    0.030761883689    0.022644893351    0.000006558709    0.000006406363
            0.000005822802    0.000005682328    0.011679810656    0.022539693248    0.000006558709    0.000006406363    0.028057295622    0.020513873325
0.100     0.040203129870    0.024909547396    0.000007791633    0.000005261559    0.022095239876    0.029594570293    0.000008664004    0.000005882680
            0.000007791633    0.000005261559    0.036408753236    0.022653656792    0.000008692410    0.000005895433    0.019213636840    0.026930045662
            0.022095239876    0.029594570293    0.000008692410    0.000005895433    0.039996787837    0.024721734652    0.000009746023    0.000006647624
            0.000008664004    0.000005882680    0.019213636951    0.026930046811    0.000009746023    0.000006647624    0.036410777774    0.022696238844
0.125     0.049974492770    0.023885687492    0.000010480747    0.000004551357    0.031752813400    0.031425927387    0.000011655039    0.000005113006
            0.000010480747    0.000004551357    0.045341124693    0.022155316808    0.000011688770    0.000005123648    0.027839310694    0.029106721080
            0.031752813400    0.031425927387    0.000011688770    0.000005123648    0.049713389587    0.023693523012    0.000013107185    0.000005806319
            0.000011655039    0.000005113006    0.027839310694    0.029106721080    0.000013107185    0.000005806319    0.045390292035    0.022220619907
0.150     0.059559018807    0.019772946338    0.000013052561    0.000002967100    0.041722677839    0.030337196936    0.000014523245    0.000003375731
            0.000013052561    0.000002967100    0.054374831264    0.019015783936    0.000014561517    0.000003382851    0.036971084091    0.028820841699
            0.041722677839    0.030337196936    0.000014561517    0.000003382851    0.059255890783    0.019610045549    0.000016339345    0.000003883741
            0.000014523245    0.000003375731    0.036971084091    0.028820841699    0.000016339345    0.000003883741    0.054492267775    0.019090470851
0.175     0.068026994239    0.012619472254    0.000015273554    0.000000552915    0.051207501171    0.026309676624    0.000017011556    0.000000717136
            0.000015273554    0.000000552915    0.062755611262    0.013176381906    0.000017053260    0.000000719522    0.045976074872    0.025994518136
            0.051207501171    0.026309676624    0.000017053260    0.000000719522    0.067702163354    0.012506098258    0.000019156803    0.000000928313
            0.000017011556    0.000000717136    0.045976074872    0.025994518136    0.000019156803    0.000000928313    0.062960884886    0.013247900067
0.200     0.074540256815    0.002758255349    0.000016929697    -0.000002587237    0.059436760785    0.019527521856    0.000018883182    -0.000002750842
            0.000016929697    -0.000002587237    0.069779375101    0.004819036415    0.000018927028    -0.000002754098    0.054226933514    0.020700395650
            0.059436760785    0.019527521856    0.000018927028    -0.000002754098    0.074220660444    0.002705948176    0.000021295414    -0.000002938517
            0.000018883182    -0.000002750842    0.054226933514    0.020700395650    0.000021295414    -0.000002938517    0.070090949654    0.004871088246
0.225     0.078368968469    -0.009277322910    0.000017833997    -0.000006304507    0.065702179211    0.010356031078    0.000019930286    -0.000006866736
            0.000017833997    -0.000006304507    0.074804735739    -0.005712400427    0.000019974849    -0.000006876122    0.061125239465    0.013150301013
            0.065702179211    0.010356031078    0.000019974856    -0.000006876123    0.078085817894    -0.009267011479    0.000022521927    -0.000007540259
            0.000019930286    -0.000006866736    0.061125239465    0.013150301013    0.000022521927    -0.000007540259    0.075239505823    -0.005702191426
0.250     0.078945399042    -0.022774874895    0.000017842413    -0.000010408019    0.069404431115    -0.000676906916    0.000019991501    -0.000011422268
            0.000017842413    -0.000010408019    0.077296584425    -0.017920255791    0.000020035282    -0.000011437771    0.066137927581    0.003687436484
            0.069404431115    -0.000676906916    0.000020035282    -0.000011437771    0.078731690833    -0.022710345216    0.000022653728    -0.000012647677
            0.000019991501    -0.000011422268    0.066137927581    0.003687436484    0.000022653728    -0.000012647677    0.077867466489    -0.017979789436
0.275     0.075878679777    -0.036894593486    0.000016853841    -0.000014677715    0.070076305359    -0.012906809820    0.000018952000    -0.000016176642
            0.000016853841    -0.000014677715    0.076837281710    -0.031193217613    0.000018993613    -0.000016197708    0.068814167274    -0.007230469834
            0.070076305359    -0.012906809820    0.000018993613    -0.000016197708    0.075766099727    -0.036795388436    0.000021559226    -0.000017994646
            0.000018952000    -0.000016176642    0.068814167274    -0.007230469834    0.000021559226    -0.000017994646    0.077552013520    -0.031355909628
0.300     0.068998939326    -0.050710879148    0.000014821566    -0.000018872918    0.067419786421    -0.025567824759    0.000016756161    -0.000020865041
            0.000014821566    -0.000018872918    0.073165554102    -0.044830195466    0.000016794972    -0.000020890945    0.068816427176    -0.019052276180
            0.067419786421    -0.025567824759    0.000016794972    -0.000020890945    0.069014361657    -0.050607815101    0.000019172343    -0.000023287698
            0.000016756161    -0.000020865041    0.068816427176    -0.019052276180    0.000019172343    -0.000023287698    0.074024715955    -0.045134088513
0.325     0.058356470403    -0.063262017578    0.000011751371    -0.000022742006    0.061319835569    -0.037824716984    0.000013405938    -0.000025210017
            0.000011751371    -0.000022742006    0.066177043978    -0.058077116159    0.000013441687    -0.000025239922    0.065930830934    -0.031154825468
            0.061319835569    -0.037824716984    0.000013441687    -0.000025239922    0.058518834760    -0.063195201434    0.000015490492    -0.000028218190
            0.000013405938    -0.000025210017    0.065930830934    -0.031154825468    0.000015490492    -0.000028218190    0.067172452875    -0.058563158351
0.350     0.044242741726    -0.073608207552    0.000007709132    -0.000026035480    0.051866335513    -0.048822457182    0.000008969508    -0.000028935034
            0.000007709132    -0.000026035480    0.055947318672    -0.070166233207    0.000009002589    -0.000028968818    0.060087802591    -0.042875287928
            0.051866335513    -0.048822457182    0.000009002589    -0.000028968818    0.044559717194    -0.073625790976    0.000010584403    -0.000032477905
            0.000008969508    -0.000028935034    0.060087802591    -0.042875287928    0.000010584403    -0.000032477905    0.057060705173    -0.070876354733
0.375     0.027173545177    -0.080879745615    0.000002818063    -0.000028515992    0.039355373310    -0.057724502048    0.000003577994    -0.000031775988
            0.000002818063    -0.000028515992    0.042721142256    -0.080349127341    0.000003608918    -0.000031814062    0.051364946603    -0.053535068618
            0.039355373310    -0.057724502048    0.000003608918    -0.000031814062    0.027638865395    -0.081034414366    0.000004594321    -0.000035771298
            0.000003577994    -0.000031775988    0.051364946603    -0.053535068618    0.000004594321    -0.000035771298    0.043923277848    -0.081323875379
0.400     0.007879396100    -0.084340628264    -0.000002740103    -0.000029975597    0.024288781296    -0.063774689449    -0.000002572415    -0.000033499561
            -0.000002740103    -0.000029975597    0.026914919674    -0.087941963614    -0.000002543290    -0.000033543848    0.039994363941    -0.062481494748
            0.024288781296    -0.063774689449    -0.000002543290    -0.000033543848    0.008470474904    -0.084686538408    -0.000002267199    -0.000037835975
            -0.000002572415    -0.000033499561    0.039994363941    -0.062481494748    -0.000002267199    -0.000037835975    0.028165647431    -0.089217360843
0.425     -0.012730214629    -0.083432354600    -0.000008731759    -0.000030247053    0.007354518309    -0.066336854168    -0.000009228009    -0.000033916002
            -0.000008731759    -0.000030247053    0.009096547995    -0.092355331543    -0.000009201175    -0.000033969734    0.026353965956    -0.069112037518
            0.007354518309    -0.066336854168    -0.000009201175    -0.000033969734    -0.012054172257    -0.084020196949    -0.000009724024    -0.000038456232
            -0.000009228009    -0.000033916002    0.026353965956    -0.069112037518    -0.000009724024    -0.000038456232    0.010344458204    -0.093960097877
0.450     -0.033611940782    -0.077828604709    -0.000014878378    -0.000029222068    -0.010606551978    -0.064955148793    -0.000016084908    -0.000032899225
            -0.000014878378    -0.000029222068    -0.010034869575    -0.093135912580    -0.000016061885    -0.000032967005    0.010957144008    -0.072918754182
            -0.010606551978    -0.064955148793    -0.000016061885    -0.000032967005    -0.032912195668    -0.078700587275    -0.000017444084    -0.000037485301
            -0.000016084908    -0.000032899225    0.010957144008    -0.072918754182    -0.000017444084    -0.000037485301    -0.008850918368    -0.095088719836
0.475     -0.053645656127    -0.067460850738    -0.000020871193    -0.000026852813    -0.028646781505    -0.059382051821    -0.000022805352    -0.000030390423
            -0.000020871193    -0.000026852813    -0.029680420320    -0.089988110989    -0.000022789291    -0.000030473230    -0.005568399752    -0.073507952037
            -0.028646781505    -0.059382051821    -0.000022789291    -0.000030473230    -0.053010455798    -0.068644794462    -0.000025057626    -0.000034847139
            -0.000022805352    -0.000030390423    -0.005568399752    -0.073507952037    -0.000025057626    -0.000034847139    -0.028630028584    -0.092294930553
0.500     -0.071707925609    -0.052543006539    -0.000026407297    -0.000023169865    -0.045790481100    -0.049613581515    -0.000029052299    -0.000026416794
            -0.000026407297    -0.000023169865    -0.048981377734    -0.082802040921    -0.000029061439    -0.000026511386    -0.022512326794    -0.070637819193
            -0.045790481100    -0.049613581515    -0.000029061439    -0.000026511386    -0.071282605560    -0.054044111967    -0.000032202814    -0.000030559415
            -0.000029052299    -0.000026416794    -0.022512326794    -0.070637819193    -0.000032202814    -0.000030559415    -0.048139838176    -0.085455162973
0.525     -0.086742352874    -0.033558781663    -0.000031187635    -0.000018294794    -0.061220892103    -0.035891259113    -0.000034492753    -0.000021101769
            -0.000031187635    -0.000018294794    -0.067061054169    -0.071659420236    -0.000034598156    -0.000021209769    -0.039113396473    -0.064225142565
            -0.061220892103    -0.035891259113    -0.000034598161    -0.000021209772    -0.086994441620    -0.035392361799    -0.000038565691    -0.000024751833
            -0.000034492753    -0.000021101769    -0.039113396473    -0.064225142565    -0.000038565691    -0.000024751833    -0.066505511804    -0.074637724170
0.550     -0.097850720672    -0.011286496762    -0.000034945092    -0.000012426271    -0.072864544315    -0.019760906721    -0.000038827636    -0.000014657424
            -0.000034945092    -0.000012426271    -0.083078222097    -0.056840152762    -0.000038732765    -0.000015067773    -0.054608617770    -0.054364977820
            -0.072864544315    -0.019760906721    -0.000038732765    -0.000015067773    -0.096863411684    -0.015079702659    -0.000043392046    -0.000017964409
            -0.000038827636    -0.000014657424    -0.054608617770    -0.054364977820    -0.000043392046    -0.000017964409    -0.082881333910    -0.060109445355
0.575     -0.104235571522    0.013420530603    -0.000037450951    -0.000005786691    -0.081675521619    0.000699855422    -0.000041797095    -0.000007322224
            -0.000037450951    -0.000005786691    -0.096271101232    -0.038811034303    -0.000041774701    -0.000007585913    -0.068268386528    -0.041321145639
            -0.081675521619    0.000699855422    -0.000041774698    -0.000007585920    -0.103913386604    0.010335705092    -0.000047036199    -0.000009640653
            -0.000041797095    -0.000007322224    -0.068268386528    -0.041321145639    -0.000047036200    -0.000009640653    -0.096492865388    -0.042322681777
0.600     -0.105255705811    0.039342252194    -0.000038534935    0.000001302258    -0.086211132594    0.022442741402    -0.000043200507    0.000000553867
            -0.000038534935    0.000001302258    -0.106002664021    -0.018208036832    -0.000043305955    0.000000292451    -0.079446731579    -0.025521535717
            -0.086211132594    0.022442741402    -0.000043305955    0.000000292451    -0.105809089558    0.036075485679    -0.000049005329    -0.000000821332
            -0.000043200507    0.000000553867    -0.079446731579    -0.025521535717    -0.000049005329    -0.000000821332    -0.106686754387    -0.021894774985
0.625     -0.101317213702    0.064677671369    -0.000038245661    0.000008417909    -0.086483484310    0.044682538244    -0.000043079791    0.000008501895
            -0.000038245661    0.000008417909    -0.111786142775    0.004200117033    -0.000043250024    0.000008372819    -0.087603366309    -0.007529526095
            -0.086483484310    0.044682538244    -0.000043250024    0.000008372819    -0.102456343157    0.061872487725    -0.000049202791    0.000008283151
            -0.000043079791    0.000008501895    -0.087603366309    -0.007529526095    -0.000049202791    0.000008283151    -0.112961616763    0.000423333657
0.650     -0.092605182763    0.089420726594    -0.000036603043    0.000015460970    -0.082399718110    0.067085280476    -0.000041451375    0.000016417853
            -0.000036603043    0.000015460970    -0.113317325963    0.027558924787    -0.000041613611    0.000016326262    -0.092343326604    0.011988584175
            -0.082399718110    0.067085280476    -0.000041613611    0.000016326262    -0.093989229509    0.086645668800    -0.000047621812    0.000017307964
            -0.000041451375    0.000016417853    -0.092343326604    0.011988584175    -0.000047621812    0.000017307964    -0.114998770901    0.023788706720
0.675     -0.079005811955    0.112082163645    -0.000033607420    0.000022066000    -0.073882573035    0.088444344282    -0.000038300090    0.000023895343
            -0.000033607420    0.000022066000    -0.110485231407    0.050973628838    -0.000038483341    0.000023832619    -0.093422682177    0.032302559721
            -0.073882573035    0.088444344282    -0.000038483341    0.000023832619    -0.080804098872    0.109326603194    -0.000044343888    0.000025893397
            -0.000038300090    0.000023895343    -0.093422682177    0.032302559721    -0.000044343888    0.000025893397    -0.112671174082    0.047311354374
0.700     -0.061258715286    0.131629120430    -0.000029428385    0.000027972028    -0.061375438756    0.107849444802    -0.000033803738    0.000030638202
            -0.000029428385    0.000027972028    -0.103378331645    0.073559849581    -0.000034009020    0.000030615916    -0.090768384744    0.052660519820
            -0.061375438756    0.107849444802    -0.000034009020    0.000030615916    -0.063510616187    0.128991894587    -0.000039522669    0.000033724471
            -0.000033803738    0.000030638202    -0.090768384744    0.052660519820    -0.000039522669    0.000033724471    -0.106048655773    0.070104721486
0.725     -0.040196262235    0.147315580763    -0.000024259112    0.000032985655    -0.045430885304    0.124560723131    -0.000028167479    0.000036423406
            -0.000024259112    0.000032985655    -0.092269991743    0.094483268203    -0.000028385516    0.000036450673    -0.084461458639    0.072323110302
            -0.045430885304    0.124560723131    -0.000028385516    0.000036450673    -0.042889234022    0.144894980268    -0.000033362933    0.000040538655
            -0.000028167479    0.000036423406    -0.084461458639    0.072323110302    -0.000033362933    0.000040538655    -0.095384667239    0.091328981692
0.750     -0.016744799696    0.158615718519    -0.000018312043    0.000036969632    -0.026713931707    0.137998776013    -0.000021620229    0.000041088215
            -0.000018312043    0.000036969632    -0.077598585202    0.113002654040    -0.000021837397    0.000041169687    -0.074735543024    0.090604582506
            -0.026713931707    0.137998776013    -0.000021837397    0.000041169687    -0.019838416972    0.156499951541    -0.000026106443    0.000046135485
            -0.000021620229    0.000041088215    -0.074735543024    0.090604582506    -0.000026106443    0.000046135485    -0.081098809953    0.110232635665
0.775     0.008115089521    0.165223570447    -0.000011804609    0.000039837648    -0.005962982128    0.147744035322    -0.000014399391    0.000044525543
            -0.000011804609    0.000039837648    -0.059937027126    0.128496078789    -0.000014600563    0.000044660420    -0.061946590063    0.106891680398
            -0.005962982128    0.147744035322    -0.000014600563    0.000044660420    0.004680838682    0.163488325117    -0.000018010284    0.000050373951
