!$
! Info: Touchstone file created by Circ.  Input file=Intel_C2M_200G_3p5in_202208016_staggered.circ
!$
# Hz S RI R 50
0	0.01599763	2.582037e-24	0.9838017	-4.602916e-24	8.868237e-05	2.450976e-22	-0.0002200487	2.694819e-20
	0.9838017	-4.60116e-24	0.01655341	5.086805e-24	-0.000220104	2.695496e-20	0.0003134982	4.541751e-22
	8.874032e-05	2.452256e-22	-0.0002202413	2.697179e-20	0.01599556	2.450237e-24	0.983802	-4.64352e-24
	-0.000220186	2.696501e-20	0.0003135671	4.544957e-22	0.983802	-4.645279e-24	0.01655483	5.168527e-24
1e+07	0.0193024	0.00519116	0.9781602	-0.07246808	0.00116107	0.004807618	-0.0008582926	-0.0007805575
	0.9781602	-0.07246808	0.0195819	0.005023525	-0.0008584778	-0.0007804329	0.001115429	0.004822757
	0.00116107	0.004807618	-0.0008584778	-0.0007804329	0.01917022	0.005129784	0.9782974	-0.07238265
	-0.0008582926	-0.0007805575	0.001115429	0.004822757	0.9782974	-0.07238265	0.01944472	0.004965022
2e+07	0.02253005	0.007631541	0.9675029	-0.1417276	0.002375486	0.009083046	-0.001160808	-0.001158012
	0.9675029	-0.1417276	0.02376728	0.007266628	-0.001161201	-0.001157442	0.002142916	0.009200705
	0.002375497	0.009083033	-0.001161197	-0.001157553	0.02234195	0.007591835	0.9677103	-0.1416476
	-0.001160803	-0.001158117	0.002143005	0.0092006	0.9677103	-0.1416476	0.02355776	0.007246731
3e+07	0.02520084	0.008755647	0.9527808	-0.2087917	0.004142638	0.01321819	-0.001493828	-0.001484839
	0.9527808	-0.2087917	0.02751678	0.007658565	-0.001494304	-0.001483455	0.003745081	0.01335587
	0.004142608	0.01321822	-0.001494346	-0.001483456	0.02496827	0.008760723	0.9530389	-0.2087404
	-0.001493841	-0.001484846	0.003745058	0.01335585	0.9530389	-0.2087404	0.02726873	0.00769984
4e+07	0.02734303	0.009218533	0.9338476	-0.2741112	0.006509228	0.01701084	-0.001858279	-0.00174627
	0.9338476	-0.2741112	0.03123125	0.007236539	-0.001858474	-0.001743931	0.005816591	0.01728092
	0.006509221	0.01701087	-0.00185848	-0.001743928	0.02708407	0.009275128	0.9341435	-0.2741007
	-0.001858281	-0.001746256	0.005816591	0.01728092	0.9341435	-0.2741007	0.03096092	0.007351762
5e+07	0.02908499	0.009349481	0.9107308	-0.3375935	0.00939995	0.02042085	-0.002247389	-0.001939638
	0.9107308	-0.3375935	0.03490931	0.006049645	-0.002246935	-0.001936448	0.008352858	0.02089901
	0.009399951	0.02042086	-0.002246932	-0.001936449	0.02881021	0.009461673	0.9110541	-0.3376323
	-0.002247386	-0.001939639	0.008352862	0.02089902	0.9110541	-0.3376323	0.03463467	0.006245895
6e+07	0.03049459	0.00928359	0.8835248	-0.3990525	0.01276464	0.02338619	-0.00265138	-0.002068341
	0.8835248	-0.3990525	0.03848551	0.004195488	-0.002649968	-0.00206445	0.01130824	0.02415797
	0.01276466	0.02338618	-0.002649965	-0.00206445	0.0302131	0.009454472	0.8838652	-0.3991468
	-0.002651377	-0.00206834	0.01130824	0.02415798	0.8838652	-0.3991468	0.03822446	0.004475682
7e+07	0.03160884	0.009128284	0.8523541	-0.4582778	0.01654078	0.02584964	-0.003063061	-0.002136712
	0.8523541	-0.4582778	0.04192383	0.001744586	-0.00306034	-0.002132452	0.01463346	0.02701421
	0.01654078	0.02584963	-0.003060287	-0.0021325	0.03132934	0.009359859	0.8527	-0.4584323
	-0.003063058	-0.002136714	0.01463346	0.02701422	0.8527	-0.4584323	0.04169353	0.002108008
8e+07	0.03247481	0.008977234	0.8173622	-0.5150511	0.02065958	0.02776242	-0.003476484	-0.002148789
	0.8173622	-0.5150511	0.04518593	-0.00125998	-0.003472231	-0.00214459	0.0182742	0.02943039
	0.02065958	0.02776243	-0.003472232	-0.002144588	0.03220591	0.009271275	0.8177039	-0.5152702
	-0.003476486	-0.002148787	0.0182742	0.02943039	0.8177039	-0.5152702	0.04500309	-0.0008168082
9e+07	0.03315517	0.008906499	0.7787077	-0.5691576	0.02504782	0.02908428	-0.003886953	-0.002108348
	0.7787077	-0.5691576	0.04822632	-0.004778732	-0.003881055	-0.002104751	0.02217304	0.03137685
	0.02504782	0.02908429	-0.003881055	-0.002104741	0.03290541	0.009265265	0.7790312	-0.5694442
	-0.003886955	-0.002108339	0.02217304	0.03137685	0.7790312	-0.5694442	0.04810828	-0.004260814
1e+08	0.03374714	0.009002619	0.7365327	-0.6204202	0.02963077	0.02978308	-0.004293206	-0.002018862
	0.7365327	-0.6204202	0.0510266	-0.008739255	-0.004285754	-0.002016631	0.0262731	0.03283139
	0.02963077	0.02978308	-0.004285754	-0.002016631	0.03352812	0.009435609	0.7368202	-0.6207837
	-0.004293205	-0.002018863	0.0262731	0.03283139	0.7368202	-0.6207837	0.050998	-0.00815053
1.1e+08	0.03437955	0.009059892	0.690961	-0.6683957	0.03433674	0.02982578	-0.004685102	-0.001868467
	0.690961	-0.6683957	0.05362596	-0.01329527	-0.00467715	-0.001867035	0.03050344	0.03376687
	0.03433674	0.02982578	-0.004677149	-0.001867037	0.0342871	0.009535154	0.6911832	-0.6688043
	-0.004685101	-0.001868468	0.03050344	0.03376687	0.6911832	-0.6688043	0.05370878	-0.01266518
1.2e+08	0.03487828	0.009222763	0.6424431	-0.7129594	0.03903486	0.02921341	-0.005049395	-0.001683345
	0.6424431	-0.7129594	0.05573837	-0.01833729	-0.005040707	-0.001683328	0.0347931	0.03418858
	0.03903486	0.0292134	-0.005040707	-0.00168333	0.03485077	0.009701833	0.6426052	-0.7133994
	-0.005049394	-0.001683346	0.0347931	0.03418858	0.6426051	-0.7133994	0.05592575	-0.01769866
1.3e+08	0.03535142	0.00954476	0.591182	-0.7539859	0.04365645	0.02795155	-0.005391096	-0.001467435
	0.591182	-0.7539859	0.05735946	-0.02375371	-0.005382222	-0.001469611	0.03908209	0.03410133
	0.04365645	0.02795154	-0.005382222	-0.001469612	0.03536401	0.01003237	0.5912845	-0.75445
	-0.005391096	-0.001467437	0.03908209	0.03410133	0.5912845	-0.75445	0.05764334	-0.02312781
1.4e+08	0.03586785	0.01002993	0.5374183	-0.7913263	0.04812431	0.02605433	-0.005711701	-0.001224633
	0.5374183	-0.7913263	0.05846571	-0.02947026	-0.005703606	-0.001228793	0.04330961	0.03351683
	0.04812431	0.02605432	-0.005703606	-0.001228794	0.03591787	0.0105324	0.5374605	-0.7918045
	-0.005711701	-0.001224635	0.04330961	0.03351683	0.5374605	-0.7918045	0.05883582	-0.02887161
1.5e+08	0.03648663	0.01066895	0.4814046	-0.8248413	0.05236041	0.02354441	-0.006012518	-0.0009578379
	0.4814046	-0.8248413	0.05903651	-0.03541916	-0.00600579	-0.0009637211	0.04741758	0.03245387
	0.05236041	0.02354441	-0.00600579	-0.000963722	0.03657831	0.01118623	0.4813879	-0.8253257
	-0.006012518	-0.0009578388	0.04741758	0.03245387	0.4813879	-0.8253257	0.05948268	-0.03485796
1.6e+08	0.03726055	0.01144206	0.4234035	-0.8544036	0.05628887	0.02045359	-0.006294754	-0.0006693646
	0.4234035	-0.8544036	0.05905574	-0.04153479	-0.006289816	-0.0006764259	0.05135142	0.03093839
	0.05628887	0.02045359	-0.006289816	-0.0006764265	0.03739905	0.01196905	0.4233286	-0.8548884
	-0.006294754	-0.0006693653	0.05135142	0.03093839	0.4233286	-0.8548884	0.0595681	-0.04101843
1.7e+08	0.03823709	0.01232006	0.3636855	-0.8799056	0.05983762	0.01682247	-0.006559555	-0.0003609551
	0.3636855	-0.8799056	0.05851285	-0.04775278	-0.006556636	-0.0003685011	0.05506069	0.02900224
	0.05983762	0.01682247	-0.006556636	-0.0003685015	0.0384257	0.01284873	0.3635536	-0.8803847
	-0.006559555	-0.0003609556	0.05506069	0.02900224	0.3635536	-0.8803847	0.05908231	-0.04728669
1.8e+08	0.03945758	0.01326474	0.3025271	-0.9012566	0.06293982	0.01270005	-0.00680808	-3.380209e-05
	0.3025271	-0.9012566	0.05740364	-0.05400916	-0.006807176	-4.124814e-05	0.05850049	0.02668303
	0.06293982	0.01270005	-0.006807176	-4.124849e-05	0.03969682	0.01378581	0.30234	-0.9017238
	-0.006808081	-3.380245e-05	0.0585005	0.02668303	0.30234	-0.9017238	0.0580209	-0.0535974
1.9e+08	0.04095627	0.01422966	0.2402111	-0.918382	0.06553529	0.00814336	-0.007041362	0.0003117901
	0.2402111	-0.918382	0.05572936	-0.06024071	-0.007042319	0.0003049631	0.06163161	0.02402374
	0.06553529	0.008143359	-0.007042319	0.0003049629	0.04124393	0.01473381	0.2399726	-0.9188335
	-0.007041362	0.0003117899	0.06163161	0.02402374	0.2399726	-0.9188335	0.05638612	-0.05988615
2e+08	0.04275842	0.01516116	0.1770241	-0.9312272	0.06757119	0.003216237	-0.007260124	0.0006758507
	0.1770241	-0.9312272	0.05349857	-0.06638549	-0.007262691	0.0006699234	0.06442086	0.02107083
	0.06757119	0.003216236	-0.007262691	0.0006699232	0.04309079	0.01564006	0.1767348	-0.931657
	-0.007260124	0.0006758506	0.06442086	0.02107083	0.1767348	-0.931657	0.05418555	-0.06608977
2.1e+08	0.04487932	0.01600073	0.1132536	-0.9397574	0.06900282	-0.002011494	-0.007464929	0.001058556
	0.1132536	-0.9397574	0.05072529	-0.07238342	-0.007468797	0.001054085	0.06684268	0.01787446
	0.06900282	-0.002011494	-0.007468797	0.001054085	0.04525088	0.01644678	0.1129172	-0.9401609
	-0.007464929	0.001058556	0.06684268	0.01787446	0.1129172	-0.9401609	0.05143457	-0.07214716
2.2e+08	0.04732368	0.01668539	0.0491888	-0.9439553	0.06979426	-0.007465161	-0.007655764	0.00146092
	0.0491888	-0.9439553	0.04743066	-0.07817682	-0.007660562	0.001458028	0.06887809	0.01448677
	0.06979426	-0.007465162	-0.007660562	0.001458028	0.04772783	0.01709269	0.04880819	-0.9443284
	-0.007655764	0.00146092	0.06887809	0.01448677	0.04880819	-0.9443284	0.04815379	-0.07799941
2.3e+08	0.05008506	0.01715063	-0.0148796	-0.9438218	0.06991915	-0.01306648	-0.007832296	0.001883441
	-0.0148796	-0.9438218	0.04364147	-0.08371089	-0.007837679	0.001882551	0.07051557	0.01096103
	0.06991915	-0.01306648	-0.007837679	0.00188255	0.05051494	0.01751445	-0.01530227	-0.9441609
	-0.007832296	0.001883441	0.07051557	0.01096103	-0.01530227	-0.9441609	0.04437056	-0.08359071
2.4e+08	0.05314553	0.01733202	-0.07866613	-0.9393797	0.06936067	-0.01873446	-0.007993895	0.002327623
	-0.07866613	-0.9393797	0.03939022	-0.08893511	-0.007999406	0.002328637	0.07175132	0.007350953
	0.06936067	-0.01873446	-0.007999406	0.002328637	0.05359343	0.01764863	-0.07912634	-0.939682
	-0.007993895	0.002327623	0.07175132	0.007350953	-0.07912634	-0.939682	0.04011817	-0.08886941
2.5e+08	0.05647554	0.01716688	-0.1418847	-0.9306695	0.06811167	-0.02438686	-0.008139426	0.002794462
	-0.1418847	-0.9306695	0.03471521	-0.09380326	-0.008144532	0.0027974	0.07258856	0.003709213
	0.06811167	-0.02438686	-0.008144532	0.0027974	0.05693406	0.01743383	-0.14238	-0.9309302
	-0.008139426	0.002794462	0.07258856	0.003709213	-0.14238	-0.9309302	0.03543524	-0.093788
2.6e+08	0.06003482	0.01659633	-0.2042564	-0.9177487	0.06617533	-0.02994146	-0.008267586	0.00328485
	-0.2042564	-0.9177487	0.02965846	-0.09827372	-0.008271736	0.003289869	0.07303762	8.653877e-05
	0.06617533	-0.02994146	-0.008271736	0.003289869	0.06049608	0.01681188	-0.204781	-0.9179649
	-0.008267586	0.003284849	0.07303762	8.653875e-05	-0.204781	-0.9179649	0.03036516	-0.09830429
2.7e+08	0.06377271	0.01556674	-0.2655059	-0.9006923	0.06356401	-0.03531674	-0.008376565	0.003799883
	-0.2655059	-0.9006923	0.02426685	-0.1023106	-0.008379331	0.003806552	0.07311542	-0.003468757
	0.06356401	-0.03531674	-0.008379331	0.003806552	0.06422894	0.01573007	-0.2660568	-0.9008625
	-0.008376565	0.003799882	0.07311542	-0.003468757	-0.2660568	-0.9008625	0.02495554	-0.1023817
2.8e+08	0.06762858	0.01403173	-0.3253648	-0.8795947	0.06029982	-0.04043361	-0.00846429	0.004340249
	-0.3253648	-0.8795947	0.01859055	-0.105884	-0.008465144	0.004348515	0.07284528	-0.006912375
	0.06029982	-0.04043361	-0.008465144	0.004348515	0.06807235	0.01414308	-0.3259379	-0.8797168
	-0.00846429	0.004340248	0.07284528	-0.006912375	-0.3259379	-0.8797168	0.01925768	-0.1059895
2.9e+08	0.07153379	0.01195342	-0.3835721	-0.8545672	0.05641407	-0.04521632	-0.00852816	0.004907124
	-0.3835721	-0.8545672	0.01268207	-0.1089699	-0.008526882	0.004916407	0.07225577	-0.01020403
	0.05641407	-0.04521632	-0.008526882	0.004916407	0.07195736	0.0120135	-0.3841631	-0.8546396
	-0.00852816	0.004907124	0.07225577	-0.01020403	-0.3841631	-0.8546396	0.01332546	-0.1091035
3e+08	0.07541238	0.009303815	-0.4398755	-0.825735	0.05194635	-0.049593	-0.008565759	0.005500786
	-0.4398755	-0.825735	0.006596278	-0.1115508	-0.008562079	0.005510619	0.07138021	-0.01330907
	0.05194635	-0.049593	-0.008562079	0.005510618	0.07580837	0.009313972	-0.4404799	-0.8257554
	-0.008565758	0.005500785	0.07138021	-0.01330907	-0.4404799	-0.8257554	0.007214894	-0.1117058
3.1e+08	0.0791829	0.006065792	-0.4940336	-0.7932405	0.04694442	-0.05349743	-0.008574232	0.006121683
	-0.4940336	-0.7932405	0.0003890215	-0.1136159	-0.008567659	0.006131598	0.07025638	-0.01619783
	0.04694442	-0.05349743	-0.008567659	0.006131598	0.07954352	0.006027933	-0.494645	-0.7932078
	-0.008574232	0.006121683	0.07025638	-0.01619783	-0.494645	-0.7932078	0.0009831397	-0.1137856
3.2e+08	0.08275932	0.002233879	-0.5458113	-0.7572413	0.04146326	-0.05686944	-0.008550359	0.006770083
	-0.5458113	-0.7572413	-0.005883117	-0.1151607	-0.008540834	0.006779535	0.06892495	-0.01884737
	0.04146326	-0.05686944	-0.008540834	0.006779535	0.08307749	0.002151283	-0.5464284	-0.757155
	-0.008550359	0.006770083	0.06892495	-0.01884737	-0.5464284	-0.757155	-0.005312452	-0.115339
3.3e+08	0.08605361	-0.002184834	-0.5949887	-0.7179064	0.03556424	-0.05965522	-0.008490437	0.007446297
	-0.5949887	-0.7179064	-0.01216437	-0.1161874	-0.008478449	0.007454242	0.06742853	-0.02124088
	0.03556424	-0.05965522	-0.008478449	0.007454242	0.08632193	-0.002308422	-0.5956055	-0.7177669
	-0.008490437	0.007446296	0.06742853	-0.02124088	-0.5956055	-0.7177669	-0.01161422	-0.1163685
3.4e+08	0.08897688	-0.007170096	-0.6413542	-0.6754219	0.02931426	-0.06180903	-0.008391075	0.008149715
	-0.6413542	-0.6754219	-0.01839931	-0.1167046	-0.008376393	0.008155884	0.0658117	-0.02336811
	0.02931426	-0.06180903	-0.008376393	0.008155884	0.08918873	-0.007330106	-0.6419695	-0.6752289
	-0.008391075	0.008149714	0.0658117	-0.02336811	-0.6419695	-0.6752289	-0.0178666	-0.1168834
3.5e+08	0.0914417	-0.01268878	-0.6847139	-0.629984	0.02278492	-0.06329263	-0.008248051	0.008880219
	-0.6847139	-0.629984	-0.02453535	-0.1167273	-0.008230967	0.008883945	0.06411892	-0.02522598
	0.02278492	-0.06329263	-0.008230967	0.008883945	0.09159016	-0.01287998	-0.6853193	-0.629738
	-0.008248051	0.008880219	0.06411892	-0.02522598	-0.6853193	-0.629738	-0.0240149	-0.1168994
3.6e+08	0.09336346	-0.01869484	-0.7248815	-0.5818023	0.01605159	-0.06407643	-0.008056862	0.00963706
	-0.7248815	-0.5818023	-0.03052154	-0.1162767	-0.008038165	0.009637748	0.06239414	-0.0268177
	0.01605159	-0.06407643	-0.008038165	0.009637748	0.09344253	-0.01891088	-0.7254741	-0.5815034
	-0.008056862	0.00963706	0.06239414	-0.0268177	-0.7254741	-0.5815034	-0.03000799	-0.1164383
3.7e+08	0.09466309	-0.0251295	-0.7616874	-0.5310948	0.00919194	-0.06413962	-0.007813014	0.01041899
	-0.7616874	-0.5310948	-0.03631051	-0.1153788	-0.007793022	0.01041635	0.06067987	-0.02815303
	0.00919194	-0.06413962	-0.007793022	0.01041635	0.09466723	-0.02536333	-0.7622647	-0.5307441
	-0.007813014	0.01041899	0.06067987	-0.02815303	-0.7622647	-0.5307441	-0.03579803	-0.1155278
3.8e+08	0.09526792	-0.03192221	-0.7949774	-0.4780914	0.00228549	-0.06346985	-0.007510691	0.01122484
	-0.7949774	-0.4780914	-0.04185863	-0.1140652	-0.007490714	0.01121821	0.05901604	-0.02924795
	0.00228549	-0.06346985	-0.007490714	0.01121821	0.09519187	-0.03216601	-0.7955328	-0.4776896
	-0.007510691	0.01122484	0.05901604	-0.02924795	-0.7955328	-0.4776896	-0.04134025	-0.1142005
3.9e+08	0.09511355	-0.03899035	-0.8246087	-0.4230321	-0.004587535	-0.06206425	-0.007145217	0.01205207
	-0.8246087	-0.4230321	-0.04712654	-0.1123727	-0.007125117	0.01204164	0.05743959	-0.0301244
	-0.004587535	-0.06206425	-0.007125117	0.01204164	0.0949538	-0.03923564	-0.8251414	-0.4225821
	-0.007145217	0.01205207	0.05743959	-0.0301244	-0.8251414	-0.4225821	-0.04659582	-0.1124943
4e+08	0.09414625	-0.04624188	-0.8504574	-0.3661668	-0.01134759	-0.05992833	-0.006710006	0.01289804
	-0.8504574	-0.3661668	-0.05207988	-0.1103419	-0.006691136	0.0128837	0.0559832	-0.03080941
	-0.01134759	-0.05992833	-0.006691136	0.0128837	0.0938994	-0.04647989	-0.8509618	-0.3656677
	-0.006710006	0.01289804	0.0559832	-0.03080941	-0.8509618	-0.3656677	-0.05152954	-0.1104509
4.1e+08	0.09232404	-0.05357651	-0.872414	-0.307746	-0.01791614	-0.05707632	-0.006198727	0.01375913
	-0.872414	-0.307746	-0.0566895	-0.1080162	-0.006182027	0.01374093	0.0546749	-0.03133408
	-0.01791614	-0.05707632	-0.006182027	0.01374093	0.09198774	-0.05379759	-0.8728877	-0.3071991
	-0.006198727	0.01375913	0.0546749	-0.03133408	-0.8728877	-0.3071991	-0.05611296	-0.1081152
4.2e+08	0.08961755	-0.06088523	-0.8903865	-0.2480351	-0.02421728	-0.05353115	-0.005605435	0.01463067
	-0.8903865	-0.2480351	-0.06093214	-0.1054429	-0.005591378	0.01460891	0.05353727	-0.03173458
	-0.02421728	-0.05353115	-0.005591378	0.01460891	0.08919067	-0.06107941	-0.8908249	-0.2474437
	-0.005605435	0.01463067	0.05353727	-0.03173458	-0.8908249	-0.2474437	-0.06032257	-0.105536
4.3e+08	0.08601187	-0.06805469	-0.9042991	-0.1872998	-0.03017819	-0.04932326	-0.004922825	0.01550694
	-0.9042991	-0.1872998	-0.06479018	-0.1026707	-0.004912492	0.01548231	0.05258717	-0.03204884
	-0.03017819	-0.04932326	-0.004912492	0.01548231	0.08549419	-0.06821197	-0.9046991	-0.1866648
	-0.004922825	0.01550694	0.05258717	-0.03204884	-0.9046991	-0.1866648	-0.06414202	-0.1027631
4.4e+08	0.08150672	-0.07496797	-0.9140939	-0.1258113	-0.03572979	-0.04449087	-0.004144522	0.01638096
	-0.9140939	-0.1258113	-0.06825247	-0.09974984	-0.004138265	0.01635394	0.05183496	-0.03231778
	-0.03572979	-0.04449087	-0.004138265	0.01635394	0.08089924	-0.07507777	-0.9144515	-0.1251354
	-0.004144522	0.01638096	0.05183496	-0.03231778	-0.9144515	-0.1251354	-0.06756027	-0.09984802
4.5e+08	0.07611779	-0.08150555	-0.9197293	-0.06384763	-0.04080796	-0.03907926	-0.003264058	0.0172444
	-0.9197293	-0.06384763	-0.07131396	-0.0967318	-0.003262359	0.01721587	0.05128486	-0.03258336
	-0.04080796	-0.03907926	-0.003262359	0.01721587	0.07542262	-0.08155735	-0.9200411	-0.06313317
	-0.003264058	0.0172444	0.05128486	-0.03258336	-0.9200411	-0.06313317	-0.07057339	-0.09684309
4.6e+08	0.06987646	-0.0875485	-0.9211827	-0.001687932	-0.04535376	-0.03313995	-0.002274912	0.01808733
	-0.9211827	-0.001687932	-0.07397606	-0.09366789	-0.002278492	0.01805832	0.05093427	-0.03288818
	-0.04535376	-0.03313995	-0.002278492	0.01805832	0.06909669	-0.08753247	-0.9214445	-0.0009361314
	-0.002274912	0.01808733	0.05093427	-0.03288818	-0.9214445	-0.0009361314	-0.07318391	-0.09380034
4.7e+08	0.06283062	-0.09298208	-0.9184526	0.06039111	-0.04931453	-0.02673005	-0.001172468	0.0188985
	-0.9184526	0.06039111	-0.07624695	-0.09060735	-0.001181196	0.01886993	0.05077366	-0.03327361
	-0.04931453	-0.02673005	-0.001181196	0.01886993	0.06197048	-0.09288741	-0.9186592	0.06117587
	-0.001172468	0.0188985	0.05077366	-0.03327361	-0.9186592	0.06117587	-0.07540089	-0.09077043
4.8e+08	0.05504284	-0.09769457	-0.911548	0.1221081	-0.05264359	-0.01991192	4.85068e-05	0.01966498
	-0.911548	0.1221081	-0.07813956	-0.08759921	3.416707e-05	0.01963795	0.05078741	-0.03377994
	-0.05264359	-0.01991192	3.41671e-05	0.01963795	0.0541084	-0.09751168	-0.9116989	0.1229228
	4.850684e-05	0.01966498	0.05078741	-0.03377994	-0.9116989	0.1229228	-0.07723938	-0.08780243
4.9e+08	0.04659242	-0.1015815	-0.9005052	0.1831799	-0.05530191	-0.01275199	0.001390336	0.02037258
	-0.9005052	0.1831799	-0.07967421	-0.08468983	0.001371114	0.02034806	0.05095317	-0.03444494
	-0.05530191	-0.01275199	0.001371114	0.02034806	0.04559018	-0.1013011	-0.9005952	0.1840234
	0.001390336	0.02037258	0.05095317	-0.03444494	-0.9005952	0.1840234	-0.07872062	-0.08494306
5e+08	0.03757222	-0.1045489	-0.8853757	0.243335	-0.05725681	-0.005320025	0.002855273	0.02100504
	-0.8853757	0.243335	-0.08087635	-0.08192166	0.00283119	0.02098438	0.05124287	-0.03530256
	-0.05725681	-0.005320025	0.00283119	0.02098438	0.0365102	-0.1041617	-0.885401	0.2441994
	0.002855273	0.02100504	0.05124287	-0.03530256	-0.885401	0.2441994	-0.07987159	-0.08223566
5.1e+08	0.02808849	-0.1065118	-0.8662274	0.3022952	-0.05848336	0.002310841	0.004442216	0.02154588
	-0.8662274	0.3022952	-0.0817761	-0.07933459	0.004413969	0.02152996	0.0516229	-0.03638287
	-0.05848336	0.002310841	0.00441397	0.02152996	0.0269757	-0.1060103	-0.8661865	0.3031779
	0.004442216	0.02154588	0.0516229	-0.03638287	-0.8661865	0.3031779	-0.0807243	-0.07971914
5.2e+08	0.01825997	-0.1073996	-0.8431514	0.3597906	-0.05896474	0.01006647	0.006148891	0.02197663
	-0.8431514	0.3597906	-0.08240894	-0.07696335	0.006117726	0.02196619	0.05205509	-0.0377108
