!$
! Info: Touchstone file created by Circ.  Input file=Intel_C2M_200G_3p5in_202208016_staggered.circ
!$
# Hz S RI R 50
0	0.01655341	5.086387e-24	-6.752384e-05	8.269285e-21	0.0003135	4.541701e-22	-6.318363e-05	7.737763e-21
	-6.752393e-05	8.269297e-21	0.01599763	2.582037e-24	-7.472251e-05	9.150868e-21	8.868237e-05	2.450976e-22
	0.0003135689	4.544874e-22	-7.47226e-05	9.150879e-21	0.01655464	5.169926e-24	-6.754933e-05	8.272407e-21
	-6.318362e-05	7.737762e-21	8.874032e-05	2.452256e-22	-6.754923e-05	8.272395e-21	0.01599556	2.450237e-24
1e+07	0.02000117	0.00493059	-0.0005122861	-9.199267e-05	0.0009189	0.004800179	-5.26517e-05	-0.0001026209
	-0.0005122861	-9.199267e-05	0.0193024	0.00519116	-0.0003863866	-5.970566e-05	0.00116107	0.004807618
	0.0009189	0.004800179	-0.0003863866	-5.970566e-05	0.01968778	0.005062832	-0.0002467499	-0.0001109259
	-5.26517e-05	-0.0001026209	0.00116107	0.004807618	-0.0002467499	-0.0001109259	0.01917022	0.005129784
2e+07	0.02397658	0.006984704	-0.0004701605	-0.0003024446	0.001963386	0.00923714	-7.743618e-05	-0.0001656071
	-0.0004701604	-0.0003024446	0.02253005	0.007631541	-0.000398402	-0.0002615314	0.002375486	0.009083046
	0.001963475	0.009237035	-0.000398402	-0.0002615313	0.0238378	0.00732107	-0.0002550334	-0.0002304109
	-7.743616e-05	-0.000165607	0.002375497	0.009083033	-0.0002550334	-0.0002304109	0.02234195	0.007591835
3e+07	0.0275636	0.007358063	-0.0004657297	-0.0004315539	0.003581198	0.01341842	-0.0001127018	-0.000229307
	-0.0004657297	-0.0004315539	0.02520084	0.008755647	-0.0004336129	-0.0003817763	0.004142638	0.01321819
	0.003581175	0.01341839	-0.0004336129	-0.0003817763	0.02757682	0.007760342	-0.0002872793	-0.0003337802
	-0.0001127018	-0.000229307	0.004142608	0.01321822	-0.0002872793	-0.0003337802	0.02496827	0.008760723
4e+07	0.03114776	0.006973509	-0.0004867398	-0.000529719	0.005668675	0.01736213	-0.0001611809	-0.0002867802
	-0.0004867398	-0.000529719	0.02734303	0.009218533	-0.0004882287	-0.0004780026	0.006509228	0.01701084
	0.005668674	0.01736214	-0.0004882287	-0.0004780026	0.03129119	0.007395669	-0.0003372005	-0.0004184672
	-0.0001611809	-0.0002867802	0.006509221	0.01701087	-0.0003372005	-0.0004184672	0.02708407	0.009275128
5e+07	0.03472509	0.005858234	-0.0005269256	-0.0006077343	0.008221408	0.02099455	-0.0002190027	-0.000338835
	-0.0005269256	-0.0006077343	0.02908499	0.009349481	-0.0005583816	-0.0005567145	0.00939995	0.02042085
	0.008221411	0.02099456	-0.0005583816	-0.0005567145	0.03498245	0.006270376	-0.0004016733	-0.0004881167
	-0.0002190027	-0.000338835	0.009399951	0.02042086	-0.0004016733	-0.0004881167	0.02881021	0.009461673
6e+07	0.03823003	0.004098736	-0.0005818813	-0.0006685426	0.01119369	0.02426448	-0.0002843665	-0.0003822518
	-0.0005818813	-0.0006685426	0.03049459	0.00928359	-0.0006411605	-0.0006197615	0.01276464	0.02338619
	0.01119368	0.02426448	-0.0006411605	-0.0006197615	0.03858571	0.004478206	-0.0004779969	-0.0005431909
	-0.0002843665	-0.0003822518	0.01276466	0.02338618	-0.0004779968	-0.0005431909	0.0302131	0.009454472
7e+07	0.04162731	0.001757896	-0.0006589074	-0.0007068338	0.01453604	0.02712871	-0.0003561634	-0.000416384
	-0.0006589074	-0.0007068338	0.03160884	0.009128284	-0.0007339186	-0.0006675319	0.01654078	0.02584964
	0.01453605	0.02712871	-0.0007339186	-0.0006675319	0.04206443	0.002086232	-0.0005636446	-0.0005833919
	-0.0003561634	-0.000416384	0.01654078	0.02584963	-0.0005636446	-0.0005833919	0.03132934	0.009359859
8e+07	0.04487999	-0.001127229	-0.0007545697	-0.000719344	0.01819394	0.02955008	-0.0004332215	-0.0004407079
	-0.0007545697	-0.000719344	0.03247481	0.008977234	-0.0008343773	-0.000700226	0.02065958	0.02776242
	0.01819394	0.02955008	-0.0008343773	-0.000700226	0.04537984	-0.0008652292	-0.0006561064	-0.0006082201
	-0.0004332215	-0.0004407079	0.02065958	0.02776243	-0.0006561064	-0.0006082201	0.03220591	0.009271275
9e+07	0.04794561	-0.004521977	-0.000850232	-0.0007122711	0.02210973	0.0314991	-0.0005143205	-0.0004548477
	-0.000850232	-0.0007122711	0.03315517	0.008906499	-0.0009409725	-0.0007183283	0.02504782	0.02908428
	0.02210973	0.0314991	-0.0009409725	-0.0007183283	0.04848677	-0.004338862	-0.000755852	-0.0006147472
	-0.0005143205	-0.0004548477	0.02504782	0.02908429	-0.000755852	-0.0006147472	0.03290541	0.009265265
1e+08	0.05082223	-0.008353857	-0.0009370579	-0.0006794533	0.0262262	0.03295352	-0.0005978283	-0.0004585603
	-0.0009370579	-0.0006794533	0.03374714	0.009002619	-0.001052354	-0.0007222777	0.02963077	0.02978308
	0.0262262	0.03295352	-0.001052354	-0.0007222777	0.05137184	-0.008265903	-0.0008624687	-0.0005966829
	-0.0005978283	-0.0004585603	0.02963077	0.02978308	-0.0008624687	-0.0005966829	0.03352812	0.009435609
1.1e+08	0.05354144	-0.01286157	-0.001029324	-0.0006277151	0.03047142	0.03388687	-0.000681204	-0.0004528574
	-0.001029324	-0.0006277151	0.03437955	0.009059892	-0.001163629	-0.0007127991	0.03433674	0.02982578
	0.03047142	0.03388687	-0.001163629	-0.0007127991	0.05405665	-0.01280726	-0.0009658437	-0.0005657656
	-0.000681204	-0.0004528574	0.03433674	0.02982578	-0.0009658437	-0.0005657656	0.0342871	0.009535154
1.2e+08	0.05574997	-0.01788347	-0.001128106	-0.0005745521	0.034775	0.03430483	-0.0007660161	-0.0004369246
	-0.001128106	-0.0005745521	0.03487828	0.009222763	-0.001275137	-0.0006887512	0.03903486	0.02921341
	0.034775	0.03430483	-0.001275137	-0.0006887512	0.05625101	-0.01785685	-0.001069689	-0.0005243928
	-0.0007660161	-0.0004369246	0.03903486	0.0292134	-0.001069689	-0.0005243928	0.03485077	0.009701833
1.3e+08	0.05745765	-0.02329635	-0.001226126	-0.0005122611	0.03907675	0.03421229	-0.0008516572	-0.0004113292
	-0.001226126	-0.0005122611	0.03535142	0.00954476	-0.001386033	-0.0006510057	0.04365645	0.02795155
	0.03907675	0.03421229	-0.001386033	-0.0006510057	0.05794741	-0.02329754	-0.00117065	-0.000470594
	-0.0008516572	-0.0004113292	0.04365645	0.02795154	-0.00117065	-0.000470594	0.03536401	0.01003237
1.4e+08	0.05864281	-0.02902238	-0.001320853	-0.0004396889	0.04331571	0.03362113	-0.0009359407	-0.0003752328
	-0.001320853	-0.0004396889	0.03586785	0.01002993	-0.00149517	-0.0006000978	0.04812431	0.02605433
	0.04331571	0.03362113	-0.00149517	-0.0006000978	0.05911971	-0.02904983	-0.001266874	-0.0004047216
	-0.0009359407	-0.0003752328	0.04812431	0.02605432	-0.001266874	-0.0004047216	0.03591787	0.0105324
1.5e+08	0.05928507	-0.03499157	-0.001410514	-0.0003567517	0.04743368	0.03255032	-0.001017849	-0.0003289223
	-0.001410514	-0.0003567517	0.03648663	0.01066895	-0.001601468	-0.0005364647	0.05236041	0.02354441
	0.04743368	0.03255032	-0.001601468	-0.0005364647	0.05974717	-0.0350423	-0.001356855	-0.0003275103
	-0.001017849	-0.0003289223	0.05236041	0.02354441	-0.001356855	-0.0003275103	0.03657831	0.01118623
1.6e+08	0.05936821	-0.04113653	-0.001493657	-0.0002639126	0.05137594	0.03102606	-0.001096381	-0.0002728332
	-0.001493657	-0.0002639126	0.03726055	0.01144206	-0.001703923	-0.0004604384	0.05628887	0.02045359
	0.05137594	0.03102606	-0.001703923	-0.0004604384	0.05981384	-0.04120694	-0.001439358	-0.0002399708
	-0.001096381	-0.0002728332	0.05628887	0.02045359	-0.001439358	-0.0002399708	0.03739905	0.01196905
1.7e+08	0.05888144	-0.04739137	-0.001568714	-0.0001618661	0.05509205	0.02908041	-0.00117065	-0.0002074412
	-0.001568714	-0.0001618661	0.03823709	0.01232006	-0.001808217	-0.0003552366	0.05983762	0.01682247
	0.05509205	0.02908041	-0.001808217	-0.0003552366	0.05930976	-0.04747763	-0.001512481	-0.0001437488
	-0.00117065	-0.0002074412	0.05983762	0.01682247	-0.001512481	-0.0001437488	0.0384257	0.01284873
1.8e+08	0.05782028	-0.05369069	-0.001635137	-5.159415e-05	0.05853702	0.02675125	-0.001239798	-0.0001332577
	-0.001635137	-5.159415e-05	0.03945758	0.01326474	-0.001903955	-0.0002386308	0.06293982	0.01270005
	0.05853702	0.02675125	-0.001903955	-0.0002386308	0.05823054	-0.05378925	-0.001576507	-3.982837e-05
	-0.001239798	-0.0001332577	0.06293982	0.01270005	-0.001576507	-3.982837e-05	0.03969682	0.01378581
1.9e+08	0.05618577	-0.05996996	-0.001692201	6.593925e-05	0.06167164	0.02408176	-0.001303087	-5.084962e-05
	-0.001692201	6.593925e-05	0.04095627	0.01422966	-0.001990304	-0.0001113686	0.06553529	0.00814336
	0.06167164	0.02408176	-0.001990304	-0.0001113686	0.05657846	-0.0600775	-0.001630922	7.055496e-05
	-0.001303087	-5.084962e-05	0.06553529	0.008143359	-0.001630922	7.055496e-05	0.04124393	0.01473381
2e+08	0.05398646	-0.06616595	-0.001738986	0.0001893103	0.06446273	0.02111869	-0.001359808	3.913102e-05
	-0.001738986	0.0001893103	0.04275842	0.01516116	-0.002068359	3.383906e-05	0.06757119	0.003216237
	0.06446273	0.02111869	-0.002068359	3.383906e-05	0.05436097	-0.06627924	-0.001675357	0.000186179
	-0.001359808	3.913102e-05	0.06757119	0.003216236	-0.001675357	0.000186179	0.04309079	0.01564006
2.1e+08	0.0512363	-0.07221736	-0.001775613	0.0003177749	0.0668848	0.01791237	-0.001409372	0.0001360471
	-0.001775613	0.0003177749	0.04487932	0.01600073	-0.002134381	0.0001877825	0.06900282	-0.002011494
	0.0668848	0.01791237	-0.002134381	0.0001877825	0.05159353	-0.07233345	-0.001709906	0.0003058659
	-0.001409372	0.0001360471	0.06900282	-0.002011494	-0.001709906	0.0003058659	0.04525088	0.01644678
2.2e+08	0.04795655	-0.07806533	-0.001801889	0.0004503678	0.06891895	0.01451518	-0.001451247	0.0002392345
	-0.001801889	0.0004503678	0.04732368	0.01668539	-0.002187748	0.0003495042	0.06979426	-0.007465161
	0.06891895	0.01451518	-0.002187748	0.0003495042	0.04829679	-0.07818124	-0.001734678	0.000428577
	-0.001451247	0.0002392345	0.06979426	-0.007465162	-0.001734678	0.000428577	0.04772783	0.01709269
2.3e+08	0.04417426	-0.08365397	-0.001817752	0.0005861111	0.07055375	0.0109806	-0.001484991	0.0003479961
	-0.001817752	0.0005861111	0.05008506	0.01715063	-0.002227915	0.000517876	0.06991915	-0.01306648
	0.07055375	0.0109806	-0.002227915	0.000517876	0.04449814	-0.08376682	-0.001749941	0.0005533579
	-0.001484991	0.0003479961	0.06991915	-0.01306648	-0.001749941	0.0005533579	0.05051494	0.01751445
2.4e+08	0.03992228	-0.08893173	-0.00182323	0.0007242477	0.07178556	0.00736253	-0.001510226	0.000461629
	-0.00182323	0.0007242477	0.05314553	0.01733202	-0.002254416	0.000691824	0.06936067	-0.01873446
	0.07178556	0.00736253	-0.002254416	0.000691824	0.04023095	-0.08903853	-0.00175603	0.0006794289
	-0.001510226	0.000461629	0.06936067	-0.01873446	-0.00175603	0.0006794289	0.05359343	0.01764863
2.5e+08	0.03523936	-0.09385139	-0.001818444	0.0008639718	0.07261775	0.003713792	-0.001526601	0.000579492
	-0.001818444	0.0008639718	0.05647554	0.01716688	-0.00226683	0.0008702459	0.06811167	-0.02438686
	0.07261775	0.003713792	-0.00226683	0.0008702459	0.03553387	-0.09394889	-0.001753404	0.0008061393
	-0.001526601	0.000579492	0.06811167	-0.02438686	-0.001753404	0.0008061393	0.05693406	0.01743383
2.6e+08	0.03016807	-0.09837052	-0.001803527	0.001004628	0.07306078	8.525936e-05	-0.001533887	0.0007008751
	-0.001803527	0.001004628	0.06003482	0.01659633	-0.00226487	0.001052021	0.06617533	-0.02994146
	0.07306078	8.525934e-05	-0.00226487	0.001052021	0.03045043	-0.09845575	-0.00174251	0.0009330234
	-0.001533887	0.0007008751	0.06617533	-0.02994146	-0.00174251	0.0009330234	0.06049608	0.01681188
2.7e+08	0.02475598	-0.1024524	-0.001778639	0.001145659	0.07313183	-0.003474652	-0.001531812	0.0008251911
	-0.001778639	0.001145659	0.06377271	0.01556674	-0.002248357	0.001235929	0.06356401	-0.03531674
	0.07313183	-0.003474652	-0.002248357	0.001235929	0.02502832	-0.1025225	-0.001723789	0.001059775
	-0.001531812	0.0008251911	0.06356401	-0.03531674	-0.001723789	0.001059775	0.06422894	0.01573007
2.8e+08	0.01905389	-0.1060666	-0.001743943	0.001286594	0.07285436	-0.006921549	-0.0015202	0.0009517589
	-0.001743943	0.001286594	0.06762858	0.01403173	-0.002217148	0.001420882	0.06029982	-0.04043361
	0.07285436	-0.006921549	-0.002217148	0.001420882	0.01931894	-0.1061185	-0.00169767	0.001186204
	-0.0015202	0.0009517589	0.06029982	-0.04043361	-0.00169767	0.001186204	0.06807235	0.01414308
2.9e+08	0.01311513	-0.1091884	-0.001699571	0.001426985	0.07225718	-0.01021511	-0.001498885	0.001079971
	-0.001699571	0.001426985	0.07153379	0.01195342	-0.002171225	0.00160576	0.05641407	-0.04521632
	0.07225718	-0.01021511	-0.002171225	0.00160576	0.0133763	-0.1092196	-0.001664454	0.001312324
	-0.001498885	0.001079971	0.05641407	-0.04521632	-0.001664454	0.001312324	0.07195736	0.0120135
3e+08	0.006995383	-0.1118001	-0.001645594	0.001566479	0.07137383	-0.01332065	-0.001467727	0.001209241
	-0.001645594	0.001566479	0.07541238	0.009303815	-0.002110686	0.001789426	0.05194635	-0.049593
	0.07137383	-0.01332065	-0.002110686	0.001789426	0.007256553	-0.1118079	-0.001624354	0.001438199
	-0.001467727	0.001209241	0.05194635	-0.049593	-0.001624354	0.001438199	0.07580837	0.009313972
3.1e+08	0.0007513094	-0.1138902	-0.001582061	0.001704764	0.07024226	-0.01620849	-0.001426534	0.001339011
	-0.001582061	0.001704764	0.0791829	0.006065792	-0.002035623	0.001970841	0.04694442	-0.05349743
	0.07024226	-0.01620849	-0.002035623	0.001970841	0.001016973	-0.1138728	-0.001577522	0.001563944
	-0.001426534	0.001339011	0.04694442	-0.05349743	-0.001577522	0.001563944	0.07954352	0.006027933
3.2e+08	-0.005559651	-0.1154544	-0.001508904	0.001841533	0.06890342	-0.01885577	-0.001375208	0.001468649
	-0.001508904	0.001841533	0.08275932	0.002233879	-0.001946351	0.002148901	0.04146326	-0.05686944
	0.06890342	-0.01885577	-0.001946351	0.002148901	-0.005284991	-0.1154106	-0.001523871	0.001689766
	-0.001375208	0.001468649	0.04146326	-0.05686944	-0.001523871	0.001689766	0.08307749	0.002151283
3.3e+08	-0.01188088	-0.1164947	-0.001425981	0.001976501	0.06740005	-0.02124571	-0.001313576	0.001597575
	-0.001425981	0.001976501	0.08605361	-0.002184834	-0.001843081	0.002322705	0.03556424	-0.05965522
	0.06740005	-0.02124571	-0.001843081	0.002322705	-0.01159153	-0.1164236	-0.001463191	0.001815887
	-0.001313576	0.001597575	0.03556424	-0.05965522	-0.001463191	0.001815887	0.08632193	-0.002308422
3.4e+08	-0.01815613	-0.1170198	-0.001332413	0.002109985	0.06577696	-0.02336816	-0.001241552	0.001725171
	-0.001332413	0.002109985	0.08897688	-0.007170096	-0.001726235	0.002491217	0.02931426	-0.06180903
	0.06577696	-0.02336816	-0.001726235	0.002491217	-0.01784699	-0.1169215	-0.001395104	0.001942506
	-0.001241552	0.001725171	0.02931426	-0.06180903	-0.001395104	0.001942506	0.08918873	-0.007330106
3.5e+08	-0.02433202	-0.1170447	-0.001228631	0.002240723	0.06407881	-0.02522017	-0.001158932	0.001850827
	-0.001228631	0.002240723	0.0914417	-0.01268878	-0.001596269	0.002653633	0.02278492	-0.06329263
	0.06407881	-0.02522017	-0.001596269	0.002653633	-0.02399657	-0.1169201	-0.001319116	0.002069694
	-0.001158932	0.001850827	0.02278492	-0.06329263	-0.001319116	0.002069694	0.09159016	-0.01287998
3.6e+08	-0.03035683	-0.116591	-0.001114369	0.00236825	0.06234964	-0.02680509	-0.001065582	0.00197389
	-0.001114369	0.00236825	0.09336346	-0.01869484	-0.00145352	0.002809179	0.01605159	-0.06407643
	0.06234964	-0.02680509	-0.00145352	0.002809179	-0.0299891	-0.1164414	-0.001234576	0.00219747
	-0.001065582	0.00197389	0.01605159	-0.06407643	-0.001234576	0.00219747	0.09344253	-0.01891088
3.7e+08	-0.03618253	-0.115685	-0.0009892674	0.002491979	0.06063213	-0.02813282	-0.0009612755	0.002093685
	-0.0009892674	0.002491979	0.09466309	-0.0251295	-0.001298438	0.002957124	0.00919194	-0.06413962
	0.06063213	-0.02813282	-0.001298438	0.002957124	-0.03577664	-0.1155133	-0.001140613	0.002325734
	-0.0009612755	0.002093685	0.00919194	-0.06413962	-0.001140613	0.002325734	0.09466723	-0.02536333
3.8e+08	-0.04176486	-0.1143588	-0.0008530549	0.002611204	0.05896633	-0.02921958	-0.0008459298	0.002209419
	-0.0008530549	0.002611204	0.09526792	-0.03192221	-0.001131545	0.003096751	0.00228549	-0.06346985
	0.05896633	-0.02921958	-0.001131545	0.003096751	-0.04131439	-0.1141686	-0.001036379	0.002454149
	-0.0008459298	0.002209419	0.00228549	-0.06346985	-0.001036379	0.002454149	0.09519187	-0.03216601
3.9e+08	-0.04706391	-0.1126496	-0.0007054241	0.002725112	0.05738924	-0.03008745	-0.0007193811	0.002320276
	-0.0007054241	0.002725112	0.09511355	-0.03899035	-0.0009532868	0.003227445	-0.004587535	-0.06206425
	0.05738924	-0.03008745	-0.0009532868	0.003227445	-0.04656354	-0.1124453	-0.0009209013	0.002582229
	-0.0007193811	0.002320276	-0.004587535	-0.06206425	-0.0009209013	0.002582229	0.0949538	-0.03923564
4e+08	-0.0520449	-0.1105986	-0.000546112	0.002832758	0.05593359	-0.03076368	-0.0005815452	0.002425341
	-0.000546112	0.002832758	0.09414625	-0.04624188	-0.0007639921	0.003348611	-0.01134759	-0.05992833
	0.05593359	-0.03076368	-0.0007639921	0.003348611	-0.05148888	-0.1103856	-0.0007931128	0.002709246
	-0.0005815452	0.002425341	-0.01134759	-0.05992833	-0.0007931128	0.002709246	0.0938994	-0.04647989
4.1e+08	-0.05667825	-0.1082498	-0.0003749019	0.002933066	0.05462745	-0.03127959	-0.0004323801	0.002523647
	-0.0003749019	0.002933066	0.09232404	-0.05357651	-0.0005642236	0.003459661	-0.01791614	-0.05707632
	0.05462745	-0.03127959	-0.0005642236	0.003459661	-0.05606203	-0.1080345	-0.0006521297	0.002834226
	-0.0004323801	0.002523647	-0.01791614	-0.05707632	-0.0006521297	0.002834226	0.09198774	-0.05379759
4.2e+08	-0.06094047	-0.1056511	-0.0001917121	0.003024837	0.05349338	-0.03167157	-0.0002719491	0.002614161
	-0.0001917121	0.003024837	0.08961755	-0.06088523	-0.0003541809	0.003560039	-0.02421728	-0.05353115
	0.05349338	-0.03167157	-0.0003541809	0.003560039	-0.06025954	-0.105441	-0.0004969562	0.002955966
	-0.0002719491	0.002614161	-0.02421728	-0.05353115	-0.0004969562	0.002955966	0.08919067	-0.06107941
4.3e+08	-0.06481376	-0.1028521	3.451437e-06	0.003106764	0.05254819	-0.03197777	-0.0001002402	0.002695723
	3.451437e-06	0.003106764	0.08601187	-0.06805469	-0.0001343665	0.003649156	-0.03017819	-0.04932326
	0.05254819	-0.03197777	-0.0001343665	0.003649156	-0.06406519	-0.1026551	-0.0003266817	0.003073006
	-0.0001002402	0.002695723	-0.03017819	-0.04932326	-0.0003266817	0.003073006	0.08549419	-0.06821197
4.4e+08	-0.06828689	-0.09990344	0.0002104028	0.003177421	0.05180219	-0.03223926	8.247953e-05	0.00276713
	0.0002104028	0.003177421	0.08150672	-0.07496797	9.500193e-05	0.003726387	-0.03572979	-0.04449087
	0.05180219	-0.03223926	9.500193e-05	0.003726387	-0.06746805	-0.09972866	-0.0001407449	0.00318364
	8.247953e-05	0.00276713	-0.03572979	-0.04449087	-0.0001407449	0.00318364	0.08089924	-0.07507777
4.5e+08	-0.07135486	-0.0968574	0.0004288123	0.00323533	0.05125949	-0.03249828	0.0002758391	0.00282713
	0.0004288123	0.00323533	0.07611779	-0.08150555	0.0003337107	0.003791069	-0.04080796	-0.03907926
	0.05125949	-0.03249828	0.0003337107	0.003791069	-0.07046442	-0.09671416	6.135995e-05	0.003285979
	0.0002758391	0.00282713	-0.04080796	-0.03907926	6.135995e-05	0.003285979	0.07542262	-0.08155735
4.6e+08	-0.07401919	-0.09376585	0.0006580481	0.003278943	0.05091735	-0.03279754	0.0004794186	0.002874384
	0.0006580481	0.003278943	0.06987646	-0.0875485	0.0005813102	0.003842475	-0.04535376	-0.03313995
	0.05091735	-0.03279754	0.0005813102	0.003842475	-0.07305698	-0.09366383	0.0002800176	0.003377841
	0.0004794186	0.002874384	-0.04535376	-0.03313995	0.0002800176	0.003377841	0.06909669	-0.08753247
4.7e+08	-0.07628822	-0.09067867	0.0008974243	0.003306669	0.05076609	-0.03317861	0.0006925325	0.002907544
	0.0008974243	0.003306669	0.06283062	-0.09298208	0.0008374849	0.003879783	-0.04931453	-0.02673005
	0.05076609	-0.03317861	0.0008374849	0.003879783	-0.07525508	-0.09062847	0.0005150549	0.003457002
	0.0006925325	0.002907544	-0.04931453	-0.02673005	0.0005150549	0.003457002	0.06197048	-0.09288741
4.8e+08	-0.07817518	-0.08764547	0.001145954	0.003316949	0.05078993	-0.03368188	0.000914423	0.002925215
	0.001145954	0.003316949	0.05504284	-0.09769457	0.001102049	0.003902071	-0.05264359	-0.01991192
	0.05078993	-0.03368188	0.001102049	0.003902071	-0.07707396	-0.08765732	0.0007661901	0.003521011
	0.000914423	0.002925215	-0.05264359	-0.01991192	0.0007661901	0.003521011	0.0541084	-0.09751168
4.9e+08	-0.07970079	-0.08471308	0.001402325	0.003308274	0.05096628	-0.03434525	0.001144105	0.002926032
	0.001402325	0.003308274	0.04659242	-0.1015815	0.001374426	0.003908369	-0.05530191	-0.01275199
