!$
! Info: Touchstone file created by Circ.  Input file=Intel_C2M_200G_3p5in_202208016_staggered.circ
!$
# Hz S RI R 50
0	0.01598444	2.392869e-24	4.565017e-05	5.361361e-23	8.906821e-05	2.464626e-22	4.55836e-05	5.350038e-23
	4.565017e-05	5.361362e-23	0.01599763	2.582037e-24	4.563262e-05	5.358624e-23	8.868237e-05	2.450976e-22
	8.912615e-05	2.465902e-22	4.563262e-05	5.358722e-23	0.01597925	2.302687e-24	4.559648e-05	5.347523e-23
	4.558359e-05	5.350136e-23	8.874032e-05	2.452256e-22	4.559648e-05	5.347523e-23	0.01599556	2.450237e-24
1e+07	0.01938582	0.005183264	3.542576e-05	7.806321e-06	0.0009587775	0.004723092	3.691673e-06	2.904775e-05
	3.542576e-05	7.806321e-06	0.0193024	0.00519116	3.708794e-05	2.508829e-05	0.00116107	0.004807618
	0.0009587775	0.004723092	3.708794e-05	2.508829e-05	0.01970889	0.005142522	2.007263e-05	1.929014e-05
	3.691673e-06	2.904775e-05	0.00116107	0.004807618	2.007263e-05	1.929014e-05	0.01917022	0.005129784
2e+07	0.02258067	0.007579363	2.61031e-05	1.723163e-05	0.002181642	0.008998127	1.87714e-05	3.122258e-05
	2.61031e-05	1.723163e-05	0.02253005	0.007631541	4.26074e-05	2.448105e-05	0.002375486	0.009083046
	0.002181653	0.008998115	4.26074e-05	2.448105e-05	0.02276061	0.007410614	2.100744e-05	1.224094e-05
	1.87714e-05	3.122258e-05	0.002375497	0.009083033	2.100744e-05	1.224094e-05	0.02234195	0.007591835
3e+07	0.02522349	0.008688653	2.45757e-05	2.411907e-05	0.003952268	0.01310302	3.072635e-05	3.157555e-05
	2.45757e-05	2.411907e-05	0.02520084	0.008755647	4.784265e-05	2.56721e-05	0.004142638	0.01321819
	0.003952238	0.01310306	4.784265e-05	2.56721e-05	0.02528961	0.008520831	2.209763e-05	1.071448e-05
	3.072635e-05	3.157555e-05	0.004142608	0.01321822	2.209763e-05	1.071447e-05	0.02496827	0.008760723
4e+07	0.02733863	0.009143545	2.343755e-05	2.706925e-05	0.006319654	0.01686167	4.08573e-05	3.021801e-05
	2.343755e-05	2.706925e-05	0.02734303	0.009218533	5.262726e-05	2.529423e-05	0.006509228	0.01701084
	0.006319647	0.01686169	5.262726e-05	2.529423e-05	0.02731917	0.009010535	2.311744e-05	9.703878e-06
	4.08573e-05	3.021801e-05	0.006509221	0.01701087	2.311744e-05	9.703878e-06	0.02708407	0.009275128
5e+07	0.02905227	0.009270356	2.228139e-05	2.80097e-05	0.009209445	0.02023751	4.973272e-05	2.7522e-05
	2.228139e-05	2.80097e-05	0.02908499	0.009349481	6.08301e-05	2.123355e-05	0.00939995	0.02042085
	0.009209446	0.02023752	6.08301e-05	2.123355e-05	0.02896592	0.009191231	2.533214e-05	7.836682e-06
	4.973272e-05	2.7522e-05	0.009399951	0.02042086	2.533214e-05	7.836682e-06	0.02881021	0.009461673
6e+07	0.03043095	0.00920376	2.086182e-05	2.770885e-05	0.01257225	0.02316993	5.739879e-05	2.34237e-05
	2.086182e-05	2.770885e-05	0.03049459	0.00928359	6.755121e-05	1.575165e-05	0.01276464	0.02338619
	0.01257227	0.02316992	6.755121e-05	1.575165e-05	0.03029418	0.009191634	2.70867e-05	5.681184e-06
	5.739879e-05	2.34237e-05	0.01276466	0.02338618	2.70867e-05	5.681185e-06	0.0302131	0.009454472
7e+07	0.03151077	0.009051687	2.499401e-05	2.481177e-05	0.01634628	0.02560241	6.384509e-05	1.799311e-05
	2.499401e-05	2.481177e-05	0.03160884	0.009128284	7.265062e-05	8.93469e-06	0.01654078	0.02584964
	0.01634629	0.02560241	7.265062e-05	8.93469e-06	0.03133936	0.0091158	2.827773e-05	3.306091e-06
	6.384509e-05	1.799311e-05	0.01654078	0.02584963	2.827773e-05	3.306091e-06	0.03132934	0.009359859
8e+07	0.03233813	0.008909013	2.951926e-05	2.050103e-05	0.02046358	0.02748659	6.911934e-05	1.137958e-05
	2.951926e-05	2.050103e-05	0.03247481	0.008977234	7.613784e-05	1.095173e-06	0.02065958	0.02776242
	0.02046358	0.02748659	7.613784e-05	1.095173e-06	0.03214773	0.009056632	2.890188e-05	7.836455e-07
	6.911934e-05	1.137958e-05	0.02065958	0.02776243	2.890188e-05	7.836455e-07	0.03220591	0.009271275
9e+07	0.03297508	0.008853909	3.257965e-05	1.534472e-05	0.02485176	0.02878228	7.312265e-05	3.477188e-06
	3.257965e-05	1.534472e-05	0.03315517	0.008906499	7.785717e-05	-7.683372e-06	0.02504782	0.02908428
	0.02485176	0.02878229	7.785717e-05	-7.683372e-06	0.03278179	0.009091891	2.890073e-05	-1.837476e-06
	7.312265e-05	3.477188e-06	0.02504782	0.02908429	2.890073e-05	-1.837476e-06	0.03290541	0.009265265
1e+08	0.03351715	0.008980032	3.337194e-05	8.769743e-06	0.02943709	0.02945684	7.509696e-05	-7.162325e-06
	3.337194e-05	8.769743e-06	0.03374714	0.009002619	7.687559e-05	-1.833115e-05	0.02963077	0.02978308
	0.02943709	0.02945684	7.687559e-05	-1.833115e-05	0.03334372	0.009324521	2.886337e-05	-2.481804e-06
	7.509696e-05	-7.162325e-06	0.02963077	0.02978308	2.886337e-05	-2.481804e-06	0.03352812	0.009435609
1.1e+08	0.03412046	0.009080012	3.041848e-05	5.493103e-06	0.03414661	0.02947645	7.0696e-05	-1.463062e-05
	3.041848e-05	5.493102e-06	0.03437955	0.009059892	7.417382e-05	-1.725681e-05	0.03433674	0.02982578
	0.03414661	0.02947645	7.417382e-05	-1.725681e-05	0.03408042	0.009483266	2.831294e-05	-1.181301e-06
	7.0696e-05	-1.463062e-05	0.03433674	0.02982578	2.831294e-05	-1.181301e-06	0.0342871	0.009535154
1.2e+08	0.03459357	0.009281144	2.882081e-05	4.022322e-06	0.03885106	0.02884368	6.847053e-05	-1.739977e-05
	2.882081e-05	4.022322e-06	0.03487828	0.009222763	7.256763e-05	-1.550836e-05	0.03903486	0.02921341
	0.03885106	0.02884368	7.256763e-05	-1.550836e-05	0.0346199	0.009696361	2.809986e-05	-3.163537e-07
	6.847053e-05	-1.739977e-05	0.03903486	0.0292134	2.809986e-05	-3.163537e-07	0.03485077	0.009701833
1.3e+08	0.03504277	0.009642178	2.847917e-05	3.10244e-06	0.04348263	0.02756343	6.913902e-05	-1.503397e-05
	2.847917e-05	3.10244e-06	0.03535142	0.00954476	7.120845e-05	-1.417319e-05	0.04365645	0.02795155
	0.04348263	0.02756343	7.120845e-05	-1.417319e-05	0.03510814	0.01007061	2.816632e-05	2.292359e-07
	6.913902e-05	-1.503397e-05	0.04365645	0.02795154	2.816632e-05	2.292359e-07	0.03536401	0.01003237
1.4e+08	0.03553675	0.01016812	2.916853e-05	2.488043e-06	0.04796477	0.02564923	6.990342e-05	-1.338317e-05
	2.916853e-05	2.488043e-06	0.03586785	0.01002993	7.009259e-05	-1.307676e-05	0.04812431	0.02605433
	0.04796477	0.02564923	7.009259e-05	-1.307676e-05	0.03563639	0.010614	2.837385e-05	7.068394e-07
	6.990342e-05	-1.338317e-05	0.04812431	0.02605432	2.837385e-05	7.068394e-07	0.03591787	0.0105324
1.5e+08	0.03613457	0.01085009	3.003966e-05	1.927825e-06	0.05222	0.02312312	7.079706e-05	-1.227243e-05
	3.003966e-05	1.927825e-06	0.03648663	0.01066895	6.921926e-05	-1.214947e-05	0.05236041	0.02354441
	0.05222	0.02312312	6.921926e-05	-1.214947e-05	0.03627067	0.01131205	2.872621e-05	1.11336e-06
	7.079706e-05	-1.227243e-05	0.05236041	0.02354441	2.872621e-05	1.11336e-06	0.03657831	0.01118623
1.6e+08	0.03688905	0.01166858	3.109533e-05	1.351453e-06	0.05617282	0.02001616	7.183013e-05	-1.162101e-05
	3.109533e-05	1.351453e-06	0.03726055	0.01144206	6.858293e-05	-1.137256e-05	0.05628887	0.02045359
	0.05617282	0.02001616	6.858293e-05	-1.137256e-05	0.0370648	0.01214079	2.922204e-05	1.437722e-06
	7.183013e-05	-1.162101e-05	0.05628887	0.02045359	2.922204e-05	1.437722e-06	0.03739905	0.01196905
1.7e+08	0.03784792	0.01259461	3.233027e-05	6.965276e-07	0.05975148	0.01636815	7.300026e-05	-1.139e-05
	3.233027e-05	6.965276e-07	0.03823709	0.01232006	6.855418e-05	-1.090917e-05	0.05983762	0.01682247
	0.05975148	0.01636815	6.855418e-05	-1.090917e-05	0.03806446	0.01306878	2.996017e-05	1.61046e-06
	7.300026e-05	-1.139e-05	0.05983762	0.01682247	2.996017e-05	1.61046e-06	0.0384257	0.01284873
1.8e+08	0.03905267	0.01359016	3.373665e-05	-8.965992e-08	0.06288936	0.01222722	7.429534e-05	-1.156363e-05
	3.373665e-05	-8.965992e-08	0.03945758	0.01326474	6.890437e-05	-1.080246e-05	0.06293982	0.01270005
	0.06288936	0.01222722	6.890437e-05	-1.080246e-05	0.03930848	0.01405723	3.095747e-05	1.566009e-06
	7.429534e-05	-1.156363e-05	0.06293982	0.01270005	3.095747e-05	1.56601e-06	0.03969682	0.01378581
1.9e+08	0.0405378	0.0146089	3.530327e-05	-1.049965e-06	0.06552628	0.007649474	7.569911e-05	-1.213507e-05
	3.530327e-05	-1.049965e-06	0.04095627	0.01422966	6.932662e-05	-1.095304e-05	0.06553529	0.00814336
	0.06552628	0.007649473	6.932662e-05	-1.095304e-05	0.04082876	0.01506024	3.202596e-05	1.353926e-06
	7.569911e-05	-1.213507e-05	0.06553529	0.008143359	3.202596e-05	1.353926e-06	0.04124393	0.01473381
2e+08	0.04232893	0.01559736	3.701172e-05	-2.230236e-06	0.06760941	0.002697783	7.718788e-05	-1.310814e-05
	3.701172e-05	-2.230236e-06	0.04275842	0.01516116	6.981547e-05	-1.135708e-05	0.06757119	0.003216237
	0.06760941	0.002697782	6.981547e-05	-1.135708e-05	0.04264948	0.01602569	3.315927e-05	9.633852e-07
	7.718788e-05	-1.310814e-05	0.06757119	0.003216236	3.315927e-05	9.633852e-07	0.04309079	0.01564006
2.1e+08	0.04444174	0.01649712	3.883656e-05	-3.673671e-06	0.06909374	-0.002558937	7.87319e-05	-1.449099e-05
	3.883656e-05	-3.673671e-06	0.04487932	0.01600073	7.035837e-05	-1.20218e-05	0.06900282	-0.002011494
	0.06909374	-0.002558937	7.035837e-05	-1.20218e-05	0.0447847	0.01689627	3.4348e-05	3.812897e-07
	7.87319e-05	-1.449099e-05	0.06900282	-0.002011494	3.4348e-05	3.812897e-07	0.04525088	0.01644678
2.2e+08	0.04688142	0.01724526	4.074628e-05	-5.420126e-06	0.069943	-0.008046966	8.029642e-05	-1.629317e-05
	4.074628e-05	-5.420126e-06	0.04732368	0.01668539	7.093943e-05	-1.295406e-05	0.06979426	-0.007465161
	0.069943	-0.008046966	7.093943e-05	-1.295406e-05	0.04723871	0.01761111	3.557944e-05	-4.068629e-07
	8.029642e-05	-1.629317e-05	0.06979426	-0.007465162	3.557944e-05	-4.068629e-07	0.04772783	0.01709269
2.3e+08	0.04964206	0.01777727	4.319593e-05	-7.127532e-06	0.07013037	-0.01368897	8.181873e-05	-1.856834e-05
	4.319593e-05	-7.127532e-06	0.05008506	0.01715063	7.151558e-05	-1.420811e-05	0.06991915	-0.01306648
	0.07013037	-0.01368897	7.151558e-05	-1.420811e-05	0.05000564	0.01810722	3.68375e-05	-1.411914e-06
	8.181873e-05	-1.856834e-05	0.06991915	-0.01306648	3.68375e-05	-1.411914e-06	0.05051494	0.01751445
2.4e+08	0.05270633	0.01802866	4.566328e-05	-9.261767e-06	0.06963832	-0.01940479	8.326884e-05	-2.127879e-05
	4.566328e-05	-9.261767e-06	0.05314553	0.01733202	7.207666e-05	-1.574848e-05	0.06936067	-0.01873446
	0.06963832	-0.01940479	7.207666e-05	-1.574848e-05	0.05306761	0.01832135	3.810366e-05	-2.652229e-06
	8.326884e-05	-2.127879e-05	0.06936067	-0.01873446	3.810366e-05	-2.652229e-06	0.05359343	0.01764863
2.5e+08	0.05604537	0.01793659	4.805937e-05	-1.187318e-05	0.06845895	-0.02511299	8.460035e-05	-2.442599e-05
	4.805937e-05	-1.187318e-05	0.05647554	0.01716688	7.259632e-05	-1.758174e-05	0.06811167	-0.02438686
	0.06845895	-0.02511299	7.259632e-05	-1.758174e-05	0.0563964	0.01819217	3.935496e-05	-4.141009e-06
	8.460035e-05	-2.442599e-05	0.06811167	-0.02438686	3.935496e-05	-4.141009e-06	0.05693406	0.01743383
2.6e+08	0.05961955	0.01744188	5.032725e-05	-1.497544e-05	0.06659454	-0.03073205	8.576181e-05	-2.801077e-05
	5.032725e-05	-1.497544e-05	0.06003482	0.01659633	7.30434e-05	-1.971579e-05	0.06617533	-0.02994146
	0.06659454	-0.03073205	7.30434e-05	-1.971579e-05	0.05995238	0.01766138	4.056537e-05	-5.890876e-06
	8.576181e-05	-2.801077e-05	0.06617533	-0.02994146	4.056537e-05	-5.890876e-06	0.06049608	0.01681188
2.7e+08	0.06337897	0.01649052	5.240508e-05	-1.857754e-05	0.06405638	-0.03618105	8.669849e-05	-3.203035e-05
	5.240508e-05	-1.857754e-05	0.06377271	0.01556674	7.338254e-05	-2.215713e-05	0.06356401	-0.03531674
	0.06405638	-0.03618105	7.338254e-05	-2.215713e-05	0.06368608	0.016676	4.170531e-05	-7.913431e-06
	8.669849e-05	-3.203035e-05	0.06356401	-0.03531674	4.170531e-05	-7.913431e-06	0.06422894	0.01573007
2.8e+08	0.06726372	0.01503565	5.422677e-05	-2.267934e-05	0.06086548	-0.0413814	8.735314e-05	-3.64753e-05
	5.422677e-05	-2.267934e-05	0.06762858	0.01403173	7.357506e-05	-2.491035e-05	0.06029982	-0.04043361
	0.06086548	-0.0413814	7.357506e-05	-2.491035e-05	0.06753845	0.01519024	4.274232e-05	-1.021601e-05
	8.735314e-05	-3.64753e-05	0.06029982	-0.04043361	4.274232e-05	-1.021601e-05	0.06807235	0.01414308
2.9e+08	0.07120588	0.01303869	5.572263e-05	-2.727383e-05	0.05705191	-0.04625762	8.766714e-05	-4.132982e-05
	5.572263e-05	-2.727383e-05	0.07153379	0.01195342	7.357952e-05	-2.797472e-05	0.05641407	-0.04521632
	0.05705191	-0.04625762	7.357952e-05	-2.797472e-05	0.0714417	0.01316596	4.36408e-05	-1.280402e-05
	8.766714e-05	-4.132982e-05	0.05641407	-0.04521632	4.36408e-05	-1.280402e-05	0.07195736	0.0120135
3e+08	0.07513016	0.01047085	5.681997e-05	-3.234754e-05	0.05265397	-0.05073808	8.757984e-05	-4.657207e-05
	5.681997e-05	-3.234754e-05	0.07541238	0.009303815	7.335238e-05	-3.134492e-05	0.05194635	-0.049593
	0.05265397	-0.05073808	7.335238e-05	-3.134492e-05	0.07532135	0.01057492	4.436238e-05	-1.567916e-05
	8.757984e-05	-4.657207e-05	0.05194635	-0.049593	4.436238e-05	-1.567916e-05	0.07580837	0.009313972
3.1e+08	0.07895573	0.007314056	5.744652e-05	-3.787314e-05	0.04771807	-0.05475653	8.703126e-05	-5.217285e-05
	5.744652e-05	-3.787314e-05	0.0791829	0.006065792	7.284639e-05	-3.501375e-05	0.04694442	-0.05349743
	0.04771807	-0.05475653	7.284639e-05	-3.501375e-05	0.07909663	0.007399393	4.486686e-05	-1.883806e-05
	8.703126e-05	-5.217285e-05	0.04694442	-0.05349743	4.486686e-05	-1.883806e-05	0.07954352	0.006027933
3.2e+08	0.0825971	0.003561728	5.752781e-05	-4.381803e-05	0.0422978	-0.0582526	8.596205e-05	-5.809437e-05
	5.752781e-05	-4.381803e-05	0.08275932	0.002233879	7.201504e-05	-3.896479e-05	0.04146326	-0.05686944
	0.0422978	-0.0582526	7.201504e-05	-3.896479e-05	0.08268315	0.003633927	4.511092e-05	-2.227467e-05
	8.596205e-05	-5.809437e-05	0.04146326	-0.05686944	4.511092e-05	-2.227467e-05	0.08307749	0.002151283
3.3e+08	0.08596669	-0.0007803371	5.69918e-05	-5.013697e-05	0.03645318	-0.06117217	8.431396e-05	-6.429247e-05
	5.69918e-05	-5.013697e-05	0.08605361	-0.002184834	7.080873e-05	-4.317942e-05	0.03556424	-0.05965522
	0.03645318	-0.06117217	7.080873e-05	-4.317942e-05	0.08599337	-0.0007155307	4.505111e-05	-2.597562e-05
	8.431396e-05	-6.429247e-05	0.03556424	-0.05965522	4.505111e-05	-2.597562e-05	0.08632193	-0.002308422
3.4e+08	0.08897583	-0.005693252	5.576833e-05	-5.677563e-05	0.03024973	-0.06346892	8.203366e-05	-7.071219e-05
	5.576833e-05	-5.677563e-05	0.08897688	-0.007170096	6.917764e-05	-4.762811e-05	0.02931426	-0.06180903
	0.03024973	-0.06346892	6.917764e-05	-4.762811e-05	0.0889398	-0.005629669	4.464168e-05	-2.992399e-05
	8.203366e-05	-7.071219e-05	0.02931426	-0.06180903	4.464168e-05	-2.992399e-05	0.08918873	-0.007330106
3.5e+08	0.09153723	-0.01114543	5.379356e-05	-6.366736e-05	0.02375774	-0.06510386	7.906794e-05	-7.729536e-05
	5.379356e-05	-6.366736e-05	0.0914417	-0.01268878	6.707561e-05	-5.228027e-05	0.02278492	-0.06329263
	0.02375774	-0.06510386	6.707561e-05	-5.228027e-05	0.09143506	-0.01107668	4.383717e-05	-3.409552e-05
	7.906794e-05	-7.729536e-05	0.02278492	-0.06329263	4.383717e-05	-3.409552e-05	0.09159016	-0.01287998
3.6e+08	0.09356613	-0.01709246	5.100373e-05	-7.073844e-05	0.0170514	-0.06604647	7.537163e-05	-8.397189e-05
	5.100373e-05	-7.073844e-05	0.09336346	-0.01869484	6.445259e-05	-5.709876e-05	0.01605159	-0.06407643
	0.0170514	-0.06604647	6.445259e-05	-5.709876e-05	0.09339558	-0.01701149	4.259336e-05	-3.845884e-05
	7.537163e-05	-8.397189e-05	0.01605159	-0.06407643	4.259336e-05	-3.845884e-05	0.09344253	-0.01891088
3.7e+08	0.09498313	-0.02347725	4.734959e-05	-7.790254e-05	0.01020723	-0.06627488	7.090536e-05	-9.066506e-05
	4.734959e-05	-7.790254e-05	0.09466309	-0.0251295	6.126549e-05	-6.203473e-05	0.00919194	-0.06413962
	0.01020723	-0.06627488	6.126549e-05	-6.203473e-05	0.09474255	-0.02337688	4.086403e-05	-4.29789e-05
	7.090536e-05	-9.066506e-05	0.00919194	-0.06413962	4.086403e-05	-4.29789e-05	0.09466723	-0.02536333
3.8e+08	0.09571494	-0.03023102	4.278246e-05	-8.506624e-05	0.003303768	-0.06577542	6.563711e-05	-9.729156e-05
	4.278246e-05	-8.506624e-05	0.09526792	-0.03192221	5.746985e-05	-6.703587e-05	0.00228549	-0.06346985
	0.003303768	-0.06577542	5.746985e-05	-6.703587e-05	0.09540303	-0.03010382	3.860951e-05	-4.761044e-05
	6.563711e-05	-9.729156e-05	0.00228549	-0.06346985	3.860951e-05	-4.761044e-05	0.09519187	-0.03216601
3.9e+08	0.0956963	-0.03727292	3.726769e-05	-9.212697e-05	-0.003579607	-0.06454389	5.953904e-05	-0.0001037634
	3.726769e-05	-9.212697e-05	0.09511355	-0.03899035	5.302577e-05	-7.204179e-05	-0.004587535	-0.06206425
	-0.003579607	-0.06454389	5.302577e-05	-7.204179e-05	0.09531344	-0.03711134	3.578758e-05	-5.23043e-05
	5.953904e-05	-0.0001037634	-0.004587535	-0.06206425	3.578758e-05	-5.23043e-05	0.0949538	-0.03923564
4e+08	0.09487225	-0.04451257	3.078251e-05	-9.897336e-05	-0.01036394	-0.06258423	5.259991e-05	-0.0001099839
	3.078251e-05	-9.897336e-05	0.09414625	-0.04624188	4.789962e-05	-7.69832e-05	-0.01134759	-0.05992833
	-0.01036394	-0.06258423	4.789962e-05	-7.69832e-05	0.09441893	-0.04430942	3.236596e-05	-5.70013e-05
	5.259991e-05	-0.0001099839	-0.01134759	-0.05992833	3.236596e-05	-5.70013e-05	0.0938994	-0.04647989
4.1e+08	0.09319937	-0.05185138	2.331212e-05	-0.0001054905	-0.01697122	-0.0599091	4.481045e-05	-0.0001158532
	2.331212e-05	-0.0001054905	0.09232404	-0.05357651	4.206244e-05	-8.178435e-05	-0.01791614	-0.05707632
	-0.01697122	-0.0599091	4.206244e-05	-8.178435e-05	0.09267688	-0.05159905	2.83111e-05	-6.163828e-05
	4.481045e-05	-0.0001158532	-0.01791614	-0.05707632	2.83111e-05	-6.163828e-05	0.09198774	-0.05379759
4.2e+08	0.09064648	-0.05918183	1.48574e-05	-0.000111556	-0.02332578	-0.05653977	3.618018e-05	-0.0001212678
	1.48574e-05	-0.000111556	0.08961755	-0.06088523	3.549233e-05	-8.636616e-05	-0.02421728	-0.05353115
	-0.02332578	-0.05653977	3.549233e-05	-8.636616e-05	0.09005711	-0.05887296	2.359908e-05	-6.614313e-05
	3.618018e-05	-0.0001212678	-0.02421728	-0.05353115	2.359908e-05	-6.614313e-05	0.08919067	-0.06107941
4.3e+08	0.08719658	-0.06639181	5.433094e-06	-0.0001170445	-0.02935486	-0.05250495	2.672696e-05	-0.000126121
	5.433094e-06	-0.0001170445	0.08601187	-0.06805469	2.817543e-05	-9.063659e-05	-0.03017819	-0.04932326
	-0.02935486	-0.05250495	2.817543e-05	-9.063659e-05	0.08654317	-0.06601954	1.821245e-05	-7.043915e-05
	2.672696e-05	-0.000126121	-0.03017819	-0.04932326	1.821245e-05	-7.043915e-05	0.08549419	-0.06821197
4.4e+08	0.08284706	-0.07336555	-4.928976e-06	-0.0001218312	-0.03498922	-0.04784119	1.647703e-05	-0.0001303064
	-4.928976e-06	-0.0001218312	0.08150672	-0.07496797	2.010748e-05	-9.450257e-05	-0.03572979	-0.04449087
	-0.03498922	-0.04784119	2.010748e-05	-9.450257e-05	0.08213325	-0.07292279	1.214304e-05	-7.444249e-05
	1.647703e-05	-0.0001303064	-0.03572979	-0.04449087	1.214304e-05	-7.444249e-05	0.08089924	-0.07507777
4.5e+08	0.07761099	-0.07998419	-1.618525e-05	-0.0001257878	-0.04016437	-0.04259205	5.477003e-06	-0.000133716
	-1.618525e-05	-0.0001257878	0.07611779	-0.08150555	1.129655e-05	-9.786617e-05	-0.04080796	-0.03907926
	-0.04016437	-0.04259205	1.129655e-05	-9.786617e-05	0.07684106	-0.07946447	5.387113e-06	-7.806512e-05
	5.477003e-06	-0.000133716	-0.04080796	-0.03907926	5.387113e-06	-7.806512e-05	0.07542262	-0.08155735
4.6e+08	0.07151692	-0.0861293	-2.827417e-05	-0.0001287887	-0.04482081	-0.03680746	-6.21557e-06	-0.0001362436
	-2.827417e-05	-0.0001287887	0.06987646	-0.0875485	1.756073e-06	-0.0001006235	-0.04535376	-0.03313995
	-0.04482081	-0.03680746	1.756073e-06	-0.0001006235	0.07069563	-0.08552705	-2.043145e-06	-8.121562e-05
	-6.21557e-06	-0.0001362436	-0.04535376	-0.03313995	-2.043145e-06	-8.121562e-05	0.06909669	-0.08753247
4.7e+08	0.06460984	-0.09168611	-4.112048e-05	-0.0001307124	-0.04890514	-0.03054295	-1.853529e-05	-0.000137788
	-4.112048e-05	-0.0001307124	0.06283062	-0.09298208	-8.479552e-06	-0.0001026671	-0.04931453	-0.02673005
	-0.04890514	-0.03054295	-8.479552e-06	-0.0001026671	0.06374242	-0.09099507	-1.012399e-05	-8.379747e-05
	-1.853529e-05	-0.000137788	-0.04931453	-0.02673005	-1.012399e-05	-8.379747e-05	0.06197048	-0.09288741
4.8e+08	0.05694922	-0.09654252	-5.462819e-05	-0.0001314432	-0.05236979	-0.02385944	-3.139352e-05	-0.0001382518
	-5.462819e-05	-0.0001314432	0.05504284	-0.09769457	-1.936781e-05	-0.00010389	-0.05264359	-0.01991192
	-0.05236979	-0.02385944	-1.936781e-05	-0.00010389	0.05604216	-0.09575784	-1.882474e-05	-8.571523e-05
	-3.139352e-05	-0.0001382518	-0.05264359	-0.01991192	-1.882474e-05	-8.571523e-05	0.0541084	-0.09751168
