# GHz S RI R 45
0.000     0.062807040000    0.000000000000    0.000008677976    -0.000000000000    0.008614888500    0.000000000000    0.000011120401    -0.000000000000
            0.000008677694    -0.000000000000    0.062278839000    0.000000000000    0.000016234264    -0.000000000000    0.007984583900    0.000000000000
            0.008614887200    0.000000000000    0.000016234451    -0.000000000000    0.057082954000    0.000000000000    0.000021465924    -0.000000000000
            0.000011120412    -0.000000000000    0.007984543400    0.000000000000    0.000021465970    -0.000000000000    0.056468526000    0.000000000000
0.025     0.175097449862    0.030328686711    0.000075051245    -0.000016681539    0.077013237129    0.031807404262    0.000081187340    0.000016022526
            0.000075051246    -0.000016681537    0.175423212642    0.030111201794    0.000079348573    0.000001762553    0.076213377534    0.032051605030
            0.077013237498    0.031807405987    0.000079348571    0.000001762557    0.167380334749    0.030966935604    0.000102923734    0.000011649016
            0.000081187352    0.000016022529    0.076213339677    0.032051604763    0.000102923741    0.000011649039    0.167860483147    0.030929439706
0.050     0.157814626391    -0.112682535193    -0.000056722448    0.000012693637    0.069767374188    -0.047204893142    -0.000032298262    0.000009315258
            -0.000056722443    0.000012693625    0.157694145047    -0.113512918332    -0.000044438006    0.000009617953    0.069736904624    -0.047177925455
            0.069767374188    -0.047204893142    -0.000044438006    0.000009617961    0.149723662414    -0.107781749443    -0.000049010367    0.000010336842
            -0.000032298309    0.000009315308    0.069736876454    -0.047177902848    -0.000049010411    0.000010336887    0.149856216410    -0.108339197457
0.075     0.033664725039    -0.072433837793    0.000059011437    0.000265673180    0.005769396609    0.000491755334    0.000064210969    0.000306872451
            0.000059011419    0.000265673184    0.032390551262    -0.073415305802    0.000059302043    0.000305081228    0.004446793442    -0.001293692213
            0.005769395589    0.000491755520    0.000059302079    0.000305081242    0.029696829208    -0.064923069504    0.000078902160    0.000387251838
            0.000064210972    0.000306872440    0.004446779195    -0.001293676031    0.000078902178    0.000387251855    0.028854858138    -0.065772678289
0.100     0.110087664166    -0.010422433368    0.000346744095    0.000058536325    0.086250450520    0.025799375976    0.000440507193    0.000076633448
            0.000346744098    0.000058536309    0.108212402528    -0.010335182849    0.000423736354    0.000081330807    0.082561208776    0.025767415021
            0.086250451478    0.025799376262    0.000423736343    0.000081330813    0.108588988043    -0.004991948240    0.000556128133    0.000095758271
            0.000440507214    0.000076633442    0.082561182993    0.025767433856    0.000556128122    0.000095758212    0.107054528409    -0.004734744487
0.125     0.121360028654    -0.123011203739    0.000105592429    -0.000105544277    0.070061061645    -0.061879485709    0.000132497947    -0.000174428858
            0.000105592437    -0.000105544311    0.119001518399    -0.123523649799    0.000132828507    -0.000158262867    0.067877989867    -0.060094414694
            0.070061062064    -0.061879488256    0.000132828507    -0.000158262867    0.119009871197    -0.116435056431    0.000154927420    -0.000232383753
            0.000132497962    -0.000174428872    0.067877973250    -0.060094385189    0.000154927443    -0.000232383761    0.117289002878    -0.116725809584
0.150     0.004805529291    -0.117139750664    0.000115823518    0.000239888913    0.001849040944    -0.014066354058    0.000095315698    0.000281554587
            0.000115823535    0.000239888916    -0.000177013544    -0.116004084945    0.000098551544    0.000278051549    -0.000373385651    -0.013875019886
            0.001849039716    -0.014066354219    0.000098551534    0.000278051553    0.006270616905    -0.107734355450    0.000099424000    0.000361024237
            0.000095315700    0.000281554576    -0.000373392243    -0.013875003703    0.000099423985    0.000361024231    0.002058772487    -0.106834544886
0.175     0.035734199509    -0.042001308550    0.000620721526    0.000015947003    0.083162390365    0.002075433377    0.000755284241    0.000044151879
            0.000620721526    0.000015946989    0.031930638438    -0.037772561303    0.000740643829    0.000052047469    0.079144987171    0.003791678652
            0.083162393527    0.002075426920    0.000740643819    0.000052047471    0.041829147395    -0.036182596115    0.000950251543    0.000078943901
            0.000755284231    0.000044151873    0.079144981878    0.003791705534    0.000950251542    0.000078943916    0.038495145179    -0.032277128921
0.200     0.064993855379    -0.105443642582    0.000312517454    -0.000473756833    0.074216460297    -0.083996450062    0.000375602416    -0.000609741663
            0.000312517441    -0.000473756830    0.061254193555    -0.103205360206    0.000385542980    -0.000591496992    0.068844573137    -0.079207071884
            0.074216461763    -0.083996448767    0.000385542990    -0.000591496986    0.069464310869    -0.102933992206    0.000477760491    -0.000778980575
            0.000375602416    -0.000609741687    0.068844579371    -0.079207039967    0.000477760510    -0.000778980575    0.066312916475    -0.100969301354
0.225     -0.023112561557    -0.118352202723    0.000000827529    -0.000107241267    -0.010372231923    -0.042288665033    -0.000071467680    -0.000111911645
            0.000000827500    -0.000107241337    -0.030630599837    -0.111811874487    -0.000066618816    -0.000118800819    -0.013192071011    -0.035824472178
            -0.010372231923    -0.042288665033    -0.000066618821    -0.000118800828    -0.018175842489    -0.113965904726    -0.000137029928    -0.000118509042
            -0.000071467686    -0.000111911653    -0.013192056120    -0.035824451021    -0.000137029911    -0.000118508985    -0.025048262084    -0.108143684376
0.250     -0.029491176008    -0.043062424169    0.000590514270    -0.000096339435    0.061107207382    0.003483487900    0.000713465272    -0.000055945894
            0.000590514228    -0.000096339386    -0.030948563971    -0.032455927607    0.000700212813    -0.000050864373    0.059177074624    0.007916423098
            0.061107207364    0.003483488220    0.000700212814    -0.000050864359    -0.019852938895    -0.041283550335    0.000896155127    -0.000019219507
            0.000713465271    -0.000055945900    0.059177086687    0.007916446054    0.000896155107    -0.000019219503    -0.021223868070    -0.031661787969
0.275     0.011502839438    -0.065252060250    0.000342726771    -0.000860178849    0.067393913189    -0.097484161379    0.000442903127    -0.001049460856
            0.000342726786    -0.000860178843    0.010355412448    -0.059549408714    0.000453489808    -0.001032679041    0.061093523801    -0.091382754208
            0.067393911487    -0.097484162556    0.000453489808    -0.001032679041    0.018787556076    -0.070161880826    0.000597791647    -0.001315976746
            0.000442903127    -0.001049460856    0.061093534193    -0.091382735232    0.000597791670    -0.001315976736    0.017571502248    -0.065095123407
0.300     -0.037674768413    -0.091511948011    -0.000376553128    -0.000562617701    -0.035818898414    -0.080784902656    -0.000499572801    -0.000670641804
            -0.000376553128    -0.000562617701    -0.044807485385    -0.079524435138    -0.000490294032    -0.000682663758    -0.038863113540    -0.066501025615
            -0.035818898819    -0.080784903570    -0.000490293907    -0.000682663835    -0.033981620690    -0.095096365050    -0.000650758508    -0.000848301102
            -0.000499572807    -0.000670641812    -0.038863097899    -0.066500998850    -0.000650758568    -0.000848301181    -0.041352074892    -0.083906055573
0.325     -0.066426316053    -0.027466081011    0.000083809034    -0.000243885065    0.008354096384    -0.004222004185    0.000116842402    -0.000241795413
            0.000083809019    -0.000243885049    -0.061490550866    -0.010860414935    0.000100482424    -0.000244486270    0.014638124235    0.004961408398
            0.008354095464    -0.004222004453    0.000100482453    -0.000244486280    -0.060180361044    -0.030481585239    0.000153168611    -0.000283812887
            0.000116842390    -0.000241795409    0.014638149795    0.004961423328    0.000153168592    -0.000283812886    -0.055915108339    -0.014939960276
0.350     -0.013729450504    -0.014072790267    0.000182618764    -0.000990630610    0.047966753157    -0.086844647927    0.000292989880    -0.001181489443
            0.000182618747    -0.000990630614    -0.009630229156    -0.009935671833    0.000301419466    -0.001166703515    0.044556970817    -0.083857660350
            0.047966752674    -0.086844647051    0.000301419430    -0.001166703628    -0.008155527474    -0.023054217231    0.000447822588    -0.001458900916
            0.000292989880    -0.001181489443    0.044557049437    -0.083857614046    0.000447822567    -0.001458901027    -0.005439015155    -0.019519896100
0.375     -0.037291280997    -0.057153760202    -0.000894527224    -0.000784032544    -0.065056616009    -0.105745828276    -0.001080585737    -0.000975300426
            -0.000894527224    -0.000784032544    -0.042917752973    -0.043801736718    -0.001070409914    -0.000984078623    -0.069472455977    -0.086634676024
            -0.065056616009    -0.105745828276    -0.001070409914    -0.000984078623    -0.038266199425    -0.065600875165    -0.001337562690    -0.001273709460
            -0.001080585811    -0.000975300493    -0.069472455977    -0.086634676024    -0.001337562690    -0.001273709460    -0.045344640618    -0.052510033879
0.400     -0.083723345757    -0.007749035474    -0.000585428053    0.000164590913    -0.069850345354    0.002261242391    -0.000700132873    0.000247724206
            -0.000585428216    0.000164590849    -0.071804051252    0.012500279667    -0.000713118867    0.000250123794    -0.053730189594    0.017348030370
            -0.069850346354    0.002261242424    -0.000713118876    0.000250123797    -0.085082452708    -0.012432631612    -0.000888890798    0.000343608950
            -0.000700132883    0.000247724209    -0.053730092615    0.017348050835    -0.000888890817    0.000343608957    -0.074347759427    0.007767981869
0.425     -0.020537349877    0.027791005633    -0.000058049447    -0.000590690843    0.012424844876    -0.038963110224    0.000031207847    -0.000695868868
            -0.000058049424    -0.000590690825    -0.010079469552    0.026701500743    0.000050111972    -0.000682473658    0.015820344475    -0.043114861772
            0.012424843965    -0.038963107365    0.000050111960    -0.000682473659    -0.020159778111    0.020056870432    0.000191230115    -0.000834757291
            0.000031207835    -0.000695868858    0.015820341682    -0.043114868123    0.000191230096    -0.000834757275    -0.011800670251    0.019291768203
0.450     -0.025914069606    -0.038556775380    -0.001317114073    -0.000646945010    -0.084701088574    -0.104748551945    -0.001532257054    -0.000866587746
            -0.001317114073    -0.000646945010    -0.033494959755    -0.026586758899    -0.001522519445    -0.000870641093    -0.093332263973    -0.085681323876
            -0.084701088574    -0.104748551945    -0.001522519445    -0.000870641093    -0.032097037641    -0.047518269610    -0.001838872839    -0.001193381906
            -0.001532257054    -0.000866587746    -0.093332263973    -0.085681323876    -0.001838872839    -0.001193381906    -0.041347157965    -0.033889571028
0.475     -0.094711329162    0.009435784508    -0.001065478322    0.000700903642    -0.143335764403    0.025914704101    -0.001317277826    0.000830755061
            -0.001065478322    0.000700903642    -0.080020997524    0.031889044312    -0.001323964023    0.000830019147    -0.121179484170    0.047602108972
            -0.143335764403    0.025914704101    -0.001323964023    0.000830019147    -0.102825188729    0.007029065992    -0.001709732187    0.000998566902
            -0.001317277826    0.000830755061    -0.121179437632    0.047602090691    -0.001709732187    0.000998566902    -0.088670631092    0.031189628928
0.500     -0.020624357933    0.068174783889    0.000026122932    0.000239853986    -0.019087945554    0.054974421014    0.000085227149    0.000309408652
            0.000026122921    0.000239854037    -0.004469564498    0.061766155315    0.000096364629    0.000324712155    -0.004747620437    0.042952271458
            -0.019087947194    0.054974425738    0.000096364740    0.000324712091    -0.024132326515    0.066448081464    0.000150864560    0.000431433877
            0.000085227159    0.000309408649    -0.004747621607    0.042952268311    0.000150864532    0.000431433919    -0.009411880183    0.061388092018
0.525     -0.011932549793    -0.027326163458    -0.001250587903    -0.000277106002    -0.079683892610    -0.056405394474    -0.001410122487    -0.000450371371
            -0.001250587903    -0.000277106002    -0.024955889350    -0.018962268195    -0.001399596716    -0.000458331101    -0.090970183604    -0.041226570129
            -0.079683879501    -0.056405406070    -0.001399596716    -0.000458331101    -0.018852204640    -0.031466190960    -0.001629579983    -0.000702618039
            -0.001410122487    -0.000450371371    -0.090970156462    -0.041226596105    -0.001629579891    -0.000702617999    -0.032770408984    -0.019869439507
0.550     -0.112835426592    0.026717043681    -0.001010521208    0.001354955044    -0.187749383391    0.062897138719    -0.001327280450    0.001528381196
            -0.001010521208    0.001354955044    -0.098701940650    0.054046108336    -0.001324097192    0.001525100022    -0.164692169856    0.091876304528
            -0.187749383391    0.062897138719    -0.001324097126    0.001525099946    -0.121878797292    0.028775710971    -0.001807064461    0.001759752744
            -0.001327280450    0.001528381196    -0.164692178589    0.091876309400    -0.001807064461    0.001759752744    -0.106996558942    0.058629473321
0.575     -0.023862500195    0.114664069449    0.000330488127    0.001006560171    -0.037547343560    0.161531563074    0.000378529864    0.001255590979
            0.000330488145    0.001006560165    -0.002404369147    0.109438811208    0.000385890247    0.001266386510    -0.011160521991    0.147948779940
            -0.037547343560    0.161531563074    0.000385890247    0.001266386510    -0.027362343565    0.119135508749    0.000422201899    0.001649599874
            0.000378529871    0.001255591082    -0.011160476488    0.147948693117    0.000422201870    0.001649599881    -0.005476246665    0.115523155145
0.600     0.014185461978    -0.010772418477    -0.000521174677    -0.000073864013    -0.006975865185    0.001434618157    -0.000530721809    -0.000157006982
            -0.000521174714    -0.000073864111    -0.004374610642    -0.006574821391    -0.000515354500    -0.000172162003    -0.027396472355    0.002545361783
            -0.006975859297    0.001434619484    -0.000515354517    -0.000172162109    0.011289914718    -0.009835580642    -0.000520318863    -0.000266941545
            -0.000530721809    -0.000157006982    -0.027396485300    0.002545362986    -0.000520318801    -0.000266941513    -0.006847543410    -0.002400024547
0.625     -0.128916744026    0.046187893934    -0.000487618969    0.001712294217    -0.173258894566    0.096369242667    -0.000755277214    0.001881369579
            -0.000487618969    0.001712294217    -0.115011048476    0.082663212654    -0.000750865300    0.001876848759    -0.154626296657    0.130221408413
            -0.173258894566    0.096369242667    -0.000750865300    0.001876848759    -0.133388975628    0.049612427577    -0.001155844274    0.002099375083
            -0.000755277214    0.001881369579    -0.154626304306    0.130221414855    -0.001155844274    0.002099375083    -0.117318082754    0.088485543222
0.650     -0.022778289213    0.168736059588    0.000911147164    0.001186393464    -0.028368933245    0.248974086942    0.000972224889    0.001544469686
            0.000911147185    0.001186393448    0.005177013236    0.170196281272    0.000972978388    0.001541993268    0.008396954373    0.239947009093
            -0.028368933245    0.248974086942    0.000972978388    0.001541993268    -0.023109840266    0.175139959592    0.001026227043    0.002098419282
            0.000972224835    0.001544469720    0.008396962749    0.239947008800    0.001026226970    0.002098419318    0.006779574270    0.177314159446
0.675     0.064369223949    0.031440210676    0.000579495200    -0.000014282935    0.094789722903    0.079585221390    0.000768811505    -0.000003372123
            0.000579495230    -0.000014282935    0.051890753060    0.028576362827    0.000789472047    -0.000018167204    0.079157401365    0.064271409563
            0.094789731951    0.079585226166    0.000789472017    -0.000018167228    0.066905142527    0.034138661352    0.001082836781    0.000035614392
            0.000768811435    -0.000003372152    0.079157387993    0.064271410168    0.001082836683    0.000035614345    0.055373430035    0.032405160756
0.700     -0.121443386782    0.056977125943    -0.000047925372    0.001410545767    -0.110758693951    0.086249279390    -0.000191760698    0.001492906858
            -0.000047925372    0.001410545767    -0.108959998746    0.101212372049    -0.000201243277    0.001484131387    -0.100364068756    0.126906124167
            -0.110758693951    0.086249279390    -0.000201243277    0.001484131387    -0.120941401620    0.059077733085    -0.000403975933    0.001575320386
            -0.000191760686    0.001492906758    -0.100364068756    0.126906124167    -0.000403975933    0.001575320386    -0.104957314950    0.103980769426
0.725     -0.005330458840    0.217019016042    0.001514497657    0.000743516088    0.009810850230    0.277554249589    0.001603629954    0.001075357964
            0.001514497747    0.000743516132    0.031785287971    0.223681198704    0.001600684639    0.001065014901    0.052164898001    0.274588815352
            0.009810845386    0.277554249760    0.001600684639    0.001065014901    -0.002673125101    0.220272160668    0.001685222848    0.001589003148
            0.001603629935    0.001075357992    0.052164902793    0.274588814442    0.001685222793    0.001589003207    0.036379606988    0.225876633371
0.750     0.128692564701    0.089138623585    0.001206403209    -0.000231210634    0.196150539002    0.141399629197    0.001545511996    -0.000150837471
            0.001206403099    -0.000231210679    0.133663398466    0.080648175926    0.001555651697    -0.000154517434    0.196182959974    0.113961408440
            0.196150539002    0.141399629197    0.001555651699    -0.000154517412    0.133843633302    0.089839997243    0.002082329015    0.000004601997
            0.001545511993    -0.000150837498    0.196182904721    0.113961344288    0.002082329015    0.000004601990    0.139837249524    0.080726518694
0.775     -0.068732390588    0.029156978203    0.000168972991    0.000262622030    -0.005079729039    0.026109267402    0.000181487258    0.000170051557
            0.000168972963    0.000262622048    -0.061788476478    0.069320093714    0.000159535000    0.000146132278    -0.012090871578    0.061713203098
            -0.005079729039    0.026109267402    0.000159535022    0.000146132314    -0.066007248418    0.026837984713    0.000210922707    -0.000013559275
