# GHz S RI R 45
0.000     0.062950713000    0.000000000000    -0.000029171012    -0.000000000000    0.008684685600    0.000000000000    -0.000036810503    0.000000000000
            -0.000029171046    -0.000000000000    0.062278839000    0.000000000000    -0.000000863050    -0.000000000000    0.007984583900    0.000000000000
            0.008684651300    0.000000000000    -0.000000863012    -0.000000000000    0.057099741000    0.000000000000    -0.000019418616    0.000000000000
            -0.000036810568    0.000000000000    0.007984543400    0.000000000000    -0.000019418620    0.000000000000    0.056468526000    0.000000000000
0.025     0.173731370471    0.032091688715    -0.000006133643    0.000019779703    0.076386731687    0.033117243409    0.000001215491    0.000038132965
            -0.000006133647    0.000019779702    0.175423212642    0.030111201794    -0.000012172287    0.000009944669    0.076213377534    0.032051605030
            0.076386688153    0.033117248292    -0.000012172277    0.000009944668    0.165909679574    0.032760999348    -0.000009162713    0.000012559455
            0.000001215494    0.000038132964    0.076213339677    0.032051604763    -0.000009162714    0.000012559452    0.167860483147    0.030929439706
0.050     0.160372341806    -0.107895551414    0.000023911110    -0.000006861597    0.071792173454    -0.044384119991    0.000046785383    -0.000000758403
            0.000023911095    -0.000006861583    0.157694145047    -0.113512918332    0.000018364606    -0.000008945449    0.069736904624    -0.047177925455
            0.071792133705    -0.044384100613    0.000018364641    -0.000008945366    0.152319626715    -0.102826274126    0.000020369175    -0.000003953086
            0.000046785371    -0.000000758394    0.069736876454    -0.047177902848    0.000020369174    -0.000003953078    0.149856216410    -0.108339197457
0.075     0.037964246925    -0.072245355273    -0.000017482928    -0.000051252646    0.008005761903    0.000264918198    0.000002153176    -0.000059638730
            -0.000017482927    -0.000051252643    0.032390551262    -0.073415305802    -0.000021202750    -0.000048368725    0.004446793442    -0.001293692213
            0.008005736513    0.000264938647    -0.000021202715    -0.000048368714    0.034049314093    -0.064813065051    -0.000012019516    -0.000055338503
            0.000002153215    -0.000059638757    0.004446779195    -0.001293676031    -0.000012019497    -0.000055338509    0.028854858138    -0.065772678289
0.100     0.109627787118    -0.007354611796    -0.000056181144    0.000005223101    0.085498956296    0.028847525837    -0.000043752672    -0.000005815494
            -0.000056181150    0.000005223102    0.108212402528    -0.010335182849    -0.000053274523    0.000004327218    0.082561208776    0.025767415021
            0.085498931185    0.028847543959    -0.000053274516    0.000004327217    0.107852468659    -0.001772941754    -0.000061322596    -0.000004264809
            -0.000043752665    -0.000005815407    0.082561182993    0.025767433856    -0.000061322594    -0.000004264734    0.107054528409    -0.004734744487
0.125     0.128913507680    -0.114444472138    0.000003486487    0.000013553226    0.075813870125    -0.055823827987    0.000013433381    0.000000566758
            0.000003486486    0.000013553226    0.119001518399    -0.123523649799    0.000000146486    0.000010452952    0.067877989867    -0.060094414694
            0.075813842955    -0.055823795738    0.000000146493    0.000010452939    0.126661715611    -0.107372255438    -0.000001472259    0.000012791957
            0.000013433385    0.000000566751    0.067877973250    -0.060094385189    -0.000001472266    0.000012791968    0.117289002878    -0.116725809584
0.150     0.018442957970    -0.119221325888    -0.000028275035    -0.000060095349    0.009851251888    -0.015773614004    -0.000023686660    -0.000077430525
            -0.000028275029    -0.000060095335    -0.000177013544    -0.116004084945    -0.000024838121    -0.000056286289    -0.000373385651    -0.013875019886
            0.009851240189    -0.015773582404    -0.000024838125    -0.000056286299    0.020217785727    -0.109798044058    -0.000027820803    -0.000068296793
            -0.000023686657    -0.000077430514    -0.000373392243    -0.013875003703    -0.000027820785    -0.000068296783    0.002058772487    -0.106834544886
0.175     0.038890835373    -0.046080936054    -0.000112782507    0.000014719274    0.083914395548    0.001515862594    -0.000117749624    -0.000001460360
            -0.000112782512    0.000014719315    0.031930638438    -0.037772561303    -0.000103686823    0.000003340823    0.079144987171    0.003791678652
            0.083914388044    0.001515890441    -0.000103686804    0.000003340786    0.044735115320    -0.040108035525    -0.000124449856    0.000003105213
            -0.000117749624    -0.000001460360    0.079144981878    0.003791705534    -0.000124449866    0.000003105213    0.038495145179    -0.032277128921
0.200     0.073349467113    -0.099762794054    -0.000022883284    0.000079852307    0.082599747164    -0.077617784104    -0.000031283097    0.000070271899
            -0.000022883297    0.000079852300    0.061254193555    -0.103205360206    -0.000030263642    0.000065955061    0.068844573137    -0.079207071884
            0.082599737494    -0.077617750586    -0.000030263651    0.000065955050    0.078000397436    -0.096428528411    -0.000035264220    0.000077919202
            -0.000031283115    0.000070271906    0.068844579371    -0.079207039967    -0.000035264126    0.000077919139    0.066312916475    -0.100969301354
0.225     -0.003440321579    -0.124670410622    -0.000007226033    -0.000017306884    0.003812066879    -0.047229231900    -0.000015921450    -0.000026660818
            -0.000007226034    -0.000017306877    -0.030630599837    -0.111811874487    -0.000009785973    -0.000020377265    -0.013192071011    -0.035824472178
            0.003812070677    -0.047229186447    -0.000009785984    -0.000020377278    0.002314279340    -0.120081210959    -0.000016833186    -0.000023585392
            -0.000015921456    -0.000026660817    -0.013192056120    -0.035824451021    -0.000016833178    -0.000023585433    -0.025048262084    -0.108143684376
0.250     -0.024223030638    -0.060428526830    -0.000126575928    0.000031062999    0.063476197870    -0.004372129177    -0.000144111139    0.000023467769
            -0.000126575918    0.000031062997    -0.030948563971    -0.032455927607    -0.000127041895    0.000012785996    0.059177074624    0.007916423098
            0.063476209542    -0.004372090688    -0.000127041905    0.000012785997    -0.014525715850    -0.058767692037    -0.000148217765    0.000024914826
            -0.000144111129    0.000023467767    0.059177086687    0.007916446054    -0.000148217755    0.000024914825    -0.021223868070    -0.031661787969
0.275     0.013362994573    -0.068536849926    -0.000029624137    0.000154448651    0.074322205886    -0.094564738700    -0.000049741213    0.000159429235
            -0.000029624137    0.000154448651    0.010355412448    -0.059549408714    -0.000050221613    0.000140027069    0.061093523801    -0.091382754208
            0.074322211260    -0.094564721758    -0.000050221631    0.000140027041    0.021176534033    -0.072693953540    -0.000051027022    0.000162823939
            -0.000049741177    0.000159429215    0.061093534193    -0.091382735232    -0.000051026996    0.000162823957    0.017571502248    -0.065095123407
0.300     -0.020879298936    -0.100652718275    0.000056815477    0.000042903407    -0.018332741380    -0.089701777015    0.000044760671    0.000050568055
            0.000056815468    0.000042903410    -0.044807485385    -0.079524435138    0.000042552304    0.000043235494    -0.038863113540    -0.066501025615
            -0.018332740579    -0.089701773096    0.000042552294    0.000043235493    -0.015811785846    -0.103997950038    0.000042957470    0.000048807555
            0.000044760672    0.000050568061    -0.038863097899    -0.066500998850    0.000042957491    0.000048807575    -0.041352074892    -0.083906055573
0.325     -0.062997623309    -0.055170510248    -0.000079617528    0.000027146403    0.010670461675    -0.022892952011    -0.000098323098    0.000032297290
            -0.000079617602    0.000027146428    -0.061490550866    -0.010860414935    -0.000092895692    0.000017065556    0.014638124235    0.004961408398
            0.010670467315    -0.022892951589    -0.000092895664    0.000017065517    -0.056151467384    -0.058968146823    -0.000105359737    0.000035374989
            -0.000098323174    0.000032297315    0.014638149795    0.004961423328    -0.000105359766    0.000035374998    -0.055915108339    -0.014939960276
0.350     -0.026461703968    -0.026208919568    -0.000017664767    0.000198332425    0.046871909984    -0.090199984897    -0.000039897317    0.000219525507
            -0.000017664715    0.000198332470    -0.009630229156    -0.009935671833    -0.000046151438    0.000199269675    0.044556970817    -0.083857660350
            0.046871916169    -0.090199992953    -0.000046151438    0.000199269675    -0.020795559736    -0.034994087283    -0.000039388076    0.000226566491
            -0.000039897247    0.000219525560    0.044557049437    -0.083857614046    -0.000039388079    0.000226566511    -0.005439015155    -0.019519896100
0.375     -0.033089289890    -0.064669795946    0.000147302295    0.000087709931    -0.050140213776    -0.116484428361    0.000142518467    0.000114221032
            0.000147302312    0.000087709902    -0.042917752973    -0.043801736718    0.000132379756    0.000102330636    -0.069472455977    -0.086634676024
            -0.050140177630    -0.116484400372    0.000132379741    0.000102330624    -0.032854629909    -0.073216699373    0.000144888688    0.000112845203
            0.000142518473    0.000114221041    -0.069472455977    -0.086634676024    0.000144888703    0.000112845215    -0.045344640618    -0.052510033879
0.400     -0.084939418611    -0.036681753908    0.000007218555    -0.000016486780    -0.070217816708    -0.026295754687    -0.000000518474    -0.000003026814
            0.000007218575    -0.000016486767    -0.071804051252    0.012500279667    -0.000006431337    -0.000011525484    -0.053730189594    0.017348030370
            -0.070217812026    -0.026295752933    -0.000006431270    -0.000011525468    -0.085417070117    -0.042934331120    -0.000006505156    0.000001576917
            -0.000000518473    -0.000003026810    -0.053730092615    0.017348050835    -0.000006505159    0.000001576913    -0.074347759427    0.007767981869
0.425     -0.047187178246    0.012159405831    -0.000004008035    0.000180091005    -0.002317981686    -0.048743562754    -0.000020891775    0.000211150876
            -0.000004008029    0.000180091035    -0.010079469552    0.026701500743    -0.000024443818    0.000201487342    0.015820344475    -0.043114861772
            -0.002317979277    -0.048743565872    -0.000024443811    0.000201487343    -0.047426560133    0.003587265280    -0.000012093525    0.000226056483
            -0.000020891768    0.000211150877    0.015820341682    -0.043114868123    -0.000012093505    0.000226056554    -0.011800670251    0.019291768203
0.450     -0.035780232149    -0.035701484154    0.000233998125    0.000096914130    -0.078785184390    -0.111857160129    0.000243566314    0.000137160072
            0.000233998123    0.000096914134    -0.033494959755    -0.026586758899    0.000237256478    0.000123662112    -0.093332263973    -0.085681323876
            -0.078785097029    -0.111857160502    0.000237256478    0.000123662112    -0.041472295531    -0.044720046923    0.000260533980    0.000134599071
            0.000243566361    0.000137160009    -0.093332263973    -0.085681323876    0.000260533980    0.000134599071    -0.041347157965    -0.033889571028
0.475     -0.100371274597    -0.009275100694    0.000094425925    -0.000100067715    -0.148076757390    -0.005931534802    0.000106124659    -0.000086893055
            0.000094425927    -0.000100067699    -0.080020997524    0.031889044312    0.000095629019    -0.000088622553    -0.121179484170    0.047602108972
            -0.148076757390    -0.005931534802    0.000095629012    -0.000088622546    -0.107728143559    -0.013354729082    0.000108041456    -0.000087790771
            0.000106124328    -0.000086893239    -0.121179437632    0.047602090691    0.000108041464    -0.000087790778    -0.088670631092    0.031189628928
0.500     -0.055006370604    0.055451649949    -0.000016570965    0.000097307153    -0.050968999626    0.040954063694    -0.000027562880    0.000126659679
            -0.000016570966    0.000097307149    -0.004469564498    0.061766155315    -0.000017683077    0.000128048408    -0.004747620437    0.042952271458
            -0.050968999626    0.040954063694    -0.000017683078    0.000128048418    -0.060068519814    0.052180463032    -0.000008697706    0.000142367842
            -0.000027562880    0.000126659679    -0.004747621607    0.042952268311    -0.000008697701    0.000142367842    -0.009411880183    0.061388092018
0.525     -0.031713024207    -0.011226184427    0.000271348587    0.000076510967    -0.089735443441    -0.051185916141    0.000294470589    0.000121986597
            0.000271348588    0.000076510962    -0.024955889350    -0.018962268195    0.000303783035    0.000100771643    -0.090970183604    -0.041226570129
            -0.089735372962    -0.051185958970    0.000303783035    0.000100771643    -0.039907583533    -0.014926153340    0.000333367739    0.000110513789
            0.000294470586    0.000121986578    -0.090970156462    -0.041226596105    0.000333368095    0.000110513701    -0.032770408984    -0.019869439507
0.550     -0.117434108105    0.022919269812    0.000135002879    -0.000205875876    -0.195784803071    0.037625563532    0.000166640054    -0.000202410022
            0.000135002879    -0.000205875876    -0.098701940650    0.054046108336    0.000156423018    -0.000208139393    -0.164692169856    0.091876304528
            -0.195784796505    0.037625597703    0.000156423010    -0.000208139374    -0.126521755488    0.024391159675    0.000177769843    -0.000222595648
            0.000166640064    -0.000202410027    -0.164692178589    0.091876309400    0.000177769855    -0.000222595664    -0.106996558942    0.058629473321
0.575     -0.055382794402    0.108974893835    -0.000063527161    -0.000024267888    -0.081403078130    0.148540357486    -0.000072255770    -0.000010079460
            -0.000063527152    -0.000024267884    -0.002404369147    0.109438811208    -0.000047608605    -0.000004958740    -0.011160521991    0.147948779940
            -0.081403073324    0.148540348717    -0.000047608587    -0.000004958730    -0.060741800276    0.112252307999    -0.000048703237    -0.000005801526
            -0.000072255759    -0.000010079458    -0.011160476488    0.147948693117    -0.000048703254    -0.000005801537    -0.005476246665    0.115523155145
0.600     -0.008875946076    0.017750568624    0.000242406084    0.000066467040    -0.030749493987    0.025198718158    0.000271576297    0.000112614924
            0.000242406087    0.000066467028    -0.004374610642    -0.006574821391    0.000298752892    0.000071617257    -0.027396472355    0.002545361783
            -0.030749463912    0.025198639687    0.000298752887    0.000071617234    -0.014270185032    0.020084317392    0.000325793966    0.000084590559
            0.000271576295    0.000112614901    -0.027396485300    0.002545362986    0.000325793973    0.000084590573    -0.006847543410    -0.002400024547
0.625     -0.125474048574    0.057590963247    0.000114499458    -0.000299507739    -0.179337399594    0.088330295741    0.000157931278    -0.000309323112
            0.000114499377    -0.000299508091    -0.115011048476    0.082663212654    0.000144861892    -0.000332479564    -0.154626296657    0.130221408413
            -0.179337376602    0.088330206629    0.000144861915    -0.000332479554    -0.130681798741    0.063224678559    0.000171962327    -0.000361313122
            0.000157931277    -0.000309323056    -0.154626304306    0.130221414855    0.000171962242    -0.000361313804    -0.117318082754    0.088485543222
0.650     -0.044116612960    0.169593788409    -0.000134116668    -0.000115420084    -0.073083793786    0.242651146001    -0.000147378368    -0.000123533298
            -0.000134116615    -0.000115420038    0.005177013236    0.170196281272    -0.000118218569    -0.000124434420    0.008396954373    0.239947009093
            -0.073083788019    0.242651126851    -0.000118218555    -0.000124434405    -0.045267979410    0.176084356730    -0.000133733256    -0.000140996055
            -0.000147378384    -0.000123533093    0.008396962749    0.239947008800    -0.000133733263    -0.000140996063    0.006779574270    0.177314159446
0.675     0.042478528373    0.066312237924    0.000106395575    0.000084186357    0.059260681934    0.122219971432    0.000124491116    0.000128449702
            0.000106395572    0.000084186345    0.051890753060    0.028576362827    0.000163977423    0.000065029485    0.079157401365    0.064271409563
            0.059260664289    0.122219913306    0.000163977428    0.000065029474    0.042492645820    0.071190235749    0.000178426338    0.000084909925
            0.000124491069    0.000128449623    0.079157387993    0.064271410168    0.000178426315    0.000084909925    0.055373430035    0.032405160756
0.700     -0.109068411069    0.076895063281    0.000075812702    -0.000343767505    -0.104062589889    0.104680597193    0.000125795609    -0.000365900006
            0.000075812702    -0.000343767505    -0.108959998746    0.101212372049    0.000099128813    -0.000413936889    -0.100364068756    0.126906124167
            -0.104062589889    0.104680597193    0.000099128813    -0.000413936889    -0.107959502628    0.082616357646    0.000130233059    -0.000450572975
            0.000125795616    -0.000365900004    -0.100364068756    0.126906124167    0.000130233051    -0.000450572977    -0.104957314950    0.103980769426
0.725     -0.013798873271    0.221266947886    -0.000219571410    -0.000129309830    -0.020321832030    0.280326084395    -0.000241412344    -0.000155565864
            -0.000219571401    -0.000129309825    0.031785287971    0.223681198704    -0.000222264426    -0.000166316785    0.052164898001    0.274588815352
            -0.020321832030    0.280326084395    -0.000222264447    -0.000166316740    -0.009656200712    0.225770406488    -0.000253078707    -0.000196375398
            -0.000241412371    -0.000155565822    0.052164902793    0.274588814442    -0.000253078712    -0.000196375473    0.036379606988    0.225876633371
0.750     0.111410512325    0.121354858107    -0.000062543537    0.000093472362    0.159719032743    0.193591849913    -0.000071351115    0.000135611165
            -0.000062543537    0.000093472362    0.133663398466    0.080648175926    -0.000032731169    0.000059169188    0.196182959974    0.113961408440
            0.159718985604    0.193591772128    -0.000032731170    0.000059169189    0.116127849246    0.123452137279    -0.000040184867    0.000087301091
            -0.000071351115    0.000135611165    0.196182904721    0.113961344288    -0.000040184866    0.000087301089    0.139837249524    0.080726518694
0.775     -0.042235142864    0.064707625527    0.000094119075    -0.000274344079    0.021010551894    0.073383126821    0.000143747988    -0.000292830121
            0.000094119030    -0.000274344042    -0.061788476478    0.069320093714    0.000096625982    -0.000367017276    -0.012090871578    0.061713203098
            0.021010553091    0.073383135840    0.000096626008    -0.000367017321    -0.037678612538    0.065399088788    0.000133526069    -0.000400837152
