# GHz S RI R 45
0.000     0.062190743000    0.000000000000    -0.000015747204    0.000000000000    0.008056008600    0.000000000000    -0.000042939023    0.000000000000
            -0.000015746996    0.000000000000    0.062278839000    0.000000000000    -0.000008397555    0.000000000000    0.007984583900    0.000000000000
            0.008056098900    0.000000000000    -0.000008395551    0.000000000000    0.056403522000    -0.000000000000    -0.000055817017    0.000000000000
            -0.000042938881    0.000000000000    0.007984543400    0.000000000000    -0.000055817104    0.000000000000    0.056468526000    0.000000000000
0.025     0.175640362113    0.030004115503    -0.000134247867    -0.000017368569    0.076677181439    0.031877742947    -0.000138404396    -0.000001351071
            -0.000134247847    -0.000017368566    0.175423212642    0.030111201794    -0.000148336194    -0.000024166747    0.076213377534    0.032051605030
            0.076677205931    0.031877676220    -0.000148336130    -0.000024166896    0.167932161028    0.030758378281    -0.000134788490    -0.000016844102
            -0.000138404446    -0.000001351095    0.076213339677    0.032051604763    -0.000134788554    -0.000016843991    0.167860483147    0.030929439706
0.050     0.157085278574    -0.112783307559    -0.000201227193    0.000132503002    0.069432461810    -0.047395942963    -0.000203733842    0.000143201204
            -0.000201227234    0.000132503029    0.157694145047    -0.113512918332    -0.000212279112    0.000153457381    0.069736904624    -0.047177925455
            0.069432421300    -0.047395970381    -0.000212279139    0.000153457344    0.149120693191    -0.107784076011    -0.000236227209    0.000147231219
            -0.000203733924    0.000143201156    0.069736876454    -0.047177902848    -0.000236227174    0.000147231254    0.149856216410    -0.108339197457
0.075     0.034459920410    -0.071530415041    0.000077787820    0.000476930887    0.005149333699    -0.000039356703    0.000087450438    0.000504191048
            0.000077787877    0.000476930868    0.032390551262    -0.073415305802    0.000087171885    0.000492308880    0.004446793442    -0.001293692213
            0.005149320222    -0.000039353623    0.000087171720    0.000492308899    0.030593601251    -0.064006153748    0.000073214230    0.000540746963
            0.000087450495    0.000504190957    0.004446779195    -0.001293676031    0.000073214352    0.000540746946    0.028854858138    -0.065772678289
0.100     0.111016806879    -0.011685463146    0.000565137221    0.000033073448    0.084785327586    0.025208991255    0.000608820443    0.000026559259
            0.000565137201    0.000033073441    0.108212402528    -0.010335182849    0.000598129316    0.000047072131    0.082561208776    0.025767415021
            0.084785300590    0.025208976786    0.000598129253    0.000047072292    0.109592597157    -0.006102320968    0.000659629445    0.000080835462
            0.000608820433    0.000026559253    0.082561182993    0.025767433856    0.000659629444    0.000080835467    0.107054528409    -0.004734744487
0.125     0.119958831359    -0.123731187604    0.000366882660    -0.000407316883    0.068453996293    -0.061186170870    0.000373808192    -0.000444590210
            0.000366882660    -0.000407316883    0.119001518399    -0.123523649799    0.000387998454    -0.000453079593    0.067877989867    -0.060094414694
            0.068453958370    -0.061186141271    0.000387998567    -0.000453079469    0.117944590999    -0.116976234505    0.000451968644    -0.000505493045
            0.000373808215    -0.000444590190    0.067877973250    -0.060094385189    0.000451968571    -0.000505493124    0.117289002878    -0.116725809584
0.150     0.004718880700    -0.115721316769    -0.000182599478    -0.000814838650    0.001447176569    -0.013463348808    -0.000197342344    -0.000853043155
            -0.000182599480    -0.000814838660    -0.000177013544    -0.116004084945    -0.000204926727    -0.000837695650    -0.000373385651    -0.013875019886
            0.001447190366    -0.013463309106    -0.000204926576    -0.000837695666    0.006630268866    -0.106492297548    -0.000226907858    -0.000935114196
            -0.000197342344    -0.000853043155    -0.000373392243    -0.013875003703    -0.000226907856    -0.000935114186    0.002058772487    -0.106834544886
0.175     0.036915385089    -0.042889593179    -0.000997090096    -0.000027056744    0.081514914734    0.001329253594    -0.001073243917    -0.000026360717
            -0.000997090076    -0.000027056743    0.031930638438    -0.037772561303    -0.001049891044    -0.000045651789    0.079144987171    0.003791678652
            0.081514928722    0.001329254448    -0.001049890936    -0.000045651968    0.043189765303    -0.037335019882    -0.001169006103    -0.000066648917
            -0.001073243917    -0.000026360717    0.079144981878    0.003791705534    -0.001169006103    -0.000066648917    0.038495145179    -0.032277128921
0.200     0.063403862919    -0.106437830756    -0.000422282327    0.000788547314    0.071164043024    -0.081800483822    -0.000432551567    0.000865786079
            -0.000422282318    0.000788547296    0.061254193555    -0.103205360206    -0.000458379234    0.000865576112    0.068844573137    -0.079207071884
            0.071164035608    -0.081800463764    -0.000458379215    0.000865576076    0.068176150157    -0.103975592227    -0.000527515058    0.000976413229
            -0.000432551571    0.000865786088    0.068844579371    -0.079207039967    -0.000527515105    0.000976413317    0.066312916475    -0.100969301354
0.225     -0.024043586274    -0.116155377962    0.000376681471    0.001009922831    -0.010021937661    -0.038896011768    0.000413883243    0.001042557389
            0.000376681488    0.001009922824    -0.030630599837    -0.111811874487    0.000426838650    0.001040775973    -0.013192071011    -0.035824472178
            -0.010021903271    -0.038895990682    0.000426838267    0.001040776022    -0.018598992783    -0.112223052811    0.000495997554    0.001155452339
            0.000413882861    0.001042557541    -0.013192056120    -0.035824451021    0.000495997957    0.001155452275    -0.025048262084    -0.108143684376
0.250     -0.027355169872    -0.042538344358    0.001398863805    0.000009006652    0.061512853092    0.003419449680    0.001482228461    0.000019642017
            0.001398863806    0.000009006628    -0.030948563971    -0.032455927607    0.001457195464    0.000025450579    0.059177074624    0.007916423098
            0.061512881136    0.003419431639    0.001457195465    0.000025450540    -0.017771432293    -0.041519543498    0.001606796892    0.000021128464
            0.001482228461    0.000019641975    0.059177086687    0.007916446054    0.001606796892    0.000021128467    -0.021223868070    -0.031661787969
0.275     0.011095180954    -0.066518458140    0.000461590180    -0.001247594533    0.064401328057    -0.095036534512    0.000488215875    -0.001363607550
            0.000461589845    -0.001247594764    0.010355412448    -0.059549408714    0.000512740080    -0.001352580724    0.061093523801    -0.091382754208
            0.064401323714    -0.095036549535    0.000512740340    -0.001352580412    0.018256393840    -0.071631837814    0.000576050378    -0.001505917613
            0.000488216141    -0.001363607243    0.061093534193    -0.091382735232    0.000576050378    -0.001505917613    0.017571502248    -0.065095123407
0.300     -0.038995246688    -0.089492957542    -0.000694126347    -0.001086262936    -0.034365662562    -0.074800166216    -0.000779790590    -0.001117900059
            -0.000694126347    -0.001086262936    -0.044807485385    -0.079524435138    -0.000790260706    -0.001130953565    -0.038863113540    -0.066501025615
            -0.034365645749    -0.074800164036    -0.000790260763    -0.001130953647    -0.035212796216    -0.093546269187    -0.000905181495    -0.001253415468
            -0.000779790648    -0.001117900141    -0.038863097899    -0.066500998850    -0.000905182327    -0.001253415237    -0.041352074892    -0.083906055573
0.325     -0.063163708522    -0.025658653283    -0.001674705593    0.000036038059    0.012918286526    -0.003603049746    -0.001751918798    0.000046345287
            -0.001674705593    0.000036038059    -0.061490550866    -0.010860414935    -0.001736525258    0.000054465715    0.014638124235    0.004961408398
            0.012918302309    -0.003603075047    -0.001736525248    0.000054466018    -0.057343421447    -0.029610950723    -0.001879829575    0.000094532704
            -0.001751918798    0.000046345287    0.014638149795    0.004961423328    -0.001879829575    0.000094532704    -0.055915108339    -0.014939960276
0.350     -0.012008743340    -0.017036618493    -0.000538076359    0.001764614770    0.046808578927    -0.087107121920    -0.000577314424    0.001904071741
            -0.000538076330    0.001764614675    -0.009630229156    -0.009935671833    -0.000595001296    0.001884136228    0.044556970817    -0.083857660350
            0.046808564843    -0.087107143111    -0.000595001863    0.001884135734    -0.007450087720    -0.026286002804    -0.000646846140    0.002065052209
            -0.000577314395    0.001904071645    0.044557049437    -0.083857614046    -0.000646846170    0.002065052305    -0.005439015155    -0.019519896100
0.375     -0.038901294891    -0.057195403180    0.001196108822    0.001145521327    -0.063604583845    -0.099754382917    0.001336014630    0.001186982367
            0.001196109226    0.001145521194    -0.042917752973    -0.043801736718    0.001341104374    0.001209077649    -0.069472455977    -0.086634676024
            -0.063604601255    -0.099754371816    0.001341104374    0.001209077649    -0.040470550123    -0.065796625182    0.001492093918    0.001335194404
            0.001336014157    0.001186982448    -0.069472455977    -0.086634676024    0.001492093918    0.001335194404    -0.045344640618    -0.052510033879
0.400     -0.080762137077    -0.005174458569    0.001776623452    -0.000245836805    -0.061497736886    0.003414635140    0.001837669199    -0.000304809691
            0.001776623461    -0.000245836740    -0.071804051252    0.012500279667    0.001834942976    -0.000321731394    -0.053730189594    0.017348030370
            -0.061497735485    0.003414624296    0.001834942973    -0.000321731410    -0.082737477519    -0.010281683376    0.002010694980    -0.000393885351
            0.001837669198    -0.000304809698    -0.053730092615    0.017348050835    0.002010694980    -0.000393885351    -0.074347759427    0.007767981869
0.425     -0.016649916192    0.022860581101    0.000645144870    -0.002203930985    0.014075330406    -0.044531937822    0.000668331324    -0.002334038755
            0.000645144580    -0.002203931278    -0.010079469552    0.026701500743    0.000675901783    -0.002315370349    0.015820344475    -0.043114861772
            0.014075308723    -0.044531953066    0.000675901742    -0.002315370361    -0.017802198193    0.015264377400    0.000708049385    -0.002510092586
            0.000668331283    -0.002334038766    0.015820341682    -0.043114868123    0.000708049385    -0.002510092586    -0.011800670251    0.019291768203
0.450     -0.030073321612    -0.041847062880    -0.001901285560    -0.001232897951    -0.085970112906    -0.101928468365    -0.002075071922    -0.001280437598
            -0.001901285476    -0.001232897897    -0.033494959755    -0.026586758899    -0.002081449249    -0.001310278140    -0.093332263973    -0.085681323876
            -0.085970130696    -0.101928453361    -0.002081449165    -0.001310278087    -0.037043238348    -0.049730258582    -0.002260577151    -0.001433931879
            -0.002075072794    -0.001280437136    -0.093332263973    -0.085681323876    -0.002260577151    -0.001433931879    -0.041347157965    -0.033889571028
0.475     -0.094716617052    0.012434111505    -0.001779424992    0.000779252352    -0.134661359029    0.027773389309    -0.001830478339    0.000897439023
            -0.001779424992    0.000779252352    -0.080020997524    0.031889044312    -0.001837953570    0.000929401407    -0.121179484170    0.047602108972
            -0.134661359029    0.027773389309    -0.001837953448    0.000929400540    -0.103098895372    0.010670493250    -0.002021876281    0.001031018544
            -0.001830478226    0.000897438571    -0.121179437632    0.047602090691    -0.002021876281    0.001031018544    -0.088670631092    0.031189628928
0.500     -0.015224110751    0.063009570979    -0.000620781118    0.002358767992    -0.013556072787    0.044935533960    -0.000605794166    0.002460391393
            -0.000620781118    0.002358767992    -0.004469564498    0.061766155315    -0.000598674543    0.002441908196    -0.004747620437    0.042952271458
            -0.013556090206    0.044935534972    -0.000598674543    0.002441908196    -0.019871666670    0.061846634187    -0.000612029551    0.002655535006
            -0.000605793379    0.002460391896    -0.004747621607    0.042952268311    -0.000612029551    0.002655535006    -0.009411880183    0.061388092018
0.525     -0.019372236837    -0.033985539631    0.002591541687    0.001411154554    -0.083997134207    -0.057134234714    0.002759340796    0.001442186298
            0.002591541663    0.001411154599    -0.024955889350    -0.018962268195    0.002771157496    0.001473531974    -0.090970183604    -0.041226570129
            -0.083997144179    -0.057134220054    0.002771157496    0.001473531974    -0.026865657077    -0.035898648091    0.002973250982    0.001591882947
            0.002759340707    0.001442186252    -0.090970156462    -0.041226596105    0.002973250982    0.001591882947    -0.032770408984    -0.019869439507
0.550     -0.116896908408    0.032047388123    0.001727406941    -0.001628416392    -0.182767491471    0.066779215172    0.001772905320    -0.001783583363
            0.001727406941    -0.001628416392    -0.098701940650    0.054046108336    0.001785656030    -0.001840626132    -0.164692169856    0.091876304528
            -0.182767491471    0.066779215172    0.001785655923    -0.001840625958    -0.125294135367    0.035398223866    0.001971912634    -0.001968122287
            0.001772905299    -0.001783584089    -0.164692178589    0.091876309400    0.001971912727    -0.001968123892    -0.106996558942    0.058629473321
0.575     -0.018224541092    0.113081858770    0.000152511678    -0.002196608583    -0.029973977710    0.151098522088    0.000091022567    -0.002267327871
            0.000152511754    -0.002196608577    -0.002404369147    0.109438811208    0.000054230791    -0.002242005215    -0.011160521991    0.147948779940
            -0.029973977710    0.151098522088    0.000054230830    -0.002242005214    -0.021534679422    0.118221099983    0.000051164584    -0.002465690109
            0.000091022606    -0.002267327870    -0.011160476488    0.147948693117    0.000051164584    -0.002465690109    -0.005476246665    0.115523155145
0.600     0.004441176476    -0.019776811111    -0.002968061197    -0.001651079701    -0.019317116173    -0.008600275692    -0.003101190219    -0.001674373138
            -0.002968061284    -0.001651079750    -0.004374610642    -0.006574821391    -0.003108445596    -0.001698534117    -0.027396472355    0.002545361783
            -0.019317111866    -0.008600265695    -0.003108445596    -0.001698534117    0.001645115793    -0.016695469687    -0.003335662454    -0.001816563186
            -0.003101189487    -0.001674373442    -0.027396485300    0.002545362986    -0.003335662454    -0.001816563186    -0.006847543410    -0.002400024547
0.625     -0.135611158617    0.056159697331    -0.001732759409    0.002530690036    -0.175580845509    0.103137193749    -0.001775926293    0.002684391989
            -0.001732759409    0.002530690036    -0.115011048476    0.082663212654    -0.001786226828    0.002763256817    -0.154626296657    0.130221408413
            -0.175580827508    0.103137224393    -0.001786227147    0.002763256253    -0.138471522377    0.061487515543    -0.001976777576    0.002921900118
            -0.001775926293    0.002684391989    -0.154626304306    0.130221414855    -0.001976777520    0.002921900035    -0.117318082754    0.088485543222
0.650     -0.016924777204    0.172695437219    0.000711977195    0.001965778403    -0.020458728869    0.242654647835    0.000805529172    0.002018235435
            0.000711977195    0.001965778403    0.005177013236    0.170196281272    0.000880854077    0.001979157397    0.008396954373    0.239947009093
            -0.020458719559    0.242654638584    0.000880853378    0.001979156942    -0.015836007136    0.179316895738    0.000904446307    0.002207476089
            0.000805529136    0.002018235449    0.008396962749    0.239947008800    0.000904446268    0.002207476105    0.006779574270    0.177314159446
0.675     0.058867202329    0.021358720179    0.002562853070    0.001529863810    0.082621976732    0.064451107728    0.002654931856    0.001537036002
            0.002562853043    0.001529863855    0.051890753060    0.028576362827    0.002631379653    0.001536153828    0.079157401365    0.064271409563
            0.082621981232    0.064451101959    0.002631379292    0.001536154049    0.062017535948    0.024924823191    0.002871902129    0.001661351399
            0.002654931074    0.001537036353    0.079157387993    0.064271410168    0.002871902418    0.001661351099    0.055373430035    0.032405160756
0.700     -0.130617345757    0.071380560359    0.001961870055    -0.003197759292    -0.120753087300    0.100422972102    0.002013330866    -0.003329442309
            0.001961870055    -0.003197759292    -0.108959998746    0.101212372049    0.002016951793    -0.003410154156    -0.100364068756    0.126906124167
            -0.120753069773    0.100422993178    0.002016951904    -0.003410153393    -0.127423046872    0.074108938465    0.002222604683    -0.003606927683
            0.002013330866    -0.003329442309    -0.100364068756    0.126906124167    0.002222604683    -0.003606927683    -0.104957314950    0.103980769426
0.725     0.002871373400    0.224703254808    -0.001532193189    -0.001898355240    0.017859810319    0.277716284323    -0.001633415703    -0.001954616164
            -0.001532193189    -0.001898355240    0.031785287971    0.223681198704    -0.001733829182    -0.001900927598    0.052164898001    0.274588815352
            0.017859815166    0.277716284011    -0.001733829115    -0.001900927524    0.007417739250    0.227002477941    -0.001794433540    -0.002138932743
            -0.001633415767    -0.001954616241    0.052164902793    0.274588814442    -0.001794433669    -0.002138932896    0.036379606988    0.225876633371
0.750     0.131695849864    0.082119444676    -0.001994385437    -0.000676408745    0.190164779243    0.127291496874    -0.002052098650    -0.000665137043
            -0.001994385531    -0.000676408777    0.133663398466    0.080648175926    -0.001988996657    -0.000623770522    0.196182959974    0.113961408440
            0.190164783687    0.127291490236    -0.001988996657    -0.000623770522    0.137819556671    0.081848046483    -0.002226147463    -0.000737571652
            -0.002052098650    -0.000665137043    0.196182904721    0.113961344288    -0.002226147463    -0.000737571652    0.139837249524    0.080726518694
0.775     -0.080023531038    0.040991711411    -0.002480757301    0.003016238127    -0.024208083578    0.041778241979    -0.002549812896    0.003124636562
            -0.002480757365    0.003016238204    -0.061788476478    0.069320093714    -0.002552277802    0.003172977856    -0.012090871578    0.061713203098
            -0.024208082074    0.041778239384    -0.002552277802    0.003172977856    -0.076893050211    0.039055609247    -0.002792540625    0.003399353465
