# GHz S RI R 45
0.000     0.056964208000    0.000000000000    -0.000030176625    0.000000000000    0.007874293200    0.000000000000    -0.000020195501    -0.000000000000
            -0.000030176328    0.000000000000    0.062278839000    0.000000000000    -0.000066732032    -0.000000000000    0.007984583900    0.000000000000
            0.007874146900    0.000000000000    -0.000066732431    -0.000000000000    0.059647711000    -0.000000000000    -0.000007257485    -0.000000000000
            -0.000020195305    -0.000000000000    0.007984543400    0.000000000000    -0.000007264354    -0.000000000000    0.056468526000    0.000000000000
0.025     0.164038733041    0.031365871159    -0.000052870399    0.000008750818    0.076129434050    0.033288777502    -0.000054538794    0.000003713281
            -0.000052870346    0.000008750610    0.175423212642    0.030111201794    -0.000063571384    0.000030073027    0.076213377534    0.032051605030
            0.076129383635    0.033288802940    -0.000063571366    0.000030072951    0.167178760295    0.031311676057    -0.000082897329    -0.000002699352
            -0.000054538695    0.000003713093    0.076213339677    0.032051604763    -0.000082897422    -0.000002699442    0.167860483147    0.030929439706
0.050     0.151049286123    -0.102453367745    -0.000087122154    0.000049289958    0.073026522799    -0.046806670022    -0.000077482632    0.000058008930
            -0.000087122206    0.000049289847    0.157694145047    -0.113512918332    -0.000096686877    0.000070067298    0.069736904624    -0.047177925455
            0.073026564712    -0.046806623161    -0.000096686906    0.000070067241    0.154533081424    -0.104229629707    -0.000104109432    0.000089762892
            -0.000077482744    0.000058008739    0.069736876454    -0.047177902848    -0.000104109440    0.000089762868    0.149856216410    -0.108339197457
0.075     0.032958712025    -0.067659332929    0.000034821908    0.000222264402    0.004254545615    -0.005319963076    0.000040210930    0.000192202373
            0.000034821671    0.000222264409    0.032390551262    -0.073415305802    0.000051634617    0.000268574547    0.004446793442    -0.001293692213
            0.004254555017    -0.005319989490    0.000051634530    0.000268574554    0.034837466748    -0.070175808226    0.000061096808    0.000247110533
            0.000040210665    0.000192202429    0.004446779195    -0.001293676031    0.000061096764    0.000247110523    0.028854858138    -0.065772678289
0.100     0.103293393329    -0.002276211282    0.000248803817    0.000002991492    0.080306581801    0.029300938266    0.000227690315    0.000005927601
            0.000248803745    0.000002991653    0.108212402528    -0.010335182849    0.000319196449    0.000000227377    0.082561208776    0.025767415021
            0.080306579255    0.029300962749    0.000319196429    0.000000227459    0.105063894473    -0.003841765694    0.000298781506    0.000011508332
            0.000227690260    0.000005927762    0.082561182993    0.025767433856    0.000298781506    0.000011508330    0.107054528409    -0.004734744487
0.125     0.126053515989    -0.107055098930    0.000164953936    -0.000157775923    0.077024795075    -0.059060843888    0.000144191760    -0.000166386316
            0.000164954023    -0.000157775775    0.119001518399    -0.123523649799    0.000189690322    -0.000219718415    0.067877989867    -0.060094414694
            0.077024846485    -0.059060849152    0.000189690363    -0.000219718354    0.128591733434    -0.110123495726    0.000189427828    -0.000229534637
            0.000144191879    -0.000166386147    0.067877973250    -0.060094385189    0.000189427805    -0.000229534682    0.117289002878    -0.116725809584
0.150     0.016944715477    -0.114664041634    -0.000061051930    -0.000385675741    0.001064426063    -0.025581315452    -0.000075915100    -0.000327593730
            -0.000061051622    -0.000385675759    -0.000177013544    -0.116004084945    -0.000084923305    -0.000455297085    -0.000373385651    -0.013875019886
            0.001064424206    -0.025581367574    -0.000084923224    -0.000455297090    0.017236496254    -0.119113130948    -0.000106571956    -0.000414841611
            -0.000075914921    -0.000327593741    -0.000373392243    -0.013875003703    -0.000106571956    -0.000414841611    0.002058772487    -0.106834544886
0.175     0.036666060242    -0.038475510206    -0.000446440727    -0.000004472600    0.079663553124    0.009956369425    -0.000402450501    -0.000004708179
            -0.000446440654    -0.000004472833    0.031930638438    -0.037772561303    -0.000567129624    -0.000018969698    0.079144987171    0.003791678652
            0.079663547937    0.009956370612    -0.000567129600    -0.000018969796    0.036041319878    -0.041147730053    -0.000515750914    -0.000019049908
            -0.000402450409    -0.000004708389    0.079144981878    0.003791705534    -0.000515750914    -0.000019049908    0.038495145179    -0.032277128921
0.200     0.077495259786    -0.093786709588    -0.000184056625    0.000313397268    0.084908516600    -0.073887899599    -0.000163723410    0.000316487062
            -0.000184056714    0.000313397169    0.061254193555    -0.103205360206    -0.000223888581    0.000431125627    0.068844573137    -0.079207071884
            0.084908554706    -0.073887901509    -0.000223888703    0.000431125495    0.078258035492    -0.096870449370    -0.000226767081    0.000417357826
            -0.000163723502    0.000316486970    0.068844579371    -0.079207039967    -0.000226767027    0.000417357901    0.066312916475    -0.100969301354
0.225     -0.001651690832    -0.125105157317    0.000110730867    0.000466838561    -0.005627622626    -0.058030530787    0.000142257469    0.000394570279
            0.000110730659    0.000466838590    -0.030630599837    -0.111811874487    0.000163994837    0.000540209436    -0.013192071011    -0.035824472178
            -0.005627631261    -0.058030567123    0.000163994837    0.000540209436    -0.003076281284    -0.130059533646    0.000190606270    0.000506174949
            0.000142257245    0.000394570306    -0.013192056120    -0.035824451021    0.000190606291    0.000506174952    -0.025048262084    -0.108143684376
0.250     -0.026763033556    -0.055345821572    0.000638722022    0.000040378726    0.041440560655    0.006465594701    0.000558344931    0.000020610915
            0.000638721963    0.000040379027    -0.030948563971    -0.032455927607    0.000772097197    0.000072251686    0.059177074624    0.007916423098
            0.041440524256    0.006465600951    0.000772097215    0.000072251706    -0.030386864223    -0.057844150259    0.000704459549    0.000043247415
            0.000558344851    0.000020611186    0.059177086687    0.007916446054    0.000704459530    0.000043247395    -0.021223868070    -0.031661787969
0.275     0.020221636274    -0.062929253256    0.000215084713    -0.000518516024    0.078489867114    -0.077676237105    0.000190067401    -0.000501913286
            0.000215085050    -0.000518515711    0.010355412448    -0.059549408714    0.000289668236    -0.000685727333    0.061093523801    -0.091382754208
            0.078489877630    -0.077676212262    0.000289668256    -0.000685727347    0.018548594417    -0.064646788535    0.000274653876    -0.000640647290
            0.000190067468    -0.000501913251    0.061093534193    -0.091382735232    0.000274653882    -0.000640647244    0.017571502248    -0.065095123407
0.300     -0.015024452685    -0.105891021456    -0.000219563398    -0.000487223953    -0.016476434388    -0.097987467611    -0.000268693757    -0.000415551653
            -0.000219563402    -0.000487223963    -0.044807485385    -0.079524435138    -0.000332526365    -0.000575115884    -0.038863113540    -0.066501025615
            -0.016476435279    -0.097987493826    -0.000332526365    -0.000575115884    -0.017578451626    -0.109436605534    -0.000344055497    -0.000549544505
            -0.000268693763    -0.000415551661    -0.038863097899    -0.066500998850    -0.000344055497    -0.000549544505    -0.041352074892    -0.083906055573
0.325     -0.069620474656    -0.056848766987    -0.000742584481    -0.000086441682    -0.013781980517    -0.013665050676    -0.000639389718    -0.000023893688
            -0.000742584506    -0.000086441817    -0.061490550866    -0.010860414935    -0.000873853871    -0.000103805721    0.014638124235    0.004961408398
            -0.013782012124    -0.013665048624    -0.000873853879    -0.000103805568    -0.074908934128    -0.058314783201    -0.000808648412    -0.000049010280
            -0.000639389728    -0.000023893688    0.014638149795    0.004961423328    -0.000808648402    -0.000049010279    -0.055915108339    -0.014939960276
0.350     -0.023805666385    -0.014538387220    -0.000313583729    0.000752715841    0.052229826718    -0.055423546480    -0.000261613012    0.000697388311
            -0.000313583752    0.000752715896    -0.009630229156    -0.009935671833    -0.000423679036    0.000947756927    0.044556970817    -0.083857660350
            0.052229830940    -0.055423521890    -0.000423679036    0.000947756927    -0.027412131866    -0.013341504169    -0.000374891267    0.000869574395
            -0.000261613636    0.000697387756    0.044557049437    -0.083857614046    -0.000374891255    0.000869574367    -0.005439015155    -0.019519896100
0.375     -0.019504232923    -0.068207378026    0.000435830674    0.000532289356    -0.025930565042    -0.118414755024    0.000480330792    0.000460264249
            0.000435830687    0.000532289371    -0.042917752973    -0.043801736718    0.000612547735    0.000657567064    -0.069472455977    -0.086634676024
            -0.025930546514    -0.118414769318    0.000612547396    0.000657567229    -0.022096229605    -0.068294180083    0.000590108974    0.000623935157
            0.000480330813    0.000460264285    -0.069472455977    -0.086634676024    0.000590108950    0.000623935153    -0.045344640618    -0.052510033879
0.400     -0.092660478333    -0.049700500622    0.000761398814    0.000041147322    -0.085948245044    -0.033223898475    0.000650426848    -0.000071696167
            0.000761398842    0.000041147363    -0.071804051252    0.012500279667    0.000890082875    -0.000001949619    -0.053730189594    0.017348030370
            -0.085948266497    -0.033223906768    0.000890082885    -0.000001949623    -0.097129440868    -0.049420564940    0.000837438951    -0.000059833955
            0.000650426860    -0.000071696149    -0.053730092615    0.017348050835    0.000837438958    -0.000059833991    -0.074347759427    0.007767981869
0.425     -0.056417959595    0.031581374342    0.000461545175    -0.000909845246    -0.001859654430    -0.004940672032    0.000348103059    -0.000812170411
            0.000461545510    -0.000909844963    -0.010079469552    0.026701500743    0.000575045092    -0.001096698987    0.015820344475    -0.043114861772
            -0.001859657697    -0.004940649325    0.000575044878    -0.001096699324    -0.060335848805    0.034876505739    0.000488988287    -0.001005378565
            0.000348103117    -0.000812170430    0.015820341682    -0.043114868123    0.000488988269    -0.001005378573    -0.011800670251    0.019291768203
0.450     -0.004552385896    -0.029486572615    -0.000742733249    -0.000666936073    -0.025297695746    -0.102933738687    -0.000749474357    -0.000572200814
            -0.000742732422    -0.000666936501    -0.033494959755    -0.026586758899    -0.000963169440    -0.000830034715    -0.093332263973    -0.085681323876
            -0.025297677780    -0.102933743102    -0.000963169516    -0.000830034780    -0.005633403844    -0.025647844380    -0.000899140204    -0.000775918756
            -0.000749473449    -0.000572200949    -0.093332263973    -0.085681323876    -0.000899140204    -0.000775918756    -0.041347157965    -0.033889571028
0.475     -0.098808538057    -0.039152131203    -0.000797432688    0.000194456982    -0.143642843813    -0.041319810800    -0.000681944264    0.000329107966
            -0.000797432717    0.000194456989    -0.080020997524    0.031889044312    -0.000941995657    0.000311949361    -0.121179484170    0.047602108972
            -0.143642817381    -0.041319830341    -0.000941995666    0.000311949364    -0.099331460117    -0.036748868369    -0.000893159404    0.000347405354
            -0.000681944282    0.000329107974    -0.121179437632    0.047602090691    -0.000893159404    0.000347405354    -0.088670631092    0.031189628928
0.500     -0.082538819563    0.074078288245    -0.000482055872    0.000912870148    -0.071209309165    0.070263701800    -0.000296648901    0.000783844380
            -0.000482055872    0.000912870148    -0.004469564498    0.061766155315    -0.000552929212    0.001071307790    -0.004747620437    0.042952271458
            -0.071209323401    0.070263715847    -0.000552929868    0.001071307226    -0.084484611897    0.077292141606    -0.000446874845    0.000984463240
            -0.000296648768    0.000783844441    -0.004747621607    0.042952268311    -0.000446874673    0.000984463318    -0.009411880183    0.061388092018
0.525     0.017569247054    0.014524958947    0.000983273339    0.000896524024    -0.009286915880    -0.036013046495    0.000931709038    0.000739479832
            0.000983273366    0.000896524143    -0.024955889350    -0.018962268195    0.001199216329    0.001080061007    -0.090970183604    -0.041226570129
            -0.009286901311    -0.036013041990    0.001199215972    0.001080061254    0.018211802422    0.020322932235    0.001108090505    0.000990778473
            0.000931708999    0.000739479881    -0.090970156462    -0.041226596105    0.001108090931    0.000990778297    -0.032770408984    -0.019869439507
0.550     -0.096987358856    -0.034663053852    0.000912206305    -0.000580572357    -0.164957864120    -0.035244518421    0.000777415089    -0.000690350776
            0.000912206032    -0.000580571669    -0.098701940650    0.054046108336    0.001080102685    -0.000748140555    -0.164692169856    0.091876304528
            -0.164957867748    -0.035244549301    0.001080102711    -0.000748140517    -0.092285548464    -0.031722963120    0.001023572045    -0.000748883037
            0.000777415188    -0.000690350816    -0.164692178589    0.091876309400    0.001023571951    -0.000748882996    -0.106996558942    0.058629473321
0.575     -0.102450325787    0.108632940956    0.000216430865    -0.000885675180    -0.126080828134    0.142309587818    -0.000006079173    -0.000736317185
            0.000216430897    -0.000885675244    -0.002404369147    0.109438811208    0.000221302865    -0.001023997787    -0.011160521991    0.147948779940
            -0.126080834765    0.142309595303    0.000221302883    -0.001023997783    -0.100324764536    0.108716756074    0.000125091449    -0.000943892428
            -0.000006078926    -0.000736316807    -0.011160476488    0.147948693117    0.000125091479    -0.000943892404    -0.005476246665    0.115523155145
0.600     0.043905905093    0.072475739804    -0.000965040350    -0.001049309917    0.031313002540    0.074198552976    -0.000860318099    -0.000820888515
            -0.000965040234    -0.001049310159    -0.004374610642    -0.006574821391    -0.001131759422    -0.001226082580    -0.027396472355    0.002545361783
            0.031313010185    0.074198563860    -0.001131759422    -0.001226082580    0.045387433889    0.076472514868    -0.001036315879    -0.001111807092
            -0.000860318099    -0.000820888515    -0.027396485300    0.002545362986    -0.001036315879    -0.001111807092    -0.006847543410    -0.002400024547
0.625     -0.074921476232    -0.032432938067    -0.001131867835    0.000929484244    -0.129639237796    -0.006828455366    -0.000943546623    0.000982042508
            -0.001131867835    0.000929484244    -0.115011048476    0.082663212654    -0.001321128533    0.001101984773    -0.154626296657    0.130221408413
            -0.129639237796    -0.006828455366    -0.001321128533    0.001101984773    -0.066690923720    -0.029735833124    -0.001241776007    0.001068974762
            -0.000943546791    0.000982041654    -0.154626304306    0.130221414855    -0.001241775745    0.001068974913    -0.117318082754    0.088485543222
0.650     -0.112955247529    0.137692518298    0.000213507086    0.000949789408    -0.145377417642    0.192305849914    0.000419188169    0.000778155205
            0.000213506445    0.000949789039    0.005177013236    0.170196281272    0.000253350214    0.001097485381    0.008396954373    0.239947009093
            -0.145377429703    0.192305865868    0.000253350214    0.001097485381    -0.107369269980    0.132712008912    0.000319923886    0.001014402049
            0.000419188220    0.000778155268    0.008396962749    0.239947008800    0.000319923868    0.001014402055    0.006779574270    0.177314159446
0.675     0.062914059894    0.138323955938    0.000764453847    0.000789349358    0.069905061268    0.185650236518    0.000630798651    0.000526314578
            0.000764453446    0.000789349606    0.051890753060    0.028576362827    0.000872225716    0.000928350059    0.079157401365    0.064271409563
            0.069905075080    0.185650263373    0.000872225288    0.000928350188    0.063354956293    0.136707594951    0.000785749666    0.000819064128
            0.000630798608    0.000526314598    0.079157387993    0.064271410168    0.000785749626    0.000819064029    0.055373430035    0.032405160756
0.700     -0.018022111752    -0.031424794747    0.001431819737    -0.001010761698    -0.014066278716    -0.006664493381    0.001189603109    -0.000996476877
            0.001431819933    -0.001010760900    -0.108959998746    0.101212372049    0.001653121189    -0.001125494356    -0.100364068756    0.126906124167
            -0.014066256240    -0.006664512794    0.001653121331    -0.001125494326    -0.010857542283    -0.030513157663    0.001546957276    -0.001082669715
            0.001189603256    -0.000996476859    -0.100364068756    0.126906124167    0.001546957156    -0.001082669712    -0.104957314950    0.103980769426
0.725     -0.113670976622    0.149060397761    -0.000574574517    -0.001114830885    -0.111964836828    0.198118667013    -0.000722111224    -0.000905092343
            -0.000574574517    -0.001114830885    0.031785287971    0.223681198704    -0.000606119997    -0.001289295185    0.052164898001    0.274588815352
            -0.111964836828    0.198118667013    -0.000606119997    -0.001289295185    -0.108793710688    0.141700415790    -0.000641341128    -0.001196364375
            -0.000722111286    -0.000905092421    0.052164902793    0.274588814442    -0.000641341081    -0.001196364286    0.036379606988    0.225876633371
0.750     0.081163090494    0.190921952490    -0.000763627594    -0.000280461603    0.104684154856    0.254180452729    -0.000610168334    -0.000034558553
            -0.000763627594    -0.000280461603    0.133663398466    0.080648175926    -0.000866060606    -0.000376754515    0.196182959974    0.113961408440
            0.104684162472    0.254180471222    -0.000866060624    -0.000376754523    0.079050684358    0.182990533039    -0.000781111021    -0.000294951783
            -0.000610168334    -0.000034558553    0.196182904721    0.113961344288    -0.000781111031    -0.000294951787    0.139837249524    0.080726518694
0.775     0.078676498588    -0.009130584215    -0.001404864340    0.000602616188    0.130203396808    0.017554136993    -0.001141721082    0.000564600033
            -0.001404864340    0.000602616188    -0.061788476478    0.069320093714    -0.001640156590    0.000641157063    -0.012090871578    0.061713203098
            0.130203402813    0.017554092453    -0.001640156683    0.000641157100    0.079588678535    -0.009876395242    -0.001540957050    0.000611425983
