# GHz S RI R 45
0.000     0.062444827000    0.000000000000    0.933715400000    -0.000000000000    0.008066295400    0.000000000000    -0.008725168600    -0.000000000000
            0.933715400000    -0.000000000000    0.062278839000    0.000000000000    -0.008747649100    -0.000000000000    0.007984583900    0.000000000000
            0.008066243100    0.000000000000    -0.008747699900    -0.000000000000    0.056559332000    -0.000000000000    0.938581110000    -0.000000000000
            -0.008725220900    -0.000000000000    0.007984543400    0.000000000000    0.938581110000    -0.000000000000    0.056468526000    0.000000000000
0.025     0.173869331928    0.031511889955    0.409791158614    -0.813116683732    0.075740405715    0.033172657981    -0.011486611417    0.013767851647
            0.409791158614    -0.813116683732    0.175423212642    0.030111201794    -0.011479681591    0.013767247032    0.076213377534    0.032051605030
            0.075740350315    0.033172657349    -0.011479695198    0.013767268236    0.166203409158    0.032287075794    0.412041636792    -0.817669411883
            -0.011486626311    0.013767874384    0.076213339677    0.032051604763    0.412041636792    -0.817669411883    0.167860483147    0.030929439706
0.050     0.159915941431    -0.107869029981    -0.514955191833    -0.742154927588    0.071651494375    -0.044390399189    0.015694878068    0.008935001844
            -0.514955191833    -0.742154927588    0.157694145047    -0.113512918332    0.015696103381    0.008926282715    0.069736904624    -0.047177925455
            0.071651449170    -0.044390367722    0.015696113157    0.008926310028    0.151991919516    -0.103028638509    -0.518600456450    -0.745978501870
            0.015694889256    0.008935030701    0.069736876454    -0.047177902848    -0.518600456450    -0.745978501870    0.149856216410    -0.108339197457
0.075     0.038591948338    -0.072724741001    -0.903174027327    0.114564599089    0.007427914943    -0.001438474331    0.003394207922    -0.003543181483
            -0.903174027327    0.114564599089    0.032390551262    -0.073415305802    0.003371856808    -0.003534477432    0.004446793442    -0.001293692213
            0.007427894558    -0.001438450208    0.003371888235    -0.003534474678    0.034532584796    -0.065302235337    -0.907707803527    0.116502916510
            0.003394241911    -0.003543178835    0.004446779195    -0.001293676031    -0.907707803527    0.116502916510    0.028854858138    -0.065772678289
0.100     0.108547189604    -0.008869443003    -0.306666607697    0.844948937386    0.082246682857    0.027817747947    0.009765729718    -0.007312752883
            -0.306666611109    0.844948946786    0.108212402528    -0.010335182849    0.009778339858    -0.007291694504    0.082561208776    0.025767415021
            0.082246653764    0.027817765302    0.009778355725    -0.007291721739    0.107048025538    -0.003232504067    -0.307000680364    0.849474558737
            0.009765746074    -0.007312781091    0.082561182993    0.025767433856    -0.307000680364    0.849474558737    0.107054528409    -0.004734744487
0.125     0.127086069670    -0.113930542921    0.590426916187    0.663179131436    0.073701943289    -0.053998671207    -0.011228245118    -0.009662599018
            0.590426916187    0.663179131436    0.119001518399    -0.123523649799    -0.011200714171    -0.009653694173    0.067877989867    -0.060094414694
            0.073701916549    -0.053998629871    -0.011200730913    -0.009653722231    0.124879342055    -0.107382061980    0.594462949660    0.665669911431
            -0.011228260354    -0.009662625773    0.067877973250    -0.060094385189    0.594462949660    0.665669911431    0.117289002878    -0.116725809584
0.150     0.018746015914    -0.118737528350    0.866356230319    -0.209546429991    0.009857508752    -0.016081558501    -0.003051880062    0.004401011779
            0.866356230319    -0.209546429991    -0.000177013544    -0.116004084945    -0.003020958911    0.004347415916    -0.000373385651    -0.013875019886
            0.009857503856    -0.016081522796    -0.003020994531    0.004347416980    0.019945404500    -0.109407060982    0.870284677948    -0.212480679742
            -0.003051906504    0.004401012183    -0.000373392243    -0.013875003703    0.870284677948    -0.212480679742    0.002058772487    -0.106834544886
0.175     0.037207555648    -0.047353841800    0.212632230968    -0.860914310612    0.081321310872    0.001094206293    -0.007050785416    0.002521730052
            0.212632230968    -0.860914310612    0.031930638438    -0.037772561303    -0.007115226927    0.002492239846    0.079144987171    0.003791678652
            0.081321304483    0.001094235152    -0.007115242351    0.002492271739    0.043117907986    -0.041039946860    0.211503784821    -0.865337062055
            -0.007050800876    0.002521761954    0.079144981878    0.003791705534    0.211503784821    -0.865337062055    0.038495145179    -0.032277128921
0.200     0.070117712237    -0.098006073363    -0.651826252366    -0.585192042651    0.077745853147    -0.072737667055    0.004323885991    0.010992771833
            -0.651826252366    -0.585192042651    0.061254193555    -0.103205360206    0.004288231326    0.011026303731    0.068844573137    -0.079207071884
            0.077745846475    -0.072737630276    0.004288245776    0.011026324935    0.074929173263    -0.095160156467    -0.655986855222    -0.586237138482
            0.004323906303    0.010992800379    0.068844579371    -0.079207039967    -0.655986855222    -0.586237138482    0.066312916475    -0.100969301354
0.225     -0.003134568765    -0.121478405297    -0.823141646451    0.297923719855    0.005282287907    -0.042765201108    0.005052679771    -0.001065888301
            -0.823141646451    0.297923719855    -0.030630599837    -0.111811874487    0.005039146642    -0.000991163629    -0.013192071011    -0.035824472178
            0.005282297820    -0.042765152526    0.005039185676    -0.000991168292    0.001820578615    -0.117086446756    -0.826135242478    0.301233485313
            0.005052714468    -0.001065891936    -0.013192056120    -0.035824451021    -0.826135242478    0.301233485313    -0.025048262084    -0.108143684376
0.250     -0.023858795234    -0.060767458331    -0.118267445410    0.864532262179    0.062096485417    -0.005141860326    0.007404017930    0.001337771217
            -0.118267445410    0.864532262179    -0.030948563971    -0.032455927607    0.007525141739    0.001368254878    0.059177074624    0.007916423098
            0.062096502402    -0.005141824849    0.007525154787    0.001368222245    -0.014416521407    -0.058330549215    -0.116382379818    0.868726798616
            0.007404030884    0.001337738329    0.059177086687    0.007916446054    -0.116382379818    0.868726798616    -0.021223868070    -0.031661787969
0.275     0.010849949989    -0.065808126912    0.700585539200    0.504923897675    0.068857678114    -0.088674926965    0.003699219733    -0.012511758679
            0.700585539200    0.504923897675    0.010355412448    -0.059549408714    0.003709190441    -0.012626513715    0.061093523801    -0.091382754208
            0.068857688947    -0.088674918553    0.003709173231    -0.012626533362    0.019139467656    -0.069915181768    0.704992963312    0.504934049109
            0.003699197015    -0.012511786252    0.061093534193    -0.091382735232    0.704992963312    0.504934049109    0.017571502248    -0.065095123407
0.300     -0.019729880833    -0.095104296862    0.773411785483    -0.376903673193    -0.014533162140    -0.080150284898    -0.009437258958    -0.005952185102
            0.773411785483    -0.376903673193    -0.044807485385    -0.079524435138    -0.009491761913    -0.005988978518    -0.038863113540    -0.066501025615
            -0.014533161069    -0.080150278994    -0.009491797490    -0.005988970856    -0.015337155278    -0.098874278189    0.775422242922    -0.380695129783
            -0.009437293608    -0.005952177027    -0.038863097899    -0.066500998850    0.775422242922    -0.380695129783    -0.041352074892    -0.083906055573
0.325     -0.058555097657    -0.054167854943    0.027917663514    -0.858708491160    0.016468018617    -0.022765953712    -0.010909248339    -0.000289767124
            0.027917663514    -0.858708491160    -0.061490550866    -0.010860414935    -0.011010657394    -0.000300345482    0.014638124235    0.004961408398
            0.016468027677    -0.022765957032    -0.011010668334    -0.000300311164    -0.052298926814    -0.057018296695    0.025439589632    -0.862404137294
            -0.010909258246    -0.000289733090    0.014638149795    0.004961423328    0.025439589632    -0.862404137294    -0.055915108339    -0.014939960276
0.350     -0.026671930091    -0.026542765564    -0.740059499063    -0.421819536569    0.044208342122    -0.087835797045    -0.009692649350    0.016187420319
            -0.740059507751    -0.421819541521    -0.009630229156    -0.009935671833    -0.009711871980    0.016346211155    0.044556970817    -0.083857660350
            0.044208344820    -0.087835802404    -0.009711847536    0.016346234983    -0.020208685123    -0.034765417537    -0.744655426612    -0.421066291995
            -0.009692624694    0.016187443242    0.044557049437    -0.083857614046    -0.744655426612    -0.421066291995    -0.005439015155    -0.019519896100
0.375     -0.031268245970    -0.060347023603    -0.715725043279    0.448390889907    -0.045390003604    -0.106047648295    0.015561465715    0.014820462199
            -0.715725043279    0.448390889907    -0.042917752973    -0.043801736718    0.015681731441    0.014808701506    -0.069472455977    -0.086634676024
            -0.045389950847    -0.106047627366    0.015681759664    0.014808693467    -0.031341333074    -0.069827114589    -0.716886801594    0.452810968937
            0.015561498926    0.014820453428    -0.069472455977    -0.086634676024    -0.716886810049    0.452810974277    -0.045344640618    -0.052510033879
0.400     -0.077094727170    -0.035288144815    0.057075875390    0.841915649173    -0.057069688645    -0.025960402599    0.017583810236    -0.005543255575
            0.057075890084    0.841915648177    -0.071804051252    0.012500279667    0.017598853080    -0.005589624984    -0.053730189594    0.017348030370
            -0.057069679563    -0.025960410489    0.017598858888    -0.005589656248    -0.078416817189    -0.040799452350    0.060366668686    0.844891786403
            0.017583816885    -0.005543287699    -0.053730092615    0.017348050835    0.060366668686    0.844891786403    -0.074347759427    0.007767981869
0.425     -0.043677384857    0.006763107340    0.770004285517    0.339555495531    -0.000245915875    -0.054816416392    0.010811753005    -0.022026931839
            0.770004285517    0.339555495531    -0.010079469552    0.026701500743    0.010842186842    -0.022118632201    0.015820344475    -0.043114861772
            -0.000245916867    -0.054816424388    0.010842164607    -0.022118654237    -0.043095293740    -0.000684909616    0.774351134478    0.337945105778
            0.010811730500    -0.022026954025    0.015820341682    -0.043114868123    0.774351134478    0.337945105778    -0.011800670251    0.019291768203
0.450     -0.036523860697    -0.035516265400    0.650657134319    -0.515428860782    -0.076802202139    -0.106279645650    -0.025108275482    -0.022874937710
            0.650657134319    -0.515428860782    -0.033494959755    -0.026586758899    -0.025255166864    -0.022903448927    -0.093332263973    -0.085681323876
            -0.076802098656    -0.106279658742    -0.025255193224    -0.022903440700    -0.041349632220    -0.045157932747    0.650895840347    -0.520182362400
            -0.025108305793    -0.022874925227    -0.093332263973    -0.085681323876    0.650895840347    -0.520182362400    -0.041347157965    -0.033889571028
0.475     -0.094131854577    -0.008556681150    -0.139623269095    -0.810840753115    -0.133369781645    -0.005919885581    -0.025862262950    0.017280807504
            -0.139623269095    -0.810840753115    -0.080020997524    0.031889044312    -0.025872369142    0.017384743684    -0.121179484170    0.047602108972
            -0.133369771654    -0.005919885137    -0.025872376668    0.017384788068    -0.101918507027    -0.012413619927    -0.143613252692    -0.812946166859
            -0.025862270319    0.017280845073    -0.121179437632    0.047602090691    -0.143613252692    -0.812946166859    -0.088670631092    0.031189628928
0.500     -0.048772156466    0.045568858465    -0.786313978684    -0.260718242126    -0.043957583270    0.026343553429    -0.005038014719    0.027169991665
            -0.786313978684    -0.260718242126    -0.004469564498    0.061766155315    -0.005033799359    0.027164660669    -0.004747620437    0.042952271458
            -0.043957587868    0.026343545757    -0.005033799724    0.027164662636    -0.053312073656    0.043663060598    -0.790030851637    -0.258261871601
            -0.005038015083    0.027169993632    -0.004747621607    0.042952268311    -0.790030851637    -0.258261871601    -0.009411880183    0.061388092018
0.525     -0.037784918189    -0.017815147547    -0.584540371545    0.575895039836    -0.091882443603    -0.053619916236    0.035954784658    0.027130490424
            -0.584540371545    0.575895039836    -0.024955889350    -0.018962268195    0.036030022033    0.027219289971    -0.090970183604    -0.041226570129
            -0.091882380259    -0.053619965261    0.036030016789    0.027219291936    -0.044294973724    -0.021866752255    -0.583882928128    0.580404429283
            0.035954855389    0.027130458115    -0.090970156462    -0.041226596105    -0.583882928128    0.580404429283    -0.032770408984    -0.019869439507
0.550     -0.116741581004    0.024737662117    0.221976878094    0.765490552337    -0.187014936950    0.038414335877    0.034337808320    -0.036950626809
            0.221976878094    0.765490552337    -0.098701940650    0.054046108336    0.034429572745    -0.037072035331    -0.164692169856    0.091876304528
            -0.187014936950    0.038414335877    0.034429580745    -0.037072116610    -0.126164841144    0.025197468374    0.226142800751    0.766680346365
            0.034337809037    -0.036950628874    -0.164692178589    0.091876309400    0.226142800751    0.766680346365    -0.106996558942    0.058629473321
0.575     -0.049322142267    0.100495732059    0.780863362135    0.183175628740    -0.072843742546    0.131897062901    -0.013362493184    -0.030324101570
            0.780863362135    0.183175628740    -0.002404369147    0.109438811208    -0.013450795233    -0.030362013897    -0.011160521991    0.147948779940
            -0.072843760732    0.131897041434    -0.013450859061    -0.030362057807    -0.054798075982    0.104701344316    0.783767523851    0.180324107050
            -0.013362521966    -0.030324123856    -0.011160476488    0.147948693117    0.783767523851    0.180324107050    -0.005476246665    0.115523155145
0.600     -0.021192148502    0.005695663260    0.521787755963    -0.624853074373    -0.045581694942    0.011259756298    -0.039080211747    -0.027786290426
            0.521787755963    -0.624853074373    -0.004374610642    -0.006574821391    -0.039085846403    -0.027847017785    -0.027396472355    0.002545361783
            -0.045581670884    0.011259674386    -0.039085917048    -0.027846985841    -0.024665553523    0.008116996923    0.520626523587    -0.628780833856
            -0.039080282329    -0.027786258458    -0.027396485300    0.002545362986    0.520626523587    -0.628780833856    -0.006847543410    -0.002400024547
0.625     -0.133142397326    0.063292179277    -0.302413495688    -0.714740971795    -0.182527331735    0.092173721228    -0.042915421822    0.057958245828
            -0.302413495688    -0.714740971795    -0.115011048476    0.082663212654    -0.043053279774    0.058050034834    -0.154626296657    0.130221408413
            -0.182527294264    0.092173662325    -0.043053287513    0.058050066445    -0.137837444462    0.067109180646    -0.306300109362    -0.715498926394
            -0.042915419444    0.057958284919    -0.154626304306    0.130221414855    -0.306300109362    -0.715498926394    -0.117318082754    0.088485543222
0.650     -0.040200077675    0.168170078120    -0.754473488667    -0.102989704757    -0.066584696056    0.232082302749    0.045433086068    0.034058281009
            -0.754473488667    -0.102989704757    0.005177013236    0.170196281272    0.045565826887    0.034231265524    0.008396954373    0.239947009093
            -0.066584690541    0.232082283525    0.045565890638    0.034231307197    -0.042277585409    0.174657890276    -0.756852396311    -0.100175200670
            0.045433150651    0.034058323230    0.008396962749    0.239947008800    -0.756852396311    -0.100175200670    0.006779574270    0.177314159446
0.675     0.028657453849    0.056878166328    -0.467571272948    0.644156262426    0.042662760001    0.102607910955    0.030012620277    0.006501652567
            -0.467571272948    0.644156262426    0.051890753060    0.028576362827    0.030075465970    0.006729009825    0.079157401365    0.064271409563
            0.042662744386    0.102607863298    0.030075502130    0.006728994765    0.031184677759    0.058781862202    -0.466630115694    0.647975197262
            0.030012690561    0.006501616243    0.079157387993    0.064271410168    -0.466630115694    0.647975197262    0.055373430035    0.032405160756
0.700     -0.122807473452    0.090346493484    0.375554661971    0.671742607356    -0.119550218097    0.118005143494    0.050184348603    -0.065727108019
            0.375554661971    0.671742607356    -0.108959998746    0.101212372049    0.050248404471    -0.065830319262    -0.100364068756    0.126906124167
            -0.119550225213    0.118005150519    0.050248404536    -0.065830321729    -0.120794984091    0.093739701625    0.379016585071    0.672637621460
            0.050184348669    -0.065727110484    -0.100364068756    0.126906124167    0.379016585071    0.672637621460    -0.104957314950    0.103980769426
0.725     -0.010388445166    0.227817557257    0.723796520944    0.019509996426    -0.016247983436    0.280644813464    -0.075777701285    -0.042114917329
            0.723796520910    0.019509997689    0.031785287971    0.223681198704    -0.075918527361    -0.042257272233    0.052164898001    0.274588815352
            -0.016247978538    0.280644813747    -0.075918528235    -0.042257272720    -0.007942849617    0.231250001863    0.726434334154    0.016807259043
            -0.075777735374    -0.042114936274    0.052164902793    0.274588814442    0.726434334124    0.016807260311    0.036379606988    0.225876633371
0.750     0.109241936167    0.113192009346    0.408289374784    -0.632704672036    0.149861635559    0.178063642555    -0.022691167319    0.038731197825
            0.408289374784    -0.632704672036    0.133663398466    0.080648175926    -0.022936186560    0.038907492132    0.196182959974    0.113961408440
            0.149861593368    0.178063573501    -0.022936180466    0.038907481795    0.113670053018    0.116030395862    0.407288208758    -0.636293923126
            -0.022691161253    0.038731187471    0.196182904721    0.113961344288    0.407288208758    -0.636293923126    0.139837249524    0.080726518694
0.775     -0.058775604999    0.078868489547    -0.424495472189    -0.650775933325    -0.005669566895    0.090288315663    -0.039728845155    0.044629556110
            -0.424495472189    -0.650775933325    -0.061788476478    0.069320093714    -0.039276092188    0.044745201878    -0.012090871578    0.061713203098
            -0.005669562857    0.090288326938    -0.039276094167    0.044745204132    -0.052041886381    0.079474167619    -0.428065394810    -0.651936536850
