# GHz S RI R 45
0.000     0.057760493000    0.000000000000    -0.000266124390    0.000000000000    0.007898569600    0.000000000000    -0.000141939550    0.000000000000
            -0.000266124130    0.000000000000    0.062278839000    0.000000000000    -0.000437103200    0.000000000000    0.007984583900    0.000000000000
            0.007898918200    0.000000000000    -0.000437100710    0.000000000000    0.060356480000    -0.000000000000    -0.000500547870    0.000000000000
            -0.000141938780    0.000000000000    0.007984543400    0.000000000000    -0.000500548060    0.000000000000    0.056468526000    0.000000000000
0.025     0.163173762664    0.032650301054    -0.000634531706    0.000038235396    0.075278793198    0.034681585120    -0.000494852060    -0.000041312102
            -0.000634531300    0.000038234815    0.175423212642    0.030111201794    -0.000906398343    0.000193291295    0.076213377534    0.032051605030
            0.075278847073    0.034681492079    -0.000906397954    0.000193290054    0.166429447870    0.032536785560    -0.000838053843    0.000275118685
            -0.000494852420    -0.000041315002    0.076213339677    0.032051604763    -0.000838054451    0.000275118884    0.167860483147    0.030929439706
0.050     0.153333544422    -0.097679989763    -0.000937092998    0.000607859352    0.075093060738    -0.043474667726    -0.000777018532    0.000472423899
            -0.000937093590    0.000607858807    0.157694145047    -0.113512918332    -0.000995292953    0.000915155631    0.069736904624    -0.047177925455
            0.075093011999    -0.043474706005    -0.000995293653    0.000915155313    0.156675918941    -0.099650303691    -0.000769037358    0.000932761342
            -0.000777020596    0.000472424411    0.069736876454    -0.047177902848    -0.000769037251    0.000932762208    0.149856216410    -0.108339197457
0.075     0.038319832552    -0.066852347535    0.000280506758    0.002437921836    0.007213849787    -0.005483167836    0.000201188663    0.001913478392
            0.000280506259    0.002437921994    0.032390551262    -0.073415305802    0.000515015050    0.002908196606    0.004446793442    -0.001293692213
            0.007213885412    -0.005483149226    0.000515014374    0.002908196929    0.040052015303    -0.069157390724    0.000621721178    0.002397419258
            0.000201188989    0.001913479564    0.004446779195    -0.001293676031    0.000621722241    0.002397419396    0.028854858138    -0.065772678289
0.100     0.103962517879    -0.000410926950    0.003030216157    0.000174114581    0.079276888927    0.031860324986    0.002347135185    0.000186329003
            0.003030215841    0.000174114849    0.108212402528    -0.010335182849    0.003781610962    0.000021468412    0.082561208776    0.025767415021
            0.079276907261    0.031860239141    0.003781610657    0.000021469211    0.105964441282    -0.002089977812    0.003181273446    -0.000076885495
            0.002347135854    0.000186329423    0.082561182993    0.025767433856    0.003181274214    -0.000076886808    0.107054528409    -0.004734744487
0.125     0.132678806525    -0.099216482314    0.001646216968    -0.002123451333    0.082441015819    -0.051858859355    0.001358667073    -0.001659818843
            0.001646217918    -0.002123450723    0.119001518399    -0.123523649799    0.001730500032    -0.002765888849    0.067877989867    -0.060094414694
            0.082440934199    -0.051858878300    0.001730500524    -0.002765888777    0.134788920071    -0.102656696698    0.001495658987    -0.002472590495
            0.001358667348    -0.001659819652    0.067877973250    -0.060094385189    0.001495658608    -0.002472590842    0.117289002878    -0.116725809584
0.150     0.031050325804    -0.115347650321    -0.000631376318    -0.003884441310    0.011148692055    -0.026566832298    -0.000525325978    -0.003080351668
            -0.000631376602    -0.003884441770    -0.000177013544    -0.116004084945    -0.000901833820    -0.004432029249    -0.000373385651    -0.013875019886
            0.011148703079    -0.026566776700    -0.000901833860    -0.004432029445    0.030804413080    -0.119373387605    -0.001063353879    -0.003838565254
            -0.000525327352    -0.003080351941    -0.000373392243    -0.013875003703    -0.001063354469    -0.003838564779    0.002058772487    -0.106834544886
0.175     0.042142322114    -0.043981762975    -0.005235045330    -0.000468900764    0.081310055606    0.008090873230    -0.004058485839    -0.000347712347
            -0.005235045031    -0.000468900737    0.031930638438    -0.037772561303    -0.006247281605    -0.000550181231    0.079144987171    0.003791678652
            0.081310090140    0.008090819052    -0.006247281206    -0.000550181195    0.041618624977    -0.046436292690    -0.005323976958    -0.000127167881
            -0.004058485302    -0.000347711588    0.079144981878    0.003791705534    -0.005323977180    -0.000127166957    0.038495145179    -0.032277128921
0.200     0.084676647566    -0.090026255621    -0.001994812520    0.004318743504    0.091344222657    -0.067095242002    -0.001613035844    0.003318522312
            -0.001994813692    0.004318742082    0.061254193555    -0.103205360206    -0.002335180242    0.005384526863    0.068844573137    -0.079207071884
            0.091344148262    -0.067095275716    -0.002335180982    0.005384525997    0.084926914649    -0.093251936326    -0.001815809527    0.004599156677
            -0.001613036336    0.003318521851    0.068844579371    -0.079207039967    -0.001815808798    0.004599157180    0.066312916475    -0.100969301354
0.225     0.017505565477    -0.129121500281    0.001720740983    0.004475558917    0.010957889880    -0.060662190401    0.001353056308    0.003579674254
            0.001720740339    0.004475559807    -0.030630599837    -0.111811874487    0.002317322113    0.005111896804    -0.013192071011    -0.035824472178
            0.010957873557    -0.060662124249    0.002317321482    0.005111897310    0.015411371442    -0.133419279280    0.002181445144    0.004431755322
            0.001353056183    0.003579674302    -0.013192056120    -0.035824451021    0.002181445067    0.004431754580    -0.025048262084    -0.108143684376
0.250     -0.017207729559    -0.073008815767    0.006659932455    0.000898308196    0.046966280774    -0.005259394516    0.005263496307    0.000627592269
            0.006659932406    0.000898308556    -0.030948563971    -0.032455927607    0.007671607866    0.001057726103    0.059177074624    0.007916423098
            0.046966333743    -0.005259415720    0.007671608031    0.001057725634    -0.020910682084    -0.074835451495    0.006769229769    0.000428264395
            0.005263495842    0.000627591944    0.059177086687    0.007916446054    0.006769229643    0.000428263212    -0.021223868070    -0.031661787969
0.275     0.021874341049    -0.070358369129    0.002866164975    -0.006553399417    0.081154855606    -0.077388904178    0.002176541223    -0.005079954338
            0.002866164774    -0.006553398958    0.010355412448    -0.059549408714    0.003648038712    -0.007771735633    0.061093523801    -0.091382754208
            0.081154806497    -0.077388941185    0.003648038771    -0.007771735053    0.019834934258    -0.071541066374    0.002537242878    -0.006783873317
            0.002176540662    -0.005079954252    0.061093534193    -0.091382735232    0.002537242001    -0.006783873859    0.017571502248    -0.065095123407
0.300     -0.000493798209    -0.112894030069    -0.003715790046    -0.004955824140    0.001092590460    -0.102260303327    -0.002828969788    -0.003912736314
            -0.003715788821    -0.004955824309    -0.044807485385    -0.079524435138    -0.004668143301    -0.006069301270    -0.038863113540    -0.066501025615
            0.001092548662    -0.102260233770    -0.004668134689    -0.006069303226    -0.003293442184    -0.115557237107    -0.004064447437    -0.004869809424
            -0.002828969436    -0.003912735828    -0.038863097899    -0.066500998850    -0.004064448159    -0.004869808561    -0.041352074892    -0.083906055573
0.325     -0.059765219023    -0.083386219972    -0.007262746820    -0.000541465360    -0.005085343364    -0.035446294677    -0.005787598312    -0.000396455613
            -0.007262747718    -0.000541465427    -0.061490550866    -0.010860414935    -0.008445906642    -0.000464790103    0.014638124235    0.004961408398
            -0.005085287370    -0.035446278465    -0.008445907042    -0.000464790125    -0.065134816233    -0.084027368173    -0.007375896347    -0.000071459725
            -0.005787598480    -0.000396454609    0.014638149795    0.004961423328    -0.007375895547    -0.000071459717    -0.055915108339    -0.014939960276
0.350     -0.034721885249    -0.035055235084    -0.004247591960    0.008252498609    0.046139132711    -0.066071963145    -0.003157124176    0.006547951170
            -0.004247591777    0.008252498253    -0.009630229156    -0.009935671833    -0.005257850969    0.009511130436    0.044556970817    -0.083857660350
            0.046139113542    -0.066072019221    -0.005257850485    0.009511129561    -0.038339396323    -0.032669234251    -0.003745759184    0.008571616068
            -0.003157123872    0.006547950539    0.044557049437    -0.083857614046    -0.003745760360    0.008571614681    -0.005439015155    -0.019519896100
0.375     -0.019889293579    -0.075923816892    0.006321847801    0.006392783876    -0.016379284778    -0.122704638686    0.004873463208    0.004833090900
            0.006321846581    0.006392783536    -0.042917752973    -0.043801736718    0.007421628899    0.008120797011    -0.069472455977    -0.086634676024
            -0.016379350159    -0.122704589604    0.007421628758    0.008120797140    -0.021868636981    -0.074905246847    0.006624599429    0.006071653313
            0.004873462653    0.004833090181    -0.069472455977    -0.086634676024    0.006624599420    0.006071652879    -0.045344640618    -0.052510033879
0.400     -0.087296225403    -0.075240906033    0.007688250493    -0.001347276771    -0.077062254702    -0.060061605797    0.006041603196    -0.000924660938
            0.007688250896    -0.001347276786    -0.071804051252    0.012500279667    0.009524653164    -0.001756042705    -0.053730189594    0.017348030370
            -0.077062252336    -0.060061603953    0.009524653361    -0.001756042741    -0.091571776846    -0.074551545824    0.007779818546    -0.001641220640
            0.006041602965    -0.000924661129    -0.053730092615    0.017348050835    0.007779817970    -0.001641220944    -0.074347759427    0.007767981869
0.425     -0.078660823686    0.003261616993    0.004832154136    -0.008836962428    -0.019139565592    -0.027402205153    0.003681257581    -0.007120432362
            0.004832153519    -0.008836962765    -0.010079469552    0.026701500743    0.005675416465    -0.010396349295    0.015820344475    -0.043114861772
            -0.019139538953    -0.027402268892    0.005675419071    -0.010396346733    -0.082526516638    0.008072266153    0.004309972780    -0.009284391902
            0.003681256959    -0.007120432683    0.015820341682    -0.043114868123    0.004309972197    -0.009284391070    -0.011800670251    0.019291768203
0.450     -0.025850307120    -0.030488495990    -0.008793773961    -0.008723220446    -0.032105305437    -0.103932233563    -0.007005995896    -0.006431391136
            -0.008793774774    -0.008723218207    -0.033494959755    -0.026586758899    -0.010120785239    -0.010805277873    -0.093332263973    -0.085681323876
            -0.032105380947    -0.103932220704    -0.010120784556    -0.010805277143    -0.025242543963    -0.025656043489    -0.009291709148    -0.008095518948
            -0.007005995086    -0.006431390392    -0.093332263973    -0.085681323876    -0.009291709148    -0.008095518948    -0.041347157965    -0.033889571028
0.475     -0.101528843611    -0.051579774663    -0.009334281023    0.004788789992    -0.138317322181    -0.063335725383    -0.006993835339    0.003550847729
            -0.009334280969    0.004788787907    -0.080020997524    0.031889044312    -0.011826320588    0.005495823401    -0.121179484170    0.047602108972
            -0.138317289737    -0.063335652121    -0.011826319682    0.005495822979    -0.101489783900    -0.049662215266    -0.009060317058    0.004998314661
            -0.006993834626    0.003550847367    -0.121179437632    0.047602090691    -0.009060317058    0.004998314661    -0.088670631092    0.031189628928
0.500     -0.109266323392    0.047423661362    -0.002867101507    0.008806293574    -0.097052527468    0.041012502824    -0.002448088253    0.007005400433
            -0.002867101754    0.008806294335    -0.004469564498    0.061766155315    -0.003442821132    0.011007845599    -0.004747620437    0.042952271458
            -0.097052470147    0.041012458637    -0.003442821431    0.011007846553    -0.111482502357    0.051890706565    -0.002695675793    0.009258061323
            -0.002448088220    0.007005400338    -0.004747621607    0.042952268311    -0.002695668469    0.009258066268    -0.009411880183    0.061388092018
0.525     -0.020621287698    0.022396381958    0.009531488665    0.010348937769    -0.037618063950    -0.030905599154    0.007863454703    0.007746151422
            0.009531488710    0.010348936368    -0.024955889350    -0.018962268195    0.011299754616    0.012437086588    -0.090970183604    -0.041226570129
            -0.037618117249    -0.030905631946    0.011299754833    0.012437086390    -0.017690119014    0.029254664752    0.010381073417    0.009628481223
            0.007863454667    0.007746150034    -0.090970156462    -0.041226596105    0.010381077236    0.009628480046    -0.032770408984    -0.019869439507
0.550     -0.103620268949    -0.025550301118    0.012009329599    -0.008428385877    -0.164892540003    -0.041546267792    0.008610496499    -0.006578895446
            0.012009328927    -0.008428385093    -0.098701940650    0.054046108336    0.014881666016    -0.009678294198    -0.164692169856    0.091876304528
            -0.164892544808    -0.041546207791    0.014881666184    -0.009678293938    -0.098153277156    -0.024103108124    0.011206183469    -0.008868370085
            0.008610496843    -0.006578894995    -0.164692178589    0.091876309400    0.011206183315    -0.008868370281    -0.106996558942    0.058629473321
0.575     -0.123109496819    0.093923498250    -0.001588173552    -0.009999330321    -0.153034584121    0.116089199192    -0.000799878248    -0.007465453519
            -0.001588171999    -0.009999329556    -0.002404369147    0.109438811208    -0.001580221829    -0.012669478417    -0.011160521991    0.147948779940
            -0.153034508090    0.116089183596    -0.001580220600    -0.012669477562    -0.121930495721    0.094703016051    -0.001573743451    -0.009947536815
            -0.000799877381    -0.007465452807    -0.011160476488    0.147948693117    -0.001573744145    -0.009947536705    -0.005476246665    0.115523155145
0.600     -0.000541578064    0.087196722148    -0.008326677464    -0.008813949452    -0.014116035032    0.086035529068    -0.006930868602    -0.007105356059
            -0.008326678151    -0.008813950178    -0.004374610642    -0.006574821391    -0.010494718351    -0.010702005715    -0.027396472355    0.002545361783
            -0.014116050314    0.086035471839    -0.010494719051    -0.010702006429    0.002913534645    0.092508117619    -0.009340887119    -0.008638957708
            -0.006930869912    -0.007105354921    -0.027396485300    0.002545362986    -0.009340886385    -0.008638957029    -0.006847543410    -0.002400024547
0.625     -0.081635939570    -0.000404964506    -0.014180301275    0.009759762832    -0.133474475605    0.009687908821    -0.010153054307    0.008124841803
            -0.014180301275    0.009759762832    -0.115011048476    0.082663212654    -0.017254952395    0.011577806091    -0.154626296657    0.130221408413
            -0.133474493862    0.009687933565    -0.017254952395    0.011577806091    -0.072450826575    -0.000410589321    -0.013136188389    0.010745036199
            -0.010153054307    0.008124841803    -0.154626304306    0.130221414855    -0.013136187615    0.010745035566    -0.117318082754    0.088485543222
0.650     -0.119272183083    0.137570429666    0.005813565412    0.012508815501    -0.163812675229    0.178518916427    0.004104575495    0.008723039979
            0.005813564554    0.012508814797    0.005177013236    0.170196281272    0.006662457662    0.015505494172    0.008396954373    0.239947009093
            -0.163812630549    0.178518930282    0.006662456602    0.015505492451    -0.115363154561    0.132881796422    0.005987194409    0.011769965074
            0.004104574825    0.008723039741    0.008396962749    0.239947008800    0.005987195068    0.011769965861    0.006779574270    0.177314159446
0.675     0.027464834363    0.154041157935    0.008237387009    0.003284948384    0.020546542512    0.201020062807    0.006242562199    0.003280745619
            0.008237386586    0.003284949715    0.051890753060    0.028576362827    0.010412303423    0.004303595479    0.079157401365    0.064271409563
            0.020546506869    0.201020026242    0.010412302973    0.004303596569    0.029105229674    0.153988611599    0.008587942757    0.003490314782
            0.006242561996    0.003280745791    0.079157387993    0.064271410168    0.008587942318    0.003490313206    0.055373430035    0.032405160756
0.700     -0.020830234930    0.016078585425    0.014050201862    -0.007630253089    -0.021820994710    0.039386605932    0.010769155731    -0.006874112914
            0.014050203273    -0.007630252585    -0.108959998746    0.101212372049    0.017076085876    -0.009450783105    -0.100364068756    0.126906124167
            -0.021820973782    0.039386584374    0.017076087081    -0.009450782993    -0.012656845729    0.014815324426    0.013455485331    -0.009102918796
            0.010769156934    -0.006874112888    -0.100364068756    0.126906124167    0.013455484185    -0.009102918706    -0.104957314950    0.103980769426
0.725     -0.097209467918    0.162428980831    -0.006940009531    -0.014574921126    -0.112474640145    0.201971100365    -0.005481957568    -0.009878280586
            -0.006940011215    -0.014574918109    0.031785287971    0.223681198704    -0.008306171858    -0.017941815082    0.052164898001    0.274588815352
            -0.112474609760    0.201971128732    -0.008306167467    -0.017941813809    -0.092639455609    0.154086555627    -0.007610802585    -0.013419327450
            -0.005481958807    -0.009878278755    0.052164902793    0.274588814442    -0.007610802585    -0.013419327450    0.036379606988    0.225876633371
0.750     0.064566531536    0.202662684611    -0.011047783437    0.001367226307    0.068440286154    0.270018057181    -0.007591520881    0.000215712852
            -0.011047773751    0.001367223151    0.133663398466    0.080648175926    -0.013506548183    0.001567006165    0.196182959974    0.113961408440
            0.068440325709    0.270017995574    -0.013506547190    0.001567006050    0.062881566164    0.196729255744    -0.010566456248    0.001413419644
            -0.007591519981    0.000215712826    0.196182904721    0.113961344288    -0.010566456992    0.001413421620    0.139837249524    0.080726518694
0.775     0.077393156815    0.040379674898    -0.008655158123    0.004908593288    0.119674663918    0.079423460156    -0.007604292385    0.004090179833
            -0.008655160110    0.004908592419    -0.061788476478    0.069320093714    -0.010734969999    0.006043541095    -0.012090871578    0.061713203098
            0.119674604208    0.079423423537    -0.010734970870    0.006043541586    0.079349349223    0.038077135663    -0.008884432641    0.005769745884
