# GHz S RI R 45
0.000     0.083007327000    0.000000000000    -0.000017827549    0.000000000000    0.003021240600    -0.000000000000    -0.000024823992    -0.000000000000
            -0.000011909940    -0.000000000000    0.076239358000    -0.000000000000    -0.000011663208    0.000000000000    0.005350456800    -0.000000000000
            0.003978956400    -0.000000000000    -0.000006496519    0.000000000000    0.080690941000    -0.000000000000    -0.000017187241    0.000000000000
            -0.000000342629    0.000000000000    0.006184566900    0.000000000000    0.000014662951    0.000000000000    0.077879598000    -0.000000000000
0.025     0.151233468938    -0.002206875203    -0.000020541048    0.000010903091    0.087420755712    0.031147244273    -0.000031181774    0.000017652326
            -0.000016321928    0.000007127371    0.147796105762    0.006164284766    -0.000009525173    0.000015536590    0.082252662205    0.041853946117
            0.087311181621    0.030280991243    -0.000003094249    0.000005711418    0.150978570711    -0.002553332357    -0.000022760155    0.000014895207
            -0.000017390401    -0.000007160847    0.082825903302    0.041328352326    -0.000011990896    -0.000013131306    0.148109571006    0.006475703258
0.050     0.082938975867    -0.095894037724    -0.000027318662    0.000034958986    0.044827304806    -0.055515299191    -0.000018267960    0.000048509017
            -0.000028079636    0.000025264752    0.101150231277    -0.076446806335    -0.000013716142    0.000015917423    0.070755505671    -0.025134877955
            0.043878921528    -0.055323889766    -0.000028150459    0.000012087391    0.082071537465    -0.095981044839    -0.000015631244    0.000033101313
            -0.000041027878    0.000026523114    0.070779535498    -0.025999632850    -0.000035232981    0.000010841921    0.101140355679    -0.077475552136
0.075     0.011937726359    0.030110625291    0.000069850154    0.000059347133    -0.007663413888    0.071165658139    0.000063026011    0.000059694397
            0.000058241574    0.000059648550    0.069851768612    0.004736256911    0.000058096748    0.000039614114    0.064891591678    0.048032425032
            -0.007030944309    0.072134227900    0.000060254556    0.000048329793    0.012167711972    0.030500558199    0.000058901627    0.000044984575
            0.000039282494    0.000073833961    0.064376335509    0.047340403594    0.000026870569    0.000054959263    0.068912659499    0.004295863384
0.100     0.176677336652    0.006503685306    0.000035459816    -0.000056205875    0.171790073963    0.046710820103    0.000072498492    -0.000040953076
            0.000032759650    -0.000049416597    0.177932506573    -0.019348412618    -0.000000478717    -0.000062068798    0.181165626488    -0.005111096271
            0.172520509159    0.046200320429    -0.000001758887    -0.000062111112    0.176604288750    0.005551435410    0.000030150685    -0.000047329090
            0.000071023676    -0.000015721444    0.180386190701    -0.005193212971    0.000029837638    -0.000010543635    0.177935972748    -0.018686761864
0.125     0.102958351240    -0.134269993306    0.000029985575    -0.000032033347    0.101239929873    -0.114992740050    0.000024193855    -0.000079290657
            0.000031497385    -0.000021234371    0.109491396212    -0.131207490764    0.000013304955    0.000006233702    0.094264988760    -0.126383353241
            0.100532341382    -0.115725404677    0.000020364010    0.000011871952    0.101374433149    -0.134444254229    0.000023622013    -0.000027946237
            0.000053663375    -0.000063707815    0.093532408200    -0.125908619973    0.000060461878    -0.000018716543    0.109210227114    -0.131358836654
0.150     0.004419419934    -0.016891081355    -0.000094234971    -0.000101293161    -0.009247642430    0.004912345566    -0.000096815038    -0.000094663215
            -0.000076731201    -0.000102175156    0.047466148666    -0.047545742343    -0.000080479111    -0.000057685164    0.030691769385    -0.027789893627
            -0.009990193409    0.005800639596    -0.000077102591    -0.000069605963    0.004445661631    -0.015565407171    -0.000073066690    -0.000077627672
            -0.000076381470    -0.000126145094    0.030583779524    -0.026839304084    -0.000058374058    -0.000106725765    0.047252731971    -0.046638030964
0.175     0.161309794513    -0.004987183833    -0.000054147306    0.000100284663    0.159254451150    0.025073871918    -0.000105805781    0.000071970964
            -0.000055905953    0.000085572600    0.145731899758    -0.089905457860    0.000031594402    0.000094121094    0.140910235772    -0.082371024736
            0.160070394905    0.025740710282    0.000022792046    0.000094457666    0.161990077872    -0.005924754149    -0.000037776645    0.000054227677
            -0.000127120171    0.000052240601    0.141500475541    -0.081741757178    -0.000051474764    0.000030887868    0.146683939470    -0.089848396900
0.200     0.122827203405    -0.165161766290    -0.000005836302    0.000022935622    0.131869527455    -0.147470821098    -0.000013654815    0.000108788241
            -0.000012910030    0.000020261550    0.042397614553    -0.196708353474    -0.000020263793    -0.000061666409    0.010349719968    -0.197419944653
            0.132333587431    -0.148162744366    -0.000019660165    -0.000058903204    0.121172356592    -0.165648360824    -0.000054870192    0.000029838165
            -0.000036525227    0.000114554059    0.011018582249    -0.197263085565    -0.000088711447    0.000031029393    0.042339836332    -0.197035215777
0.225     -0.006235516822    -0.111152515051    0.000062894166    0.000118907105    -0.000670708601    -0.107815883825    0.000116460877    0.000117417712
            0.000051869694    0.000119723056    -0.052969160013    -0.076571885189    0.000035058176    0.000106110700    -0.094105226299    -0.037411885147
            -0.001476586346    -0.108047950936    0.000031547415    0.000108113253    -0.006242330866    -0.109164719066    0.000086672705    0.000143643987
            0.000110524746    0.000145201675    -0.093296717218    -0.037646161200    0.000084181582    0.000182449855    -0.051915014158    -0.076075240837
0.250     0.073833685319    -0.053150204111    0.000114504812    -0.000091784490    0.058536926801    -0.057935363824    0.000159280287    -0.000104968081
            0.000113989275    -0.000075520081    0.066749332797    -0.058477431827    0.000017804474    -0.000100711621    0.060022147476    -0.009107735236
            0.058448320090    -0.056934810644    0.000024676020    -0.000093432795    0.075952037836    -0.053963019481    0.000106752595    -0.000094720641
            0.000187071138    -0.000093529328    0.060488877448    -0.010086355545    0.000135530481    -0.000091404931    0.068114518498    -0.060553584678
0.275     0.067751699057    -0.157533070981    0.000008782787    -0.000087542621    0.034500748346    -0.135178788566    -0.000007234156    -0.000167948912
            0.000022096804    -0.000087126048    -0.011287134644    -0.165139596979    0.000021414412    0.000042240261    -0.010992966115    -0.129208064810
            0.035620489302    -0.134978438301    0.000028168198    0.000032485778    0.066716642892    -0.159016845887    0.000042300377    -0.000090475833
            0.000008475094    -0.000189123410    -0.011569165985    -0.130165736080    0.000055868033    -0.000102343376    -0.013063103823    -0.166245849880
0.300     -0.030019086639    -0.145036612897    -0.000110165633    -0.000120756596    -0.031003174493    -0.104514029736    -0.000178845409    -0.000117061556
            -0.000106600963    -0.000126170842    -0.104817837530    -0.037106208112    -0.000040346085    -0.000124310149    -0.098196516949    0.004004114121
            -0.030626769145    -0.105604236540    -0.000049919048    -0.000129069408    -0.029966115009    -0.143581159770    -0.000158496413    -0.000156522781
            -0.000192037445    -0.000135696134    -0.099118891885    0.003903730733    -0.000158481635    -0.000182229708    -0.104015976973    -0.035362570018
0.325     -0.020818019039    -0.110319462660    -0.000145659295    0.000104875089    -0.017323313061    -0.105103428376    -0.000189166259    0.000167475801
            -0.000144399069    0.000094850511    0.056422824865    0.015676222088    -0.000049969656    0.000108398136    0.076115475215    0.046764740925
            -0.018164153125    -0.105369200694    -0.000051951149    0.000113782818    -0.018696651590    -0.111642166716    -0.000127836458    0.000184160856
            -0.000207431350    0.000171658795    0.075658598186    0.047002475379    -0.000158864024    0.000180774738    0.058861037331    0.013001679269
0.350     -0.054126520263    -0.133250840406    -0.000007201715    0.000155659943    -0.090509591670    -0.111404560268    0.000064930398    0.000215335922
            -0.000020392784    0.000152407229    0.030022982076    -0.143422018469    -0.000014493938    -0.000018366741    0.049051114808    -0.122755073942
            -0.090474717007    -0.110520005598    -0.000016155234    -0.000017194565    -0.055381611225    -0.135463239850    0.000030721019    0.000095095209
            0.000058364645    0.000231703276    0.048451817698    -0.122231027863    0.000024209875    0.000120832613    0.027230157936    -0.145132220585
0.375     -0.094639351451    -0.070373302851    0.000206430071    0.000122832041    -0.100451335469    -0.002946143646    0.000239293221    0.000085793281
            0.000202785391    0.000131840419    -0.098456552226    -0.073230754220    0.000063432991    0.000129631975    -0.072401775942    -0.063794086720
            -0.099313728181    -0.003308110761    0.000065982660    0.000136875900    -0.094295899893    -0.069573329065    0.000159237509    0.000128150437
            0.000255576718    0.000102149182    -0.072432300813    -0.062583173720    0.000174993370    0.000141631564    -0.097102399579    -0.069855517115
0.400     -0.042466752177    -0.062601191844    0.000155680790    -0.000205561297    -0.011712374037    -0.022177280279    0.000196434059    -0.000246949334
            0.000157367021    -0.000199407397    0.012309580825    0.000954009434    0.000060027620    -0.000126678368    0.012728629218    -0.009355381511
            -0.012162558263    -0.023660974063    0.000073062726    -0.000136063015    -0.040441380201    -0.066007056619    0.000152972836    -0.000203119918
            0.000216629798    -0.000264274543    0.013926797308    -0.008697901586    0.000172087570    -0.000209573726    0.017724325170    -0.003108541740
0.425     -0.115917787908    -0.105767858370    -0.000064473666    -0.000180827762    -0.100230914285    -0.075754612567    -0.000153466738    -0.000237762857
            -0.000054217644    -0.000177408355    0.009625797093    -0.153789481591    0.000033301406    0.000019979043    -0.012666411931    -0.124828823716
            -0.101676545654    -0.075426044029    0.000020299892    0.000011195603    -0.119570452928    -0.108173095205    -0.000066630460    -0.000124129164
            -0.000167162803    -0.000254413402    -0.011726800588    -0.125383344399    -0.000065291390    -0.000145421170    0.006066183897    -0.158602443505
0.450     -0.172887216397    0.021335765939    -0.000251948578    -0.000089154847    -0.139766150847    0.057726317845    -0.000260521222    -0.000022280133
            -0.000246757412    -0.000099474603    -0.164822222355    -0.108999399668    -0.000075500182    -0.000205789713    -0.139683845164    -0.068124651419
            -0.139508321729    0.058854341284    -0.000077106287    -0.000196793202    -0.172703129588    0.024237601074    -0.000169594810    -0.000126045981
            -0.000272729340    -0.000018054423    -0.139429012433    -0.068640016214    -0.000189576458    -0.000135135980    -0.164864895481    -0.106142280058
0.475     -0.029065584541    0.073706541497    -0.000172725490    0.000289189290    0.005803857576    0.086537639444    -0.000205492444    0.000285669032
            -0.000177746410    0.000284002286    -0.109906533559    0.033108573732    -0.000182461790    0.000189718685    -0.094026152052    0.033181871700
            0.006623261220    0.085965725708    -0.000184676145    0.000187854146    -0.025402065144    0.069491023100    -0.000239976226    0.000226302182
            -0.000213687914    0.000297807839    -0.093707738192    0.032468025664    -0.000255609074    0.000243640126    -0.104433420892    0.028017900806
0.500     -0.041220393809    -0.065727959990    0.000190513315    0.000201101629    -0.012409557249    -0.037941544860    0.000251123651    0.000286358237
            0.000183694173    0.000198160823    -0.050861916973    -0.050495797791    0.000065865415    0.000056172646    -0.060725224728    -0.008128462802
            -0.013480325735    -0.038687479851    0.000067286996    0.000071890786    -0.047483545069    -0.069739423833    0.000161858204    0.000244822917
            0.000267792657    0.000302671561    -0.061269289331    -0.009272288934    0.000175139535    0.000261468428    -0.056625533819    -0.057555390357
0.525     -0.167593999439    0.030056878301    0.000279444065    -0.000007518141    -0.098101958667    0.037772899888    0.000310076543    -0.000070168802
            0.000271990116    0.000001274088    -0.177444188181    -0.016457719829    0.000143417140    0.000174730559    -0.114269363876    0.036890930749
            -0.099018020224    0.038933222814    0.000160829261    0.000163767018    -0.168781297267    0.035700513136    0.000281418472    0.000031756453
            0.000326182386    -0.000088814522    -0.115601119949    0.036815118396    0.000297016928    0.000027120072    -0.179840828404    -0.012565350176
0.550     -0.032905078357    0.144060086471    0.000136253468    -0.000338101864    0.000126504434    0.095376879105    0.000171174746    -0.000337551683
            0.000143024411    -0.000329511516    -0.112793001031    0.127104490001    0.000227241205    -0.000296691499    -0.049862881494    0.099647536311
            0.000947253001    0.096486386294    0.000214208855    -0.000306875690    -0.026830309889    0.141446347504    0.000205339163    -0.000327908657
            0.000156045077    -0.000350874829    -0.050521696625    0.100500979564    0.000210280332    -0.000342727121    -0.107546639575    0.123554362131
0.575     0.038632146810    -0.002594172721    -0.000297713013    -0.000217592467    0.026010803629    -0.009615931816    -0.000345312823    -0.000336445245
            -0.000289665830    -0.000217435242    -0.011472744186    0.060325315721    -0.000250367201    -0.000135019281    -0.011216104951    0.048432975032
            0.027022942857    -0.010309236540    -0.000253006806    -0.000131920915    0.034018317824    -0.008438768300    -0.000300334769    -0.000296164933
            -0.000357577262    -0.000330146458    -0.011226750014    0.049139304924    -0.000315062212    -0.000307925071    -0.017108546497    0.054084441778
0.600     -0.089051149541    0.000973363365    -0.000314297879    0.000142544723    -0.050829200278    0.016077146262    -0.000402334005    0.000203410719
            -0.000306819722    0.000134013463    -0.077120528979    0.040160435599    -0.000182995031    0.000031309335    -0.037836655230    0.053440879101
            -0.051337690039    0.015532706583    -0.000193126408    0.000035319667    -0.090789619409    0.005704680822    -0.000356689351    0.000141685761
            -0.000404989410    0.000218211329    -0.037697243727    0.054203507595    -0.000370315710    0.000153819382    -0.078577596329    0.044584009946
0.625     -0.032161923140    0.081416143837    -0.000012526516    0.000398058710    -0.004025888767    0.037622343121    -0.000045248916    0.000475470329
            -0.000020413288    0.000387102852    -0.025667150008    0.095995347842    -0.000052034079    0.000317342629    0.009269278037    0.053458883110
            -0.004436107685    0.038542449302    -0.000040732526    0.000331742432    -0.027106479707    0.078624580397    -0.000035159222    0.000424497227
            -0.000027576188    0.000482508609    0.010154898499    0.054129036363    -0.000029873551    0.000438411019    -0.020274835784    0.090750602419
0.650     -0.013912214211    0.008214867510    0.000377184158    0.000142349868    -0.039048302224    -0.009141779836    0.000508884848    0.000236098811
            0.000366139826    0.000144934609    -0.004499659453    0.017574658203    0.000272234712    0.000045487211    -0.026440915870    -0.003564872873
            -0.037665275239    -0.008409723973    0.000281899125    0.000034019193    -0.017843849262    0.004245600913    0.000396054953    0.000168905659
            0.000517260007    0.000220377386    -0.025249025193    -0.003910921593    0.000411123379    0.000171395296    -0.011060965817    0.011358245533
0.675     -0.064473067794    0.051605332505    0.000300445532    -0.000253499808    -0.062928545771    0.066952169296    0.000370382741    -0.000364675282
            0.000294236040    -0.000241201241    -0.072671848217    0.044298540593    0.000167852836    -0.000123257440    -0.068868244823    0.063077534292
            -0.061835627955    0.065564728099    0.000167223210    -0.000131556600    -0.062939030622    0.053909479740    0.000320277119    -0.000243958159
            0.000362007360    -0.000376686821    -0.068440012945    0.062038179834    0.000327068743    -0.000259606453    -0.072934519065    0.047104081215
0.700     0.007477891287    0.041789143236    -0.000135641474    -0.000441951969    0.014647058061    0.042153412508    -0.000130177187    -0.000550456093
            -0.000121010698    -0.000430535519    -0.025998868798    0.065672947132    -0.000091619398    -0.000286627892    -0.006466115358    0.066142778983
            0.013499997328    0.041100500342    -0.000107702181    -0.000294603161    0.009887428986    0.033654297449    -0.000089602185    -0.000472671711
            -0.000149064694    -0.000548332995    -0.006797882232    0.065242188799    -0.000101574243    -0.000480429925    -0.023639217138    0.056651959298
0.725     -0.095777590242    -0.029481320483    -0.000435095721    0.000022140049    -0.079417854670    0.017545446837    -0.000640141295    0.000003219404
            -0.000424506402    0.000011781536    -0.090403666737    0.028911099081    -0.000177278036    0.000049566298    -0.074881253048    0.042520098212
            -0.081819387829    0.016406457074    -0.000181087447    0.000071926778    -0.105027026097    -0.030299739603    -0.000469778834    -0.000024370544
            -0.000640236915    0.000025126551    -0.075549088807    0.042096415506    -0.000479022532    -0.000022622640    -0.101883601284    0.025748559978
0.750     -0.135169543059    0.145903103281    -0.000159233039    0.000281942909    -0.096928324042    0.144308427533    -0.000138979789    0.000470818729
            -0.000158670912    0.000274414799    -0.107323978051    0.165282874114    -0.000174923775    0.000064890699    -0.066228397302    0.163497523830
            -0.095745607955    0.144123349993    -0.000162268330    0.000061953087    -0.131131895253    0.151408269157    -0.000200309561    0.000323107926
            -0.000122518327    0.000473372038    -0.066962563198    0.163406190561    -0.000206304994    0.000338710280    -0.105843732967    0.171127592322
0.775     0.045078771020    0.146249678554    0.000142112101    0.000391714105    0.048092099201    0.127653939757    0.000190220957    0.000416001162
            0.000130845153    0.000379559343    0.039538797129    0.165744569236    0.000080106907    0.000352021402    0.065315800954    0.140158836782
            0.047868053277    0.126014586439    0.000080221187    0.000354885638    0.049669149459    0.135014101276    0.000145253224    0.000427664146
