# GHz S RI R 45
0.000     0.077308157000    0.000000000000    -0.000001670329    -0.000000000000    0.005346047100    -0.000000000000    -0.000025717497    0.000000000000
            -0.000001848578    0.000000000000    0.076239358000    -0.000000000000    -0.000018767568    0.000000000000    0.005350456800    -0.000000000000
            0.006400153300    0.000000000000    0.000030550727    -0.000000000000    0.078605849000    -0.000000000000    -0.000031179615    0.000000000000
            0.000029928656    -0.000000000000    0.006184566900    0.000000000000    -0.000029008237    0.000000000000    0.077879598000    -0.000000000000
0.025     0.148715995457    0.005082805461    -0.000030059115    -0.000003280143    0.082938308652    0.041571163952    -0.000024726924    0.000017117610
            -0.000030043507    -0.000002453683    0.147796105762    0.006164284766    -0.000013431354    0.000014315276    0.082252662205    0.041853946117
            0.083650841334    0.040910075147    -0.000014202554    -0.000027399657    0.148627565832    0.005421137490    -0.000011000180    0.000023622344
            -0.000021799906    -0.000028762416    0.082825903302    0.041328352326    -0.000009741002    0.000021921067    0.148109571006    0.006475703258
0.050     0.099247948497    -0.076095901216    -0.000003138253    0.000025842018    0.069457200440    -0.025073889910    0.000013143105    0.000011356194
            -0.000001000881    0.000025735311    0.101150231277    -0.076446806335    0.000011358953    0.000006580254    0.070755505671    -0.025134877955
            0.069477513173    -0.026132572619    -0.000014103049    0.000015264058    0.099166480603    -0.076972538510    0.000018389641    -0.000004836426
            -0.000011856022    0.000014666026    0.070779535498    -0.025999632850    0.000017718806    -0.000006739249    0.101140355679    -0.077475552136
0.075     0.072367883478    0.007394175786    0.000006399543    -0.000019865119    0.067106883141    0.049964337704    -0.000016501169    -0.000030046636
            0.000005934381    -0.000022809665    0.069851768612    0.004736256911    -0.000012470192    -0.000017357081    0.064891591678    0.048032425032
            0.066482203806    0.049117298245    0.000013508250    -0.000011447038    0.071332081804    0.006656090083    -0.000028192187    -0.000026899272
            0.000005658982    -0.000028581284    0.064376335509    0.047340403594    -0.000029802465    -0.000027206218    0.068912659499    0.004295863384
0.100     0.179568022280    -0.023562631399    -0.000024166723    0.000000800320    0.182494229419    -0.009426810389    -0.000025139241    0.000023986999
            -0.000026755925    0.000001650993    0.177932506573    -0.019348412618    -0.000012489107    0.000021638012    0.181165626488    -0.005111096271
            0.181532402275    -0.009539517043    -0.000019422000    -0.000020378594    0.179172015660    -0.022985318192    -0.000014764976    0.000031262051
            -0.000036828382    -0.000017753184    0.180386190701    -0.005193212971    -0.000015247081    0.000031444443    0.177935972748    -0.018686761864
0.125     0.103849517954    -0.130930047925    0.000020806552    -0.000000171208    0.088570233829    -0.126849728473    0.000045822427    -0.000012242743
            0.000022263354    0.000001525053    0.109491396212    -0.131207490764    0.000034782914    -0.000007288575    0.094264988760    -0.126383353241
            0.087667512675    -0.126247272771    -0.000016550638    0.000002876081    0.103735318835    -0.131239068648    0.000045288935    -0.000023120943
            -0.000008980462    -0.000000459664    0.093532408200    -0.125908619973    0.000043842499    -0.000023241883    0.109210227114    -0.131358836654
0.150     0.050781368960    -0.042796374175    -0.000020209142    -0.000067957540    0.033030551517    -0.023684230290    -0.000046713139    -0.000096081660
            -0.000020443048    -0.000071121180    0.047466148666    -0.047545742343    -0.000034942118    -0.000062336566    0.030691769385    -0.027789893627
            0.032932272369    -0.022528830751    -0.000018774546    -0.000016159755    0.050139702529    -0.042944206533    -0.000057931887    -0.000081683637
            -0.000034826176    -0.000045350913    0.030583779524    -0.026839304084    -0.000059419274    -0.000079160593    0.047252731971    -0.046638030964
0.175     0.144805850370    -0.096322460549    -0.000059937333    -0.000000156110    0.139118257301    -0.088696513096    -0.000076025709    0.000026159496
            -0.000063657381    0.000001112622    0.145731899758    -0.089905457860    -0.000047457587    0.000030755753    0.140910235772    -0.082371024736
            0.139830708169    -0.087955498311    -0.000024839727    0.000006808602    0.144528155695    -0.096329269105    -0.000060301070    0.000042191024
            -0.000050437176    0.000011679987    0.141500475541    -0.081741757178    -0.000057776754    0.000044610816    0.146683939470    -0.089848396900
0.200     0.031519359465    -0.193169959792    -0.000003856930    -0.000009258487    -0.001391320692    -0.193527268771    0.000022257276    -0.000012861809
            -0.000002382359    -0.000005421931    0.042397614553    -0.196708353474    0.000025388089    -0.000002051747    0.010349719968    -0.197419944653
            -0.000573451218    -0.193339089563    -0.000008853113    -0.000001904583    0.031274179341    -0.193524381251    0.000033482781    -0.000015432604
            -0.000002801595    -0.000012347676    0.011018582249    -0.197263085565    0.000036112211    -0.000016788003    0.042339836332    -0.197035215777
0.225     -0.049543971643    -0.065626095595    -0.000075318334    -0.000073139649    -0.090615790552    -0.025122063197    -0.000099851108    -0.000108463832
            -0.000072812371    -0.000075129611    -0.052969160013    -0.076571885189    -0.000063821184    -0.000076170968    -0.094105226299    -0.037411885147
            -0.089646643267    -0.025463118948    -0.000045782074    -0.000026585452    -0.049772102247    -0.066349069053    -0.000094517132    -0.000098413532
            -0.000079199035    -0.000065405111    -0.093296717218    -0.037646161200    -0.000094754726    -0.000100248949    -0.051915014158    -0.076075240837
0.250     0.067420777151    -0.063581106566    -0.000110847335    0.000061372279    0.062386756703    -0.013757678556    -0.000144079458    0.000094261444
            -0.000113276656    0.000061227433    0.066749332797    -0.058477431827    -0.000096300049    0.000079679268    0.060022147476    -0.009107735236
            0.062846841663    -0.014934460715    -0.000043806838    0.000049453039    0.066405508484    -0.064761610241    -0.000119684042    0.000099516281
            -0.000092291194    0.000063979499    0.060488877448    -0.010086355545    -0.000119219838    0.000100087151    0.068114518498    -0.060553584678
0.275     -0.022111718123    -0.157380843028    0.000000734596    0.000030546921    -0.020420862538    -0.122561400486    0.000030629819    0.000041911128
            0.000002603850    0.000033371234    -0.011287134644    -0.165139596979    0.000040462575    0.000035524464    -0.010992966115    -0.129208064810
            -0.021131548227    -0.123607060679    0.000009345983    -0.000003594372    -0.023990118088    -0.157405309930    0.000049503413    0.000033281414
            0.000004693114    -0.000002312619    -0.011569165985    -0.130165736080    0.000051109938    0.000030127237    -0.013063103823    -0.166245849880
0.300     -0.097358696934    -0.022467397342    -0.000093128776    -0.000041912102    -0.089865893719    0.017223345646    -0.000107947344    -0.000079954473
            -0.000089852489    -0.000044684056    -0.104817837530    -0.037106208112    -0.000064052429    -0.000066659425    -0.098196516949    0.004004114121
            -0.090907836610    0.017130943336    -0.000080936809    -0.000034144059    -0.097875401319    -0.021580431504    -0.000091275340    -0.000087879158
            -0.000131706657    -0.000057798951    -0.099118891885    0.003903730733    -0.000095592086    -0.000091043680    -0.104015976973    -0.035362570018
0.325     0.063033631153    0.008706715452    -0.000117297715    0.000133562173    0.083336887767    0.038147220521    -0.000161713513    0.000161098716
            -0.000119818978    0.000130776882    0.056422824865    0.015676222088    -0.000117828725    0.000118775132    0.076115475215    0.046764740925
            0.082772848562    0.038443157591    -0.000078781463    0.000108653040    0.062680117916    0.007854209661    -0.000147351871    0.000142419209
            -0.000136389614    0.000156196216    0.075658598186    0.047002475379    -0.000151229670    0.000146453816    0.058861037331    0.013001679269
0.350     0.019190673863    -0.140865044194    0.000053174093    0.000067842066    0.038491409667    -0.122354691326    0.000078209090    0.000096853216
            0.000051958401    0.000069612789    0.030022982076    -0.143422018469    0.000070110777    0.000074304940    0.049051114808    -0.122755073942
            0.037870378767    -0.121634047188    0.000040415077    0.000030417763    0.016877117581    -0.140466496085    0.000079681821    0.000083737997
            0.000051026412    0.000063596803    0.048451817698    -0.122231027863    0.000082143166    0.000086667431    0.027230157936    -0.145132220585
0.375     -0.096403116836    -0.059677561189    -0.000076124298    -0.000035281202    -0.071694303269    -0.053319166810    -0.000076490782    -0.000067496578
            -0.000074215483    -0.000037213983    -0.098456552226    -0.073230754220    -0.000043307668    -0.000058676616    -0.072401775942    -0.063794086720
            -0.071536998981    -0.051989705666    -0.000088505533    -0.000021880645    -0.095863561805    -0.057083173546    -0.000063043726    -0.000075991842
            -0.000118031433    -0.000032309985    -0.072432300813    -0.062583173720    -0.000062968148    -0.000077112143    -0.097102399579    -0.069855517115
0.400     0.017270600446    -0.002623206255    -0.000109346819    0.000166821808    0.014065777129    -0.012414304819    -0.000157218088    0.000188631252
            -0.000112206829    0.000165922845    0.012309580825    0.000954009434    -0.000119193974    0.000133886344    0.012728629218    -0.009355381511
            0.015416034760    -0.011861991453    -0.000081749835    0.000167909118    0.019596522651    -0.004459855164    -0.000151489087    0.000158986674
            -0.000123613880    0.000227320051    0.013926797308    -0.008697901586    -0.000152485345    0.000162660876    0.017724325170    -0.003108541740
0.425     -0.005548688547    -0.151850908247    0.000098676252    0.000087050373    -0.025821706372    -0.119504238509    0.000119677938    0.000132360313
            0.000097404382    0.000089971985    0.009625797093    -0.153789481591    0.000090970837    0.000100345524    -0.012666411931    -0.124828823716
            -0.024859409573    -0.120168815083    0.000101998355    0.000067180797    -0.008423088969    -0.153594152682    0.000099866493    0.000124151594
            0.000139674804    0.000106098731    -0.011726800588    -0.125383344399    0.000105623586    0.000125795063    0.006066183897    -0.158602443505
0.450     -0.171579417768    -0.086095411659    -0.000054767783    -0.000034777036    -0.142802308572    -0.048585866103    -0.000036859765    -0.000050971649
            -0.000052863966    -0.000033273674    -0.164822222355    -0.108999399668    -0.000015120583    -0.000035323070    -0.139683845164    -0.068124651419
            -0.142528526665    -0.049215174346    -0.000047453484    -0.000025251069    -0.171934097852    -0.083328348624    -0.000019283832    -0.000041389800
            -0.000057300433    -0.000049744964    -0.139429012433    -0.068640016214    -0.000016142641    -0.000046579198    -0.164864895481    -0.106142280058
0.475     -0.099865518150    0.045754455264    -0.000115546386    0.000179383642    -0.086631347406    0.044357737591    -0.000145473193    0.000185692713
            -0.000115151719    0.000178856424    -0.109906533559    0.033108573732    -0.000101643310    0.000124621816    -0.094026152052    0.033181871700
            -0.086451581660    0.043471295831    -0.000074989330    0.000163901384    -0.097301009333    0.043418482541    -0.000125289179    0.000147982157
            -0.000124569582    0.000212544550    -0.093707738192    0.032468025664    -0.000128658637    0.000144442824    -0.104433420892    0.028017900806
0.500     -0.056349991571    -0.044141696599    0.000151026127    0.000140711252    -0.061076380277    0.001300664983    0.000162532569    0.000180394112
            0.000151926603    0.000142098603    -0.050861916973    -0.050495797791    0.000115632714    0.000128415093    -0.060725224728    -0.008128462802
            -0.061894080826    0.000233692782    0.000155854955    0.000092783330    -0.060816170297    -0.046785602724    0.000132514896    0.000159816312
            0.000196263304    0.000147337719    -0.061269289331    -0.009272288934    0.000131501025    0.000161062852    -0.056625533819    -0.057555390357
0.525     -0.176166403963    0.011114535652    -0.000018391974    -0.000037461399    -0.105927215618    0.054626857176    0.000003719172    -0.000043044365
            -0.000016109849    -0.000038545579    -0.177444188181    -0.016457719829    0.000006901957    -0.000025720271    -0.114269363876    0.036890930749
            -0.107297537080    0.054797581691    -0.000024103348    -0.000057695395    -0.177543775069    0.015657254674    0.000020191942    -0.000027225117
            -0.000025824192    -0.000076823597    -0.115601119949    0.036815118396    0.000019982521    -0.000029751547    -0.179840828404    -0.012565350176
0.550     -0.088221144015    0.140938770224    -0.000090401099    0.000200905156    -0.032567702187    0.104820345585    -0.000103459764    0.000201491941
            -0.000090344312    0.000198435664    -0.112793001031    0.127104490001    -0.000064370784    0.000130470068    -0.049862881494    0.099647536311
            -0.033120120986    0.105802128002    -0.000083950068    0.000156912600    -0.084518779693    0.140326910429    -0.000072605580    0.000145413639
            -0.000131328592    0.000223105100    -0.050521696625    0.100500979564    -0.000077736069    0.000144547494    -0.107546639575    0.123554362131
0.575     -0.005181252999    0.057021265906    0.000219595664    0.000184071072    -0.006596460942    0.048100388422    0.000218526602    0.000208762259
            0.000218192312    0.000183398947    -0.011472744186    0.060325315721    0.000139291049    0.000131928787    -0.011216104951    0.048432975032
            -0.006480697698    0.048892889514    0.000170807954    0.000132872447    -0.008214298705    0.055449220114    0.000162748399    0.000158882059
            0.000239903281    0.000220305827    -0.011226750014    0.049139304924    0.000159847731    0.000164523506    -0.017108546497    0.054084441778
0.600     -0.072984569859    0.056336524378    0.000055507147    -0.000072717227    -0.030801215854    0.062149005950    0.000068206204    -0.000053996545
            0.000054865692    -0.000073290677    -0.077120528979    0.040160435599    0.000026955665    -0.000024825027    -0.037836655230    0.053440879101
            -0.030415047047    0.062917107179    0.000010194846    -0.000063553497    -0.071883413292    0.060866207879    0.000048737888    -0.000029786754
            0.000058983889    -0.000080953365    -0.037697243727    0.054203507595    0.000052683810    -0.000025938413    -0.078577596329    0.044584009946
0.625     -0.007141848341    0.096771928713    -0.000033655728    0.000214947688    0.017832798295    0.049451178418    -0.000013866692    0.000231411170
            -0.000035216260    0.000214644618    -0.025667150008    0.095995347842    -0.000000980222    0.000169226171    0.009269278037    0.053458883110
            0.018896725542    0.049868642445    -0.000047266177    0.000194341423    -0.002479104140    0.094076509993    0.000003059189    0.000183719802
            -0.000051134291    0.000254668027    0.010154898499    0.054129036363    0.000005876187    0.000183064274    -0.020274835784    0.090750602419
0.650     -0.013069661678    0.014757325775    0.000331362311    0.000131035415    -0.036596920349    0.000815309853    0.000349831251    0.000131495522
            0.000329645782    0.000132586505    -0.004499659453    0.017574658203    0.000225721402    0.000070083594    -0.026440915870    -0.003564872873
            -0.035508834843    0.000179789875    0.000255783402    0.000116205554    -0.015692436086    0.012730219868    0.000265366151    0.000087111980
            0.000381162371    0.000175106129    -0.025249025193    -0.003910921593    0.000266617180    0.000087213757    -0.011060965817    0.011358245533
0.675     -0.070182609840    0.067437047674    0.000096118520    -0.000151456724    -0.060716242784    0.083039513448    0.000103069769    -0.000132173695
            0.000096666577    -0.000149260455    -0.072671848217    0.044298540593    0.000030560261    -0.000059332399    -0.068868244823    0.063077534292
            -0.060531014868    0.081878710389    0.000062237963    -0.000092458588    -0.067247694935    0.069078855453    0.000059130029    -0.000074386974
            0.000139293897    -0.000164410113    -0.068440012945    0.062038179834    0.000062509359    -0.000074699815    -0.072934519065    0.047104081215
0.700     -0.013451027851    0.068054519037    0.000012653068    0.000161505429    0.004037888265    0.065031156131    0.000067241656    0.000182271930
            0.000014578897    0.000161977120    -0.025998868798    0.065672947132    0.000069568495    0.000158842906    -0.006466115358    0.066142778983
            0.003420431972    0.064186382807    0.000030568397    0.000148959950    -0.011816793812    0.061387685853    0.000090350214    0.000170882826
            0.000034852378    0.000163368429    -0.006797882232    0.065242188799    0.000092927897    0.000165831485    -0.023639217138    0.056651959298
0.725     -0.101202944071    0.049649903654    0.000345568671    -0.000006728031    -0.079749655516    0.061798176150    0.000381572705    -0.000057923924
            0.000345462144    -0.000006756526    -0.090403666737    0.028911099081    0.000250380756    -0.000070786492    -0.074881253048    0.042520098212
            -0.080562013055    0.061619222548    0.000265980696    -0.000024527634    -0.106973212065    0.050335993902    0.000311713041    -0.000081266023
            0.000388613770    -0.000023038404    -0.075549088807    0.042096415506    0.000307468881    -0.000086058843    -0.101883601284    0.025748559978
0.750     -0.077366423095    0.199392044639    0.000051734567    -0.000194865022    -0.035259710724    0.185053348286    0.000026307073    -0.000203951233
            0.000053534662    -0.000194371908    -0.107323978051    0.165282874114    -0.000025325866    -0.000097038136    -0.066228397302    0.163497523830
            -0.035971103570    0.185194716543    0.000021586965    -0.000126109085    -0.071871872418    0.202127635914    -0.000000459817    -0.000140978380
            0.000061955814    -0.000229853821    -0.066962563198    0.163406190561    -0.000005419888    -0.000139282958    -0.105843732967    0.171127592322
0.775     0.071602590831    0.154107531111    -0.000002949847    0.000106587719    0.089365055133    0.123443397123    0.000034564955    0.000140120942
            -0.000000979871    0.000104996958    0.039538797129    0.165744569236    0.000049690189    0.000134355985    0.065315800954    0.140158836782
            0.088585972888    0.124118771042    0.000015984453    0.000087843611    0.072601621646    0.145608338159    0.000066734803    0.000134666016
