# GHz S RI R 45
0.000     0.076437805000    -0.000000000000    0.000002570534    0.000000000000    0.005327096900    -0.000000000000    0.000001491332    0.000000000000
            0.000002545066    0.000000000000    0.076239358000    -0.000000000000    -0.000000343613    -0.000000000000    0.005350456800    -0.000000000000
            0.006078787500    0.000000000000    -0.000000342640    -0.000000000000    0.077031480000    -0.000000000000    0.000000346882    -0.000000000000
            0.000001527350    -0.000000000000    0.006184566900    0.000000000000    0.000000339338    0.000000000000    0.077879598000    -0.000000000000
0.025     0.147308444667    0.006729354976    0.000005502636    0.000003260929    0.081905396251    0.042217117912    0.000002536312    -0.000000026438
            0.000005508764    0.000003263124    0.147796105762    0.006164284766    0.000001577451    0.000003307673    0.082252662205    0.041853946117
            0.082506955226    0.041736569223    0.000001581023    0.000003304563    0.147889069943    0.007534391234    0.000000550647    0.000000280299
            0.000002546525    -0.000000028510    0.082825903302    0.041328352326    0.000000555523    0.000000286769    0.148109571006    0.006475703258
0.050     0.102232646533    -0.076176935704    -0.000011331237    0.000015646607    0.071516276864    -0.024840667324    -0.000005650403    0.000006176036
            -0.000011314023    0.000015645974    0.101150231277    -0.076446806335    -0.000002780542    0.000007053934    0.070755505671    -0.025134877955
            0.071561402146    -0.025726546602    -0.000002793360    0.000007050472    0.102365522118    -0.077448680016    -0.000001157118    0.000002093637
            -0.000005662268    0.000006172789    0.070779535498    -0.025999632850    -0.000001135506    0.000002092054    0.101140355679    -0.077475552136
0.075     0.068647943570    0.004268398387    0.000013457425    0.000042056788    0.063731071240    0.047805174697    0.000008079061    0.000015741277
            0.000013472644    0.000042041223    0.069851768612    0.004736256911    0.000004021779    0.000017498109    0.064891591678    0.048032425032
            0.063216717171    0.047103747039    0.000004032629    0.000017520731    0.067611401383    0.003820901301    0.000002154058    0.000004727101
            0.000008089038    0.000015763457    0.064376335509    0.047340403594    0.000002167653    0.000004707887    0.068912659499    0.004295863384
0.100     0.177977223584    -0.015760224086    0.000011606621    0.000012945238    0.181182808302    -0.001501521968    0.000003426780    0.000000417538
            0.000011608745    0.000012919517    0.177932506573    -0.019348412618    0.000004806914    0.000013366827    0.181165626488    -0.005111096271
            0.180404450123    -0.001598290618    0.000004821809    0.000013336428    0.177956385251    -0.015098571669    0.000001498564    0.000003533889
            0.000003439998    0.000000387679    0.180386190701    -0.005193212971    0.000001499001    0.000003511031    0.177935972748    -0.018686761864
0.125     0.113829323135    -0.130612621870    -0.000022079292    0.000049170810    0.098764052935    -0.125407335010    -0.000011787577    0.000017531459
            -0.000022100245    0.000049135843    0.109491396212    -0.131207490764    -0.000000116330    0.000021904445    0.094264988760    -0.126383353241
            0.098019382921    -0.124951524088    -0.000000161135    0.000021914295    0.113524639039    -0.130728555742    0.000001047471    0.000004808819
            -0.000011829127    0.000017542388    0.093532408200    -0.125908619973    0.000001035143    0.000004769929    0.109210227114    -0.131358836654
0.150     0.046889613453    -0.048643004654    0.000038445180    0.000072132134    0.030518395353    -0.029072685565    0.000016783525    0.000026116479
            0.000038389727    0.000072127078    0.047466148666    -0.047545742343    0.000016907274    0.000029206130    0.030691769385    -0.027789893627
            0.030378805176    -0.028126304842    0.000016951422    0.000029230333    0.046663129791    -0.047753081911    0.000006061429    0.000007109430
            0.000016825225    0.000026133906    0.030583779524    -0.026839304084    0.000005991798    0.000007103195    0.047252731971    -0.046638030964
0.175     0.149294700953    -0.084973696805    0.000007731225    0.000018763049    0.144444676844    -0.077532477971    -0.000002438309    0.000001362051
            0.000007694131    0.000018804896    0.145731899758    -0.089905457860    0.000010595162    0.000018437551    0.140910235772    -0.082371024736
            0.145011572924    -0.076879568358    0.000010582015    0.000018401764    0.150194161400    -0.084892020036    0.000004388433    0.000004179465
            -0.000002456989    0.000001329693    0.141500475541    -0.081741757178    0.000004358094    0.000004226595    0.146683939470    -0.089848396900
0.200     0.051853024105    -0.198784939805    -0.000020507715    0.000088025457    0.020379248991    -0.199882832792    -0.000016057795    0.000032332800
            -0.000020517338    0.000088070658    0.042397614553    -0.196708353474    0.000010614179    0.000030685692    0.010349719968    -0.197419944653
            0.021041455728    -0.199699818770    0.000010592380    0.000030722382    0.051764820535    -0.199113274823    0.000003522249    0.000002750918
            -0.000016076732    0.000032372533    0.011018582249    -0.197263085565    0.000003514821    0.000002788608    0.042339836332    -0.197035215777
0.225     -0.051930658312    -0.082510755064    0.000063701514    0.000084582913    -0.093807241086    -0.045059175871    0.000022176767    0.000036274957
            0.000063718848    0.000084650388    -0.052969160013    -0.076571885189    0.000029573913    0.000026981203    -0.094105226299    -0.037411885147
            -0.092992385171    -0.045250868613    0.000029637635    0.000026970372    -0.050978928332    -0.081954787004    0.000006976856    0.000007088235
            0.000022236732    0.000036262167    -0.093296717218    -0.037646161200    0.000006975603    0.000007160368    -0.051915014158    -0.076075240837
0.250     0.071086887680    -0.056197711755    -0.000011750474    0.000025258695    0.061935487923    -0.006903176408    -0.000010329649    0.000006848838
            -0.000011658063    0.000025301161    0.066749332797    -0.058477431827    0.000004275788    0.000015652638    0.060022147476    -0.009107735236
            0.062459897464    -0.007852227155    0.000004237259    0.000015605180    0.072485906821    -0.058189524847    0.000001920709    0.000002379767
            -0.000010367231    0.000006808170    0.060488877448    -0.010086355545    0.000002032145    0.000002432489    0.068114518498    -0.060553584678
0.275     -0.001193667635    -0.171818163683    -0.000009261275    0.000137350399    -0.002154565958    -0.134763927818    -0.000011114303    0.000054352059
            -0.000009167988    0.000137288215    -0.011287134644    -0.165139596979    0.000017955276    0.000043143986    -0.010992966115    -0.129208064810
            -0.002670256064    -0.135759551892    0.000017917236    0.000043181119    -0.003010505665    -0.173009229321    0.000004257193    0.000006098743
            -0.000011145099    0.000054391845    -0.011569165985    -0.130165736080    0.000004347219    0.000006025684    -0.013063103823    -0.166245849880
0.300     -0.105503550120    -0.047092093376    0.000084268191    0.000080138013    -0.100353989364    -0.005443005689    0.000029955078    0.000037551003
            0.000084276574    0.000080041994    -0.104817837530    -0.037106208112    0.000035276241    0.000016243010    -0.098196516949    0.004004114121
            -0.101272940917    -0.005603225552    0.000035335268    0.000016252323    -0.104927984635    -0.045270108980    0.000008224491    0.000005999342
            0.000030018714    0.000037552970    -0.099118891885    0.003903730733    0.000008228283    0.000005913847    -0.104015976973    -0.035362570018
0.325     0.057440319327    0.016681480605    -0.000038596928    0.000052404145    0.075186207805    0.049667386882    -0.000015128352    0.000018663809
            -0.000038621576    0.000052348755    0.056422824865    0.015676222088    -0.000012573401    0.000025207256    0.076115475215    0.046764740925
            0.074718649778    0.049873339425    -0.000012636843    0.000025166137    0.059885495313    0.014188215964    0.000000155061    0.000004498752
            -0.000015196308    0.000018619155    0.075658598186    0.047002475379    0.000000151493    0.000004439341    0.058861037331    0.013001679269
0.350     0.039493632477    -0.148178542102    0.000023796974    0.000180845691    0.058186495845    -0.125030112082    0.000003408419    0.000062265128
            0.000023726212    0.000180768998    0.030022982076    -0.143422018469    0.000033984851    0.000061250962    0.049051114808    -0.122755073942
            0.057545367191    -0.124559893042    0.000033990740    0.000061339093    0.036653665260    -0.149986990554    0.000010229068    0.000006482480
            0.000003416057    0.000062354912    0.048451817698    -0.122231027863    0.000010147012    0.000006391513    0.027230157936    -0.145132220585
0.375     -0.094606681861    -0.083567490882    0.000091856251    0.000065655524    -0.068291367297    -0.072076972283    0.000020306343    0.000029979577
            0.000091695312    0.000065657299    -0.098456552226    -0.073230754220    0.000041555838    0.000006259507    -0.072401775942    -0.063794086720
            -0.068427012582    -0.070864755178    0.000041641370    0.000006207690    -0.093680154003    -0.080032638503    0.000005888473    0.000001928639
            0.000020389263    0.000029919785    -0.072432300813    -0.062583173720    0.000005723677    0.000001936973    -0.097102399579    -0.069855517115
0.400     0.015291975757    -0.003458367226    -0.000058231553    0.000094307818    0.016949725400    -0.012889131220    -0.000023858163    0.000042772436
            -0.000058324499    0.000094474833    0.012309580825    0.000954009434    -0.000016751455    0.000035811637    0.012728629218    -0.009355381511
            0.018094674540    -0.012131699305    -0.000016846310    0.000035817268    0.020756998349    -0.006981509195    0.000002497708    0.000006058562
            -0.000023965421    0.000042781620    0.013926797308    -0.008697901586    0.000002414576    0.000006212895    0.017724325170    -0.003108541740
0.425     0.020943653997    -0.160033677169    0.000068685764    0.000200944742    -0.002386597854    -0.132370076881    0.000014994202    0.000064362088
            0.000068768282    0.000201089870    0.009625797093    -0.153789481591    0.000055931874    0.000061713335    -0.012666411931    -0.124828823716
            -0.001408013699    -0.132834437903    0.000056035789    0.000061736198    0.017643215605    -0.164935151285    0.000010044064    -0.000001588472
            0.000015106639    0.000064397190    -0.011726800588    -0.125383344399    0.000010093220    -0.000001438946    0.006066183897    -0.158602443505
0.450     -0.153877334139    -0.127843048634    0.000072667415    0.000054921239    -0.132022071204    -0.084806717006    -0.000004517913    0.000041309838
            0.000072754001    0.000054962762    -0.164822222355    -0.108999399668    0.000038854527    -0.000009428172    -0.139683845164    -0.068124651419
            -0.131711893016    -0.085286070851    0.000038822535    -0.000009539493    -0.154399517237    -0.124943905375    -0.000004561075    0.000003495013
            -0.000004549550    0.000041190242    -0.139429012433    -0.068640016214    -0.000004458562    0.000003554776    -0.164864895481    -0.106142280058
0.475     -0.110216953917    0.013078685135    -0.000062778116    0.000143156776    -0.093882071645    0.015861082038    -0.000016589861    0.000082130421
            -0.000062659400    0.000143206224    -0.109906533559    0.033108573732    -0.000019579962    0.000030885291    -0.094026152052    0.033181871700
            -0.093484441064    0.015175000604    -0.000019672133    0.000030956101    -0.104632660957    0.008714567493    0.000004249563    0.000008996866
            -0.000016683273    0.000082208362    -0.093707738192    0.032468025664    0.000004367338    0.000009038686    -0.104433420892    0.028017900806
0.500     -0.049812848618    -0.063861938933    0.000106495847    0.000213310528    -0.062505012984    -0.022275240716    0.000037996801    0.000074573385
            0.000106699532    0.000213217293    -0.050861916973    -0.050495797791    0.000052870569    0.000053490153    -0.060725224728    -0.008128462802
            -0.062926232243    -0.023468963266    0.000052939790    0.000053465007    -0.054981469685    -0.071185200569    0.000005662715    -0.000001553614
            0.000038074400    0.000074545035    -0.061269289331    -0.009272288934    0.000005849897    -0.000001629498    -0.056625533819    -0.057555390357
0.525     -0.173932558138    -0.040353789615    0.000044167282    0.000054046337    -0.116732257935    0.019778174788    -0.000006429473    0.000052519866
            0.000044180612    0.000053794606    -0.177444188181    -0.016457719829    0.000015454794    -0.000015976310    -0.114269363876    0.036890930749
            -0.118041144404    0.019544124748    0.000015363971    -0.000015942516    -0.177067213972    -0.036716398137    -0.000007138674    0.000009912802
            -0.000006524843    0.000052544435    -0.115601119949    0.036815118396    -0.000007076100    0.000009676289    -0.179840828404    -0.012565350176
0.550     -0.126389664271    0.102268879306    -0.000049864872    0.000203550852    -0.059787268213    0.083704454368    0.000011634220    0.000105173914
            -0.000050034134    0.000203425066    -0.112793001031    0.127104490001    -0.000031414347    0.000043330582    -0.049862881494    0.099647536311
            -0.060552682482    0.084467849175    -0.000031347524    0.000043416065    -0.121272198237    0.099670054647    0.000009974472    0.000010590676
            0.000011694548    0.000105267900    -0.050521696625    0.100500979564    0.000009796303    0.000010419124    -0.107546639575    0.123554362131
0.575     -0.024716560109    0.051786777046    0.000140872586    0.000206430222    -0.021352831043    0.040044648929    0.000061351353    0.000058795971
            0.000140732740    0.000206431821    -0.011472744186    0.060325315721    0.000037574214    0.000053097258    -0.011216104951    0.048432975032
            -0.021457917224    0.040752801767    0.000037659758    0.000053027366    -0.029731587030    0.045323273785    0.000003416553    -0.000005886086
            0.000061446258    0.000058724525    -0.011226750014    0.049139304924    0.000003266975    -0.000005867195    -0.017108546497    0.054084441778
0.600     -0.079012116387    0.025833749252    0.000006532736    0.000061860729    -0.041801960321    0.044165067176    -0.000017944514    0.000046015996
            0.000006372971    0.000061883712    -0.077120528979    0.040160435599    -0.000014200757    0.000005099211    -0.037836655230    0.053440879101
            -0.041757876314    0.044940916281    -0.000014266253    0.000005072839    -0.081480740804    0.030103284869    -0.000012538568    0.000011802955
            -0.000018016035    0.000045983621    -0.037697243727    0.054203507595    -0.000012673348    0.000011812469    -0.078577596329    0.044584009946
0.625     -0.038632153144    0.079059634509    -0.000024375006    0.000274350525    0.002735009593    0.043019631395    0.000020427071    0.000117176182
            -0.000024529052    0.000274546929    -0.025667150008    0.095995347842    -0.000018686082    0.000086865974    0.009269278037    0.053458883110
            0.003517427428    0.043803792900    -0.000018639962    0.000086900812    -0.033195864024    0.075191904436    0.000011862563    0.000013548638
            0.000020463690    0.000117222620    0.010154898499    0.054129036363    0.000011668272    0.000013707283    -0.020274835784    0.090750602419
0.650     -0.011875271843    0.011884693591    0.000169496202    0.000176269543    -0.029261495450    -0.012460778624    0.000050346700    0.000040657496
            0.000169580491    0.000176547465    -0.004499659453    0.017574658203    0.000050212393    0.000041489770    -0.026440915870    -0.003564872873
            -0.028029707778    -0.012623314437    0.000050227086    0.000041363378    -0.017537125925    0.005300308376    -0.000005311891    -0.000011043760
            0.000050384572    0.000040531724    -0.025249025193    -0.003910921593    -0.000005247676    -0.000010724392    -0.011060965817    0.011358245533
0.675     -0.073765742507    0.026178166293    -0.000035938158    0.000102060516    -0.073274959904    0.045804652028    -0.000035203313    0.000078791278
            -0.000035691857    0.000102152165    -0.072671848217    0.044298540593    -0.000030686842    0.000028341100    -0.068868244823    0.063077534292
            -0.072684758954    0.044830513750    -0.000030850150    0.000028389947    -0.075064785689    0.029050738650    -0.000015884845    0.000024149460
            -0.000035376770    0.000078827023    -0.068440012945    0.062038179834    -0.000015625757    0.000024249031    -0.072934519065    0.047104081215
0.700     -0.038402649132    0.047120375931    0.000031288333    0.000326677533    -0.017887092526    0.052207079857    0.000045145462    0.000132178454
            0.000031499073    0.000326605420    -0.025998868798    0.065672947132    0.000014941030    0.000101852452    -0.006466115358    0.066142778983
            -0.018088034743    0.051262130969    0.000015045084    0.000101922489    -0.035283513374    0.039486131457    0.000016517158    0.000011488948
            0.000045245571    0.000132258127    -0.006797882232    0.065242188799    0.000016711971    0.000011420147    -0.023639217138    0.056651959298
0.725     -0.096869260565    0.010174138997    0.000163520359    0.000138788593    -0.082534289049    0.025464613655    0.000032030819    0.000048027445
            0.000163644000    0.000138620712    -0.090403666737    0.028911099081    0.000037742927    0.000003910521    -0.074881253048    0.042520098212
            -0.083117687287    0.024943047757    0.000037648477    0.000003852276    -0.107610480006    0.005597648032    -0.000021258902    -0.000004054695
            0.000031948007    0.000047956411    -0.075549088807    0.042096415506    -0.000021109170    -0.000004189366    -0.101883601284    0.025748559978
0.750     -0.129626703167    0.135697559741    -0.000048277312    0.000163346045    -0.089573150409    0.141594833813    0.000004170796    0.000122998306
            -0.000048264407    0.000163144606    -0.107323978051    0.165282874114    -0.000056790454    0.000039117498    -0.066228397302    0.163497523830
            -0.090289028151    0.141368923987    -0.000056768384    0.000039295820    -0.129999759507    0.142040363637    0.000000489798    0.000032752332
            0.000004170266    0.000123180528    -0.066962563198    0.163406190561    0.000000523767    0.000032539658    -0.105843732967    0.171127592322
0.775     0.007008629773    0.157810434083    0.000073921003    0.000342502969    0.038232460121    0.138538529176    0.000081644374    0.000107526849
            0.000073817300    0.000342268721    0.039538797129    0.165744569236    -0.000006783203    0.000112012541    0.065315800954    0.140158836782
            0.037249830687    0.138792595532    -0.000006596366    0.000111918657    0.010107573243    0.149704823059    0.000010194001    0.000002830032
            0.000081837896    0.000107440356    0.064402914760    0.140560208528    0.000010105475    0.000002581477    0.041527383920    0.156009994695
