# GHz S RI R 45
0.000     0.081835143000    -0.000000000000    -0.000002551322    -0.000000000000    0.003455073400    -0.000000000000    -0.000001493311    -0.000000000000
            -0.000002545481    -0.000000000000    0.076239358000    -0.000000000000    0.000000335941    0.000000000000    0.005350456800    -0.000000000000
            0.004230228400    0.000000000000    0.000000352587    0.000000000000    0.078328926000    -0.000000000000    -0.000000340036    0.000000000000
            -0.000001512641    0.000000000000    0.006184566900    0.000000000000    -0.000000339686    -0.000000000000    0.077879598000    -0.000000000000
0.025     0.150177081055    -0.001016323400    0.000001077297    0.000003539954    0.086511700727    0.030914959322    -0.000005547113    -0.000000172634
            0.000001085173    0.000003544555    0.147796105762    0.006164284766    0.000010846151    0.000004804118    0.082252662205    0.041853946117
            0.087258053224    0.030564750859    0.000010853311    0.000004803651    0.150521074125    -0.000069129728    -0.000001309952    0.000000136243
            -0.000005539960    -0.000000179166    0.082825903302    0.041328352326    -0.000001305595    0.000000141375    0.148109571006    0.006475703258
0.050     0.084772941074    -0.096096091630    0.000002045435    -0.000001881371    0.045534829365    -0.055395961265    -0.000008085552    0.000007764972
            0.000002060381    -0.000001888916    0.101150231277    -0.076446806335    0.000015642031    -0.000015686764    0.070755505671    -0.025134877955
            0.045931452296    -0.056211743011    0.000015635947    -0.000015701189    0.085372397064    -0.096783781994    -0.000002241584    0.000001677132
            -0.000008094234    0.000007754954    0.070779535498    -0.025999632850    -0.000002227590    0.000001670393    0.101140355679    -0.077475552136
0.075     0.009017607776    0.026915855951    0.000004285520    -0.000002960954    -0.009690724369    0.069105680338    0.000009068850    0.000015236277
            0.000004280933    -0.000002988875    0.069851768612    0.004736256911    -0.000006324424    -0.000030210693    0.064891591678    0.048032425032
            -0.010039432221    0.068312891872    -0.000006336667    -0.000030194697    0.008611575831    0.026358903165    0.000003048497    0.000003935517
            0.000009062308    0.000015251008    0.064376335509    0.047340403594    0.000003043575    0.000003917112    0.068912659499    0.004295863384
0.100     0.174670111619    0.011095273666    -0.000012316981    -0.000005789809    0.170031577946    0.050737117950    0.000014897343    -0.000000160060
            -0.000012353861    -0.000005789314    0.177932506573    -0.019348412618    -0.000046859967    -0.000010146612    0.181165626488    -0.005111096271
            0.169752643793    0.049994937841    -0.000046858347    -0.000010126879    0.173727464394    0.010780821681    0.000002263324    -0.000000435890
            0.000014913469    -0.000000156652    0.180386190701    -0.005193212971    0.000002249120    -0.000000456387    0.177935972748    -0.018686761864
0.125     0.108898616896    -0.133933899988    0.000000851297    0.000013362829    0.106442016226    -0.114449303533    0.000018423749    -0.000015550213
            0.000000838637    0.000013404855    0.109491396212    -0.131207490764    -0.000028447895    0.000049036584    0.094264988760    -0.126383353241
            0.105640967181    -0.115085930111    -0.000028405103    0.000049031270    0.107827595736    -0.133130814138    0.000005569327    -0.000002065794
            0.000018432679    -0.000015575333    0.093532408200    -0.125908619973    0.000005514170    -0.000002045716    0.109210227114    -0.131358836654
0.150     0.000912351321    -0.023014832436    0.000000642375    0.000001975343    -0.012776733692    -0.000540355864    -0.000017818641    -0.000029963592
            0.000000678748    0.000001997669    0.047466148666    -0.047545742343    0.000028649064    0.000052892585    0.030691769385    -0.027789893627
            -0.013837398417    -0.000395487893    0.000028613071    0.000052848733    0.001927466385    -0.022023276441    -0.000004553189    -0.000008433345
            -0.000017866545    -0.000029956381    0.030583779524    -0.026839304084    -0.000004519080    -0.000008354771    0.047252731971    -0.046638030964
0.175     0.158582720370    0.002232928662    0.000019867255    -0.000001668780    0.156437948954    0.032820660232    -0.000027397152    0.000000275249
            0.000019899976    -0.000001686134    0.145731899758    -0.089905457860    0.000081030402    -0.000003032154    0.140910235772    -0.082371024736
            0.155922008338    0.033393563053    0.000081015422    -0.000003003539    0.158830391307    0.000506843880    -0.000004799594    -0.000000752378
            -0.000027357693    0.000000312731    0.141500475541    -0.081741757178    -0.000004727955    -0.000000769929    0.146683939470    -0.089848396900
0.200     0.132038689799    -0.163337841984    -0.000013858508    -0.000021297230    0.141437540290    -0.144724364028    -0.000029773562    0.000030568198
            -0.000013854016    -0.000021334055    0.042397614553    -0.196708353474    0.000024294571    -0.000086286979    0.010349719968    -0.197419944653
            0.140996730970    -0.144314784995    0.000024287551    -0.000086260106    0.129605594624    -0.162891029579    -0.000010154953    0.000004996075
            -0.000029756494    0.000030528632    0.011018582249    -0.197263085565    -0.000010119918    0.000004919841    0.042339836332    -0.197035215777
0.225     -0.005413042103    -0.118531484199    -0.000006200136    0.000010906425    0.001040011322    -0.114787458678    0.000034912569    0.000048603144
            -0.000006219459    0.000010877029    -0.052969160013    -0.076571885189    -0.000063868902    -0.000060473436    -0.094105226299    -0.037411885147
            0.000585284936    -0.113854635642    -0.000063795157    -0.000060469191    -0.003941377190    -0.115235186443    0.000007088028    0.000015473652
            0.000034875540    0.000048580524    -0.093296717218    -0.037646161200    0.000006978360    0.000015392999    -0.051915014158    -0.076075240837
0.250     0.073078571956    -0.048279421999    -0.000012706981    0.000006979142    0.058638661938    -0.053394377879    0.000047825144    -0.000014640864
            -0.000012782003    0.000006970109    0.066749332797    -0.058477431827    -0.000101238448    0.000031491971    0.060022147476    -0.009107735236
            0.059145343474    -0.052256489797    -0.000101288769    0.000031420726    0.076739704445    -0.050429016093    0.000012052894    -0.000001301098
            0.000047796070    -0.000014572490    0.060488877448    -0.010086355545    0.000011980725    -0.000001179992    0.068114518498    -0.060553584678
0.275     0.078258885559    -0.158100361955    0.000023985889    0.000014399009    0.045278834074    -0.136967702713    0.000025503555    -0.000056049109
            0.000023955033    0.000014501788    -0.011287134644    -0.165139596979    -0.000004840426    0.000113436374    -0.010992966115    -0.129208064810
            0.046231857251    -0.136586531023    -0.000004867891    0.000113488308    0.076238918192    -0.160331699511    0.000011344893    -0.000013617066
            0.000025594651    -0.000056061309    -0.011569165985    -0.130165736080    0.000011419834    -0.000013556199    -0.013063103823    -0.166245849880
0.300     -0.025945553657    -0.152652127123    0.000000502657    -0.000019253517    -0.028135507936    -0.112848043766    -0.000062514820    -0.000050250075
            0.000000612544    -0.000019186383    -0.104817837530    -0.037106208112    0.000096225558    0.000056168875    -0.098196516949    0.004004114121
            -0.027427045543    -0.112864019848    0.000096246531    0.000056189717    -0.025551327559    -0.149670082303    -0.000015071473    -0.000017567099
            -0.000062560722    -0.000050317229    -0.099118891885    0.003903730733    -0.000015013466    -0.000017584158    -0.104015976973    -0.035362570018
0.325     -0.014931861247    -0.111579886534    0.000005121623    -0.000008060202    -0.011631652531    -0.106181454956    -0.000055625785    0.000037320296
            0.000005227577    -0.000008160246    0.056422824865    0.015676222088    0.000107561022    -0.000067390981    0.076115475215    0.046764740925
            -0.010887949866    -0.106309415917    0.000107613230    -0.000067414407    -0.010562697251    -0.113556853780    -0.000017580228    0.000006096116
            -0.000055659110    0.000037342274    0.075658598186    0.047002475379    -0.000017541338    0.000006040919    0.058861037331    0.013001679269
0.350     -0.043253112166    -0.143690820306    -0.000030213669    -0.000003373527    -0.080426323728    -0.123868915976    -0.000012072809    0.000072477085
            -0.000030297670    -0.000003523738    0.030022982076    -0.143422018469    -0.000023205084    -0.000126503077    0.049051114808    -0.122755073942
            -0.079639310359    -0.124426966415    -0.000023260664    -0.000126559853    -0.044679501664    -0.148032055266    -0.000008291096    0.000022752350
            -0.000012055215    0.000072551172    0.048451817698    -0.122231027863    -0.000008324214    0.000022682708    0.027230157936    -0.145132220585
0.375     -0.095253017525    -0.083851016372    0.000010824361    0.000024228601    -0.105485874977    -0.016989527323    0.000084463676    0.000046233229
            0.000010647268    0.000024294508    -0.098456552226    -0.073230754220    -0.000117842402    -0.000046060497    -0.072401775942    -0.063794086720
            -0.105077440057    -0.018008332063    -0.000117890781    -0.000045992331    -0.095746454416    -0.082711116722    0.000024468956    0.000015622445
            0.000084556095    0.000046151548    -0.072432300813    -0.062583173720    0.000024392090    0.000015610213    -0.097102399579    -0.069855517115
0.400     -0.039063231885    -0.066057396189    0.000001805093    0.000004073821    -0.011377265862    -0.023132612390    0.000065170800    -0.000059940443
            0.000001850206    0.000004232085    0.012309580825    0.000954009434    -0.000112894263    0.000099740899    0.012728629218    -0.009355381511
            -0.011659648676    -0.024260423914    -0.000112808333    0.000099806102    -0.035481252023    -0.069431264136    0.000020178939    -0.000013194001
            0.000065038699    -0.000059944166    0.013926797308    -0.008697901586    0.000020091537    -0.000013113377    0.017724325170    -0.003108541740
0.425     -0.105150018717    -0.122990007284    0.000033058994    -0.000014277427    -0.092378285873    -0.091235232817    -0.000008903225    -0.000095509701
            0.000033171773    -0.000014264282    0.009625797093    -0.153789481591    0.000056097739    0.000135989883    -0.012666411931    -0.124828823716
            -0.093218642419    -0.091884775048    0.000056148457    0.000135861835    -0.108442271361    -0.127359057722    0.000001186109    -0.000031908031
            -0.000008836368    -0.000095444176    -0.011726800588    -0.125383344399    0.000001274192    -0.000031760305    0.006066183897    -0.158602443505
0.450     -0.180704327449    -0.003733406848    -0.000038041235    -0.000026310237    -0.150940910122    0.037662310416    -0.000116383634    -0.000031798004
            -0.000037967298    -0.000026392609    -0.164822222355    -0.108999399668    0.000132244566    0.000027433015    -0.139683845164    -0.068124651419
            -0.151722318766    0.037539890363    0.000132123669    0.000027410548    -0.181511127424    -0.001380880009    -0.000035504108    -0.000008808616
            -0.000116375238    -0.000031830310    -0.139429012433    -0.068640016214    -0.000035319550    -0.000008878224    -0.164864895481    -0.106142280058
0.475     -0.043315135358    0.070003140870    -0.000000149502    0.000026355077    -0.007295114413    0.087494203768    -0.000064074767    0.000100099635
            -0.000000199836    0.000026258642    -0.109906533559    0.033108573732    0.000116215935    -0.000120506929    -0.094026152052    0.033181871700
            -0.008014044562    0.087363476025    0.000116167500    -0.000120426256    -0.039105316387    0.065808703313    -0.000016738357    0.000026005997
            -0.000064086826    0.000100038703    -0.093707738192    0.032468025664    -0.000016779691    0.000025797620    -0.104433420892    0.028017900806
0.500     -0.033413510572    -0.071745715960    -0.000011933122    0.000012521014    -0.007129455886    -0.042232189499    0.000052690737    0.000106459775
            -0.000012024942    0.000012516914    -0.050861916973    -0.050495797791    -0.000088433676    -0.000158514155    -0.060725224728    -0.008128462802
            -0.008270668522    -0.041997742679    -0.000088332443    -0.000158381941    -0.039413224833    -0.077285770815    0.000010274016    0.000031535862
            0.000052596102    0.000106572091    -0.061269289331    -0.009272288934    0.000010081214    0.000031551673    -0.056625533819    -0.057555390357
0.525     -0.173201080866    0.002870140900    0.000047951497    0.000004583985    -0.105790984824    0.020747255258    0.000138531565    -0.000013264410
            0.000047891231    0.000004657592    -0.177444188181    -0.016457719829    -0.000161516996    -0.000000683077    -0.114269363876    0.036890930749
            -0.106541348925    0.021960814852    -0.000161392187    -0.000000873421    -0.175114994665    0.007938266070    0.000039156533    -0.000003214261
            0.000138703143    -0.000013260121    -0.115601119949    0.036815118396    0.000039120847    -0.000003071417    -0.179840828404    -0.012565350176
0.550     -0.059233125312    0.137467568786    -0.000024217758    -0.000042214838    -0.016527588931    0.095377391832    0.000028814376    -0.000128077689
            -0.000024181596    -0.000042106262    -0.112793001031    0.127104490001    -0.000105338170    0.000155067699    -0.049862881494    0.099647536311
            -0.016216010599    0.096588436817    -0.000105534486    0.000155007574    -0.052623327812    0.134391849931    0.000007901405    -0.000031336547
            0.000028754236    -0.000128218492    -0.050521696625    0.100500979564    0.000007991759    -0.000031249117    -0.107546639575    0.123554362131
0.575     0.038601544040    0.006718774338    -0.000005955469    0.000015168598    0.029784297823    -0.004937605434    -0.000087567395    -0.000086636921
            -0.000005824053    0.000015165602    -0.011472744186    0.060325315721    0.000126408893    0.000172807575    -0.011216104951    0.048432975032
            0.030166519050    -0.004225300227    0.000126341621    0.000172927460    0.033563246330    -0.000857477201    -0.000017766843    -0.000025804540
            -0.000087666757    -0.000086591342    -0.011226750014    0.049139304924    -0.000017633856    -0.000025855781    -0.017108546497    0.054084441778
0.600     -0.086109459792    -0.016200423550    -0.000020858641    0.000008334315    -0.051653863167    0.003858969337    -0.000133008499    0.000048783653
            -0.000020819785    0.000008194118    -0.077120528979    0.040160435599    0.000197472110    -0.000039748137    -0.037836655230    0.053440879101
            -0.051237687429    0.004468569687    0.000197551441    -0.000039643005    -0.088907032007    -0.011677002953    -0.000036939175    0.000009725535
            -0.000132990071    0.000048927815    -0.037697243727    0.054203507595    -0.000036942066    0.000009626068    -0.078577596329    0.044584009946
0.625     -0.048662386656    0.075079958140    0.000026319801    0.000015357109    -0.012352248011    0.037172426453    -0.000003881244    0.000133204787
            0.000026214705    0.000015272271    -0.025667150008    0.095995347842    0.000066954705    -0.000207769507    0.009269278037    0.053458883110
            -0.011324884587    0.037712530419    0.000067100573    -0.000207895737    -0.042655508625    0.071301726592    -0.000006147375    0.000032298309
            -0.000003703632    0.000133117818    0.010154898499    0.054129036363    -0.000006190235    0.000032224573    -0.020274835784    0.090750602419
0.650     -0.009692668384    0.010177024013    0.000000440531    -0.000003772043    -0.030499644307    -0.012840605514    0.000113572313    0.000079497261
            0.000000308657    -0.000003719958    -0.004499659453    0.017574658203    -0.000173763834    -0.000144519548    -0.026440915870    -0.003564872873
            -0.029240211318    -0.013145145298    -0.000173923652    -0.000144625460    -0.015170687415    0.003196627895    0.000028321899    0.000028713813
            0.000113412147    0.000079383344    -0.025249025193    -0.003910921593    0.000028150021    0.000028722513    -0.011060965817    0.011358245533
0.675     -0.066969071059    0.033430755646    0.000016020357    -0.000022331038    -0.068509974584    0.048728655595    0.000130246895    -0.000089131530
            0.000016012462    -0.000022161931    -0.072671848217    0.044298540593    -0.000205134042    0.000078755658    -0.068868244823    0.063077534292
            -0.067761380733    0.047815080433    -0.000205202239    0.000078896102    -0.067923486487    0.036475999006    0.000035974054    -0.000023562057
            0.000130219782    -0.000088981176    -0.068440012945    0.062038179834    0.000035984340    -0.000023354794    -0.072934519065    0.047104081215
0.700     -0.001487147347    0.043890108402    -0.000022206519    -0.000000240086    0.006634144623    0.044752986108    -0.000025130417    -0.000144049402
            -0.000022023911    -0.000000171641    -0.025998868798    0.065672947132    -0.000020963290    0.000245239952    -0.006466115358    0.066142778983
            0.006795505470    0.043712816610    -0.000020826302    0.000245282655    0.002627078590    0.035247966722    -0.000000372096    -0.000035417589
            -0.000024998531    -0.000144070146    -0.006797882232    0.065242188799    -0.000000199586    -0.000035395748    -0.023639217138    0.056651959298
0.725     -0.073965137534    -0.045824966895    -0.000021634309    -0.000018826627    -0.070677035474    -0.000284728853    -0.000161811418    -0.000057333516
            -0.000021513076    -0.000018981708    -0.090403666737    0.028911099081    0.000204415887    0.000103776606    -0.074881253048    0.042520098212
            -0.070885358274    -0.000827317019    0.000204394706    0.000103733981    -0.085984906842    -0.050997486720    -0.000047083408    -0.000019391856
            -0.000161877192    -0.000057423165    -0.075549088807    0.042096415506    -0.000046990744    -0.000019534201    -0.101883601284    0.025748559978
0.750     -0.154658815168    0.103820457985    -0.000013570275    0.000072958240    -0.117509328791    0.112831852760    -0.000096312563    0.000151136779
            -0.000013694481    0.000072764912    -0.107323978051    0.165282874114    0.000197338543    -0.000102355281    -0.066228397302    0.163497523830
            -0.117740505902    0.112155923661    0.000197337157    -0.000102399210    -0.155211571891    0.111267530590    -0.000018775854    0.000042129834
            -0.000096376509    0.000151196072    -0.066962563198    0.163406190561    -0.000018872342    0.000041976640    -0.105843732967    0.171127592322
0.775     0.013138064419    0.152436150191    0.000069189725    -0.000022618562    0.023170490393    0.134308370905    0.000078985563    0.000119353805
            0.000068908256    -0.000022533565    0.039538797129    0.165744569236    -0.000001174048    -0.000272916255    0.065315800954    0.140158836782
            0.022440695515    0.133399288447    -0.000001311056    -0.000272852620    0.019581437096    0.142911766433    0.000014162288    0.000021946272
