# GHz S RI R 45
0.000     0.084079658000    -0.000000000000    0.000017209913    -0.000000000000    0.002806462200    0.000000000000    0.000015996554    0.000000000000
            0.000025049051    -0.000000000000    0.076239358000    -0.000000000000    -0.000019575679    0.000000000000    0.005350456800    -0.000000000000
            0.003247447400    0.000000000000    -0.000077757255    -0.000000000000    0.079879023000    -0.000000000000    0.000014047708    0.000000000000
            -0.000020750782    -0.000000000000    0.006184566900    0.000000000000    0.000004453498    -0.000000000000    0.077879598000    -0.000000000000
0.025     0.150779049067    -0.003906234125    -0.000044914647    -0.000019333760    0.087235735441    0.030839306484    -0.000037921560    -0.000020092569
            -0.000029197320    -0.000034994689    0.147796105762    0.006164284766    -0.000051756435    -0.000004593199    0.082252662205    0.041853946117
            0.087424732972    0.030491323925    -0.000092640883    0.000061194292    0.149750692285    -0.002710477120    -0.000050441627    -0.000024779025
            -0.000040418343    0.000010683523    0.082825903302    0.041328352326    -0.000037361797    -0.000023460962    0.148109571006    0.006475703258
0.050     0.080520434043    -0.095469583593    -0.000075669786    0.000052865585    0.044042001458    -0.055512534934    -0.000073010243    0.000048138808
            -0.000099305271    0.000036381059    0.101150231277    -0.076446806335    -0.000102145910    0.000082466317    0.070755505671    -0.025134877955
            0.043797370331    -0.055762117516    -0.000033382854    0.000138263727    0.080128846236    -0.094792347983    -0.000094330068    0.000068477974
            -0.000050673527    0.000061740664    0.070779535498    -0.025999632850    -0.000103139373    0.000059496049    0.101140355679    -0.077475552136
0.075     0.013264994050    0.031684161791    0.000066761235    0.000149480749    -0.006714656066    0.071344681286    0.000068120609    0.000136448791
            0.000058472468    0.000162587963    0.069851768612    0.004736256911    0.000119093296    0.000197986415    0.064891591678    0.048032425032
            -0.006713140065    0.071425385838    0.000167999937    0.000156007272    0.013385568441    0.032186214222    0.000084582627    0.000174644453
            0.000096818834    0.000114185437    0.064376335509    0.047340403594    0.000094132407    0.000176659277    0.068912659499    0.004295863384
0.100     0.177118674500    0.003877375379    0.000148560082    -0.000024226973    0.171597363923    0.044153901666    0.000130243449    -0.000033097473
            0.000139812986    -0.000009096012    0.177932506573    -0.019348412618    0.000195072582    -0.000057697804    0.181165626488    -0.005111096271
            0.171613361913    0.043697935938    0.000203192077    -0.000110498872    0.176745165494    0.004363883974    0.000180422654    -0.000029194637
            0.000106044648    -0.000066404176    0.180386190701    -0.005193212971    0.000161900348    -0.000046073213    0.177935972748    -0.018686761864
0.125     0.099399345327    -0.135237369848    0.000116323110    -0.000137142302    0.098441640434    -0.116021244299    0.000097589025    -0.000121705515
            0.000149445181    -0.000116149969    0.109491396212    -0.131207490764    0.000140546689    -0.000180809361    0.094264988760    -0.126383353241
            0.097604186987    -0.116277699421    0.000071820950    -0.000230650455    0.099076409339    -0.133925190345    0.000132444746    -0.000174624550
            0.000065557067    -0.000102093307    0.093532408200    -0.125908619973    0.000120395669    -0.000140576284    0.109210227114    -0.131358836654
0.150     0.003648259783    -0.016031084250    -0.000171483802    -0.000246769156    -0.009472255857    0.004545603589    -0.000165799741    -0.000221428400
            -0.000155680439    -0.000296090820    0.047466148666    -0.047545742343    -0.000222433567    -0.000342168860    0.030691769385    -0.027789893627
            -0.009974130385    0.005422392164    -0.000282928848    -0.000257700379    0.005776607156    -0.014970090514    -0.000207191910    -0.000287322953
            -0.000159655223    -0.000196521714    0.030583779524    -0.026839304084    -0.000176805208    -0.000290782735    0.047252731971    -0.046638030964
0.175     0.159213121319    -0.007176080044    -0.000226741524    0.000111374647    0.156960249434    0.021377314902    -0.000200654684    0.000127799673
            -0.000261606792    0.000106492044    0.145731899758    -0.089905457860    -0.000349322606    0.000164994344    0.140910235772    -0.082371024736
            0.157419436521    0.021815459716    -0.000290555306    0.000212049843    0.160540226228    -0.009684217566    -0.000286013906    0.000139165326
            -0.000173913847    0.000142598225    0.141500475541    -0.081741757178    -0.000286185744    0.000135724465    0.146683939470    -0.089848396900
0.200     0.117936962842    -0.165812063007    -0.000104259706    0.000200044929    0.125964412626    -0.149398051958    -0.000061185267    0.000176471542
            -0.000117523002    0.000212836884    0.042397614553    -0.196708353474    -0.000091698684    0.000316043557    0.010349719968    -0.197419944653
            0.125886753211    -0.149509004777    -0.000045608264    0.000303465361    0.116047365127    -0.166937460136    -0.000095783933    0.000264734880
            -0.000033277531    0.000147919345    0.011018582249    -0.197263085565    -0.000078966228    0.000247665043    0.042339836332    -0.197035215777
0.225     -0.010609430008    -0.111504484126    0.000232040318    0.000330321874    -0.006115253425    -0.108344817105    0.000219337684    0.000272523562
            0.000231267645    0.000361180898    -0.052969160013    -0.076571885189    0.000325129352    0.000388962182    -0.094105226299    -0.037411885147
            -0.006387954132    -0.107630271211    0.000355844012    0.000334744083    -0.009996958299    -0.109998840410    0.000292776231    0.000357593592
            0.000193022216    0.000238550273    -0.093296717218    -0.037646161200    0.000255593197    0.000332350368    -0.051915014158    -0.076075240837
0.250     0.065564812265    -0.052336758704    0.000377089847    -0.000218186301    0.050216479018    -0.057340993383    0.000319554133    -0.000233850154
            0.000418460530    -0.000215235272    0.066749332797    -0.058477431827    0.000506137211    -0.000282291867    0.060022147476    -0.009107735236
            0.051126615838    -0.056570427263    0.000444033237    -0.000335095623    0.067925463251    -0.054979410792    0.000440785869    -0.000273468310
            0.000287067582    -0.000219311162    0.060488877448    -0.010086355545    0.000424012716    -0.000231222489    0.068114518498    -0.060553584678
0.275     0.061354290120    -0.153090792388    0.000021631995    -0.000349108555    0.027445598884    -0.131486892816    -0.000034403370    -0.000297971161
            0.000028309296    -0.000382631717    -0.011287134644    -0.165139596979    0.000003561395    -0.000511422980    -0.010992966115    -0.129208064810
            0.028549788276    -0.131872499168    -0.000054133066    -0.000463224614    0.058584733889    -0.156317475762    -0.000017483549    -0.000429847065
            -0.000038753050    -0.000264683512    -0.011569165985    -0.130165736080    0.000007128576    -0.000417012585    -0.013063103823    -0.166245849880
0.300     -0.037298828389    -0.143579228614    -0.000371183528    -0.000314005803    -0.039051682611    -0.102551974615    -0.000337682674    -0.000226658064
            -0.000393281836    -0.000332550168    -0.104817837530    -0.037106208112    -0.000534495311    -0.000365023825    -0.098196516949    0.004004114121
            -0.038797791105    -0.103367836395    -0.000511956801    -0.000307313523    -0.039672540991    -0.141820305419    -0.000456053963    -0.000312910935
            -0.000305972591    -0.000206637234    -0.099118891885    0.003903730733    -0.000440064857    -0.000314113008    -0.104015976973    -0.035362570018
0.325     -0.034571287572    -0.102756342739    -0.000453822072    0.000359956298    -0.030419560381    -0.096966501186    -0.000351773560    0.000366176526
            -0.000483349606    0.000374582924    0.056422824865    0.015676222088    -0.000571775529    0.000496075991    0.076115475215    0.046764740925
            -0.030506600959    -0.097275043671    -0.000520246894    0.000502944887    -0.033262201102    -0.102856285294    -0.000496047431    0.000449489954
            -0.000320923679    0.000342368524    0.075658598186    0.047002475379    -0.000477695423    0.000425115719    0.058861037331    0.013001679269
0.350     -0.060825540225    -0.119438833222    0.000125862617    0.000476181825    -0.096006294321    -0.097658930886    0.000183564352    0.000371179942
            0.000131333459    0.000506770993    0.030022982076    -0.143422018469    0.000195561721    0.000635331427    0.049051114808    -0.122755073942
            -0.095624903290    -0.097889323642    0.000232149186    0.000596111897    -0.062487423868    -0.121632645593    0.000202383218    0.000540972368
            0.000173847526    0.000332981576    0.048451817698    -0.122231027863    0.000174465572    0.000508714701    0.027230157936    -0.145132220585
0.375     -0.099887605097    -0.061947518054    0.000528500424    0.000217667113    -0.103763665933    0.004949420294    0.000440759160    0.000117875762
            0.000553337899    0.000229434184    -0.098456552226    -0.073230754220    0.000708053910    0.000250155217    -0.072401775942    -0.063794086720
            -0.103489277979    0.003795087026    0.000683246551    0.000185842528    -0.101368219678    -0.060474307477    0.000608265778    0.000186159658
            0.000398131637    0.000111356009    -0.072432300813    -0.062583173720    0.000572350776    0.000210878505    -0.097102399579    -0.069855517115
0.400     -0.052989254607    -0.048018491420    0.000444907546    -0.000554140738    -0.020190439596    -0.009349095058    0.000317310634    -0.000516966852
            0.000477346632    -0.000575655472    0.012309580825    0.000954009434    0.000578672429    -0.000740232475    0.012728629218    -0.009355381511
            -0.021413306487    -0.010545061430    0.000497406241    -0.000723050494    -0.051528072885    -0.048734542101    0.000465330293    -0.000657605245
            0.000297801741    -0.000476748495    0.013926797308    -0.008697901586    0.000479239197    -0.000627096380    0.017724325170    -0.003108541740
0.425     -0.119039650505    -0.086734099364    -0.000330931280    -0.000500601819    -0.101461832708    -0.058926498909    -0.000364820864    -0.000353141868
            -0.000352642488    -0.000542488312    0.009625797093    -0.153789481591    -0.000482800044    -0.000686689481    -0.012666411931    -0.124828823716
            -0.102984243902    -0.058333585758    -0.000473034402    -0.000614869042    -0.121132706484    -0.087612080144    -0.000440501225    -0.000542973720
            -0.000336892877    -0.000322803849    -0.011726800588    -0.125383344399    -0.000418396449    -0.000535004717    0.006066183897    -0.158602443505
0.450     -0.173355542100    0.038833208295    -0.000568200426    -0.000089391275    -0.138119163206    0.071439584378    -0.000425162407    0.000006604391
            -0.000608026438    -0.000076039881    -0.164822222355    -0.108999399668    -0.000769172098    -0.000035478789    -0.139683845164    -0.068124651419
            -0.138113042706    0.072324729360    -0.000722262449    -0.000024851029    -0.172012672904    0.041697642508    -0.000622385383    -0.000022186083
            -0.000387040750    -0.000003266050    -0.139429012433    -0.068640016214    -0.000593490082    -0.000036505068    -0.164864895481    -0.106142280058
0.475     -0.027790230317    0.092878911270    -0.000478014510    0.000655704676    0.006921381845    0.100946676873    -0.000334395384    0.000561800298
            -0.000482915444    0.000688925401    -0.109906533559    0.033108573732    -0.000554355822    0.000856819033    -0.094026152052    0.033181871700
            0.006773055764    0.100523331084    -0.000512405351    0.000834717886    -0.023639809936    0.088663441291    -0.000472571787    0.000742210984
            -0.000323724089    0.000518526275    -0.093707738192    0.032468025664    -0.000481230602    0.000699000340    -0.104433420892    0.028017900806
0.500     -0.036735331738    -0.051616788619    0.000596997820    0.000620876676    -0.008188020050    -0.027118097890    0.000580069716    0.000435694060
            0.000625671010    0.000647757026    -0.050861916973    -0.050495797791    0.000775566309    0.000802088999    -0.060725224728    -0.008128462802
            -0.009723253533    -0.026564651572    0.000764225424    0.000730481209    -0.042485559625    -0.055438206152    0.000705082890    0.000644699094
            0.000537055411    0.000409596239    -0.061269289331    -0.009272288934    0.000661705529    0.000648795474    -0.056625533819    -0.057555390357
0.525     -0.168506876781    0.049717843285    0.000664026110    -0.000162325731    -0.098865193485    0.051807586064    0.000469667620    -0.000220387745
            0.000701412877    -0.000189847194    -0.177444188181    -0.016457719829    0.000895176632    -0.000263161609    -0.114269363876    0.036890930749
            -0.098811827461    0.053944787474    0.000822887082    -0.000252078835    -0.168348866564    0.055155071582    0.000708284462    -0.000233519594
            0.000433269588    -0.000188478015    -0.115601119949    0.036815118396    0.000697849789    -0.000202844449    -0.179840828404    -0.012565350176
0.550     -0.022000663802    0.167227309265    0.000379094815    -0.000762804889    0.006421736047    0.113229844500    0.000247771896    -0.000614349123
            0.000360111437    -0.000800368442    -0.112793001031    0.127104490001    0.000400951393    -0.001011817372    -0.049862881494    0.099647536311
            0.008084938889    0.113993800038    0.000401840832    -0.000958841348    -0.015099607370    0.162522069705    0.000366118794    -0.000853464764
            0.000262555169    -0.000571346430    -0.050521696625    0.100500979564    0.000382443351    -0.000825661258    -0.107546639575    0.123554362131
0.575     0.051744383652    0.005416946163    -0.000823830761    -0.000735986572    0.035268772967    -0.002010361753    -0.000753483484    -0.000528569844
            -0.000855183541    -0.000732198365    -0.011472744186    0.060325315721    -0.001051446519    -0.000873185979    -0.011216104951    0.048432975032
            0.035959902461    -0.002679556478    -0.001024658307    -0.000852063487    0.045030616381    -0.002531743976    -0.000947867803    -0.000745885820
            -0.000709270188    -0.000523284131    -0.011226750014    0.049139304924    -0.000907059034    -0.000750466893    -0.017108546497    0.054084441778
0.600     -0.092225118233    0.016050565522    -0.000855847184    0.000523908817    -0.053864714409    0.028765718430    -0.000616327449    0.000528200537
            -0.000869628548    0.000547775293    -0.077120528979    0.040160435599    -0.001084151177    0.000667749965    -0.037836655230    0.053440879101
            -0.053757490923    0.029011371310    -0.001038836090    0.000657624631    -0.095496364633    0.022057747045    -0.000895712789    0.000609131516
            -0.000592328456    0.000488725686    -0.037697243727    0.054203507595    -0.000889386533    0.000567859288    -0.078577596329    0.044584009946
0.625     -0.020725790301    0.107933043360    -0.000037309857    0.001047568803    0.003361371426    0.060415909622    0.000066421107    0.000844504966
            -0.000021220529    0.001071419074    -0.025667150008    0.095995347842    -0.000012111885    0.001342043246    0.009269278037    0.053458883110
            0.004441006174    0.060778447567    -0.000014958150    0.001290185392    -0.015198051455    0.104870859446    0.000005923767    0.001160589382
            0.000036283724    0.000806101603    0.010154898499    0.054129036363    -0.000026373454    0.001139444422    -0.020274835784    0.090750602419
0.650     0.001804773475    0.018776167616    0.001182756597    0.000438173831    -0.026454274104    0.002872840094    0.001039749334    0.000222954155
            0.001208070664    0.000436562370    -0.004499659453    0.017574658203    0.001481141946    0.000525199243    -0.026440915870    -0.003564872873
            -0.025012014617    0.002012023483    0.001441323217    0.000515699647    -0.004364967586    0.013662553912    0.001328908129    0.000399022679
            0.000996298800    0.000240324845    -0.025249025193    -0.003910921593    0.001294137020    0.000418823989    -0.011060965817    0.011358245533
0.675     -0.060148201917    0.068682159678    0.000707125244    -0.000871112132    -0.057239490623    0.083556618798    0.000444121703    -0.000802599513
            0.000725323165    -0.000896289650    -0.072671848217    0.044298540593    0.000912843157    -0.001088669915    -0.068868244823    0.063077534292
            -0.057042779336    0.081638967628    0.000880175220    -0.001064616529    -0.060817639164    0.073034779790    0.000720189118    -0.000977959573
            0.000442090671    -0.000762952718    -0.068440012945    0.062038179834    0.000726147025    -0.000935659735    -0.072934519065    0.047104081215
0.700     0.022815901314    0.063973197612    -0.000353544911    -0.001152197394    0.029702948886    0.062214797021    -0.000421388814    -0.000903989213
            -0.000378656533    -0.001185745301    -0.025998868798    0.065672947132    -0.000467413656    -0.001472755678    -0.006466115358    0.066142778983
            0.028301325042    0.061189543550    -0.000450215699    -0.001419983701    0.025342204409    0.057669580263    -0.000459851697    -0.001260276176
            -0.000386223496    -0.000881536288    -0.006797882232    0.065242188799    -0.000417391415    -0.001252773960    -0.023639217138    0.056651959298
0.725     -0.084285225965    -0.013429612975    -0.001399265370    0.000130103976    -0.063021404212    0.030889731217    -0.001157058372    0.000344013375
            -0.001436634588    0.000149661018    -0.090403666737    0.028911099081    -0.001740002044    0.000156085730    -0.074881253048    0.042520098212
            -0.065082206798    0.030246873910    -0.001689564175    0.000141915273    -0.093490918359    -0.012995190540    -0.001499110326    0.000266198707
            -0.001126523154    0.000315656411    -0.075549088807    0.042096415506    -0.001479915388    0.000233147591    -0.101883601284    0.025748559978
0.750     -0.114358289166    0.173991925677    -0.000173393466    0.001021903140    -0.074882819503    0.165315340110    0.000089907570    0.000828611059
            -0.000176114103    0.001057959679    -0.107323978051    0.165282874114    -0.000294529331    0.001271582456    -0.066228397302    0.163497523830
            -0.074465205215    0.164571803886    -0.000291185392    0.001236768180    -0.109102975633    0.180320561163    -0.000137506653    0.001052598980
            0.000075503093    0.000800471998    -0.066962563198    0.163406190561    -0.000151435710    0.001022542517    -0.105843732967    0.171127592322
0.775     0.077302414420    0.159265805947    0.000458474389    0.000833697091    0.076428674211    0.136684822878    0.000424302414    0.000572492926
            0.000502384365    0.000859805588    0.039538797129    0.165744569236    0.000608759939    0.001129405276    0.065315800954    0.140158836782
            0.074805693748    0.135351979968    0.000583641613    0.001096141448    0.081923196465    0.147665784171    0.000516732684    0.000942066925
