# GHz S RI R 45
0.000     0.082687707000    0.000000000000    -0.000032510092    0.000000000000    0.003476141500    -0.000000000000    -0.000012436365    -0.000000000000
            -0.000039200325    -0.000000000000    0.076239358000    -0.000000000000    -0.000017312023    0.000000000000    0.005350456800    -0.000000000000
            0.004554868700    0.000000000000    0.000011091939    -0.000000000000    0.079911761000    -0.000000000000    -0.000003548966    -0.000000000000
            0.000001608348    -0.000000000000    0.006184566900    0.000000000000    0.000003205232    -0.000000000000    0.077879598000    -0.000000000000
0.025     0.151482644592    -0.002680579754    0.000000384044    0.000029125892    0.087384116010    0.030214918212    0.000009435452    0.000016658123
            -0.000002424285    0.000036139838    0.147796105762    0.006164284766    0.000000636187    0.000018602466    0.082252662205    0.041853946117
            0.088273624874    0.029718785443    0.000013706744    -0.000011558630    0.151158885651    -0.002237849757    0.000009032977    0.000007426411
            0.000017245506    -0.000000401985    0.082825903302    0.041328352326    0.000013086512    0.000000644526    0.148109571006    0.006475703258
0.050     0.081290613431    -0.095522582221    0.000034825176    0.000010321219    0.042676983616    -0.054930930220    0.000036952997    -0.000011455525
            0.000040963368    0.000014022790    0.101150231277    -0.076446806335    0.000029233312    0.000002779816    0.070755505671    -0.025134877955
            0.043142601109    -0.055903990866    -0.000000510110    -0.000016131567    0.081589745113    -0.095924231785    0.000024275337    -0.000013006253
            0.000017026659    -0.000020666583    0.070779535498    -0.025999632850    0.000019533412    -0.000018758135    0.101140355679    -0.077475552136
0.075     0.013907900829    0.032340144405    0.000016969538    -0.000047063253    -0.005202209393    0.074085945727    -0.000012688973    -0.000058034473
            0.000021456013    -0.000049267108    0.069851768612    0.004736256911    0.000001084503    -0.000039986128    0.064891591678    0.048032425032
            -0.005616255948    0.073114994678    -0.000018580818    -0.000020271658    0.013403305310    0.031421486577    -0.000016459288    -0.000041293512
            -0.000020596118    -0.000043013998    0.064376335509    0.047340403594    -0.000023708385    -0.000041756599    0.068912659499    0.004295863384
0.100     0.177567921505    0.003265202101    -0.000039817132    -0.000026498637    0.173884017314    0.043196320265    -0.000056108065    -0.000007151929
            -0.000038124392    -0.000034039600    0.177932506573    -0.019348412618    -0.000031326266    -0.000009856520    0.181165626488    -0.005111096271
            0.173491872901    0.042281378150    -0.000027882939    0.000014568831    0.176119553896    0.003126908316    -0.000040086526    0.000001246141
            -0.000051134052    0.000005592377    0.180386190701    -0.005193212971    -0.000044920307    0.000010957542    0.177935972748    -0.018686761864
0.125     0.098698685255    -0.133961359776    -0.000054384267    0.000022070889    0.096883253519    -0.116325164529    -0.000058745455    0.000049671393
            -0.000064528010    0.000020342520    0.109491396212    -0.131207490764    -0.000041879136    0.000019860118    0.094264988760    -0.126383353241
            0.095875104026    -0.117029131505    -0.000009024393    0.000028351014    0.097885380629    -0.133186962341    -0.000040445542    0.000038217920
            -0.000036167935    0.000051385035    0.093532408200    -0.125908619973    -0.000030239232    0.000043668814    0.109210227114    -0.131358836654
0.150     0.007061316662    -0.013626778357    0.000013551415    0.000083193390    -0.007750279837    0.008246691643    0.000055437662    0.000107753804
            0.000014334891    0.000091209908    0.047466148666    -0.047545742343    0.000024711467    0.000074862680    0.030691769385    -0.027789893627
            -0.008981094995    0.008461029933    0.000035894790    0.000038456077    0.007557428593    -0.013617868271    0.000049308020    0.000079319830
            0.000057084022    0.000078222395    0.030583779524    -0.026839304084    0.000053187658    0.000073794258    0.047252731971    -0.046638030964
0.175     0.161498112707    -0.010521125651    0.000075004843    0.000005627818    0.160574651637    0.019957845656    0.000105664880    -0.000033377267
            0.000076293201    0.000006872136    0.145731899758    -0.089905457860    0.000066782279    -0.000018873140    0.140910235772    -0.082371024736
            0.159941459307    0.020642674152    0.000040954557    -0.000031399864    0.160467006931    -0.011904119446    0.000074756665    -0.000036017819
            0.000080305921    -0.000035653305    0.141500475541    -0.081741757178    0.000076425311    -0.000041993356    0.146683939470    -0.089848396900
0.200     0.115381814948    -0.165807148293    0.000056241745    -0.000054924509    0.125156743152    -0.150558666964    0.000040980914    -0.000092319871
            0.000062793863    -0.000053135263    0.042397614553    -0.196708353474    0.000024684637    -0.000049263166    0.010349719968    -0.197419944653
            0.124637947051    -0.149957547722    0.000004672027    -0.000038056870    0.113248405611    -0.164897023237    0.000022629698    -0.000064636083
            0.000030944137    -0.000075488433    0.011018582249    -0.197263085565    0.000013802526    -0.000069482970    0.042339836332    -0.197035215777
0.225     -0.007840104183    -0.107283700938    -0.000044940318    -0.000111527039    -0.004500860317    -0.105716711925    -0.000093540244    -0.000126479130
            -0.000045869393    -0.000120972935    -0.052969160013    -0.076571885189    -0.000046779781    -0.000081091523    -0.094105226299    -0.037411885147
            -0.004853787294    -0.104565968042    -0.000046217240    -0.000050945081    -0.006797009136    -0.105515043672    -0.000071334877    -0.000091643847
            -0.000083226704    -0.000104844118    -0.093296717218    -0.037646161200    -0.000073936333    -0.000083608775    -0.051915014158    -0.076075240837
0.250     0.070356563254    -0.055809806620    -0.000121549379    0.000031970545    0.053338207889    -0.059446631649    -0.000157134741    0.000084666190
            -0.000126668168    0.000036048272    0.066749332797    -0.058477431827    -0.000100104531    0.000048810336    0.060022147476    -0.009107735236
            0.054021231385    -0.058254629048    -0.000065180161    0.000053052888    0.071598005235    -0.057723934284    -0.000114047843    0.000073648531
            -0.000126875607    0.000077961537    0.060488877448    -0.010086355545    -0.000113700485    0.000073718390    0.068114518498    -0.060553584678
0.275     0.058854850714    -0.154983453663    -0.000031314727    0.000101747204    0.026582779172    -0.131596321057    0.000004549992    0.000150290591
            -0.000030748771    0.000100354337    -0.011287134644    -0.165139596979    0.000005534224    0.000090321163    -0.010992966115    -0.129208064810
            0.027683970221    -0.131216992100    0.000014559653    0.000059764731    0.056561698046    -0.156061358248    0.000015326296    0.000106365584
            0.000003555789    0.000118131387    -0.011569165985    -0.130165736080    0.000018013184    0.000113621799    -0.013063103823    -0.166245849880
0.300     -0.035720830551    -0.139772438580    0.000090669028    0.000110312399    -0.035719347928    -0.100784968550    0.000150867020    0.000103003078
            0.000087372113    0.000115327403    -0.104817837530    -0.037106208112    0.000088749053    0.000057789563    -0.098196516949    0.004004114121
            -0.034839527611    -0.100874393131    0.000066150674    0.000042270983    -0.036076549823    -0.137803281237    0.000109089902    0.000067376212
            0.000121847446    0.000096334030    -0.099118891885    0.003903730733    0.000118248250    0.000061445588    -0.104015976973    -0.035362570018
0.325     -0.029925271974    -0.105028228120    0.000148176416    -0.000079649458    -0.028286161479    -0.100594964055    0.000167861578    -0.000144381727
            0.000154760967    -0.000080031505    0.056422824865    0.015676222088    0.000094004726    -0.000087508844    0.076115475215    0.046764740925
            -0.027451194494    -0.100911942196    0.000072606046    -0.000074364335    -0.028362869264    -0.106146103606    0.000116188319    -0.000109618209
            0.000152242971    -0.000121671637    0.075658598186    0.047002475379    0.000111964206    -0.000114654451    0.058861037331    0.013001679269
0.350     -0.061645224377    -0.121083767106    -0.000015398553    -0.000142033230    -0.098081642464    -0.096213366887    -0.000067028512    -0.000184163624
            -0.000017865049    -0.000144219918    0.030022982076    -0.143422018469    -0.000040165392    -0.000101280434    0.049051114808    -0.122755073942
            -0.097327769201    -0.096986557603    -0.000038093289    -0.000076033481    -0.063700512388    -0.123505158939    -0.000053207236    -0.000128719287
            -0.000053890734    -0.000160070599    0.048451817698    -0.122231027863    -0.000054606288    -0.000131713732    0.027230157936    -0.145132220585
0.375     -0.096627408417    -0.059744675749    -0.000139036578    -0.000081459290    -0.097605050779    0.007943874212    -0.000202108352    -0.000058772302
            -0.000135920002    -0.000082278440    -0.098456552226    -0.073230754220    -0.000118972428    -0.000035310839    -0.072401775942    -0.063794086720
            -0.097358319432    0.006736978377    -0.000090434086    -0.000026033547    -0.098256836407    -0.058616814623    -0.000148143130    -0.000040654156
            -0.000171132961    -0.000060395452    -0.072432300813    -0.062583173720    -0.000158793246    -0.000038606665    -0.097102399579    -0.069855517115
0.400     -0.048769200817    -0.052595986214    -0.000145161958    0.000137204899    -0.016002136756    -0.016219044483    -0.000153465108    0.000215826860
            -0.000151047038    0.000132876366    0.012309580825    0.000954009434    -0.000082466854    0.000139337912    0.012728629218    -0.009355381511
            -0.016559675423    -0.017388661250    -0.000065523149    0.000108860028    -0.048020502375    -0.053688072749    -0.000105822275    0.000166615496
            -0.000144105010    0.000179787427    0.013926797308    -0.008697901586    -0.000100930075    0.000179630126    0.017724325170    -0.003108541740
0.425     -0.120534817931    -0.087610093594    0.000073203795    0.000149554499    -0.104723183232    -0.058924756782    0.000149111521    0.000181460504
            0.000072366209    0.000156286349    0.009625797093    -0.153789481591    0.000097217239    0.000085201744    -0.012666411931    -0.124828823716
            -0.105772208247    -0.059433738490    0.000070913768    0.000066614630    -0.123542407811    -0.088800025248    0.000114344740    0.000119402920
            0.000115158033    0.000165126214    -0.011726800588    -0.125383344399    0.000122589347    0.000115259652    0.006066183897    -0.158602443505
0.450     -0.167541095157    0.040719645634    0.000152530669    0.000048287917    -0.131539207319    0.074957486647    0.000205376900    -0.000002451425
            0.000155474218    0.000047251950    -0.164822222355    -0.108999399668    0.000101806747    0.000000428875    -0.139683845164    -0.068124651419
            -0.132417376811    0.074993645017    0.000083072307    0.000014348925    -0.168487955474    0.043604444423    0.000141255667    0.000002763171
            0.000183371531    0.000020935299    -0.139429012433    -0.068640016214    0.000142691531    -0.000000150399    -0.164864895481    -0.106142280058
0.475     -0.021313744195    0.083464609877    0.000157353137    -0.000169578744    0.014542698807    0.091916063723    0.000145141398    -0.000242772338
            0.000158872759    -0.000167754868    -0.109906533559    0.033108573732    0.000090803192    -0.000143133113    -0.094026152052    0.033181871700
            0.013696027338    0.091992755835    0.000087751482    -0.000122173259    -0.019654008238    0.082131216038    0.000114656364    -0.000182771733
            0.000151681268    -0.000214030625    -0.093707738192    0.032468025664    0.000114004818    -0.000190897172    -0.104433420892    0.028017900806
0.500     -0.042977875105    -0.056224054202    -0.000148764298    -0.000182500254    -0.012807421763    -0.032066065581    -0.000234221709    -0.000205880948
            -0.000146028852    -0.000188482709    -0.050861916973    -0.050495797791    -0.000155620769    -0.000109711883    -0.060725224728    -0.008128462802
            -0.013905365473    -0.031435437017    -0.000125551260    -0.000091686505    -0.047484640877    -0.056883393096    -0.000185915215    -0.000148825970
            -0.000197508236    -0.000195400956    -0.061269289331    -0.009272288934    -0.000196924251    -0.000147158161    -0.056625533819    -0.057555390357
0.525     -0.163904717660    0.052402740359    -0.000178478254    0.000014992790    -0.094711251013    0.052463870102    -0.000227595088    0.000090918117
            -0.000185204800    0.000014914368    -0.177444188181    -0.016457719829    -0.000112163988    0.000061786933    -0.114269363876    0.036890930749
            -0.095065356595    0.053916076247    -0.000089890985    0.000028551004    -0.163609215970    0.058087084103    -0.000159562671    0.000070700114
            -0.000207135551    0.000050968728    -0.115601119949    0.036815118396    -0.000158217398    0.000077934709    -0.179840828404    -0.012565350176
0.550     -0.014463391068    0.155526034770    -0.000141990151    0.000201051946    0.011826900868    0.103304789591    -0.000096171536    0.000271476889
            -0.000140778065    0.000205248877    -0.112793001031    0.127104490001    -0.000058584920    0.000150638574    -0.049862881494    0.099647536311
            0.012494573084    0.104409561903    -0.000084674678    0.000128128793    -0.009399555987    0.154205301496    -0.000076989658    0.000200395542
            -0.000129902901    0.000245035001    -0.050521696625    0.100500979564    -0.000075119285    0.000202583278    -0.107546639575    0.123554362131
0.575     0.041509962899    -0.004540314844    0.000215109172    0.000226357032    0.028565734537    -0.009837855066    0.000299463456    0.000219956253
            0.000216174303    0.000226940401    -0.011472744186    0.060325315721    0.000189655649    0.000125883578    -0.011216104951    0.048432975032
            0.029176617698    -0.009177488537    0.000165295836    0.000135814829    0.038297451445    -0.006863052719    0.000233312539    0.000167348565
            0.000268695018    0.000237948910    -0.011226750014    0.049139304924    0.000239990659    0.000168859150    -0.017108546497    0.054084441778
0.600     -0.092782197949    0.019082866845    0.000241634386    -0.000116403691    -0.052589669168    0.027273579395    0.000274445784    -0.000199501953
            0.000244791577    -0.000116939161    -0.077120528979    0.040160435599    0.000147360357    -0.000133559708    -0.037836655230    0.053440879101
            -0.051887569160    0.027718755237    0.000140152550    -0.000102836395    -0.091576475132    0.024089770842    0.000203820312    -0.000156769959
            0.000273029397    -0.000162753478    -0.037697243727    0.054203507595    0.000206586490    -0.000164866612    -0.078577596329    0.044584009946
0.625     -0.017774892389    0.096334432830    0.000047209559    -0.000288401901    0.001796657075    0.048722049808    -0.000019081981    -0.000354260083
            0.000045969329    -0.000291884685    -0.025667150008    0.095995347842    -0.000024190319    -0.000207297252    0.009269278037    0.053458883110
            0.002995468419    0.048801544593    0.000011229689    -0.000190546431    -0.012417234265    0.093502723388    -0.000018184270    -0.000272374897
            0.000021757864    -0.000339300788    0.010154898499    0.054129036363    -0.000023723136    -0.000276736061    -0.020274835784    0.090750602419
0.650     -0.011585085663    0.012443171142    -0.000314087086    -0.000148016502    -0.037911731966    0.000900708846    -0.000399579016    -0.000111820935
            -0.000316564947    -0.000147570720    -0.004499659453    0.017574658203    -0.000250644249    -0.000040650910    -0.026440915870    -0.003564872873
            -0.036855836359    0.000119472298    -0.000230407138    -0.000070618151    -0.014156322912    0.010252244104    -0.000313419266    -0.000074421771
            -0.000377590416    -0.000146650429    -0.025249025193    -0.003910921593    -0.000320131002    -0.000072033271    -0.011060965817    0.011358245533
0.675     -0.061432537463    0.071849581805    -0.000214556756    0.000209078948    -0.055232961199    0.084044535729    -0.000221515602    0.000299531571
            -0.000215932156    0.000212114242    -0.072671848217    0.044298540593    -0.000102377649    0.000188840286    -0.068868244823    0.063077534292
            -0.054873285846    0.082875198129    -0.000116221556    0.000161500116    -0.057774431627    0.073837786365    -0.000159561335    0.000232880662
            -0.000238794892    0.000269457683    -0.068440012945    0.062038179834    -0.000159621648    0.000240191410    -0.072934519065    0.047104081215
0.700     0.019524559145    0.052022859853    0.000062373107    0.000329829068    0.023993470108    0.049291376065    0.000149935734    0.000380132072
            0.000066834560    0.000330909691    -0.025998868798    0.065672947132    0.000107816735    0.000219589247    -0.006466115358    0.066142778983
            0.023681252641    0.048200754494    0.000068603704    0.000219929590    0.022043087994    0.044154661504    0.000123971017    0.000295303259
            0.000108749981    0.000380773190    -0.006797882232    0.065242188799    0.000129835815    0.000298339379    -0.023639217138    0.056651959298
0.725     -0.101094975119    -0.009965751303    0.000373878763    -0.000002272594    -0.079188001258    0.034152233336    0.000444671678    -0.000073596819
            0.000372769557    -0.000004758657    -0.090403666737    0.028911099081    0.000264639624    -0.000093246087    -0.074881253048    0.042520098212
            -0.079857232128    0.033661722301    0.000262047553    -0.000051155827    -0.107882510164    -0.009214368715    0.000342733372    -0.000081178790
            0.000438151021    -0.000029738234    -0.075549088807    0.042096415506    0.000348580521    -0.000085972523    -0.101883601284    0.025748559978
0.750     -0.111403898976    0.180306409031    0.000090193496    -0.000250323040    -0.070813769350    0.169681422285    0.000064042117    -0.000326576460
            0.000092020136    -0.000250730447    -0.107323978051    0.165282874114    -0.000011530370    -0.000183029218    -0.066228397302    0.163497523830
            -0.071322758378    0.169187697774    0.000015824327    -0.000174725755    -0.105288825628    0.183992358703    0.000031616861    -0.000243963793
            0.000093607478    -0.000312762591    -0.066962563198    0.163406190561    0.000027946540    -0.000249275091    -0.105843732967    0.171127592322
0.775     0.075470416006    0.146866431777    -0.000096061077    -0.000267165134    0.073933614318    0.125211562186    -0.000179651059    -0.000298963568
            -0.000101470360    -0.000270810516    0.039538797129    0.165744569236    -0.000104161380    -0.000159211962    0.065315800954    0.140158836782
            0.072813219292    0.124740732278    -0.000079763593    -0.000166772777    0.079020151696    0.135817156154    -0.000140290907    -0.000233616253
