# GHz S RI R 45
0.000     0.078692950000    -0.000000000000    -0.000021384351    0.000000000000    0.004672756400    0.000000000000    -0.000042046729    0.000000000000
            0.000046688821    0.000000000000    0.076239358000    -0.000000000000    0.000073608262    -0.000000000000    0.005350456800    -0.000000000000
            0.005094198600    0.000000000000    -0.000056219970    -0.000000000000    0.078583525000    -0.000000000000    0.000013442875    0.000000000000
            -0.000030838964    0.000000000000    0.006184566900    0.000000000000    0.000070755039    -0.000000000000    0.077879598000    -0.000000000000
0.025     0.147740455616    0.003958972193    0.000047938393    0.000028320784    0.082905647073    0.042117409379    0.000033502187    0.000039058608
            0.000077144875    -0.000022519130    0.147796105762    0.006164284766    0.000023013222    -0.000058788873    0.082252662205    0.041853946117
            0.082987439293    0.041774161986    0.000037525886    0.000056133523    0.147086793904    0.005311075240    0.000019147091    -0.000012080999
            0.000022656494    0.000029897099    0.082825903302    0.041328352326    0.000007113234    -0.000062884238    0.148109571006    0.006475703258
0.050     0.098700451566    -0.075411514095    -0.000026550018    0.000022506646    0.070514254538    -0.025912124963    -0.000022354224    0.000023766365
            -0.000043008207    -0.000017819895    0.101150231277    -0.076446806335    -0.000104898874    0.000069906861    0.070755505671    -0.025134877955
            0.070253495192    -0.026042620304    -0.000014001649    0.000034726998    0.098639370666    -0.075017750100    -0.000058372720    0.000051562490
            -0.000033069855    0.000038286000    0.070779535498    -0.025999632850    -0.000103307071    0.000073332016    0.101140355679    -0.077475552136
0.075     0.072126438556    0.006940037240    0.000071703728    0.000162527740    0.065650579762    0.047859520130    0.000064477225    0.000149171563
            0.000055209130    0.000141141613    0.069851768612    0.004736256911    0.000150457097    0.000220090836    0.064891591678    0.048032425032
            0.065578522295    0.047871277106    0.000075267982    0.000163913949    0.071976653931    0.007617104204    0.000110755939    0.000165298913
            0.000080646025    0.000159310914    0.064376335509    0.047340403594    0.000148510659    0.000196533215    0.068912659499    0.004295863384
0.100     0.178639267876    -0.023796638070    0.000133201155    -0.000009752372    0.180935193342    -0.007965607922    0.000138089444    -0.000003447438
            0.000093153137    -0.000028448927    0.177932506573    -0.019348412618    0.000169167853    -0.000095213098    0.181165626488    -0.005111096271
            0.180631518564    -0.008122510605    0.000145538607    0.000007215868    0.179412330808    -0.023335675168    0.000146468701    -0.000061584133
            0.000144107480    -0.000009819589    0.180386190701    -0.005193212971    0.000163295352    -0.000102766614    0.177935972748    -0.018686761864
0.125     0.103921204491    -0.131162996184    -0.000061958402    0.000065592081    0.090429732378    -0.127226955975    -0.000029746288    0.000030342615
            -0.000119342857    0.000088492713    0.109491396212    -0.131207490764    -0.000148119786    0.000049546303    0.094264988760    -0.126383353241
            0.089970964924    -0.126704184432    -0.000023245140    0.000063278039    0.104566827330    -0.131785613719    -0.000078804095    0.000027027133
            -0.000029978183    0.000023202594    0.093532408200    -0.125908619973    -0.000125700023    0.000010436318    0.109210227114    -0.131358836654
0.150     0.049264925003    -0.044269411168    0.000189148893    0.000263834761    0.030669495144    -0.026921977431    0.000174228721    0.000210283012
            0.000186539498    0.000341702235    0.047466148666    -0.047545742343    0.000227557836    0.000366317697    0.030691769385    -0.027789893627
            0.031261925011    -0.026244856929    0.000216200620    0.000229763536    0.049498975254    -0.045279338396    0.000195350303    0.000243084214
            0.000171943890    0.000214511025    0.030583779524    -0.026839304084    0.000190850382    0.000302532337    0.047252731971    -0.046638030964
0.175     0.143847796672    -0.095360354804    0.000190627038    -0.000073688276    0.136753261712    -0.086282476349    0.000191774126    -0.000097328355
            0.000239873608    -0.000051659115    0.145731899758    -0.089905457860    0.000292118056    -0.000150352066    0.140910235772    -0.082371024736
            0.137308399963    -0.086649770851    0.000190874261    -0.000104836155    0.143078533210    -0.096883756105    0.000225064219    -0.000141633389
            0.000195659585    -0.000103129224    0.141500475541    -0.081741757178    0.000274186975    -0.000153842078    0.146683939470    -0.089848396900
0.200     0.032317536032    -0.194504224506    -0.000077205688    0.000115353869    0.001495265516    -0.193890924424    -0.000067584558    0.000039301934
            -0.000046766652    0.000112659679    0.042397614553    -0.196708353474    -0.000143802793    0.000033596802    0.010349719968    -0.197419944653
            0.001361544745    -0.194001812258    -0.000075540673    0.000096258461    0.030496365479    -0.194737956650    -0.000108740515    0.000006296693
            -0.000069462452    0.000032419113    0.011018582249    -0.197263085565    -0.000126295302    -0.000033520992    0.042339836332    -0.197035215777
0.225     -0.053043721486    -0.068737556552    0.000314903261    0.000367210334    -0.093571820940    -0.030354025666    0.000256419823    0.000309554032
            0.000349674429    0.000364149225    -0.052969160013    -0.076571885189    0.000290576113    0.000451127378    -0.094105226299    -0.037411885147
            -0.092973034482    -0.030317236520    0.000325515686    0.000344848360    -0.053324561545    -0.067966697846    0.000256920849    0.000348664262
            0.000240233059    0.000308246984    -0.093296717218    -0.037646161200    0.000218715130    0.000383371931    -0.051915014158    -0.076075240837
0.250     0.064408880782    -0.060767285944    0.000348638737    -0.000188690837    0.057736526034    -0.010849241351    0.000344175349    -0.000201350472
            0.000390574204    -0.000243368750    0.066749332797    -0.058477431827    0.000479932754    -0.000229501417    0.060022147476    -0.009107735236
            0.057911122645    -0.012066690287    0.000345086381    -0.000227353316    0.064107779664    -0.061763865354    0.000407833968    -0.000234530741
            0.000345949914    -0.000183612774    0.060488877448    -0.010086355545    0.000463843541    -0.000211226161    0.068114518498    -0.060553584678
0.275     -0.021068229713    -0.158585272185    -0.000041671255    0.000092131377    -0.018416495444    -0.122600919293    -0.000047797653    0.000012333237
            -0.000082067863    0.000022808940    -0.011287134644    -0.165139596979    -0.000092748733    -0.000036955827    -0.010992966115    -0.129208064810
            -0.019772015522    -0.123013053940    -0.000065454146    0.000089275347    -0.023059682390    -0.157697216759    -0.000070727467    -0.000057337792
            -0.000036710649    0.000010831787    -0.011569165985    -0.130165736080    -0.000062793069    -0.000116897738    -0.013063103823    -0.166245849880
0.300     -0.103316767572    -0.025775182135    0.000468235651    0.000306943689    -0.094687757371    0.012303607056    0.000412775179    0.000276782020
            0.000402112880    0.000309308015    -0.104817837530    -0.037106208112    0.000406602375    0.000375390965    -0.098196516949    0.004004114121
            -0.095190998697    0.013320725645    0.000507651967    0.000330161862    -0.101509206871    -0.023302791692    0.000396425991    0.000297991776
            0.000409352771    0.000269792404    -0.099118891885    0.003903730733    0.000339852153    0.000299225391    -0.104015976973    -0.035362570018
0.325     0.057535510119    0.015324010203    0.000469189470    -0.000433564891    0.076465193861    0.043548494114    0.000503663176    -0.000451869154
            0.000441203767    -0.000404868389    0.056422824865    0.015676222088    0.000602224333    -0.000436969872    0.076115475215    0.046764740925
            0.076849192351    0.043598743375    0.000531253502    -0.000498349739    0.060028138840    0.012424283220    0.000574528636    -0.000492433294
            0.000497578941    -0.000440925726    0.075658598186    0.047002475379    0.000589971502    -0.000445122536    0.058861037331    0.013001679269
0.350     0.022189932288    -0.139083751565    -0.000131279913    -0.000111054114    0.040458922853    -0.119462483155    -0.000126860255    -0.000221536851
            -0.000156129599    -0.000081428965    0.030022982076    -0.143422018469    -0.000130916763    -0.000256902589    0.049051114808    -0.122755073942
            0.039810594732    -0.119253466516    -0.000150420090    -0.000163726981    0.019165406654    -0.141219026242    -0.000151967289    -0.000321752175
            -0.000109481784    -0.000219802990    0.048451817698    -0.122231027863    -0.000118768477    -0.000352291089    0.027230157936    -0.145132220585
0.375     -0.101238633759    -0.062414075681    0.000365145907    0.000164846092    -0.075404509914    -0.055566636011    0.000327041133    0.000115709411
            0.000362564195    0.000231014106    -0.098456552226    -0.073230754220    0.000305147720    0.000180453536    -0.072401775942    -0.063794086720
            -0.075054658522    -0.054104188730    0.000416037179    0.000169461843    -0.100782748530    -0.059738350680    0.000286669667    0.000117869993
            0.000327760351    0.000097768670    -0.072432300813    -0.062583173720    0.000240578703    0.000098190155    -0.097102399579    -0.069855517115
0.400     0.011920588201    0.005845546981    0.000358888179    -0.000537979892    0.008952461210    -0.005697071856    0.000401344929    -0.000616213420
            0.000433074411    -0.000497284905    0.012309580825    0.000954009434    0.000479898390    -0.000564343655    0.012728629218    -0.009355381511
            0.010814406991    -0.005860227544    0.000441431049    -0.000673928852    0.015375076363    0.001714911607    0.000451166161    -0.000660301754
            0.000388419513    -0.000618027614    0.013926797308    -0.008697901586    0.000446159329    -0.000604618649    0.017724325170    -0.003108541740
0.425     0.000375377775    -0.148562325760    -0.000320145249    -0.000183913877    -0.022222758259    -0.116373177023    -0.000358985313    -0.000324717568
            -0.000262635175    -0.000221618208    0.009625797093    -0.153789481591    -0.000327635904    -0.000355860460    -0.012666411931    -0.124828823716
            -0.022069997336    -0.117823418070    -0.000406203541    -0.000304801589    -0.005430347098    -0.152272612226    -0.000398917673    -0.000415716111
            -0.000360845734    -0.000316344490    -0.011726800588    -0.125383344399    -0.000350155773    -0.000418518805    0.006066183897    -0.158602443505
0.450     -0.174285631486    -0.090234488394    0.000176111371    0.000189895824    -0.145039141544    -0.050412395424    0.000128897288    0.000130843516
            0.000192527513    0.000147163191    -0.164822222355    -0.108999399668    0.000104749129    0.000155443031    -0.139683845164    -0.068124651419
            -0.145578990715    -0.050526431170    0.000159261834    0.000201787157    -0.176106182897    -0.084930771285    0.000091982830    0.000132882148
            0.000134455958    0.000127947993    -0.139429012433    -0.068640016214    0.000086478960    0.000094534882    -0.164864895481    -0.106142280058
0.475     -0.106646862882    0.052728892367    0.000347185519    -0.000411556145    -0.091035971140    0.049544015422    0.000352997975    -0.000517985975
            0.000349473724    -0.000457567625    -0.109906533559    0.033108573732    0.000384025616    -0.000461305986    -0.094026152052    0.033181871700
            -0.090635631879    0.049142948275    0.000401171842    -0.000531350821    -0.101298195559    0.050781188519    0.000390908311    -0.000565104234
            0.000343871729    -0.000522598042    -0.093707738192    0.032468025664    0.000363793816    -0.000548299341    -0.104433420892    0.028017900806
0.500     -0.050272218635    -0.038914049101    -0.000391453694    -0.000295660780    -0.058118624973    0.004060798536    -0.000463144073    -0.000399437379
            -0.000432133621    -0.000350738486    -0.050861916973    -0.050495797791    -0.000439082692    -0.000412061829    -0.060725224728    -0.008128462802
            -0.059014408203    0.002832239230    -0.000519521221    -0.000397093059    -0.055206716639    -0.044075092057    -0.000508150145    -0.000472596749
            -0.000469277923    -0.000387918427    -0.061269289331    -0.009272288934    -0.000476725444    -0.000463570954    -0.056625533819    -0.057555390357
0.525     -0.178876467359    0.007245774052    0.000088965776    0.000205455106    -0.110214528669    0.054311309973    0.000078766708    0.000157631603
            0.000013849573    0.000208638683    -0.177444188181    -0.016457719829    0.000045318429    0.000193990942    -0.114269363876    0.036890930749
            -0.111849441613    0.054975171833    0.000071768940    0.000267163480    -0.180625930474    0.012948441676    0.000077695509    0.000149528465
            0.000089006735    0.000167567977    -0.115601119949    0.036815118396    0.000078564590    0.000114820981    -0.179840828404    -0.012565350176
0.550     -0.095986670241    0.149443452236    0.000329751827    -0.000452720212    -0.036687386886    0.112944763750    0.000328761200    -0.000588594315
            0.000288177706    -0.000401080519    -0.112793001031    0.127104490001    0.000354192498    -0.000525098491    -0.049862881494    0.099647536311
            -0.036655875382    0.114461110863    0.000419389911    -0.000552139062    -0.088968364839    0.147333979133    0.000355485569    -0.000683048081
            0.000341077466    -0.000595868309    -0.050521696625    0.100500979564    0.000320169847    -0.000685986901    -0.107546639575    0.123554362131
0.575     0.001882571697    0.065900284796    -0.000551228762    -0.000507291496    -0.002417338486    0.053265130018    -0.000616669223    -0.000586712176
            -0.000548400453    -0.000448998845    -0.011472744186    0.060325315721    -0.000603980598    -0.000573227513    -0.011216104951    0.048432975032
            -0.001647828639    0.053635557105    -0.000641486440    -0.000622497602    -0.002697609059    0.059016393007    -0.000690237254    -0.000654359853
            -0.000622731743    -0.000598279598    -0.011226750014    0.049139304924    -0.000693930211    -0.000625102941    -0.017108546497    0.054084441778
0.600     -0.073343863949    0.054605594058    -0.000200510495    0.000252579044    -0.034056599839    0.064452942913    -0.000150637199    0.000156254847
            -0.000169829371    0.000297584226    -0.077120528979    0.040160435599    -0.000162936816    0.000218627645    -0.037836655230    0.053440879101
            -0.033933567613    0.064651796528    -0.000186007805    0.000266945697    -0.076083289289    0.059059265833    -0.000129841000    0.000141013009
            -0.000158891870    0.000166086892    -0.037697243727    0.054203507595    -0.000117277975    0.000140978252    -0.078577596329    0.044584009946
0.625     -0.009980285565    0.108630269555    0.000080019988    -0.000523030893    0.019251979565    0.062083371629    0.000035361546    -0.000731969637
            0.000138018868    -0.000500778312    -0.025667150008    0.095995347842    0.000077188576    -0.000703236530    0.009269278037    0.053458883110
            0.020032211799    0.062690178115    0.000136126480    -0.000699375458    -0.005246504784    0.105373660348    0.000021629499    -0.000882596276
            0.000054378006    -0.000727843877    0.010154898499    0.054129036363    0.000016358281    -0.000884159637    -0.020274835784    0.090750602419
0.650     0.000119923159    0.021017809875    -0.001049142742    -0.000318049424    -0.025095986750    0.002884375835    -0.001134929896    -0.000379985633
            -0.000982002577    -0.000349016012    -0.004499659453    0.017574658203    -0.001189683713    -0.000381772808    -0.026440915870    -0.003564872873
            -0.023616705089    0.002238441252    -0.001201867873    -0.000449373134    -0.006059140690    0.016284760493    -0.001276427745    -0.000407229225
            -0.001136775098    -0.000410128863    -0.025249025193    -0.003910921593    -0.001275106675    -0.000393637201    -0.011060965817    0.011358245533
0.675     -0.068866007939    0.063840515804    -0.000386924487    0.000646654556    -0.062523422091    0.082308756879    -0.000328112832    0.000495542115
            -0.000365376039    0.000572841307    -0.072671848217    0.044298540593    -0.000356515957    0.000614403282    -0.068868244823    0.063077534292
            -0.062590048145    0.080495075754    -0.000420461908    0.000638512091    -0.069696024440    0.068310774150    -0.000286851677    0.000511251486
            -0.000362795882    0.000504467965    -0.068440012945    0.062038179834    -0.000268979256    0.000517112378    -0.072934519065    0.047104081215
0.700     -0.011342783510    0.078635619523    -0.000049558798    -0.000279587289    0.009127683087    0.076463834696    -0.000178977838    -0.000510695272
            -0.000087709029    -0.000337628315    -0.025998868798    0.065672947132    -0.000139682303    -0.000499097066    -0.006466115358    0.066142778983
            0.007638644948    0.076003070677    -0.000104627004    -0.000444458781    -0.008442829640    0.073477176651    -0.000216467730    -0.000678923237
            -0.000163354495    -0.000478933965    -0.006797882232    0.065242188799    -0.000199815631    -0.000696015502    -0.023639217138    0.056651959298
0.725     -0.087174911838    0.047113357363    -0.001136741669    0.000249374422    -0.067723560808    0.056958005966    -0.001214206333    0.000245438325
            -0.001188708489    0.000236910404    -0.090403666737    0.028911099081    -0.001364886284    0.000303314120    -0.074881253048    0.042520098212
            -0.068122007519    0.057459811698    -0.001331928028    0.000251345877    -0.094481950045    0.046761441316    -0.001370431098    0.000281723405
            -0.001194329536    0.000218506742    -0.075549088807    0.042096415506    -0.001381570802    0.000261602476    -0.101883601284    0.025748559978
0.750     -0.080204697173    0.194302739501    -0.000112227220    0.000906722724    -0.040213694267    0.182780223548    -0.000048593334    0.000719852147
            -0.000162114400    0.000912605904    -0.107323978051    0.165282874114    -0.000035920308    0.000971401049    -0.066228397302    0.163497523830
            -0.040424237631    0.182275858723    -0.000094815234    0.000963201208    -0.075818649217    0.198779342275    0.000041467556    0.000756372189
            -0.000079350972    0.000714204717    -0.066962563198    0.163406190561    0.000026798299    0.000758995756    -0.105843732967    0.171127592322
0.775     0.072581835237    0.165868412727    0.000122393131    -0.000142843622    0.092303785811    0.135874686211    -0.000031001913    -0.000370676671
            0.000068837901    -0.000099424089    0.039538797129    0.165744569236    0.000093791572    -0.000342726171    0.065315800954    0.140158836782
            0.090701799946    0.136357918542    0.000102130345    -0.000275288704    0.074718440847    0.156311445630    -0.000037632068    -0.000560319884
