# GHz S RI R 45
0.000     0.077644766000    0.000000000000    0.000004651473    -0.000000000000    0.004889274700    -0.000000000000    -0.000018760372    -0.000000000000
            0.000019231196    0.000000000000    0.076239358000    -0.000000000000    -0.000001886379    0.000000000000    0.005350456800    -0.000000000000
            0.005831414600    -0.000000000000    0.000044608982    0.000000000000    0.079348072000    -0.000000000000    -0.000025251975    -0.000000000000
            0.000051610096    0.000000000000    0.006184566900    0.000000000000    -0.000039436870    -0.000000000000    0.077879598000    -0.000000000000
0.025     0.148385096207    0.005508849646    -0.000013134040    -0.000006972523    0.083024014757    0.042370999876    0.000001686384    0.000016276881
            -0.000003741393    -0.000017438036    0.147796105762    0.006164284766    0.000061542207    0.000039950513    0.082252662205    0.041853946117
            0.082720096226    0.041581367951    0.000046324748    -0.000001900019    0.148079172077    0.005155171921    -0.000000246974    0.000020382520
            0.000017161729    -0.000039972436    0.082825903302    0.041328352326    0.000011037018    0.000034522968    0.148109571006    0.006475703258
0.050     0.100585255154    -0.076267989134    -0.000036755249    0.000050752257    0.070932730900    -0.025727114830    -0.000018331382    0.000032358755
            -0.000037609593    0.000038767283    0.101150231277    -0.076446806335    -0.000061658544    0.000086846045    0.070755505671    -0.025134877955
            0.070205301286    -0.025146678858    -0.000095445896    0.000116107349    0.099670287960    -0.076331904663    -0.000016052510    0.000029298411
            -0.000044337429    0.000018472453    0.070779535498    -0.025999632850    -0.000000091130    0.000011618494    0.101140355679    -0.077475552136
0.075     0.070827599350    0.006124214523    0.000069684040    0.000080423662    0.065006922343    0.048688644462    0.000045285201    0.000082939003
            0.000064452598    0.000075025098    0.069851768612    0.004736256911    0.000118321545    0.000325141531    0.064891591678    0.048032425032
            0.065623722593    0.049241949416    0.000160780934    0.000345050457    0.070674841891    0.006493034659    0.000042537336    0.000074443478
            0.000057538784    0.000080004381    0.064376335509    0.047340403594    0.000023021095    0.000058968459    0.068912659499    0.004295863384
0.100     0.179130877449    -0.020165673498    0.000052416940    -0.000022325222    0.181973838627    -0.005025535125    0.000074270659    0.000004690004
            0.000047958570    -0.000028748294    0.177932506573    -0.019348412618    0.000204473756    0.000069661167    0.181165626488    -0.005111096271
            0.182017938218    -0.005863602261    0.000210891541    0.000024446505    0.178912626841    -0.020892362910    0.000059376878    0.000007548536
            0.000058804988    -0.000041062392    0.180386190701    -0.005193212971    0.000048030468    0.000020716505    0.177935972748    -0.018686761864
0.125     0.108086791391    -0.130792240649    -0.000023391261    0.000027360678    0.093626542156    -0.126151524963    0.000000944182    0.000016034201
            -0.000035363354    0.000022167723    0.109491396212    -0.131207490764    -0.000098099818    0.000259001126    0.094264988760    -0.126383353241
            0.092730876393    -0.125845573204    -0.000142088537    0.000262164849    0.106744752291    -0.130580631991    0.000008198072    0.000010834540
            -0.000069391342    0.000022790464    0.093532408200    -0.125908619973    0.000016395160    0.000018098245    0.109210227114    -0.131358836654
0.150     0.049439241024    -0.044388537607    0.000101813672    0.000091735825    0.031950014720    -0.025509760764    0.000093935876    0.000098658961
            0.000090882788    0.000107018328    0.047466148666    -0.047545742343    0.000364381695    0.000557910162    0.030691769385    -0.027789893627
            0.032641054615    -0.024602724850    0.000382518060    0.000595190277    0.049893717192    -0.043136267549    0.000076386558    0.000072589860
            0.000091381853    0.000169107354    0.030583779524    -0.026839304084    0.000078217946    0.000064911090    0.047252731971    -0.046638030964
0.175     0.148177002899    -0.091482799092    0.000065532718    -0.000060494426    0.142410791951    -0.083098271348    0.000112937377    -0.000045942524
            0.000072911440    -0.000049327664    0.145731899758    -0.089905457860    0.000343184790    0.000026762562    0.140910235772    -0.082371024736
            0.143058630230    -0.083906544358    0.000365966219    -0.000004734277    0.148928490480    -0.092426478689    0.000058668265    -0.000027244801
            0.000152168048    -0.000044397547    0.141500475541    -0.081741757178    0.000047314183    -0.000024248789    0.146683939470    -0.089848396900
0.200     0.040745998259    -0.196335715535    -0.000036323529    0.000009588518    0.009433625409    -0.196412543646    -0.000020460396    -0.000011745452
            -0.000032086198    0.000010775249    0.042397614553    -0.196708353474    -0.000049317051    0.000426215660    0.010349719968    -0.197419944653
            0.008570094560    -0.196718559307    -0.000090034456    0.000413164301    0.039490129190    -0.196657310231    -0.000001258405    0.000011915004
            -0.000035539487    -0.000016225224    0.011018582249    -0.197263085565    0.000002248851    0.000029816177    0.042339836332    -0.197035215777
0.225     -0.049905659992    -0.072250122555    0.000089507829    0.000140018634    -0.091006198839    -0.033749199164    0.000105919164    0.000144944183
            0.000093109434    0.000147554285    -0.052969160013    -0.076571885189    0.000663455962    0.000690791439    -0.094105226299    -0.037411885147
            -0.090822591363    -0.032832199677    0.000657119472    0.000739731873    -0.049118258214    -0.070994875475    0.000081187625    0.000111896194
            0.000125595778    0.000191927426    -0.093296717218    -0.037646161200    0.000106134580    0.000107939565    -0.051915014158    -0.076075240837
0.250     0.071171435608    -0.061627992466    0.000121752874    -0.000067210887    0.063667010352    -0.011684893493    0.000179998265    -0.000082098253
            0.000136788536    -0.000066699754    0.066749332797    -0.058477431827    0.000506650091    -0.000103754229    0.060022147476    -0.009107735236
            0.064549147388    -0.012429185393    0.000554934991    -0.000107778468    0.072651826540    -0.063795717225    0.000103178235    -0.000037775630
            0.000247362785    -0.000110342859    0.060488877448    -0.010086355545    0.000095524924    -0.000063663521    0.068114518498    -0.060553584678
0.275     -0.013421810172    -0.165308479818    -0.000006263266    0.000019944975    -0.012186929210    -0.128618629476    -0.000010608714    -0.000025121915
            0.000002150993    0.000005617205    -0.011287134644    -0.165139596979    0.000049407556    0.000564786350    -0.010992966115    -0.129208064810
            -0.013200844193    -0.129389360598    0.000033778200    0.000527825797    -0.015753107389    -0.166587502763    0.000037174197    0.000038306999
            -0.000027692789    -0.000088622927    -0.011569165985    -0.130165736080    0.000018115613    0.000050499009    -0.013063103823    -0.166245849880
0.300     -0.100452671995    -0.032146456096    0.000154791712    0.000123679632    -0.093275402869    0.007695677646    0.000179562897    0.000144305013
            0.000147446614    0.000111210767    -0.104817837530    -0.037106208112    0.001014243716    0.000654979874    -0.098196516949    0.004004114121
            -0.093869390759    0.008789950651    0.000990851897    0.000684948308    -0.100248514534    -0.029998105214    0.000174249517    0.000082744659
            0.000139497503    0.000153249670    -0.099118891885    0.003903730733    0.000193288564    0.000093049394    -0.104015976973    -0.035362570018
0.325     0.063252367998    0.010455242891    0.000189861226    -0.000138387166    0.081612548554    0.041334896343    0.000271047451    -0.000195283666
            0.000182521250    -0.000138465032    0.056422824865    0.015676222088    0.000618903436    -0.000293306749    0.076115475215    0.046764740925
            0.082566528142    0.041469004953    0.000664552765    -0.000282809864    0.065526829370    0.008207932350    0.000159890155    -0.000140878745
            0.000286679152    -0.000191567331    0.075658598186    0.047002475379    0.000159635730    -0.000168391537    0.058861037331    0.013001679269
0.350     0.027539311242    -0.145832843775    0.000022642133    -0.000073438558    0.046774216082    -0.124036679323    -0.000016574390    -0.000142490367
            0.000019537667    -0.000076006146    0.030022982076    -0.143422018469    0.000188467395    0.000600201534    0.049051114808    -0.122755073942
            0.046378765250    -0.124838951801    0.000190122959    0.000545522917    0.024501450665    -0.147823514444    0.000047495182    -0.000046835802
            -0.000040983489    -0.000173986682    0.048451817698    -0.122231027863    0.000014740318    -0.000038284685    0.027230157936    -0.145132220585
0.375     -0.094195995069    -0.069360578080    0.000111679925    0.000002600160    -0.067643806990    -0.060965292997    0.000145102678    0.000040169213
            0.000101247568    0.000000970559    -0.098456552226    -0.073230754220    0.001271510991    0.000466196593    -0.072401775942    -0.063794086720
            -0.068366296544    -0.060050224132    0.001216967455    0.000470674779    -0.094115274852    -0.065895402501    0.000146432976    -0.000036760637
            0.000096101443    0.000072847394    -0.072432300813    -0.062583173720    0.000161258736    -0.000004068038    -0.097102399579    -0.069855517115
0.400     0.019591424166    -0.006247769079    0.000124232592    -0.000182772851    0.017994469772    -0.016487915475    0.000234912350    -0.000291796168
            0.000115088584    -0.000169569745    0.012309580825    0.000954009434    0.000626563463    -0.000471605607    0.012728629218    -0.009355381511
            0.019245522236    -0.015845813146    0.000642077837    -0.000428304947    0.024215334503    -0.008885109656    0.000084017050    -0.000214887156
            0.000261715606    -0.000239850834    0.013926797308    -0.008697901586    0.000109142087    -0.000235809939    0.017724325170    -0.003108541740
0.425     0.005422859356    -0.158421993659    -0.000027663571    -0.000118075767    -0.016528880746    -0.127023063614    -0.000133197442    -0.000230583527
            -0.000018726693    -0.000106764208    0.009625797093    -0.153789481591    0.000346064855    0.000583493483    -0.012666411931    -0.124828823716
            -0.016010985698    -0.128199331945    0.000369519773    0.000554177963    0.002285874622    -0.162568599970    -0.000036229702    -0.000079219309
            -0.000098468582    -0.000246383423    -0.011726800588    -0.125383344399    -0.000060509833    -0.000091371384    0.006066183897    -0.158602443505
0.450     -0.162836604617    -0.105837213249    -0.000005556775    -0.000037627546    -0.135822841295    -0.065581113114    0.000024653954    0.000022871697
            0.000001775206    -0.000038190719    -0.164822222355    -0.108999399668    0.001392479019    0.000200897844    -0.139683845164    -0.068124651419
            -0.136728466833    -0.065770875405    0.001349487713    0.000192025562    -0.163757743208    -0.102827385322    0.000039133865    -0.000044653198
            0.000013724734    0.000013621058    -0.139429012433    -0.068640016214    0.000038693610    -0.000017554747    -0.164864895481    -0.106142280058
0.475     -0.103205792831    0.026916413026    0.000080126438    -0.000104014549    -0.088554295519    0.026286314279    0.000178694718    -0.000259889060
            0.000082605846    -0.000103768369    -0.109906533559    0.033108573732    0.000634065860    -0.000584519292    -0.094026152052    0.033181871700
            -0.088245036960    0.026992436242    0.000632584167    -0.000526677159    -0.098428147824    0.023896849123    0.000067547645    -0.000155873192
            0.000192984031    -0.000238376947    -0.093707738192    0.032468025664    0.000099306111    -0.000167254449    -0.104433420892    0.028017900806
0.500     -0.056054804611    -0.055837350424    -0.000046367981    -0.000120903462    -0.065278969978    -0.011625451820    -0.000217976726    -0.000255381365
            -0.000038119817    -0.000119338016    -0.050861916973    -0.050495797791    0.000464674928    0.000479198781    -0.060725224728    -0.008128462802
            -0.064688861130    -0.012505136478    0.000526175955    0.000471915743    -0.060227165773    -0.061754038962    -0.000081645180    -0.000092506161
            -0.000184169793    -0.000282231762    -0.061269289331    -0.009272288934    -0.000101842719    -0.000120922669    -0.056625533819    -0.057555390357
0.525     -0.175251649149    -0.012865186834    -0.000018644866    -0.000037937107    -0.110009342813    0.038947967753    -0.000011516173    0.000064659006
            -0.000011389728    -0.000047650415    -0.177444188181    -0.016457719829    0.001463224184    -0.000095558889    -0.114269363876    0.036890930749
            -0.111141114851    0.038344934158    0.001449450586    -0.000142888364    -0.177857448317    -0.009618280749    0.000029804759    -0.000022097861
            -0.000034002604    0.000025744050    -0.115601119949    0.036815118396    0.000008976692    -0.000000734946    -0.179840828404    -0.012565350176
0.550     -0.105306407897    0.120308884777    0.000079917484    -0.000111903417    -0.044118247253    0.091013617755    0.000174296854    -0.000287278901
            0.000075359607    -0.000122954251    -0.112793001031    0.127104490001    0.000580697092    -0.000706940613    -0.049862881494    0.099647536311
            -0.044804569188    0.092153370276    0.000550402614    -0.000683737796    -0.101088455152    0.118510576215    0.000100815072    -0.000180656768
            0.000139345928    -0.000273546764    -0.050521696625    0.100500979564    0.000122641173    -0.000168253707    -0.107546639575    0.123554362131
0.575     -0.016162539004    0.052933409584    -0.000075809112    -0.000187489222    -0.016836341597    0.042479030084    -0.000292201885    -0.000325009159
            -0.000085522376    -0.000188821246    -0.011472744186    0.060325315721    0.000550170665    0.000283090954    -0.011216104951    0.048432975032
            -0.015837426054    0.042941892501    0.000593149850    0.000297332330    -0.020076949792    0.048270618267    -0.000142446866    -0.000203365397
            -0.000279704604    -0.000306344832    -0.011226750014    0.049139304924    -0.000141565233    -0.000227232187    -0.017108546497    0.054084441778
0.600     -0.074549362984    0.041263993761    -0.000076776926    -0.000078830866    -0.034783507552    0.054166489891    -0.000097720887    0.000060914598
            -0.000080523734    -0.000076465070    -0.077120528979    0.040160435599    0.001420943195    -0.000407915197    -0.037836655230    0.053440879101
            -0.034841178683    0.053375062836    0.001420998566    -0.000467361030    -0.076004836435    0.044701469528    -0.000064172798    -0.000042537394
            -0.000098410102    0.000041780273    -0.037697243727    0.054203507595    -0.000085960444    -0.000032264920    -0.078577596329    0.044584009946
0.625     -0.021521348406    0.083565278924    -0.000054410743    -0.000186889811    0.011879274619    0.041105326374    0.000047625165    -0.000376089122
            -0.000058072962    -0.000186356759    -0.025667150008    0.095995347842    0.000379426201    -0.000862820340    0.009269278037    0.053458883110
            0.011148203858    0.041802277666    0.000314056128    -0.000857748998    -0.017541130233    0.080508471043    -0.000027043097    -0.000244131267
            0.000016670185    -0.000362881301    0.010154898499    0.054129036363    -0.000010900619    -0.000223183367    -0.020274835784    0.090750602419
0.650     -0.015776596725    0.010482334771    -0.000265537252    -0.000135371025    -0.037632932197    -0.008977167069    -0.000547099643    -0.000270729089
            -0.000272699263    -0.000130333587    -0.004499659453    0.017574658203    0.000532289529    0.000146370155    -0.026440915870    -0.003564872873
            -0.036360289727    -0.008111884023    0.000543988633    0.000205441270    -0.019760431797    0.006675516356    -0.000346668504    -0.000167409603
            -0.000527864238    -0.000232313001    -0.025249025193    -0.003910921593    -0.000328844432    -0.000185985620    -0.011060965817    0.011358245533
0.675     -0.072481083459    0.046119309881    -0.000181006375    0.000046217792    -0.068151103536    0.065082202118    -0.000217755262    0.000218684423
            -0.000179600737    0.000058100893    -0.072671848217    0.044298540593    0.001220181129    -0.000637969878    -0.068868244823    0.063077534292
            -0.067274230386    0.063657500791    0.001259279558    -0.000661777686    -0.071637256788    0.047828442716    -0.000205937050    0.000106816630
            -0.000182766440    0.000198628044    -0.068440012945    0.062038179834    -0.000223110817    0.000094606316    -0.072934519065    0.047104081215
0.700     -0.027866981413    0.052734527707    -0.000131952072    -0.000092403308    -0.007794093746    0.054318169257    -0.000066023745    -0.000284735015
            -0.000119151516    -0.000088261106    -0.025998868798    0.065672947132    0.000171437287    -0.000855041448    -0.006466115358    0.066142778983
            -0.009145104992    0.053710383680    0.000129771828    -0.000872610832    -0.026363143222    0.045733890808    -0.000093651888    -0.000105688983
            -0.000087924853    -0.000307159428    -0.006797882232    0.065242188799    -0.000098450776    -0.000089505071    -0.023639217138    0.056651959298
0.725     -0.105943427660    0.030028462953    -0.000325132822    0.000048860178    -0.087625157493    0.043090767891    -0.000662521128    -0.000001604047
            -0.000321911082    0.000041020034    -0.090403666737    0.028911099081    0.000542447984    0.000066348944    -0.074881253048    0.042520098212
            -0.087638628208    0.043880072253    0.000544613926    0.000126182528    -0.113711372192    0.028860926008    -0.000371027223    0.000019591078
            -0.000667261736    0.000024261436    -0.075549088807    0.042096415506    -0.000356649705    0.000015444376    -0.101883601284    0.025748559978
0.750     -0.104096735608    0.171492723896    -0.000118398958    0.000226224109    -0.064204410761    0.167130379638    -0.000123635871    0.000416584996
            -0.000118368794    0.000227391702    -0.107323978051    0.165282874114    0.001003951727    -0.000759338480    -0.066228397302    0.163497523830
            -0.063450330882    0.166278759235    0.001067618903    -0.000769527268    -0.101038699133    0.175106415246    -0.000149473372    0.000267264541
            -0.000094956133    0.000408436833    -0.066962563198    0.163406190561    -0.000158322415    0.000252839929    -0.105843732967    0.171127592322
0.775     0.040382790235    0.153204993034    0.000007509959    -0.000055918490    0.064733403779    0.129114786662    0.000024100249    -0.000191284755
            0.000015819929    -0.000056686322    0.039538797129    0.165744569236    0.000106252759    -0.000840046042    0.065315800954    0.140158836782
            0.063276514850    0.128349359775    0.000096072216    -0.000900919619    0.041270710798    0.144333899200    0.000040671977    -0.000047940127
