# GHz S RI R 45
0.000     0.081624898000    -0.000000000000    0.919152850000    0.000000000000    0.003479160300    -0.000000000000    -0.005882839100    0.000000000000
            0.919153270000    0.000000000000    0.076239358000    -0.000000000000    -0.005736193600    0.000000000000    0.005350456800    -0.000000000000
            0.004336048000    0.000000000000    -0.005128434500    -0.000000000000    0.079187008000    -0.000000000000    0.919287940000    0.000000000000
            -0.005273344400    -0.000000000000    0.006184566900    0.000000000000    0.919287600000    0.000000000000    0.077879598000    -0.000000000000
0.025     0.150621434457    -0.001594119900    0.380974417479    -0.822631321578    0.086793868939    0.030534031984    -0.014860304369    0.008141203801
            0.380957209982    -0.822628126939    0.147796105762    0.006164284766    -0.014859220708    0.008124385691    0.082252662205    0.041853946117
            0.087512248479    0.030138489237    -0.014538829846    0.007585976317    0.150696677195    -0.001133489837    0.379620086971    -0.823549562227
            -0.014540322549    0.007602996341    0.082825903302    0.041328352326    0.379637286742    -0.823552810204    0.148109571006    0.006475703258
0.050     0.083470433404    -0.096162956870    -0.577235780718    -0.700370750125    0.044445334471    -0.055382259559    -0.003535854092    0.013208028937
            -0.577230139686    -0.700336510068    0.101150231277    -0.076446806335    -0.003540319831    0.013260735775    0.070755505671    -0.025134877955
            0.044822093508    -0.056180063205    -0.003893085380    0.012660536967    0.083935388663    -0.096607831564    -0.579802832670    -0.698712783179
            -0.003888612479    0.012607679157    0.070779535498    -0.025999632850    -0.579808447020    -0.698747094861    0.101140355679    -0.077475552136
0.075     0.010684918895    0.028365329129    -0.871816363336    0.236991936666    -0.008074397262    0.070544821143    0.016030570097    0.032685578344
            -0.871762106316    0.236985520738    0.069851768612    0.004736256911    0.016093697442    0.032586761841    0.064891591678    0.048032425032
            -0.008425020681    0.069758571172    0.015315082353    0.032684701277    0.010368557360    0.027812591800    -0.871165330400    0.241616487007
            0.015251886913    0.032783882236    0.064376335509    0.047340403594    -0.871219497615    0.241623158825    0.068912659499    0.004295863384
0.100     0.175187642169    0.007547757494    -0.159055723494    0.860132289573    0.171141059735    0.047311784065    0.043676566810    -0.024508694786
            -0.159075588143    0.860062574605    0.177932506573    -0.019348412618    0.043536327359    -0.024456077274    0.181165626488    -0.005111096271
            0.170846788484    0.046574563952    0.043308551729    -0.023688349589    0.174249944911    0.007265266164    -0.153068026899    0.861734452468
            0.043448689917    -0.023740663179    0.180386190701    -0.005193212971    -0.153047815093    0.861804100142    0.177935972748    -0.018686761864
0.125     0.104481908646    -0.134386598901    0.695940757483    0.534867648788    0.102233655027    -0.115643164071    -0.008579067538    -0.031615837508
            0.695858952685    0.534902517810    0.109491396212    -0.131207490764    -0.008464870016    -0.031571421107    0.094264988760    -0.126383353241
            0.101414797107    -0.116259207495    -0.007784610143    -0.031025794707    0.103444519597    -0.133601556268    0.700824651051    0.529022228391
            -0.007898313082    -0.031069791604    0.093532408200    -0.125908619973    0.700906285984    0.528986610213    0.109210227114    -0.131358836654
0.150     0.002430654517    -0.020386117839    0.791310268426    -0.416643131221    -0.011572643192    0.002188947631    -0.022910458140    -0.032063125149
            0.791361052139    -0.416563025219    0.047466148666    -0.047545742343    -0.022970933486    -0.032020842024    0.030691769385    -0.027789893627
            -0.012627402306    0.002370696191    -0.022207692839    -0.032502237854    0.003426197841    -0.019385593133    0.787299721365    -0.424943533107
            -0.022146411435    -0.032545418185    0.030583779524    -0.026839304084    0.787247940821    -0.425023077494    0.047252731971    -0.046638030964
0.175     0.158275110012    -0.003127169124    -0.046657026416    -0.864979883652    0.157041498573    0.027412899185    -0.057200730015    0.031587181353
            -0.046583746429    -0.865023190210    0.145731899758    -0.089905457860    -0.056941250649    0.031488571573    0.140910235772    -0.082371024736
            0.156547694450    0.028002661612    -0.057107260089    0.030662530063    0.158519485649    -0.004820064533    -0.057079402468    -0.864668796019
            -0.057367897737    0.030760061705    0.141500475541    -0.081741757178    -0.057151903246    -0.864624601169    0.146683939470    -0.089848396900
0.200     0.124367352618    -0.164792064429    -0.776097869077    -0.349326702929    0.133959438352    -0.147606802903    0.022262023653    0.050540503938
            -0.776128096061    -0.349418830764    0.042397614553    -0.196708353474    0.021907829388    0.050281093028    0.010349719968    -0.197419944653
            0.133534574410    -0.147174838887    0.021107112764    0.050060267610    0.121966710861    -0.164247287620    -0.781096373983    -0.338732057671
            0.021459723767    0.050320605547    0.011018582249    -0.197263085565    -0.781065175829    -0.338640466992    0.042339836332    -0.197035215777
0.225     -0.008423222823    -0.115129336569    -0.672868609757    0.555416249265    -0.002988426124    -0.111946498895    0.033702675164    0.016074030114
            -0.672991925958    0.555463732095    -0.052969160013    -0.076571885189    0.033656630214    0.016507012007    -0.094105226299    -0.037411885147
            -0.003389538098    -0.110992706550    0.033121968900    0.017213040987    -0.006766555507    -0.111857483458    -0.664220998592    0.566003586855
            0.033168706526    0.016784613734    -0.093296717218    -0.037646161200    -0.664098328226    0.565954477353    -0.051915014158    -0.076075240837
0.250     0.069130101800    -0.050706708756    0.230562426536    0.843157025698    0.054187504060    -0.055310106527    0.055458860570    -0.024645748991
            0.230647348219    0.843281191927    0.066749332797    -0.058477431827    0.055669372187    -0.024742625060    0.060022147476    -0.009107735236
            0.054750106899    -0.054206382765    0.056134035353    -0.024011564961    0.072758769862    -0.053014872345    0.245055820228    0.838824225513
            0.055927476857    -0.023915845398    0.060488877448    -0.010086355545    0.244968797027    0.838701128227    0.068114518498    -0.060553584678
0.275     0.068989302850    -0.156380915627    0.840574894587    0.155538353192    0.036405145825    -0.134413133801    -0.012602759861    -0.066554061960
            0.840666254567    0.155447110216    -0.011287134644    -0.165139596979    -0.012449187204    -0.066488590509    -0.010992966115    -0.129208064810
            0.037381111880    -0.134084402912    -0.011646905752    -0.066594361644    0.066883985864    -0.158506556467    0.843099918038    0.139876288865
            -0.011802086787    -0.066664111690    -0.011569165985    -0.130165736080    0.843010189320    0.139969538037    -0.013063103823    -0.166245849880
0.300     -0.032909219626    -0.148053998662    0.512786024913    -0.685703329619    -0.033719113496    -0.108289963900    -0.057990025744    -0.019542518693
            0.512716693430    -0.685778083669    -0.104817837530    -0.037106208112    -0.057954173837    -0.020093707736    -0.098196516949    0.004004114121
            -0.033009250193    -0.108358220812    -0.057677917113    -0.020878864030    -0.032279481822    -0.145022039537    0.498718249239    -0.696086851753
            -0.057717832707    -0.020326461379    -0.099118891885    0.003903730733    0.498789243166    -0.696013886418    -0.104015976973    -0.035362570018
0.325     -0.025190802823    -0.106856031166    -0.404127085936    -0.755227553294    -0.021828443468    -0.102228269376    -0.057788905438    0.046266353820
            -0.404219670773    -0.755186373961    0.056422824865    0.015676222088    -0.058479944630    0.046560008478    0.076115475215    0.046764740925
            -0.021102677761    -0.102409434427    -0.059139900418    0.045970499054    -0.020788323268    -0.109077151279    -0.420870762946    -0.745601122978
            -0.058448792712    0.045681040450    0.075658598186    0.047002475379    -0.420779561522    -0.745643835195    0.058861037331    0.013001679269
0.350     -0.052431171463    -0.132125846773    -0.842582794493    0.036928668841    -0.089287129687    -0.110524593357    0.025258724081    0.077494281194
            -0.842541476162    0.037045609636    0.030022982076    -0.143422018469    0.025767853432    0.077891382555    0.049051114808    -0.122755073942
            -0.088541047347    -0.111138927932    0.024969404909    0.078297882245    -0.054105797932    -0.136405598973    -0.840577402389    0.056778509964
            0.024465627008    0.077901855360    0.048451817698    -0.122231027863    -0.840620720938    0.056662349733    0.027230157936    -0.145132220585
0.375     -0.098941792148    -0.073292929959    -0.339926074906    0.772592712326    -0.104754932300    -0.005768900531    0.075773161972    0.015192725501
            -0.339800451342    0.772525912874    -0.098456552226    -0.073230754220    0.075862834801    0.014901088472    -0.072401775942    -0.063794086720
            -0.104435426953    -0.006824831953    0.075954021144    0.015814021278    -0.099241989564    -0.071970258376    -0.320397075475    0.780329211680
            0.075864899835    0.016098776365    -0.072432300813    -0.062583173720    -0.320521650375    0.780398849378    -0.097102399579    -0.069855517115
0.400     -0.047346253900    -0.056412729821    0.559763109518    0.637335971723    -0.016520629353    -0.016898342632    0.065023995929    -0.066267459356
            0.559674167664    0.637233560171    0.012309580825    0.000954009434    0.065131707150    -0.066358980926    0.012728629218    -0.009355381511
            -0.016907286684    -0.017989992106    0.066028924813    -0.066152968122    -0.043734613734    -0.060068250365    0.576447852064    0.621535560471
            0.065914389722    -0.066059926944    0.013926797308    -0.008697901586    0.576539871883    0.621636126920    0.017724325170    -0.003108541740
0.425     -0.112436837033    -0.104443780197    0.793237185957    -0.230097754956    -0.098472524469    -0.074680588331    -0.052670084553    -0.095410040535
            0.793173449254    -0.230030100124    0.009625797093    -0.153789481591    -0.053104802838    -0.095649485721    -0.012666411931    -0.124828823716
            -0.099364844711    -0.075245676218    -0.052639853665    -0.096360961871    -0.116042309531    -0.108593093918    0.785262140391    -0.252092470690
            -0.052202696604    -0.096116921194    -0.011726800588    -0.125383344399    0.785323825888    -0.252162303523    0.006066183897    -0.158602443505
0.450     -0.177979773722    0.017089787495    0.152228624095    -0.795730115651    -0.145100473999    0.055599503089    -0.096826443922    0.018234083933
            0.152259595407    -0.795670554201    -0.164822222355    -0.108999399668    -0.096855634123    0.018893307887    -0.139683845164    -0.068124651419
            -0.145891787403    0.055552842318    -0.097284406065    0.018193857197    -0.178319590603    0.019726328031    0.128909270769    -0.799113626485
            -0.097252176163    0.017533494546    -0.139429012433    -0.068640016214    0.128876705580    -0.799171864926    -0.164864895481    -0.106142280058
0.475     -0.037478741438    0.081974686865    -0.654944786359    -0.499416179693    -0.000526589188    0.094627185808    -0.038075659353    0.080789869922
            -0.654862859163    -0.499429085609    -0.109906533559    0.033108573732    -0.037507757242    0.080526260087    -0.094026152052    0.033181871700
            -0.001254239220    0.094580645097    -0.038358316006    0.080685003021    -0.033207227852    0.077282878806    -0.670160556544    -0.478339842165
            -0.038926365656    0.080944610955    -0.093707738192    0.032468025664    -0.670242065972    -0.478325098804    -0.104433420892    0.028017900806
0.500     -0.035528510298    -0.060385745223    -0.728808240237    0.390901145918    -0.008022050459    -0.034154776803    0.060548267640    0.092763492355
            -0.728834683618    0.390802641876    -0.050861916973    -0.050495797791    0.060191499793    0.092500352215    -0.060725224728    -0.008128462802
            -0.009122826174    -0.033799836983    0.060145756603    0.093343798309    -0.042021372123    -0.065436221349    -0.714195899793    0.414307702247
            0.060496614223    0.093607984228    -0.061269289331    -0.009272288934    -0.714166489969    0.414406097394    -0.056625533819    -0.057555390357
0.525     -0.171608603418    0.026173954679    0.034907173562    0.801626295751    -0.103020888473    0.036502797693    0.113312527434    -0.032083105194
            0.034828372339    0.801668680019    -0.177444188181    -0.016457719829    0.113192227796    -0.031983970121    -0.114269363876    0.036890930749
            -0.103625361101    0.037791897269    0.113810286088    -0.031720646321    -0.172514073643    0.031675578529    0.061505841911    0.798969682700
            0.113934005971    -0.031814056346    -0.115601119949    0.036815118396    0.061583888460    0.798924163883    -0.179840828404    -0.012565350176
0.550     -0.042342495139    0.153458542787    0.725495028664    0.334030969496    -0.005837095211    0.105490431617    0.018525238009    -0.103382707061
            0.725534159454    0.334084039925    -0.112793001031    0.127104490001    0.018400720936    -0.103120764976    -0.049862881494    0.099647536311
            -0.005380866754    0.106654179779    0.018893186509    -0.103445902632    -0.035489342097    0.149328277973    0.737221670865    0.308194911873
            0.019021878698    -0.103712245609    -0.050521696625    0.100500979564    0.737179978522    0.308143021289    -0.107546639575    0.123554362131
0.575     0.045258604157    0.007670849582    0.625483854352    -0.518350317938    0.033461412490    -0.002609646115    -0.079013771378    -0.078992702296
            0.625524074248    -0.518373170713    -0.011472744186    0.060325315721    -0.078526351115    -0.078865579585    -0.011216104951    0.048432975032
            0.033933523829    -0.001959141633    -0.078593396882    -0.079511781739    0.039378090014    0.000496344647    0.604710983736    -0.541837236668
            -0.079083779494    -0.079641522085    -0.011226750014    0.049139304924    0.604671736990    -0.541812630358    -0.017108546497    0.054084441778
0.600     -0.089966998561    -0.000286581884    -0.204536638472    -0.779191286544    -0.053121995221    0.015075960144    -0.119047695844    0.043156856918
            -0.204542364079    -0.779220851638    -0.077120528979    0.040160435599    -0.119066123772    0.042691638928    -0.037836655230    0.053440879101
            -0.052636852507    0.015624708390    -0.119703637090    0.042535017995    -0.091528181232    0.004791903074    -0.234420576613    -0.769597790363
            -0.119688007788    0.043002502757    -0.037697243727    0.054203507595    -0.234413654324    -0.769568318509    -0.078577596329    0.044584009946
0.625     -0.036100544314    0.093538130029    -0.783316786403    -0.156948419286    -0.006400749888    0.049806872633    -0.013841728274    0.128020431796
            -0.783341729269    -0.156945737740    -0.025667150008    0.095995347842    -0.014140210239    0.128028221778    0.009269278037    0.053458883110
            -0.005306885131    0.050202772463    -0.014539538807    0.128504996626    -0.029922655031    0.088360829782    -0.789136243932    -0.125081498243
            -0.014239336414    0.128500244285    0.010154898499    0.054129036363    -0.789111072484    -0.125085273704    -0.020274835784    0.090750602419
0.650     -0.002611557302    0.015583115319    -0.477800520417    0.640385521656    -0.027733309920    -0.003719185417    0.117323501814    0.079095719377
            -0.477798174547    0.640394970035    -0.004499659453    0.017574658203    0.117235329366    0.079256546158    -0.026440915870    -0.003564872873
            -0.026534479058    -0.004209466031    0.117506929115    0.079885460932    -0.009070029850    0.009192103741    -0.449361561448    0.660268110678
            0.117597313504    0.079723322111    -0.025249025193    -0.003910921593    -0.449364481388    0.660258526980    -0.011060965817    0.011358245533
0.675     -0.064928672640    0.050405109901    0.366525699535    0.696598365615    -0.063665586765    0.065202428305    0.125688742377    -0.082477459518
            0.366517602078    0.696606490651    -0.072671848217    0.044298540593    0.125725224334    -0.082355663869    -0.068868244823    0.063077534292
            -0.063072029351    0.064198878020    0.126488516405    -0.082423673652    -0.064505382944    0.053667342545    0.396562890754    0.679188521680
            0.126452268179    -0.082546358831    -0.068440012945    0.062038179834    0.396570576870    0.679180015659    -0.072934519065    0.047104081215
0.700     0.009717049255    0.056793750306    0.784642345806    -0.025800943407    0.016402048903    0.054908564248    -0.016530728478    -0.153388912899
            0.784660382661    -0.025783072273    -0.025998868798    0.065672947132    -0.016445310247    -0.153204399391    -0.006466115358    0.066142778983
            0.016412532883    0.053858589587    -0.016298227470    -0.153986896479    0.013152262608    0.046617957922    0.782866545437    -0.062252212040
            -0.016383824915    -0.154173389087    -0.006797882232    0.065242188799    0.782847469831    -0.062269184384    -0.023639217138    0.056651959298
0.725     -0.077131052080    -0.029895003403    0.299299438916    -0.712101736974    -0.067788186670    0.015288675392    -0.168006420970    -0.050629564973
            0.299334780798    -0.712120964641    -0.090403666737    0.028911099081    -0.167593835359    -0.050709376409    -0.074881253048    0.042520098212
            -0.068090178307    0.014782694492    -0.168281417479    -0.051052036054    -0.089941672393    -0.033181430927    0.263545982972    -0.724690864199
            -0.168695847996    -0.050973565138    -0.075549088807    0.042096415506    0.263511414111    -0.724669916971    -0.101883601284    0.025748559978
0.750     -0.137151617026    0.138694850224    -0.481470811547    -0.563472949597    -0.098318320536    0.140412331118    -0.096104036112    0.142357542345
            -0.481488392375    -0.563527179529    -0.107323978051    0.165282874114    -0.096247733792    0.141818545291    -0.066228397302    0.163497523830
            -0.098655576280    0.139799936512    -0.096799391123    0.142340730274    -0.135263109462    0.145924947269    -0.506910553769    -0.538783964828
            -0.096659044176    0.142882689886    -0.066962563198    0.163406190561    -0.506890116263    -0.538730024610    -0.105843732967    0.171127592322
0.775     0.044702159235    0.159547589176    -0.731534176982    0.165048732066    0.049820715957    0.138548217664    0.066646694261    0.133282869033
            -0.731622669269    0.165085069238    0.039538797129    0.165744569236    0.066090965715    0.133216211945    0.065315800954    0.140158836782
            0.048962143822    0.137771537806    0.066460166012    0.133951851903    0.049995375330    0.147823077827    -0.723321197162    0.202021726181
