# GHz S RI R 45
0.000     0.021399180694    0.001889010468    -0.000004846220    -0.000010688971    0.000767353260    0.001617346794    -0.000004192970    -0.000009120518
            -0.000004846467    -0.000010688946    0.022096275231    0.001695452368    -0.000005479927    -0.000012881923    0.000794803082    0.001647769259
            0.000767353076    0.001617346770    -0.000005480009    -0.000012881922    0.021354661409    0.001897621523    -0.000004418803    -0.000010800859
            -0.000004192968    -0.000009120517    0.000794803298    0.001647769266    -0.000004418834    -0.000010800858    0.022035100376    0.001707287067
0.025     0.026739855392    0.009080189027    -0.000011360087    -0.000023271524    0.002905133304    0.009311258261    -0.000009796871    -0.000019583223
            -0.000011360095    -0.000023271571    0.026264041751    0.009462163326    -0.000013245736    -0.000027716052    0.002128916918    0.010197631374
            0.002903905387    0.009311058245    -0.000013245741    -0.000027716051    0.026672844524    0.009051691203    -0.000010685508    -0.000021779440
            -0.000009796897    -0.000019583266    0.002129171488    0.010197057227    -0.000010685505    -0.000021779433    0.026186716445    0.009426417515
0.050     0.034501457601    0.012560011140    -0.000025688049    -0.000040012633    0.008934010324    0.016857329837    -0.000021994847    -0.000033466756
            -0.000025688040    -0.000040012635    0.030983774854    0.014383998337    -0.000030154519    -0.000047576373    0.005980028804    0.019440681284
            0.008934006085    0.016857333215    -0.000030154519    -0.000047576374    0.034442302370    0.012540531466    -0.000024282803    -0.000037091479
            -0.000021994848    -0.000033466756    0.005980125437    0.019440676669    -0.000024282802    -0.000037091478    0.030836310453    0.014330896394
0.075     0.043616769055    0.012335895140    -0.000044914951    -0.000051002815    0.017791581177    0.021267558730    -0.000038251618    -0.000042373985
            -0.000044914952    -0.000051002816    0.035727978585    0.017512125949    -0.000052770558    -0.000060724931    0.011740237032    0.027022138316
            0.017791539073    0.021267528764    -0.000052770559    -0.000060724931    0.043586656439    0.012316886798    -0.000042274580    -0.000046839441
            -0.000038251618    -0.000042373985    0.011740232787    0.027022140160    -0.000042274580    -0.000046839441    0.035493788740    0.017487584353
0.100     0.053008596631    0.007897687639    -0.000067600423    -0.000055637186    0.028098718251    0.021703501819    -0.000057257080    -0.000045832403
            -0.000067600423    -0.000055637186    0.040237298138    0.018942545235    -0.000079463989    -0.000066482137    0.018683131975    0.032547960353
            0.028098717873    0.021703502310    -0.000079463989    -0.000066482137    0.053028899581    0.007873801588    -0.000063215597    -0.000050567052
            -0.000057257080    -0.000045832403    0.018683106265    0.032547968193    -0.000063215597    -0.000050567052    0.039913941880    0.018997436621
0.125     0.061063396045    -0.000832670754    -0.000092082754    -0.000053385506    0.038290936691    0.017825576796    -0.000077555855    -0.000043492437
            -0.000092082745    -0.000053385522    0.043881939471    0.018892638469    -0.000108325279    -0.000064226565    0.026047197330    0.035893147848
            0.038290936691    0.017825576796    -0.000108325279    -0.000064226565    0.061156855958    -0.000875408362    -0.000085502012    -0.000047927858
            -0.000077555855    -0.000043492437    0.026047197917    0.035893148658    -0.000085502012    -0.000047927858    0.043493862688    0.019078409179
0.150     0.066190588249    -0.013290750000    -0.000116696303    -0.000044190242    0.046788269375    0.009846964827    -0.000097742506    -0.000035436000
            -0.000116696303    -0.000044190242    0.046293165775    0.017892452445    -0.000137446977    -0.000053880960    0.033081184568    0.037192909025
            0.046788269375    0.009846964827    -0.000137446977    -0.000053880960    0.066377837340    -0.013371379303    -0.000107603990    -0.000039052688
            -0.000097742506    -0.000035436000    0.033081184568    0.037192909025    -0.000107603990    -0.000039052688    0.045881554322    0.018247127761
0.175     0.067029376877    -0.028399344567    -0.000139975608    -0.000028223271    0.052145822982    -0.001497436865    -0.000116669089    -0.000021918235
            -0.000139975613    -0.000028223246    0.047141266122    0.016551605126    -0.000165138456    -0.000035620185    0.039164114906    0.036836028954
            0.052145822982    -0.001497436865    -0.000165138456    -0.000035620185    0.067326985677    -0.028549002176    -0.000128285047    -0.000024259771
            -0.000116669089    -0.000021918235    0.039164114906    0.036836028954    -0.000128285047    -0.000024259771    0.046767289547    0.017095187551
0.200     0.062630491831    -0.044620924229    -0.000160609495    -0.000005828542    0.053230285346    -0.015012729799    -0.000133370260    -0.000003280531
            -0.000160609495    -0.000005828542    0.046382638574    0.015600361796    -0.000189891928    -0.000009825365    0.043864568654    0.035397790752
            0.053230285346    -0.015012729799    -0.000189891928    -0.000009825365    0.063046071487    -0.044879603815    -0.000146533657    -0.000003949037
            -0.000133370260    -0.000003280531    0.043864568654    0.035397790752    -0.000146533657    -0.000003949037    0.046115348736    0.016327411132
0.225     0.052583043215    -0.060125182692    -0.000177315503    0.000022604681    0.049344779593    -0.029160114905    -0.000146919538    0.000020183784
            -0.000177315503    0.000022604681    0.044268862120    0.015742926904    -0.000210235563    0.000023082208    0.046991082642    0.033557806619
            0.049344779593    -0.029160114905    -0.000210235563    0.000023082208    0.053111438264    -0.060539670352    -0.000161392546    0.000021548899
            -0.000146919538    0.000020183784    0.046991082642    0.033557806619    -0.000161392546    0.000021548899    0.044174151457    0.016620507503
0.250     0.037121661700    -0.072979620301    -0.000188779659    0.000056552512    0.040333602305    -0.042213090316    -0.000156330323    0.000048151286
            -0.000188779659    0.000056552512    0.041314645700    0.017576228543    -0.000224660150    0.000062541150    0.048622561368    0.032021898776
            0.040333602305    -0.042213090316    -0.000224660150    0.000062541150    0.037741119800    -0.073598773296    -0.000171848339    0.000051909110
            -0.000156330323    0.000048151286    0.048622561368    0.032021898776    -0.000171848339    0.000051909110    0.041444150019    0.018546372690
0.275     0.017119998238    -0.081363446875    -0.000193550270    0.000095274293    0.026622739504    -0.052431625529    -0.000160418674    0.000080170489
            -0.000193550270    0.000095274293    0.038250466811    0.021476585580    -0.000231484161    0.000107763162    0.049101473816    0.031411673670
            0.026622739504    -0.052431625529    -0.000231484161    0.000107763162    0.017790819002    -0.082232264183    -0.000176653935    0.000086703150
            -0.000160418674    0.000080170489    0.049101473816    0.031411673670    -0.000176653935    0.000086703150    0.038632670836    0.022462413209
0.300     -0.005946381827    -0.083787385988    -0.000190115189    0.000137629851    0.009213638698    -0.058264770609    -0.000157845965    0.000115469440
            -0.000190115189    0.000137629851    0.035937507777    0.027543433395    -0.000228935600    0.000157512746    0.048995281439    0.032178565904
            0.009213638698    -0.058264770609    -0.000228935600    0.000157512746    -0.005282342176    -0.084940409240    -0.000174364532    0.000125176361
            -0.000157845965    0.000115469440    0.048995281439    0.032178565904    -0.000174364532    0.000125176361    0.036570914325    0.028459002055
0.325     -0.030135046910    -0.079273757085    -0.000177002395    0.000181923419    -0.010395520630    -0.058528553706    -0.000147199704    0.000152746504
            -0.000177002395    0.000181923419    0.035259579706    0.035539717429    -0.000215249161    0.000209916187    0.049014066899    0.034517142227
            -0.010395520630    -0.058528553706    -0.000215249161    0.000209916187    -0.029550564734    -0.080727966787    -0.000163412321    0.000166003336
            -0.000147199704    0.000152746504    0.049014066899    0.034517142227    -0.000163412321    0.000166003336    0.036110291535    0.036302175143
0.350     -0.053217505526    -0.067516020637    -0.000153094538    0.000225823100    -0.030350515575    -0.052574949801    -0.000127304456    0.000190062207
            -0.000153094538    0.000225823100    0.036998945039    0.044907359903    -0.000189023962    0.000262367987    0.049911271177    0.038332000830
            -0.030350515575    -0.052574949801    -0.000189023962    0.000262367987    -0.052794360882    -0.069264528600    -0.000142435592    0.000207157302
            -0.000127304456    0.000190062207    0.049911271177    0.038332000830    -0.000142435592    0.000207157302    0.038002959453    0.045448656731
0.375     -0.072912645936    -0.048943892726    -0.000117912828    0.000266420284    -0.048630203360    -0.040387252753    -0.000097523581    0.000224846276
            -0.000117912828    0.000266420284    0.041713820434    0.054800398459    -0.000149550926    0.000311555590    0.052359131508    0.043228526636
            -0.048630203360    -0.040387252753    -0.000149550926    0.000311555590    -0.072733517741    -0.050952246784    -0.000110612248    0.000245889111
            -0.000097523581    0.000224846276    0.052359131508    0.043228526636    -0.000110612248    0.000245889111    0.042783484290    0.055078970558
0.400     -0.087146138569    -0.024726713167    -0.000071939316    0.000300515162    -0.063279055267    -0.022619546942    -0.000058101995    0.000254159299
            -0.000071939316    0.000300515162    0.049641487092    0.064193456551    -0.000097181180    0.000353781464    0.056847059729    0.048572525707
            -0.063279055267    -0.022619546942    -0.000097181180    0.000353781464    -0.087284442742    -0.026932215183    -0.000068062280    0.000278982396
            -0.000058101995    0.000254159299    0.056847059729    0.048572525707    -0.000068062280    0.000278982396    0.050677267258    0.064201976044
0.425     -0.094284841279    0.003333475337    -0.000016740963    0.000324974493    -0.072621622405    -0.000537702914    -0.000010347401    0.000275036384
            -0.000016740963    0.000324974493    0.060640048090    0.072000526773    -0.000033518235    0.000385341074    0.063592045101    0.053568894003
            -0.072621622405    -0.000537702914    -0.000033518235    0.000385341074    -0.094794950627    0.001018688466    -0.000016062018    0.000303128395
            -0.000010347401    0.000275036384    0.063592045101    0.053568894003    -0.000016062018    0.000303128395    0.061543996706    0.071768871454
0.450     -0.093337388207    0.032978839553    0.000045050936    0.000337237057    -0.075465154073    0.024107573475    0.000043374748    0.000285000139
            0.000045050936    0.000337237057    0.074194900117    0.077227920300    0.000038598716    0.000403101510    0.072509686662    0.057385782071
            -0.075465154073    0.024107573475    0.000038598716    0.000403101510    -0.094245429402    0.030661518146    0.000042916516    0.000315479923
            0.000043374748    0.000285000139    0.072509686662    0.057385782071    0.000042916516    0.000315479923    0.074883344744    0.076820552303
0.475     -0.084059654400    0.061734109704    0.000110051330    0.000335666826    -0.071216349397    0.049269630084    0.000099885200    0.000282442881
            0.000110051330    0.000335666826    0.089466507145    0.079096414606    0.000115382623    0.000404920534    0.083214946737    0.059260125929
            -0.071216349397    0.049269630084    0.000115382623    0.000404920534    -0.085358303380    0.059529392704    0.000105446500    0.000314093353
            0.000099885200    0.000282442881    0.083214946737    0.059260125929    0.000105446500    0.000314093353    0.089882652858    0.078606004474
0.500     -0.066985501478    0.087164895360    0.000174522747    0.000319833069    -0.059944973323    0.072824792381    0.000155625892    0.000266935384
            0.000174522747    0.000319833069    0.105399599082    0.077147696011    0.000192553155    0.000389999655    0.095085324200    0.058605545764
            -0.059944973323    0.072824792381    0.000192553155    0.000389999655    -0.068630943024    0.085185693740    0.000167619720    0.000298298889
            0.000155625892    0.000266935384    0.095085324200    0.058605545764    0.000167619720    0.000298298889    0.105522223483    0.076682865146
0.525     -0.043353648289    0.107114694937    0.000234866733    0.000290474512    -0.042347388002    0.092774482267    0.000207132028    0.000239230534
            0.000234866733    0.000290474512    0.120839807003    0.071286942966    0.000265862654    0.000358890426    0.107329453709    0.055069577714
            -0.042347388002    0.092774482267    0.000265862654    0.000358890426    -0.045267404337    0.105460111869    0.000225514768    0.000268746746
            0.000207132028    0.000239230534    0.107329453709    0.055069577714    0.000225514768    0.000268746746    0.120686594220    0.070960343718
0.550     -0.014974922761    0.119905352631    0.000288051624    0.000249350424    -0.019666928137    0.107432692704    0.000251489899    0.000201136890
            0.000288051624    0.000249350424    0.134671502700    0.061790090406    0.000331627404    0.000313370733    0.119090551423    0.048573366862
            -0.019666928137    0.107432692704    0.000331627404    0.000313370733    -0.017049022915    0.118649491380    0.000275766725    0.000227300465
            0.000251489899    0.000201136890    0.119090551423    0.048573366862    0.000275766725    0.000227300465    0.134298225834    0.061703979432
0.575     0.015951518464    0.124460860970    0.000331840823    0.000198897853    0.006442454257    0.115542539273    0.000286621758    0.000155166946
            0.000331840823    0.000198897853    0.145920066651    0.049259240479    0.000387007762    0.000256076642    0.129521264920    0.039303371960
            0.006442454257    0.115542539273    0.000387007762    0.000256076642    0.013846471231    0.123645465146    0.000315886254    0.000176677707
            0.000286621758    0.000155166946    0.129521264920    0.039303371960    0.000315886254    0.000176677707    0.145416007957    0.049494139870
0.600     0.047037204586    0.120378606376    0.000364977132    0.000141854520    0.034061391791    0.116368348961    0.000311468134    0.000104163006
            0.000364977132    0.000141854520    0.153849976670    0.034555303738    0.000430249578    0.000190108231    0.137873920281    0.027694047000
            0.034061391791    0.116368348961    0.000430249578    0.000190108231    0.045041540394    0.120006742083    0.000344502212    0.000120052043
            0.000311468134    0.000104163006    0.137873920281    0.027694047000    0.000344502212    0.000120052043    0.153328690834    0.035160145606
0.625     0.075895704518    0.107927430293    0.000387070235    0.000080904290    0.061153932135    0.109713977091    0.000325924341    0.000050886031
            0.000387070235    0.000080904290    0.158012710423    0.018710906360    0.000460616552    0.000118607072    0.143548943398    0.014381074054
            0.061153932135    0.109713977091    0.000460616552    0.000118607072    0.074150263040    0.107961333371    0.000361325594    0.000060608040
            0.000325924341    0.000050886031    0.143548943423    0.014381073803    0.000361325594    0.000060608040    0.157601063071    0.019695545054
0.650     0.100320228927    0.088008424668    0.000398479327    0.000018413751    0.085712603475    0.095932959039    0.000330710619    -0.000002274416
            0.000398479327    0.000018413752    0.158285500589    0.002839077208    0.000478300159    0.000044422426    0.146159065035    0.000157596820
            0.085712603475    0.095932959039    0.000478300159    0.000044422425    0.098953889067    0.088370079784    0.000367068473    0.000001155073
            0.000330710619    -0.000002274416    0.146159065035    0.000157596746    0.000367068473    0.000001155073    0.158111900387    0.004172652422
0.675     0.118427719087    0.062073562291    0.000400058344    -0.000043780499    0.105878335900    0.075888390568    0.000327102377    -0.000053575772
            0.000400058344    -0.000043780499    0.154869563678    -0.011957528025    0.000484130438    -0.000030140512    0.145551349655    -0.014089524419
            0.105878335900    0.075888390568    0.000484130438    -0.000030140512    0.117547058038    0.062648106842    0.000363133565    -0.000056148913
            0.000327102377    -0.000053575772    0.145551349655    -0.014089524419    0.000363133565    -0.000056148913    0.155050350857    -0.010347129944
0.700     0.128786482894    0.032023763706    0.000392921317    -0.000104451038    0.120070050990    0.050910545925    0.000316645563    -0.000102013296
            0.000392921317    -0.000104451038    0.148286101900    -0.024675853345    0.000479330394    -0.000103492135    0.141849838704    -0.027444447257
            0.120070050990    0.050910545925    0.000479330394    -0.000103492135    0.128465246719    0.032665890121    0.000351339313    -0.000109996480
            0.000316645563    -0.000102013296    0.141849838704    -0.027444447257    0.000351339313    -0.000109996480    0.148913334267    -0.022897402258
0.725     0.130507922067    0.000085387137    0.000378130240    -0.000162988453    0.127078766839    0.022721599673    0.000300805142    -0.000147315809
            0.000378130240    -0.000162988453    0.139336136368    -0.034497326427    0.000465144210    -0.000174727856    0.135450560823    -0.039043287423
            0.127078766839    0.022721599673    0.000465144210    -0.000174727856    0.130778191638    0.000628111533    0.000333493028    -0.000159980693
            0.000300805142    -0.000147315809    0.135450560823    -0.039043287423    0.000333493028    -0.000159980693    0.140465247742    -0.032688646445
0.750     0.123323172897    -0.031333110456    0.000356478046    -0.000219254933    0.126183115073    -0.006657311142    0.000280674993    -0.000189878101
            0.000356478046    -0.000219254933    0.129054811086    -0.040870447855    0.000442557244    -0.000243611854    0.127027816463    -0.048160553504
            0.126183115073    -0.006657311142    0.000442557244    -0.000243611854    0.124168992628    -0.031066326520    0.000311051382    -0.000206493107
            0.000280674993    -0.000189878101    0.127027816463    -0.048160553504    0.000311051382    -0.000206493107    0.130696638653    -0.039185331758
0.775     0.107622408577    -0.059798766498    0.000328237925    -0.000273409179    0.117215566851    -0.035027676098    0.000256695110    -0.000230451347
            0.000328237925    -0.000273409179    0.118627694299    -0.043581408409    0.000411977421    -0.000310298832    0.117477918378    -0.054304057445
            0.117215566851    -0.035027676098    0.000411977421    -0.000310298832    0.108976227147    -0.059980650721    0.000284747916    -0.000250459996
            0.000256695110    -0.000230451347    0.117477918378    -0.054304057445    0.000284747916    -0.000250459996    0.120741944556    -0.042175765790
