# GHz S RI R 45
0.000     0.021213864621    0.001405068458    -0.000000331445    -0.000000216040    0.000705484253    0.001209803007    -0.000000084270    0.000000303865
            -0.000000331444    -0.000000216040    0.022096275231    0.001695452368    -0.000000667482    -0.000000896615    0.000794803082    0.001647769259
            0.000705484232    0.001209803019    -0.000000667482    -0.000000896615    0.021138564657    0.001396883989    -0.000000331024    -0.000000194633
            -0.000000084352    0.000000303866    0.000794803298    0.001647769266    -0.000000331028    -0.000000194632    0.022035100376    0.001707287067
0.025     0.026180296063    0.008237526626    -0.000000570661    -0.000000413234    0.002553640212    0.008437989921    0.000000008035    0.000000698617
            -0.000000570661    -0.000000413234    0.026264041751    0.009462163326    -0.000001351554    -0.000001861622    0.002128916918    0.010197631374
            0.002553475244    0.008438038695    -0.000001351554    -0.000001861622    0.026101221703    0.008141680712    -0.000000561486    -0.000000361291
            0.000000008034    0.000000698618    0.002129171488    0.010197057227    -0.000000561487    -0.000000361291    0.026186716445    0.009426417515
0.050     0.033146097587    0.011332224830    -0.000000956128    -0.000000505926    0.007826424837    0.015395392429    0.000000309958    0.000001346161
            -0.000000956128    -0.000000505926    0.030983774854    0.014383998337    -0.000002622387    -0.000002909675    0.005980028804    0.019440681284
            0.007826396960    0.015395402114    -0.000002622387    -0.000002909675    0.033036119960    0.011164599681    -0.000000920930    -0.000000404949
            0.000000309958    0.000001346161    0.005980125437    0.019440676669    -0.000000920930    -0.000000404949    0.030836310453    0.014330896394
0.075     0.041287379046    0.011167891808    -0.000001315404    -0.000000424995    0.015625650606    0.019647802738    0.000000809274    0.000001911049
            -0.000001315404    -0.000000424995    0.035727978585    0.017512125949    -0.000004083975    -0.000003449350    0.011740237032    0.027022138316
            0.015625642630    0.019647803971    -0.000004083975    -0.000003449350    0.041140644466    0.010944513199    -0.000001235785    -0.000000281649
            0.000000809274    0.000001911049    0.011740232787    0.027022140160    -0.000001235785    -0.000000281649    0.035493788740    0.017487584353
0.100     0.049696969771    0.007286212758    -0.000001643433    -0.000000211273    0.024768804673    0.020456621609    0.000001483077    0.000002343251
            -0.000001643433    -0.000000211273    0.040237298138    0.018942545235    -0.000005684392    -0.000003521841    0.018683131975    0.032547960353
            0.024768804673    0.020456621609    -0.000005684392    -0.000003521841    0.049515925287    0.007028349232    -0.000001499011    -0.000000037919
            0.000001483077    0.000002343251    0.018683106265    0.032547968193    -0.000001499011    -0.000000037919    0.039913941880    0.018997436621
0.125     0.056981897788    -0.000400892824    -0.000001909666    0.000000123685    0.033916366653    0.017506588709    0.000002299489    0.000002606843
            -0.000001909666    0.000000123685    0.043881939471    0.018892638469    -0.000007318345    -0.000003112878    0.026047197330    0.035893147848
            0.033916366653    0.017506588709    -0.000007318345    -0.000003112878    0.056779789912    -0.000674244025    -0.000001682372    0.000000304104
            0.000002299489    0.000002606843    0.026047197917    0.035893148658    -0.000001682372    0.000000304104    0.043493862688    0.019078409179
0.150     0.061727635447    -0.011427542503    -0.000002086332    0.000000553416    0.041710557974    0.010943914705    0.000003222598    0.000002669981
            -0.000002086332    0.000000553416    0.046293165775    0.017892452445    -0.000008882571    -0.000002254155    0.033081184568    0.037192909025
            0.041710557974    0.010943914705    -0.000008882571    -0.000002254155    0.061527775875    -0.011703394611    -0.000001765566    0.000000708157
            0.000003222598    0.000002669981    0.033081184568    0.037192909025    -0.000001765566    0.000000708157    0.045881554322    0.018247127761
0.175     0.062733200153    -0.024877095733    -0.000002151833    0.000001054241    0.046892181341    0.001362342437    0.000004211731    0.000002509703
            -0.000002151833    0.000001054241    0.047141266122    0.016551605126    -0.000010288924    -0.000000973425    0.039164114906    0.036836028954
            0.046892181338    0.001362342518    -0.000010288924    -0.000000973425    0.062565676899    -0.025154989177    -0.000001741957    0.000001143634
            0.000004211731    0.000002509703    0.039164114906    0.036836028954    -0.000001741957    0.000001143634    0.046767289547    0.017095187551
0.200     0.059136034211    -0.039428895757    -0.000002090159    0.000001597941    0.048455709120    -0.010247225154    0.000005221923    0.000002108444
            -0.000002090159    0.000001597941    0.046382638574    0.015600361796    -0.000011462479    0.000000687540    0.043864568654    0.035397790752
            0.048455709120    -0.010247225154    -0.000011462479    0.000000687540    0.059032034190    -0.039722064503    -0.000001613572    0.000001582985
            0.000005221923    0.000002108444    0.043864568654    0.035397790752    -0.000001613572    0.000001582985    0.046115348736    0.016327411132
0.225     0.050528446535    -0.053495068538    -0.000001889642    0.000002155098    0.045755528228    -0.022591369236    0.000006206759    0.000001456586
            -0.000001889642    0.000002155098    0.044268862120    0.015742926904    -0.000012333087    0.000002687860    0.046991082642    0.033557806619
            0.045755528228    -0.022591369236    -0.000012333087    0.000002687860    0.050514513815    -0.053831442767    -0.000001387692    0.000002007645
            0.000006206759    0.000001456586    0.046991082642    0.033557806619    -0.000001387692    0.000002007645    0.044174151457    0.016620507503
0.250     0.037057194259    -0.065379272932    -0.000001544217    0.000002693447    0.038596662852    -0.034200930164    0.000007115384    0.000000550399
            -0.000001544217    0.000002693447    0.041314645700    0.017576228543    -0.000012835638    0.000004980559    0.048622561368    0.032021898776
            0.038596662852    -0.034200930164    -0.000012835638    0.000004980559    0.037149243731    -0.065799086337    -0.000001070032    0.000002405044
            0.000007115384    0.000000550399    0.048622561368    0.032021898776    -0.000001070032    0.000002405044    0.041444150019    0.018546372690
0.275     0.019424486773    -0.073461025727    -0.000001052244    0.000003178855    0.027274628063    -0.043575272056    0.000007896333    -0.000000606250
            -0.000001052244    0.000003178855    0.038250466811    0.021476585580    -0.000012898116    0.000007512079    0.049101473816    0.031411673670
            0.027274628063    -0.043575272056    -0.000012898116    0.000007512079    0.019622938462    -0.074013009355    -0.000000661406    0.000002767425
            0.000007896333    -0.000000606250    0.049101473816    0.031411673670    -0.000000661406    0.000002767425    0.038632670836    0.022462413209
0.300     -0.001136194266    -0.076383782130    -0.000000419203    0.000003573644    0.012576583333    -0.049349499423    0.000008492698    -0.000002001021
            -0.000000419203    0.000003573644    0.035937507777    0.027543433395    -0.000012448057    0.000010211229    0.048995281439    0.032178565904
            0.012576583333    -0.049349499423    -0.000012448057    0.000010211229    -0.000850145655    -0.077119554251    -0.000000154957    0.000003082249
            0.000008492698    -0.000002001021    0.048995281439    0.032178565904    -0.000000154957    0.000003082249    0.036570914325    0.028459002055
0.325     -0.022967937318    -0.073213345995    0.000000340670    0.000003837929    -0.004275951660    -0.050446773975    0.000008847336    -0.000003611369
            0.000000340670    0.000003837929    0.035259579706    0.035539717429    -0.000011412415    0.000012979442    0.049014066899    0.034517142227
            -0.004275951660    -0.050446773975    -0.000011412415    0.000012979442    -0.022633482520    -0.074179445946    0.000000459276    0.000003328892
            0.000008847336    -0.000003611369    0.049014066899    0.034517142227    0.000000459276    0.000003328892    0.036110291535    0.036302175143
0.350     -0.044137218041    -0.063580072205    0.000001200482    0.000003931261    -0.021736291737    -0.046222749760    0.000008899323    -0.000005400134
            0.000001200482    0.000003931261    0.036998945039    0.044907359903    -0.000009737316    0.000015686839    0.049911271177    0.038332000830
            -0.021736291737    -0.046222749760    -0.000009737316    0.000015686839    -0.043812276934    -0.064810264249    0.000001187354    0.000003470688
            0.000008899323    -0.000005400134    0.049911271177    0.038332000830    0.000001187354    0.000003470688    0.038002959453    0.045448656731
0.375     -0.062627888388    -0.047745830380    0.000002119065    0.000003818112    -0.038083729301    -0.036555755864    0.000008592047    -0.000007314776
            0.000002119065    0.000003818112    0.041713820434    0.054800398459    -0.000007399218    0.000018171516    0.052359131508    0.043228526636
            -0.038083729301    -0.036555755864    -0.000007399218    0.000018171516    -0.062384374539    -0.049254333656    0.000002021440    0.000003460421
            0.000008592047    -0.000007314776    0.052359131508    0.043228526636    0.000002021440    0.000003460421    0.042783484290    0.055078970558
0.400     -0.076559618626    -0.026621077652    0.000003040125    0.000003474009    -0.051613151109    -0.021891974351    0.000007874338    -0.000009281524
            0.000003040125    0.000003474009    0.049641487092    0.064193456551    -0.000004426353    0.000020255783    0.056847059729    0.048572525707
            -0.051613151109    -0.021891974351    -0.000004426353    0.000020255783    -0.076476039576    -0.028396918237    0.000002930004    0.000003243515
            0.000007874338    -0.000009281524    0.056847059729    0.048572525707    0.000002930004    0.000003243515    0.050677267258    0.064201976044
0.425     -0.084392747980    -0.001690311558    0.000003897580    0.000002893495    -0.060816942405    -0.003212379311    0.000006712148    -0.000011209600
            0.000003897580    0.000002893495    0.060640048090    0.072000526773    -0.000000904958    0.000021761844    0.063592045101    0.053568894003
            -0.060816942405    -0.003212379311    -0.000000904958    0.000021761844    -0.084545597744    -0.003695302668    0.000003855650    0.000002775275
            0.000006712148    -0.000011209600    0.063592045101    0.053568894003    0.000003855650    0.000002775275    0.061543996706    0.071768871454
0.450     -0.085111779841    0.025123801701    0.000004622594    0.000002094340    -0.064562216790    0.018059575495    0.000005093784    -0.000012989397
            0.000004622594    0.000002094340    0.074194900117    0.077227920300    0.000003020388    0.000022542493    0.072509686662    0.057385782071
            -0.064562216790    0.018059575495    0.000003020388    0.000022542493    -0.085564684633    0.022954104558    0.000004716709    0.000002030407
            0.000005093784    -0.000012989397    0.072509686662    0.057385782071    0.000004716709    0.000002030407    0.074883344744    0.076820552303
0.475     -0.078334037089    0.051653428422    0.000005155436    0.000001118526    -0.062204332712    0.040204451743    0.000003040224    -0.000014507068
            0.000005155436    0.000001118526    0.089466507145    0.079096414606    0.000007162731    0.000022496305    0.083214946737    0.059260125929
            -0.062204332712    0.040204451743    0.000007162731    0.000022496305    -0.079130058650    0.049404440523    0.000005421435    0.000001017885
            0.000003040224    -0.000014507068    0.083214946737    0.059260125929    0.000005421435    0.000001017885    0.089882652858    0.078606004474
0.500     -0.064358461307    0.075704179563    0.000005454294    0.000000026249    -0.053658543788    0.061385972742    0.000000607023    -0.000015649844
            0.000005454294    0.000000026249    0.105399599082    0.077147696011    0.000011312101    0.000021588165    0.095085324200    0.058605545764
            -0.053658543788    0.061385972742    0.000011312101    0.000021588165    -0.065512486121    0.073475545930    0.000005879719    -0.000000219251
            0.000000607023    -0.000015649844    0.095085324200    0.058605545764    0.000005879719    -0.000000219251    0.105522223483    0.076682865146
0.525     -0.044126299980    0.095266658141    0.000005502728    -0.000001113628    -0.039389219186    0.079825733375    -0.000002117632    -0.000016326370
            0.000005502728    -0.000001113628    0.120839807003    0.071286942966    0.000015262729    0.000019842758    0.107329453709    0.055069577714
            -0.039389219186    0.079825733375    0.000015262729    0.000019842758    -0.045621899109    0.093162014864    0.000006022645    -0.000001605165
            -0.000002117633    -0.000016326370    0.107329453709    0.055069577714    0.000006022645    -0.000001605165    0.120686594220    0.070960343718
0.550     -0.019125695557    0.108702546184    0.000005308498    -0.000002236167    -0.020358438172    0.093971157334    -0.000005020647    -0.000016471240
            0.000005308498    -0.000002236167    0.134671502700    0.061790090406    0.000018834806    0.000017343195    0.119090551423    0.048573366862
            -0.020358438172    0.093971157334    0.000018834806    0.000017343195    -0.020914013204    0.106819666194    0.000005808455    -0.000003043943
            -0.000005020647    -0.000016471240    0.119090551423    0.048573366862    0.000005808455    -0.000003043943    0.134298225834    0.061703979432
0.575     0.008755382611    0.114874007499    0.000004899115    -0.000003290029    0.002078631897    0.102610708263    -0.000007979002    -0.000016058413
            0.000004899115    -0.000003290029    0.145920066651    0.049259240479    0.000021886231    0.000014207668    0.129521264920    0.039303371960
            0.002078631897    0.102610708263    0.000021886231    0.000014207668    0.006752386414    0.113295297657    0.000005232349    -0.000004432308
            -0.000007979002    -0.000016058413    0.129521264920    0.039303371960    0.000005232349    -0.000004432308    0.145416007957    0.049494139870
0.600     0.037398507991    0.113227772427    0.000004310152    -0.000004243080    0.026293967584    0.104966645852    -0.000010870834    -0.000015094956
            0.000004310152    -0.000004243080    0.153849976670    0.034555303738    0.000024322560    0.000010576645    0.137873920281    0.027694047000
            0.026293967584    0.104966645852    0.000024322560    0.000010576645    0.035282996816    0.112010941710    0.000004319441    -0.000005672242
            -0.000010870834    -0.000015094956    0.137873920281    0.027694047000    0.000004319441    -0.000005672242    0.153328690834    0.035160145606
0.625     0.064624570633    0.103814780523    0.000003576304    -0.000005082140    0.050514483781    0.100728787123    -0.000013592176    -0.000013620384
            0.000003576304    -0.000005082140    0.158012710423    0.018710906360    0.000026088971    0.000006591623    0.143548943398    0.014381074054
            0.050514483781    0.100728787123    0.000026088971    0.000006591623    0.062515627328    0.102987273840    0.000003124475    -0.000006682079
            -0.000013592176    -0.000013620384    0.143548943423    0.014381073803    0.000003124475    -0.000006682079    0.157601063071    0.019695545054
0.650     0.088360467753    0.087273588294    0.000002720485    -0.000005806553    0.072952567939    0.090072540333    -0.000016059792    -0.000011691602
            0.000002720485    -0.000005806553    0.158285500589    0.002839077208    0.000027169054    0.000002385968    0.146159065035    0.000157596820
            0.072952567939    0.090072540333    0.000027169054    0.000002385968    0.086383881285    0.086827917565    0.000001718096    -0.000007401059
            -0.000016059792    -0.000011691602    0.146159065035    0.000157596746    0.000001718096    -0.000007401059    0.158111900387    0.004172652422
0.675     0.106777206597    0.064771953087    0.000001751727    -0.000006419776    0.091916351715    0.073634953859    -0.000018219018    -0.000009374167
            0.000001751727    -0.000006419776    0.154869563678    -0.011957528025    0.000027567682    -0.000001924188    0.145551349655    -0.014089524419
            0.091916351715    0.073634953859    0.000027567682    -0.000001924188    0.105056781378    0.064663965529    0.000000183868    -0.000007794860
            -0.000018219018    -0.000009374167    0.145551349655    -0.014089524419    0.000000183868    -0.000007794860    0.155050350857    -0.010347129944
0.700     0.118417355195    0.037924306260    0.000000663895    -0.000006917780    0.105927977213    0.052482623741    -0.000020034011    -0.000006728331
            0.000000663895    -0.000006917780    0.148286101900    -0.024675853345    0.000027307935    -0.000006242455    0.141849838704    -0.027444447257
            0.105927977213    0.052482623741    0.000027307935    -0.000006242455    0.117063972299    0.038074349445    -0.000001395079    -0.000007852381
            -0.000020034011    -0.000006728331    0.141849838704    -0.027444447257    -0.000001395079    -0.000007852381    0.148913334267    -0.022897402258
0.725     0.122289674108    0.008688103534    -0.000000555633    -0.000007282224    0.113812720726    0.028051737067    -0.000021486588    -0.000003803009
            -0.000000555633    -0.000007282224    0.139336136368    -0.034497326427    0.000026414609    -0.000010490009    0.135450560823    -0.039043287423
            0.113812720726    0.028051737067    0.000026414609    -0.000010490009    0.121392000345    0.008983714421    -0.000002938853    -0.000007588759
            -0.000021486588    -0.000003803009    0.135450560823    -0.039043287423    -0.000002938853    -0.000007588759    0.140465247742    -0.032688646445
0.750     0.117950808328    -0.020762235345    -0.000001917712    -0.000007473605    0.114802385529    0.002070771952    -0.000022558084    -0.000000631653
            -0.000001917712    -0.000007473605    0.129054811086    -0.040870447855    0.000024913039    -0.000014602865    0.127027816463    -0.048160553504
            0.114802385529    0.002070771952    0.000024913039    -0.000014602865    0.117564985803    -0.020459141498    -0.000004381945    -0.000007036267
            -0.000022558084    -0.000000631653    0.127027816463    -0.048160553504    -0.000004381945    -0.000007036267    0.130696638653    -0.039185331758
0.775     0.105553385799    -0.048173823892    -0.000003417635    -0.000007435215    0.108603644525    -0.023539579673    -0.000023226280    0.000002764900
            -0.000003417635    -0.000007435215    0.118627694299    -0.043581408409    0.000022817140    -0.000018522697    0.117477918378    -0.054304057445
            0.108603644525    -0.023539579673    0.000022817140    -0.000018522697    0.105695872263    -0.048018940398    -0.000005676145    -0.000006244628
            -0.000023226280    0.000002764900    0.117477918378    -0.054304057445    -0.000005676145    -0.000006244628    0.120741944556    -0.042175765790
