# GHz S RI R 45
0.000     0.022677174418    0.001364087961    0.000000039095    -0.000000031168    0.000862650541    0.001393471333    0.000000079997    0.000000032465
            0.000000039095    -0.000000031168    0.022096275231    0.001695452368    0.000000058587    -0.000000009280    0.000794803082    0.001647769259
            0.000862650269    0.001393471383    0.000000058587    -0.000000009280    0.022627603900    0.001373971428    0.000000107530    0.000000064674
            0.000000079997    0.000000032465    0.000794803298    0.001647769266    0.000000107530    0.000000064674    0.022035100376    0.001707287067
0.025     0.027000562588    0.009160111437    0.000000053151    -0.000000074014    0.002286456473    0.010158739018    0.000000123628    0.000000065774
            0.000000053151    -0.000000074014    0.026264041751    0.009462163326    0.000000084699    -0.000000025165    0.002128916918    0.010197631374
            0.002288816550    0.010157136340    0.000000084699    -0.000000025165    0.026941082743    0.009216018955    0.000000169110    0.000000137253
            0.000000123628    0.000000065774    0.002129171488    0.010197057227    0.000000169110    0.000000137253    0.026186716445    0.009426417515
0.050     0.031941673791    0.013731694426    0.000000063906    -0.000000166277    0.006471168576    0.019263218064    0.000000187672    0.000000076940
            0.000000063906    -0.000000166277    0.030983774854    0.014383998337    0.000000117067    -0.000000084537    0.005980028804    0.019440681284
            0.006471299619    0.019263278479    0.000000117067    -0.000000084537    0.031891929319    0.013852700564    0.000000262115    0.000000198458
            0.000000187672    0.000000076940    0.005980125437    0.019440676669    0.000000262115    0.000000198458    0.030836310453    0.014330896394
0.075     0.037022293988    0.016250114144    0.000000067519    -0.000000264993    0.012704723662    0.026413449554    0.000000248350    0.000000067460
            0.000000067519    -0.000000264993    0.035727978585    0.017512125949    0.000000142531    -0.000000156118    0.011740237032    0.027022138316
            0.012704722602    0.026413455612    0.000000142531    -0.000000156118    0.037002886814    0.016437807814    0.000000353087    0.000000230728
            0.000000248350    0.000000067460    0.011740232787    0.027022140160    0.000000353087    0.000000230728    0.035493788740    0.017487584353
0.100     0.041800921931    0.016728063353    0.000000064454    -0.000000368385    0.020082130868    0.031139565667    0.000000310424    0.000000043650
            0.000000064454    -0.000000368385    0.040237298138    0.018942545235    0.000000163255    -0.000000236626    0.018683131975    0.032547960353
            0.020082109138    0.031139572541    0.000000163255    -0.000000236626    0.041828706404    0.016973814255    0.000000448918    0.000000243815
            0.000000310424    0.000000043650    0.018683106265    0.032547968193    0.000000448918    0.000000243815    0.039913941880    0.018997436621
0.125     0.045452104716    0.015414674417    0.000000055469    -0.000000476398    0.027643095085    0.033324838140    0.000000374320    0.000000006600
            0.000000055469    -0.000000476398    0.043881939471    0.018892638469    0.000000180408    -0.000000325337    0.026047197330    0.035893147848
            0.027643095085    0.033324838140    0.000000180408    -0.000000325337    0.045542774061    0.015706552714    0.000000550117    0.000000238632
            0.000000374320    0.000000006600    0.026047197917    0.035893148658    0.000000550117    0.000000238632    0.043493862688    0.019078409179
0.150     0.047425521244    0.012908570815    0.000000040056    -0.000000588235    0.034472283867    0.033206640959    0.000000438852    -0.000000041939
            0.000000040056    -0.000000588235    0.046293165775    0.017892452445    0.000000192642    -0.000000421003    0.033081184568    0.037192909025
            0.034472283867    0.033206640959    0.000000192642    -0.000000421003    0.047589758312    0.013226546720    0.000000655372    0.000000217943
            0.000000438852    -0.000000041939    0.033081184568    0.037192909025    0.000000655372    0.000000217943    0.045881554322    0.018247127761
0.175     0.047266816352    0.010020451818    0.000000018615    -0.000000705132    0.039814671480    0.031331248271    0.000000505568    -0.000000101927
            0.000000018615    -0.000000705132    0.047141266122    0.016551605126    0.000000201016    -0.000000524428    0.039164114906    0.036836028954
            0.039814671480    0.031331248271    0.000000201016    -0.000000524428    0.047510366932    0.010340863019    0.000000766248    0.000000181734
            0.000000505568    -0.000000101927    0.039164114906    0.036836028954    0.000000766248    0.000000181734    0.046767289547    0.017095187551
0.200     0.044890802636    0.007714610476    -0.000000009409    -0.000000827943    0.043173886213    0.028488252944    0.000000574564    -0.000000174823
            -0.000000009409    -0.000000827943    0.046382638574    0.015600361796    0.000000204842    -0.000000636392    0.043864568654    0.035397790752
            0.043173886213    0.028488252944    0.000000204842    -0.000000636392    0.045211388101    0.008011543614    0.000000883491    0.000000128554
            0.000000574564    -0.000000174823    0.043864568654    0.035397790752    0.000000883491    0.000000128554    0.046115348736    0.016327411132
0.225     0.040603261908    0.006940935275    -0.000000045365    -0.000000959014    0.044384182708    0.025597245041    0.000000646763    -0.000000263211
            -0.000000045365    -0.000000959014    0.044268862120    0.015742926904    0.000000203600    -0.000000759400    0.046991082642    0.033557806619
            0.044384182708    0.025597245041    0.000000203600    -0.000000759400    0.040989048923    0.007188900623    0.000001008074    0.000000055341
            0.000000646763    -0.000000263211    0.046991082642    0.033557806619    0.000001008074    0.000000055341    0.044174151457    0.016620507503
0.250     0.035070583768    0.008515881598    -0.000000091761    -0.000001099531    0.043646387069    0.023590509183    0.000000720472    -0.000000370926
            -0.000000091761    -0.000001099531    0.041314645700    0.017576228543    0.000000194830    -0.000000895108    0.048622561368    0.032021898776
            0.043646387069    0.023590509183    0.000000194830    -0.000000895108    0.035499486021    0.008693457385    0.000001138900    -0.000000042578
            0.000000720472    -0.000000370926    0.048622561368    0.032021898776    0.000001138900    -0.000000042578    0.041444150019    0.018546372690
0.275     0.029261954235    0.012973913739    -0.000000152600    -0.000001251306    0.041514373107    0.023266530087    0.000000793581    -0.000000502643
            -0.000000152600    -0.000001251306    0.038250466811    0.021476585580    0.000000175189    -0.000001046288    0.049101473816    0.031411673670
            0.041514373107    0.023266530087    0.000000175189    -0.000001046288    0.029703347695    0.013068109515    0.000001273643    -0.000000170942
            0.000000793581    -0.000000502643    0.049101473816    0.031411673670    0.000001273643    -0.000000170942    0.038632670836    0.022462413209
0.300     0.024336709163    0.020475697269    -0.000000232847    -0.000001413746    0.038834143745    0.025167320526    0.000000859938    -0.000000662775
            -0.000000232847    -0.000001413746    0.035937507777    0.027543433395    0.000000139294    -0.000001213492    0.048995281439    0.032178565904
            0.038834143745    0.025167320526    0.000000139294    -0.000001213492    0.024754349551    0.020485563163    0.000001406010    -0.000000335821
            0.000000859938    -0.000000662775    0.048995281439    0.032178565904    0.000001406010    -0.000000335821    0.036570914325    0.028459002055
0.325     0.021497265475    0.030727339660    -0.000000338720    -0.000001585548    0.036627045017    0.029466946795    0.000000912092    -0.000000854698
            -0.000000338720    -0.000001585548    0.035259579706    0.035539717429    0.000000080673    -0.000001396942    0.049014066899    0.034517142227
            0.036627045017    0.029466946795    0.000000080673    -0.000001396942    0.021854038489    0.030665997933    0.000001527408    -0.000000541947
            0.000000912092    -0.000000854698    0.049014066899    0.034517142227    0.000001527408    -0.000000541947    0.036110291535    0.036302175143
0.350     0.021812918312    0.042988332283    -0.000000476117    -0.000001761705    0.035940355032    0.035925752469    0.000000938732    -0.000001078437
            -0.000000476117    -0.000001761705    0.036998945039    0.044907359903    -0.000000008109    -0.000001592869    0.049911271177    0.038332000830
            0.035940355032    0.035925752469    -0.000000008109    -0.000001592869    0.022077096973    0.042884126332    0.000001625017    -0.000000791063
            0.000000938732    -0.000001078437    0.049911271177    0.038332000830    0.000001625017    -0.000000791063    0.038002959453    0.045448656731
0.375     0.026047075140    0.056124849015    -0.000000650513    -0.000001935567    0.037673855654    0.043894064258    0.000000928900    -0.000001330373
            -0.000000650513    -0.000001935567    0.041713820434    0.054800398459    -0.000000134063    -0.000001795764    0.052359131508    0.043228526636
            0.037673855654    0.043894064258    -0.000000134063    -0.000001795764    0.026197717262    0.056018385500    0.000001685533    -0.000001080237
            0.000000928900    -0.000001330373    0.052359131508    0.043228526636    0.000001685533    -0.000001080237    0.042783484290    0.055078970558
0.400     0.034519657999    0.068756609108    -0.000000864340    -0.000002096680    0.042431555359    0.052406040623    0.000000871234    -0.000001601119
            -0.000000864340    -0.000002096680    0.049641487092    0.064193456551    -0.000000302196    -0.000001995385    0.056847059729    0.048572525707
            0.042431555359    0.052406040623    -0.000000302196    -0.000001995385    0.034551867640    0.068696931902    0.000001694915    -0.000001400659
            0.000000871234    -0.000001601119    0.056847059729    0.048572525707    0.000001694915    -0.000001400659    0.050677267258    0.064201976044
0.425     0.047030310353    0.079432894483    -0.000001117077    -0.000002234155    0.050411782127    0.060311282162    0.000000759112    -0.000001877734
            -0.000001117077    -0.000002234155    0.060640048090    0.072000526773    -0.000000514191    -0.000002180579    0.063592045101    0.053568894003
            0.050411782127    0.060311282162    -0.000000514191    -0.000002180579    0.046958058061    0.079470959675    0.000001643768    -0.000001738439
            0.000000759112    -0.000001877734    0.063592045101    0.053568894003    0.000001643768    -0.000001738439    0.061543996706    0.071768871454
0.450     0.062871679575    0.086842739146    -0.000001402790    -0.000002336058    0.061377989035    0.066455153471    0.000000590254    -0.000002143467
            -0.000001402790    -0.000002336058    0.074194900117    0.077227920300    -0.000000766644    -0.000002337919    0.072509686662    0.057385782071
            0.061377989035    0.066455153471    -0.000000766644    -0.000002337919    0.062728143313    0.087023876081    0.000001527129    -0.000002075540
            0.000000590254    -0.000002143467    0.072509686662    0.057385782071    0.000001527129    -0.000002075540    0.074883344744    0.076820552303
0.475     0.080913035145    0.089985655045    -0.000001712066    -0.000002393761    0.074689571771    0.069833198152    0.000000369908    -0.000002382772
            -0.000001712066    -0.000002393761    0.089466507145    0.079096414606    -0.000001051639    -0.000002456918    0.083214946737    0.059260125929
            0.074689571771    0.069833198152    -0.000001051639    -0.000002456918    0.080747124627    0.090343119918    0.000001348491    -0.000002393828
            0.000000369908    -0.000002382772    0.083214946737    0.059260125929    0.000001348491    -0.000002393828    0.089882652858    0.078606004474
0.500     0.099752257684    0.088302626806    -0.000002031139    -0.000002401794    0.089404186593    0.069727423242    0.000000108460    -0.000002581798
            -0.000002031139    -0.000002401794    0.105399599082    0.077147696011    -0.000001356604    -0.000002529416    0.095085324200    0.058605545764
            0.089404186593    0.069727423242    -0.000001356604    -0.000002529416    0.099624922613    0.088851451171    0.000001116953    -0.000002676873
            0.000000108460    -0.000002581798    0.095085324200    0.058605545764    0.000001116953    -0.000002676873    0.105522223483    0.076682865146
0.525     0.117885983964    0.081722893041    -0.000002346101    -0.000002360997    0.104395451977    0.065771138549    -0.000000178886    -0.000002733345
            -0.000002346101    -0.000002360997    0.120839807003    0.071286942966    -0.000001667519    -0.000002553811    0.107329453709    0.055069577714
            0.104395451977    0.065771138549    -0.000001667519    -0.000002553811    0.117863249716    0.082457564915    0.000000847857    -0.000002914362
            -0.000000178886    -0.000002733345    0.107329453709    0.055069577714    0.000000847857    -0.000002914362    0.120686594220    0.070960343718
0.550     0.133883676605    0.070657951138    -0.000002642988    -0.000002276916    0.118492329548    0.057979347047    -0.000000476018    -0.000002835290
            -0.000002642988    -0.000002276916    0.134671502700    0.061790090406    -0.000001969823    -0.000002533010    0.119090551423    0.048573366862
            0.118492329548    0.057979347047    -0.000001969823    -0.000002533010    0.134028838428    0.071549894134    0.000000557869    -0.000003101683
            -0.000000476018    -0.000002835290    0.119090551423    0.048573366862    0.000000557869    -0.000003101683    0.134298225834    0.061703979432
0.575     0.146522202712    0.055930743265    -0.000002912277    -0.000002160425    0.130585260158    0.046720176014    -0.000000767757    -0.000002893140
            -0.000002912277    -0.000002160425    0.145920066651    0.049259240479    -0.000002252405    -0.000002476136    0.129521264920    0.039303371960
            0.130585260158    0.046720176014    -0.000002252405    -0.000002476136    0.146889344249    0.056930597554    0.000000264005    -0.000003242139
            -0.000000767757    -0.000002893140    0.129521264920    0.039303371960    0.000000264005    -0.000003242139    0.145416007957    0.049494139870
0.600     0.154896099652    0.038683413035    -0.000003147975    -0.000002024808    0.139730142971    0.032676335250    -0.000001042602    -0.000002916080
            -0.000003147975    -0.000002024808    0.153849976670    0.034555303738    -0.000002507472    -0.000002394944    0.137873920281    0.027694047000
            0.139730142971    0.032676335250    -0.000002507472    -0.000002394944    0.155522356854    0.039724287893    -0.000000020510    -0.000003343598
            -0.000001042602    -0.000002916080    0.137873920281    0.027694047000    -0.000000020510    -0.000003343598    0.153328690834    0.035160145606
0.625     0.158474035428    0.020266077539    -0.000003350746    -0.000001884834    0.145209223171    0.016778479588    -0.000001293820    -0.000002917803
            -0.000003350746    -0.000001884834    0.158012710423    0.018710906360    -0.000002733448    -0.000002303809    0.143548943398    0.014381074054
            0.145209223171    0.016778479588    -0.000002733448    -0.000002303809    0.159374798747    0.021268180113    -0.000000286440    -0.000003419139
            -0.000001293820    -0.000002917803    0.143548943423    0.014381073803    -0.000000286440    -0.000003419139    0.157601063071    0.019695545054
0.650     0.157141299925    0.002125938387    -0.000003525377    -0.000001754014    0.146599989069    0.000144211622    -0.000001519960    -0.000002912004
            -0.000003525377    -0.000001754014    0.158285500589    0.002839077208    -0.000002933084    -0.000002216192    0.146159065035    0.000157596820
            0.146599989069    0.000144211548    -0.000002933084    -0.000002216192    0.158305731809    0.003004468828    -0.000000530464    -0.000003482734
            -0.000001519960    -0.000002912004    0.146159065035    0.000157596746    -0.000000530464    -0.000003482734    0.158111900387    0.004172652422
0.675     0.151201790422    -0.014302755019    -0.000003682526    -0.000001643583    0.143808884119    -0.016002741905    -0.000001724922    -0.000002913221
            -0.000003682526    -0.000001643583    0.154869563678    -0.011957528025    -0.000003115035    -0.000002144328    0.145551349655    -0.014089524419
            0.143808884119    -0.016002741905    -0.000003115035    -0.000002144328    0.152590975219    -0.013629581507    -0.000000754352    -0.000003549836
            -0.000001724922    -0.000002913221    0.145551349655    -0.014089524419    -0.000000754352    -0.000003549836    0.155050350857    -0.010347129944
0.700     0.141378357103    -0.027707655813    -0.000003835469    -0.000001560832    0.137120630242    -0.030416729195    -0.000001917160    -0.000002933098
            -0.000003835469    -0.000001560832    0.148286101900    -0.024675853345    -0.000003291102    -0.000002096759    0.141849838704    -0.027444447257
            0.137120630242    -0.030416729195    -0.000003291102    -0.000002096759    0.142925504572    -0.027309192721    -0.000000965442    -0.000003633651
            -0.000001917160    -0.000002933098    0.141849838704    -0.027444447257    -0.000000965442    -0.000003633651    0.148913334267    -0.022897402258
0.725     0.128777114200    -0.037012715467    -0.000004001200    -0.000001508414    0.127204909897    -0.041943889866    -0.000002109722    -0.000002981536
            -0.000004001200    -0.000001508414    0.139336136368    -0.034497326427    -0.000003477239    -0.000002078252    0.135450560823    -0.039043287423
            0.127204909897    -0.041943889866    -0.000003477239    -0.000002078252    0.130390479545    -0.036937085811    -0.000001175788    -0.000003746136
            -0.000002109722    -0.000002981536    0.135450560823    -0.039043287423    -0.000001175788    -0.000003746136    0.140465247742    -0.032688646445
0.750     0.114835957016    -0.041498275709    -0.000004197109    -0.000001483435    0.115119292902    -0.049646617485    -0.000002319172    -0.000003063534
            -0.000004197109    -0.000001483435    0.129054811086    -0.040870447855    -0.000003690636    -0.000002088047    0.127027816463    -0.048160553504
            0.115119292902    -0.049646617485    -0.000003690636    -0.000002088047    0.116406689690    -0.041761389787    -0.000001402276    -0.000003894562
            -0.000002319172    -0.000003063534    0.127027816463    -0.048160553504    -0.000001402276    -0.000003894562    0.130696638653    -0.039185331758
0.775     0.101220209266    -0.040916830378    -0.000004441683    -0.000001476855    0.102237572141    -0.052951511211    -0.000002565744    -0.000003179748
            -0.000004441683    -0.000001476855    0.118627694299    -0.043581408409    -0.000003950419    -0.000002119736    0.117477918378    -0.054304057445
            0.102237572141    -0.052951511211    -0.000003950419    -0.000002119736    0.102631925106    -0.041496126404    -0.000001665935    -0.000004082029
            -0.000002565744    -0.000003179748    0.117477918378    -0.054304057445    -0.000001665935    -0.000004082029    0.120741944556    -0.042175765790
