# GHz S RI R 45
0.000     0.022984428355    0.001216201542    -0.000000008643    -0.000000083847    0.000872589267    0.001228190057    0.000000010068    -0.000000052099
            -0.000000008643    -0.000000083847    0.022096275231    0.001695452368    -0.000000006035    -0.000000083141    0.000794803082    0.001647769259
            0.000872589288    0.001228190042    -0.000000006035    -0.000000083141    0.023009669383    0.001228101932    0.000000014740    -0.000000049009
            0.000000010067    -0.000000052099    0.000794803298    0.001647769266    0.000000014740    -0.000000049009    0.022035100376    0.001707287067
0.025     0.027447722158    0.009079521370    -0.000000028417    -0.000000191879    0.002338737457    0.010019759341    0.000000005981    -0.000000122326
            -0.000000028417    -0.000000191879    0.026264041751    0.009462163326    -0.000000024494    -0.000000190031    0.002128916918    0.010197631374
            0.002338698362    0.010018072055    -0.000000024494    -0.000000190031    0.027366900567    0.009038436872    0.000000013212    -0.000000115022
            0.000000005981    -0.000000122326    0.002129171488    0.010197057227    0.000000013212    -0.000000115022    0.026186716445    0.009426417515
0.050     0.032570501190    0.013466999333    -0.000000074400    -0.000000360731    0.006656650483    0.018934723897    -0.000000014660    -0.000000240308
            -0.000000074400    -0.000000360731    0.030983774854    0.014383998337    -0.000000068898    -0.000000358623    0.005980028804    0.019440681284
            0.006656706976    0.018934688136    -0.000000068898    -0.000000358623    0.032424540774    0.013434378986    -0.000000003925    -0.000000228824
            -0.000000014660    -0.000000240308    0.005980125437    0.019440676669    -0.000000003925    -0.000000228824    0.030836310453    0.014330896394
0.075     0.037893331665    0.015661949091    -0.000000132781    -0.000000516974    0.013067083702    0.025765853481    -0.000000044826    -0.000000352344
            -0.000000132781    -0.000000516974    0.035727978585    0.017512125949    -0.000000125899    -0.000000514942    0.011740237032    0.027022138316
            0.013067090463    0.025765856779    -0.000000125899    -0.000000514942    0.037666810130    0.015665525285    -0.000000030588    -0.000000337465
            -0.000000044826    -0.000000352344    0.011740232787    0.027022140160    -0.000000030588    -0.000000337465    0.035493788740    0.017487584353
0.100     0.042894837252    0.015620922841    -0.000000201847    -0.000000663458    0.020591745242    0.030015313784    -0.000000081950    -0.000000459114
            -0.000000201847    -0.000000663458    0.040237298138    0.018942545235    -0.000000193477    -0.000000661631    0.018683131975    0.032547960353
            0.020591744719    0.030015314143    -0.000000193477    -0.000000661631    0.042586993119    0.015709896133    -0.000000063820    -0.000000441266
            -0.000000081950    -0.000000459114    0.018683106265    0.032547968193    -0.000000063820    -0.000000441266    0.039913941880    0.018997436621
0.125     0.046709534351    0.013599215658    -0.000000279515    -0.000000802093    0.028187426896    0.031569207991    -0.000000123619    -0.000000561951
            -0.000000279515    -0.000000802093    0.043881939471    0.018892638469    -0.000000269529    -0.000000800610    0.026047197330    0.035893147848
            0.028187426345    0.031569208483    -0.000000269529    -0.000000800613    0.046341311566    0.013813232945    -0.000000101011    -0.000000541707
            -0.000000123619    -0.000000561951    0.026047197917    0.035893148658    -0.000000101011    -0.000000541707    0.043493862688    0.019078409179
0.150     0.048544499585    0.010210891093    -0.000000363992    -0.000000935410    0.034864273163    0.030704122045    -0.000000168466    -0.000000663273
            -0.000000363992    -0.000000935410    0.046293165775    0.017892452445    -0.000000351940    -0.000000934552    0.033081184568    0.037192909025
            0.034864273163    0.030704122045    -0.000000351940    -0.000000934552    0.048163024269    0.010598151841    -0.000000140723    -0.000000641098
            -0.000000168466    -0.000000663273    0.033081184568    0.037192909025    -0.000000140723    -0.000000641098    0.045881554322    0.018247127761
0.175     0.047939556541    0.006389574635    -0.000000455640    -0.000001067190    0.039806634796    0.028034055719    -0.000000216455    -0.000000766362
            -0.000000455640    -0.000001067190    0.047141266122    0.016551605126    -0.000000441132    -0.000001067356    0.039164114906    0.036836028954
            0.039806634796    0.028034055719    -0.000000441132    -0.000001067356    0.047608690869    0.006966041227    -0.000000182830    -0.000000742946
            -0.000000216455    -0.000000766362    0.039164114906    0.036836028954    -0.000000182830    -0.000000742946    0.046767289547    0.017095187551
0.200     0.044792329115    0.003208046095    -0.000000556710    -0.000001200793    0.042485928337    0.024440599225    -0.000000269118    -0.000000874264
            -0.000000556710    -0.000001200793    0.046382638574    0.015600361796    -0.000000539412    -0.000001202498    0.043864568654    0.035397790752
            0.042485928337    0.024440599225    -0.000000539412    -0.000001202498    0.044579357358    0.003961899949    -0.000000228913    -0.000000850487
            -0.000000269118    -0.000000874264    0.043864568654    0.035397790752    -0.000000228913    -0.000000850487    0.046115348736    0.016327411132
0.225     0.039418565473    0.001737094817    -0.000000671544    -0.000001338582    0.042740836614    0.020948362683    -0.000000329766    -0.000000989924
            -0.000000671544    -0.000001338582    0.044268862120    0.015742926904    -0.000000651175    -0.000001342510    0.046991082642    0.033557806619
            0.042740836614    0.020948362683    -0.000000651175    -0.000001342510    0.039384930258    0.002629743489    -0.000000282358    -0.000000966916
            -0.000000329766    -0.000000989924    0.046991082642    0.033557806619    -0.000000282358    -0.000000966916    0.044174151457    0.016620507503
0.250     0.032538739586    0.002913514051    -0.000000805842    -0.000001480871    0.040817444305    0.018592573894    -0.000000403146    -0.000001114716
            -0.000000805842    -0.000001480871    0.041314645700    0.017576228543    -0.000000782239    -0.000001487873    0.048622561368    0.032021898776
            0.040817444305    0.018592573894    -0.000000782239    -0.000001487873    0.032729645190    0.003883184834    -0.000000348090    -0.000001093817
            -0.000000403146    -0.000001114716    0.048622561368    0.032021898776    -0.000000348090    -0.000001093817    0.041444150019    0.018546372690
0.275     0.025225120418    0.007370686675    -0.000000966472    -0.000001625528    0.037354810392    0.018257484800    -0.000000495498    -0.000001248563
            -0.000000966472    -0.000001625528    0.038250466811    0.021476585580    -0.000000939659    -0.000001636637    0.049101473816    0.031411673670
            0.037354810392    0.018257484800    -0.000000939659    -0.000001636637    0.025660674000    0.008339171592    -0.000000432587    -0.000001231337
            -0.000000495498    -0.000001248563    0.049101473816    0.031411673670    -0.000000432587    -0.000001231337    0.038632670836    0.022462413209
0.300     0.018777899707    0.015326963897    -0.000001159901    -0.000001767005    0.033316841837    0.020537317898    -0.000000613415    -0.000001388343
            -0.000001159901    -0.000001767005    0.035937507777    0.027543433395    -0.000001130171    -0.000001783355    0.048995281439    0.032178565904
            0.033316841837    0.020537317898    -0.000001130171    -0.000001783355    0.019447429690    0.016210442606    -0.000000542785    -0.000001376478
            -0.000000613415    -0.000001388343    0.048995281439    0.032178565904    -0.000000542785    -0.000001376478    0.036570914325    0.028459002055
0.325     0.014561027607    0.026489324967    -0.000001391347    -0.000001896541    0.029861589614    0.025611723995    -0.000000763355    -0.000001528284
            -0.000001391347    -0.000001896541    0.035259579706    0.035539717429    -0.000001359344    -0.000001919333    0.049014066899    0.034517142227
            0.029861589614    0.025611723995    -0.000001359344    -0.000001919333    0.015421593644    0.027210912303    -0.000000685546    -0.000001523545
            -0.000000763355    -0.000001528284    0.049014066899    0.034517142227    -0.000000685546    -0.000001523545    0.036110291535    0.036302175143
0.350     0.013801032702    0.040055047443    -0.000001662542    -0.000002002237    0.028171673695    0.033193164335    -0.000000949494    -0.000001658970
            -0.000001662542    -0.000002002237    0.036998945039    0.044907359903    -0.000001629294    -0.000002032570    0.049911271177    0.038332000830
            0.028171673695    0.033193164335    -0.000001629294    -0.000002032570    0.014781280149    0.040557530935    -0.000000865501    -0.000001663017
            -0.000000949494    -0.000001658970    0.049911271177    0.038332000830    -0.000000865501    -0.000001663017    0.038002959453    0.045448656731
0.375     0.017388676833    0.054769724193    -0.000001970906    -0.000002070792    0.029258589950    0.042533874364    -0.000001172944    -0.000001769011
            -0.000001970906    -0.000002070792    0.041713820434    0.054800398459    -0.000001937824    -0.000002109531    0.052359131508    0.043228526636
            0.029258589950    0.042533874364    -0.000001937824    -0.000002109531    0.018397982571    0.055025812953    -0.000001084186    -0.000001783285
            -0.000001172944    -0.000001769011    0.052359131508    0.043228526636    -0.000001084186    -0.000001783285    0.042783484290    0.055078970558
0.400     0.025718191678    0.069089794307    -0.000002307885    -0.000002089147    0.033793960897    0.052531619905    -0.000001429492    -0.000001845656
            -0.000002307885    -0.000002089147    0.049641487092    0.064193456551    -0.000002276652    -0.000002136766    0.056847059729    0.048572525707
            0.033793960897    0.052531619905    -0.000002276652    -0.000002136766    0.026659219280    0.069109070701    -0.000001337737    -0.000001871202
            -0.000001429492    -0.000001845656    0.056847059729    0.048572525707    -0.000001337737    -0.000001871202    0.050677267258    0.064201976044
0.425     0.038597697287    0.081384125501    -0.000002660035    -0.000002047527    0.041988543175    0.061883842358    -0.000001710274    -0.000001878040
            -0.000002660035    -0.000002047527    0.060640048090    0.072000526773    -0.000002632492    -0.000002104034    0.063592045101    0.053568894003
            0.041988543175    0.061883842358    -0.000002632492    -0.000002104034    0.039381710542    0.081212691944    -0.000001617468    -0.000001915423
            -0.000001710274    -0.000001878040    0.063592045101    0.053568894003    -0.000001617468    -0.000001915423    0.061543996706    0.071768871454
0.450     0.055261623961    0.090171122515    -0.000003009506    -0.000001941366    0.053561008507    0.069290553844    -0.000002001270    -0.000001858689
            -0.000003009506    -0.000001941366    0.074194900117    0.077227920300    -0.000002987430    -0.000002006249    0.072509686662    0.057385782071
            0.053561008507    0.069290553844    -0.000002987430    -0.000002006249    0.055821701790    0.089887316595    -0.000001909380    -0.000001907942
            -0.000002001270    -0.000001858689    0.072509686662    0.057385782071    -0.000001909380    -0.000001907942    0.074883344744    0.076820552303
0.475     0.074465544405    0.094314162368    -0.000003337685    -0.000001773231    0.067779177042    0.073630082768    -0.000002286675    -0.000001786302
            -0.000003337685    -0.000001773231    0.089466507145    0.079096414606    -0.000003322648    -0.000001845514    0.083214946737    0.059260125929
            0.067779177042    0.073630082768    -0.000003322648    -0.000001845514    0.074767177320    0.094017505866    -0.000002197505    -0.000001847009
            -0.000002286675    -0.000001786302    0.083214946737    0.059260125929    -0.000002197505    -0.000001847009    0.089882652858    0.078606004474
0.500     0.094657765712    0.093167771572    -0.000003627178    -0.000001552670    0.083576737129    0.074108451057    -0.000002550138    -0.000001665699
            -0.000003627178    -0.000001552670    0.105399599082    0.077147696011    -0.000003620356    -0.000001631029    0.095085324200    0.058605545764
            0.083576737129    0.074108451057    -0.000003620356    -0.000001631029    0.094704572502    0.092966073264    -0.000002465161    -0.000001737048
            -0.000002550138    -0.000001665699    0.095085324200    0.058605545764    -0.000002465161    -0.000001737048    0.105522223483    0.076682865146
0.525     0.114168316388    0.086631054124    -0.000003865748    -0.000001295128    0.099690020698    0.070329918924    -0.000002779090    -0.000001507882
            -0.000003865748    -0.000001295128    0.120839807003    0.071286942966    -0.000003867895    -0.000001378054    0.107329453709    0.055069577714
            0.099690020698    0.070329918924    -0.000003867895    -0.000001378054    0.114003331498    0.086626816049    -0.000002699406    -0.000001588870
            -0.000002779090    -0.000001507882    0.107329453709    0.055069577714    -0.000002699406    -0.000001588870    0.120686594220    0.070960343718
0.550     0.131404918003    0.075138276916    -0.000004047054    -0.000001019505    0.114812245583    0.062324357779    -0.000002965228    -0.000001327666
            -0.000004047054    -0.000001019505    0.134671502700    0.061790090406    -0.000004058426    -0.000001105477    0.119090551423    0.048573366862
            0.114812245583    0.062324357779    -0.000004058426    -0.000001105477    0.131105152154    0.075414789881    -0.000002891507    -0.000001417218
            -0.000002965228    -0.000001327666    0.119090551423    0.048573366862    -0.000002891507    -0.000001417218    0.134298225834    0.061703979432
0.575     0.144999615369    0.059582091399    -0.000004172521    -0.000000745391    0.127711819643    0.050513867828    -0.000003107203    -0.000001141718
            -0.000004172521    -0.000000745391    0.145920066651    0.049259240479    -0.000004193015    -0.000000833022    0.129521264920    0.039303371960
            0.127711819643    0.050513867828    -0.000004193015    -0.000000833022    0.144668738283    0.060193683096    -0.000003039782    -0.000001238883
            -0.000003107203    -0.000001141718    0.129521264920    0.039303371960    -0.000003039782    -0.000001238883    0.145416007957    0.049494139870
0.600     0.153928769331    0.041211623400    -0.000004249673    -0.000000490536    0.137343017167    0.035667462971    -0.000003208909    -0.000000965875
            -0.000004249673    -0.000000490536    0.153849976670    0.034555303738    -0.000004278816    -0.000000578708    0.137873920281    0.027694047000
            0.137343017167    0.035667462971    -0.000004278816    -0.000000578708    0.153686096131    0.042176434776    -0.000003147799    -0.000001069881
            -0.000003208909    -0.000000965875    0.137873920281    0.027694047000    -0.000003147799    -0.000001069881    0.153328690834    0.035160145606
0.625     0.157576828179    0.021514423144    -0.000004291972    -0.000000268656    0.142914002768    0.018827606573    -0.000003280140    -0.000000813284
            -0.000004291972    -0.000000268656    0.158012710423    0.018710906360    -0.000004329122    -0.000000356567    0.143548943398    0.014381074054
            0.142914002768    0.018827606573    -0.000004329122    -0.000000356567    0.157545691062    0.022809639105    -0.000003225214    -0.000000923642
            -0.000003280140    -0.000000813284    0.143548943423    0.014381073803    -0.000003225215    -0.000000923642    0.157601063071    0.019695545054
0.650     0.155783672991    0.002096540605    -0.000004315969    -0.000000088453    0.143959036650    0.001244987099    -0.000003333609    -0.000000693127
            -0.000004315969    -0.000000088453    0.158285500589    0.002839077208    -0.000004360382    -0.000000175659    0.146159065035    0.000157596820
            0.143959036650    0.001244987049    -0.000004360382    -0.000000175659    0.156077974756    0.003659913679    -0.000003284649    -0.000000809662
            -0.000003333609    -0.000000693127    0.146159065035    0.000157596746    -0.000003284650    -0.000000809663    0.158111900387    0.004172652422
0.675     0.148853359019    -0.015432600432    -0.000004340580    0.000000047268    0.140380106797    -0.015708758075    -0.000003384942    -0.000000609959
            -0.000004340580    0.000000047268    0.154869563678    -0.011957528025    -0.000004391581    -0.000000039156    0.145551349655    -0.014089524419
            0.140380106797    -0.015708758075    -0.000004391581    -0.000000039156    0.149565329939    -0.013700757924    -0.000003341819    -0.000000732821
            -0.000003384942    -0.000000609959    0.145551349655    -0.014089524419    -0.000003341820    -0.000000732822    0.155050350857    -0.010347129944
0.700     0.137561286132    -0.029582264813    -0.000004384558    0.000000141272    0.132501855314    -0.030633118492    -0.000003449950    -0.000000563766
            -0.000004384558    0.000000141272    0.148286101900    -0.024675853345    -0.000004441585    0.000000055376    0.141849838704    -0.027444447257
            0.132501855314    -0.030633118492    -0.000004441585    0.000000055376    0.138749405048    -0.027810827614    -0.000003412670    -0.000000693370
            -0.000003449950    -0.000000563766    0.141849838704    -0.027444447257    -0.000003412670    -0.000000693370    0.148913334267    -0.022897402258
0.725     0.123125676497    -0.039106888857    -0.000004466133    0.000000202077    0.121087872326    -0.042225786286    -0.000003545061    -0.000000549849
            -0.000004466133    0.000000202077    0.139336136368    -0.034497326427    -0.000004528923    0.000000116219    0.135450560823    -0.039043287423
            0.121087872326    -0.042225786286    -0.000004528923    0.000000116219    0.124804794923    -0.037443904830    -0.000003513944    -0.000000686839
            -0.000003545061    -0.000000549849    0.135450560823    -0.039043287423    -0.000003513944    -0.000000686839    0.140465247742    -0.032688646445
0.750     0.107158004281    -0.043148544109    -0.000004601039    0.000000243442    0.107344183041    -0.049426009629    -0.000003685288    -0.000000559128
            -0.000004601039    0.000000243442    0.129054811086    -0.040870447855    -0.000004669636    0.000000156892    0.127027816463    -0.048160553504
            0.107344183041    -0.049426009629    -0.000004669636    0.000000156893    0.109293266134    -0.041745234331    -0.000003660974    -0.000000704303
            -0.000003685288    -0.000000559128    0.127027816463    -0.048160553504    -0.000003660974    -0.000000704303    0.130696638653    -0.039185331758
0.775     0.091554447358    -0.041378920443    -0.000004802199    0.000000284649    0.092846897831    -0.051588022680    -0.000003884850    -0.000000577546
            -0.000004802199    0.000000284649    0.118627694299    -0.043581408409    -0.000004877092    0.000000196617    0.117477918378    -0.054304057445
            0.092846897831    -0.051588022680    -0.000004877092    0.000000196617    0.094058810473    -0.040372903856    -0.000003868441    -0.000000731741
