# GHz S RI R 45
0.000     0.020993718760    0.001730693876    -0.000001730258    -0.000003735668    0.000695946460    0.001460221848    -0.000001572498    -0.000003439302
            -0.000001730258    -0.000003735668    0.022096275231    0.001695452368    -0.000001928494    -0.000004111870    0.000794803082    0.001647769259
            0.000695946656    0.001460221865    -0.000001928494    -0.000004111870    0.020944394819    0.001743720678    -0.000001732640    -0.000003749370
            -0.000001572500    -0.000003439302    0.000794803298    0.001647769266    -0.000001732644    -0.000003749370    0.022035100376    0.001707287067
0.025     0.026194684403    0.008407335246    -0.000004074330    -0.000007974454    0.002680411958    0.008631707393    -0.000003732676    -0.000007345946
            -0.000004074326    -0.000007974451    0.026264041751    0.009462163326    -0.000004502410    -0.000008782649    0.002128916918    0.010197631374
            0.002678769620    0.008630408853    -0.000004502415    -0.000008782659    0.026134102275    0.008372652849    -0.000004081693    -0.000008011368
            -0.000003732681    -0.000007345956    0.002129171488    0.010197057227    -0.000004081696    -0.000008011370    0.026186716445    0.009426417515
0.050     0.033526130014    0.011476697463    -0.000008979672    -0.000013469411    0.008280147403    0.015661454157    -0.000008262794    -0.000012405717
            -0.000008979672    -0.000013469411    0.030983774854    0.014383998337    -0.000009887154    -0.000014841396    0.005980028804    0.019440681284
            0.008280115877    0.015661409742    -0.000009887154    -0.000014841397    0.033477921083    0.011415631094    -0.000009009267    -0.000013535740
            -0.000008262794    -0.000012405717    0.005980125437    0.019440676669    -0.000009009267    -0.000013535739    0.030836310453    0.014330896394
0.075     0.042144096817    0.011134941243    -0.000015352792    -0.000017040634    0.016541386651    0.019841268607    -0.000014149057    -0.000015678892
            -0.000015352792    -0.000017040634    0.035727978585    0.017512125949    -0.000016876540    -0.000018794899    0.011740237032    0.027022138316
            0.016541379535    0.019841270634    -0.000016876540    -0.000018794899    0.042121092544    0.011045073627    -0.000015407166    -0.000017120289
            -0.000014149058    -0.000015678893    0.011740232787    0.027022140160    -0.000015407166    -0.000017120289    0.035493788740    0.017487584353
0.100     0.051114993910    0.006896799504    -0.000022787750    -0.000018563192    0.026242795060    0.020395414407    -0.000021004146    -0.000017049985
            -0.000022787750    -0.000018563192    0.040237298138    0.018942545235    -0.000025033719    -0.000020513863    0.018683131975    0.032547960353
            0.026242794704    0.020395414865    -0.000025033719    -0.000020513863    0.051131411761    0.006771722844    -0.000022859351    -0.000018645944
            -0.000021004146    -0.000017049985    0.018683106265    0.032547968193    -0.000022859351    -0.000018645944    0.039913941880    0.018997436621
0.125     0.058940889472    -0.001315636819    -0.000030777541    -0.000017892424    0.035987539986    0.016975653693    -0.000028354280    -0.000016393229
            -0.000030777541    -0.000017892424    0.043881939471    0.018892638469    -0.000033810165    -0.000019838963    0.026047197330    0.035893147848
            0.035987543199    0.016975639851    -0.000033810165    -0.000019838963    0.059018713212    -0.001489102013    -0.000030855453    -0.000017976461
            -0.000028354280    -0.000016393229    0.026047197917    0.035893148658    -0.000030855453    -0.000017976461    0.043493862688    0.019078409179
0.150     0.064274936500    -0.013122714393    -0.000038817669    -0.000015022292    0.044348420339    0.009718780963    -0.000035728177    -0.000013713954
            -0.000038817669    -0.000015022292    0.046293165775    0.017892452445    -0.000042659268    -0.000016762173    0.033081184568    0.037192909025
            0.044348420339    0.009718780963    -0.000042659268    -0.000016762173    0.064415703466    -0.013364507713    -0.000038888819    -0.000015117448
            -0.000035728177    -0.000013713954    0.033081184568    0.037192909025    -0.000038888819    -0.000015117448    0.045881554322    0.018247127761
0.175     0.065759214699    -0.027586586839    -0.000046465922    -0.000010008816    0.049999415051    -0.000776030993    -0.000042724168    -0.000009075917
            -0.000046465922    -0.000010008816    0.047141266122    0.016551605126    -0.000051101055    -0.000011340519    0.039164114906    0.036836028954
            0.049999415051    -0.000776030976    -0.000051101055    -0.000011340519    0.065970912058    -0.027919716286    -0.000046526624    -0.000010138295
            -0.000042724168    -0.000009075917    0.039164114906    0.036836028954    -0.000046526625    -0.000010138295    0.046767289547    0.017095187551
0.200     0.062465768355    -0.043334368412    -0.000053330916    -0.000002955499    0.051869115066    -0.013493508570    -0.000048991823    -0.000002580903
            -0.000053330916    -0.000002955499    0.046382638574    0.015600361796    -0.000058710991    -0.000003682487    0.043864568654    0.035397790752
            0.051869115066    -0.013493508570    -0.000058710991    -0.000003682487    0.062750054815    -0.043790374032    -0.000053394389    -0.000003143941
            -0.000048991823    -0.000002580903    0.043864568654    0.035397790752    -0.000053394389    -0.000003143941    0.046115348736    0.016327411132
0.225     0.053945089740    -0.058732722346    -0.000059027178    0.000006036004    0.049252937554    -0.027098034739    -0.000054188141    0.000005676433
            -0.000059027178    0.000006036004    0.044268862120    0.015742926904    -0.000065070242    0.000006107077    0.046991082642    0.033557806619
            0.049252937554    -0.027098034739    -0.000065070242    0.000006107077    0.054290925895    -0.059347809485    -0.000059124092    0.000005765467
            -0.000054188141    0.000005676433    0.046991082642    0.033557806619    -0.000059124092    0.000005765467    0.044174151457    0.016620507503
0.250     0.040307351326    -0.072039269263    -0.000063153618    0.000016827982    0.041909059278    -0.040063842430    -0.000057954814    0.000015575019
            -0.000063153618    0.000016827982    0.041314645700    0.017576228543    -0.000069742630    0.000017886612    0.048622561368    0.032021898776
            0.041909059278    -0.040063842430    -0.000069742630    0.000017886612    0.040689560213    -0.072848292024    -0.000063331914    0.000016466833
            -0.000057954814    0.000015575019    0.048622561368    0.032021898776    -0.000063331914    0.000016466833    0.041444150019    0.018546372690
0.275     0.022222419948    -0.081576868983    -0.000065256180    0.000029225279    0.030099085110    -0.050822439539    -0.000059879142    0.000026949013
            -0.000065256180    0.000029225279    0.038250466811    0.021476585580    -0.000072231437    0.000031452433    0.049101473816    0.031411673670
            0.030099085110    -0.050822439539    -0.000072231437    0.000031452433    0.022602178547    -0.082609249218    -0.000065571989    0.000028790779
            -0.000059879142    0.000026949013    0.049101473816    0.031411673670    -0.000065571989    0.000028790779    0.038632670836    0.022462413209
0.300     0.000901109600    -0.085921171877    -0.000064848915    0.000042913918    0.014591483728    -0.057932601571    -0.000059513147    0.000039519663
            -0.000064848915    0.000042913918    0.035937507777    0.027543433395    -0.000072002088    0.000046473836    0.048995281439    0.032178565904
            0.014591483728    -0.057932601571    -0.000072002088    0.000046473836    0.001226147469    -0.087195717374    -0.000065355187    0.000042451156
            -0.000059513147    0.000039519663    0.048995281439    0.032178565904    -0.000065355187    0.000042451156    0.036570914325    0.028459002055
0.325     -0.022009548258    -0.084058742943    -0.000061439052    0.000057408507    -0.003395599883    -0.060233085589    -0.000056393250    0.000052853547
            -0.000061439052    0.000057408507    0.035259579706    0.035539717429    -0.000068507252    0.000062434528    0.049014066899    0.034517142227
            -0.003395599883    -0.060233085589    -0.000068507252    0.000062434528    -0.021800706057    -0.085577997922    -0.000062172630    0.000056988149
            -0.000056393250    0.000052853547    0.049014066899    0.034517142227    -0.000062172630    0.000056988149    0.036110291535    0.036302175143
0.350     -0.044566121122    -0.075531294849    -0.000054625631    0.000072018694    -0.022299078797    -0.056988827579    -0.000050135405    0.000066319033
            -0.000054625631    0.000072018694    0.036998945039    0.044907359903    -0.000061294725    0.000078591694    0.049911271177    0.038332000830
            -0.022299078797    -0.056988827579    -0.000061294725    0.000078591694    -0.044540231460    -0.077278205076    -0.000055590847    0.000071732929
            -0.000050135405    0.000066319033    0.049911271177    0.038332000830    -0.000055590847    0.000071732929    0.038002959453    0.045448656731
0.375     -0.064718542251    -0.060505615308    -0.000044182441    0.000085860818    -0.040357505260    -0.047982701976    -0.000040511725    0.000079099469
            -0.000044182441    0.000085860818    0.041713820434    0.054800398459    -0.000050095920    0.000093988972    0.052359131508    0.043228526636
            -0.040357505260    -0.047982701976    -0.000050095920    0.000093988972    -0.064940216360    -0.062440274918    -0.000045346518    0.000085803761
            -0.000040511725    0.000079099469    0.052359131508    0.043228526636    -0.000045346518    0.000085803761    0.042783484290    0.055078970558
0.400     -0.080520726710    -0.039798252467    -0.000030167781    0.000097931254    -0.055794216667    -0.033569228147    -0.000027564177    0.000090254241
            -0.000030167781    0.000097931254    0.049641487092    0.064193456551    -0.000034949060    0.000107529578    0.056847059729    0.048572525707
            -0.055794216667    -0.033569228147    -0.000034949060    0.000107529578    -0.081044975729    -0.041858326016    -0.000031457293    0.000098183487
            -0.000027564177    0.000090254241    0.056847059729    0.048572525707    -0.000031457293    0.000098183487    0.050677267258    0.064201976044
0.425     -0.090333424601    -0.014812190120    -0.000012974500    0.000107210332    -0.066996166340    -0.014650587283    -0.000011650707    0.000098824122
            -0.000012974500    0.000107210332    0.060640048090    0.072000526773    -0.000016256290    0.000118092674    0.063592045101    0.053568894003
            -0.066996166340    -0.014650587283    -0.000016256290    0.000118092674    -0.091197330109    -0.016915202209    -0.000014285724    0.000107823456
            -0.000011650707    0.000098824122    0.063592045101    0.053568894003    -0.000014285724    0.000107823456    0.061543996706    0.071768871454
0.450     -0.093007198204    0.012583728165    0.000006661410    0.000112818068    -0.072692410089    0.007398707898    0.000006548462    0.000103975761
            0.000006661409    0.000112818058    0.074194900117    0.077227920300    0.000005204283    0.000124697636    0.072509686662    0.057385782071
            -0.072692410089    0.007398707898    0.000005204283    0.000124697636    -0.094222992415    0.010534583662    0.000005447838    0.000113798393
            0.000006548462    0.000103975761    0.072509686662    0.057385782071    0.000005447838    0.000113798393    0.074883344744    0.076820552303
0.475     -0.088001629430    0.040233213401    0.000027731722    0.000114130830    -0.072077383281    0.030865055328    0.000026084454    0.000105114740
            0.000027731722    0.000114130830    0.089466507145    0.079096414606    0.000028351295    0.000126634314    0.083214946737    0.059260125929
            -0.072077383281    0.030865055328    0.000028351295    0.000126634314    -0.089551532580    0.038340567399    0.000026737019    0.000115437824
            0.000026084454    0.000105114740    0.083214946737    0.059260125929    0.000026737019    0.000115437824    0.089882652858    0.078606004474
0.500     -0.075450347428    0.065900369687    0.000049080731    0.000110882905    -0.064899642288    0.053864401466    0.000045867467    0.000101987604
            0.000049080731    0.000110882905    0.105399599082    0.077147696011    0.000051929857    0.000123579058    0.095085324200    0.058605545764
            -0.064899642288    0.053864401466    0.000051929857    0.000123579058    -0.077284400994    0.064263501139    0.000048395442    0.000112436132
            0.000045867467    0.000101987604    0.095085324200    0.058605545764    0.000048395442    0.000112436132    0.105522223483    0.076682865146
0.525     -0.056142112829    0.087477864203    0.000069541381    0.000103183616    -0.051471169955    0.074514284070    0.000064790540    0.000094697475
            0.000069541381    0.000103183616    0.120839807003    0.071286942966    0.000074660371    0.000115612032    0.107329453709    0.055069577714
            -0.051471169955    0.074514284070    0.000074660371    0.000115612032    -0.058179768324    0.086182485420    0.000069222470    0.000104870830
            0.000064790540    0.000094697475    0.107329453709    0.055069577714    0.000069222470    0.000104870830    0.120686594220    0.070960343718
0.550     -0.031447068208    0.103181715983    0.000088081517    0.000091487184    -0.032637917986    0.091110024558    0.000081879894    0.000083678106
            0.000088081517    0.000091487184    0.134671502700    0.061790090406    0.000095399123    0.000103198558    0.119090551423    0.048573366862
            -0.032637917986    0.091110024558    0.000095399123    0.000103198558    -0.033580914759    0.102289922072    0.000088135467    0.000093189859
            0.000081879894    0.000083678106    0.119090551423    0.048573366862    0.000088135467    0.000093189859    0.134298225834    0.061703979432
0.575     -0.003184536975    0.111694861987    0.000103905494    0.000076497335    -0.009689573449    0.102254808347    0.000096377962    0.000069606756
            0.000103905494    0.000076497335    0.145920066651    0.049259240479    0.000113251471    0.000087081249    0.129521264920    0.039303371960
            -0.009689573449    0.102254808347    0.000113251471    0.000087081249    -0.005288300252    0.111237616529    0.000104294198    0.000078106550
            0.000096377962    0.000069606756    0.129521264920    0.039303371960    0.000104294198    0.000078106550    0.145416007957    0.049494139870
0.600     0.026537434081    0.112271714168    0.000116511443    0.000059061884    0.015751464620    0.106974920419    0.000107818509    0.000053296716
            0.000116511443    0.000059061884    0.153849976670    0.034555303738    0.000127635534    0.000068176019    0.137873920281    0.027694047000
            0.015751464620    0.106974920419    0.000127635534    0.000068176019    0.024599770686    0.112243305185    0.000117158812    0.000060501395
            0.000107818509    0.000053296716    0.137873920281    0.027694047000    0.000117158812    0.000060501395    0.153328690834    0.035160145606
0.625     0.055495015432    0.104778805122    0.000125692640    0.000040049097    0.041862435191    0.104771821036    0.000116016012    0.000035580120
            0.000125692640    0.000040049097    0.158012710423    0.018710906360    0.000138297117    0.000047425220    0.143548943398    0.014381074054
            0.041862435191    0.104771821036    0.000138297117    0.000047425220    0.053858815560    0.105134276597    0.000126504057    0.000041279951
            0.000116016012    0.000035580120    0.143548943423    0.014381073803    0.000126504057    0.000041279951    0.157601063071    0.019695545054
0.650     0.081523345791    0.089694213026    0.000131511949    0.000020239896    0.066757859375    0.095658726981    0.000121047964    0.000017210218
            0.000131511949    0.000020239896    0.158285500589    0.002839077208    0.000145275871    0.000025692047    0.146159065035    0.000157596820
            0.066757859375    0.095658726981    0.000145275871    0.000025692047    0.080311514744    0.090350162989    0.000132392532    0.000021276677
            0.000121047964    0.000017210217    0.146159065035    0.000157596746    0.000132392532    0.000021276677    0.158111900387    0.004172652422
0.675     0.102669284761    0.068058202653    0.000134218864    0.000000257215    0.088615652044    0.080143602867    0.000123173271    -0.000001215712
            0.000134218864    0.000000257215    0.154869563678    -0.011957528025    0.000148824524    0.000003671718    0.145551349655    -0.014089524419
            0.088615652044    0.080143602867    0.000148824524    0.000003671718    0.101982288245    0.068895668480    0.000135095270    0.000001153018
            0.000123173271    -0.000001215712    0.145551349655    -0.014089524419    0.000135095270    0.000001153018    0.155050350857    -0.010347129944
0.700     0.117331795447    0.041393741680    0.000134172056    -0.000019490161    0.105808189057    0.059202867991    0.000122760896    -0.000019308425
            0.000134172056    -0.000019490161    0.148286101900    -0.024675853345    0.000149327052    -0.000018171605    0.141849838704    -0.027444447257
            0.105808189057    0.059202867991    0.000149327052    -0.000018171605    0.117236890782    0.042265248458    0.000135014261    -0.000018647662
            0.000122760896    -0.000019308425    0.141849838704    -0.027444447257    0.000135014261    -0.000018647662    0.148913334267    -0.022897402258
0.725     0.124366960522    0.011598075531    0.000131729648    -0.000038807488    0.117001673923    0.034213940924    0.000120182505    -0.000036895994
            0.000131729648    -0.000038807488    0.139336136368    -0.034497326427    0.000147172926    -0.000039611474    0.135450560823    -0.039043287423
            0.117001673923    0.034213940924    0.000147172926    -0.000039611474    0.124891008045    0.012336019658    0.000132559647    -0.000037925246
            0.000120182505    -0.000036895994    0.135450560823    -0.039043287423    0.000132559647    -0.000037925246    0.140465247742    -0.032688646445
0.750     0.123173817664    -0.019188059748    0.000127159930    -0.000057689940    0.121265302308    0.006874449508    0.000115723210    -0.000053991399
            0.000127159930    -0.000057689940    0.129054811086    -0.040870447855    0.000142660369    -0.000060634946    0.127027816463    -0.048160553504
            0.121265302308    0.006874449508    0.000142660369    -0.000060634946    0.124296872676    -0.018759901497    0.000128055013    -0.000056694327
            0.000115723210    -0.000053991399    0.127027816463    -0.048160553504    0.000128055013    -0.000056694327    0.130696638653    -0.039185331758
0.775     0.113740461489    -0.048724621090    0.000120552563    -0.000076244367    0.118135396132    -0.020903613275    0.000109492051    -0.000070733541
            0.000120552563    -0.000076244367    0.118627694299    -0.043581408409    0.000135893056    -0.000081361634    0.117477918378    -0.054304057445
            0.118135396132    -0.020903613275    0.000135893056    -0.000081361634    0.115392628640    -0.048778340497    0.000121634549    -0.000075108131
            0.000109492051    -0.000070733541    0.117477918378    -0.054304057445    0.000121634549    -0.000075108131    0.120741944556    -0.042175765790
