# GHz S RI R 45
0.000     0.022483340684    0.001694381814    0.000001848072    0.000003711272    0.000829954735    0.001649896431    0.000002010285    0.000004343794
            0.000001847902    0.000003711202    0.022096275231    0.001695452368    0.000002224975    0.000004363041    0.000794803082    0.001647769259
            0.000829954518    0.001649896428    0.000002224983    0.000004363041    0.022449237356    0.001682070197    0.000002429479    0.000005178405
            0.000002010624    0.000004343789    0.000794803298    0.001647769266    0.000002429400    0.000005178406    0.022035100376    0.001707287067
0.025     0.027017314850    0.009847734281    0.000003469989    0.000008703310    0.002324281322    0.010579166412    0.000003704846    0.000009769044
            0.000003470008    0.000008703304    0.026264041751    0.009462163326    0.000004374344    0.000010716294    0.002128916918    0.010197631374
            0.002316367653    0.010576979187    0.000004374348    0.000010716309    0.026946661237    0.009782131879    0.000004506341    0.000011834629
            0.000003704865    0.000009769055    0.002129171488    0.010197057227    0.000004506335    0.000011834620    0.026186716445    0.009426417515
0.050     0.032188499534    0.014879195729    0.000006741316    0.000015721499    0.006558625740    0.020048499173    0.000007057520    0.000017785734
            0.000006741316    0.000015721499    0.030983774854    0.014383998337    0.000008661859    0.000019181834    0.005980028804    0.019440681284
            0.006558685929    0.020048432136    0.000008661860    0.000019181834    0.032069212118    0.014808758226    0.000008638164    0.000021519512
            0.000007057521    0.000017785734    0.005980125437    0.019440676669    0.000008638165    0.000021519513    0.030836310453    0.014330896394
0.075     0.037464279604    0.017818763042    0.000010930418    0.000021588156    0.012851282303    0.027592949679    0.000011353254    0.000024767246
            0.000010930418    0.000021588156    0.035727978585    0.017512125949    0.000014129715    0.000026030740    0.011740237032    0.027022138316
            0.012851280534    0.027593001247    0.000014129715    0.000026030740    0.037298944261    0.017754464192    0.000013934058    0.000029895210
            0.000011353254    0.000024767246    0.011740232787    0.027022140160    0.000013934058    0.000029895210    0.035493788740    0.017487584353
0.100     0.042436505118    0.018734889155    0.000015735692    0.000026375595    0.020322273945    0.032774239829    0.000016398586    0.000030834905
            0.000015735692    0.000026375595    0.040237298138    0.018942545235    0.000020305403    0.000031306600    0.018683131975    0.032547960353
            0.020322273945    0.032774239829    0.000020305403    0.000031306600    0.042231301759    0.018703180452    0.000020138860    0.000037087899
            0.000016398587    0.000030834905    0.018683106265    0.032547968193    0.000020138860    0.000037087899    0.039913941880    0.018997436621
0.125     0.046380599552    0.017935771241    0.000020869207    0.000030159936    0.028053010701    0.035481625798    0.000022018637    0.000036043354
            0.000020869207    0.000030159936    0.043881939471    0.018892638469    0.000026708320    0.000035109992    0.026047197330    0.035893147848
            0.028053010701    0.035481625798    0.000026708320    0.000035109992    0.046153394396    0.017956819844    0.000027001951    0.000043150936
            0.000022018637    0.000036043354    0.026047197917    0.035893148658    0.000027001951    0.000043150936    0.043493862688    0.019078409179
0.150     0.048645337071    0.015962277372    0.000026089547    0.000033170799    0.035177135858    0.035948918335    0.000028067091    0.000040563067
            0.000026089547    0.000033170799    0.046293165775    0.017892452445    0.000032920344    0.000037784043    0.033081184568    0.037192909025
            0.035177135858    0.035948918335    0.000032920344    0.000037784043    0.048429326780    0.016053027350    0.000034299725    0.000048294572
            0.000028067091    0.000040563067    0.033081184568    0.037192909025    0.000034299725    0.000048294572    0.045881554322    0.018247127761
0.175     0.048895337271    0.013664827295    0.000031315143    0.000035655005    0.040983679638    0.034688939676    0.000034534890    0.000044534098
            0.000031315143    0.000035655005    0.047141266122    0.016551605126    0.000038745682    0.000039748328    0.039164114906    0.036836028954
            0.040983679638    0.034688939676    0.000038745682    0.000039748328    0.048730428064    0.013823711108    0.000041973427    0.000052714363
            0.000034534890    0.000044534098    0.039164114906    0.036836028954    0.000041973427    0.000052714363    0.046767289547    0.017095187551
0.200     0.047111588560    0.011977425085    0.000036596140    0.000037871878    0.045010742907    0.032442647345    0.000041503572    0.000048083871
            0.000036596140    0.000037871878    0.046382638574    0.015600361796    0.000044200217    0.000041476542    0.043864568654    0.035397790752
            0.045010742907    0.032442647345    0.000044200217    0.000041476542    0.047036367178    0.012183395585    0.000050082756    0.000056611882
            0.000041503572    0.000048083871    0.043864568654    0.035397790752    0.000050082756    0.000056611882    0.046115348736    0.016327411132
0.225     0.043639566199    0.011792670907    0.000042115747    0.000040003579    0.047111420527    0.030064903678    0.000049138887    0.000051245050
            0.000042115747    0.000040003579    0.044268862120    0.015742926904    0.000049526685    0.000043364978    0.046991082642    0.033557806619
            0.047111420527    0.030064903678    0.000049526685    0.000043364978    0.043683790820    0.012006736055    0.000058807609    0.000060091054
            0.000049138887    0.000051245050    0.046991082642    0.033557806619    0.000058807609    0.000060091054    0.044174151457    0.016620507503
0.250     0.039163330285    0.013855941359    0.000048160791    0.000042127616    0.047484481085    0.028412743681    0.000057655437    0.000053951171
            0.000048160791    0.000042127616    0.041314645700    0.017576228543    0.000055162392    0.000045672851    0.048622561368    0.032021898776
            0.047484481085    0.028412743681    0.000055162392    0.000045672851    0.039340262279    0.014025433416    0.000068410945    0.000063147024
            0.000057655437    0.000053951171    0.048622561368    0.032021898776    0.000068410945    0.000063147024    0.041444150019    0.018546372690
0.275     0.034646513469    0.018617766728    0.000055065404    0.000044144719    0.046654276991    0.028204946679    0.000067260940    0.000055980994
            0.000055065404    0.000044144719    0.038250466811    0.021476585580    0.000061664622    0.000048409229    0.049101473816    0.031411673670
            0.046654276991    0.028204946679    0.000061664622    0.000048409229    0.034947936284    0.018683236559    0.000079176189    0.000065589225
            0.000067260940    0.000055980994    0.049101473816    0.031411673670    0.000079176189    0.000065589225    0.038632670836    0.022462413209
0.300     0.031213444099    0.026152940415    0.000063143942    0.000045777184    0.045408626458    0.029910174419    0.000078098974    0.000056980528
            0.000063143942    0.000045777184    0.035937507777    0.027543433395    0.000069612523    0.000051307923    0.048995281439    0.032178565904
            0.045408626458    0.029910174419    0.000069612523    0.000051307923    0.031607050462    0.026057397155    0.000091337933    0.000067056467
            0.000078098974    0.000056980528    0.048995281439    0.032178565904    0.000091337933    0.000067056467    0.036570914325    0.028459002055
0.325     0.029998729960    0.036087845950    0.000072588787    0.000046552382    0.044681086873    0.033645753879    0.000090162389    0.000056462312
            0.000072588787    0.000046552382    0.035259579706    0.035539717429    0.000079462523    0.000053793834    0.049014066899    0.034517142227
            0.044681086873    0.033645753879    0.000079462523    0.000053793834    0.030428780938    0.035785791251    0.000104977137    0.000067008521
            0.000090162389    0.000056462312    0.049014066899    0.034517142227    0.000104977137    0.000067008521    0.036110291535    0.036302175143
0.350     0.031973349085    0.047623821661    0.000083393882    0.000045874792    0.045409339437    0.039145287091    0.000103244629    0.000053890374
            0.000083393882    0.000045874792    0.036998945039    0.044907359903    0.000091427750    0.000055062816    0.049911271177    0.038332000830
            0.045409339437    0.039145287091    0.000091427750    0.000055062816    0.032366543353    0.047091170619    0.000119952183    0.000064814569
            0.000103244629    0.000053890374    0.049911271177    0.038332000830    0.000119952183    0.000064814569    0.038002959453    0.045448656731
0.375     0.037778605780    0.059602002432    0.000095268957    0.000043106413    0.048370700076    0.045770787133    0.000116880709    0.000048757549
            0.000095268957    0.000043106413    0.041713820434    0.054800398459    0.000105345733    0.000054180413    0.052359131508    0.043228526636
            0.048370700076    0.045770787133    0.000105345733    0.000054180413    0.038052491769    0.058842032921    0.000135822985    0.000059840506
            0.000116880709    0.000048757549    0.052359131508    0.043228526636    0.000135822985    0.000059840506    0.042783484290    0.055078970558
0.400     0.047603237818    0.070660845240    0.000107644251    0.000037719088    0.054052458262    0.052611737588    0.000130385238    0.000040724866
            0.000107644251    0.000037719088    0.049641487092    0.064193456551    0.000120659765    0.000050277176    0.056847059729    0.048572525707
            0.054052458262    0.052611737588    0.000120659765    0.000050277176    0.047677492116    0.069707170429    0.000151873740    0.000051608199
            0.000130385238    0.000040724866    0.056847059729    0.048572525707    0.000151873740    0.000051608199    0.050677267258    0.064201976044
0.425     0.061122961204    0.079413214400    0.000119708149    0.000029414582    0.062556232310    0.058613363174    0.000142902821    0.000029713305
            0.000119708149    0.000029414582    0.060640048090    0.072000526773    0.000136435339    0.000042714782    0.063592045101    0.053568894003
            0.062556232310    0.058613363174    0.000136435339    0.000042714782    0.060930816559    0.078327667254    0.000167164342    0.000039911211
            0.000142902821    0.000029713305    0.063592045101    0.053568894003    0.000167164342    0.000039911211    0.061543996706    0.071768871454
0.450     0.077531997551    0.084653026893    0.000130551166    0.000018233409    0.073586788620    0.062747185129    0.000153562561    0.000015983995
            0.000130551166    0.000018233409    0.074194900117    0.077227920300    0.000151515757    0.000031248276    0.072509686662    0.057385782071
            0.073586788620    0.062747185129    0.000151515757    0.000031248276    0.077029828124    0.083518988367    0.000180693527    0.000024917880
            0.000153562561    0.000015983995    0.072509686662    0.057385782071    0.000180693527    0.000024917880    0.074883344744    0.076820552303
0.475     0.095637995811    0.085512892460    0.000139300197    0.000004571498    0.086488532991    0.064148771983    0.000161606095    0.000000120952
            0.000139300197    0.000004571498    0.089466507145    0.079096414606    0.000164686530    0.000016085006    0.083214946737    0.059260125929
            0.086488532991    0.064148771983    0.000164686530    0.000016085006    0.094812010383    0.084426014795    0.000191537077    0.000007168912
            0.000161606095    0.000000120952    0.083214946737    0.059260125929    0.000191537077    0.000007168912    0.089882652858    0.078606004474
0.500     0.114024370509    0.081580651216    0.000145300989    -0.000010869657    0.100352807234    0.062237291849    0.000166545111    -0.000017038802
            0.000145300989    -0.000010869657    0.105399599082    0.077147696011    0.000174890709    -0.000002132556    0.095085324200    0.058605545764
            0.100352807234    0.062237291849    0.000174890709    -0.000002132556    0.112892754915    0.080637554749    0.000199038706    -0.000012483536
            0.000166545111    -0.000017038802    0.095085324200    0.058605545764    0.000199038706    -0.000012483536    0.105522223483    0.076682865146
0.525     0.131216669756    0.072931485834    0.000148188557    -0.000027203224    0.114126423295    0.056764584518    0.000168212964    -0.000034539859
            0.000148188557    -0.000027203224    0.120839807003    0.071286942966    0.000181358432    -0.000022438518    0.107329453709    0.055069577714
            0.114126423295    0.056764584518    0.000181358432    -0.000022438518    0.129829271845    0.072218565791    0.000202875383    -0.000033014983
            0.000168212964    -0.000034539859    0.107329453709    0.055069577714    0.000202875383    -0.000033014983    0.120686594220    0.070960343718
0.550     0.145858043061    0.060105654499    0.000147956616    -0.000043503405    0.126744688836    0.047833236842    0.000166808928    -0.000051454887
            0.000147956616    -0.000043503405    0.134671502700    0.061790090406    0.000183717242    -0.000043692323    0.119090551423    0.048573366862
            0.126744688836    0.047833236842    0.000183717242    -0.000043692323    0.144289318136    0.059689796220    0.000203121174    -0.000053385470
            0.000166808928    -0.000051454887    0.119090551423    0.048573366862    0.000203121174    -0.000053385470    0.134298225834    0.061703979432
0.575     0.156831852674    0.044030237117    0.000144893311    -0.000058932597    0.137221981465    0.035863671217    0.000162813527    -0.000067008582
            0.000144893311    -0.000058932597    0.145920066651    0.049259240479    0.000181972720    -0.000064730216    0.129521264920    0.039303371960
            0.137221981465    0.035863671217    0.000181972720    -0.000064730216    0.155174769452    0.043951699908    0.000200171945    -0.000072678746
            0.000162813527    -0.000067008582    0.129521264920    0.039303371960    0.000200171945    -0.000072678746    0.145416007957    0.049494139870
0.600     0.163367022190    0.025917699885    0.000139535735    -0.000072848321    0.144748432723    0.021552975023    0.000156930993    -0.000080675020
            0.000139535735    -0.000072848321    0.153849976670    0.034555303738    0.000176495467    -0.000084500215    0.137873920281    0.027694047000
            0.144748432723    0.021552975023    0.000176495467    -0.000084500215    0.161722738356    0.026185631746    0.000194693135    -0.000090213343
            0.000156930993    -0.000080675020    0.137873920281    0.027694047000    0.000194693135    -0.000090213343    0.153328690834    0.035160145606
0.625     0.165084210550    0.007148945003    0.000132542181    -0.000084837098    0.148738106203    0.005808772524    0.000149947709    -0.000092206419
            0.000132542181    -0.000084837098    0.158012710423    0.018710906360    0.000167914177    -0.000102142911    0.143548943398    0.014381074054
            0.148738106203    0.005808772524    0.000167914177    -0.000102142911    0.163553033681    0.007739460155    0.000187470957    -0.000105586520
            0.000149947709    -0.000092206419    0.143548943423    0.014381073803    0.000187470957    -0.000105586520    0.157601063071    0.019695545054
0.650     0.162031056524    -0.010842639381    0.000124629964    -0.000094737562    0.148893765614    -0.010310266554    0.000142659339    -0.000101643607
            0.000124629964    -0.000094737562    0.158285500589    0.002839077208    0.000157060580    -0.000117050583    0.146159065035    0.000157596820
            0.148893765614    -0.010310266554    0.000157060580    -0.000117050583    0.160701239495    -0.009984123788    0.000179348063    -0.000118691162
            0.000142659346    -0.000101643616    0.146159065035    0.000157596746    0.000179348063    -0.000118691162    0.158111900387    0.004172652422
0.675     0.154671251821    -0.026685842609    0.000116473270    -0.000102597717    0.145230151617    -0.025674075124    0.000135758148    -0.000109266856
            0.000116473270    -0.000102597717    0.154869563678    -0.011957528025    0.000144864096    -0.000128874712    0.145551349655    -0.014089524419
            0.145230151617    -0.025674075124    0.000144864096    -0.000128874712    0.153610713853    -0.025640611173    0.000171093286    -0.000129676480
            0.000135758148    -0.000109266856    0.145551349655    -0.014089524419    0.000171093286    -0.000129676480    0.155050350857    -0.010347129944
0.700     0.143872598417    -0.039184535261    0.000108683559    -0.000108656725    0.138117822700    -0.039165947281    0.000129799804    -0.000115562359
            0.000108683559    -0.000108656725    0.148286101900    -0.024675853345    0.000132314646    -0.000137549186    0.141849838704    -0.027444447257
            0.138117822700    -0.039165947281    0.000132314646    -0.000137549186    0.143119526813    -0.038054385921    0.000163377105    -0.000138920353
            0.000129799804    -0.000115562359    0.141849838704    -0.027444447257    0.000163377105    -0.000138920353    0.148913334267    -0.022897402258
0.725     0.130852263040    -0.047431749925    0.000101757375    -0.000113290196    0.128274319305    -0.049791762207    0.000125136381    -0.000121144090
            0.000101757375    -0.000113290196    0.139336136368    -0.034497326427    0.000120379571    -0.000143275688    0.135450560823    -0.039043287423
            0.128274319305    -0.049791762207    0.000120379571    -0.000143275688    0.130408483949    -0.046328441540    0.000156695034    -0.000146964021
            0.000125136381    -0.000121144090    0.135450560823    -0.039043287423    0.000156695034    -0.000146964021    0.140465247742    -0.032688646445
0.750     0.117103461380    -0.050923205821    0.000096083309    -0.000117009113    0.116756709323    -0.056800862466    0.000121924782    -0.000126723824
            0.000096083309    -0.000117009113    0.129054811086    -0.040870447855    0.000109970457    -0.000146552338    0.127027816463    -0.048160553504
            0.116756709323    -0.056800862466    0.000109970457    -0.000146552338    0.116931944338    -0.049955922176    0.000151372613    -0.000154489914
            0.000121924782    -0.000126723824    0.127027816463    -0.048160553504    0.000151372613    -0.000154489914    0.130696638653    -0.039185331758
0.775     0.104269188984    -0.049655381366    0.000091898074    -0.000120424656    0.104871400745    -0.059816586599    0.000120084350    -0.000133036531
            0.000091898074    -0.000120424656    0.118627694299    -0.043581408409    0.000101843772    -0.000148159303    0.117477918378    -0.054304057445
            0.104871400745    -0.059816586599    0.000101843772    -0.000148159303    0.104293874377    -0.048917481610    0.000147506098    -0.000162263695
            0.000120084350    -0.000133036531    0.117477918378    -0.054304057445    0.000147506098    -0.000162263695    0.120741944556    -0.042175765790
0.800     0.093977194573    -0.044195712707    0.000089269273    -0.000124266096    0.094054797596    -0.058941534899    0.000119307762    -0.000140818156
            0.000089269273    -0.000124266096    0.109291106347    -0.042811214854    0.000096517388    -0.000149173317    0.107859414184    -0.057298319069
