# GHz S RI R 45
0.000     0.022699670502    0.001555667087    0.000000573358    0.000001125163    0.000878856186    0.001475265252    0.000000647312    0.000001244314
            0.000000573358    0.000001125164    0.022096275231    0.001695452368    0.000000906864    0.000001244403    0.000794803082    0.001647769259
            0.000878856494    0.001475265301    0.000000906815    0.000001244404    0.022677903040    0.001546514822    0.000000731884    0.000001393063
            0.000000647312    0.000001244314    0.000794803298    0.001647769266    0.000000731901    0.000001393062    0.022035100376    0.001707287067
0.025     0.027305066861    0.009701308388    0.000001037521    0.000002497205    0.002358313507    0.010389326463    0.000001160610    0.000002763632
            0.000001037517    0.000002497207    0.026264041751    0.009462163326    0.000001159451    0.000002774159    0.002128916918    0.010197631374
            0.002358330554    0.010388547359    0.000001159445    0.000002774161    0.027210695045    0.009608419382    0.000001307910    0.000003098541
            0.000001160601    0.000002763630    0.002129171488    0.010197057227    0.000001307921    0.000003098543    0.026186716445    0.009426417515
0.050     0.032548540926    0.014575558403    0.000001909535    0.000004480321    0.006674092804    0.019652348575    0.000002121601    0.000004958935
            0.000001909535    0.000004480321    0.030983774854    0.014383998337    0.000002123015    0.000004978470    0.005980028804    0.019440681284
            0.006674117072    0.019652344558    0.000002123015    0.000004978470    0.032380133878    0.014425432162    0.000002377975    0.000005561819
            0.000002121602    0.000004958935    0.005980125437    0.019440676669    0.000002377975    0.000005561819    0.030836310453    0.014330896394
0.075     0.037953416972    0.017268687100    0.000002969052    0.000006187018    0.013067094632    0.026897628728    0.000003287601    0.000006852878
            0.000002969052    0.000006187018    0.035727978585    0.017512125949    0.000003292158    0.000006881349    0.011740237032    0.027022138316
            0.013067109831    0.026897631350    0.000003292158    0.000006881349    0.037680687347    0.017104252246    0.000003674101    0.000007694918
            0.000003287601    0.000006852878    0.011740232787    0.027022140160    0.000003674101    0.000007694918    0.035493788740    0.017487584353
0.100     0.043043970949    0.017803284435    0.000004176497    0.000007670761    0.020606810878    0.031651677396    0.000004619215    0.000008505565
            0.000004176497    0.000007670761    0.040237298138    0.018942545235    0.000004628247    0.000008542754    0.018683131975    0.032547960353
            0.020606810878    0.031651677396    0.000004628247    0.000008542754    0.042661192074    0.017681125602    0.000005159163    0.000009565915
            0.000004619215    0.000008505565    0.018683106265    0.032547968193    0.000005159163    0.000009565915    0.039913941880    0.018997436621
0.125     0.046970587226    0.016443743343    0.000005492263    0.000008959018    0.028304508505    0.033807792684    0.000006075759    0.000009945176
            0.000005492263    0.000008959018    0.043881939471    0.018892638469    0.000006090812    0.000009990588    0.026047197330    0.035893147848
            0.028304490725    0.033807746272    0.000006090812    0.000009990588    0.046497789692    0.016417974924    0.000006792294    0.000011203480
            0.000006075759    0.000009945176    0.026047197917    0.035893148658    0.000006792294    0.000011203480    0.043493862688    0.019078409179
0.150     0.049119048176    0.013852161198    0.000006888802    0.000010100511    0.035221983224    0.033624842279    0.000007628256    0.000011222636
            0.000006888802    0.000010100511    0.046293165775    0.017892452445    0.000007650808    0.000011274724    0.033081184568    0.037192909025
            0.035221983947    0.033624842969    0.000007650808    0.000011274724    0.048604534704    0.013967363661    0.000008543218    0.000012658696
            0.000007628256    0.000011222636    0.033081184568    0.037192909025    0.000008543218    0.000012658696    0.045881554322    0.018247127761
0.175     0.049037040281    0.010870742777    0.000008370024    0.000011139172    0.040593732691    0.031680063486    0.000009280802    0.000012382984
            0.000008370024    0.000011139172    0.047141266122    0.016551605126    0.000009311701    0.000012439790    0.039164114906    0.036836028954
            0.040593732691    0.031680063486    0.000009311701    0.000012439790    0.048545469879    0.011146092717    0.000010415483    0.000013976758
            0.000009280802    0.000012382984    0.039164114906    0.036836028954    0.000010415483    0.000013976758    0.046767289547    0.017095187551
0.200     0.046653423283    0.008513871012    0.000009966267    0.000012113535    0.043928116109    0.028797022676    0.000011065100    0.000013465840
            0.000009966267    0.000012113535    0.046382638574    0.015600361796    0.000011104391    0.000013525089    0.043864568654    0.035397790752
            0.043928115606    0.028797023442    0.000011104391    0.000013525089    0.046255586723    0.008939612584    0.000012441239    0.000015197480
            0.000011065100    0.000013465840    0.043864568654    0.035397790752    0.000012441239    0.000015197480    0.046115348736    0.016327411132
0.225     0.042307648587    0.007777789907    0.000011730408    0.000013034273    0.045080138373    0.025926004732    0.000013036555    0.000014480818
            0.000011730408    0.000013034273    0.044268862120    0.015742926904    0.000013083383    0.000014540413    0.046991082642    0.033557806619
            0.045080138373    0.025926004732    0.000013083383    0.000014540413    0.042067866975    0.008313612480    0.000014677223    0.000016328607
            0.000013036555    0.000014480818    0.046991082642    0.033557806619    0.000014677223    0.000016328607    0.044174151457    0.016620507503
0.250     0.036719379284    0.009510500249    0.000013727522    0.000013884131    0.044285608631    0.024019148496    0.000015262946    0.000015407965
            0.000013727522    0.000013884131    0.041314645700    0.017576228543    0.000015315412    0.000015466240    0.048622561368    0.032021898776
            0.044285608631    0.024019148496    0.000015315412    0.000015466240    0.036683927127    0.010089764995    0.000017192256    0.000017347240
            0.000015262946    0.000015407965    0.048622561368    0.032021898776    0.000017192256    0.000017347240    0.041444150019    0.018546372690
0.275     0.030924464857    0.014251122014    0.000016020335    0.000014603411    0.042143289928    0.023878289075    0.000017809093    0.000016182191
            0.000016020335    0.000014603411    0.038250466811    0.021476585580    0.000017864629    0.000016238759    0.049101473816    0.031411673670
            0.042143289928    0.023878289075    0.000017864629    0.000016238759    0.031110732038    0.014789262817    0.000020051504    0.000018183415
            0.000017809093    0.000016182191    0.049101473816    0.031411673670    0.000020051504    0.000018183415    0.038632670836    0.022462413209
0.300     0.026150980850    0.022134668622    0.000018653556    0.000015096378    0.039546125673    0.026027059448    0.000020719732    0.000016700743
            0.000018653556    0.000015096378    0.035937507777    0.027543433395    0.000020775491    0.000016756656    0.048995281439    0.032178565904
            0.039546125673    0.026027059448    0.000020775491    0.000016756656    0.026541544391    0.022541135369    0.000023298595    0.000018728430
            0.000020719732    0.000016700743    0.048995281439    0.032178565904    0.000023298595    0.000018728430    0.036570914325    0.028459002055
0.325     0.023657996835    0.032808641441    0.000021631234    0.000015230818    0.037554120946    0.030598284358    0.000023996047    0.000016822976
            0.000021631234    0.000015230818    0.035259579706    0.035539717429    0.000024049911    0.000016880882    0.049014066899    0.034517142227
            0.037554120946    0.030598284358    0.000024049911    0.000016880882    0.024198974082    0.033001638293    0.000026931144    0.000018834649
            0.000023996047    0.000016822976    0.049014066899    0.034517142227    0.000026931144    0.000018834649    0.036110291535    0.036302175143
0.350     0.024545055913    0.045448937324    0.000024902681    0.000014861112    0.037234057073    0.037292522485    0.000027580989    0.000016395675
            0.000024902681    0.000014861112    0.036998945039    0.044907359903    0.000027632344    0.000016459551    0.049911271177    0.038332000830
            0.037234057073    0.037292522485    0.000027632344    0.000016459551    0.025151176759    0.045369714612    0.000030886370    0.000018342761
            0.000027580989    0.000016395675    0.049911271177    0.038332000830    0.000030886370    0.000018342761    0.038002959453    0.045448656731
0.375     0.029568261153    0.058824332614    0.000028347689    0.000013849624    0.039477127222    0.045391671818    0.000031344626    0.000015275083
            0.000028347689    0.000013849624    0.041713820434    0.054800398459    0.000031394957    0.000015349083    0.052359131508    0.043228526636
            0.039477127222    0.045391671818    0.000031394957    0.000015349083    0.030133406641    0.058449257354    0.000035025807    0.000017103669
            0.000031344626    0.000015275083    0.052359131508    0.043228526636    0.000035025807    0.000017103669    0.042783484290    0.055078970558
0.400     0.038998173522    0.071463042828    0.000031785577    0.000012104468    0.044848251386    0.053866143006    0.000035094772    0.000013366821
            0.000031785577    0.000012104468    0.049641487092    0.064193456551    0.000035147436    0.000013454734    0.056847059729    0.048572525707
            0.044848251386    0.053866143006    0.000035147436    0.000013454734    0.039410052049    0.070809712980    0.000039146917    0.000015020606
            0.000035094772    0.000013366821    0.056847059729    0.048572525707    0.000039146917    0.000015020606    0.050677267258    0.064201976044
0.425     0.052548255224    0.081845843419    0.000034990934    0.000009604775    0.053479835782    0.061521231588    0.000038593290    0.000010651185
            0.000034990934    0.000009604775    0.060640048090    0.072000526773    0.000038653718    0.000010755337    0.063592045101    0.053568894003
            0.053479839897    0.061521231985    0.000038653718    0.000010755337    0.052705139288    0.080973644202    0.000043000357    0.000012074180
            0.000038593290    0.000010651185    0.063592045101    0.053568894003    0.000043000357    0.000012074180    0.061543996706    0.071768871454
0.450     0.069401040173    0.088631223442    0.000037735741    0.000006421813    0.065054238361    0.067187440268    0.000041600574    0.000007205029
            0.000037735741    0.000006421813    0.074194900117    0.077227920300    0.000041674899    0.000007325288    0.072509686662    0.057385782071
            0.065054238361    0.067187440268    0.000041674899    0.000007325288    0.069226963794    0.087635116447    0.000046335660    0.000008345055
            0.000041600574    0.000007205029    0.072509686662    0.057385782071    0.000046335660    0.000008345055    0.074883344744    0.076820552303
0.475     0.088309364036    0.090832331856    0.000039823834    0.000002713276    0.078847855441    0.069878536703    0.000043911006    0.000003194645
            0.000039823834    0.000002713276    0.089466507145    0.079096414606    0.000044005427    0.000003328794    0.083214946737    0.059260125929
            0.078847855441    0.069878536703    0.000044005427    0.000003328794    0.087765126065    0.089830649017    0.000048937696    0.000004006255
            0.000043911006    0.000003194645    0.083214946737    0.059260125929    0.000048937696    0.000004006255    0.089882652858    0.078606004474
0.500     0.107767655894    0.087945579164    0.000041134277    -0.000001296744    0.093848222419    0.068924483840    0.000045397452    -0.000001144939
            0.000041134277    -0.000001296744    0.105399599082    0.077147696011    0.000045517336    -0.000001001283    0.095085324200    0.058605545764
            0.093848222419    0.068924483840    0.000045517336    -0.000001001283    0.106857815467    0.087065312576    0.000050672287    -0.000000697977
            0.000045397452    -0.000001144939    0.095085324200    0.058605545764    0.000050672287    -0.000000697977    0.105522223483    0.076682865146
0.525     0.126194151996    0.079988704563    0.000041633892    -0.000005355337    0.108880376919    0.064028635258    0.000046024239    -0.000005548942
            0.000041633892    -0.000005355337    0.120839807003    0.071286942966    0.000046173208    -0.000005401835    0.107329453709    0.055069577714
            0.108880376919    0.064028635258    0.000046173208    -0.000005401835    0.124966741652    0.079350596011    0.000051499962    -0.000005492576
            0.000046024239    -0.000005548942    0.107329453709    0.055069577714    0.000051499962    -0.000005492576    0.120686594220    0.070960343718
0.550     0.142115341713    0.067481453300    0.000041387590    -0.000009220302    0.122751187726    0.055286592871    0.000045857047    -0.000009763426
            0.000041387590    -0.000009220302    0.134671502700    0.061790090406    0.000046037240    -0.000009619982    0.119090551423    0.048573366862
            0.122751187726    0.055286592871    0.000046037240    -0.000009619982    0.140657041095    0.067184194740    0.000051485589    -0.000010113078
            0.000045857047    -0.000009763426    0.119090551423    0.048573366862    0.000051485589    -0.000010113078    0.134298225834    0.061703979432
0.575     0.154301129428    0.051361971166    0.000040534455    -0.000012694013    0.134354987112    0.043149034362    0.000045039594    -0.000013580053
            0.000040534455    -0.000012694013    0.145920066651    0.049259240479    0.000045250928    -0.000013448029    0.129521264920    0.039303371960
            0.134354987112    0.043149034362    0.000045250928    -0.000013448029    0.152728558028    0.051472372331    0.000050774873    -0.000014341467
            0.000045039594    -0.000013580053    0.129521264920    0.039303371960    0.000050774873    -0.000014341467    0.145416007957    0.049494139870
0.600     0.161873797609    0.032883720647    0.000039271159    -0.000015647423    0.142775046536    0.028376364798    0.000043775552    -0.000016861215
            0.000039271159    -0.000015647423    0.153849976670    0.034555303738    0.000044015643    -0.000016748351    0.137873920281    0.027694047000
            0.142775046536    0.028376364798    0.000044015643    -0.000016748351    0.160320870760    0.033427909755    0.000049576232    -0.000018031800
            0.000043775552    -0.000016861215    0.137873920281    0.027694047000    0.000049576232    -0.000018031800    0.153328690834    0.035160145606
0.625     0.164360833031    0.013496683032    0.000037813977    -0.000018027587    0.147341758913    0.011967296406    0.000042290054    -0.000019548249
            0.000037813977    -0.000018027587    0.158012710423    0.018710906360    0.000042554330    -0.000019462082    0.143548943398    0.014381074054
            0.147341758913    0.011967296406    0.000042554330    -0.000019462082    0.162966659132    0.014455157611    0.000048121067    -0.000021119813
            0.000042290054    -0.000019548249    0.143548943423    0.014381073803    0.000048121067    -0.000021119813    0.157601063071    0.019695545054
0.650     0.161734108982    -0.005271352342    0.000036379083    -0.000019859433    0.147698991102    -0.004905458035    0.000040810370    -0.000021663217
            0.000036379083    -0.000019859433    0.158285500589    0.002839077208    0.000041091608    -0.000021609924    0.146159065035    0.000157596820
            0.147698991093    -0.004905458292    0.000041091608    -0.000021609924    0.160627282236    -0.003962091206    0.000046644342    -0.000023623824
            0.000040810370    -0.000021663217    0.146159065035    0.000157596746    0.000046644342    -0.000023623824    0.158111900387    0.004172652422
0.675     0.154407104119    -0.021929171586    0.000035152931    -0.000021231576    0.143836413443    -0.020979489743    0.000039534011    -0.000023296005
            0.000035152931    -0.000021231576    0.154869563678    -0.011957528025    0.000039822726    -0.000023280054    0.145551349655    -0.014089524419
            0.143836413443    -0.020979489743    0.000039822726    -0.000023280054    0.153693108598    -0.020374110722    0.000045351146    -0.000025633385
            0.000039534011    -0.000023296005    0.145551349655    -0.014089524419    0.000045351146    -0.000025633385    0.155050350857    -0.010347129944
0.700     0.143232395980    -0.035139828472    0.000034284012    -0.000022287425    0.136138155569    -0.034993541150    0.000038620287    -0.000024595315
            0.000034284012    -0.000022287425    0.148286101900    -0.024675853345    0.000038904642    -0.000024617683    0.141849838704    -0.027444447257
            0.136138155569    -0.034993541150    0.000038904642    -0.000024617683    0.142979225543    -0.033477304192    0.000044408358    -0.000027299111
            0.000038620287    -0.000024595315    0.141849838704    -0.027444447257    0.000044408358    -0.000027299111    0.148913334267    -0.022897402258
0.725     0.129458040098    -0.043842147873    0.000033866289    -0.000023205233    0.125384628875    -0.045807805405    0.000038171423    -0.000025749395
            0.000033866289    -0.000023205233    0.139336136368    -0.034497326427    0.000038438588    -0.000025806635    0.135450560823    -0.039043287423
            0.125384628875    -0.045807805405    0.000038438588    -0.000025806635    0.129685462017    -0.042232454952    0.000043923905    -0.000028814083
            0.000038171423    -0.000025749395    0.135450560823    -0.039043287423    0.000043923905    -0.000028814083    0.140465247742    -0.032688646445
0.750     0.114665972028    -0.047380989547    0.000033939833    -0.000024189546    0.112747754389    -0.052539277144    0.000038232064    -0.000026976084
            0.000033939833    -0.000024189546    0.129054811086    -0.040870447855    0.000038469958    -0.000027059369    0.127027816463    -0.048160553504
            0.112747754389    -0.052539277144    0.000038469958    -0.000027059369    0.115338276097    -0.045988133173    0.000043946695    -0.000030403516
            0.000038232064    -0.000026976084    0.127027816463    -0.048160553504    0.000043946695    -0.000030403516    0.130696638653    -0.039185331758
0.775     0.100648792496    -0.045628744164    0.000034480773    -0.000025453955    0.099703024512    -0.054715518446    0.000038776521    -0.000028504738
            0.000034480773    -0.000025453955    0.118627694299    -0.043581408409    0.000038976369    -0.000028599591    0.117477918378    -0.054304057445
            0.099703024512    -0.054715518446    0.000038976369    -0.000028599591    0.101672126287    -0.044602147553    0.000044451359    -0.000032305413
            0.000038776521    -0.000028504738    0.117477918378    -0.054304057445    0.000044451359    -0.000032305413    0.120741944556    -0.042175765790
0.800     0.089237551710    -0.039083447474    0.000035400939    -0.000027214080    0.087898629059    -0.052404387097    0.000039708234    -0.000030566543
            0.000035400939    -0.000027214080    0.109291106347    -0.042811214854    0.000039867482    -0.000030654216    0.107859414184    -0.057298319069
