# GHz S RI R 45
0.000     0.021729647194    0.001548289051    -0.000003875234    -0.000008771881    0.000765089097    0.001375013943    -0.000002592987    -0.000006279215
            -0.000003875239    -0.000008771852    0.022096275231    0.001695452368    -0.000025578937    -0.000011654001    0.000794803082    0.001647769259
            0.000765089578    0.001375013904    -0.000025578938    -0.000011654002    0.021606150472    0.001538698883    -0.000003930502    -0.000008855466
            -0.000002592973    -0.000006279215    0.000794803298    0.001647769266    -0.000003930524    -0.000008855465    0.022035100376    0.001707287067
0.025     0.026856142628    0.008613871300    -0.000010352691    -0.000019621247    0.002773240972    0.009073746019    -0.000006625150    -0.000013600074
            -0.000010352594    -0.000019621038    0.026264041751    0.009462163326    -0.000035378599    -0.000023640385    0.002128916918    0.010197631374
            0.002774708675    0.009073510217    -0.000035378776    -0.000023640191    0.026782017233    0.008581221866    -0.000010070355    -0.000019984113
            -0.000006625154    -0.000013600082    0.002129171488    0.010197057227    -0.000010070351    -0.000019984129    0.026186716445    0.009426417515
0.050     0.034168141765    0.011850523103    -0.000024519273    -0.000032286693    0.008500019294    0.016496897454    -0.000015352606    -0.000022918070
            -0.000024519277    -0.000032286698    0.030983774854    0.014383998337    -0.000058227560    -0.000042775634    0.005980028804    0.019440681284
            0.008500007685    0.016496918059    -0.000058227561    -0.000042775635    0.034069764498    0.011828181222    -0.000023439549    -0.000033741927
            -0.000015352599    -0.000022918076    0.005980125437    0.019440676669    -0.000023439550    -0.000033741928    0.030836310453    0.014330896394
0.075     0.042719601104    0.011577875173    -0.000042314878    -0.000037816196    0.016925456243    0.020918470750    -0.000026679665    -0.000028612050
            -0.000042314888    -0.000037816192    0.035727978585    0.017512125949    -0.000086632017    -0.000047219815    0.011740237032    0.027022138316
            0.016925449508    0.020918473626    -0.000086632018    -0.000047219816    0.042600784557    0.011578094469    -0.000040763809    -0.000041524980
            -0.000026679667    -0.000028612052    0.011740232787    0.027022140160    -0.000040763809    -0.000041524980    0.035493788740    0.017487584353
0.100     0.051460923710    0.007299136052    -0.000061057361    -0.000036115653    0.026708404118    0.021533615178    -0.000039720857    -0.000030473511
            -0.000061057353    -0.000036115662    0.040237298138    0.018942545235    -0.000114255803    -0.000038779549    0.018683131975    0.032547960353
            0.026708404118    0.021533615178    -0.000114255803    -0.000038779549    0.051335645079    0.007340501695    -0.000060289887    -0.000043042139
            -0.000039720856    -0.000030473510    0.018683106265    0.032547968193    -0.000060289887    -0.000043042139    0.039913941880    0.018997436621
0.125     0.058811321390    -0.000994719344    -0.000078161035    -0.000027890471    0.036335186183    0.018033578288    -0.000053448645    -0.000028318594
            -0.000078161039    -0.000027890473    0.043881939471    0.018892638469    -0.000136692431    -0.000020492825    0.026047197330    0.035893147848
            0.036335184440    0.018033575052    -0.000136692431    -0.000020492825    0.058703565172    -0.000897986145    -0.000080143255    -0.000038251632
            -0.000053448647    -0.000028318595    0.026047197917    0.035893148658    -0.000080143255    -0.000038251632    0.043493862688    0.019078409179
0.150     0.063313746841    -0.012816237708    -0.000091779193    -0.000014786354    0.044281204289    0.010647891650    -0.000066929780    -0.000022278938
            -0.000091779193    -0.000014786354    0.046293165775    0.017892452445    -0.000151734522    0.000003746602    0.033081184568    0.037192909025
            0.044281204289    0.010647891650    -0.000151734522    0.000003746602    0.063257591183    -0.012660023892    -0.000098735878    -0.000027688595
            -0.000066929777    -0.000022278937    0.033081184568    0.037192909025    -0.000098735878    -0.000027688595    0.045881554322    0.018247127761
0.175     0.063613561422    -0.027056955344    -0.000101045272    0.000001218600    0.049166532136    0.000116010002    -0.000079379894    -0.000012556095
            -0.000101045272    0.000001218600    0.047141266122    0.016551605126    -0.000159086622    0.000030302076    0.039164114906    0.036836028954
            0.049166532135    0.000116010019    -0.000159086622    0.000030302076    0.063647301528    -0.026851877687    -0.000114844031    -0.000012100466
            -0.000079379896    -0.000012556095    0.039164114906    0.036836028954    -0.000114844031    -0.000012100466    0.046767289547    0.017095187551
0.200     0.058837915358    -0.042172171212    -0.000106116557    0.000018231490    0.049924828718    -0.012379842530    -0.000090143763    0.000000578622
            -0.000106116557    0.000018231490    0.046382638574    0.015600361796    -0.000159942967    0.000056272666    0.043864568654    0.035397790752
            0.049924828718    -0.012379842530    -0.000159942967    0.000056272666    0.058998409654    -0.041945406057    -0.000127639273    0.000007642527
            -0.000090143759    0.000000578622    0.043864568654    0.035397790752    -0.000127639273    0.000007642527    0.046115348736    0.016327411132
0.225     0.048662193851    -0.056365293635    -0.000107910321    0.000034955651    0.045925991422    -0.025331584323    -0.000098595565    0.000016880861
            -0.000107910321    0.000034955651    0.044268862120    0.015742926904    -0.000156387493    0.000080023046    0.046991082642    0.033557806619
            0.045925991422    -0.025331584323    -0.000156387493    0.000080023046    0.048977681958    -0.056160967875    -0.000136554185    0.000030757887
            -0.000098595565    0.000016880861    0.046991082642    0.033557806619    -0.000136554185    0.000030757887    0.044174151457    0.016620507503
0.250     0.033394223819    -0.067768240960    -0.000107714952    0.000050934106    0.037075451698    -0.037061751479    -0.000104083078    0.000036083850
            -0.000107714952    0.000050934106    0.041314645700    0.017576228543    -0.000150760872    0.000101334413    0.048622561368    0.032021898776
            0.037075451698    -0.037061751479    -0.000150760872    0.000101334413    0.033877692522    -0.067644191261    -0.000141173458    0.000056586117
            -0.000104083078    0.000036083850    0.048622561368    0.032021898776    -0.000141173458    0.000056586117    0.041444150019    0.018546372690
0.275     0.013965183243    -0.074645951659    -0.000106636573    0.000066637032    0.023851915639    -0.045899217101    -0.000105831028    0.000057838061
            -0.000106636573    0.000066637032    0.038250466811    0.021476585580    -0.000144873144    0.000121365317    0.049101473816    0.031411673670
            0.023851915639    -0.045899217101    -0.000144873144    0.000121365317    0.014608507564    -0.074667908540    -0.000141029611    0.000084582901
            -0.000105831037    0.000057838066    0.049101473816    0.031411673670    -0.000141029611    0.000084582901    0.038632670836    0.022462413209
0.300     -0.008113492902    -0.075613412606    -0.000105156548    0.000083198384    0.007294016122    -0.050379925759    -0.000102973979    0.000081580914
            -0.000105156548    0.000083198384    0.035937507777    0.027543433395    -0.000139421523    0.000142174972    0.048995281439    0.032178565904
            0.007294016122    -0.050379925759    -0.000139421523    0.000142174972    -0.007343690282    -0.075847107883    -0.000135537638    0.000114177890
            -0.000102973979    0.000081580914    0.048995281439    0.032178565904    -0.000135537638    0.000114177890    0.036570914325    0.028459002055
0.325     -0.030889461096    -0.069814528771    -0.000102769219    0.000101982347    -0.011084531395    -0.049425371757    -0.000094601555    0.000106399967
            -0.000102769219    0.000101982347    0.035259579706    0.035539717429    -0.000133570149    0.000166035524    0.049014066899    0.034517142227
            -0.011084531395    -0.049425371757    -0.000133570149    0.000166035524    -0.030051260351    -0.070316049521    -0.000123931781    0.000144601147
            -0.000094601555    0.000106399967    0.049014066899    0.034517142227    -0.000123931781    0.000144601147    0.036110291535    0.036302175143
0.350     -0.052158729449    -0.057075328353    -0.000097991936    0.000123989058    -0.029443834381    -0.042505065197    -0.000079963834    0.000130961850
            -0.000097991936    0.000123989058    0.036998945039    0.044907359903    -0.000125019308    0.000194581944    0.049911271177    0.038332000830
            -0.029443834381    -0.042505065197    -0.000125019308    0.000194581944    -0.051331929119    -0.057881460592    -0.000105443334    0.000174686203
            -0.000079963834    0.000130961850    0.049911271177    0.038332000830    -0.000105443334    0.000174686203    0.038002959453    0.045448656731
0.375     -0.069707999159    -0.037960734491    -0.000088609511    0.000149304749    -0.045815780294    -0.029724906507    -0.000058664221    0.000153502034
            -0.000088609511    0.000149304749    0.041713820434    0.054800398459    -0.000110437031    0.000228041816    0.052359131508    0.043228526636
            -0.045815780294    -0.029724906507    -0.000110437031    0.000228041816    -0.068987501040    -0.039081254707    -0.000079480565    0.000202774349
            -0.000058664221    0.000153502034    0.052359131508    0.043228526636    -0.000079480565    0.000202774349    0.042783484290    0.055078970558
0.400     -0.081578462770    -0.013761470410    -0.000072260390    0.000176776774    -0.058340173369    -0.011851289896    -0.000030938900    0.000171985966
            -0.000072260390    0.000176776774    0.049641487092    0.064193456551    -0.000086290030    0.000264820358    0.056847059729    0.048572525707
            -0.058340173369    -0.011851289896    -0.000086290030    0.000264820358    -0.081063305935    -0.015173484832    -0.000045978930    0.000226779427
            -0.000030938900    0.000171985966    0.056847059729    0.048572525707    -0.000045978930    0.000226779427    0.050677267258    0.064201976044
0.425     -0.086298960462    0.013631127802    -0.000047083630    0.000203989526    -0.065479972504    0.009763218727    0.000002228968    0.000184367607
            -0.000047083630    0.000203989526    0.060640048090    0.072000526773    -0.000049792985    0.000301476256    0.063592045101    0.053568894003
            -0.065479972504    0.009763218727    -0.000049792985    0.000301476256    -0.086081770603    0.011984221248    -0.000005622394    0.000244398587
            0.000002228968    0.000184367607    0.063592045101    0.053568894003    -0.000005622394    0.000244398587    0.061543996706    0.071768871454
0.450     -0.083075099783    0.041921984826    -0.000012326172    0.000227636262    -0.066213581362    0.033325350127    0.000039083304    0.000188965539
            -0.000012326172    0.000227636262    0.074194900117    0.077227920300    0.000000254762    0.000333267113    0.072509686662    0.057385782071
            -0.066213581362    0.033325350127    0.000000254762    0.000333267113    -0.083229103044    0.040127389530    0.000040038727    0.000253513450
            0.000039083304    0.000188965539    0.072509686662    0.057385782071    0.000040038722    0.000253513451    0.074883344744    0.076820552303
0.475     -0.071876733432    0.068663477272    0.000031311756    0.000244082293    -0.060136836722    0.056802151038    0.000077296388    0.000184760064
            0.000031311756    0.000244082293    0.089466507145    0.079096414606    0.000062946753    0.000354947416    0.083214946737    0.059260125929
            -0.060136836722    0.056802151038    0.000062946753    0.000354947416    -0.072446983170    0.066832161529    0.000088689632    0.000252541296
            0.000077296388    0.000184760064    0.083214946737    0.059260125929    0.000088689632    0.000252541296    0.089882652858    0.078606004474
0.500     -0.053442380455    0.091520309209    0.000081658303    0.000250084223    -0.047503341353    0.078145800044    0.000114293658    0.000171628747
            0.000081658303    0.000250084223    0.105399599082    0.077147696011    0.000135258353    0.000361796987    0.095085324200    0.058605545764
            -0.047503341353    0.078145800044    0.000135258353    0.000361796987    -0.054437635161    0.089776429237    0.000137534148    0.000240783899
            0.000114293658    0.000171628747    0.095085324200    0.058605545764    0.000137534148    0.000240783899    0.105522223483    0.076682865146
0.525     -0.029182145507    0.108500789997    0.000135360373    0.000243353457    -0.029167938346    0.095491526415    0.000147642115    0.000150338094
            0.000135360373    0.000243353457    0.120839807003    0.071286942966    0.000212426453    0.000350431364    0.107329453709    0.055069577714
            -0.029167938346    0.095491526415    0.000212426453    0.000350431364    -0.030572695160    0.106969841520    0.000183720729    0.000218489724
            0.000147642122    0.000150338101    0.107329453709    0.055069577714    0.000183720729    0.000218489724    0.120686594220    0.070960343718
0.550     -0.001022670708    0.118141083785    0.000188419617    0.000222960284    -0.006486498436    0.107331936108    0.000175415349    0.000122400378
            0.000188419617    0.000222960284    0.134671502700    0.061790090406    0.000288701237    0.000319414027    0.119090551423    0.048573366862
            -0.006486498436    0.107331936108    0.000288701237    0.000319414027    -0.002740222458    0.116937768359    0.000224709163    0.000186828190
            0.000175415349    0.000122400378    0.119090551423    0.048573366862    0.000224709163    0.000186828190    0.134298225834    0.061703979432
0.575     0.028788572172    0.119609614061    0.000236743004    0.000189421529    0.018829002979    0.112617913884    0.000196382749    0.000089765066
            0.000236743004    0.000189421529    0.145920066651    0.049259240479    0.000358155925    0.000269404711    0.129521264920    0.039303371960
            0.018829002979    0.112617913884    0.000358155925    0.000269404711    0.026845308062    0.118826744107    0.000258582938    0.000147577179
            0.000196382749    0.000089765066    0.129521264920    0.039303371960    0.000258582938    0.000147577179    0.145416007957    0.049494139870
0.600     0.057886865818    0.112753514769    0.000276721792    0.000144589474    0.044861245208    0.110828436123    0.000210101957    0.000054496687
            0.000276721792    0.000144589474    0.153849976670    0.034555303738    0.000415518751    0.000203039381    0.137873920281    0.027694047000
            0.044861245208    0.110828436123    0.000415518751    0.000203039381    0.055845454896    0.112452251758    0.000284170410    0.000102859490
            0.000210101957    0.000054496687    0.137873920281    0.027694047000    0.000284170410    0.000102859490    0.153328690834    0.035160145606
0.625     0.083976521255    0.098077087850    0.000305607319    0.000091345038    0.069631974418    0.101976418809    0.000216799851    0.000018458180
            0.000305607319    0.000091345038    0.158012710423    0.018710906360    0.000456780511    0.000124453088    0.143548943398    0.014381074054
            0.069631974418    0.101976418809    0.000456780511    0.000124453088    0.081981579993    0.098280818750    0.000301013277    0.000054792541
            0.000216799851    0.000018458179    0.143548943423    0.014381073803    0.000301013277    0.000054792541    0.157601063071    0.019695545054
0.650     0.105000706100    0.076685753730    0.000321819111    0.000033186125    0.091240548947    0.086602886884    0.000217211468    -0.000016884352
            0.000321819111    0.000033186126    0.158285500589    0.002839077208    0.000479618891    0.000038714153    0.146159065035    0.000157596820
            0.091240548947    0.086602886884    0.000479618891    0.000038714153    0.103201499744    0.077375447615    0.000309263552    0.000005269977
            0.000217211468    -0.000016884354    0.146159065035    0.000157596746    0.000309263552    0.000005269977    0.158111900387    0.004172652422
0.675     0.119272808074    0.050194349291    0.000325000726    -0.000026204911    0.107976696579    0.065732247862    0.000212317173    -0.000050572650
            0.000325000736    -0.000026204912    0.154869563678    -0.011957528025    0.000483509262    -0.000048887413    0.145551349655    -0.014089524419
            0.107976696579    0.065732247862    0.000483509262    -0.000048887413    0.117812346844    0.051308078516    0.000309453926    -0.000044194545
            0.000212317173    -0.000050572650    0.145551349655    -0.014089524419    0.000309453926    -0.000044194545    0.155050350857    -0.010347129944
0.700     0.125593069544    0.020617652515    0.000316006073    -0.000083439057    0.118442710385    0.040821964969    0.000203139453    -0.000082175540
            0.000316006073    -0.000083439057    0.148286101900    -0.024675853345    0.000469658506    -0.000133477579    0.141849838704    -0.027444447257
            0.118442710385    0.040821964969    0.000469658506    -0.000133477579    0.124595499995    0.022052573478    0.000302331536    -0.000092516764
            0.000203139451    -0.000082175543    0.141849838704    -0.027444447257    0.000302331536    -0.000092516764    0.148913334267    -0.022897402258
0.725     0.123331667944    -0.009756324812    0.000296653799    -0.000135785829    0.121645133415    0.013685626119    0.000190511030    -0.000111680113
            0.000296653799    -0.000135785829    0.139336136368    -0.034497326427    0.000440629453    -0.000211162658    0.135450560823    -0.039043287423
            0.121645133415    0.013685626119    0.000440629453    -0.000211162658    0.122890832810    -0.008139167869    0.000288626682    -0.000139025615
            0.000190511030    -0.000111680113    0.135450560823    -0.039043287423    0.000288626682    -0.000139025615    0.140465247742    -0.032688646445
0.750     0.112497174243    -0.038515744559    0.000269412531    -0.000181508691    0.117104649288    -0.013609746371    0.000174947221    -0.000139381478
            0.000269412534    -0.000181508686    0.129054811086    -0.040870447855    0.000399856210    -0.000279473981    0.127027816463    -0.048160553504
            0.117104649288    -0.013609746371    0.000399856210    -0.000279473981    0.112665848036    -0.036881641646    0.000268934886    -0.000183370285
            0.000174947221    -0.000139381478    0.127027816463    -0.048160553504    0.000268934886    -0.000183370285    0.130696638653    -0.039185331758
0.775     0.093768845286    -0.063289392032    0.000236921323    -0.000219993115    0.104923940422    -0.038873124787    0.000156534200    -0.000165669257
            0.000236921323    -0.000219993115    0.118627694299    -0.043581408409    0.000350944925    -0.000337494101    0.117477918378    -0.054304057445
            0.104923940422    -0.038873124787    0.000350944925    -0.000337494101    0.094550897903    -0.061818969094    0.000243546241    -0.000225391456
            0.000156534200    -0.000165669257    0.117477918378    -0.054304057445    0.000243546241    -0.000225391456    0.120741944556    -0.042175765790
