# GHz S RI R 45
0.000     0.021901822784    0.001888993179    0.977782491007    -0.008220921563    0.000796496350    0.001618941818    -0.000783745642    -0.000573857755
            0.977782491007    -0.008220921563    0.022096275231    0.001695452368    -0.000783554139    -0.000573778250    0.000794803082    0.001647769259
            0.000796496535    0.001618941838    -0.000783554255    -0.000573778125    0.021867181168    0.001899644725    0.977832136675    -0.008222834774
            -0.000783745782    -0.000573857648    0.000794803298    0.001647769266    0.977832136675    -0.008222834774    0.022035100376    0.001707287067
0.025     0.027524647444    0.009484072223    0.959953559654    -0.168513720998    0.003036882688    0.009860719204    -0.001258017247    -0.001951539241
            0.959953544511    -0.168513749427    0.026264041751    0.009462163326    -0.001255383833    -0.001951071286    0.002128916918    0.010197631374
            0.003036093537    0.009860768640    -0.001255507799    -0.001951495229    0.027459588631    0.009440258331    0.960091406192    -0.168223265202
            -0.001257853762    -0.001951129338    0.002129171488    0.010197057227    0.960091389456    -0.168223360716    0.026186716445    0.009426417515
0.050     0.035518355768    0.013110439619    0.914925717328    -0.327660628454    0.009328187160    0.017813792040    -0.002591139505    -0.003465874305
            0.914925717328    -0.327660628454    0.030983774854    0.014383998337    -0.002591094548    -0.003464103080    0.005980028804    0.019440681284
            0.009328175212    0.017813788137    -0.002591058237    -0.003464111259    0.035459469933    0.013022353049    0.915212578057    -0.327045014644
            -0.002591054916    -0.003465868374    0.005980125437    0.019440676669    0.915212578057    -0.327045014644    0.030836310453    0.014330896394
0.075     0.044804247302    0.012826156179    0.844502212671    -0.476186489558    0.018499335913    0.022416584945    -0.004429944544    -0.004295509378
            0.844502212671    -0.476186489558    0.035727978585    0.017512125949    -0.004428643489    -0.004291411308    0.011740237032    0.027022138316
            0.018499328526    0.022416587151    -0.004428637826    -0.004291408817    0.044755854948    0.012699408260    0.845053934844    -0.475340051379
            -0.004429938131    -0.004295507660    0.011740232787    0.027022140160    0.845053934844    -0.475340051379    0.035493788740    0.017487584353
0.100     0.054184816817    0.008135396156    0.750563782111    -0.610133796772    0.029037184758    0.022806162117    -0.006467361457    -0.004413256733
            0.750563782111    -0.610133796772    0.040237298138    0.018942545235    -0.006461879692    -0.004406813937    0.018683131975    0.032547960353
            0.029037184758    0.022806162117    -0.006461876723    -0.004406816870    0.054157174936    0.007968144215    0.751458615522    -0.609137123149
            -0.006467360138    -0.004413260795    0.018683106265    0.032547968193    0.751458615522    -0.609137123149    0.039913941880    0.018997436621
0.125     0.061916608871    -0.000956465610    0.635989187387    -0.725936543185    0.039239424060    0.018687912609    -0.008469449645    -0.003885549603
            0.635989187387    -0.725936543185    0.043881939471    0.018892638469    -0.008456378317    -0.003878934707    0.026047197330    0.035893147848
            0.039239424962    0.018687913039    -0.008456378640    -0.003878936642    0.061919492814    -0.001171074179    0.637284109354    -0.724888345224
            -0.008469449373    -0.003885549478    0.026047197917    0.035893148658    0.637284109354    -0.724888345224    0.043493862688    0.019078409179
0.150     0.066333661095    -0.013749046353    0.504137721526    -0.820550229302    0.047412785336    0.010382304388    -0.010298539011    -0.002841647209
            0.504137721526    -0.820550229302    0.046293165775    0.017892452445    -0.010275610165    -0.002839350713    0.033081184568    0.037192909025
            0.047412785336    0.010382304388    -0.010275610165    -0.002839350713    0.066383364109    -0.014024540405    0.505865323727    -0.819561369365
            -0.010298539011    -0.002841647209    0.033081184568    0.037192909025    0.505865323727    -0.819561369365    0.045881554322    0.018247127761
0.175     0.066040807998    -0.028976646070    0.358801143833    -0.891575895425    0.052047735223    -0.001217151516    -0.011904453731    -0.001400101241
            0.358801143833    -0.891575895425    0.047141266122    0.016551605126    -0.011871839816    -0.001408673641    0.039164114906    0.036836028954
            0.052047735223    -0.001217151516    -0.011871839816    -0.001408673641    0.066146031908    -0.029337146340    0.360968565490    -0.890764515769
            -0.011904453731    -0.001400101241    0.039164114906    0.036836028954    0.360968565490    -0.890764515769    0.046767289547    0.017095187551
0.200     0.060141265680    -0.044897227846    0.204042282891    -0.937222777757    0.052013014004    -0.014726971244    -0.013302486106    0.000366829797
            0.204042282891    -0.937222777757    0.046382638574    0.015600361796    -0.013264177007    0.000340160218    0.043864568654    0.035397790752
            0.052013014004    -0.014726971244    -0.013264177007    0.000340160218    0.060301759775    -0.045373142951    0.206631610778    -0.936708752687
            -0.013302486106    0.000366829797    0.043864568654    0.035397790752    0.206631610778    -0.936708752687    0.046115348736    0.016327411132
0.225     0.048363710697    -0.059488804981    0.044154010763    -0.956323514512    0.046692073251    -0.028414058804    -0.014522885612    0.002463762188
            0.044154010763    -0.956323514512    0.044268862120    0.015742926904    -0.014487066936    0.002413543874    0.046991082642    0.033557806619
            0.046692073251    -0.028414058804    -0.014487066936    0.002413543874    0.048567555527    -0.060114801941    0.047118411533    -0.956224072375
            -0.014522886043    0.002463759653    0.046991082642    0.033557806619    0.047118411533    -0.956224072375    0.044174151457    0.016620507503
0.250     0.031165256833    -0.070674783020    -0.116413604773    -0.948380111404    0.036092276124    -0.040381805925    -0.015556406694    0.004966310170
            -0.116413604773    -0.948380111404    0.041314645700    0.017576228543    -0.015534562638    0.004890956196    0.048622561368    0.032021898776
            0.036092276124    -0.040381805925    -0.015534562638    0.004890956196    0.031386547180    -0.071485434028    -0.113146959849    -0.948807922555
            -0.015556406694    0.004966310170    0.048622561368    0.032021898776    -0.113146959849    -0.948807922555    0.041444150019    0.018546372690
0.275     0.009711892925    -0.076569635857    -0.273130184986    -0.913610458919    0.020880286752    -0.048777754173    -0.016302959837    0.007983936340
            -0.273130184986    -0.913610458919    0.038250466811    0.021476585580    -0.016307617055    0.007887926202    0.049101473816    0.031411673670
            0.020880286752    -0.048777754173    -0.016307617055    0.007887926202    0.009909135370    -0.077593356028    -0.269658192408    -0.914666090012
            -0.016302959837    0.007983936340    0.049101473816    0.031411673670    -0.269658192408    -0.914666090012    0.038632670836    0.022462413209
0.300     -0.014188471732    -0.075730847360    -0.421491419598    -0.852995110496    0.002355749819    -0.052029914857    -0.016552132043    0.011596563330
            -0.421491419598    -0.852995110496    0.035937507777    0.027543433395    -0.016594045694    0.011490343402    0.048995281439    0.032178565904
            0.002355749819    -0.052029914857    -0.016594045694    0.011490343402    -0.014071150475    -0.076984401545    -0.417942116098    -0.854760055857
            -0.016552132043    0.011596563330    0.048995281439    0.032178565904    -0.417942116098    -0.854760055857    0.036570914325    0.028459002055
0.325     -0.038261214343    -0.067361635167    -0.557156632841    -0.768310504639    -0.017661682193    -0.049054818658    -0.015998624707    0.015780857570
            -0.557156632841    -0.768310504639    0.035259579706    0.035539717429    -0.016083706622    0.015679727314    0.049014066899    0.034517142227
            -0.017661682193    -0.049054818658    -0.016083706622    0.015679727314    -0.038290303014    -0.068843060848    -0.553682385251    -0.770839701006
            -0.015998624707    0.015780857570    0.049014066899    0.034517142227    -0.553682385251    -0.770839701006    0.036110291535    0.036302175143
0.350     -0.060004715191    -0.051476094017    -0.676131730721    -0.662127974570    -0.037026147685    -0.039439766212    -0.014304293871    0.020352543723
            -0.676131730721    -0.662127974570    0.036998945039    0.044907359903    -0.014430996979    0.020274751385    0.049911271177    0.038332000830
            -0.037026147685    -0.039439766212    -0.014430996979    0.020274751385    -0.060249787111    -0.053159378197    -0.672899250225    -0.665443842740
            -0.014304293871    0.020352543723    0.049911271177    0.038332000830    -0.672899250225    -0.665443842740    0.038002959453    0.045448656731
0.375     -0.076983634799    -0.028943836779    -0.774936758105    -0.537751644717    -0.053513439378    -0.023529299619    -0.011185741507    0.024944003909
            -0.774936758105    -0.537751644717    0.041713820434    0.054800398459    -0.011344394090    0.024906212611    0.052359131508    0.043228526636
            -0.053513439378    -0.023529299619    -0.011344394090    0.024906212611    -0.077508826491    -0.030777569538    -0.772125243715    -0.541838113666
            -0.011185741507    0.024944003909    0.052359131508    0.043228526636    -0.772125243715    -0.541838113666    0.042783484290    0.055078970558
0.400     -0.087141186830    -0.001443086365    -0.850795327537    -0.399108927441    -0.065109413380    -0.002424186032    -0.006512762928    0.029035432871
            -0.850795327537    -0.399108927441    0.049641487092    0.064193456551    -0.006686423798    0.029049553599    0.056847059729    0.048572525707
            -0.065109413380    -0.002424186032    -0.006686423798    0.029049553599    -0.087995256947    -0.003351721315    -0.848583884196    -0.403906342110
            -0.006512762928    0.029035432871    0.056847059729    0.048572525707    -0.848583884196    -0.403906342110    0.050677267258    0.064201976044
0.425     -0.089062764054    0.028719650095    -0.901767098318    -0.250563405028    -0.070258968006    0.022140758243    -0.000382182912    0.032032507151
            -0.901767098318    -0.250563405028    0.060640048090    0.072000526773    -0.000550085095    0.032101837320    0.063592045101    0.053568894003
            -0.070258968006    0.022140758243    -0.000550085095    0.032101837320    -0.090269959408    0.026830496640    -0.900323205057    -0.255966965138
            -0.000382182912    0.032032507151    0.063592045101    0.053568894003    -0.900323205057    -0.255966965138    0.061543996706    0.071768871454
0.450     -0.082167443475    0.058873629027    -0.926820401661    -0.096686657062    -0.068069698735    0.048003266496    0.006853499208    0.033381350352
            -0.926820401661    -0.096686657062    0.074194900117    0.077227920300    0.006712289721    0.033499878554    0.072509686662    0.057385782071
            -0.068069698735    0.048003266496    0.006712289721    0.033499878554    -0.083720401457    0.057107509366    -0.926286456742    -0.102556553518
            0.006853499208    0.033381350352    0.072509686662    0.057385782071    -0.926286456742    -0.102556553518    0.074883344744    0.076820552303
0.475     -0.066767951696    0.086293903327    -0.925820386660    0.057950003319    -0.058395002756    0.072831185018    0.014616854690    0.032683497859
            -0.925820386660    0.057950003319    0.089466507145    0.079096414606    0.014518916333    0.032836517620    0.083214946737    0.059260125929
            -0.058395002756    0.072831185018    0.014518916333    0.032836517620    -0.068625427590    0.084752906450    -0.926310407215    0.051785224067
            0.014616854690    0.032683497859    0.083214946737    0.059260125929    -0.926310407215    0.051785224067    0.089882652858    0.078606004474
0.500     -0.044024798294    0.108509855468    -0.899462975363    0.208992556870    -0.041833633210    0.094391350302    0.022191861697    0.029789890896
            -0.899462975363    0.208992556870    0.105399599082    0.077147696011    0.022145358672    0.029956764965    0.095085324200    0.058605545764
            -0.041833633210    0.094391350302    0.022145358672    0.029956764965    -0.046111995982    0.107282884728    -0.901048255794    0.202728695240
            0.022191861697    0.029789890896    0.095085324200    0.058605545764    -0.901048255794    0.202728695240    0.105522223483    0.076682865146
0.525     -0.015787823412    0.123550032176    -0.849137644839    0.352442851153    -0.019620932226    0.110764456810    0.028840036169    0.024840297912
            -0.849137644839    0.352442851153    0.120839807003    0.071286942966    0.028842869263    0.024999193945    0.107329453709    0.055069577714
            -0.019620932226    0.110764456810    0.028842869263    0.024999193945    -0.018002042324    0.122701918449    -0.851851770559    0.346283772049
            0.028840036169    0.024840297912    0.107329453709    0.055069577714    -0.851851770559    0.346283772049    0.120686594220    0.070960343718
0.550     0.015617033427    0.130115921797    -0.776784447893    0.484759773403    0.006521609513    0.120514942076    0.033927402724    0.018250743361
            -0.776784447893    0.484759773403    0.134671502700    0.061790090406    0.033968025599    0.018382895321    0.119090551423    0.048573366862
            0.006521609513    0.120514942076    0.033968025599    0.018382895321    0.013398357367    0.129679122860    -0.780618142646    0.478911935904
            0.033927402724    0.018250743361    0.119090551423    0.048573366862    -0.780618142646    0.478911935904    0.134298225834    0.061703979432
0.575     0.047625077576    0.127653733841    -0.684753497477    0.602872662300    0.034567246034    0.122768046703    0.037026493136    0.010644230812
            -0.684753497477    0.602872662300    0.145920066651    0.049259240479    0.037085788386    0.010738759536    0.129521264920    0.039303371960
            0.034567246034    0.122768046703    0.037085788386    0.010738759536    0.045533917481    0.127623330656    -0.689663225463    0.597539247042
            0.037026493136    0.010644230812    0.129521264920    0.039303371960    -0.689663225463    0.597539247042    0.145416007957    0.049494139870
0.600     0.077661789319    0.116361561286    -0.575684344934    0.704190211724    0.062358249001    0.117251630349    0.037983615289    0.002747177926
            -0.575684344934    0.704190211724    0.153849976670    0.034555303738    0.038039112347    0.002803771342    0.137873920281    0.027694047000
            0.062358249001    0.117251630349    0.038039112347    0.002803771342    0.075828174371    0.116692768818    -0.581593773901    0.699559426881
            0.037983615289    0.002747177926    0.137873920281    0.027694047000    -0.581593773901    0.699559426881    0.153328690834    0.035160145606
0.625     0.103334949185    0.097129120536    -0.452433647511    0.786551749829    0.087754804316    0.104271996277    0.036930872449    -0.004728695087
            -0.452433647511    0.786551749829    0.158012710423    0.018710906360    0.036962338888    -0.004699775262    0.143548943398    0.014381074054
            0.087754804316    0.104271996277    0.036962338946    -0.004699774810    0.101875836997    0.097738201904    -0.459235130082    0.782797725131
            0.036930872449    -0.004728695087    0.143548943423    0.014381073803    -0.459235130082    0.782797725131    0.157601063071    0.019695545054
0.650     0.122597988321    0.071448507208    -0.318021668678    0.848195351520    0.108774493680    0.084688167625    0.034255362712    -0.011202145064
            -0.318021668678    0.848195351520    0.158285500589    0.002839077208    0.034249439391    -0.011180515468    0.146159065035    0.000157596820
            0.108774493680    0.084688167625    0.034249440732    -0.011180514583    0.121605993856    0.072217296944    -0.325587594483    0.845476339349
            0.034255362712    -0.011202145064    0.146159065035    0.000157596746    -0.325587594483    0.845476339349    0.158111900387    0.004172652422
0.675     0.133871172989    0.041301827616    -0.175630164358    0.887724095446    0.123699079211    0.059853071681    0.030519806039    -0.016309879444
            -0.175630164358    0.887724095446    0.154869563678    -0.011957528025    0.030474167812    -0.016269748422    0.145551349655    -0.014089524419
            0.123699079211    0.059853071681    0.030474167812    -0.016269748422    0.133404972713    0.042083540727    -0.183808613489    0.886181576531
            0.030519806039    -0.016309879444    0.145551349655    -0.014089524419    -0.183808613489    0.886181576531    0.155050350857    -0.010347129944
0.700     0.136147350648    0.009035584461    -0.028602461950    0.904110669137    0.131198949355    0.031555120818    0.026357483273    -0.019961421189
            -0.028602461950    0.904110669137    0.148286101900    -0.024675853345    0.026282970157    -0.019876771590    0.141849838704    -0.027444447257
            0.131198949355    0.031555120818    0.026282970157    -0.019876771590    0.136223131096    0.009664640181    -0.037219216656    0.903870305411
            0.026357483273    -0.019961421189    0.141849838704    -0.027444447257    -0.037219216656    0.903870305411    0.148913334267    -0.022897402258
0.725     0.129068710290    -0.022777619128    0.119539325224    0.896717492699    0.130428225065    0.001932446161    0.022349456511    -0.022340866445
            0.119539325224    0.896717492699    0.139336136368    -0.034497326427    0.022269985974    -0.022191573360    0.135450560823    -0.039043287423
            0.130428225065    0.001932446139    0.022269985974    -0.022191573360    0.129653450728    -0.022474376468    0.110684408449    0.897882992922
            0.022349457609    -0.022340866762    0.135450560823    -0.039043287423    0.110684408449    0.897882992922    0.140465247742    -0.032688646445
0.750     0.112991907668    -0.051503153619    0.265096316677    0.865357074552    0.121147507008    -0.026646188091    0.018908843276    -0.023862993331
            0.265096316677    0.865357074552    0.129054811086    -0.040870447855    0.018857751263    -0.023640845352    0.127027816463    -0.048160553504
            0.121147507008    -0.026646188091    0.018857751263    -0.023640845352    0.114000216574    -0.051691297321    0.256222977843    0.868011240000
            0.018908843276    -0.023862993331    0.127027816463    -0.048160553504    0.256222977843    0.868011240000    0.130696638653    -0.039185331758
0.775     0.089016748143    -0.074630677248    0.404205987975    0.810383880000    0.103797809686    -0.051736902380    0.016191270987    -0.025072900446
            0.404205987975    0.810383880000    0.118627694299    -0.043581408409    0.016206024139    -0.024785491931    0.117477918378    -0.054304057445
            0.103797809686    -0.051736902380    0.016206024139    -0.024785491931    0.090311391770    -0.075452671925    0.395563352940    0.814578904085
            0.016191270987    -0.025072900446    0.117477918378    -0.054304057445    0.395563352940    0.814578904085    0.120741944556    -0.042175765790
