# GHz S RI R 45
0.000     0.021810392430    0.001403866984    -0.000008445619    -0.000021264345    0.000734169958    0.001210749460    -0.000008500701    -0.000022428178
            -0.000008445598    -0.000021264345    0.022096275231    0.001695452368    -0.000007777143    -0.000019022221    0.000794803082    0.001647769259
            0.000734169958    0.001210749460    -0.000007777147    -0.000019022222    0.021640261863    0.001399216990    -0.000008768125    -0.000021806195
            -0.000008500772    -0.000022428176    0.000794803298    0.001647769266    -0.000008768086    -0.000021806196    0.022035100376    0.001707287067
0.025     0.026941196231    0.008602198738    -0.000022545730    -0.000049543084    0.002673398209    0.008990614520    -0.000022769893    -0.000050817167
            -0.000022545720    -0.000049543084    0.026264041751    0.009462163326    -0.000020696390    -0.000045848773    0.002128916918    0.010197631374
            0.002673174793    0.008990902227    -0.000020696424    -0.000045848826    0.026875649484    0.008554275490    -0.000023228840    -0.000051114968
            -0.000022769903    -0.000050817164    0.002129171488    0.010197057227    -0.000023228834    -0.000051114955    0.026186716445    0.009426417515
0.050     0.034119462285    0.011829009932    -0.000053334833    -0.000084752396    0.008189294024    0.016377857828    -0.000054241095    -0.000087149863
            -0.000053334828    -0.000084752387    0.030983774854    0.014383998337    -0.000049220716    -0.000078646740    0.005980028804    0.019440681284
            0.008189282876    0.016377863402    -0.000049220718    -0.000078646742    0.034035909139    0.011762249893    -0.000054813399    -0.000087570604
            -0.000054241095    -0.000087149863    0.005980125437    0.019440676669    -0.000054813446    -0.000087570680    0.030836310453    0.014330896394
0.075     0.042395350263    0.011609408509    -0.000094284024    -0.000107483378    0.016283776484    0.020869265880    -0.000096241750    -0.000110781983
            -0.000094284024    -0.000107483378    0.035727978585    0.017512125949    -0.000087304040    -0.000099783514    0.011740237032    0.027022138316
            0.016283769790    0.020869268566    -0.000087304040    -0.000099783514    0.042300491552    0.011535615109    -0.000096884269    -0.000111346625
            -0.000096241750    -0.000110781983    0.011740232787    0.027022140160    -0.000096884269    -0.000111346625    0.035493788740    0.017487584353
0.100     0.050768802653    0.007507006064    -0.000142245952    -0.000116563218    0.025659296299    0.021703255482    -0.000145604107    -0.000120456162
            -0.000142245952    -0.000116563218    0.040237298138    0.018942545235    -0.000131910432    -0.000108147987    0.018683131975    0.032547960353
            0.025659297062    0.021703256128    -0.000131910432    -0.000108147987    0.050676311972    0.007438347894    -0.000146340626    -0.000121217547
            -0.000145604107    -0.000120456162    0.018683106265    0.032547968193    -0.000146340626    -0.000121217547    0.039913941880    0.018997436621
0.125     0.057715947051    -0.000475651636    -0.000193589830    -0.000111060270    0.034855509778    0.018599909069    -0.000198623062    -0.000115129471
            -0.000193589830    -0.000111060270    0.043881939471    0.018892638469    -0.000179630508    -0.000102928120    0.026047197330    0.035893147848
            0.034855510011    0.018599910756    -0.000179630508    -0.000102928120    0.057647528985    -0.000534193911    -0.000199535674    -0.000116120554
            -0.000198623062    -0.000115129471    0.026047197917    0.035893148658    -0.000199535674    -0.000116120554    0.043493862688    0.019078409179
0.150     0.061802484399    -0.011783860500    -0.000244878870    -0.000091110699    0.042413174149    0.011795943459    -0.000251762026    -0.000094833679
            -0.000244878870    -0.000091110699    0.046293165775    0.017892452445    -0.000227225227    -0.000084227145    0.033081184568    0.037192909025
            0.042413175458    0.011795946216    -0.000227225227    -0.000084227145    0.061784153271    -0.011832536829    -0.000252966758    -0.000096048853
            -0.000251762026    -0.000094833679    0.033081184568    0.037192909025    -0.000252966758    -0.000096048853    0.045881554322    0.018247127761
0.175     0.061765541128    -0.025326126964    -0.000293163225    -0.000057204332    0.047012366870    0.002019581799    -0.000301917053    -0.000059996534
            -0.000293163225    -0.000057204332    0.047141266122    0.016551605126    -0.000271931813    -0.000052562133    0.039164114906    0.036836028954
            0.047012372209    0.002019597318    -0.000271931813    -0.000052562133    0.061826673163    -0.025379750909    -0.000303528433    -0.000061362842
            -0.000301917053    -0.000059996534    0.039164114906    0.036836028954    -0.000303528433    -0.000061362842    0.046767289547    0.017095187551
0.200     0.056784669301    -0.039590687388    -0.000335890063    -0.000010116673    0.047643073237    -0.009575409937    -0.000346362721    -0.000011362646
            -0.000335890063    -0.000010116673    0.046382638574    0.015600361796    -0.000311388979    -0.000008686677    0.043864568654    0.035397790752
            0.047643073237    -0.009575409937    -0.000311388979    -0.000008686677    0.056951088615    -0.039678461748    -0.000348457033    -0.000012761871
            -0.000346362721    -0.000011362646    0.043864568654    0.035397790752    -0.000348457033    -0.000012761871    0.046115348736    0.016327411132
0.225     0.046577836312    -0.052814644169    -0.000370579514    0.000049428814    0.043722598570    -0.021526073237    -0.000382428231    0.000050309471
            -0.000370579514    0.000049428814    0.044268862120    0.015742926904    -0.000343314429    0.000046689844    0.046991082642    0.033557806619
            0.043722598570    -0.021526073237    -0.000343314429    0.000046689844    0.046865303054    -0.052979302173    -0.000385027121    0.000049001508
            -0.000382428231    0.000050309471    0.046991082642    0.033557806619    -0.000385027121    0.000049001508    0.044174151457    0.016620507503
0.250     0.031490461981    -0.063171404491    -0.000394599606    0.000120556716    0.035189722111    -0.032212030007    -0.000407302810    0.000124054370
            -0.000394599606    0.000120556716    0.041314645700    0.017576228543    -0.000365292322    0.000112744671    0.048622561368    0.032021898776
            0.035189722111    -0.032212030007    -0.000365292322    0.000112744671    0.031899030246    -0.063464949795    -0.000410378272    0.000122956074
            -0.000407302810    0.000124054370    0.048622561368    0.032021898776    -0.000410378272    0.000122956074    0.041444150019    0.018546372690
0.275     0.012483648467    -0.068979086714    -0.000404855995    0.000202025558    0.022541144062    -0.040027936692    -0.000417742648    0.000208473741
            -0.000404855995    0.000202025558    0.038250466811    0.021476585580    -0.000374475489    0.000188313052    0.049101473816    0.031411673670
            0.022541144062    -0.040027936692    -0.000374475489    0.000188313052    0.012993534330    -0.069456966524    -0.000421247632    0.000207645315
            -0.000417742648    0.000208473741    0.049101473816    0.031411673670    -0.000421247632    0.000207645315    0.038632670836    0.022462413209
0.300     -0.008914061774    -0.068916270040    -0.000397932696    0.000291689405    0.006816722512    -0.043579724305    -0.000410234599    0.000301223386
            -0.000397932696    0.000291689405    0.035937507777    0.027543433395    -0.000367704647    0.000271416534    0.048995281439    0.032178565904
            0.006816722512    -0.043579724305    -0.000367704647    0.000271416534    -0.008344826559    -0.069630103454    -0.000414129982    0.000300696562
            -0.000410234599    0.000301223386    0.048995281439    0.032178565904    -0.000414129982    0.000300696562    0.036570914325    0.028459002055
0.325     -0.030748985172    -0.062198788762    -0.000370325105    0.000386087945    -0.010485690492    -0.041861873938    -0.000381249912    0.000398618311
            -0.000370325105    0.000386087945    0.035259579706    0.035539717429    -0.000341729451    0.000358849143    0.049014066899    0.034517142227
            -0.010485690492    -0.041861873938    -0.000341729451    0.000358849143    -0.030182937970    -0.063187041558    -0.000385551784    0.000398386800
            -0.000381249912    0.000398618311    0.049014066899    0.034517142227    -0.000385551784    0.000398386800    0.036110291535    0.036302175143
0.350     -0.050835925154    -0.048728477924    -0.000319201288    0.000480182697    -0.027561343890    -0.034414919207    -0.000328014612    0.000495394903
            -0.000319201288    0.000480182697    0.036998945039    0.044907359903    -0.000293925335    0.000445917291    0.049911271177    0.038332000830
            -0.027561343890    -0.034414919207    -0.000293925335    0.000445917291    -0.050352307218    -0.050008706111    -0.000332801925    0.000495478921
            -0.000328014612    0.000495394903    0.049911271177    0.038332000830    -0.000332801925    0.000495478921    0.038002959453    0.045448656731
0.375     -0.067003828366    -0.029145997482    -0.000243164978    0.000567428453    -0.042498767747    -0.021411748326    -0.000249235961    0.000584832886
            -0.000243164978    0.000567428453    0.041713820434    0.054800398459    -0.000223000896    0.000526529038    0.052359131508    0.043228526636
            -0.042498767747    -0.021411748326    -0.000223000896    0.000526529038    -0.066690125596    -0.030708403937    -0.000254658991    0.000585316844
            -0.000249235961    0.000584832886    0.052359131508    0.043228526636    -0.000254658991    0.000585316844    0.042783484290    0.055078970558
0.400     -0.077360983552    -0.004808908919    -0.000143078348    0.000640446988    -0.053516969234    -0.003672801029    -0.000145945977    0.000659418785
            -0.000143078348    0.000640446988    0.049641487092    0.064193456551    -0.000129764845    0.000593814744    0.056847059729    0.048572525707
            -0.053516969234    -0.003672801029    -0.000129764845    0.000593814744    -0.077303395464    -0.006612954710    -0.000152150606    0.000660515498
            -0.000145945977    0.000659418785    0.056847059729    0.048572525707    -0.000152150606    0.000660515498    0.050677267258    0.064201976044
0.425     -0.080528750613    0.022342195482    -0.000022415120    0.000691938900    -0.059180182355    0.017415968892    -0.000021797288    0.000711789176
            -0.000022415120    0.000691938900    0.060640048090    0.072000526773    -0.000017505396    0.000640969611    0.063592045101    0.053568894003
            -0.059180182355    0.017415968892    -0.000017505396    0.000640969611    -0.080800486316    0.020367101648    -0.000028875365    0.000713846019
            -0.000021797288    0.000711789176    0.063592045101    0.053568894003    -0.000028875365    0.000713846019    0.061543996706    0.071768871454
0.450     -0.075824190966    0.049991905422    0.000112764647    0.000715903137    -0.058581960159    0.040059454064    0.000116967334    0.000735938848
            0.000112764647    0.000715903137    0.074194900117    0.077227920300    0.000108105911    0.000662428368    0.072509686662    0.057385782071
            -0.058581960159    0.040059454064    0.000108105911    0.000662428368    -0.076474860110    0.047941403463    0.000109056434    0.000739413931
            0.000116967334    0.000735938848    0.072509686662    0.057385782071    0.000109056434    0.000739413931    0.074883344744    0.076820552303
0.475     -0.063338177277    0.075709469705    0.000254509423    0.000708569081    -0.051438601097    0.062260627161    0.000262280452    0.000728139215
            0.000254509423    0.000708569081    0.089466507145    0.079096414606    0.000239630541    0.000654714156    0.083214946737    0.059260125929
            -0.051438601097    0.062260627161    0.000239630541    0.000654714156    -0.064385705988    0.073694687872    0.000253789032    0.000733546437
            0.000262280452    0.000728139215    0.083214946737    0.059260125929    0.000253789032    0.000733546437    0.089882652858    0.078606004474
0.500     -0.043923722063    0.097216058673    0.000394045877    0.000669076297    -0.038112092292    0.082047646833    0.000405272075    0.000687582491
            0.000394045877    0.000669076297    0.105399599082    0.077147696011    0.000368879929    0.000617079372    0.095085324200    0.058605545764
            -0.038112092292    0.082047646833    0.000368879929    0.000617079372    -0.045349842796    0.095353596200    0.000396663268    0.000695399160
            0.000405272075    0.000687582491    0.095085324200    0.058605545764    0.000396663268    0.000695399160    0.105522223483    0.076682865146
0.525     -0.019085620923    0.112613189533    0.000522964859    0.000599417170    -0.019540640357    0.097667058159    0.000537442514    0.000616329580
            0.000522964859    0.000599417170    0.120839807003    0.071286942966    0.000487985129    0.000551458778    0.107329453709    0.055069577714
            -0.019540640357    0.097667058159    0.000487985129    0.000551458778    -0.020835323617    0.111012671226    0.000529422292    0.000626891202
            0.000537442514    0.000616329580    0.107329453709    0.055069577714    0.000529422292    0.000626891202    0.120686594220    0.070960343718
0.550     0.009187944687    0.120557219664    0.000634247376    0.000504069464    0.002874697100    0.107746127957    0.000651762555    0.000518885219
            0.000634247376    0.000504069464    0.134671502700    0.061790090406    0.000590467996    0.000462070051    0.119090551423    0.048573366862
            0.002874697100    0.107746127957    0.000590467996    0.000462070051    0.007203313858    0.119309467619    0.000645198484    0.000532292416
            0.000651762555    0.000518885219    0.119090551423    0.048573366862    0.000645198484    0.000532292416    0.134298225834    0.061703979432
0.575     0.038626900712    0.120350110024    0.000722939112    0.000389105591    0.027419546625    0.111379319102    0.000743230192    0.000401350347
            0.000722939112    0.000389105591    0.145920066651    0.049259240479    0.000671748514    0.000354616382    0.129521264920    0.039303371960
            0.027419546625    0.111379319102    0.000671748514    0.000354616382    0.036522647343    0.119517925100    0.000739081417    0.000417383636
            0.000743230192    0.000401350347    0.129521264920    0.039303371960    0.000739081417    0.000417383636    0.145416007957    0.049494139870
0.600     0.066883909013    0.111970966030    0.000786501630    0.000261295896    0.052217046672    0.108182722151    0.000809270241    0.000270473269
            0.000786501630    0.000261295896    0.153849976670    0.034555303738    0.000729498694    0.000235432068    0.137873920281    0.027694047000
            0.052217046672    0.108182722151    0.000729498694    0.000235432068    0.064792705697    0.111581596350    0.000808424501    0.000288601971
            0.000809270241    0.000270473269    0.137873920281    0.027694047000    0.000808424501    0.000288601971    0.153328690834    0.035160145606
0.625     0.091714822489    0.096043843698    0.000824600502    0.000127173108    0.075364800504    0.098287515810    0.000849464377    0.000132789387
            0.000824600502    0.000127173108    0.158012710423    0.018710906360    0.000763438278    0.000110632291    0.143548943398    0.014381074054
            0.075364800504    0.098287515810    0.000763438278    0.000110632291    0.089777224635    0.096084721141    0.000852655137    0.000152154034
            0.000849464377    0.000132789387    0.143548943423    0.014381073803    0.000852655137    0.000152154034    0.157601063071    0.019695545054
0.650     0.111139977141    0.073772467451    0.000838796332    -0.000007670194    0.095063243982    0.082325074422    0.000865271219    -0.000006114138
            0.000838796322    -0.000007670193    0.158285500589    0.002839077208    0.000775060247    -0.000014580513    0.146159065035    0.000157596820
            0.095063243982    0.082325074422    0.000775060247    -0.000014580513    0.109491726433    0.074189801201    0.000872937596    0.000013388420
            0.000865271219    -0.000006114138    0.146159065035    0.000157596746    0.000872937596    0.000013388420    0.158111900387    0.004172652422
0.675     0.123567509998    0.046847634967    0.000831853822    -0.000139099907    0.109718433009    0.061381373521    0.000859314944    -0.000142097761
            0.000831853822    -0.000139099907    0.154869563678    -0.011957528025    0.000766956633    -0.000136302222    0.145551349655    -0.014089524419
            0.109718433009    0.061381373521    0.000766956633    -0.000136302222    0.122328857559    0.047547521111    0.000871530686    -0.000123691364
            0.000859314944    -0.000142097761    0.145551349655    -0.014089524419    0.000871530686    -0.000123691364    0.155050350857    -0.010347129944
0.700     0.127901658964    0.017337363927    0.000807114831    -0.000264691173    0.118053868935    0.036947162024    0.000834769328    -0.000272646822
            0.000807114831    -0.000264691173    0.148286101900    -0.024675853345    0.000742277333    -0.000252259352    0.141849838704    -0.027444447257
            0.118053868935    0.036947162024    0.000742277333    -0.000252259352    0.127165436164    0.018190312709    0.000851201731    -0.000256548608
            0.000834769328    -0.000272646822    0.141849838704    -0.027444447257    0.000851201731    -0.000256548608    0.148913334267    -0.022897402258
0.725     0.123623309770    -0.012435193995    0.000767652530    -0.000383687787    0.119199298646    0.010846630899    0.000794550560    -0.000396873269
            0.000767652530    -0.000383687787    0.139336136368    -0.034497326427    0.000703946188    -0.000361672739    0.135450560823    -0.039043287423
            0.119199298646    0.010846630899    0.000703946188    -0.000361672739    0.123444905732    -0.011587719490    0.000814462306    -0.000384127273
            0.000794550560    -0.000396873269    0.135450560823    -0.039043287423    0.000814462306    -0.000384127273    0.140465247742    -0.032688646445
0.750     0.110858249587    -0.040039754128    0.000715609907    -0.000496746073    0.112797595917    -0.014861940828    0.000740637584    -0.000515238822
            0.000715609907    -0.000496746073    0.129054811086    -0.040870447855    0.000654057251    -0.000465113974    0.127027816463    -0.048160553504
            0.112797595917    -0.014861940828    0.000654057251    -0.000465113974    0.111245907813    -0.039373786494    0.000763035812    -0.000506552462
            0.000740637584    -0.000515238822    0.127027816463    -0.048160553504    0.000763035812    -0.000506552462    0.130696638653    -0.039185331758
0.775     0.090413590366    -0.063103892023    0.000651556284    -0.000605206862    0.099077866184    -0.038014203237    0.000673523440    -0.000628771374
            0.000651556284    -0.000605206862    0.118627694299    -0.043581408409    0.000593270028    -0.000563805991    0.117477918378    -0.054304057445
            0.099077866184    -0.038014203237    0.000593270028    -0.000563805991    0.091322611770    -0.062799626632    0.000697240869    -0.000624475857
            0.000673523440    -0.000628771374    0.117477918378    -0.054304057445    0.000697240869    -0.000624475857    0.120741944556    -0.042175765790
