# GHz S RI R 45
0.000     0.023146538223    0.001552665055    0.000000200046    0.000000403522    0.000847175713    0.001477491413    0.000000214452    0.000000421659
            0.000000200046    0.000000403522    0.022096275231    0.001695452368    0.000000208697    0.000000417851    0.000794803082    0.001647769259
            0.000847175816    0.001477491354    0.000000208697    0.000000417851    0.023101212519    0.001541588948    0.000000223850    0.000000437327
            0.000000214452    0.000000421659    0.000794803298    0.001647769266    0.000000223849    0.000000437327    0.022035100376    0.001707287067
0.025     0.028121258575    0.010200433966    0.000000367942    0.000000890137    0.002561791135    0.010939920750    0.000000390076    0.000000929945
            0.000000367942    0.000000890135    0.026264041751    0.009462163326    0.000000382167    0.000000922709    0.002128916918    0.010197631374
            0.002560413233    0.010939928024    0.000000382168    0.000000922708    0.028038567232    0.010143063690    0.000000405537    0.000000965622
            0.000000390077    0.000000929944    0.002129171488    0.010197057227    0.000000405537    0.000000965624    0.026186716445    0.009426417515
0.050     0.033963470033    0.015115947833    0.000000678737    0.000001591029    0.007435547002    0.020492412022    0.000000714666    0.000001662717
            0.000000678737    0.000001591029    0.030983774854    0.014383998337    0.000000703684    0.000001650211    0.005980028804    0.019440681284
            0.007435554507    0.020492317812    0.000000703684    0.000001650211    0.033815568673    0.015033453178    0.000000741709    0.000001727654
            0.000000714666    0.000001662717    0.005980125437    0.019440676669    0.000000741709    0.000001727654    0.030836310453    0.014330896394
0.075     0.039994138158    0.017475147378    0.000001051790    0.000002193283    0.014548832969    0.027656996571    0.000001104941    0.000002292842
            0.000001051790    0.000002193283    0.035727978585    0.017512125949    0.000001089859    0.000002275997    0.011740237032    0.027022138316
            0.014548836882    0.027656991122    0.000001089859    0.000002275997    0.039776495321    0.017411018928    0.000001146183    0.000002383789
            0.000001104941    0.000002292842    0.011740232787    0.027022140160    0.000001146183    0.000002383789    0.035493788740    0.017487584353
0.100     0.045577632701    0.017293750616    0.000001472916    0.000002717105    0.022777264021    0.031911114453    0.000001546335    0.000002841418
            0.000001472916    0.000002717105    0.040237298138    0.018942545235    0.000001526530    0.000002821137    0.018683131975    0.032547960353
            0.022777286467    0.031911107032    0.000001526530    0.000002821137    0.045299263745    0.017290108039    0.000001604468    0.000002956043
            0.000001546335    0.000002841418    0.018683106265    0.032547968193    0.000001604468    0.000002956043    0.039913941880    0.018997436621
0.125     0.049675380269    0.014906377043    0.000001927855    0.000003174532    0.030930256637    0.033184102873    0.000002024384    0.000003320629
            0.000001927855    0.000003174532    0.043881939471    0.018892638469    0.000001999387    0.000003297653    0.026047197330    0.035893147848
            0.030930256637    0.033184102873    0.000001999387    0.000003297653    0.049361251697    0.015005223076    0.000002102079    0.000003456551
            0.000002024384    0.000003320629    0.026047197917    0.035893148658    0.000002102079    0.000003456551    0.043493862688    0.019078409179
0.150     0.051531526630    0.011129680880    0.000002407635    0.000003585574    0.037896098031    0.031856604639    0.000002529794    0.000003750652
            0.000002407635    0.000003585574    0.046293165775    0.017892452445    0.000002499181    0.000003725523    0.033081184568    0.037192909025
            0.037896098031    0.031856604639    0.000002499181    0.000003725523    0.051237465713    0.011344507776    0.000002629466    0.000003905448
            0.000002529794    0.000003750652    0.033081184568    0.037192909025    0.000002629466    0.000003905448    0.045881554322    0.018247127761
0.175     0.050618131437    0.007019424492    0.000002915978    0.000003968124    0.042796051595    0.028695644977    0.000003066297    0.000004149625
            0.000002915978    0.000003968124    0.047141266122    0.016551605126    0.000003029533    0.000004122693    0.039164114906    0.036836028954
            0.042796051595    0.028695644977    0.000003029533    0.000004122693    0.050404228870    0.007347716003    0.000003190211    0.000004320855
            0.000003066297    0.000004149625    0.039164114906    0.036836028954    0.000003190211    0.000004320855    0.046767289547    0.017095187551
0.200     0.046883075547    0.003830408720    0.000003467062    0.000004337241    0.045109478719    0.024756764097    0.000003648294    0.000004532741
            0.000003467062    0.000004337241    0.046382638574    0.015600361796    0.000003604556    0.000004504283    0.043864568654    0.035397790752
            0.045109478719    0.024756764097    0.000003604556    0.000004504283    0.046806973568    0.004242803637    0.000003798706    0.000004717979
            0.000003648294    0.000004532741    0.043864568654    0.035397790752    0.000003798706    0.000004717979    0.046115348736    0.016327411132
0.225     0.040788281573    0.002787536992    0.000004083964    0.000004696787    0.044761343849    0.021229693419    0.000004299317    0.000004903553
            0.000004083964    0.000004696787    0.044268862120    0.015742926904    0.000004247370    0.000004874002    0.046991082642    0.033557806619
            0.044761343849    0.021229693419    0.000004247370    0.000004874002    0.040894936890    0.003228107998    0.000004478428    0.000005100182
            0.000004299317    0.000004903553    0.046991082642    0.033557806619    0.000004478428    0.000005100182    0.044174151457    0.016620507503
0.250     0.033273215815    0.004913398718    0.000004794309    0.000005038631    0.042158956511    0.019273452835    0.000005047376    0.000005253347
            0.000004794309    0.000005038631    0.041314645700    0.017576228543    0.000004985675    0.000005223575    0.048622561368    0.032021898776
            0.042158956511    0.019273452835    0.000004985675    0.000005223575    0.033583608535    0.005305299404    0.000005257418    0.000005458536
            0.000005047376    0.000005253347    0.048622561368    0.032021898776    0.000005257418    0.000005458536    0.041444150019    0.018546372690
0.275     0.025667154130    0.010827081489    0.000005624424    0.000005337457    0.038159717058    0.019820500702    0.000005918969    0.000005555749
            0.000005624424    0.000005337457    0.038250466811    0.021476585580    0.000005845802    0.000005527282    0.049101473816    0.031411673670
            0.038159717058    0.019820500702    0.000005845802    0.000005527282    0.026169871474    0.011083360380    0.000006162112    0.000005766295
            0.000005918969    0.000005555749    0.049101473816    0.031411673670    0.000006162112    0.000005766295    0.038632670836    0.022462413209
0.300     0.019523951963    0.020616562673    0.000006592311    0.000005552891    0.033968523391    0.023411017634    0.000006931844    0.000005769102
            0.000006592311    0.000005552891    0.035937507777    0.027543433395    0.000006845659    0.000005744312    0.048995281439    0.032178565904
            0.033968523391    0.023411017634    0.000006845659    0.000005744312    0.020171598170    0.020654329117    0.000007210098    0.000005981320
            0.000006931844    0.000005769102    0.048995281439    0.032178565904    0.000007210098    0.000005981320    0.036570914325    0.028459002055
0.325     0.016403961766    0.033741975971    0.000007698698    0.000005630291    0.030958248887    0.030057625082    0.000008085897    0.000005837385
            0.000007698698    0.000005630291    0.035259579706    0.035539717429    0.000007985712    0.000005819481    0.049014066899    0.034517142227
            0.030958248887    0.030057625082    0.000007985712    0.000005819481    0.017115364781    0.033497248568    0.000008400944    0.000006047099
            0.000008085897    0.000005837385    0.049014066899    0.034517142227    0.000008400944    0.000006047099    0.036110291535    0.036302175143
0.350     0.017619870667    0.049065447138    0.000008920813    0.000005510455    0.030445925935    0.039208321119    0.000009356917    0.000005700338
            0.000008920813    0.000005510455    0.036998945039    0.044907359903    0.000009242740    0.000005693101    0.049911271177    0.038332000830
            0.030445925935    0.039208321119    0.000009242740    0.000005693101    0.018288830394    0.048507249149    0.000009709958    0.000005902880
            0.000009356917    0.000005700338    0.049911271177    0.038332000830    0.000009709958    0.000005902880    0.038002959453    0.045448656731
0.375     0.023997672071    0.064962182641    0.000010207511    0.000005139381    0.033451988317    0.049794946925    0.000010692035    0.000005303271
            0.000010207511    0.000005139381    0.041713820434    0.054800398459    0.000010564980    0.000005310630    0.052359131508    0.043228526636
            0.033451988317    0.049794946925    0.000010564980    0.000005310630    0.024507113091    0.064100871563    0.000011083642    0.000005493617
            0.000010692035    0.000005303271    0.052359131508    0.043228526636    0.000011083642    0.000005493617    0.042783484290    0.055078970558
0.400     0.035707102163    0.079556428522    0.000011483680    0.000004483678    0.040514610923    0.060404297499    0.000012013921    0.000004612838
            0.000011483680    0.000004483678    0.049641487092    0.064193456551    0.000011876563    0.000004638470    0.056847059729    0.048572525707
            0.040514610923    0.060404297499    0.000011876563    0.000004638470    0.035947002733    0.078447282175    0.000012443863    0.000004785628
            0.000012013921    0.000004612838    0.056847059729    0.048572525707    0.000012443863    0.000004785628    0.050677267258    0.064201976044
0.425     0.052199251556    0.090992956288    0.000012658554    0.000003540640    0.051582039520    0.069496753780    0.000013230028    0.000003627015
            0.000012658554    0.000003540640    0.060640048090    0.072000526773    0.000013085841    0.000003673712    0.063592045101    0.053568894003
            0.051582039520    0.069496753780    0.000013085841    0.000003673712    0.052083113066    0.089730607844    0.000013697194    0.000003776785
            0.000013230028    0.000003627015    0.063592045101    0.053568894003    0.000013697194    0.000003776785    0.061543996706    0.071768871454
0.450     0.072279576682    0.097726064883    0.000013643184    0.000002345185    0.066031323959    0.075660442726    0.000014249545    0.000002381933
            0.000013643184    0.000002345185    0.074194900117    0.077227920300    0.000014102849    0.000002451378    0.072509686662    0.057385782071
            0.066031323959    0.075660442726    0.000014102849    0.000002451378    0.071758992605    0.096432666343    0.000014751989    0.000002503350
            0.000014249545    0.000002381933    0.072509686662    0.057385782071    0.000014751989    0.000002503350    0.074883344744    0.076820552303
0.475     0.094277576485    0.098727241121    0.000014365176    0.000000965836    0.082769655755    0.077804964132    0.000014999188    0.000000947746
            0.000014365176    0.000000965836    0.089466507145    0.079096414606    0.000014854227    0.000001040343    0.083214946737    0.059260125929
            0.082769655755    0.077804964132    0.000014854227    0.000001040343    0.093348788903    0.097537579944    0.000015533916    0.000001035781
            0.000014999188    0.000000947746    0.083214946737    0.059260125929    0.000015533916    0.000001035781    0.089882652858    0.078606004474
0.500     0.116288615422    0.093610429013    0.000014784405    -0.000000505136    0.100413607927    0.075298388837    0.000015438015    -0.000000581535
            0.000014784405    -0.000000505136    0.105399599082    0.077147696011    0.000015299078    -0.000000466568    0.095085324200    0.058605545764
            0.100413607927    0.075298388837    0.000015299078    -0.000000466568    0.114994815591    0.092653818409    0.000016001193    -0.000000531347
            0.000015438015    -0.000000581535    0.095085324200    0.058605545764    0.000016001193    -0.000000531347    0.105522223483    0.076682865146
0.525     0.136408919306    0.082638459577    0.000014897110    -0.000001967664    0.117464564570    0.068002877612    0.000015562142    -0.000002104021
            0.000014897110    -0.000001967664    0.120839807003    0.071286942966    0.000015432833    -0.000001968504    0.107329453709    0.055069577714
            0.117464564570    0.068002877612    0.000015432833    -0.000001968504    0.134835368520    0.082024132538    0.000016149251    -0.000002095441
            0.000015562142    -0.000002104021    0.107329453709    0.055069577714    0.000016149251    -0.000002095441    0.120686594220    0.070960343718
0.550     0.152952616929    0.066657969563    0.000014737352    -0.000003329520    0.132484085423    0.056260438507    0.000015405972    -0.000003525727
            0.000014737352    -0.000003329520    0.134671502700    0.061790090406    0.000015288978    -0.000003372190    0.119090551423    0.048573366862
            0.132484085423    0.056260438507    0.000015288978    -0.000003372190    0.151216220712    0.066461459919    0.000016011883    -0.000003561519
            0.000015405972    -0.000003525727    0.119090551423    0.048573366862    0.000016011883    -0.000003561519    0.134298225834    0.061703979432
0.575     0.164593348054    0.046973732068    0.000014367077    -0.000004518735    0.144210019889    0.040823098140    0.000015032168    -0.000004773194
            0.000014367077    -0.000004518735    0.145920066651    0.049259240479    0.000014929445    -0.000004604628    0.129521264920    0.039303371960
            0.144210019889    0.040823098140    0.000014929445    -0.000004604628    0.162831602464    0.047229261524    0.000015651736    -0.000004855147
            0.000015032168    -0.000004773194    0.129521264920    0.039303371960    0.000015651736    -0.000004855147    0.145416007957    0.049494139870
0.600     0.170468765777    0.025209448150    0.000013867922    -0.000005492015    0.151660857407    0.022780849917    0.000014523618    -0.000005801779
            0.000013867922    -0.000005492015    0.153849976670    0.034555303738    0.000014435915    -0.000005621399    0.137873920281    0.027694047000
            0.151660857407    0.022780849917    0.000014435915    -0.000005621399    0.168824327437    0.025904988893    0.000015151539    -0.000005930557
            0.000014523618    -0.000005801779    0.137873920281    0.027694047000    0.000015151539    -0.000005930557    0.153328690834    0.035160145606
0.625     0.170223507830    0.003165590108    0.000013327329    -0.000006236548    0.154192697360    0.003473225702    0.000013969199    -0.000006597982
            0.000013327329    -0.000006236548    0.158012710423    0.018710906360    0.000013896109    -0.000006408772    0.143548943398    0.014381074054
            0.154192697360    0.003473225702    0.000013896109    -0.000006408772    0.168830252780    0.004242547218    0.000014600592    -0.000006773386
            0.000013969199    -0.000006597982    0.143548943423    0.014381073803    0.000014600592    -0.000006773386    0.157601063071    0.019695545054
0.650     0.164038645966    -0.017315745049    0.000012830296    -0.000006769938    0.151568958536    -0.015590458813    0.000013455801    -0.000007178942
            0.000012830296    -0.000006769938    0.158285500589    0.002839077208    0.000013395954    -0.000006983455    0.146159065035    0.000157596820
            0.151568958536    -0.015590458813    0.000013395954    -0.000006983455    0.163007226566    -0.015958019735    0.000014086295    -0.000007399928
            0.000013455801    -0.000007178942    0.146159065035    0.000157596746    0.000014086295    -0.000007399928    0.158111900387    0.004172652422
0.675     0.152628099829    -0.034482485774    0.000012449343    -0.000007134737    0.144001398461    -0.032834230835    0.000013057605    -0.000007587746
            0.000012449343    -0.000007134737    0.154869563678    -0.011957528025    0.000013008456    -0.000007387466    0.145551349655    -0.014089524419
            0.144001398461    -0.032834230835    0.000013008456    -0.000007387466    0.152032686644    -0.032980222208    0.000013683672    -0.000007852661
            0.000013057605    -0.000007587746    0.145551349655    -0.014089524419    0.000013683672    -0.000007852661    0.155050350857    -0.010347129944
0.700     0.137232979857    -0.046815196699    0.000012240006    -0.000007394628    0.132206667142    -0.046735406154    0.000012832033    -0.000007889231
            0.000012240006    -0.000007394628    0.148286101900    -0.024675853345    0.000012790446    -0.000007684222    0.141849838704    -0.027444447257
            0.132206667142    -0.046735406154    0.000012790446    -0.000007684222    0.137099178499    -0.045326969055    0.000013450949    -0.000008196195
            0.000012832033    -0.000007889231    0.141849838704    -0.027444447257    0.000013450949    -0.000008196195    0.148913334267    -0.022897402258
0.725     0.119571314072    -0.053184587409    0.000012235512    -0.000007627393    0.117409080728    -0.055992148414    0.000012813211    -0.000008163206
            0.000012235512    -0.000007627393    0.139336136368    -0.034497326427    0.000012776054    -0.000007951679    0.135450560823    -0.039043287423
            0.117409080728    -0.055992148414    0.000012776054    -0.000007951679    0.119867696852    -0.051876384463    0.000013423156    -0.000008510336
            0.000012813211    -0.000008163206    0.135450560823    -0.039043287423    0.000013423156    -0.000008510336    0.140465247742    -0.032688646445
0.750     0.101748433229    -0.053028928654    0.000012445230    -0.000007920878    0.101311560501    -0.059714659883    0.000013010821    -0.000008500186
            0.000012445230    -0.000007920878    0.129054811086    -0.040870447855    0.000012975657    -0.000008278195    0.127027816463    -0.048160553504
            0.101311560501    -0.059714659883    0.000012975657    -0.000008278195    0.102383651373    -0.052051711817    0.000013610880    -0.000008886098
            0.000013010821    -0.000008500186    0.127027816463    -0.048160553504    0.000013610880    -0.000008886098    0.130696638653    -0.039185331758
0.775     0.086074583900    -0.046520112034    0.000012850777    -0.000008366236    0.085950297505    -0.057637386066    0.000013405084    -0.000008994015
            0.000012850777    -0.000008366236    0.118627694299    -0.043581408409    0.000013371386    -0.000008755672    0.117477918378    -0.054304057445
            0.085950297505    -0.057637386066    0.000013371386    -0.000008755672    0.086901764210    -0.045988694806    0.000013994880    -0.000009417771
            0.000013405084    -0.000008994015    0.117477918378    -0.054304057445    0.000013994880    -0.000009417771    0.120741944556    -0.042175765790
0.800     0.074797279609    -0.034681332137    0.000013404277    -0.000009052828    0.073463843790    -0.050278518247    0.000013945489    -0.000009736221
            0.000013404277    -0.000009052828    0.109291106347    -0.042811214854    0.000013915778    -0.000009474598    0.107859414184    -0.057298319069
