# GHz S RI R 45
0.000     0.023203679552    0.001678143403    0.000000430129    0.000000916901    0.000942238003    0.001643754885    0.000000444814    0.000000992036
            0.000000430221    0.000000916899    0.022096275231    0.001695452368    0.000000471300    0.000000995121    0.000794803082    0.001647769259
            0.000942237309    0.001643754938    0.000000471143    0.000000995124    0.023135595132    0.001664772815    0.000000476812    0.000001080666
            0.000000444902    0.000000992034    0.000794803298    0.001647769266    0.000000476742    0.000001080667    0.022035100376    0.001707287067
0.025     0.027951963519    0.010074435215    0.000000796938    0.000002070394    0.002570434167    0.011032808524    0.000000828175    0.000002212302
            0.000000796942    0.000002070390    0.026264041751    0.009462163326    0.000000880152    0.000002278107    0.002128916918    0.010197631374
            0.002571000736    0.011031810920    0.000000880145    0.000002278112    0.027889263050    0.010018205639    0.000000890278    0.000002407638
            0.000000828173    0.000002212298    0.002129171488    0.010197057227    0.000000890283    0.000002407654    0.026186716445    0.009426417515
0.050     0.033526319475    0.015145680169    0.000001533224    0.000003764661    0.007309961796    0.020806970224    0.000001587020    0.000004031523
            0.000001533224    0.000003764661    0.030983774854    0.014383998337    0.000001702234    0.000004135278    0.005980028804    0.019440681284
            0.007310025138    0.020806991427    0.000001702234    0.000004135278    0.033395391312    0.015051342393    0.000001707654    0.000004393685
            0.000001587020    0.000004031523    0.005980125437    0.019440676669    0.000001707654    0.000004393685    0.030836310453    0.014330896394
0.075     0.039296388564    0.017822289878    0.000002483233    0.000005217502    0.014299191870    0.028306351063    0.000002567840    0.000005616522
            0.000002483233    0.000005217502    0.035727978585    0.017512125949    0.000002765671    0.000005717815    0.011740237032    0.027022138316
            0.014299197218    0.028306350602    0.000002765671    0.000005717815    0.039101743902    0.017730481052    0.000002765040    0.000006131793
            0.000002567840    0.000005616522    0.011740232787    0.027022140160    0.000002765040    0.000006131793    0.035493788740    0.017487584353
0.100     0.044693139785    0.018129152987    0.000003588154    0.000006448743    0.022465817085    0.033016801460    0.000003720422    0.000006990954
            0.000003588154    0.000006448743    0.040237298138    0.018942545235    0.000004000367    0.000007042101    0.018683131975    0.032547960353
            0.022465816495    0.033016803071    0.000004000367    0.000007042101    0.044441345342    0.018077454923    0.000004012651    0.000007648173
            0.000003720422    0.000006990954    0.018683106265    0.032547968193    0.000004012651    0.000007648173    0.039913941880    0.018997436621
0.125     0.048804688318    0.016420618120    0.000004795080    0.000007476018    0.030676101864    0.034851810385    0.000005001558    0.000008170565
            0.000004795080    0.000007476019    0.043881939471    0.018892638469    0.000005340122    0.000008125740    0.026047197330    0.035893147848
            0.030676101864    0.034851810385    0.000005340122    0.000008125740    0.048519208457    0.016438865515    0.000005407556    0.000008958498
            0.000005001558    0.000008170565    0.026047197917    0.035893148658    0.000005407556    0.000008958498    0.043493862688    0.019078409179
0.150     0.050821970489    0.013359854993    0.000006063566    0.000008348398    0.037875413994    0.034162211372    0.000006379252    0.000009198859
            0.000006063566    0.000008348398    0.046293165775    0.017892452445    0.000006732000    0.000009024290    0.033081184568    0.037192909025
            0.037875413994    0.034162211372    0.000006732000    0.000009024290    0.050547440743    0.013470695016    0.000006917485    0.000010104032
            0.000006379252    0.000009198859    0.033081184568    0.037192909025    0.000006917485    0.000010104032    0.045881554322    0.018247127761
0.175     0.050323006660    0.010001650254    0.000007389060    0.000009111548    0.043226598612    0.031654949448    0.000007855325    0.000010111811
            0.000007389060    0.000009111548    0.047141266122    0.016551605126    0.000008162877    0.000009793790    0.039164114906    0.036836028954
            0.043226598612    0.031654949448    0.000008162877    0.000009793790    0.050112251094    0.010202762309    0.000008543618    0.000011119741
            0.000007855325    0.000010111811    0.039164114906    0.036836028954    0.000008543618    0.000011119741    0.046767289547    0.017095187551
0.200     0.047296062836    0.007510361268    0.000008794518    0.000009808590    0.046230439110    0.028311301583    0.000009455704    0.000010940468
            0.000008794518    0.000009808590    0.046382638574    0.015600361796    0.000009652702    0.000010491194    0.043864568654    0.035397790752
            0.046230439110    0.028311301583    0.000009652702    0.000010491194    0.047200076350    0.007773460966    0.000010312021    0.000012035522
            0.000009455704    0.000010940468    0.043864568654    0.035397790752    0.000010312021    0.000012035522    0.046115348736    0.016327411132
0.225     0.042195450576    0.007000201378    0.000010328591    0.000010459020    0.046807816136    0.025236326910    0.000011227767    0.000011690055
            0.000010328591    0.000010459020    0.044268862120    0.015742926904    0.000011253627    0.000011149390    0.046991082642    0.033557806619
            0.046807816136    0.025236326910    0.000011253627    0.000011149390    0.042252015553    0.007272647916    0.000012270109    0.000012853943
            0.000011227767    0.000011690055    0.046991082642    0.033557806619    0.000012270109    0.000012853943    0.044174151457    0.016620507503
0.250     0.035908342854    0.009386869656    0.000012056326    0.000011054077    0.045331014973    0.023502845088    0.000013230253    0.000012337766
            0.000012056326    0.000011054077    0.041314645700    0.017576228543    0.000013039946    0.000011770671    0.048622561368    0.032021898776
            0.045331014973    0.023502845088    0.000013039946    0.000011770671    0.036132394811    0.009598452545    0.000014475826    0.000013549027
            0.000013230253    0.000012337766    0.048622561368    0.032021898776    0.000014475826    0.000013549027    0.041444150019    0.018546372690
0.275     0.029673594415    0.015201155765    0.000014043445    0.000011542195    0.042588574721    0.023967189739    0.000015517137    0.000012819246
            0.000014043445    0.000011542195    0.038250466811    0.021476585580    0.000015091684    0.000012309655    0.049101473816    0.031411673670
            0.042588574721    0.023967189739    0.000015091684    0.000012309655    0.030049482070    0.015274223856    0.000016981917    0.000014052863
            0.000015517137    0.000012819246    0.049101473816    0.031411673670    0.000016981917    0.000014052863    0.038632670836    0.022462413209
0.300     0.024921653181    0.024477284420    0.000016339914    0.000011832891    0.039686774253    0.027118741562    0.000018121785    0.000013035369
            0.000016339914    0.000011832891    0.035937507777    0.027543433395    0.000017475344    0.000012675105    0.048995281439    0.032178565904
            0.039686774253    0.027118741562    0.000017475344    0.000012675105    0.025400751320    0.024339636581    0.000019819335    0.000014262358
            0.000018121785    0.000013035369    0.048995281439    0.032178565904    0.000019819335    0.000014262358    0.036570914325    0.028459002055
0.325     0.023069798649    0.036668210122    0.000018955684    0.000011797291    0.037879103883    0.032956419786    0.000021034048    0.000012854452
            0.000018955684    0.000011797291    0.035259579706    0.035539717429    0.000020216649    0.000012730041    0.049014066899    0.034517142227
            0.037879103883    0.032956419786    0.000020216649    0.000012730041    0.023573195376    0.036267487210    0.000022974288    0.000014041750
            0.000021034048    0.000012854452    0.049014066899    0.034517142227    0.000022974288    0.000014041750    0.036110291535    0.036302175143
0.350     0.025288597715    0.050684878854    0.000021845142    0.000011290882    0.038360936253    0.040961669888    0.000024187746    0.000012136743
            0.000021845142    0.000011290882    0.036998945039    0.044907359903    0.000023282547    0.000012314951    0.049911271177    0.038332000830
            0.038360936253    0.040961669888    0.000023282547    0.000012314951    0.025716453889    0.050000093080    0.000026375623    0.000013247767
            0.000024187746    0.000012136743    0.049911271177    0.038332000830    0.000026375623    0.000013247767    0.038002959453    0.045448656731
0.375     0.032284881691    0.065002097465    0.000024892633    0.000010176723    0.042047663708    0.050144813882    0.000027448679    0.000010757356
            0.000024892633    0.000010176723    0.041713820434    0.054800398459    0.000026563401    0.000011272667    0.052359131508    0.043228526636
            0.042047663708    0.050144813882    0.000026563401    0.000011272667    0.032529604496    0.064052343219    0.000029882527    0.000011752854
            0.000027448679    0.000010757356    0.052359131508    0.043228526636    0.000029882527    0.000011752854    0.042783484290    0.055078970558
0.400     0.044153664066    0.077884486250    0.000027921620    0.000008363235    0.049408586911    0.059206313223    0.000030627544    0.000008642966
            0.000027921620    0.000008363235    0.049641487092    0.064193456551    0.000029880811    0.000009488986    0.056847059729    0.048572525707
            0.049408586911    0.059206313223    0.000029880811    0.000009488986    0.044116741100    0.076729802512    0.000033298065    0.000009482694
            0.000030627544    0.000008642966    0.056847059729    0.048572525707    0.000033298065    0.000009482694    0.050677267258    0.064201976044
0.425     0.060327517130    0.087635642302    0.000030711935    0.000005830107    0.060369229928    0.066736814674    0.000033498661    0.000005794729
            0.000030711935    0.000005830107    0.060640048090    0.072000526773    0.000033003661    0.000006921448    0.063592045101    0.053568894003
            0.060369229928    0.066736814674    0.000033003661    0.000006921448    0.059935137395    0.086371166833    0.000036388082    0.000006439952
            0.000033498661    0.000005794729    0.063592045101    0.053568894003    0.000036388082    0.000006439952    0.061543996706    0.071768871454
0.450     0.079651023487    0.092861891027    0.000033041858    0.000002647165    0.074332367946    0.071451114344    0.000035842853    0.000002304046
            0.000033041858    0.000002647165    0.074194900117    0.077227920300    0.000035691439    0.000003622519    0.072509686662    0.057385782071
            0.074332367946    0.071451114344    0.000035691439    0.000003622519    0.078867028163    0.091606804920    0.000038925340    0.000002719809
            0.000035842853    0.000002304046    0.072509686662    0.057385782071    0.000038925340    0.000002719809    0.074883344744    0.076820552303
0.475     0.100541069332    0.092660544283    0.000034722146    -0.000001031966    0.090269773980    0.072364093976    0.000037480620    -0.000001657143
            0.000034722146    -0.000001031966    0.089466507145    0.079096414606    0.000037729962    -0.000000265263    0.083214946737    0.059260125929
            0.090269773980    0.072364093976    0.000037729962    -0.000000265263    0.099372310338    0.091543295216    0.000040723542    -0.000001499048
            0.000037480620    -0.000001657143    0.083214946737    0.059260125929    0.000040723542    -0.000001499048    0.089882652858    0.078606004474
0.500     0.121213834768    0.086732745853    0.000035637351    -0.000004991617    0.106890160300    0.068918040100    0.000038310870    -0.000005859715
            0.000035637351    -0.000004991617    0.105399599082    0.077147696011    0.000038975242    -0.000004527743    0.095085324200    0.058605545764
            0.106890160300    0.068918040100    0.000038975242    -0.000004527743    0.119711149047    0.085873316158    0.000041677256    -0.000005979223
            0.000038310870    -0.000005859715    0.095085324200    0.058605545764    0.000041677256    -0.000005979223    0.105522223483    0.076682865146
0.525     0.139902198113    0.075383156909    0.000035755535    -0.000008990041    0.122798566771    0.061015212491    0.000038318932    -0.000010054473
            0.000035755535    -0.000008990041    0.120839807003    0.071286942966    0.000039367231    -0.000008915601    0.107329453709    0.055069577714
            0.122798566771    0.061015212491    0.000039367231    -0.000008915601    0.138156307590    0.074880254752    0.000041770754    -0.000010462440
            0.000038318932    -0.000010054473    0.107329453709    0.055069577714    0.000041770754    -0.000010462440    0.120686594220    0.070960343718
0.550     0.155059275496    0.059458092909    0.000035136982    -0.000012797704    0.136662986268    0.049005369288    0.000037582877    -0.000014010050
            0.000035136982    -0.000012797704    0.134671502700    0.061790090406    0.000038940953    -0.000013182277    0.119090551423    0.048573366862
            0.136662986268    0.049005369288    0.000038940953    -0.000013182277    0.153188899775    0.059375384353    0.000041083803    -0.000014708640
            0.000037582877    -0.000014010050    0.119090551423    0.048573366862    0.000041083803    -0.000014708640    0.134298225834    0.061703979432
0.575     0.165488750959    0.040222829664    0.000033910549    -0.000016226940    0.147321890386    0.033620778012    0.000036248452    -0.000017542304
            0.000033910549    -0.000016226940    0.145920066651    0.049259240479    0.000037806496    -0.000017115394    0.129521264920    0.039303371960
            0.147321890386    0.033620778012    0.000037806496    -0.000017115394    0.163629987027    0.040582825903    0.000039766460    -0.000018526799
            0.000036248452    -0.000017542304    0.129521264920    0.039303371960    0.000039766460    -0.000018526799    0.145416007957    0.049494139870
0.600     0.170443509314    0.019228349187    0.000032256983    -0.000019154342    0.153887042394    0.015907140731    0.000034512008    -0.000020535668
            0.000032256983    -0.000019154342    0.153849976670    0.034555303738    0.000036134241    -0.000020561579    0.137873920281    0.027694047000
            0.153887042394    0.015907140731    0.000036134241    -0.000020561579    0.168734440052    0.020008320748    0.000038021011    -0.000021796794
            0.000034512008    -0.000020535668    0.137873920281    0.027694047000    0.000038021011    -0.000021796794    0.153328690834    0.035160145606
0.625     0.169661226769    -0.001827601199    0.000030374931    -0.000021525632    0.155795042064    -0.002864300426    0.000032585122    -0.000022948397
            0.000030374931    -0.000021525632    0.158012710423    0.018710906360    0.000034121960    -0.000023434226    0.143548943398    0.014381074054
            0.155795042064    -0.002864300426    0.000034121960    -0.000023434226    0.168228520971    -0.000695825658    0.000036065415    -0.000024475047
            0.000032585122    -0.000022948397    0.143548943423    0.014381073803    0.000036065415    -0.000024475047    0.157601063071    0.019695545054
0.650     0.163389332457    -0.021233491953    0.000028463192    -0.000023357559    0.152875500862    -0.021276195981    0.000030676499    -0.000024813523
            0.000028463192    -0.000023357559    0.158285500589    0.002839077208    0.000031978520    -0.000025718197    0.146159065035    0.000157596820
            0.152875500824    -0.021276196248    0.000031978519    -0.000025718198    0.162334202543    -0.019858033044    0.000034114360    -0.000026595168
            0.000030676499    -0.000024813523    0.146159065035    0.000157596746    0.000034114360    -0.000026595168    0.158111900387    0.004172652422
0.675     0.152371598232    -0.037391081683    0.000026694402    -0.000024724768    0.145381399342    -0.037869167063    0.000028963791    -0.000026226283
            0.000026694402    -0.000024724768    0.154869563678    -0.011957528025    0.000029896215    -0.000027460607    0.145551349655    -0.014089524419
            0.145381399342    -0.037869167063    0.000029896215    -0.000027460607    0.151756557542    -0.035912407260    0.000032349851    -0.000028254876
            0.000028963791    -0.000026226283    0.145551349655    -0.014089524419    0.000032349851    -0.000028254876    0.155050350857    -0.010347129944
0.700     0.137831663777    -0.048952027593    0.000025207286    -0.000025752285    0.134036011947    -0.051259580688    0.000027584373    -0.000027335712
            0.000025207286    -0.000025752285    0.148286101900    -0.024675853345    0.000028042270    -0.000028765777    0.141849838704    -0.027444447257
            0.134036011947    -0.051259580688    0.000028042270    -0.000028765777    0.137669926215    -0.047529797797    0.000030912803    -0.000029606782
            0.000027584373    -0.000027335712    0.141849838704    -0.027444447257    0.000030912803    -0.000029606782    0.148913334267    -0.022897402258
0.725     0.121410900957    -0.054961615072    0.000024092006    -0.000026598098    0.120019672635    -0.060296014503    0.000026617440    -0.000028324933
            0.000024092006    -0.000026598098    0.139336136368    -0.034497326427    0.000026540883    -0.000029781571    0.135450560823    -0.039043287423
            0.120019672635    -0.060296014503    0.000026540883    -0.000029781571    0.121658540770    -0.053759218060    0.000029883400    -0.000030838413
            0.000026617440    -0.000028324933    0.135450560823    -0.039043287423    0.000029883400    -0.000030838413    0.140465247742    -0.032688646445
0.750     0.105070280224    -0.055013676257    0.000023388837    -0.000027446424    0.104931411595    -0.064233133265    0.000026082420    -0.000029400981
            0.000023388837    -0.000027446424    0.129054811086    -0.040870447855    0.000025469710    -0.000030693513    0.127027816463    -0.048160553504
            0.104931411595    -0.064233133265    0.000025469710    -0.000030693513    0.105624975035    -0.054175828461    0.000029281494    -0.000032161264
            0.000026082420    -0.000029400981    0.127027816463    -0.048160553504    0.000029281494    -0.000032161264    0.130696638653    -0.039185331758
0.775     0.090909206431    -0.049386059848    0.000023077537    -0.000028490433    0.090637770177    -0.062911796100    0.000025927218    -0.000030772938
            0.000023077536    -0.000028490434    0.118627694299    -0.043581408409    0.000024844080    -0.000031709653    0.117477918378    -0.054304057445
            0.090637770177    -0.062911796100    0.000024844080    -0.000031709653    0.091615736343    -0.049018529861    0.000029053141    -0.000033789196
            0.000025927218    -0.000030772938    0.117477918378    -0.054304057445    0.000029053141    -0.000033789196    0.120741944556    -0.042175765790
0.800     0.080917015464    -0.039125415768    0.000023076325    -0.000029925361    0.079060371833    -0.056889249360    0.000026030270    -0.000032639044
            0.000023076325    -0.000029925361    0.109291106347    -0.042811214854    0.000024611467    -0.000033051750    0.107859414184    -0.057298319069
