# GHz S RI R 45
0.000     0.016368130000    0.000000000000    -0.000005003976    0.000000000000    0.000545668830    -0.000000000000    -0.000008265104    0.000000000000
            -0.000005003800    0.000000000000    0.016422509000    0.000000000000    -0.000042688556    0.000000000000    0.000273353370    0.000000000000
            0.000545660620    -0.000000000000    -0.000042688460    0.000000000000    0.016244565000    0.000000000000    0.000005039651    -0.000000000000
            -0.000008264908    0.000000000000    0.000273355430    0.000000000000    0.000005039579    -0.000000000000    0.016240970000    0.000000000000
0.025     0.021364111842    0.009159550115    -0.000016636256    -0.000032953123    0.002639470889    0.009286413819    -0.000014863322    -0.000027188008
            -0.000016636081    -0.000032953205    0.020437082473    0.010456684685    -0.000039664327    -0.000028796619    0.001722746838    0.010741402834
            0.002639439821    0.009286464753    -0.000039664235    -0.000028796636    0.021305307562    0.009147630800    -0.000026561252    -0.000047431849
            -0.000014863145    -0.000027188044    0.001722625811    0.010741236906    -0.000026561301    -0.000047431839    0.020443981727    0.010536839247
0.050     0.028589809053    0.013617791831    -0.000038123855    -0.000055979799    0.008433841607    0.016904916560    -0.000031218372    -0.000049991227
            -0.000038123764    -0.000055979834    0.025079577070    0.017088119837    -0.000064317172    -0.000065648363    0.005617822946    0.020477873209
            0.008433821854    0.016904930885    -0.000064317085    -0.000065648389    0.028527410912    0.013597678812    -0.000055362685    -0.000064682170
            -0.000031218190    -0.000049991285    0.005617853339    0.020477860723    -0.000055362685    -0.000064682170    0.025101363834    0.017067993868
0.075     0.037639332581    0.014581481395    -0.000067421587    -0.000069380716    0.016997376504    0.021548204592    -0.000056104303    -0.000065505200
            -0.000067421401    -0.000069380816    0.030304411838    0.021925483465    -0.000105745530    -0.000081979452    0.011420952897    0.028613233429
            0.016997363850    0.021548213300    -0.000105745433    -0.000081979495    0.037572318097    0.014562872174    -0.000085630403    -0.000075846816
            -0.000056104154    -0.000065505327    0.011420959261    0.028613231966    -0.000085630444    -0.000075846800    0.030246031334    0.021868217274
0.100     0.047279636779    0.011343750061    -0.000100780486    -0.000071356984    0.027025274435    0.022376921977    -0.000086375758    -0.000071981456
            -0.000100780391    -0.000071357049    0.035650762947    0.024902074373    -0.000150426645    -0.000079188949    0.018471766638    0.034750075578
            0.027025273230    0.022376928136    -0.000150426559    -0.000079189004    0.047217673675    0.011338003561    -0.000119952003    -0.000078269374
            -0.000086375594    -0.000071981574    0.018471768458    0.034750074611    -0.000119952091    -0.000078269312    0.035491585339    0.024874312076
0.125     0.055800993831    0.003702834982    -0.000133763630    -0.000062273225    0.037016688050    0.019058533661    -0.000119094390    -0.000068503970
            -0.000133763530    -0.000062273320    0.040393236413    0.026178106220    -0.000192469389    -0.000060526449    0.026058696507    0.038764122259
            0.037016688389    0.019058539557    -0.000192469320    -0.000060526501    0.055761977408    0.003706903847    -0.000155804825    -0.000070873718
            -0.000119094242    -0.000068504107    0.026058699095    0.038764121725    -0.000155804899    -0.000070873653    0.040151227581    0.026245033965
0.150     0.061716954799    -0.007776729700    -0.000163262136    -0.000043363509    0.045448364031    0.011741397214    -0.000151512581    -0.000055225922
            -0.000163262014    -0.000043363660    0.044118841415    0.026254142506    -0.000226919878    -0.000028700930    0.033452471836    0.040723168293
            0.045448366674    0.011741402974    -0.000226919819    -0.000028701003    0.061726000822    -0.007755701168    -0.000190744743    -0.000053233312
            -0.000151512524    -0.000055225991    0.033452464246    0.040723170646    -0.000190744743    -0.000053233312    0.043825997443    0.026461765332
0.175     0.063553694650    -0.022118251874    -0.000187087445    -0.000017016645    0.050913385567    0.001110546231    -0.000181341606    -0.000032768698
            -0.000187087350    -0.000017016801    0.046445284057    0.025677577214    -0.000251003134    0.000011770842    0.040020242410    0.040974095477
            0.050913390366    0.001110555492    -0.000251003088    0.000011770752    0.063636789488    -0.022093218267    -0.000222432496    -0.000025997738
            -0.000181341512    -0.000032768878    0.040020243824    0.040974095494    -0.000222432520    -0.000025997702    0.046160768958    0.026054721119
0.200     0.060279255775    -0.037839048523    -0.000204485465    0.000014210758    0.052296197613    -0.011704136537    -0.000206818702    -0.000002054835
            -0.000204485398    0.000014210574    0.047219666530    0.025150759229    -0.000264401677    0.000056491696    0.045310748638    0.040061126168
            0.052296202538    -0.011704132847    -0.000264401608    0.000056491537    0.060458218186    -0.037837581906    -0.000249036839    0.000009656615
            -0.000206818631    -0.000002055014    0.045310741496    0.040061129716    -0.000249036885    0.000009656704    0.047012585640    0.025698966471
0.225     0.051396504472    -0.053145180286    -0.000215722505    0.000048339251    0.048892635884    -0.025236248645    -0.000226400234    0.000035985959
            -0.000215722460    0.000048339083    0.046585317390    0.025403524388    -0.000268314979    0.000102160438    0.049107313741    0.038643260942
            0.048892645180    -0.025236243717    -0.000268314988    0.000102160442    0.051683126749    -0.053207188343    -0.000269172447    0.000052627628
            -0.000226400196    0.000035985750    0.049107315876    0.038643259846    -0.000269172447    0.000052627628    0.046523166469    0.026094439612
0.250     0.037037374614    -0.066113698920    -0.000221653158    0.000084302448    0.040508427004    -0.037825839275    -0.000238687231    0.000080417805
            -0.000221653142    0.000084302265    0.044974516332    0.027090600350    -0.000264893475    0.000147139422    0.051458400088    0.037411144070
            0.040508432568    -0.037825839177    -0.000264893475    0.000147139422    0.037428897226    -0.066286752585    -0.000281682663    0.000101818259
            -0.000238687212    0.000080417613    0.051458403012    0.037411143450    -0.000281682663    0.000101818259    0.045109860321    0.027870051660
0.275     0.017969782856    -0.074895346136    -0.000222977076    0.000121971346    0.027505473713    -0.047781379397    -0.000242131351    0.000130162435
            -0.000222977114    0.000121970861    0.043066616827    0.030665140378    -0.000255990379    0.000191347834    0.052670833408    0.036983715288
            0.027505483713    -0.047781379410    -0.000255990379    0.000191347834    0.018444986514    -0.075229289536    -0.000285341690    0.000156232570
            -0.000242131351    0.000130162435    0.052670836336    0.036983714599    -0.000285341690    0.000156232570    0.043428462453    0.031459470628
0.300     -0.004427737293    -0.077929631709    -0.000219802312    0.000161872593    0.010804238919    -0.053568650345    -0.000235094959    0.000183815975
            -0.000219802312    0.000161872593    0.041701436638    0.036307500509    -0.000242523017    0.000235961375    0.053276091915    0.037822345941
            0.010804243648    -0.053568654492    -0.000242523017    0.000235961375    -0.003910077724    -0.078470252174    -0.000278793168    0.000214651277
            -0.000235094959    0.000183815975    0.053276094866    0.037822345239    -0.000278793168    0.000214651277    0.042288617766    0.037034794117
0.325     -0.028279647411    -0.074131995257    -0.000211281728    0.000204565122    -0.008178263145    -0.053987276355    -0.000215898331    0.000239335478
            -0.000211281742    0.000204565064    0.041767521230    0.043860779127    -0.000223845819    0.000282430527    0.053954223422    0.040147373670
            -0.008178259975    -0.053987280881    -0.000223845825    0.000282430535    -0.027779935912    -0.074912505163    -0.000260523129    0.000275378390
            -0.000215898331    0.000239335478    0.053954227129    0.040147372039    -0.000260523095    0.000275378450    0.042547067310    0.044442774186
0.350     -0.051381620670    -0.063063954665    -0.000195786916    0.000249998549    -0.027654470299    -0.048339451854    -0.000183191170    0.000293945032
            -0.000195786923    0.000249998557    0.044076693304    0.052837568813    -0.000197831242    0.000331683334    0.055441868163    0.043899413947
            -0.027654472782    -0.048339456194    -0.000197831242    0.000331683334    -0.050975447288    -0.064097525868    -0.000229248655    0.000335900961
            -0.000183191609    0.000293944251    0.055441872029    0.043899412286    -0.000229248660    0.000335900969    0.044986927825    0.053211998367
0.375     -0.071424830566    -0.045018929664    -0.000171399396    0.000296773648    -0.045643574477    -0.036538750311    -0.000136331347    0.000344072405
            -0.000171399391    0.000296773640    0.049235637498    0.062449371364    -0.000161343153    0.000383118833    0.058411117460    0.048725167645
            -0.045643572003    -0.036538761402    -0.000161343458    0.000383118433    -0.071196152248    -0.046292653163    -0.000184383048    0.000392667196
            -0.000136331291    0.000344072438    0.058411120780    0.048725165227    -0.000184383057    0.000392667214    0.050194024358    0.062580231030
0.400     -0.086255953810    -0.021045516646    -0.000136876285    0.000341568167    -0.060198067890    -0.019160926030    -0.000075868999    0.000385711815
            -0.000136876285    0.000341568167    0.057547236428    0.071708587733    -0.000111197585    0.000434279960    0.063369193320    0.054027988083
            -0.060198068357    -0.019160937750    -0.000111197582    0.000434279951    -0.086287968855    -0.022516155669    -0.000126866195    0.000440868992
            -0.000075868999    0.000385711815    0.063369196910    0.054027985414    -0.000126866129    0.000440869052    0.058461627626    0.071592644614
0.425     -0.094121725358    0.007139547159    -0.000092450719    0.000377764929    -0.069621413487    0.002599333917    -0.000003891578    0.000414873899
            -0.000092450714    0.000377764910    0.068943419997    0.079543690793    -0.000045312284    0.000480847164    0.070565389992    0.059040585893
            -0.069621417938    0.002599321915    -0.000045312303    0.000480847182    -0.094486220490    0.005546279412    -0.000059611272    0.000473307121
            -0.000003891578    0.000414873899    0.070565392053    0.059040583430    -0.000059611272    0.000473307121    0.069725397699    0.079212196167
0.450     -0.093884572838    0.037316288835    -0.000036090592    0.000392023011    -0.072676072983    0.027048638533    0.000075650723    0.000428169876
            -0.000036091421    0.000392022574    0.082984148466    0.084950543778    0.000036071043    0.000517234910    0.079956724854    0.062943461315
            -0.072676076732    0.027048639928    0.000036071116    0.000517234915    -0.094631777335    0.035704963591    0.000016832439    0.000476576476
            0.000075650706    0.000428169910    0.079956728150    0.062943457128    0.000016832440    0.000476576506    0.083561399759    0.084464557316
0.475     -0.085149023912    0.066994485466    0.000054535263    0.000380231438    -0.068711284939    0.052180490543    0.000157562173    0.000422071425
            0.000054535287    0.000380231414    0.098899087343    0.087116004922    0.000130275477    0.000536162672    0.091202708536    0.064969513310
            -0.068711283244    0.052180451439    0.000130275486    0.000536162669    -0.086298087995    0.065499303605    0.000124892372    0.000448120764
            0.000157562184    0.000422071432    0.091202711938    0.064969508534    0.000124892364    0.000448120766    0.099224812393    0.086558665140
0.500     -0.068306943568    0.093674226831    0.000167229149    0.000379153143    -0.057727461964    0.075906612025    0.000238876211    0.000394954263
            0.000167229154    0.000379153119    0.115688120877    0.085527400855    0.000235264131    0.000532191094    0.103719659487    0.064512274641
            -0.057727477634    0.075906605134    0.000235263216    0.000532190908    -0.069837772450    0.092479732105    0.000249272618    0.000430084556
            0.000238876265    0.000394954289    0.103719659487    0.064512274641    0.000249272633    0.000430084582    0.115744386330    0.084991525778
0.525     -0.044477285116    0.115089829337    0.000264243187    0.000369558048    -0.040347470450    0.096383840294    0.000316222495    0.000350333966
            0.000264243149    0.000369558050    0.132236615359    0.080019524725    0.000345057169    0.000504429093    0.116746038199    0.061190615204
            -0.040347470450    0.096383840294    0.000345056703    0.000504429073    -0.046371433034    0.114653816299    0.000351349014    0.000402812793
            0.000316222488    0.000350333959    0.116746041402    0.061190609091    0.000351349484    0.000402812807    0.132029469971    0.079603995169
0.550     -0.015387954986    0.129443324648    0.000349340904    0.000335996627    -0.018771959360    0.110845416506    0.000382812308    0.000292437014
            0.000349340910    0.000335996621    0.147448069147    0.070786032899    0.000445405110    0.000453152394    0.129453005594    0.054897909229
            -0.018771964899    0.110845425711    0.000445405110    0.000453152394    -0.018920649416    0.128052720684    0.000431375085    0.000355250122
            0.000382812313    0.000292437007    0.129452998304    0.054897900806    0.000431375078    0.000355250130    0.147015271265    0.070606299523
0.575     0.016821833882    0.135407422011    0.000422878445    0.000280356635    0.007891889291    0.119496892974    0.000435035904    0.000222860071
            0.000422878458    0.000280356633    0.160344019658    0.058337635905    0.000540124893    0.000373839381    0.141037410850    0.045768814373
            0.007891885119    0.119496893249    0.000540124893    0.000373839381    0.013997551495    0.134865801622    0.000501306632    0.000284300020
            0.000435035878    0.000222860057    0.141037414045    0.045768804527    0.000501306629    0.000284300007    0.159794235861    0.058499586968
0.600     0.049662601451    0.132231657016    0.000481389066    0.000206998465    0.035686263832    0.120795355334    0.000471334449    0.000145321739
            0.000481389079    0.000206998461    0.170160054664    0.043446917254    0.000616294288    0.000275955764    0.150760573569    0.034147650030
            0.035686261724    0.120795355957    0.000616294288    0.000275955764    0.046902729816    0.132676895438    0.000554577228    0.000201859020
            0.000471334451    0.000145321731    0.150760566200    0.034147637295    0.000554577232    0.000201859010    0.169635455502    0.043986014453
0.625     0.080192915095    0.120617288079    0.000522743138    0.000123174903    0.062831861822    0.114856394904    0.000492353450    0.000065737896
            0.000522743120    0.000123174889    0.176394621469    0.027063987125    0.000670147773    0.000163067737    0.157992091778    0.020592414671
            0.062831859817    0.114856396000    0.000670147799    0.000163067756    0.078130235579    0.121640476949    0.000590892542    0.000110901446
            0.000492352653    0.000065738355    0.157992092425    0.020592409707    0.000590892566    0.000110901429    0.176024725308    0.027962905446
0.650     0.107150414751    0.101197069192    0.000546839072    0.000031134281    0.087975478928    0.101793629004    0.000500164037    -0.000015261521
            0.000546838349    0.000031134835    0.178846393417    0.010227161063    0.000699187079    0.000041407330    0.162297675343    0.005827403491
            0.087975483691    0.101793638105    0.000699187059    0.000041407325    0.105411098185    0.102494437747    0.000610387553    0.000015456512
            0.000500164036    -0.000015261538    0.162297675648    0.005827394993    0.000610387553    0.000015456521    0.178747751700    0.011435111059
0.675     0.128052629645    0.074878462779    0.000551596483    -0.000063729167    0.108952785590    0.082195598404    0.000494681053    -0.000094717607
            0.000551596149    -0.000063728833    0.177608587286    -0.006017011214    0.000702891508    -0.000082542583    0.163454954292    -0.009324282890
            0.108952792138    0.082195606328    0.000702891173    -0.000082542261    0.126708885847    0.076526468097    0.000613860401    -0.000081207519
            0.000494681051    -0.000094717616    0.163454944097    -0.009324286029    0.000613860402    -0.000081207508    0.177882500850    -0.004583787484
0.700     0.141179949132    0.043579105846    0.000538222481    -0.000156582812    0.124103333528    0.057373576497    0.000477848941    -0.000170729250
            0.000538221948    -0.000156582066    0.173070423792    -0.020694319393    0.000682642846    -0.000202773132    0.161490587876    -0.023995349261
            0.124103341603    0.057373582859    0.000682642824    -0.000202773138    0.140362891417    0.045499479032    0.000602535251    -0.000176633117
            0.000477848935    -0.000170729267    0.161490587876    -0.023995349261    0.000602535254    -0.000176633106    0.173793961098    -0.019149931004
0.725     0.145388574830    0.009514261887    0.000508840595    -0.000243782515    0.132129093099    0.028981775168    0.000451363954    -0.000242520672
            0.000508840591    -0.000243782524    0.165882365683    -0.032972193462    0.000641365968    -0.000314325741    0.156676227454    -0.037341112480
            0.132129102867    0.028981777311    0.000641365968    -0.000314325741    0.145194021111    0.011565241847    0.000577712117    -0.000269137157
            0.000451363954    -0.000242520672    0.156676226803    -0.037341115214    0.000577712122    -0.000269137147    0.167097723206    -0.031456436157
0.750     0.140121835473    -0.024858035679    0.000466214907    -0.000322833257    0.132168482448    -0.001005871854    0.000416483555    -0.000309980564
            0.000466214907    -0.000322833257    0.156925436395    -0.042235405851    0.000583060404    -0.000413766658    0.149547182458    -0.048609969188
            0.132168482449    -0.001005871715    0.000583060404    -0.000413766658    0.140599183602    -0.022851814799    0.000540553311    -0.000357692071
            0.000416483555    -0.000309980564    0.149547182458    -0.048609969188    0.000540553317    -0.000357692061    0.158632357667    -0.040901082592
0.775     0.125474734973    -0.056958803329    0.000413270149    -0.000392433413    0.123881925606    -0.030382478365    0.000373793135    -0.000373333260
            0.000413270171    -0.000392433434    0.147246139892    -0.048146222749    0.000512079649    -0.000499390140    0.140861548845    -0.057229268141
            0.123881914666    -0.030382439007    0.000512079628    -0.000499390119    0.126620690028    -0.055189937442    0.000491771905    -0.000441696356
            0.000373793135    -0.000373333260    0.140861548845    -0.057229268141    0.000491771913    -0.000441696347    0.149395574550    -0.047148184715
