# GHz S RI R 45
0.000     0.016823658000    0.000000000000    -0.000014985968    0.000000000000    0.000464517390    0.000000000000    -0.000003471666    0.000000000000
            -0.000014985990    0.000000000000    0.016422509000    0.000000000000    -0.000001525070    0.000000000000    0.000273353370    0.000000000000
            0.000464517340    0.000000000000    -0.000001525035    0.000000000000    0.016815384000    0.000000000000    -0.000007682753    0.000000000000
            -0.000003471650    0.000000000000    0.000273355430    0.000000000000    -0.000007682784    0.000000000000    0.016240970000    0.000000000000
0.025     0.021127336235    0.010087383235    -0.000019205861    -0.000010889131    0.001954004346    0.010200607832    -0.000015954044    -0.000017501576
            -0.000019205858    -0.000010889129    0.020437082473    0.010456684685    -0.000016296605    -0.000017837554    0.001722746838    0.010741402834
            0.001953881227    0.010200442034    -0.000016296610    -0.000017837553    0.021050042128    0.010107495806    -0.000012705222    -0.000013709176
            -0.000015954048    -0.000017501573    0.001722625811    0.010741236906    -0.000012705225    -0.000013709174    0.020443981727    0.010536839247
0.050     0.025959517631    0.016078301428    -0.000023120575    -0.000018199306    0.005899505811    0.019316891845    -0.000023018948    -0.000022826804
            -0.000023120575    -0.000018199306    0.025079577070    0.017088119837    -0.000023970124    -0.000020998516    0.005617822946    0.020477873209
            0.005899535907    0.019316880562    -0.000023970123    -0.000020998516    0.025862051733    0.016137513130    -0.000017322235    -0.000022999474
            -0.000023018949    -0.000022826805    0.005617853339    0.020477860723    -0.000017322236    -0.000022999475    0.025101363834    0.017067993868
0.075     0.031326937892    0.020123767449    -0.000027692299    -0.000024820117    0.011733688507    0.026714087112    -0.000027728335    -0.000028559024
            -0.000027692298    -0.000024820116    0.030304411838    0.021925483465    -0.000028240773    -0.000024946031    0.011420952897    0.028613233429
            0.011733693973    0.026714086895    -0.000028240729    -0.000024946035    0.031210621918    0.020240689730    -0.000022616427    -0.000031598307
            -0.000027728340    -0.000028559020    0.011420959261    0.028613231966    -0.000022616427    -0.000031598307    0.030246031334    0.021868217274
0.100     0.036713286165    0.022117393824    -0.000033082655    -0.000030644926    0.018721266752    0.031971890422    -0.000032607601    -0.000034397678
            -0.000033082648    -0.000030644930    0.035650762947    0.024902074373    -0.000032338974    -0.000029302649    0.018471766638    0.034750075578
            0.018721267257    0.031971891285    -0.000032338975    -0.000029302649    0.036588436314    0.022311520037    -0.000028854977    -0.000039343431
            -0.000032607698    -0.000034397661    0.018471768458    0.034750074611    -0.000028855077    -0.000039343408    0.035491585339    0.024874312076
0.125     0.041293597931    0.022210188242    -0.000039212825    -0.000035503066    0.026073736228    0.034972433352    -0.000038076421    -0.000040030658
            -0.000039212824    -0.000035503064    0.040393236413    0.026178106220    -0.000036811246    -0.000033711713    0.026058696507    0.038764122259
            0.026073736228    0.034972433352    -0.000036811246    -0.000033711713    0.041175930347    0.022499131804    -0.000035958327    -0.000046120634
            -0.000038076429    -0.000040030653    0.026058699095    0.038764121725    -0.000035958327    -0.000046120635    0.040151227581    0.026245033965
0.150     0.044541191289    0.020964821713    -0.000045807040    -0.000039519769    0.032984890814    0.035824381554    -0.000044117557    -0.000045397412
            -0.000045807037    -0.000039519767    0.044118841415    0.026254142506    -0.000041721168    -0.000038056635    0.033452471836    0.040723168293
            0.032984890814    0.035824381554    -0.000041721168    -0.000038056635    0.044467094226    0.021360860506    -0.000043690024    -0.000052057133
            -0.000044117556    -0.000045397411    0.033452464246    0.040723170646    -0.000043690025    -0.000052057134    0.043825997443    0.026461765332
0.175     0.045993977901    0.019023291426    -0.000052815920    -0.000042794525    0.038761296164    0.034945129875    -0.000050891294    -0.000050513078
            -0.000052815960    -0.000042794512    0.046445284057    0.025677577214    -0.000047261934    -0.000042328212    0.040020242410    0.040974095477
            0.038761296164    0.034945129875    -0.000047261887    -0.000042328229    0.046004875643    0.019521885573    -0.000052041628    -0.000057294409
            -0.000050891294    -0.000050513078    0.040020243824    0.040974095494    -0.000052041628    -0.000057294409    0.046160768958    0.026054721119
0.200     0.045448508945    0.017216639310    -0.000060236295    -0.000045519674    0.042913645190    0.032974290508    -0.000058495613    -0.000055435221
            -0.000060236292    -0.000045519671    0.047219666530    0.025150759229    -0.000053544343    -0.000046558367    0.045310748638    0.040061126168
            0.042913645190    0.032974290508    -0.000053544342    -0.000046558366    0.045584158484    0.017795913759    -0.000061079434    -0.000062015818
            -0.000058495613    -0.000055435221    0.045310741496    0.040061129716    -0.000061079526    -0.000062015781    0.047012585640    0.025698966471
0.225     0.043046191862    0.016426354195    -0.000068225927    -0.000047745889    0.045221537187    0.030683212693    -0.000067224205    -0.000060093385
            -0.000068225926    -0.000047745889    0.046585317390    0.025403524388    -0.000060868106    -0.000050663452    0.049107313741    0.038643260942
            0.045221537187    0.030683212693    -0.000060868116    -0.000050663442    0.043338645263    0.017048128416    -0.000071042930    -0.000066254214
            -0.000067224207    -0.000060093387    0.049107315876    0.038643259846    -0.000071042930    -0.000066254214    0.046523166469    0.026094439612
0.250     0.039270114657    0.017463681167    -0.000076982916    -0.000049468671    0.045768359865    0.028879995227    -0.000077315983    -0.000064338873
            -0.000076982906    -0.000049468683    0.044974516332    0.027090600350    -0.000069462180    -0.000054492935    0.051458400088    0.037411144070
            0.045768359865    0.028879995227    -0.000069462178    -0.000054492933    0.039737048501    0.018077157588    -0.000082210494    -0.000069931761
            -0.000077315983    -0.000064338873    0.051458403012    0.037411143450    -0.000082210494    -0.000069931761    0.045109860321    0.027870051660
0.275     0.034909676017    0.020923142754    -0.000086736176    -0.000050481356    0.044939478699    0.028292214373    -0.000089064922    -0.000067809107
            -0.000086736176    -0.000050481356    0.043066616827    0.030665140378    -0.000079617182    -0.000057691952    0.052670833408    0.036983715288
            0.044939478699    0.028292214373    -0.000079617149    -0.000057691970    0.035550006705    0.021470522988    -0.000094877138    -0.000072740113
            -0.000089064961    -0.000067809088    0.052670836336    0.036983714599    -0.000094877138    -0.000072740113    0.043428462453    0.031459470628
0.300     0.030966100694    0.027089866756    -0.000097647228    -0.000050460415    0.043384230160    0.029464207856    -0.000102615406    -0.000070021478
            -0.000097647219    -0.000050460410    0.041701436638    0.036307500509    -0.000091468664    -0.000059799571    0.053276091915    0.037822345941
            0.043384230160    0.029464207856    -0.000091468656    -0.000059799566    0.031757288236    0.027513515274    -0.000109234223    -0.000074208749
            -0.000102615414    -0.000070021484    0.053276094866    0.037822345239    -0.000109234223    -0.000074208749    0.042288617766    0.037034794117
0.325     0.028529653844    0.035853922514    -0.000109736779    -0.000048904487    0.041932533343    0.032657904013    -0.000117966557    -0.000070301784
            -0.000109736858    -0.000048904431    0.041767521230    0.043860779127    -0.000105022097    -0.000060169995    0.053954223422    0.040147373670
            0.041932533343    0.032657904013    -0.000105022097    -0.000060169995    0.029428022001    0.036104772693    -0.000125282250    -0.000073672560
            -0.000117966641    -0.000070301722    0.053954227129    0.040147372039    -0.000125282293    -0.000073672526    0.042547067310    0.044442774186
0.350     0.028628051973    0.046701622829    -0.000122812623    -0.000045268401    0.041483704612    0.037801072809    -0.000134832992    -0.000067953839
            -0.000122812702    -0.000045268332    0.044076693304    0.052837568813    -0.000120003257    -0.000058143988    0.055441868163    0.043899413947
            0.041483704612    0.037801072809    -0.000120003257    -0.000058143988    0.029572437157    0.046747351643    -0.000142749896    -0.000070417398
            -0.000134833064    -0.000067953786    0.055441872029    0.043899412286    -0.000142749896    -0.000070417398    0.044986927825    0.053211998367
0.375     0.032072945026    0.058741121961    -0.000136410507    -0.000039007328    0.042866085284    0.044469200772    -0.000152629702    -0.000062286841
            -0.000136410550    -0.000039007289    0.049235637498    0.062449371364    -0.000135859765    -0.000053067626    0.058411117460    0.048725167645
            0.042866085284    0.044469200772    -0.000135859765    -0.000053067626    0.032991169961    0.058571932984    -0.000161028403    -0.000063752437
            -0.000152629722    -0.000062286818    0.058411120780    0.048725165227    -0.000161028403    -0.000063752437    0.050194024358    0.062580231030
0.400     0.039326744948    0.070810439124    -0.000149821179    -0.000029758610    0.046709781336    0.051940540002    -0.000170476749    -0.000052847381
            -0.000149821259    -0.000029758517    0.057547236428    0.071708587733    -0.000151756202    -0.000044520009    0.063369193320    0.054027988083
            0.046709779761    0.051940540074    -0.000151756131    -0.000044520075    0.040144913152    0.070443294990    -0.000179211817    -0.000053215053
            -0.000170476749    -0.000052847381    0.063369196910    0.054027985414    -0.000179211807    -0.000053215051    0.058461627626    0.071592644614
0.425     0.050413633976    0.081614792693    -0.000162145784    -0.000017419899    0.053337406376    0.059286094320    -0.000187283788    -0.000039477911
            -0.000162145817    -0.000017419873    0.068943419997    0.079543690793    -0.000166664329    -0.000032361369    0.070565389992    0.059040585893
            0.053337406376    0.059286094320    -0.000166664329    -0.000032361369    0.051065932816    0.081092787830    -0.000196168649    -0.000038672784
            -0.000187283788    -0.000039477911    0.070565392053    0.059040583430    -0.000196168712    -0.000038672726    0.069725397699    0.079212196167
0.450     0.064901826673    0.089906301093    -0.000172458649    -0.000002261762    0.062715947705    0.065510296481    -0.000201924236    -0.000022467167
            -0.000172458639    -0.000002261762    0.082984148466    0.084950543778    -0.000179525270    -0.000016880200    0.079956724854    0.062943461315
            0.062715947705    0.065510296481    -0.000179525270    -0.000016880200    0.065339423977    0.089294162572    -0.000210738089    -0.000020445688
            -0.000201924308    -0.000022467068    0.079956728150    0.062943457128    -0.000210738089    -0.000020445688    0.083561399759    0.084464557316
0.475     0.081946421623    0.094640831193    -0.000179942498    0.000015104185    0.074456271629    0.069681379448    -0.000213395115    -0.000002494115
            -0.000179942491    0.000015104152    0.098899087343    0.087116004922    -0.000189409105    0.000001266641    0.091202708536    0.064969513310
            0.074456271629    0.069681379448    -0.000189409105    0.000001266641    0.082144691737    0.094018694575    -0.000221893464    0.000000725566
            -0.000213395399    -0.000002493746    0.091202711938    0.064969508534    -0.000221893454    0.000000725566    0.099224812393    0.086558665140
0.500     0.100400229053    0.095115061166    -0.000184070650    0.000033774087    0.087876528960    0.071059087373    -0.000221020099    0.000019412903
            -0.000184070645    0.000033774120    0.115688120877    0.085527400855    -0.000195695775    0.000021095952    0.103719659487    0.064512274641
            0.087876528960    0.071059087373    -0.000195695775    0.000021095952    0.100362144656    0.094567803263    -0.000228950052    0.000023749307
            -0.000221020099    0.000019412903    0.103719659487    0.064512274641    -0.000228950052    0.000023749307    0.115744386330    0.084991525778
0.525     0.118949746348    0.091034482291    -0.000184656870    0.000052721334    0.102089382221    0.069168031265    -0.000224510052    0.000042072250
            -0.000184656879    0.000052721337    0.132236615359    0.080019524725    -0.000198145102    0.000041490141    0.116746038199    0.061190615204
            0.102089382221    0.069168031265    -0.000198145102    0.000041490141    0.118707472711    0.090642738965    -0.000231642685    0.000047368566
            -0.000224510042    0.000042072248    0.116746041402    0.061190609091    -0.000231642932    0.000047368954    0.132029469971    0.079603995169
0.550     0.136271719653    0.082536297230    -0.000181919315    0.000070938314    0.116115407760    0.063842652391    -0.000224042260    0.000064308767
            -0.000181919315    0.000070938314    0.147448069147    0.070786032899    -0.000196949154    0.000061341322    0.129453005594    0.054897909229
            0.116115407760    0.063842652391    -0.000196949154    0.000061341322    0.135882881047    0.082366068026    -0.000230187153    0.000070346853
            -0.000224042260    0.000064308767    0.129452998304    0.054897900806    -0.000230187153    0.000070346853    0.147015271265    0.070606299523
0.575     0.151159557914    0.070149346384    -0.000176371708    0.000087589165    0.128976691426    0.055218938136    -0.000220132592    0.000085130546
            -0.000176371708    0.000087589165    0.160344019658    0.058337635905    -0.000192631071    0.000079722465    0.141037410850    0.045768814373
            0.128976691426    0.055218938136    -0.000192631071    0.000079722465    0.150703544824    0.070245927597    -0.000225166371    0.000091639767
            -0.000220132592    0.000085130546    0.141037414045    0.045768804527    -0.000225166371    0.000091639767    0.159794235861    0.058499586968
0.600     0.162637278741    0.054727591638    -0.000168773060    0.000102090407    0.139789511853    0.043713745323    -0.000213585955    0.000103810922
            -0.000168773060    0.000102090407    0.170160054664    0.043446917254    -0.000185983907    0.000095974790    0.150760573569    0.034147650030
            0.139789511853    0.043713745323    -0.000185983907    0.000095974790    0.162206619654    0.055110496171    -0.000217459464    0.000110488987
            -0.000213585955    0.000103810922    0.150760566200    0.034147637295    -0.000217459464    0.000110488987    0.169635455502    0.043986014453
0.625     0.170023093440    0.037359230295    -0.000159976576    0.000114158594    0.147820063376    0.029973554911    -0.000205340474    0.000119949895
            -0.000159976726    0.000114159038    0.176394621469    0.027063987125    -0.000177911392    0.000109759214    0.157992091778    0.020592414671
            0.147820063376    0.029973554911    -0.000177911420    0.000109759189    0.169715615501    0.038019225449    -0.000208093862    0.000126486242
            -0.000205340487    0.000119949854    0.157992092425    0.020592409707    -0.000208094202    0.000126487146    0.176024725308    0.027962905446
0.650     0.172980560940    0.019272271315    -0.000150857167    0.000123822374    0.152545223830    0.014831104040    -0.000196385485    0.000133503927
            -0.000150857210    0.000123822322    0.178846393417    0.010227161063    -0.000169353800    0.000121073593    0.162297675343    0.005827403491
            0.152545223855    0.014831103774    -0.000169353800    0.000121073593    0.172888529607    0.020171489950    -0.000198145442    0.000139604199
            -0.000196385509    0.000133503944    0.162297675648    0.005827394993    -0.000198145442    0.000139604199    0.178747751700    0.011435111059
0.675     0.171526402180    0.001741240131    -0.000142176675    0.000131366771    0.153680112257    -0.000755645253    -0.000187599915    0.000144729332
            -0.000142176675    0.000131366771    0.177608587286    -0.006017011214    -0.000161137287    0.000130198876    0.163454954292    -0.009324282890
            0.153680112249    -0.000755646808    -0.000161137287    0.000130198876    0.171729160253    0.002813134117    -0.000188582273    0.000150142142
            -0.000187599891    0.000144729314    0.163454944097    -0.009324286029    -0.000188582239    0.000150142169    0.177882500850    -0.004583787484
0.700     0.166040569820    -0.014005691387    -0.000134564746    0.000137299769    0.151222984130    -0.015758302563    -0.000179734542    0.000154152645
            -0.000134564746    0.000137299769    0.173070423792    -0.020694319393    -0.000153952127    0.000137665963    0.161490587876    -0.023995349261
            0.151222984130    -0.015758302563    -0.000153952127    0.000137665963    0.166594969728    -0.012851228930    -0.000180222850    0.000158690696
            -0.000179734542    0.000154152645    0.161490587876    -0.023995349261    -0.000180222850    0.000158690696    0.173793961098    -0.019149931004
0.725     0.157242638045    -0.026874786831    -0.000128439127    0.000142274189    0.145468167090    -0.029154380701    -0.000173304731    0.000162483986
            -0.000128439114    0.000142274174    0.165882365683    -0.032972193462    -0.000148259444    0.000144170673    0.156676227454    -0.037341112480
            0.145468167090    -0.029154380701    -0.000148259444    0.000144170673    0.158177123559    -0.025747151631    -0.000173637887    0.000166051799
            -0.000173304724    0.000162483979    0.156676226803    -0.037341115214    -0.000173637887    0.000166051799    0.167097723206    -0.031456436157
0.750     0.146168162906    -0.036002768195    -0.000124015376    0.000147060479    0.137029578587    -0.040009780850    -0.000168602028    0.000170591065
            -0.000124015376    0.000147060479    0.156925436395    -0.042235405851    -0.000144301751    0.000150548254    0.149547182458    -0.048609969188
            0.137029578587    -0.040009780850    -0.000144301751    0.000150548254    0.147476647929    -0.035019100668    -0.000169145855    0.000173196255
            -0.000168602028    0.000170591065    0.149547182458    -0.048609969188    -0.000169145855    0.000173196255    0.158632357667    -0.040901082592
0.775     0.134107121094    -0.040848298168    -0.000121252735    0.000152469005    0.126817809544    -0.047586062094    -0.000165615083    0.000179412067
            -0.000121252728    0.000152468997    0.147246139892    -0.048146222749    -0.000142034612    0.000157683531    0.140861548845    -0.057229268141
            0.126817809544    -0.047586062094    -0.000142034632    0.000157683553    0.135745514999    -0.040124443745    -0.000166730559    0.000181178890
            -0.000165615069    0.000179412052    0.140861548845    -0.057229268141    -0.000166730577    0.000181178847    0.149395574550    -0.047148184715
