# GHz S RI R 45
0.000     0.016606757000    0.000000000000    0.000000651312    0.000000000000    0.000550554090    -0.000000000000    -0.000009370696    0.000000000000
            0.000000651380    0.000000000000    0.016422509000    0.000000000000    0.000001093281    0.000000000000    0.000273353370    0.000000000000
            0.000550554090    -0.000000000000    0.000001093407    0.000000000000    0.016426970000    0.000000000000    -0.000031967457    0.000000000000
            -0.000009370674    0.000000000000    0.000273355430    0.000000000000    -0.000031967418    0.000000000000    0.016240970000    0.000000000000
0.025     0.021755793444    0.009468183028    -0.000018877723    -0.000061086034    0.002712201920    0.009618341956    -0.000017289988    -0.000057898222
            -0.000018877677    -0.000061086036    0.020437082473    0.010456684685    -0.000018844186    -0.000064120087    0.001722746838    0.010741402834
            0.002712180009    0.009618390214    -0.000018844059    -0.000064120112    0.021703041926    0.009452744863    -0.000011162145    -0.000045743364
            -0.000017289903    -0.000057898231    0.001722625811    0.010741236906    -0.000011162191    -0.000045743347    0.020443981727    0.010536839247
0.050     0.029146952373    0.014065058195    -0.000054560330    -0.000106191047    0.008676615279    0.017486349992    -0.000050845641    -0.000112564042
            -0.000054560335    -0.000106191056    0.025079577070    0.017088119837    -0.000056409322    -0.000111966257    0.005617822946    0.020477873209
            0.008676603628    0.017486360239    -0.000056409220    -0.000111966297    0.029102889190    0.014048222229    -0.000036513279    -0.000119349609
            -0.000050845539    -0.000112564078    0.005617853339    0.020477860723    -0.000036513320    -0.000119349596    0.025101363834    0.017067993868
0.075     0.038339454949    0.015049927058    -0.000104537941    -0.000138303442    0.017453993627    0.022252698037    -0.000105082846    -0.000151576709
            -0.000104537941    -0.000138303442    0.030304411838    0.021925483465    -0.000109246975    -0.000145874463    0.011420952897    0.028613233429
            0.017453986338    0.022252699941    -0.000109246836    -0.000145874543    0.038320062108    0.015031622826    -0.000097118227    -0.000171626459
            -0.000105082787    -0.000151576738    0.011420959261    0.028613231966    -0.000097118257    -0.000171626442    0.030246031334    0.021868217274
0.100     0.048041992377    0.011716648536    -0.000165389210    -0.000153558475    0.027666012514    0.023061841386    -0.000172589209    -0.000170931243
            -0.000165389115    -0.000153558548    0.035650762947    0.024902074373    -0.000173518076    -0.000161800071    0.018471766638    0.034750075578
            0.027666012514    0.023061841386    -0.000173517934    -0.000161800164    0.048065281460    0.011693639351    -0.000175278376    -0.000198547212
            -0.000172589112    -0.000170931326    0.018471768458    0.034750074611    -0.000175278376    -0.000198547212    0.035491585339    0.024874312076
0.125     0.056474652090    0.003885718528    -0.000232059548    -0.000149821048    0.037736826443    0.019599585516    -0.000247024849    -0.000168561242
            -0.000232059513    -0.000149821083    0.040393236413    0.026178106220    -0.000243775077    -0.000157596677    0.026058696507    0.038764122259
            0.037736826443    0.019599585516    -0.000243774989    -0.000157596740    0.056557969632    0.003858188357    -0.000261673719    -0.000198840082
            -0.000247024773    -0.000168561317    0.026058699095    0.038764121725    -0.000261673762    -0.000198840042    0.040151227581    0.026245033965
0.150     0.062101395474    -0.007789531597    -0.000299493348    -0.000126749521    0.046075637053    0.012066213545    -0.000322566590    -0.000144182650
            -0.000299493348    -0.000126749521    0.044118841415    0.026254142506    -0.000314620964    -0.000132954746    0.033452471836    0.040723168293
            0.046075637053    0.012066213545    -0.000314620848    -0.000132954892    0.062269971923    -0.007844188356    -0.000349125403    -0.000172893932
            -0.000322566522    -0.000144182755    0.033452464246    0.040723170646    -0.000349125452    -0.000172893880    0.043825997443    0.026461765332
0.175     0.063418811203    -0.022244013133    -0.000363363785    -0.000085001695    0.051233228317    0.001226995523    -0.000394129294    -0.000098589382
            -0.000363363760    -0.000085001756    0.046445284057    0.025677577214    -0.000381452108    -0.000088697560    0.040020242410    0.040974095477
            0.051233228317    0.001226995523    -0.000381452029    -0.000088697682    0.063692147617    -0.022356982266    -0.000431392018    -0.000122280495
            -0.000394129240    -0.000098589514    0.040020243824    0.040974095494    -0.000431392048    -0.000122280423    0.046160768958    0.026054721119
0.200     0.059409989064    -0.037889195684    -0.000420052600    -0.000025734125    0.052085165061    -0.011690030482    -0.000457497300    -0.000033139988
            -0.000420052600    -0.000025734125    0.047219666530    0.025150759229    -0.000440500047    -0.000026165973    0.045310748638    0.040061126168
            0.052085165061    -0.011690030482    -0.000440500047    -0.000026165973    0.059798425717    -0.038100593866    -0.000503691592    -0.000049036209
            -0.000457497300    -0.000033139988    0.045310741496    0.040061129716    -0.000503691592    -0.000049036209    0.047012585640    0.025698966471
0.225     0.049637086367    -0.052825589895    -0.000466253982    0.000049836736    0.047957698844    -0.025114161702    -0.000508763104    0.000050595946
            -0.000466253982    0.000049836736    0.046585317390    0.025403524388    -0.000488348888    0.000053242780    0.049107313741    0.038643260942
            0.047957698844    -0.025114161702    -0.000488348794    0.000053242252    0.050137682637    -0.053183395765    -0.000561665519    0.000044502422
            -0.000508762999    0.000050595487    0.049107315876    0.038643259846    -0.000561665620    0.000044502923    0.046523166469    0.026094439612
0.250     0.034335790618    -0.065043166211    -0.000498616557    0.000140399812    0.038729425013    -0.037289516538    -0.000544104081    0.000150877462
            -0.000498616557    0.000140399812    0.044974516332    0.027090600350    -0.000521601716    0.000148079143    0.051458400088    0.037411144070
            0.038729425013    -0.037289516538    -0.000521601716    0.000148079143    0.034928595933    -0.065598616790    -0.000601335053    0.000156043881
            -0.000544104100    0.000150877468    0.051458403012    0.037411143450    -0.000601335072    0.000156043886    0.045109860321    0.027870051660
0.275     0.014417423804    -0.072640252741    -0.000513317659    0.000244222862    0.024877068213    -0.046453281474    -0.000559307415    0.000265380492
            -0.000513317659    0.000244222862    0.043066616827    0.030665140378    -0.000536379591    0.000256488246    0.052670833408    0.036983715288
            0.024877068213    -0.046453281474    -0.000536379591    0.000256488246    0.015063250713    -0.073442082097    -0.000618368927    0.000282680181
            -0.000559307456    0.000265380033    0.052670836336    0.036983714599    -0.000618368986    0.000282680077    0.043428462453    0.031459470628
0.300     -0.008568019800    -0.074057989873    -0.000506116939    0.000358597360    0.007469498667    -0.051042079924    -0.000549909363    0.000390753010
            -0.000506116947    0.000358597366    0.041701436638    0.036307500509    -0.000528384673    0.000375664329    0.053276091915    0.037822345941
            0.007469498667    -0.051042079924    -0.000528384673    0.000375664329    -0.007928508959    -0.075145219458    -0.000608261593    0.000420654036
            -0.000549909363    0.000390753010    0.053276094866    0.037822345239    -0.000608261593    0.000420654036    0.042288617766    0.037034794117
0.325     -0.032565033154    -0.068280022823    -0.000472641491    0.000479192289    -0.011908797261    -0.049885079136    -0.000511499825    0.000521923007
            -0.000472641491    0.000479192289    0.041767521230    0.043860779127    -0.000493158586    0.000501150433    0.053954223422    0.040147373670
            -0.011908797261    -0.049885079136    -0.000493158586    0.000501150433    -0.032008118478    -0.069673681434    -0.000566568303    0.000564426162
            -0.000511499818    0.000521922999    0.053954227129    0.040147372039    -0.000566568303    0.000564426162    0.042547067310    0.044442774186
0.350     -0.055208247620    -0.055010339493    -0.000409265768    0.000599738326    -0.031308632957    -0.042383145534    -0.000440623672    0.000651928199
            -0.000409265762    0.000599738318    0.044076693304    0.052837568813    -0.000426980509    0.000626523648    0.055441868163    0.043899413947
            -0.031308632957    -0.042383145534    -0.000426980934    0.000626522862    -0.054821405180    -0.056706842979    -0.000489802869    0.000706624732
            -0.000440623666    0.000651928191    0.055441872029    0.043899412286    -0.000489802869    0.000706624732    0.044986927825    0.053211998367
0.375     -0.074078602181    -0.034754099714    -0.000314079326    0.000712031707    -0.048622984952    -0.028617321623    -0.000335746169    0.000771924939
            -0.000314079331    0.000712031716    0.049235637498    0.062449371364    -0.000327859587    0.000743353680    0.058411117460    0.048725167645
            -0.048622984952    -0.028617321623    -0.000327859587    0.000743353680    -0.073951464405    -0.036719913123    -0.000376463585    0.000837895916
            -0.000335746486    0.000771924562    0.058411120780    0.048725165227    -0.000376463585    0.000837895916    0.050194024358    0.062580231030
0.400     -0.086993827513    -0.008819713844    -0.000187952226    0.000806732539    -0.061844395115    -0.009384410387    -0.000198265349    0.000872102430
            -0.000187952229    0.000806732548    0.057547236428    0.071708587733    -0.000196634983    0.000842019505    0.063369193320    0.054027988083
            -0.061844395115    -0.009384410387    -0.000196634981    0.000842019496    -0.087207483690    -0.010989992704    -0.000228032708    0.000947910461
            -0.000198265347    0.000872102420    0.063369196910    0.054027985414    -0.000228032706    0.000947910451    0.058461627626    0.071592644614
0.425     -0.092273704973    0.020802155945    -0.000035088330    0.000874466967    -0.069305204796    0.013875064961    -0.000033016039    0.000942793857
            -0.000035088330    0.000874466967    0.068943419997    0.079543690793    -0.000037566174    0.000912814353    0.070565389992    0.059040585893
            -0.069305204796    0.013875064961    -0.000037566174    0.000912814353    -0.092889349632    0.018520613464    -0.000049591280    0.001026426810
            -0.000033016039    0.000942793877    0.070565392053    0.059040583430    -0.000049591280    0.001026426810    0.069725397699    0.079212196167
0.450     -0.088959432299    0.051647603507    0.000137015549    0.000907411487    -0.069892944952    0.039235582345    0.000151867406    0.000976091995
            0.000137015550    0.000907411497    0.082984148466    0.084950543778    0.000141680102    0.000947578993    0.079956724854    0.062943461315
            -0.069892944952    0.039235582345    0.000141680102    0.000947578993    -0.090008050743    0.049369766653    0.000150356555    0.001064999907
            0.000151867406    0.000976091995    0.079956728150    0.062943457128    0.000150356555    0.001064999907    0.083561399759    0.084464557316
0.475     -0.076922643879    0.081053575072    0.000318362039    0.000900478711    -0.063167789280    0.064507795510    0.000345793892    0.000967002036
            0.000318362051    0.000900478696    0.098899087343    0.087116004922    0.000330820796    0.000940929680    0.091202708536    0.064969513310
            -0.063167789280    0.064507795510    0.000330819904    0.000940929400    -0.078398653813    0.078906076197    0.000360662794    0.001058178697
            0.000345793453    0.000967001981    0.091202711938    0.064969508534    0.000360662775    0.001058178703    0.099224812393    0.086558665140
0.500     -0.056877436588    0.106450863888    0.000497814330    0.000852228373    -0.049402702935    0.087488598949    0.000537140141    0.000914305708
            0.000497814330    0.000852228373    0.115688120877    0.085527400855    0.000518322346    0.000891229462    0.103719659487    0.064512274641
            -0.049402702935    0.087488598949    0.000518322346    0.000891229462    -0.058735542876    0.104559990574    0.000569035220    0.001004437116
            0.000537140141    0.000914305708    0.103719659487    0.064512274641    0.000569035220    0.001004437116    0.115744386330    0.084991525778
0.525     -0.030278293519    0.125622078896    0.000664545931    0.000764865220    -0.029517797283    0.106180424244    0.000714718321    0.000820524955
            0.000664545931    0.000764865220    0.132236615359    0.080019524725    0.000692901023    0.000800621868    0.116746038199    0.061190615204
            -0.029517797283    0.106180424244    0.000692901023    0.000800621868    -0.032436962547    0.124101108389    0.000763519111    0.000906195005
            0.000714718306    0.000820524968    0.116746041402    0.061190609091    0.000763519175    0.000906195082    0.132029469971    0.079603995169
0.550     0.000847934261    0.136905144147    0.000809462042    0.000643734418    -0.004961424692    0.118975596263    0.000869236014    0.000691333468
            0.000809462042    0.000643734418    0.147448069147    0.070786032899    0.000844978179    0.000674549315    0.129453005594    0.054897909229
            -0.004961424692    0.118975596263    0.000844978179    0.000674549315    -0.001499233679    0.135841757017    0.000934045960    0.000769235965
            0.000869235936    0.000691333406    0.129452998304    0.054897900806    0.000934046853    0.000769235825    0.147015271265    0.070606299523
0.575     0.034110936656    0.139308698913    0.000925976833    0.000496205287    0.022449912101    0.124760446131    0.000994035853    0.000534340792
            0.000925976833    0.000496205287    0.160344019658    0.058337635905    0.000967512338    0.000520619483    0.141037410850    0.045768814373
            0.022449912101    0.124760446131    0.000967512250    0.000520619436    0.031709031139    0.138752937376    0.001073215789    0.000601488678
            0.000994035853    0.000534340792    0.141037414045    0.045768804527    0.001073215778    0.000601488696    0.159794235861    0.058499586968
0.600     0.066970217486    0.132558248534    0.001010400859    0.000330646008    0.050693433217    0.122976769218    0.001085307136    0.000358066435
            0.001010400865    0.000330645990    0.170160054664    0.043446917254    0.001056441913    0.000347533966    0.150760573569    0.034147650030
            0.050693433217    0.122976769218    0.001056441913    0.000347533966    0.064661769565    0.132515478940    0.001176593024    0.000411913314
            0.001085306271    0.000358066822    0.150760566200    0.034147637295    0.001176593024    0.000411913314    0.169635455502    0.043986014453
0.625     0.096927772380    0.117071655386    0.001061703904    0.000155312510    0.077686301488    0.113616507423    0.001141908406    0.000170950118
            0.001061703904    0.000155312506    0.176394621469    0.027063987125    0.001110523216    0.000163957494    0.157992091778    0.020592414671
            0.077686301488    0.113616507423    0.001110522868    0.000163957791    0.094866864005    0.117501616447    0.001242605056    0.000209509703
            0.001141908406    0.000170950120    0.157992092425    0.020592409707    0.001242605056    0.000209509703    0.176024725308    0.027962905446
0.650     0.121701133012    0.093902205858    0.001081175044    -0.000022536564    0.101420484585    0.097206799761    0.001165013954    -0.000019616859
            0.001081175044    -0.000022536571    0.178846393417    0.010227161063    0.001130998307    -0.000022399659    0.162297675343    0.005827403491
            0.101420484585    0.097206799761    0.001130997619    -0.000022399051    0.120034033631    0.094721412273    0.001272212634    0.000002292948
            0.001165013955    -0.000019616850    0.162297675648    0.005827394993    0.001272212534    0.000002292966    0.178747751700    0.011435111059
0.675     0.139354570289    0.064654496346    0.001071594213    -0.000197214395    0.120066273336    0.074765565386    0.001157253163    -0.000207826799
            0.001071594210    -0.000197214414    0.177608587286    -0.006017011214    0.001120754444    -0.000205405175    0.163454954292    -0.009324282890
            0.120066273336    0.074765565386    0.001120754203    -0.000205404827    0.138207344052    0.065739995040    0.001267998257    -0.000203309880
            0.001157252580    -0.000207826090    0.163454944097    -0.009324286029    0.001267998258    -0.000203309871    0.177882500850    -0.004583787484
0.700     0.148416778587    0.031388687643    0.001036593731    -0.000364890967    0.132084278059    0.047760779707    0.001122047601    -0.000389699460
            0.001036593731    -0.000364890967    0.173070423792    -0.020694319393    0.001083656980    -0.000380854792    0.161490587876    -0.023995349261
            0.132084278059    0.047760779707    0.001083656512    -0.000380854012    0.147881694427    0.032582825141    0.001233489299    -0.000402762644
            0.001122047601    -0.000389699460    0.161490587876    -0.023995349261    0.001233489299    -0.000402762644    0.173793961098    -0.019149931004
0.725     0.147970230751    -0.003487781529    0.000979738091    -0.000523531915    0.136313918958    0.018051059906    0.001062716304    -0.000562981068
            0.000979738091    -0.000523531915    0.165882365683    -0.032972193462    0.001023593989    -0.000546459972    0.156676227454    -0.037341112480
            0.136313918958    0.018051059906    0.001023593989    -0.000546459972    0.148095983363    -0.002370258473    0.001172203162    -0.000593360043
            0.001062716314    -0.000562981049    0.156676226803    -0.037341115214    0.001172203152    -0.000593360063    0.167097723206    -0.031456436157
0.750     0.137740250808    -0.037348673000    0.000903894366    -0.000672681351    0.132090687466    -0.012192475121    0.000981846012    -0.000726894500
            0.000903894366    -0.000672681351    0.156925436395    -0.042235405851    0.000943782387    -0.000701669066    0.149547182458    -0.048609969188
            0.132090687466    -0.012192475121    0.000943782387    -0.000701669066    0.138522282860    -0.036509554765    0.001086973937    -0.000774004348
            0.000981846012    -0.000726894500    0.149547182458    -0.048609969188    0.001086973937    -0.000774004348    0.158632357667    -0.040901082592
0.775     0.118161202809    -0.067498460690    0.000810508964    -0.000812803927    0.119339026386    -0.040593911885    0.000880628487    -0.000881428821
            0.000810508964    -0.000812803927    0.147246139892    -0.048146222749    0.000845994182    -0.000846998618    0.140861548845    -0.057229268141
            0.119339026386    -0.040593911885    0.000845994182    -0.000846998618    0.119535819245    -0.067141995861    0.000979252877    -0.000944516201
            0.000880628487    -0.000881428821    0.140861548845    -0.057229268141    0.000979252877    -0.000944516201    0.149395574550    -0.047148184715
