# GHz S RI R 45
0.000     0.015931626000    0.000000000000    -0.000043901819    0.000000000000    0.000470486690    -0.000000000000    -0.000033139645    0.000000000000
            -0.000043902162    0.000000000000    0.016422509000    0.000000000000    -0.000020525020    0.000000000000    0.000273353370    0.000000000000
            0.000470404520    -0.000000000000    -0.000020524714    0.000000000000    0.015892153000    0.000000000000    -0.000016549458    0.000000000000
            -0.000033139847    0.000000000000    0.000273355430    0.000000000000    -0.000016549779    0.000000000000    0.016240970000    0.000000000000
0.025     0.021250632636    0.009786716794    -0.000035643848    -0.000047485817    0.002827464285    0.009898980484    -0.000037714474    -0.000048098861
            -0.000035644039    -0.000047485795    0.020437082473    0.010456684685    -0.000039558801    -0.000072905306    0.001722746838    0.010741402834
            0.002827359727    0.009899048828    -0.000039558513    -0.000072905352    0.021182523799    0.009728651963    -0.000037464224    -0.000063938167
            -0.000037714626    -0.000048098830    0.001722625811    0.010741236906    -0.000037464467    -0.000063938121    0.020443981727    0.010536839247
0.050     0.029019660849    0.014633768467    -0.000063936979    -0.000111044412    0.009214610758    0.017910237589    -0.000067570305    -0.000097086723
            -0.000063937154    -0.000111044357    0.025079577070    0.017088119837    -0.000082658513    -0.000132778684    0.005617822946    0.020477873209
            0.009214526312    0.017910285533    -0.000082658244    -0.000132778768    0.028939356681    0.014530829048    -0.000075908481    -0.000111804199
            -0.000067570508    -0.000097086654    0.005617853339    0.020477860723    -0.000075908760    -0.000111804106    0.025101363834    0.017067993868
0.075     0.038852416560    0.015761746601    -0.000122719842    -0.000154004819    0.018638154161    0.022668596479    -0.000118661186    -0.000129286285
            -0.000122719935    -0.000154004770    0.030304411838    0.021925483465    -0.000147696539    -0.000174341706    0.011420952897    0.028613233429
            0.018638087453    0.022668650031    -0.000147696213    -0.000174341877    0.038758446826    0.015625927129    -0.000131172466    -0.000144288645
            -0.000118661332    -0.000129286218    0.011420959261    0.028613231966    -0.000131172689    -0.000144288537    0.030246031334    0.021868217274
0.100     0.049446327656    0.012355742581    -0.000196512080    -0.000172755697    0.029691456062    0.023237038597    -0.000181120835    -0.000141468267
            -0.000196512155    -0.000172755641    0.035650762947    0.024902074373    -0.000227216737    -0.000192760153    0.018471766638    0.034750075578
            0.029691406894    0.023237107912    -0.000227216417    -0.000192760359    0.049347743559    0.012202376749    -0.000197830479    -0.000157242610
            -0.000181120989    -0.000141468184    0.018471768458    0.034750074611    -0.000197830636    -0.000157242509    0.035491585339    0.024874312076
0.125     0.058962536302    0.004148789144    -0.000276571829    -0.000165710680    0.040731777027    0.019227679366    -0.000247988267    -0.000132084136
            -0.000276571875    -0.000165710642    0.040393236413    0.026178106220    -0.000313787059    -0.000185278327    0.026058696507    0.038764122259
            0.040731747319    0.019227754013    -0.000313786820    -0.000185278555    0.058879729979    0.003978493852    -0.000269615493    -0.000148399332
            -0.000247988339    -0.000132084063    0.026058699095    0.038764121725    -0.000269615666    -0.000148399183    0.040151227581    0.026245033965
0.150     0.065776048137    -0.008295271152    -0.000355570769    -0.000133788678    0.050085960545    0.010790139465    -0.000313110961    -0.000102083977
            -0.000355570769    -0.000133788678    0.044118841415    0.026254142506    -0.000400226896    -0.000152000203    0.033452471836    0.040723168293
            0.050085949802    0.010790213074    -0.000400226896    -0.000152000203    0.065736247231    -0.008470936203    -0.000340414782    -0.000118158651
            -0.000313110971    -0.000102083980    0.033452464246    0.040723170646    -0.000340414791    -0.000118158654    0.043825997443    0.026461765332
0.175     0.068279386699    -0.023965590487    -0.000427422553    -0.000079023424    0.056203214970    -0.001345949575    -0.000371538313    -0.000053353436
            -0.000427422543    -0.000079023422    0.046445284057    0.025677577214    -0.000480425162    -0.000094324550    0.040020242410    0.040974095477
            0.056203221859    -0.001345870730    -0.000480425162    -0.000094324550    0.068313401070    -0.024157001046    -0.000405231863    -0.000068026698
            -0.000371538566    -0.000053353009    0.040020243824    0.040974095494    -0.000405231854    -0.000068026696    0.046160768958    0.026054721119
0.200     0.065324748303    -0.041304476780    -0.000487683443    -0.000004196703    0.057843329435    -0.015963411668    -0.000419766377    0.000011578058
            -0.000487683831    -0.000004195855    0.047219666530    0.025150759229    -0.000549606778    -0.000014571559    0.045310748638    0.040061126168
            0.057843357508    -0.015963332500    -0.000549606383    -0.000014572509    0.065460732919    -0.041538695545    -0.000460348713    -0.000000228986
            -0.000419766367    0.000011578057    0.045310741496    0.040061129716    -0.000460348703    -0.000000228986    0.047012585640    0.025698966471
0.225     0.056324553529    -0.058411913744    -0.000532568170    0.000087792065    0.054206672735    -0.031473323486    -0.000454922489    0.000090268026
            -0.000532568150    0.000087792062    0.046585317390    0.025403524388    -0.000603605651    0.000084830383    0.049107313741    0.038643260942
            0.054206715429    -0.031473255928    -0.000603605522    0.000084829935    0.056581190592    -0.058730937499    -0.000502679174    0.000083121642
            -0.000454922610    0.000090268545    0.049107315876    0.038643259846    -0.000502679298    0.000083122114    0.046523166469    0.026094439612
0.250     0.041353311511    -0.073235983201    -0.000558961847    0.000194136805    0.045041885240    -0.046068530893    -0.000474661318    0.000180473026
            -0.000558961847    0.000194136805    0.044974516332    0.027090600350    -0.000638719706    0.000201406056    0.051458400088    0.037411144070
            0.045041939111    -0.046068478222    -0.000638719561    0.000201405153    0.041734327926    -0.073692557438    -0.000529507771    0.000180072200
            -0.000474661309    0.000180473023    0.051458403012    0.037411143450    -0.000529507771    0.000180072200    0.045109860321    0.027870051660
0.275     0.021157871366    -0.083783474769    -0.000563559305    0.000311711442    0.030696621588    -0.057895391052    -0.000476353532    0.000279843433
            -0.000563559296    0.000311711437    0.043066616827    0.030665140378    -0.000650907571    0.000332336985    0.052670833408    0.036983715288
            0.030696693946    -0.057895349291    -0.000650907571    0.000332336985    0.021647212392    -0.084435788160    -0.000537711812    0.000288588777
            -0.000476353541    0.000279843438    0.052670836336    0.036983714599    -0.000537711821    0.000288588782    0.043428462453    0.031459470628
0.300     -0.002864311897    -0.088346855968    -0.000543073487    0.000436855041    0.012123004803    -0.065255737257    -0.000457200923    0.000385598978
            -0.000543073503    0.000436855054    0.041701436638    0.036307500509    -0.000635940101    0.000474019805    0.053276091915    0.037822345941
            0.012123092952    -0.065255710710    -0.000635940085    0.000474019793    -0.002305602275    -0.089250739811    -0.000523787152    0.000406064347
            -0.000457200760    0.000385599932    0.053276094866    0.037822345239    -0.000523787144    0.000406064341    0.042288617766    0.037034794117
0.325     -0.028778293920    -0.085697629509    -0.000494238306    0.000564551940    -0.009184066039    -0.066792918254    -0.000414218581    0.000493774932
            -0.000494238300    0.000564551933    0.041767521230    0.043860779127    -0.000589449083    0.000621265682    0.053954223422    0.040147373670
            -0.009183972794    -0.066792913915    -0.000589449250    0.000621265206    -0.028211999822    -0.086898095536    -0.000483854487    0.000528531556
            -0.000414218397    0.000493775413    0.053954227129    0.040147372039    -0.000483854159    0.000528532494    0.042547067310    0.044442774186
0.350     -0.054280821160    -0.075269884465    -0.000414612779    0.000688386182    -0.031315698573    -0.061675621816    -0.000344980708    0.000599037061
            -0.000414612779    0.000688386182    0.044076693304    0.052837568813    -0.000507849171    0.000767044845    0.055441868163    0.043899413947
            -0.031315611451    -0.061675636892    -0.000507849171    0.000767044845    -0.053787904035    -0.076792068121    -0.000414489628    0.000650292243
            -0.000344980703    0.000599037052    0.055441872029    0.043899412286    -0.000414489221    0.000650293107    0.044986927825    0.053211998367
0.375     -0.076927053506    -0.057254990458    -0.000303364321    0.000800317997    -0.052130509474    -0.049715506476    -0.000248372792    0.000694445458
            -0.000303363998    0.000800318408    0.049235637498    0.062449371364    -0.000389246480    0.000902280518    0.058411117460    0.048725167645
            -0.052130470417    -0.049715521349    -0.000389246692    0.000902280143    -0.076601195253    -0.059096230614    -0.000313593471    0.000763647462
            -0.000248372789    0.000694445449    0.058411120780    0.048725165227    -0.000313593170    0.000763647867    0.050194024358    0.062580231030
0.400     -0.094397663701    -0.032636541326    -0.000162171802    0.000891530836    -0.069490981789    -0.031431838241    -0.000125513451    0.000772150269
            -0.000162171130    0.000891531558    0.057547236428    0.071708587733    -0.000234591542    0.001016664319    0.063369193320    0.054027988083
            -0.069490909695    -0.031431893290    -0.000234591542    0.001016664319    -0.094335483180    -0.034761331330    -0.000181548411    0.000859554811
            -0.000125513463    0.000772150257    0.063369196910    0.054027985414    -0.000181548411    0.000859554811    0.058461627626    0.071592644614
0.425     -0.104751914697    -0.003112989981    0.000004246023    0.000953267124    -0.081491442451    -0.008015694474    0.000019685374    0.000824181243
            0.000004246023    0.000953267124    0.068943419997    0.079543690793    -0.000048341756    0.001099644431    0.070565389992    0.059040585893
            -0.081491384297    -0.008015774918    -0.000048342127    0.001099644114    -0.105041954163    -0.005449939688    -0.000021921585    0.000928529253
            0.000019685374    0.000824181243    0.070565392053    0.059040583430    -0.000021921585    0.000928529243    0.069725397699    0.079212196167
0.450     -0.106659400770    0.029060051762    0.000188212383    0.000978317222    -0.086684400491    0.018781996017    0.000180492195    0.000843837510
            0.000188212383    0.000978317222    0.082984148466    0.084950543778    0.000161448762    0.001142110140    0.079956724854    0.062943461315
            -0.086684359851    0.018781923853    0.000161447941    0.001142109651    -0.107369705788    0.026617657775    0.000158333785    0.000962215344
            0.000180492201    0.000843837540    0.079956728150    0.062943457128    0.000158333755    0.000962215370    0.083561399759    0.084464557316
0.475     -0.099540809005    0.061300293547    0.000379728911    0.000962047012    -0.084224479917    0.046837106652    0.000347913750    0.000826722497
            0.000379728877    0.000962047025    0.098899087343    0.087116004922    0.000383814598    0.001137676268    0.091202708536    0.064969513310
            -0.084224460178    0.046837018692    0.000383814598    0.001137676268    -0.100708949663    0.058896089402    0.000349453671    0.000954657269
            0.000347913746    0.000826722488    0.091202711938    0.064969508534    0.000349454090    0.000954657435    0.099224812393    0.086558665140
0.500     -0.083632832697    0.090963754772    0.000567738526    0.000903280884    -0.073955544281    0.073890131293    0.000511832422    0.000771631576
            0.000567738526    0.000903280884    0.115688120877    0.085527400855    0.000606326875    0.001083846768    0.103719659487    0.064512274641
            -0.073955540525    0.073890050163    0.000606325996    0.001083846572    -0.085258078668    0.088801999847    0.000540157391    0.000903447149
            0.000511832409    0.000771631585    0.103719659487    0.064512274641    0.000540157340    0.000903447064    0.115744386330    0.084991525778
0.525     -0.059942016857    0.115598340667    0.000741420395    0.000804317866    -0.056406018850    0.097895243258    0.000662262420    0.000680663480
            0.000741420890    0.000804317953    0.132236615359    0.080019524725    0.000817664697    0.000982638601    0.116746038199    0.061190615204
            -0.056406057239    0.097895151892    0.000817664663    0.000982638630    -0.062048219323    0.114192942671    0.000720023962    0.000810378164
            0.000662262935    0.000680663510    0.116746041402    0.061190609091    0.000720023938    0.000810378052    0.132029469971    0.079603995169
0.550     -0.030140448971    0.133190170740    0.000891720395    0.000670595084    -0.033729390669    0.115661458864    0.000790824525    0.000558938365
            0.000891720406    0.000670595068    0.147448069147    0.070786032899    0.000993652630    0.000844624763    0.129453005594    0.054897909229
            -0.033729434431    0.115661383602    0.000993651654    0.000844624830    -0.034046007617    0.130509826322    0.000867565978    0.000685329918
            0.000790824530    0.000558938410    0.129452998304    0.054897900806    0.000867565990    0.000685329903    0.147015271265    0.070606299523
0.575     0.003640990569    0.142190851376    0.001011306118    0.000509342745    -0.004971908189    0.127497484244    0.000890853287    0.000413285878
            0.001011306109    0.000509342763    0.160344019658    0.058337635905    0.001147658913    0.000661363586    0.141037410850    0.045768814373
            -0.004971938173    0.127497453051    0.001147658913    0.000661363586    0.000433100072    0.140450122235    0.000993805748    0.000521028037
            0.000890853259    0.000413285865    0.141037414045    0.045768804527    0.000993805748    0.000521028037    0.159794235861    0.058499586968
0.600     0.038852710546    0.141598811823    0.001095006783    0.000329132616    0.025704441830    0.131379044050    0.000957711922    0.000251882136
            0.001095006760    0.000329132693    0.170160054664    0.043446917254    0.001261343716    0.000457881617    0.150760573569    0.034147650030
            0.025704368771    0.131378987017    0.001261343716    0.000457881617    0.035589679991    0.140908607901    0.001082904275    0.000340300113
            0.000957712810    0.000251881905    0.150760566200    0.034147637295    0.001082904180    0.000340300083    0.169635455502    0.043986014453
0.625     0.072324091533    0.131958093862    0.001143369196    0.000142948195    0.056358268778    0.127266845728    0.000992158136    0.000086724206
            0.001143369196    0.000142948195    0.176394621469    0.027063987125    0.001333500075    0.000240159966    0.157992091778    0.020592414671
            0.056358186732    0.127266816441    0.001333500075    0.000240159966    0.069741765090    0.131922655168    0.001133909250    0.000149222149
            0.000992158135    0.000086724211    0.157992092425    0.020592409707    0.001133909250    0.000149222155    0.176024725308    0.027962905446
0.650     0.102782158816    0.113829320558    0.001159811312    -0.000047252926    0.085512360193    0.115169108440    0.000997482344    -0.000079850024
            0.001159811311    -0.000047252943    0.178846393417    0.010227161063    0.001364944946    0.000017466777    0.162297675343    0.005827403491
            0.085512272163    0.115169099071    0.001364944946    0.000017466781    0.100477834241    0.114083448276    0.001148056055    -0.000043326145
            0.000997482344    -0.000079850022    0.162297675648    0.005827394993    0.001148056055    -0.000043326127    0.178747751700    0.011435111059
0.675     0.127544073678    0.087912991730    0.001143811736    -0.000233802558    0.110777677266    0.095523445565    0.000974016403    -0.000240609444
            0.001143811736    -0.000233802558    0.177608587286    -0.006017011214    0.001358598005    -0.000202292395    0.163454954292    -0.009324282890
            0.110777634540    0.095523449175    0.001358598006    -0.000202292390    0.125583963118    0.088562268550    0.001128776486    -0.000229842980
            0.000974016403    -0.000240609444    0.163454944097    -0.009324286029    0.001128776490    -0.000229842960    0.177882500850    -0.004583787484
0.700     0.144669674823    0.056060435568    0.001099729382    -0.000411359858    0.130248839331    0.069589464682    0.000926477189    -0.000390722194
            0.001099729390    -0.000411359839    0.173070423792    -0.020694319393    0.001318875686    -0.000413248072    0.161490587876    -0.023995349261
            0.130248746012    0.069589490800    0.001318875686    -0.000413248072    0.143204060198    0.057045190153    0.001081023206    -0.000404908440
            0.000926477189    -0.000390722194    0.161490587876    -0.023995349261    0.001081023213    -0.000404908421    0.173793961098    -0.019149931004
0.725     0.152800230288    0.020456268962    0.001031918761    -0.000577053852    0.142383778520    0.039016061502    0.000859624722    -0.000527873419
            0.001031918761    -0.000577053852    0.165882365683    -0.032972193462    0.001250702231    -0.000611703233    0.156676227454    -0.037341112480
            0.142383693304    0.039016107614    0.001250702231    -0.000611703233    0.151950252018    0.021644130307    0.001010315698    -0.000565425358
            0.000859624722    -0.000527873419    0.156676226803    -0.037341115214    0.001010315698    -0.000565425358    0.167097723206    -0.031456436157
0.750     0.151159566001    -0.016435478440    0.000944257772    -0.000729821742    0.146080148169    0.005819248313    0.000777715323    -0.000651661681
            0.000944257838    -0.000729821819    0.156925436395    -0.042235405851    0.001158774048    -0.000796195241    0.149547182458    -0.048609969188
            0.146080085565    0.005819312469    0.001158774048    -0.000796195241    0.151003255661    -0.015217920315    0.000921918053    -0.000710672751
            0.000777715323    -0.000651661681    0.149547182458    -0.048609969188    0.000921918066    -0.000710672735    0.158632357667    -0.040901082592
0.775     0.139616855429    -0.051990235031    0.000839497278    -0.000869901015    0.140758173897    -0.027708772948    0.000683793365    -0.000763134469
            0.000839497278    -0.000869901015    0.147246139892    -0.048146222749    0.001046531117    -0.000967009272    0.140861548845    -0.057229268141
            0.140758127600    -0.027708697485    0.001046531117    -0.000967009272    0.140180854093    -0.050941551770    0.000819795353    -0.000841904314
            0.000683793378    -0.000763134457    0.140861548845    -0.057229268141    0.000819795368    -0.000841904300    0.149395574550    -0.047148184715
