# GHz S RI R 45
0.000     0.016727192000    0.000000000000    -0.000057111152    0.000000000000    0.000309293840    0.000000000000    -0.000028457801    0.000000000000
            -0.000057111390    0.000000000000    0.016422509000    0.000000000000    -0.000040083057    0.000000000000    0.000273353370    0.000000000000
            0.000309292470    0.000000000000    -0.000040083051    0.000000000000    0.016680557000    0.000000000000    -0.000028085644    0.000000000000
            -0.000028457465    0.000000000000    0.000273355430    0.000000000000    -0.000028085648    0.000000000000    0.016240970000    0.000000000000
0.025     0.021295603818    0.010983519714    -0.000011313316    0.000032255506    0.002012304566    0.011186093976    -0.000020550611    0.000011486276
            -0.000011313313    0.000032255499    0.020437082473    0.010456684685    -0.000017901885    0.000018317458    0.001722746838    0.010741402834
            0.002012181029    0.011185928230    -0.000017901884    0.000018317462    0.021207108441    0.010974262474    -0.000017364919    0.000016239943
            -0.000020550613    0.000011486272    0.001722625811    0.010741236906    -0.000017364937    0.000016239938    0.020443981727    0.010536839247
0.050     0.026471727159    0.017668592870    0.000002651241    0.000017424758    0.006325004106    0.021102609169    -0.000019191314    0.000015035633
            0.000002651229    0.000017424761    0.025079577070    0.017088119837    -0.000012170894    0.000013917833    0.005617822946    0.020477873209
            0.006325033733    0.021102598201    -0.000012170895    0.000013917834    0.026343610519    0.017685430914    -0.000014553362    0.000021763710
            -0.000019191221    0.000015035625    0.005617853339    0.020477860723    -0.000014553285    0.000021763702    0.025101363834    0.017067993868
0.075     0.032253888128    0.022278061852    -0.000000036798    0.000009772912    0.012639515967    0.029179619607    -0.000021496384    0.000021102523
            -0.000000036808    0.000009772926    0.030304411838    0.021925483465    -0.000015664945    0.000013913848    0.011420952897    0.028613233429
            0.012639521345    0.029179619457    -0.000015664901    0.000013913838    0.032081279071    0.022345496169    -0.000016057181    0.000030062627
            -0.000021496388    0.000021102527    0.011420959261    0.028613231966    -0.000016057152    0.000030062623    0.030246031334    0.021868217274
0.100     0.038078634748    0.024711861885    -0.000006844403    0.000008011690    0.020187178601    0.034974436436    -0.000024413476    0.000029869769
            -0.000006844384    0.000008011691    0.035650762947    0.024902074373    -0.000021622652    0.000018150725    0.018471766638    0.034750075578
            0.020187177380    0.034974437140    -0.000021622652    0.000018150725    0.037867302748    0.024860544461    -0.000018151675    0.000041235073
            -0.000024413478    0.000029869772    0.018471768458    0.034750074611    -0.000018151599    0.000041235056    0.035491585339    0.024874312076
0.125     0.043064245650    0.025194272401    -0.000014992342    0.000011717052    0.028122672090    0.038376594865    -0.000026793436    0.000041371003
            -0.000014992324    0.000011717050    0.040393236413    0.026178106220    -0.000028030895    0.000026585639    0.026058696507    0.038764122259
            0.028122670751    0.038376595847    -0.000028030901    0.000026585635    0.042844859807    0.025451368442    -0.000019540621    0.000055313088
            -0.000026793438    0.000041371006    0.026058699095    0.038764121725    -0.000019540644    0.000055313090    0.040151227581    0.026245033965
0.150     0.046677927289    0.024280976871    -0.000022602626    0.000019634655    0.035592257464    0.039530360932    -0.000027611988    0.000055196641
            -0.000022602608    0.000019634653    0.044118841415    0.026254142506    -0.000033501911    0.000038570949    0.033452471836    0.040723168293
            0.035592256775    0.039530361553    -0.000033501919    0.000038570946    0.046477407708    0.024662162536    -0.000019153850    0.000071807139
            -0.000027611989    0.000055196643    0.033452464246    0.040723170646    -0.000019153878    0.000071807142    0.043825997443    0.026461765332
0.175     0.048456628636    0.022701902476    -0.000028504802    0.000031282808    0.041881194508    0.038908020999    -0.000026196382    0.000071040816
            -0.000028504781    0.000031282806    0.046445284057    0.025677577214    -0.000037115679    0.000053798604    0.040020242410    0.040974095477
            0.041881202192    0.038908018605    -0.000037115681    0.000053798607    0.048316084990    0.023213869694    -0.000016226211    0.000090448847
            -0.000026196395    0.000071040814    0.040020243824    0.040974095494    -0.000016226228    0.000090448850    0.046160768958    0.026054721119
0.200     0.048238791139    0.021356630778    -0.000031839905    0.000045868738    0.046509857314    0.037209385878    -0.000021910530    0.000088339818
            -0.000031839880    0.000045868736    0.047219666530    0.025150759229    -0.000038027558    0.000071720731    0.045310748638    0.040061126168
            0.046509855884    0.037209386065    -0.000038027573    0.000071720728    0.048205192092    0.021989176146    -0.000010091251    0.000110624618
            -0.000021910531    0.000088339820    0.045310741496    0.040061129716    -0.000010091277    0.000110624626    0.047012585640    0.025698966471
0.225     0.046243445414    0.021167254438    -0.000031963591    0.000062749407    0.049300020961    0.035257194011    -0.000014304722    0.000106587310
            -0.000031963653    0.000062749446    0.046585317390    0.025403524388    -0.000035582020    0.000091868394    0.049107313741    0.038643260942
            0.049300019532    0.035257194290    -0.000035582021    0.000091868398    0.046361074781    0.021890732566    -0.000000197324    0.000131829702
            -0.000014304724    0.000106587309    0.049107315876    0.038643259846    -0.000000197265    0.000131829662    0.046523166469    0.026094439612
0.250     0.043055881691    0.022946648845    -0.000028266230    0.000081179638    0.050404585510    0.033887746939    -0.000002932673    0.000125098510
            -0.000028266292    0.000081179678    0.044974516332    0.027090600350    -0.000029045697    0.000113611160    0.051458400088    0.037411144070
            0.050404584089    0.033887747261    -0.000029045697    0.000113611160    0.043357942892    0.023713665115    0.000013953284    0.000153314971
            -0.000002932678    0.000125098509    0.051458403012    0.037411143450    0.000013953257    0.000153314974    0.045109860321    0.027870051660
0.275     0.039573843652    0.027240246749    -0.000020294578    0.000100339745    0.050295796241    0.033820657225    0.000012501284    0.000143132191
            -0.000020294599    0.000100339761    0.043066616827    0.030665140378    -0.000017814699    0.000136188621    0.052670833408    0.036983715288
            0.050295798012    0.033820654592    -0.000017814706    0.000136188620    0.040075187691    0.027990527545    0.000032757743    0.000174280714
            0.000012501282    0.000143132191    0.052670836336    0.036983714599    0.000032757709    0.000174280720    0.043428462453    0.031459470628
0.300     0.036891268339    0.034230714339    -0.000007622997    0.000119241884    0.049710575500    0.035548044131    0.000032231354    0.000159750811
            -0.000007622972    0.000119241875    0.041701436638    0.036307500509    -0.000001260598    0.000158573349    0.053276091915    0.037822345941
            0.049710573253    0.035548043835    -0.000001260600    0.000158573349    0.037584115149    0.034898729753    0.000056503725    0.000193675205
            0.000032231345    0.000159750813    0.053276094866    0.037822345239    0.000056503698    0.000193675212    0.042288617766    0.037034794117
0.325     0.036150430926    0.043657461318    0.000009873940    0.000136708264    0.049545464117    0.039232941498    0.000056200817    0.000173891306
            0.000009873927    0.000136708275    0.041767521230    0.043860779127    0.000020920357    0.000179466364    0.053954223422    0.040147373670
            0.049545461180    0.039232941986    0.000020920392    0.000179466339    0.037001800639    0.044181489396    0.000085195586    0.000210300483
            0.000056200799    0.000173891302    0.053954227129    0.040147372039    0.000085195550    0.000210300498    0.042547067310    0.044442774186
0.350     0.038368950563    0.054826312409    0.000032091255    0.000151414670    0.050724374497    0.044668931669    0.000084105251    0.000184369425
            0.000032091279    0.000151414655    0.044076693304    0.052837568813    0.000048775524    0.000197317814    0.055441868163    0.043899413947
            0.050724372187    0.044668932779    0.000048775597    0.000197317755    0.039323857737    0.055158708464    0.000118531513    0.000222803234
            0.000084105245    0.000184369428    0.055441872029    0.043899412286    0.000118531558    0.000222803187    0.044986927825    0.053211998367
0.375     0.044269481746    0.066662037593    0.000058379405    0.000162001657    0.054038710625    0.051280369908    0.000115151813    0.000190043859
            0.000058379427    0.000162001639    0.049235637498    0.062449371364    0.000081712021    0.000210482287    0.058411117460    0.048725167645
            0.054038706490    0.051280371360    0.000081712058    0.000210482251    0.045256490022    0.066776816794    0.000155684342    0.000229857928
            0.000115151807    0.000190043863    0.058411120780    0.048725165227    0.000155684348    0.000229857912    0.050194024358    0.062580231030
0.400     0.054149473826    0.077853537757    0.000087699468    0.000167269671    0.060016738668    0.058208777877    0.000148196620    0.000189965247
            0.000087699416    0.000167269721    0.057547236428    0.071708587733    0.000118656854    0.000217426825    0.063369193320    0.054027988083
            0.060016734902    0.058208780323    0.000118656847    0.000217426829    0.055089909697    0.077752434575    0.000195407312    0.000230336474
            0.000148196617    0.000189965250    0.063369196910    0.054027985414    0.000195407290    0.000230336505    0.058461627626    0.071592644614
0.425     0.067805988619    0.087023202952    0.000118480903    0.000166414639    0.068820411363    0.064431094675    0.000181663433    0.000183612056
            0.000118480888    0.000166414649    0.068943419997    0.079543690793    0.000157866552    0.000217025324    0.070565389992    0.059040585893
            0.068820409114    0.064431097077    0.000157866552    0.000217025324    0.068624998738    0.086736749685    0.000235969797    0.000223564172
            0.000181663426    0.000183612062    0.070565392053    0.059040583430    0.000235969773    0.000223564196    0.069725397699    0.079212196167
0.450     0.084552962098    0.092931758502    0.000148995903    0.000159186621    0.080224297444    0.068925132218    0.000213887690    0.000171001165
            0.000148995916    0.000159186595    0.082984148466    0.084950543778    0.000197341532    0.000208750360    0.079956724854    0.062943461315
            0.080224295038    0.068925135018    0.000197341528    0.000208750364    0.085189042469    0.092515574605    0.000275504282    0.000209455670
            0.000213887678    0.000171001180    0.079956728150    0.062943457128    0.000275504279    0.000209455691    0.083561399759    0.084464557316
0.475     0.103304091432    0.094640468539    0.000177431255    0.000146012105    0.093643887481    0.070807682591    0.000243212655    0.000152788923
            0.000177431210    0.000146012145    0.098899087343    0.087116004922    0.000234889513    0.000192852001    0.091202708536    0.064969513310
            0.093643887481    0.070807682591    0.000234889503    0.000192852013    0.103715627380    0.094168999326    0.000312128026    0.000188627826
            0.000243212655    0.000152788923    0.091202711938    0.064969508534    0.000312128031    0.000188627837    0.099224812393    0.086558665140
0.500     0.122730428914    0.091637909703    0.000202341906    0.000127887579    0.108237606137    0.069456820313    0.000268393165    0.000130135598
            0.000202341864    0.000127887646    0.115688120877    0.085527400855    0.000268645549    0.000170264881    0.103719659487    0.064512274641
            0.108237602500    0.069456825980    0.000268645556    0.000170264813    0.122892009516    0.091191255495    0.000344370425    0.000162271278
            0.000268393172    0.000130135584    0.103719659487    0.064512274641    0.000344370415    0.000162271346    0.115744386330    0.084991525778
0.525     0.141478163788    0.083903714195    0.000222724432    0.000106247819    0.123048146103    0.064579085757    0.000288654886    0.000104557343
            0.000222724434    0.000106247815    0.132236615359    0.080019524725    0.000297144019    0.000142516113    0.116746038199    0.061190615204
            0.123048142722    0.064579092200    0.000297144027    0.000142516073    0.141316164791    0.083528671513    0.000371248303    0.000132013579
            0.000288654896    0.000104557347    0.116746041402    0.061190609091    0.000371248298    0.000132013651    0.132029469971    0.079603995169
0.550     0.157501724681    0.072099229577    0.000238239283    0.000083011632    0.136622329597    0.056374037840    0.000304074368    0.000077930178
            0.000238239270    0.000083011637    0.147448069147    0.070786032899    0.000319734884    0.000111470196    0.129453005594    0.054897909229
            0.136622329597    0.056374037840    0.000319734867    0.000111470184    0.157698913214    0.071599417631    0.000392598611    0.000099669555
            0.000304074369    0.000077930172    0.129452998304    0.054897900806    0.000392598665    0.000099669547    0.147015271265    0.070606299523
0.575     0.170871192339    0.056185881656    0.000248924330    0.000059127265    0.148702118291    0.044627722056    0.000314619079    0.000051304862
            0.000248924331    0.000059127260    0.160344019658    0.058337635905    0.000336079806    0.000078907483    0.141037410850    0.045768814373
            0.148702118291    0.044627722056    0.000336079796    0.000078907481    0.170828256069    0.056134801856    0.000408543652    0.000066780066
            0.000314619088    0.000051304869    0.141037414045    0.045768804527    0.000408543698    0.000066780096    0.159794235861    0.058499586968
0.600     0.180044791252    0.038032024674    0.000255736954    0.000036245548    0.158012021749    0.030458723238    0.000321601978    0.000026024867
            0.000255736963    0.000036245484    0.170160054664    0.043446917254    0.000346860059    0.000046514749    0.150760573569    0.034147650030
            0.158012020685    0.030458728754    0.000346859977    0.000046514681    0.179869018795    0.038222913567    0.000420109608    0.000034664651
            0.000321601959    0.000026024859    0.150760566200    0.034147637295    0.000420109633    0.000034664713    0.169635455502    0.043986014453
0.625     0.184615366651    0.018672921022    0.000259625361    0.000015130217    0.164084926678    0.014643513234    0.000326089555    0.000002733341
            0.000259625360    0.000015130232    0.176394621469    0.027063987125    0.000353002605    0.000015527204    0.157992091778    0.020592414671
            0.164084936434    0.014643516414    0.000353002584    0.000015527208    0.184508663426    0.019284057602    0.000428428557    0.000004065913
            0.000326089554    0.000002733367    0.157992092425    0.020592409707    0.000428428557    0.000004065941    0.176024725308    0.027962905446
0.650     0.184489599362    -0.000553614268    0.000261735005    -0.000003851373    0.166549524263    -0.002083833407    0.000329304559    -0.000018398353
            0.000261735045    -0.000003851386    0.178846393417    0.010227161063    0.000355595684    -0.000013242596    0.162297675343    0.005827403491
            0.166549524261    -0.002083833495    0.000355595675    -0.000013242591    0.184656128791    0.000279288310    0.000434633558    -0.000024665488
            0.000329304651    -0.000018398321    0.162297675648    0.005827394993    0.000434633611    -0.000024665450    0.178747751700    0.011435111059
0.675     0.179965676625    -0.018337611053    0.000263214129    -0.000020743816    0.165218772125    -0.018601330498    0.000332423772    -0.000037638181
            0.000263214122    -0.000020743776    0.177608587286    -0.006017011214    0.000355958148    -0.000039360828    0.163454954292    -0.009324282890
            0.165218782419    -0.018601328445    0.000355958164    -0.000039360871    0.180429260867    -0.017382715207    0.000439978677    -0.000051637447
            0.000332423740    -0.000037638197    0.163454944097    -0.009324286029    0.000439978648    -0.000051637434    0.177882500850    -0.004583787484
0.700     0.171699846676    -0.033494248936    0.000265044729    -0.000036042057    0.160325148449    -0.033832026494    0.000336392964    -0.000055716342
            0.000265044766    -0.000036042081    0.173070423792    -0.020694319393    0.000355360730    -0.000062963251    0.161490587876    -0.023995349261
            0.160325148449    -0.033832026494    0.000355360730    -0.000062963251    0.172493972228    -0.032507272790    0.000445473034    -0.000077481086
            0.000336393009    -0.000055716318    0.161490587876    -0.023995349261    0.000445473034    -0.000077481086    0.173793961098    -0.019149931004
0.725     0.160677652657    -0.045049605450    0.000267902102    -0.000050453210    0.152395199849    -0.046780939676    0.000341775379    -0.000073574674
            0.000267902097    -0.000050453238    0.165882365683    -0.032972193462    0.000354849052    -0.000084476091    0.156676227454    -0.037341112480
            0.152395199849    -0.046780939676    0.000354849009    -0.000084476055    0.161814027700    -0.044136609612    0.000451749851    -0.000103042199
            0.000341775384    -0.000073574650    0.156676226803    -0.037341115214    0.000451749895    -0.000103042184    0.167097723206    -0.031456436157
0.750     0.148172629021    -0.052345772557    0.000272183290    -0.000064903305    0.142277959694    -0.056616354304    0.000348780850    -0.000092343670
            0.000272183251    -0.000064903296    0.156925436395    -0.042235405851    0.000355282525    -0.000104681729    0.149547182458    -0.048609969188
            0.142277968986    -0.056616358001    0.000355282595    -0.000104681776    0.149629047779    -0.051617517139    0.000459123140    -0.000129379938
            0.000348780849    -0.000092343676    0.149547182458    -0.048609969188    0.000459123111    -0.000129379895    0.158632357667    -0.040901082592
0.775     0.135655600755    -0.055131705558    0.000277941863    -0.000080328805    0.131093899154    -0.062788107461    0.000357193972    -0.000113113257
            0.000277941854    -0.000080328834    0.147246139892    -0.048146222749    0.000357204610    -0.000124514145    0.140861548845    -0.057229268141
            0.131093899154    -0.062788107461    0.000357204588    -0.000124514116    0.137371608436    -0.054692088391    0.000467500146    -0.000157543166
            0.000357193968    -0.000113113236    0.140861548845    -0.057229268141    0.000467500167    -0.000157543164    0.149395574550    -0.047148184715
0.800     0.124677292793    -0.053651414783    0.000284960559    -0.000097710754    0.120163978440    -0.065140477129    0.000366468521    -0.000136929381
