# GHz S RI R 45
0.000     0.015992386000    0.000000000000    -0.000005484648    0.000000000000    0.000517232650    -0.000000000000    -0.000002436230    0.000000000000
            -0.000005484626    0.000000000000    0.016422509000    0.000000000000    -0.000006345831    0.000000000000    0.000273353370    0.000000000000
            0.000517234710    -0.000000000000    -0.000006345809    0.000000000000    0.015922368000    0.000000000000    -0.000013079350    0.000000000000
            -0.000002436282    0.000000000000    0.000273355430    0.000000000000    -0.000013079357    0.000000000000    0.016240970000    0.000000000000
0.025     0.020962309391    0.009025724455    0.000001597211    -0.000005390510    0.002567401628    0.009030997905    0.000007386527    -0.000002887141
            0.000001597235    -0.000005390511    0.020437082473    0.010456684685    -0.000006665210    -0.000010370908    0.001722746838    0.010741402834
            0.002567381802    0.009031045022    -0.000006665177    -0.000010370916    0.020889378719    0.008950214621    -0.000002627483    -0.000002280409
            0.000007386556    -0.000002887146    0.001722625811    0.010741236906    -0.000002627491    -0.000002280412    0.020443981727    0.010536839247
0.050     0.028100951921    0.013440323836    -0.000002568549    -0.000018590059    0.008244460743    0.016450859660    0.000004890876    -0.000016578417
            -0.000002568538    -0.000018590063    0.025079577070    0.017088119837    -0.000013143721    -0.000021594242    0.005617822946    0.020477873209
            0.008244450603    0.016450868098    -0.000013143704    -0.000021594248    0.028009180746    0.013305161262    -0.000001362531    -0.000017680241
            0.000004890904    -0.000016578427    0.005617853339    0.020477860723    -0.000001362552    -0.000017680234    0.025101363834    0.017067993868
0.075     0.037081543927    0.014454527009    -0.000013527822    -0.000026866782    0.016663159134    0.020993899026    -0.000004225197    -0.000025733671
            -0.000013527808    -0.000026866789    0.030304411838    0.021925483465    -0.000024503015    -0.000028904180    0.011420952897    0.028613233429
            0.016663152983    0.020993898801    -0.000024502998    -0.000028904191    0.036967806673    0.014271833565    -0.000011637769    -0.000028699922
            -0.000004225170    -0.000025733684    0.011420959261    0.028613231966    -0.000011637788    -0.000028699912    0.030246031334    0.021868217274
0.100     0.046733755346    0.011360920536    -0.000027185129    -0.000029580387    0.026579754809    0.021834590854    -0.000016252338    -0.000030155088
            -0.000027185110    -0.000029580398    0.035650762947    0.024902074373    -0.000038340099    -0.000031631199    0.018471766638    0.034750075578
            0.026579755571    0.021834589926    -0.000038340018    -0.000031631255    0.046603207084    0.011145997601    -0.000025581838    -0.000034284240
            -0.000016252313    -0.000030155104    0.018471768458    0.034750074611    -0.000025581849    -0.000034284230    0.035491585339    0.024874312076
0.125     0.055412658817    0.003907111225    -0.000041111508    -0.000026939145    0.036557781815    0.018623197509    -0.000029076323    -0.000030031905
            -0.000041111500    -0.000026939150    0.040393236413    0.026178106220    -0.000052995083    -0.000029527803    0.026058696507    0.038764122259
            0.036557782140    0.018623196871    -0.000052995084    -0.000029527804    0.055272684186    0.003671830957    -0.000040846813    -0.000034582684
            -0.000029076302    -0.000030031925    0.026058699095    0.038764121725    -0.000040846821    -0.000034582679    0.040151227581    0.026245033965
0.150     0.061671142101    -0.007377586954    -0.000053718031    -0.000019632710    0.045128594727    0.011462516006    -0.000041448074    -0.000025773868
            -0.000053718029    -0.000019632709    0.044118841415    0.026254142506    -0.000067085978    -0.000022906298    0.033452471836    0.040723168293
            0.045128593189    0.011462513938    -0.000067085916    -0.000022906381    0.061548582532    -0.007619695307    -0.000055966249    -0.000029984220
            -0.000041448054    -0.000025773896    0.033452464246    0.040723170646    -0.000055966251    -0.000029984220    0.043825997443    0.026461765332
0.175     0.064056673378    -0.021611518775    -0.000063786266    -0.000008665759    0.050919516982    0.000967464207    -0.000052321244    -0.000018031279
            -0.000063786240    -0.000008665801    0.046445284057    0.025677577214    -0.000079521225    -0.000012300972    0.040020242410    0.040974095477
            0.050919515999    0.000967463299    -0.000079521225    -0.000012300972    0.063979855779    -0.021865538491    -0.000069727645    -0.000021070782
            -0.000052321234    -0.000018031296    0.040020243824    0.040974095494    -0.000069727645    -0.000021070782    0.046160768958    0.026054721119
0.200     0.061520837721    -0.037411298916    -0.000070732075    0.000004940846    0.052820786910    -0.011817536283    -0.000061100453    -0.000007424677
            -0.000070732035    0.000004940769    0.047219666530    0.025150759229    -0.000089592914    0.000001641387    0.045310748638    0.040061126168
            0.052820785728    -0.011817536986    -0.000089592878    0.000001641293    0.061515604889    -0.037696695966    -0.000081354329    -0.000008443863
            -0.000061100414    -0.000007424770    0.045310741496    0.040061129716    -0.000081354332    -0.000008443863    0.047012585640    0.025698966471
0.225     0.053509450603    -0.053078277503    -0.000074216665    0.000020182319    0.050099563964    -0.025516628422    -0.000067317924    0.000005384900
            -0.000074216663    0.000020182318    0.046585317390    0.025403524388    -0.000096749649    0.000018295255    0.049107313741    0.038643260942
            0.050099562628    -0.025516628843    -0.000096749625    0.000018295163    0.053594441852    -0.053427631886    -0.000090192965    0.000007261855
            -0.000067317912    0.000005384852    0.049107315876    0.038643259846    -0.000090192966    0.000007261855    0.046523166469    0.026094439612
0.250     0.040057765595    -0.066766248320    -0.000074200838    0.000036293256    0.042495682924    -0.038553075788    -0.000070677192    0.000019879148
            -0.000074200838    0.000036293255    0.044974516332    0.027090600350    -0.000100599052    0.000037121228    0.051458400088    0.037411144070
            0.042495682183    -0.038553075116    -0.000100599052    0.000037121228    0.040239398608    -0.067222139243    -0.000095751874    0.000025511661
            -0.000070677181    0.000019879052    0.051458403012    0.037411143450    -0.000095751875    0.000025511661    0.045109860321    0.027870051660
0.275     0.021802364409    -0.076670034151    -0.000070672121    0.000052557589    0.030269449950    -0.049297506802    -0.000070878160    0.000035493526
            -0.000070672121    0.000052557589    0.043066616827    0.030665140378    -0.000100710608    0.000057574847    0.052670833408    0.036983715288
            0.030269448566    -0.049297506478    -0.000100710608    0.000057574847    0.022070592104    -0.077280485527    -0.000097512002    0.000045707890
            -0.000070878160    0.000035493479    0.052670836336    0.036983714599    -0.000097512002    0.000045707890    0.043428462453    0.031459470628
0.300     -0.000033636830    -0.081225956035    -0.000063659378    0.000068414553    0.014209531934    -0.056241055855    -0.000067636725    0.000051689383
            -0.000063659386    0.000068414465    0.041701436638    0.036307500509    -0.000096646167    0.000079084593    0.053276091915    0.037822345941
            0.014209521873    -0.056241057366    -0.000096646175    0.000079084600    0.000291706580    -0.082038637388    -0.000094960559    0.000067219875
            -0.000067636744    0.000051689285    0.053276094866    0.037822345239    -0.000094960559    0.000067219875    0.042288617766    0.037034794117
0.325     -0.023737864043    -0.079286596432    -0.000053182339    0.000083203338    -0.004415587803    -0.058158546905    -0.000060695825    0.000067754651
            -0.000053182364    0.000083203282    0.041767521230    0.043860779127    -0.000087935056    0.000100878628    0.053954223422    0.040147373670
            -0.004415588743    -0.058158545830    -0.000087935100    0.000100878537    -0.023404286135    -0.080341197281    -0.000087597059    0.000089185174
            -0.000060695824    0.000067754650    0.053954227129    0.040147372039    -0.000087597052    0.000089185167    0.042547067310    0.044442774186
0.350     -0.047252613236    -0.070285251193    -0.000039310426    0.000096247299    -0.023963859846    -0.054267661078    -0.000049897224    0.000082869292
            -0.000039310426    0.000096247299    0.044076693304    0.052837568813    -0.000074207112    0.000121982007    0.055441868163    0.043899413947
            -0.023963859442    -0.054267660164    -0.000074207112    0.000121982007    -0.046977166433    -0.071606178800    -0.000075046089    0.000110547408
            -0.000049897223    0.000082869289    0.055441872029    0.043899412286    -0.000075046095    0.000110547416    0.044986927825    0.053211998367
0.375     -0.068372738272    -0.054325563557    -0.000022282632    0.000106713606    -0.042571490511    -0.044336597857    -0.000035312136    0.000096030912
            -0.000022282632    0.000106713606    0.049235637498    0.062449371364    -0.000055315916    0.000141145304    0.058411117460    0.048725167645
            -0.042571489819    -0.044336597136    -0.000055315968    0.000141145219    -0.068234398441    -0.055915404865    -0.000057202594    0.000129983582
            -0.000035312176    0.000096030866    0.058411120780    0.048725165227    -0.000057202583    0.000129983619    0.050194024358    0.062580231030
0.400     -0.084978077427    -0.032221146773    -0.000002559965    0.000113771843    -0.058353087208    -0.028747328832    -0.000017305942    0.000106206154
            -0.000002560029    0.000113771771    0.057547236428    0.071708587733    -0.000031493415    0.000156983213    0.063369193320    0.054027988083
            -0.058353091328    -0.028747318206    -0.000031493487    0.000156983147    -0.085060790746    -0.034055870557    -0.000034354408    0.000146069007
            -0.000017305941    0.000106206144    0.063369196910    0.054027985414    -0.000034354408    0.000146069007    0.058461627626    0.071592644614
0.425     -0.095258707321    -0.005437286645    0.000019060743    0.000116637714    -0.069598971813    -0.008475120683    0.000003373795    0.000112419366
            0.000019060743    0.000116637714    0.068943419997    0.079543690793    -0.000003453823    0.000168094761    0.070565389992    0.059040585893
            -0.069598970820    -0.008475120562    -0.000003453826    0.000168094761    -0.095643562407    -0.007464479697    -0.000007284917    0.000157393200
            0.000003373795    0.000112419366    0.070565392053    0.059040583430    -0.000007284912    0.000157393200    0.069725397699    0.079212196167
0.450     -0.097924237495    0.024035809860    0.000041516906    0.000114767568    -0.074973609316    0.014996310730    0.000025658338    0.000113942936
            0.000041516906    0.000114767568    0.082984148466    0.084950543778    0.000027608420    0.000173300223    0.079956724854    0.062943461315
            -0.074973608336    0.014996310534    0.000027608420    0.000173300223    -0.098681203335    0.021896792788    0.000022754677    0.000162807404
            0.000025658338    0.000113942936    0.079956728150    0.062943457128    0.000022754687    0.000162807412    0.083561399759    0.084464557316
0.475     -0.092341064911    0.053874354352    0.000063521744    0.000107922880    -0.073652070451    0.039822462719    0.000048232498    0.000110379572
            0.000063521744    0.000107922880    0.098899087343    0.087116004922    0.000060110860    0.000171772651    0.091202708536    0.064969513310
            -0.073652062621    0.039822475098    0.000060110854    0.000171772653    -0.093522294127    0.051731824985    0.000054145862    0.000161542635
            0.000048232498    0.000110379572    0.091202711938    0.064969508534    0.000054145862    0.000161542635    0.099224812393    0.086558665140
0.500     -0.078610802196    0.081644092777    0.000083839776    0.000096303897    -0.065413407639    0.063983576826    0.000069791895    0.000101787847
            0.000083839772    0.000096303900    0.115688120877    0.085527400855    0.000092364814    0.000163252794    0.103719659487    0.064512274641
            -0.065413406924    0.063983576127    0.000092364812    0.000163252796    -0.080240052011    0.079639410628    0.000085190515    0.000153402654
            0.000069791802    0.000101787826    0.103719659487    0.064512274641    0.000085190520    0.000153402663    0.115744386330    0.084991525778
0.525     -0.057580635052    0.105026481496    0.000101276874    0.000080605121    -0.050660863282    0.085476491030    0.000089069947    0.000088729167
            0.000101276865    0.000080605116    0.132236615359    0.080019524725    0.000122633835    0.000148095676    0.116746038199    0.061190615204
            -0.050660847853    0.085476499012    0.000122633842    0.000148095684    -0.059613880812    0.103341266057    0.000114175060    0.000138800998
            0.000089069897    0.000088729161    0.116746041402    0.061190609091    0.000114175060    0.000138800998    0.132029469971    0.079603995169
0.550     -0.030795773634    0.122108430508    0.000114962191    0.000061838287    -0.030387856972    0.102552323737    0.000105103152    0.000072104281
            0.000114962192    0.000061838285    0.147448069147    0.070786032899    0.000149404806    0.000127093276    0.129453005594    0.054897909229
            -0.030387856972    0.102552323737    0.000149404802    0.000127093281    -0.033044326162    0.120891672960    0.000139650221    0.000118575956
            0.000105103064    0.000072104286    0.129452998304    0.054897900806    0.000139650221    0.000118575956    0.147015271265    0.070606299523
0.575     -0.000172196896    0.131611837351    0.000124506018    0.000041115292    -0.005958262795    0.113876041362    0.000117387693    0.000052922482
            0.000124506009    0.000041115287    0.160344019658    0.058337635905    0.000171538092    0.000101361677    0.141037410850    0.045768814373
            -0.005958262795    0.113876041362    0.000171538090    0.000101361680    -0.002415128841    0.130831120385    0.000160546237    0.000093858209
            0.000117387645    0.000052922490    0.141037414045    0.045768804527    0.000160546237    0.000093858209    0.159794235861    0.058499586968
0.600     0.032217320087    0.132703829806    0.000129813587    0.000019431572    0.021008530357    0.118458386929    0.000125685908    0.000032111335
            0.000129813578    0.000019431568    0.170160054664    0.043446917254    0.000188351207    0.000072209058    0.150760573569    0.034147650030
            0.021008534492    0.118458386195    0.000188351204    0.000072209064    0.030068697350    0.132293657557    0.000176242963    0.000065938597
            0.000125685917    0.000032111339    0.150760566200    0.034147637295    0.000176242972    0.000065938600    0.169635455502    0.043986014453
0.625     0.064039751066    0.125083760003    0.000131015748    -0.000002219101    0.048613859677    0.115754713309    0.000129978385    0.000010617396
            0.000131015748    -0.000002219104    0.176394621469    0.027063987125    0.000199574092    0.000040958990    0.157992091778    0.020592414671
            0.048613859677    0.115754713309    0.000199574092    0.000040958993    0.062058385565    0.125042969249    0.000186519777    0.000036115416
            0.000129978384    0.000010617419    0.157992092425    0.020592409707    0.000186519765    0.000036115428    0.176024725308    0.027962905446
0.650     0.092946085845    0.109144575783    0.000128541374    -0.000022998891    0.074876995578    0.105775996053    0.000130534769    -0.000010733402
            0.000128541374    -0.000022998891    0.178846393417    0.010227161063    0.000205305274    0.000008817148    0.162297675343    0.005827403491
            0.074876995578    0.105775996053    0.000205305274    0.000008817149    0.091238139758    0.109467360536    0.000191517250    0.000005546201
            0.000130534769    -0.000010733401    0.162297675648    0.005827394993    0.000191517240    0.000005546202    0.178747751700    0.011435111059
0.675     0.116790416719    0.085896474966    0.000122996620    -0.000042325941    0.097890099113    0.089045026606    0.000127789280    -0.000031342405
            0.000122996620    -0.000042325941    0.177608587286    -0.006017011214    0.000205899035    -0.000023238636    0.163454954292    -0.009324282890
            0.097890099113    0.089045026606    0.000205899035    -0.000023238635    0.115476099792    0.086536965444    0.000191610202    -0.000024845992
            0.000127789261    -0.000031342400    0.163454944097    -0.009324286029    0.000191610180    -0.000024846003    0.177882500850    -0.004583787484
0.700     0.133766731063    0.056871002563    0.000115032903    -0.000059902872    0.115937180539    0.066557909281    0.000122229760    -0.000050851137
            0.000115032856    -0.000059902853    0.173070423792    -0.020694319393    0.000201864206    -0.000054500905    0.161490587876    -0.023995349261
            0.115937180539    0.066557909281    0.000201864251    -0.000054500890    0.132959192756    0.057739639484    0.000187308737    -0.000054412674
            0.000122229760    -0.000050851137    0.161490587876    -0.023995349261    0.000187308737    -0.000054412674    0.173793961098    -0.019149931004
0.725     0.142508594371    0.024022959634    0.000105250199    -0.000075682197    0.127581445590    0.039728934095    0.000114297466    -0.000069114082
            0.000105250199    -0.000075682197    0.165882365683    -0.032972193462    0.000193731330    -0.000084538583    0.156676227454    -0.037341112480
            0.127581445590    0.039728934095    0.000193731330    -0.000084538583    0.142299566633    0.024990180145    0.000179119314    -0.000082773628
            0.000114297466    -0.000069114082    0.156676226803    -0.037341115214    0.000179119314    -0.000082773628    0.167097723206    -0.031456436157
0.750     0.142184863933    -0.010383036487    0.000094100591    -0.000089821310    0.131774126137    0.010325786640    0.000104312418    -0.000086151410
            0.000094100581    -0.000089821320    0.156925436395    -0.042235405851    0.000181954946    -0.000113164326    0.149547182458    -0.048609969188
            0.131774126119    0.010325786870    0.000181954948    -0.000113164323    0.142631339006    -0.009477945989    0.000167461320    -0.000109777784
            0.000104312052    -0.000086150566    0.149547182458    -0.048609969188    0.000167461337    -0.000109777795    0.158632357667    -0.040901082592
0.775     0.132567122424    -0.043899258631    0.000081827601    -0.000102600454    0.127933127153    -0.019617832574    0.000092411633    -0.000102065183
            0.000081827469    -0.000102599997    0.147246139892    -0.048146222749    0.000166799891    -0.000140357294    0.140861548845    -0.057229268141
            0.127933127153    -0.019617832574    0.000166799762    -0.000140356857    0.133682295780    -0.043239067361    0.000152547419    -0.000135417836
            0.000092411627    -0.000102065188    0.140861548845    -0.057229268141    0.000152547424    -0.000135417831    0.149395574550    -0.047148184715
