# GHz S RI R 45
0.000     0.017460721000    0.000000000000    0.000014129190    0.000000000000    0.000264570560    0.000000000000    0.000023250053    0.000000000000
            0.000014129086    0.000000000000    0.016422509000    0.000000000000    0.000042668230    0.000000000000    0.000273353370    0.000000000000
            0.000264546170    0.000000000000    0.000042668045    0.000000000000    0.017373536000    0.000000000000    0.000022221311    0.000000000000
            0.000023249771    0.000000000000    0.000273355430    0.000000000000    0.000022221326    0.000000000000    0.016240970000    0.000000000000
0.025     0.022376949906    0.011540941162    -0.000046442058    -0.000021329140    0.002069729422    0.011861883714    -0.000029274185    -0.000017893291
            -0.000046442158    -0.000021329137    0.020437082473    0.010456684685    -0.000042843392    -0.000033548349    0.001722746838    0.010741402834
            0.002069581173    0.011861718741    -0.000042843569    -0.000033548331    0.022272548226    0.011488542763    -0.000021595784    -0.000009146029
            -0.000029274457    -0.000017893268    0.001722625811    0.010741236906    -0.000021595771    -0.000009146028    0.020443981727    0.010536839247
0.050     0.028292785574    0.018403636863    -0.000058247024    0.000021587901    0.007127881103    0.022324079109    -0.000038817105    0.000020001073
            -0.000058247122    0.000021587915    0.025079577070    0.017088119837    -0.000060824874    0.000023313105    0.005617822946    0.020477873209
            0.007127885683    0.022324069249    -0.000060825059    0.000023313127    0.028132301787    0.018315078273    -0.000025966317    0.000029012301
            -0.000038817388    0.000020001107    0.005617853339    0.020477860723    -0.000025966306    0.000029012299    0.025101363834    0.017067993868
0.075     0.034979873036    0.022653272737    -0.000043552257    0.000051355658    0.014523045001    0.030381120833    -0.000025644410    0.000046229026
            -0.000043552359    0.000051355670    0.030304411838    0.021925483465    -0.000043229531    0.000062682279    0.011420952897    0.028613233429
            0.014523025346    0.030381124687    -0.000043229714    0.000062682310    0.034736830088    0.022571893743    -0.000009985967    0.000055518076
            -0.000025644639    0.000046229059    0.011420959261    0.028613231966    -0.000009985957    0.000055518075    0.030246031334    0.021868217274
0.100     0.041579520111    0.024140773050    -0.000020159945    0.000068980604    0.023150103652    0.035497754408    -0.000004672373    0.000061825431
            -0.000020160042    0.000068980623    0.035650762947    0.024902074373    -0.000013743316    0.000086325875    0.018471766638    0.034750075578
            0.023150078290    0.035497760203    -0.000013743496    0.000086325917    0.041255206349    0.024117473581    0.000013801683    0.000071213653
            -0.000004672653    0.000061825489    0.018471768458    0.034750074611    0.000013801705    0.000071213651    0.035491585339    0.024874312076
0.125     0.046910462601    0.023179879164    0.000005710392    0.000075971836    0.031834509702    0.037612868605    0.000018454519    0.000068057559
            0.000005710299    0.000075971857    0.040393236413    0.026178106220    0.000019188129    0.000096281463    0.026058696507    0.038764122259
            0.031834480953    0.037612875906    0.000019187947    0.000096281513    0.046540839759    0.023259584748    0.000039737450    0.000077066505
            0.000018454264    0.000068057624    0.026058699095    0.038764121725    0.000039737460    0.000077066501    0.040151227581    0.026245033965
0.150     0.050202538814    0.020545514144    0.000030954091    0.000074079796    0.039449764824    0.037053194143    0.000041142105    0.000066433018
            0.000030953998    0.000074079820    0.044118841415    0.026254142506    0.000051715063    0.000094803556    0.033452471836    0.040723168293
            0.039449737158    0.037053203148    0.000051714892    0.000094803615    0.049828177200    0.020754430022    0.000065147821    0.000074466370
            0.000041141835    0.000066433103    0.033452464246    0.040723170646    0.000065147833    0.000074466368    0.043825997443    0.026461765332
0.175     0.050865806717    0.017280909635    0.000053182534    0.000065113734    0.045096994091    0.034578286988    0.000061203309    0.000058520817
            0.000053182434    0.000065113767    0.046445284057    0.025677577214    0.000080643601    0.000084156195    0.040020242410    0.040974095477
            0.045096976499    0.034578293497    0.000080643439    0.000084156267    0.050544287671    0.017627723427    0.000087649892    0.000065008464
            0.000061203090    0.000058520896    0.040020243824    0.040974095494    0.000087649905    0.000065008462    0.046160768958    0.026054721119
0.200     0.048752541566    0.014641259823    0.000071255328    0.000050835306    0.048243784907    0.031239355380    0.000077676697    0.000045869776
            0.000071255225    0.000050835346    0.047219666530    0.025150759229    0.000104533501    0.000066557848    0.045310748638    0.040061126168
            0.048243757552    0.031239366349    0.000104533336    0.000066557920    0.048546702289    0.015108204225    0.000106198039    0.000050361551
            0.000077676532    0.000045869848    0.045310741496    0.040061129716    0.000106198052    0.000050361548    0.047012585640    0.025698966471
0.225     0.044244862331    0.013892365374    0.000084385920    0.000033019787    0.048805572506    0.028225081128    0.000089809984    0.000030034245
            0.000084385822    0.000033019832    0.046585317390    0.025403524388    0.000122264336    0.000044251708    0.049107313741    0.038643260942
            0.048805547698    0.028225094062    0.000122264179    0.000044251789    0.044209940113    0.014433160143    0.000119931727    0.000032204506
            0.000089809733    0.000030034368    0.049107315876    0.038643259846    0.000119931748    0.000032204505    0.046523166469    0.026094439612
0.250     0.038236967603    0.016116707299    0.000092447189    0.000013081736    0.047184038165    0.026691418887    0.000097533500    0.000012272750
            0.000092447096    0.000013081786    0.044974516332    0.027090600350    0.000133688844    0.000019053482    0.051458400088    0.037411144070
            0.047184012997    0.026691432913    0.000133688865    0.000019053475    0.038407859460    0.016660660429    0.000128804533    0.000011936962
            0.000097533255    0.000012272887    0.051458403012    0.037411143450    0.000128804554    0.000011936959    0.045109860321    0.027870051660
0.275     0.032047301818    0.021996452570    0.000095458046    -0.000007600264    0.044232100127    0.027568874131    0.000100826121    -0.000006203968
            0.000095457994    -0.000007600237    0.043066616827    0.030665140378    0.000138762341    -0.000007275447    0.052670833408    0.036983715288
            0.044232084196    0.027568884567    0.000138761935    -0.000007275184    0.032428743315    0.022458346537    0.000132779439    -0.000009109691
            0.000100825890    -0.000006203820    0.052670836336    0.036983714599    0.000132779449    -0.000009109696    0.043428462453    0.031459470628
0.300     0.027247661246    0.031668801933    0.000093731391    -0.000028005813    0.041155027127    0.031392886323    0.000100015060    -0.000024504357
            0.000093731302    -0.000028005754    0.041701436638    0.036307500509    0.000137929232    -0.000033441978    0.053276091915    0.037822345941
            0.041155029813    0.031392886099    0.000137929251    -0.000033441987    0.027808591374    0.031961362325    0.000132269107    -0.000029958796
            0.000100014832    -0.000024504197    0.053276094866    0.037822345239    0.000132269125    -0.000029958805    0.042288617766    0.037034794117
0.325     0.025431966459    0.044621824350    0.000087682341    -0.000047113080    0.039326577088    0.038166126784    0.000095434751    -0.000041744453
            0.000087682340    -0.000047113075    0.041767521230    0.043860779127    0.000131673189    -0.000058165363    0.053954223422    0.040147373670
            0.039326538092    0.038166156914    0.000131673205    -0.000058165376    0.026105315800    0.044671461428    0.000127637709    -0.000049651879
            0.000095433978    -0.000041743873    0.053954227129    0.040147372039    0.000127637728    -0.000049651886    0.042547067310    0.044442774186
0.350     0.027950432108    0.059718652368    0.000077868717    -0.000064198965    0.040063761159    0.047317821825    0.000087611815    -0.000057323114
            0.000077868710    -0.000064198957    0.044076693304    0.052837568813    0.000120731580    -0.000080576237    0.055441868163    0.043899413947
            0.040063763457    0.047317821189    0.000120731595    -0.000080576250    0.028639938243    0.059479859200    0.000119505265    -0.000067567738
            0.000087611823    -0.000057323121    0.055441872029    0.043899412286    0.000119505273    -0.000067567745    0.044986927825    0.053211998367
0.375     0.035653771620    0.075313121979    0.000064978096    -0.000078579441    0.044375889870    0.057754145860    0.000077101007    -0.000070660534
            0.000064978090    -0.000078579434    0.049235637498    0.062449371364    0.000105901366    -0.000099838940    0.058411117460    0.048725167645
            0.044375891886    0.057754144311    0.000105901026    -0.000099838616    0.036247332828    0.074779964013    0.000108458394    -0.000083096697
            0.000077100673    -0.000070660203    0.058411120780    0.048725165227    0.000108458410    -0.000083096709    0.050194024358    0.062580231030
0.400     0.048716747754    0.089497596356    0.000049742805    -0.000089858806    0.052775386762    0.068036216120    0.000064545910    -0.000081449348
            0.000049742804    -0.000089858796    0.057547236428    0.071708587733    0.000088083453    -0.000115502443    0.063369193320    0.054027988083
            0.052775388524    0.068036213487    0.000088083471    -0.000115502466    0.049102595316    0.088707687331    0.000095205621    -0.000095951831
            0.000064545238    -0.000081448668    0.063369196910    0.054027985414    0.000095205638    -0.000095951842    0.058461627626    0.071592644614
0.425     0.066571352464    0.100389131135    0.000032977206    -0.000097764968    0.065168597543    0.076609819329    0.000050588607    -0.000089449575
            0.000032977143    -0.000097764894    0.068943419997    0.079543690793    0.000068200010    -0.000127216332    0.070565389992    0.059040585893
            0.065168569258    0.076609856519    0.000068200019    -0.000127216350    0.066655430958    0.099421410414    0.000080402705    -0.000105883786
            0.000050588293    -0.000089449246    0.070565392053    0.059040583430    0.000080402719    -0.000105883800    0.069725397699    0.079212196167
0.450     0.087991316458    0.106431340336    0.000015414678    -0.000102280773    0.080884797901    0.082069564346    0.000035848497    -0.000094659999
            0.000015414628    -0.000102280710    0.082984148466    0.084950543778    0.000047122723    -0.000134959295    0.079956724854    0.062943461315
            0.080884799333    0.082069562935    0.000047122727    -0.000134959305    0.087711048602    0.105395446524    0.000064699131    -0.000112919158
            0.000035847896    -0.000094659264    0.079956728150    0.062943457128    0.000064699150    -0.000112919182    0.083561399759    0.084464557316
0.475     0.111276344817    0.106608538967    -0.000002237507    -0.000103520032    0.098791241830    0.083354981525    0.000020875392    -0.000097140362
            -0.000002237567    -0.000103519951    0.098899087343    0.087116004922    0.000025649213    -0.000138805666    0.091202708536    0.064969513310
            0.098791241830    0.083354981525    0.000025648930    -0.000138805311    0.110606625068    0.105630429994    0.000048644779    -0.000117105370
            0.000020875258    -0.000097140193    0.091202711938    0.064969508534    0.000048644787    -0.000117105389    0.099224812393    0.086558665140
0.500     0.134520637810    0.100564946415    -0.000019439104    -0.000101737318    0.117491893236    0.079880168415    0.000006126590    -0.000097093415
            -0.000019439146    -0.000101737249    0.115688120877    0.085527400855    0.000004432817    -0.000139029580    0.103719659487    0.064512274641
            0.117491889149    0.079880156640    0.000004432822    -0.000139029580    0.133462702627    0.099769102315    0.000032707795    -0.000118662336
            0.000006126438    -0.000097093199    0.103719659487    0.064512274641    0.000032707804    -0.000118662354    0.115744386330    0.084991525778
0.525     0.155941400138    0.088621442619    -0.000035736982    -0.000097244694    0.135559019700    0.071565874435    -0.000008041593    -0.000094727182
            -0.000035737026    -0.000097244604    0.132236615359    0.080019524725    -0.000015993744    -0.000135927230    0.116746038199    0.061190615204
            0.135558999715    0.071565912290    -0.000015993981    -0.000135926840    0.154419333467    0.088087348457    0.000017245499    -0.000117770966
            -0.000008041695    -0.000094726933    0.116746041402    0.061190609091    0.000017245503    -0.000117770976    0.132029469971    0.079603995169
0.550     0.172932148828    0.072159410447    -0.000050826448    -0.000090395356    0.151073815269    0.059110507018    -0.000021337244    -0.000090299709
            -0.000050826497    -0.000090395260    0.147448069147    0.070786032899    -0.000035235401    -0.000129875760    0.129453005594    0.054897909229
            0.151073815269    0.059110507018    -0.000035235835    -0.000129874937    0.171903207141    0.071445117454    0.000002547367    -0.000114695155
            -0.000021337388    -0.000090299474    0.129452998304    0.054897900806    0.000002547366    -0.000114695175    0.147015271265    0.070606299523
0.575     0.185782208851    0.051036071755    -0.000064469308    -0.000081463617    0.163633286739    0.042402786414    -0.000033580612    -0.000084005905
            -0.000064469339    -0.000081463568    0.160344019658    0.058337635905    -0.000052974553    -0.000121173015    0.141037410850    0.045768814373
            0.163633266698    0.042402823889    -0.000052974636    -0.000121172859    0.184517387625    0.051084046828    -0.000011167095    -0.000109603894
            -0.000033580720    -0.000084005708    0.141037414045    0.045768804527    -0.000011167092    -0.000109603904    0.159794235861    0.058499586968
0.600     0.192821779402    0.028125335198    -0.000076522572    -0.000070759132    0.171825728879    0.023296487800    -0.000044574268    -0.000076082754
            -0.000076522619    -0.000070759051    0.170160054664    0.043446917254    -0.000068983393    -0.000110161867    0.150760573569    0.034147650030
            0.171825729570    0.023296482702    -0.000068983479    -0.000110161707    0.191435340669    0.028598861960    -0.000023696425    -0.000102728589
            -0.000044574393    -0.000076082511    0.150760566200    0.034147637295    -0.000023696430    -0.000102728609    0.169635455502    0.043986014453
0.625     0.193778363571    0.004829637798    -0.000086845992    -0.000058541363    0.175242154964    0.003012136974    -0.000054175712    -0.000066712572
            -0.000086846037    -0.000058541261    0.176394621469    0.027063987125    -0.000083066511    -0.000097122931    0.157992091778    0.020592414671
            0.175242154965    0.003012136913    -0.000083066578    -0.000097122769    0.192602203474    0.005923797282    -0.000034870428    -0.000094236334
            -0.000054175821    -0.000066712325    0.157992092425    0.020592409707    -0.000034870435    -0.000094236352    0.176024725308    0.027962905446
0.650     0.188835468352    -0.017083992075    -0.000095329351    -0.000045022575    0.173603188621    -0.017301878856    -0.000062224897    -0.000056089328
            -0.000095329381    -0.000045022488    0.178846393417    0.010227161063    -0.000095032535    -0.000082330332    0.162297675343    0.005827403491
            0.173603188621    -0.017301878856    -0.000095032590    -0.000082330177    0.188109651077    -0.015717538813    -0.000044500686    -0.000084325918
            -0.000062224990    -0.000056089077    0.162297675648    0.005827394993    -0.000044500680    -0.000084325942    0.178747751700    0.011435111059
0.675     0.178677940202    -0.035950346465    -0.000101851345    -0.000030436289    0.166992227134    -0.036018546838    -0.000068579536    -0.000044402078
            -0.000101851381    -0.000030436203    0.177608587286    -0.006017011214    -0.000104712473    -0.000066055977    0.163454954292    -0.009324282890
            0.166992227134    -0.036018546838    -0.000104712522    -0.000066055804    0.178400999733    -0.034472945008    -0.000052410883    -0.000073181729
            -0.000068579628    -0.000044401815    0.163454944097    -0.009324286029    -0.000052410894    -0.000073181745    0.177882500850    -0.004583787484
0.700     0.164455252625    -0.050312723541    -0.000106288450    -0.000015003346    0.156082574385    -0.051657557238    -0.000073070104    -0.000031895451
            -0.000106288483    -0.000015003256    0.173070423792    -0.020694319393    -0.000111922100    -0.000048602088    0.161490587876    -0.023995349261
            0.156082563990    -0.051657556820    -0.000111922140    -0.000048601920    0.164636409574    -0.048870468857    -0.000058397210    -0.000061075611
            -0.000073070164    -0.000031895280    0.161490587876    -0.023995349261    -0.000058397233    -0.000061075614    0.173793961098    -0.019149931004
0.725     0.147760253431    -0.059053668701    -0.000108530493    0.000001004341    0.141993547484    -0.062933769596    -0.000075582155    -0.000018827122
            -0.000108530522    0.000001004436    0.165882365683    -0.032972193462    -0.000116523540    -0.000030289268    0.156676227454    -0.037341112480
            0.141993536533    -0.062933720266    -0.000116523578    -0.000030289082    0.148368134258    -0.057804528483    -0.000062324345    -0.000048274500
            -0.000075582218    -0.000018826858    0.156676226803    -0.037341115214    -0.000062324358    -0.000048274510    0.167097723206    -0.031456436157
0.750     0.130568397186    -0.061561028387    -0.000108476796    0.000017300279    0.126313507053    -0.068914657627    -0.000076000393    -0.000005533099
            -0.000108476808    0.000017300397    0.156925436395    -0.042235405851    -0.000118372521    -0.000011500346    0.149547182458    -0.048609969188
            0.126313491669    -0.068914560548    -0.000118372539    -0.000011500160    0.131516538034    -0.060653986562    -0.000064045549    -0.000035164169
            -0.000076000440    -0.000005532849    0.149547182458    -0.048609969188    -0.000064045556    -0.000035164187    0.158632357667    -0.040901082592
0.775     0.115089954487    -0.057892160051    -0.000106086262    0.000033542512    0.110987729690    -0.069229499287    -0.000074314894    0.000007650701
            -0.000106086271    0.000033542617    0.147246139892    -0.048146222749    -0.000117426839    0.000007365031    0.140861548845    -0.057229268141
            0.110987729690    -0.069229499287    -0.000117426847    0.000007365217    0.116235966906    -0.057444815761    -0.000063553252    -0.000022093844
            -0.000074314925    0.000007650941    0.140861548845    -0.057229268141    -0.000063553259    -0.000022093859    0.149395574550    -0.047148184715
