# GHz S RI R 45
0.000     0.016317779000    0.000000000000    -0.000090538441    0.000000000000    0.000516139560    -0.000000000000    -0.000101045990    0.000000000000
            -0.000090537986    0.000000000000    0.016422509000    0.000000000000    -0.000060068285    0.000000000000    0.000273353370    0.000000000000
            0.000516136520    -0.000000000000    -0.000060067440    0.000000000000    0.016232790000    0.000000000000    -0.000062522193    0.000000000000
            -0.000101045310    0.000000000000    0.000273355430    0.000000000000    -0.000062522576    0.000000000000    0.016240970000    0.000000000000
0.025     0.021672424667    0.009981085742    -0.000107042510    -0.000198530731    0.002904316548    0.010162090995    -0.000079030743    -0.000136141745
            -0.000107042101    -0.000198530803    0.020437082473    0.010456684685    -0.000117723956    -0.000276451747    0.001722746838    0.010741402834
            0.002904290923    0.010162140960    -0.000117723106    -0.000276451892    0.021609001054    0.009960771968    -0.000095317512    -0.000210256300
            -0.000079030157    -0.000136141830    0.001722625811    0.010741236906    -0.000095317993    -0.000210256192    0.020443981727    0.010536839247
0.050     0.029554063700    0.014918983736    -0.000227459191    -0.000401298671    0.009417924535    0.018390684153    -0.000161880697    -0.000314002959
            -0.000227458806    -0.000401298808    0.025079577070    0.017088119837    -0.000280917514    -0.000517273308    0.005617822946    0.020477873209
            0.009417910631    0.018390695768    -0.000280916715    -0.000517273560    0.029491436476    0.014897129331    -0.000221935642    -0.000405814853
            -0.000161880044    -0.000314003172    0.005617853339    0.020477860723    -0.000221936111    -0.000405814699    0.025101363834    0.017067993868
0.075     0.039488226173    0.016026223634    -0.000433679542    -0.000538285506    0.019005280203    0.023250661441    -0.000329002790    -0.000432512557
            -0.000433679097    -0.000538285723    0.030304411838    0.021925483465    -0.000533719649    -0.000685017208    0.011420952897    0.028613233429
            0.019005270821    0.023250666527    -0.000533718809    -0.000685017609    0.039438823086    0.016007414551    -0.000425608383    -0.000538536562
            -0.000329002270    -0.000432512814    0.011420959261    0.028613231966    -0.000425609046    -0.000538536242    0.030246031334    0.021868217274
0.100     0.050100282573    0.012485565292    -0.000687923239    -0.000595272239    0.030184105629    0.023790084865    -0.000536911490    -0.000481305040
            -0.000687923239    -0.000595272239    0.035650762947    0.024902074373    -0.000843807824    -0.000761181437    0.018471766638    0.034750075578
            0.030184104338    0.023790088118    -0.000843806936    -0.000761181973    0.050081330163    0.012473860089    -0.000674235718    -0.000594213399
            -0.000536910640    -0.000481305629    0.018471768458    0.034750074611    -0.000674236527    -0.000594212859    0.035491585339    0.024874312076
0.125     0.059482724246    0.004050559530    -0.000962600440    -0.000565596106    0.041238330704    0.019641592484    -0.000760034302    -0.000457037287
            -0.000962600070    -0.000565596341    0.040393236413    0.026178106220    -0.001181253407    -0.000736439655    0.026058696507    0.038764122259
            0.041238330578    0.019641595073    -0.001181253065    -0.000736440014    0.059515058637    0.004055891318    -0.000941442609    -0.000566949033
            -0.000760033960    -0.000457037623    0.026058699095    0.038764121725    -0.000941442609    -0.000566949033    0.040151227581    0.026245033965
0.150     0.065947873566    -0.008619585393    -0.001233255027    -0.000451321163    0.050430460584    0.011007304861    -0.000977636541    -0.000363395070
            -0.001233255027    -0.000451321163    0.044118841415    0.026254142506    -0.001518399371    -0.000611585826    0.033452471836    0.040723168293
            0.050430462154    0.011007307048    -0.001518398666    -0.000611586774    0.066062099113    -0.008614800956    -0.001204107261    -0.000459711627
            -0.000977635943    -0.000363395819    0.033452464246    0.040723170646    -0.001204107261    -0.000459711627    0.043825997443    0.026461765332
0.175     0.067864687915    -0.024425910015    -0.001479418806    -0.000258785313    0.056169817100    -0.001302256111    -0.001173095905    -0.000207388520
            -0.001479418708    -0.000258785296    0.046445284057    0.025677577214    -0.001832023496    -0.000392546463    0.040020242410    0.040974095477
            0.056169819154    -0.001302253805    -0.001832023095    -0.000392547380    0.068089561529    -0.024447401849    -0.001443843713    -0.000279590549
            -0.001173095465    -0.000207389287    0.040020243824    0.040974095494    -0.001443843909    -0.000279590064    0.046160768958    0.026054721119
0.200     0.064100572131    -0.041703241692    -0.001685638255    0.000003096746    0.057209914664    -0.015971495557    -0.001334943082    0.000002487653
            -0.001685637857    0.000003095863    0.047219666530    0.025150759229    -0.002104249983    -0.000088036742    0.045310748638    0.040061126168
            0.057209917148    -0.015971494098    -0.002104249652    -0.000088037464    0.064458629927    -0.041788789642    -0.001647777835    -0.000035439610
            -0.001334942683    0.000002486954    0.045310741496    0.040061129716    -0.001647777835    -0.000035439610    0.047012585640    0.025698966471
0.225     0.054127102418    -0.058442622768    -0.001838653986    0.000324924025    0.052784236183    -0.031307263705    -0.001453851823    0.000257965275
            -0.001838653846    0.000324923669    0.046585317390    0.025403524388    -0.002319539131    0.000293141923    0.049107313741    0.038643260942
            0.052784238996    -0.031307262883    -0.002319538936    0.000293141076    0.054628786543    -0.058642550796    -0.001805612369    0.000264676304
            -0.001453851564    0.000257964444    0.049107315876    0.038643259846    -0.001805612369    0.000264676304    0.046523166469    0.026094439612
0.250     0.038124004468    -0.072501208127    -0.001926977183    0.000697369235    0.042716727238    -0.045406294909    -0.001522123425    0.000551822022
            -0.001926977050    0.000697368426    0.044974516332    0.027090600350    -0.002463601426    0.000742535720    0.051458400088    0.037411144070
            0.042716730879    -0.045406295603    -0.002463601303    0.000742534744    0.038762368717    -0.072873994672    -0.001908326869    0.000614194222
            -0.001522123338    0.000551821088    0.051458403012    0.037411143450    -0.001908327035    0.000614195011    0.045109860321    0.027870051660
0.275     0.016984131872    -0.081829419871    -0.001938347711    0.001109770218    0.027472795573    -0.056343208918    -0.001531019494    0.000876424672
            -0.001938347711    0.001109770218    0.043066616827    0.030665140378    -0.002520295184    0.001250468106    0.052670833408    0.036983715288
            0.027472798417    -0.056343209756    -0.002520295223    0.001250467577    0.017730711230    -0.082436085757    -0.001945001949    0.001006648050
            -0.001531019647    0.000876424405    0.052670836336    0.036983714599    -0.001945002040    0.001006648527    0.043428462453    0.031459470628
0.300     -0.007718566285    -0.084716474213    -0.001860299965    0.001549006962    0.008157216930    -0.062390236623    -0.001470951097    0.001222750099
            -0.001860299851    0.001549006317    0.041701436638    0.036307500509    -0.002471926932    0.001804013733    0.053276091915    0.037822345941
            0.008157219367    -0.062390238321    -0.002471928658    0.001804004413    -0.006916337195    -0.085611903956    -0.001902591110    0.001433831232
            -0.001470951139    0.001222749266    0.053276094866    0.037822345239    -0.001902591110    0.001433831232    0.042288617766    0.037034794117
0.325     -0.033861510296    -0.079999059838    -0.001680594045    0.001996799249    -0.013561952191    -0.062220711638    -0.001331652234    0.001577561638
            -0.001680594045    0.001996799249    0.041767521230    0.043860779127    -0.002299710476    0.002383477821    0.053954223422    0.040147373670
            -0.013561941757    -0.062220715959    -0.002299710407    0.002383477749    -0.033078313057    -0.081222916794    -0.001765990782    0.001882316603
            -0.001331651958    0.001577561871    0.053954227129    0.040147372039    -0.001765990782    0.001882316603    0.042547067310    0.044442774186
0.350     -0.058970094363    -0.067252780853    -0.001390210712    0.002429326164    -0.035606745655    -0.055103945456    -0.001104654721    0.001922808909
            -0.001390210712    0.002429326164    0.044076693304    0.052837568813    -0.001987560352    0.002961088417    0.055441868163    0.043899413947
            -0.035606746741    -0.055103947135    -0.001987560352    0.002961088417    -0.058297891728    -0.068820616084    -0.001521053794    0.002331807662
            -0.001104654721    0.001922808909    0.055441872029    0.043899412286    -0.001521053794    0.002331807662    0.044986927825    0.053211998367
0.375     -0.080476671534    -0.046883906996    -0.000986409406    0.002816821905    -0.055701083323    -0.041024648730    -0.000786141134    0.002234811064
            -0.000986409406    0.002816821905    0.049235637498    0.062449371364    -0.001526205385    0.003500067821    0.058411117460    0.048725167645
            -0.055701084934    -0.041024649916    -0.001526205385    0.003500067821    -0.080016125822    -0.048780081074    -0.001158343920    0.002753807105
            -0.000786141101    0.002234810970    0.058411120780    0.048725165227    -0.001158343920    0.002753807105    0.050194024358    0.062580231030
0.400     -0.096020537200    -0.020144717612    -0.000476103808    0.003126722719    -0.071639487197    -0.020733411641    -0.000380084859    0.002486709375
            -0.000476103823    0.003126722817    0.057547236428    0.071708587733    -0.000918127699    0.003957905431    0.063369193320    0.054027988083
            -0.071639489119    -0.020733412197    -0.000918127699    0.003957905431    -0.095869773905    -0.022318926223    -0.000677628232    0.003113956721
            -0.000380084859    0.002486709375    0.063369196910    0.054027985414    -0.000677628210    0.003113956623    0.058461627626    0.071592644614
0.425     -0.103724432497    0.010977713564    0.000122332436    0.003327130991    -0.081540273562    0.004318126936    0.000099714255    0.002651383216
            0.000122332495    0.003327130989    0.068943419997    0.079543690793    -0.000180595711    0.004290599753    0.070565389992    0.059040585893
            -0.081540276313    0.004318112810    -0.000180599567    0.004290596889    -0.103966100762    0.008609611111    -0.000091147689    0.003375528717
            0.000099714255    0.002651383216    0.070565392053    0.059040583430    -0.000091147745    0.003375528615    0.069725397699    0.079212196167
0.450     -0.102431929589    0.043964144887    0.000779545728    0.003392344326    -0.084081525858    0.032128414297    0.000629720891    0.002706370716
            0.000779545787    0.003392344313    0.082984148466    0.084950543778    0.000653739531    0.004459742361    0.079956724854    0.062943461315
            -0.084081527727    0.032128415011    0.000653739531    0.004459742361    -0.103121640132    0.041515379750    0.000575504377    0.003505579742
            0.000629720915    0.002706370608    0.079956728150    0.062943457128    0.000575504377    0.003505579742    0.083561399759    0.084464557316
0.475     -0.091834308724    0.076037628056    0.001457864629    0.003306769524    -0.078636485712    0.060370693066    0.001178722842    0.002637471572
            0.001457864687    0.003306769498    0.098899087343    0.087116004922    0.001539504459    0.004438142167    0.091202708536    0.064969513310
            -0.078636498628    0.060370681168    0.001539504459    0.004438142167    -0.092991892764    0.073640642312    0.001285165440    0.003480108587
            0.001178722888    0.002637471552    0.091202711938    0.064969508534    0.001285165440    0.003480108587    0.099224812393    0.086558665140
0.500     -0.072502104386    0.104463849827    0.002116213417    0.003067970678    -0.065335994947    0.086651108279    0.001712009765    0.002441745301
            0.002116213417    0.003067970678    0.115688120877    0.085527400855    0.002424057026    0.004214758309    0.103719659487    0.064512274641
            -0.065335994947    0.086651108279    0.002424057076    0.004214758395    -0.074106084993    0.102258931241    0.001993685945    0.003288682246
            0.001712009735    0.002441745077    0.103719659487    0.064512274641    0.001993695060    0.003288684204    0.115744386330    0.084991525778
0.525     -0.045796813837    0.126822530597    0.002715129459    0.002686500330    -0.045014833493    0.108743859521    0.002195816812    0.002127698048
            0.002715129154    0.002686500496    0.132236615359    0.080019524725    0.003253867033    0.003795773904    0.116746038199    0.061190615204
            -0.045014833493    0.108743859521    0.003253867164    0.003795773923    -0.047785482665    0.124944675371    0.002655513455    0.002935942885
            0.002195816740    0.002127697979    0.116746041402    0.061190609091    0.002655517975    0.002935943247    0.132029469971    0.079603995169
0.550     -0.013712769961    0.141230159627    0.003221826943    0.002184096980    -0.019104466210    0.124796909903    0.002602018493    0.001713787489
            0.003221826981    0.002184096923    0.147448069147    0.070786032899    0.003981358119    0.003203552341    0.129453005594    0.054897909229
            -0.019104472744    0.124796908903    0.003981358175    0.003203552272    -0.015987951068    0.139794126572    0.003229912204    0.002440821853
            0.002602018564    0.001713787926    0.129452998304    0.054897900806    0.003229912523    0.002440822094    0.147015271265    0.070606299523
0.575     0.021331952176    0.146473166943    0.003612848117    0.001589784998    0.010529119422    0.133455220214    0.002910619566    0.001224895804
            0.003612848117    0.001589784998    0.160344019658    0.058337635905    0.004569344627    0.002472311730    0.141037410850    0.045768814373
            0.010529119422    0.133455220214    0.004569344539    0.002472311682    0.018897894113    0.145559727624    0.003685142823    0.001832662787
            0.002910619566    0.001224895804    0.141037414045    0.045768804527    0.003685142734    0.001832662742    0.159794235861    0.058499586968
0.600     0.056711885176    0.142072296815    0.003875447278    0.000936097010    0.041751452719    0.133942892878    0.003110693873    0.000689130115
            0.003875447294    0.000936096943    0.170160054664    0.043446917254    0.004994087615    0.001643632447    0.150760573569    0.034147650030
            0.041751450381    0.133942893606    0.004994087615    0.001643632447    0.054270576977    0.141718701700    0.004000644097    0.001147513391
            0.003110693763    0.000689130148    0.150760566200    0.034147637295    0.004000644077    0.001147513461    0.169635455502    0.043986014453
0.625     0.089798125528    0.128267897701    0.004006700733    0.000255247632    0.072318200787    0.126068917466    0.003200131138    0.000134721838
            0.004006700714    0.000255247925    0.176394621469    0.027063987125    0.005245635884    0.000761253987    0.157992091778    0.020592414671
            0.072318205763    0.126068926140    0.005245635886    0.000761253978    0.087516408558    0.128465020432    0.004168115536    0.000424066653
            0.003200131234    0.000134721937    0.157992092425    0.020592409707    0.004168115433    0.000424066672    0.176024725308    0.027962905446
0.650     0.118141509325    0.105973029383    0.004012328618    -0.000424062118    0.100023325894    0.110224236933    0.003184812351    -0.000413108002
            0.004012328704    -0.000424062255    0.178846393417    0.010227161063    0.005327277791    -0.000133605199    0.162297675343    0.005827403491
            0.100023323970    0.110224238679    0.005327277693    -0.000133605131    0.116188032469    0.106665871846    0.004191457513    -0.000300878090
            0.003184812347    -0.000413108035    0.162297675648    0.005827394993    0.004191457413    -0.000300878083    0.178747751700    0.011435111059
0.675     0.139614594541    0.076690372008    0.003903976841    -0.001078588799    0.122814039172    0.087336941161    0.003076201413    -0.000934156935
            0.003903976823    -0.001078588867    0.177608587286    -0.006017011214    0.005252471500    -0.001005969897    0.163454954292    -0.009324282890
            0.122814055003    0.087336987921    0.005252471500    -0.001005969897    0.138146057818    0.077779110338    0.004084217421    -0.000996044103
            0.003076201604    -0.000934156993    0.163454944097    -0.009324286029    0.004084217553    -0.000996043984    0.177882500850    -0.004583787484
0.700     0.152537855322    0.042418936037    0.003697071575    -0.001691750032    0.138915589118    0.058834876239    0.002889371715    -0.001414385701
            0.003697071546    -0.001691750096    0.173070423792    -0.020694319393    0.005042120413    -0.001829776879    0.161490587876    -0.023995349261
            0.138915589118    0.058834876239    0.005042120381    -0.001829776967    0.151683657323    0.043761708075    0.003867145655    -0.001638353862
            0.002889371690    -0.001414385752    0.161490587876    -0.023995349261    0.003867145684    -0.001638353794    0.173793961098    -0.019149931004
0.725     0.155772131009    0.005543816949    0.003407936452    -0.002253578349    0.146923909865    0.026582434125    0.002640378786    -0.001846168573
            0.003407936329    -0.002253578353    0.165882365683    -0.032972193462    0.004720216151    -0.002589093073    0.156676227454    -0.037341112480
            0.146923909865    0.026582434125    0.004720213906    -0.002589089055    0.155623112670    0.006961735028    0.003564385423    -0.002214378215
            0.002640378786    -0.001846168573    0.156676226803    -0.037341115214    0.003564385377    -0.002214378100    0.167097723206    -0.031456436157
0.750     0.148812077955    -0.031289175787    0.003051578848    -0.002760398720    0.145930252364    -0.007196072291    0.002344079435    -0.002228097300
            0.003051575561    -0.002760390130    0.156925436395    -0.042235405851    0.004310137708    -0.003278482913    0.149547182458    -0.048609969188
            0.145930252364    -0.007196072291    0.004310137628    -0.003278482853    0.149408605953    -0.030002641482    0.003199854534    -0.002720992870
            0.002344079318    -0.002228097422    0.149547182458    -0.048609969188    0.003199854534    -0.002720992870    0.158632357667    -0.040901082592
0.775     0.131852009064    -0.065319453795    0.002639165824    -0.003213190296    0.135614362279    -0.040022031815    0.002011606163    -0.002563704101
            0.002639165768    -0.003213190342    0.147246139892    -0.048146222749    0.003830083404    -0.003901208687    0.140861548845    -0.057229268141
            0.135614371871    -0.040022034646    0.003830083404    -0.003901208687    0.133175220356    -0.064385378644    0.002792820190    -0.003164168576
            0.002011606163    -0.002563704101    0.140861548845    -0.057229268141    0.002792820246    -0.003164168527    0.149395574550    -0.047148184715
