# GHz S RI R 45
0.000     0.016453523000    0.000000000000    0.983118450000    -0.000000000000    0.000511421990    -0.000000000000    -0.000651849810    0.000000000000
            0.983118450000    -0.000000000000    0.016422509000    0.000000000000    -0.000651995030    0.000000000000    0.000273353370    0.000000000000
            0.000511391200    -0.000000000000    -0.000652030190    0.000000000000    0.016428238000    0.000000000000    0.983179210000    -0.000000000000
            -0.000651884980    0.000000000000    0.000273355430    0.000000000000    0.983179210000    -0.000000000000    0.016240970000    0.000000000000
0.025     0.022067556268    0.010267455344    0.965934240772    -0.166498109572    0.002971197990    0.010466480277    -0.001126915711    -0.002278267366
            0.965934240772    -0.166498109572    0.020437082473    0.010456684685    -0.001123252716    -0.002277207147    0.001722746838    0.010741402834
            0.002971145160    0.010466536854    -0.001123284739    -0.002277265055    0.021997078323    0.010208757960    0.966033446414    -0.166183221233
            -0.001127049023    -0.002278338759    0.001722625811    0.010741236906    0.966033446704    -0.166183219547    0.020443981727    0.010536839247
0.050     0.030132096836    0.015327747180    0.922373795142    -0.324685698832    0.009655318738    0.018908748086    -0.002620845419    -0.004194745832
            0.922373795142    -0.324685698832    0.025079577070    0.017088119837    -0.002616403489    -0.004195930043    0.005617822946    0.020477873209
            0.009655279305    0.018908772713    -0.002616437012    -0.004195928349    0.030052862727    0.015237812642    0.922632750718    -0.324065670909
            -0.002620879849    -0.004194745545    0.005617853339    0.020477860723    0.922632750718    -0.324065670909    0.025101363834    0.017067993868
0.075     0.040239312409    0.016423002697    0.853544384028    -0.472707207188    0.019449278490    0.023850338034    -0.004789479136    -0.005342777240
            0.853544384028    -0.472707207188    0.030304411838    0.021925483465    -0.004785026023    -0.005344211244    0.011420952897    0.028613233429
            0.019449249752    0.023850358888    -0.004785055345    -0.005344197071    0.040161673128    0.016303937368    0.854069846786    -0.471844554890
            -0.004789508589    -0.005342763192    0.011420959261    0.028613231966    0.854069846786    -0.471844554890    0.030246031334    0.021868217274
0.100     0.050942949897    0.012734831076    0.761458900341    -0.606563319656    0.030792450495    0.024324384026    -0.007268782194    -0.005652657696
            0.761458900341    -0.606563319656    0.035650762947    0.024902074373    -0.007262177852    -0.005653343324    0.018471766638    0.034750075578
            0.030792435932    0.024324405689    -0.007262204806    -0.005653325630    0.050878489205    0.012589033735    0.762331237214    -0.605542246878
            -0.007268810570    -0.005652641081    0.018471768458    0.034750074611    0.762331237214    -0.605542246878    0.035491585339    0.024874312076
0.125     0.060246766737    0.004061271783    0.648791063932    -0.722740323650    0.041887157570    0.019986944598    -0.009779851411    -0.005198712489
            0.648791051318    -0.722740334974    0.040393236413    0.026178106220    -0.009759004529    -0.005207336777    0.026058696507    0.038764122259
            0.041887146119    0.019986973240    -0.009759034149    -0.005207311005    0.060204647001    0.003884345942    0.650066274120    -0.721659949760
            -0.009779874758    -0.005198689872    0.026058699095    0.038764121725    0.650066274120    -0.721659949760    0.040151227581    0.026245033965
0.150     0.066420285414    -0.008874609441    0.519041671185    -0.818209628970    0.050927084266    0.011100912216    -0.012144840796    -0.004061768525
            0.519041671185    -0.818209628970    0.044118841415    0.026254142506    -0.012107479670    -0.004086159343    0.033452471836    0.040723168293
            0.050927080601    0.011100938419    -0.012107503398    -0.004086129690    0.066423633508    -0.009081635513    0.520752481194    -0.817181868454
            -0.012144858786    -0.004061746261    0.033452464246    0.040723170646    0.520752481194    -0.817181868454    0.043825997443    0.026461765332
0.175     0.067797963112    -0.024863780530    0.375905099079    -0.890691686963    0.056281043178    -0.001432984679    -0.014259970602    -0.002370716885
            0.375905099079    -0.890691686963    0.046445284057    0.025677577214    -0.014207040969    -0.002421742632    0.040020242410    0.040974095477
            0.056281045828    -0.001432959191    -0.014207059701    -0.002421710102    0.067866315164    -0.025120276410    0.378058549529    -0.889832661363
            -0.014259989218    -0.002370684173    0.040020243824    0.040974095494    0.378058549529    -0.889832661363    0.046160768958    0.026054721119
0.200     0.063264256890    -0.042122062077    0.223293247658    -0.938496541406    0.056699011869    -0.016191174455    -0.016103926887    -0.000223085544
            0.223293247658    -0.938496541406    0.047219666530    0.025150759229    -0.016041496997    -0.000312829884    0.045310748638    0.040061126168
            0.056699020857    -0.016191150264    -0.016041507486    -0.000312804881    0.063409452342    -0.042460013497    0.225871985502    -0.937924709026
            -0.016103941353    -0.000223052010    0.045310741496    0.040061129716    0.225871985502    -0.937924709026    0.047012585640    0.025698966471
0.225     0.052357129219    -0.058526499164    0.065291784609    -0.960501315122    0.051454855979    -0.031367719063    -0.017688084836    0.002356226573
            0.065291784609    -0.960501315122    0.046585317390    0.025403524388    -0.017627951166    0.002216935767    0.049107313741    0.038643260942
            0.051454875753    -0.031367690468    -0.017627959421    0.002216974309    0.052578887719    -0.058987022087    0.068253065721    -0.960332402839
            -0.017688091796    0.002356265204    0.049107315876    0.038643259846    0.068253065721    -0.960332402839    0.046523166469    0.026094439612
0.250     0.035370560206    -0.071841618646    -0.093875379319    -0.956185481623    0.040459854258    -0.044958231669    -0.018998775754    0.005420652601
            -0.093875379319    -0.956185481623    0.044974516332    0.027090600350    -0.018957662646    0.005224893167    0.051458400088    0.037411144070
            0.040459881606    -0.044958208403    -0.018957665095    0.005224929442    0.035652427232    -0.072470532044    -0.090601755025    -0.956530932522
            -0.018998777832    0.005420689052    0.051458403012    0.037411143450    -0.090601755025    -0.956530932522    0.045109860321    0.027870051660
0.275     0.013354669682    -0.079965948233    -0.249900656768    -0.925663601880    0.024311503440    -0.054965473235    -0.019936884734    0.009068907505
            -0.249900656768    -0.925663601880    0.043066616827    0.030665140378    -0.019934595236    0.008815458913    0.052670833408    0.036983715288
            0.024311514143    -0.054965466314    -0.019934593611    0.008815487312    0.013660971675    -0.080806939003    -0.246407008639    -0.926624671286
            -0.019936882322    0.009068944205    0.052670836336    0.036983714599    -0.246407008639    -0.926624671286    0.043428462453    0.031459470628
0.300     -0.011931194579    -0.081195071139    -0.398469543137    -0.869749357923    0.004282615312    -0.059639479844    -0.020289288091    0.013382751424
            -0.398469543137    -0.869749357923    0.041701436638    0.036307500509    -0.020345560051    0.013076520455    0.053276091915    0.037822345941
            0.004282613087    -0.059639477999    -0.020345550446    0.013076559442    -0.011656147729    -0.082283034652    -0.394878851055    -0.871407766436
            -0.020289278756    0.013382791003    0.053276094866    0.037822345239    -0.394878851055    -0.871407766436    0.042288617766    0.037034794117
0.325     -0.038171277356    -0.074446283944    -0.535375277485    -0.789993158751    -0.017773377492    -0.057698011382    -0.019735479352    0.018346972652
            -0.535375277485    -0.789993158751    0.041767521230    0.043860779127    -0.019867882652    0.017997916670    0.053954223422    0.040147373670
            -0.017773386679    -0.057698005413    -0.019867867157    0.017997953138    -0.038000356794    -0.075798597484    -0.531833373366    -0.792409581685
            -0.019735467190    0.018347006296    0.053954227129    0.040147372039    -0.531833373366    -0.792409581685    0.042547067310    0.044442774186
0.350     -0.062721822757    -0.059456511423    -0.656689492086    -0.688713558028    -0.039603618351    -0.048532523363    -0.017904696065    0.023784145878
            -0.656689612289    -0.688713443414    0.044076693304    0.052837568813    -0.018126484439    0.023404130196    0.055441868163    0.043899413947
            -0.039603617087    -0.048532521814    -0.018126464418    0.023404163411    -0.062739530757    -0.061065581353    -0.653361791604    -0.691914407655
            -0.017904676029    0.023784179736    0.055441872029    0.043899412286    -0.653361791604    -0.691914407655    0.044986927825    0.053211998367
0.375     -0.082904507819    -0.036866430382    -0.758925871205    -0.568958340393    -0.058801920202    -0.032324651253    -0.014464406789    0.029318350058
            -0.758925871205    -0.568958340393    0.049235637498    0.062449371364    -0.014785483225    0.028917196505    0.058411117460    0.048725167645
            -0.058801882245    -0.032324670480    -0.014785463453    0.028917220092    -0.083198239223    -0.038694762040    -0.755988270514    -0.572932177642
            -0.014464382281    0.029318377760    0.058411120780    0.048725165227    -0.755988270514    -0.572932177642    0.050194024358    0.062580231030
0.400     -0.096339615430    -0.008211353712    -0.839238055789    -0.434410345334    -0.073111087980    -0.010077015093    -0.009225918603    0.034397470859
            -0.839238055789    -0.434410345334    0.057547236428    0.071708587733    -0.009656261188    0.033978592894    0.063369193320    0.054027988083
            -0.073111085008    -0.010077014684    -0.009656230253    0.033978619358    -0.096989146207    -0.010189965195    -0.836868871553    -0.439103301422
            -0.009225892989    0.034397495330    0.063369196910    0.054027985414    -0.836868871553    -0.439103301422    0.058461627626    0.071592644614
0.425     -0.101241682853    0.024229722977    -0.895560048216    -0.289226599191    -0.080698313626    0.016485607002    -0.002230179578    0.038363690648
            -0.895560048216    -0.289226599191    0.068943419997    0.079543690793    -0.002787159752    0.037920847668    0.070565389992    0.059040585893
            -0.080698308789    0.016485620686    -0.002787132539    0.037920866714    -0.102308744194    0.022199139683    -0.893927723661    -0.294541720268
            -0.002230152442    0.038363709255    0.070565392053    0.059040583430    -0.893927723661    -0.294541720268    0.069725397699    0.079212196167
0.450     -0.096657422392    0.057683816818    -0.926707264171    -0.137821104757    -0.080395946265    0.045113278015    0.006212190544    0.040568916288
            -0.926707264171    -0.137821104757    0.082984148466    0.084950543778    0.005491497651    0.040087427527    0.079956724854    0.062943461315
            -0.080395922819    0.045113191058    0.005491525282    0.040087441910    -0.098177006181    0.055724013260    -0.925954959054    -0.143620942246
            0.006212218050    0.040568930286    0.079956728150    0.062943457128    -0.925954959054    -0.143620942246    0.083561399759    0.084464557316
0.475     -0.082570633117    0.089199489683    -0.932376079475    0.015358086788    -0.071820597287    0.073293909253    0.015543536883    0.040488409422
            -0.932376079475    0.015358086788    0.098899087343    0.087116004922    0.014585487184    0.039958400865    0.091202708536    0.064969513310
            -0.071820597287    0.073293909253    0.014585532695    0.039958415124    -0.084544791296    0.087452181210    -0.932616410816    0.009240721399
            0.015543582609    0.040488422931    0.091202711938    0.064969508534    -0.932616410816    0.009240721399    0.099224812393    0.086558665140
0.500     -0.059901910502    0.115969660935    -0.913094724424    0.166037860011    -0.055406133327    0.098539971600    0.025033529973    0.037796189769
            -0.913094724424    0.166037860011    0.115688120877    0.085527400855    0.023718936442    0.037263586776    0.103719659487    0.064512274641
            -0.055406133327    0.098539971600    0.023718936442    0.037263586776    -0.062289133177    0.114596790655    -0.914398236360    0.159793121190
            0.025033529973    0.037796189769    0.103719659487    0.064512274641    -0.914398236360    0.159793121190    0.115744386330    0.084991525778
0.525     -0.030407559207    0.135616603361    -0.870090666720    0.310290004553    -0.032326855469    0.118638153658    0.033805115334    0.032361785163
            -0.870090676139    0.310290007912    0.132236615359    0.080019524725    0.032060066432    0.032046761886    0.116746038199    0.061190615204
            -0.032326899185    0.118638069194    0.032060059276    0.032046764801    -0.033080114049    0.134795904009    -0.872487055558    0.304114065762
            0.033805202547    0.032361789502    0.116746041402    0.061190609091    -0.872487055558    0.304114065762    0.132029469971    0.079603995169
0.550     0.003506970134    0.146500240519    -0.805136292302    0.444637340197    -0.004347699200    0.131904747411    0.040719094028    0.024451837710
            -0.805136292302    0.444637340197    0.147448069147    0.070786032899    0.038863251108    0.024682198040    0.129453005594    0.054897909229
            -0.004347696898    0.131904747487    0.038863342490    0.024682186589    0.000822921440    0.146321825942    -0.808614383753    0.438712738819
            0.040719094455    0.024451837000    0.129452998304    0.054897900806    -0.808614383753    0.438712738819    0.147015271265    0.070606299523
0.575     0.039252873443    0.147849247397    -0.720377572371    0.566043758932    0.026494055733    0.137279237258    0.044951948605    0.015210438090
            -0.720377572371    0.566043758932    0.160344019658    0.058337635905    0.043566278558    0.015823916550    0.141037410850    0.045768814373
            0.026494058630    0.137279226514    0.043566367280    0.015823891970    0.036806448590    0.148188041046    -0.724916476697    0.560546954055
            0.044951993096    0.015210425164    0.141037414045    0.045768804527    -0.724916476697    0.560546954055    0.159794235861    0.058499586968
0.600     0.074251540681    0.139461515268    -0.618279146885    0.671914410055    0.058011345329    0.134199536627    0.046682246564    0.005695088209
            -0.618279146885    0.671914410055    0.170160054664    0.043446917254    0.045845494753    0.006292038110    0.150760573569    0.034147650030
            0.058011263682    0.134199495661    0.045845576639    0.006292007772    0.072129296321    0.140190056418    -0.623828790759    0.667027570183
            0.046682328920    0.005695057243    0.150760566200    0.034147637295    -0.623828790759    0.667027570183    0.169635455502    0.043986014453
0.625     0.105847378355    0.121797977072    -0.501521120144    0.760103846609    0.087876057810    0.122687985894    0.046149793828    -0.003535687649
            -0.501521120144    0.760103846609    0.176394621469    0.027063987125    0.045669749552    -0.003078433074    0.157992091778    0.020592414671
            0.087875971481    0.122687973925    0.045669787534    -0.003078449486    0.104129675636    0.122861352614    -0.507991735577    0.756002236576
            0.046149832520    -0.003535706250    0.157992092425    0.020592409707    -0.507991735577    0.756002236576    0.176024725308    0.027962905446
0.650     0.131607040960    0.096067622045    -0.372906006444    0.828861902738    0.113850269620    0.103401767546    0.043605194882    -0.011909821772
            -0.372906006444    0.828861902738    0.178846393417    0.010227161063    0.043322680382    -0.011565075267    0.162297675343    0.005827403491
            0.113850264022    0.103401758836    0.043322750885    -0.011565132969    0.130401176729    0.097394690373    -0.380184645841    0.825704026974
            0.043605263799    -0.011909880668    0.162297675648    0.005827394993    -0.380184645841    0.825704026974    0.178747751700    0.011435111059
0.675     0.149514197584    0.064073576553    -0.235362007466    0.876764385283    0.133925237333    0.077542308811    0.039517704438    -0.018927887524
            -0.235362007466    0.876764385283    0.177608587286    -0.006017011214    0.039341225263    -0.018641565734    0.163454954292    -0.009324282890
            0.133925193777    0.077542324165    0.039341257036    -0.018641596765    0.148922183924    0.065546645727    -0.243315551439    0.874693325731
            0.039517736371    -0.018927918082    0.163454944097    -0.009324286029    -0.243315551439    0.874693325731    0.177882500850    -0.004583787484
0.700     0.158076474367    0.028080185312    -0.091944536299    0.902705282415    0.146434125121    0.046797138786    0.034520920231    -0.024321661986
            -0.091944536299    0.902705282415    0.173070423792    -0.020694319393    0.034408889250    -0.024046380766    0.161490587876    -0.023995349261
            0.146434125121    0.046797138786    0.034408890070    -0.024046381339    0.158170779328    0.029538615221    -0.100423300005    0.901850613574
            0.034520921048    -0.024321662562    0.161490587876    -0.023995349261    -0.100423300005    0.901850613574    0.173793961098    -0.019149931004
0.725     0.156403353306    -0.009305120760    0.054123565519    0.905897091844    0.150140532373    0.013274900299    0.029281148718    -0.028111192536
            0.054123565519    0.905897091844    0.165882365683    -0.032972193462    0.029225748012    -0.027812911678    0.156676227454    -0.037341112480
            0.150140532396    0.013274900037    0.029225748012    -0.027812911678    0.157212036373    -0.008054486682    0.045296501158    0.906376360950
            0.029281167961    -0.028111234580    0.156676226803    -0.037341115214    0.045296501158    0.906376360950    0.167097723206    -0.031456436157
0.750     0.144294147165    -0.045265961467    0.199453634836    0.885915655836    0.144366476881    -0.020580293052    0.024364264757    -0.030595593052
            0.199453650298    0.885915652355    0.156925436395    -0.042235405851    0.024379734125    -0.030257077498    0.149547182458    -0.048609969188
            0.144366437654    -0.020580213933    0.024379737492    -0.030257077354    0.145789331680    -0.044433063786    0.190473606932    0.887828133402
            0.024364268584    -0.030595591283    0.149547182458    -0.048609969188    0.190473591436    0.887828136726    0.158632357667    -0.040901082592
0.775     0.122304736163    -0.076932322051    0.340457980309    0.842770763372    0.129095811220    -0.052107492452    0.020118997907    -0.032281095294
            0.340457980309    0.842770763372    0.147246139892    -0.048146222749    0.020231265101    -0.031904101387    0.140861548845    -0.057229268141
            0.129095802857    -0.052107486456    0.020231265101    -0.031904101387    0.124396277795    -0.076727601735    0.331552851704    0.846198182714
            0.020119010786    -0.032281186246    0.140861548845    -0.057229268141    0.331552851704    0.846198182714    0.149395574550    -0.047148184715
