# GHz S RI R 45
0.000     0.017096174000    0.000000000000    0.000080576912    -0.000000000000    0.000432971590    0.000000000000    0.000059698405    -0.000000000000
            0.000080576914    -0.000000000000    0.016422509000    0.000000000000    0.000050018001    -0.000000000000    0.000273353370    0.000000000000
            0.000432973200    0.000000000000    0.000050017996    -0.000000000000    0.017070862000    0.000000000000    0.000060264685    -0.000000000000
            0.000059698458    -0.000000000000    0.000273355430    0.000000000000    0.000060264613    -0.000000000000    0.016240970000    0.000000000000
0.025     0.021826959846    0.011074678850    0.000098561256    0.000036228408    0.002182064502    0.011370331613    0.000097362391    0.000047772757
            0.000098561256    0.000036228406    0.020437082473    0.010456684685    0.000100967038    0.000057594064    0.001722746838    0.010741402834
            0.002181943133    0.011370164492    0.000100967132    0.000057594041    0.021747331124    0.011024126634    0.000092585493    0.000044819746
            0.000097362436    0.000047772733    0.001722625811    0.010741236906    0.000092585403    0.000044819750    0.020443981727    0.010536839247
0.050     0.027185627533    0.017744118203    0.000115847959    0.000056522614    0.006723368171    0.021430862804    0.000121090502    0.000059197284
            0.000115847959    0.000056522614    0.025079577070    0.017088119837    0.000130283648    0.000064968419    0.005617822946    0.020477873209
            0.006723399066    0.021430849967    0.000130283693    0.000064968418    0.027042295054    0.017668623490    0.000114151750    0.000058846939
            0.000121090550    0.000059197276    0.005617853339    0.020477860723    0.000114151761    0.000058846939    0.025101363834    0.017067993868
0.075     0.033202954108    0.022206551133    0.000135545798    0.000072889309    0.013384104454    0.029479213860    0.000139679103    0.000069506065
            0.000135545799    0.000072889306    0.030304411838    0.021925483465    0.000150196208    0.000072454720    0.011420952897    0.028613233429
            0.013384110940    0.029479213111    0.000150196243    0.000072454718    0.032972582887    0.022149730258    0.000132391724    0.000071319095
            0.000139679150    0.000069506061    0.011420959261    0.028613231966    0.000132391727    0.000071319091    0.030246031334    0.021868217274
0.100     0.039237621581    0.024326380329    0.000158396906    0.000084425672    0.021287687188    0.035029557421    0.000159485763    0.000077360824
            0.000158396897    0.000084425668    0.035650762947    0.024902074373    0.000170419223    0.000078277854    0.018471766638    0.034750075578
            0.021287688411    0.035029556678    0.000170419266    0.000078277856    0.038920137164    0.024339760012    0.000152331542    0.000081048116
            0.000159485810    0.000077360819    0.018471768458    0.034750074611    0.000152331545    0.000081048110    0.035491585339    0.024874312076
0.125     0.044330720060    0.024346744068    0.000183205397    0.000089954504    0.029479721251    0.037977325255    0.000180515916    0.000081197661
            0.000183205397    0.000089954504    0.040393236413    0.026178106220    0.000191467967    0.000080536402    0.026058696507    0.038764122259
            0.029479722527    0.037977325531    0.000191468020    0.000080536405    0.043951475510    0.024484133077    0.000173804085    0.000086564419
            0.000180515971    0.000081197659    0.026058699095    0.038764121725    0.000173804089    0.000086564413    0.040151227581    0.026245033965
0.150     0.047844661281    0.022860568928    0.000208300473    0.000089979754    0.037008232346    0.038521703569    0.000201761767    0.000081015632
            0.000208300473    0.000089979754    0.044118841415    0.026254142506    0.000212514912    0.000079016003    0.033452471836    0.040723168293
            0.037008233712    0.038521703644    0.000212514964    0.000079016005    0.047450311855    0.023158204025    0.000195713429    0.000087928610
            0.000201761813    0.000081015626    0.033452464246    0.040723170646    0.000195713438    0.000087928614    0.043825997443    0.026461765332
0.175     0.049271995192    0.020703842565    0.000232436690    0.000084901069    0.043090335593    0.037227470971    0.000222358766    0.000076965392
            0.000232436681    0.000084901065    0.046445284057    0.025677577214    0.000232753231    0.000073820453    0.040020242410    0.040974095477
            0.043090336242    0.037227470219    0.000232753285    0.000073820448    0.048928823866    0.021177318687    0.000217165552    0.000085284408
            0.000222358820    0.000076965389    0.040020243824    0.040974095494    0.000217165554    0.000085284404    0.046160768958    0.026054721119
0.200     0.048449291263    0.018889040887    0.000254954959    0.000075767102    0.047220379583    0.034912094324    0.000241828551    0.000069782388
            0.000254954957    0.000075767106    0.047219666530    0.025150759229    0.000251748957    0.000065645372    0.045310748638    0.040061126168
            0.047220372101    0.034912097715    0.000251749021    0.000065645365    0.048230240083    0.019524000562    0.000237645300    0.000079374805
            0.000241828615    0.000069782384    0.045310741496    0.040061129716    0.000237645300    0.000079374805    0.047012585640    0.025698966471
0.225     0.045640498131    0.018448138809    0.000275333213    0.000063272541    0.049244044851    0.032523052568    0.000259814003    0.000059943443
            0.000275333204    0.000063272538    0.046585317390    0.025403524388    0.000269176603    0.000054953744    0.049107313741    0.038643260942
            0.049244046253    0.032523052259    0.000269176657    0.000054953730    0.045611152613    0.019198568581    0.000256767411    0.000070675966
            0.000259814067    0.000059943429    0.049107315876    0.038643259846    0.000256766968    0.000070676182    0.046523166469    0.026094439612
0.250     0.041520719227    0.020282876619    0.000293590863    0.000048170053    0.049389855325    0.031009020477    0.000276363936    0.000047993504
            0.000293590862    0.000048170056    0.044974516332    0.027090600350    0.000285111257    0.000042274799    0.051458400088    0.037411144070
            0.049389857019    0.031009021540    0.000285111320    0.000042274780    0.041725914591    0.021075794418    0.000274563767    0.000059747123
            0.000276363999    0.000047993489    0.051458403012    0.037411143450    0.000274563777    0.000059747126    0.045109860321    0.027870051660
0.275     0.037114303725    0.024988680884    0.000309584906    0.000030930840    0.048251296765    0.031168408849    0.000291411345    0.000034225253
            0.000309584906    0.000030930844    0.043066616827    0.030665140378    0.000299503562    0.000027885709    0.052670833408    0.036983715288
            0.048251299533    0.031168408250    0.000299503624    0.000027885683    0.037567499842    0.025734162819    0.000290963044    0.000046887402
            0.000291411418    0.000034225231    0.052670836336    0.036983714599    0.000290963054    0.000046887402    0.043428462453    0.031459470628
0.300     0.033661480620    0.032743829102    0.000323489938    0.000011900201    0.046717975010    0.033520151274    0.000305114016    0.000018830702
            0.000323489938    0.000011900207    0.041701436638    0.036307500509    0.000312520021    0.000011966309    0.053276091915    0.037822345941
            0.046717977805    0.033520150809    0.000312520072    0.000011966275    0.034339404894    0.033348761257    0.000306128317    0.000032293633
            0.000305114078    0.000018830667    0.053276094866    0.037822345239    0.000306128327    0.000032293632    0.042288617766    0.037034794117
0.325     0.032446374082    0.043221087527    0.000335195611    -0.000008670791    0.045847203190    0.038188803804    0.000317387718    0.000001890787
            0.000335195611    -0.000008670788    0.041767521230    0.043860779127    0.000324083273    -0.000005409703    0.053954223422    0.040147373670
            0.045847206059    0.038188803483    0.000324083332    -0.000005409744    0.033288792735    0.043604390823    0.000319987021    0.000016034062
            0.000317387788    0.000001890748    0.053954227129    0.040147372039    0.000319987031    0.000016034062    0.042547067310    0.044442774186
0.350     0.034596759433    0.055600699060    0.000344744754    -0.000030649181    0.046702531882    0.044862631839    0.000328223645    -0.000016602139
            0.000344744755    -0.000030649178    0.044076693304    0.052837568813    0.000334185764    -0.000024251758    0.055441868163    0.043899413947
            0.046702535673    0.044862630779    0.000334185821    -0.000024251809    0.035513519833    0.055708182677    0.000332537862    -0.000001919182
            0.000328223713    -0.000016602187    0.055441872029    0.043899412286    0.000332537882    -0.000001919190    0.044986927825    0.053211998367
0.375     0.040888037719    0.068638928734    0.000351918912    -0.000053816878    0.050165424162    0.052805891050    0.000337364585    -0.000036596783
            0.000351918912    -0.000053816876    0.049235637498    0.062449371364    0.000342574529    -0.000044504927    0.058411117460    0.048725167645
            0.050165426927    0.052805888423    0.000342574582    -0.000044504983    0.041770795894    0.068453824138    0.000343521847    -0.000021552134
            0.000337364649    -0.000036596843    0.058411120780    0.048725165227    0.000343521857    -0.000021552138    0.050194024358    0.062580231030
0.400     0.051595535683    0.080842611188    0.000356591353    -0.000077991829    0.056782430542    0.060971145390    0.000344573641    -0.000058026135
            0.000356591363    -0.000077991831    0.057547236428    0.071708587733    0.000349022540    -0.000066096087    0.063369193320    0.054027988083
            0.056782433735    0.060971142417    0.000349022588    -0.000066096153    0.052335154914    0.080390581703    0.000352683312    -0.000042834647
            0.000344573700    -0.000058026206    0.063369196910    0.054027985414    0.000352683331    -0.000042834658    0.058461627626    0.071592644614
0.425     0.066420346318    0.090671853345    0.000358506957    -0.000102789605    0.066656004736    0.068151068958    0.000349481916    -0.000080629444
            0.000358506957    -0.000102789605    0.068943419997    0.079543690793    0.000353174996    -0.000088761245    0.070565389992    0.059040585893
            0.066656007606    0.068151064753    0.000353175031    -0.000088761312    0.066922756683    0.090019221659    0.000359620064    -0.000065547065
            0.000349481959    -0.000080629525    0.070565392053    0.059040583430    0.000359620073    -0.000065547073    0.069725397699    0.079212196167
0.450     0.084520972779    0.096776773669    0.000357549929    -0.000127813078    0.079432308444    0.073175923200    0.000351816699    -0.000104057710
            0.000357549929    -0.000127813078    0.082984148466    0.084950543778    0.000354778087    -0.000112150057    0.079956724854    0.062943461315
            0.079432312276    0.073175919041    0.000354778117    -0.000112150128    0.084722237463    0.096019564810    0.000364007864    -0.000089358668
            0.000351816746    -0.000104057797    0.079956728150    0.062943457128    0.000364007872    -0.000089358677    0.083561399759    0.084464557316
0.475     0.104623005139    0.098177454653    0.000353657316    -0.000152474969    0.094351425352    0.075074850701    0.000351367828    -0.000127762054
            0.000353657322    -0.000152474979    0.098899087343    0.087116004922    0.000353641268    -0.000135716470    0.091202708536    0.064969513310
            0.094351427972    0.075074847408    0.000353641574    -0.000135716928    0.104497369905    0.097428036545    0.000365579824    -0.000113728650
            0.000351367860    -0.000127762142    0.091202711938    0.064969508534    0.000365579831    -0.000113728660    0.099224812393    0.086558665140
0.500     0.125202661250    0.094392533197    0.000346974691    -0.000176237549    0.110371670705    0.073208059863    0.000348130878    -0.000151162264
            0.000346974694    -0.000176237565    0.115688120877    0.085527400855    0.000349778623    -0.000158894852    0.103719659487    0.064512274641
            0.110371670705    0.073208059863    0.000349778634    -0.000158894923    0.124760678670    0.093763101683    0.000364272543    -0.000138061568
            0.000348130361    -0.000151161549    0.103719659487    0.064512274641    0.000364272554    -0.000138061594    0.115744386330    0.084991525778
0.525     0.144676282047    0.085468320103    0.000337801420    -0.000198507407    0.126302311663    0.067323591193    0.000342283716    -0.000173622393
            0.000337801417    -0.000198507413    0.132236615359    0.080019524725    0.000343387532    -0.000181063830    0.116746038199    0.061190615204
            0.126302306364    0.067323579876    0.000343387539    -0.000181063903    0.143954686033    0.085068956810    0.000360218169    -0.000161694089
            0.000342283721    -0.000173622471    0.116746041402    0.061190609091    0.000360218173    -0.000161694106    0.132029469971    0.079603995169
0.550     0.161588420012    0.071945381323    0.000326622178    -0.000218881768    0.140968688456    0.057573858843    0.000334220354    -0.000194638398
            0.000326622170    -0.000218881779    0.147448069147    0.070786032899    0.000334871894    -0.000201743854    0.129453005594    0.054897909229
            0.140968688456    0.057573858843    0.000334871900    -0.000201743922    0.160662277360    0.071902643065    0.000353775848    -0.000184078957
            0.000334220347    -0.000194638488    0.129452998304    0.054897900806    0.000353775842    -0.000184078969    0.147015271265    0.070606299523
0.575     0.174736153368    0.054766192110    0.000314021388    -0.000237045014    0.153331819091    0.044427333621    0.000324467371    -0.000213816442
            0.000314021367    -0.000237045059    0.160344019658    0.058337635905    0.000324758557    -0.000220564126    0.141037410850    0.045768814373
            0.153331839076    0.044427336511    0.000324758579    -0.000220564182    0.173770255647    0.055178729091    0.000345449704    -0.000204783993
            0.000324467360    -0.000213816549    0.141037414045    0.045768804527    0.000345449692    -0.000204784034    0.159794235861    0.058499586968
0.600     0.183274450874    0.035173503365    0.000300638924    -0.000252933469    0.162514095194    0.028605492794    0.000313636506    -0.000230973598
            0.000300638939    -0.000252933436    0.170160054664    0.043446917254    0.000313659537    -0.000237367076    0.150760573569    0.034147650030
            0.162514086294    0.028605485671    0.000313659520    -0.000237367132    0.182456149822    0.036035115225    0.000335838827    -0.000223571846
            0.000313636474    -0.000230973710    0.150760566200    0.034147637295    0.000335838418    -0.000223570999    0.169635455502    0.043986014453
0.625     0.186758745653    0.014585376438    0.000287119219    -0.000266626161    0.167854154599    0.011076344015    0.000302380356    -0.000246107056
            0.000287119236    -0.000266626158    0.176394621469    0.027063987125    0.000302217690    -0.000252171252    0.157992091778    0.020592414671
            0.167854154889    0.011076339621    0.000302217674    -0.000252171301    0.186236232000    0.015825597671    0.000325603522    -0.000240389577
            0.000302380346    -0.000246107083    0.157992092425    0.020592409707    0.000325603319    -0.000240389146    0.176024725308    0.027962905446
0.650     0.185168924013    -0.005522917393    0.000274018586    -0.000278435787    0.169001655116    -0.007023592827    0.000291299277    -0.000259441469
            0.000274018542    -0.000278435830    0.178846393417    0.010227161063    0.000291016512    -0.000265223103    0.162297675343    0.005827403491
            0.169001655128    -0.007023592532    0.000291016499    -0.000265223147    0.185058521836    -0.004008489211    0.000315370289    -0.000255421125
            0.000291299276    -0.000259441531    0.162297675648    0.005827394993    0.000315370345    -0.000255421088    0.178747751700    0.011435111059
0.675     0.178894573835    -0.023720424681    0.000261785037    -0.000288789997    0.165930948730    -0.024479789080    0.000280892096    -0.000271362941
            0.000261785035    -0.000288790025    0.177608587286    -0.006017011214    0.000280530556    -0.000276924305    0.163454954292    -0.009324282890
            0.165930948730    -0.024479789080    0.000280530555    -0.000276924391    0.179281401263    -0.022068689135    0.000305669232    -0.000269028172
            0.000280892108    -0.000271362971    0.163454944097    -0.009324286029    0.000305669233    -0.000269028201    0.177882500850    -0.004583787484
0.700     0.168731882186    -0.038723929804    0.000250684278    -0.000298246973    0.158982568839    -0.040076909174    0.000271496791    -0.000282401026
            0.000250684289    -0.000298246924    0.173070423792    -0.020694319393    0.000271065454    -0.000287810005    0.161490587876    -0.023995349261
            0.158982568839    -0.040076909174    0.000271065445    -0.000287810055    0.169660018279    -0.037098036297    0.000296876147    -0.000281725318
            0.000271496816    -0.000282401112    0.161490587876    -0.023995349261    0.000296876190    -0.000281725359    0.173793961098    -0.019149931004
0.725     0.155842928380    -0.049500046765    0.000240813301    -0.000307395516    0.148864738425    -0.052700026425    0.000263270760    -0.000293163648
            0.000240813279    -0.000307395521    0.165882365683    -0.032972193462    0.000262749855    -0.000298477363    0.156676227454    -0.037341112480
            0.148864737506    -0.052700029023    0.000262749854    -0.000298477457    0.157304237354    -0.048079273590    0.000289186036    -0.000294123998
            0.000263270704    -0.000293163699    0.156676226803    -0.037341115214    0.000289185991    -0.000294123973    0.167097723206    -0.031456436157
0.750     0.141709147230    -0.055382745517    0.000232057326    -0.000316829699    0.136662355127    -0.061456250877    0.000256162137    -0.000304279905
            0.000232057292    -0.000316829700    0.156925436395    -0.042235405851    0.000255500763    -0.000309537085    0.149547182458    -0.048609969188
            0.136662355127    -0.061456250877    0.000255500709    -0.000309537130    0.143637178258    -0.054344279476    0.000282583565    -0.000306867400
            0.000256162084    -0.000304279950    0.149547182458    -0.048609969188    0.000282583599    -0.000306867395    0.158632357667    -0.040901082592
0.775     0.128027620766    -0.056185299176    0.000224145355    -0.000327071329    0.123768727694    -0.065819235858    0.000249923198    -0.000316347747
            0.000224145349    -0.000327071332    0.147246139892    -0.048146222749    0.000249054538    -0.000321548938    0.140861548845    -0.057229268141
            0.123768727694    -0.065819235858    0.000249054506    -0.000321549000    0.130295208701    -0.055685656449    0.000276848955    -0.000320586649
            0.000249923168    -0.000316347822    0.140861548845    -0.057229268141    0.000276848949    -0.000320586654    0.149395574550    -0.047148184715
0.800     0.116566833974    -0.052306562223    0.000216638687    -0.000338529558    0.111779737481    -0.065764764643    0.000244116280    -0.000329859414
