# GHz S RI R 45
0.000     0.017552872000    0.000000000000    -0.000011167256    0.000000000000    0.000582250430    0.000000000000    -0.000014741468    0.000000000000
            -0.000011167742    0.000000000000    0.016422509000    0.000000000000    -0.000003256313    0.000000000000    0.000273353370    0.000000000000
            0.000582361860    0.000000000000    -0.000003256759    0.000000000000    0.017566748000    0.000000000000    -0.000005859778    0.000000000000
            -0.000014741867    0.000000000000    0.000273355430    0.000000000000    -0.000005859393    0.000000000000    0.016240970000    0.000000000000
0.025     0.022088970039    0.010343943234    -0.000036066340    -0.000022096503    0.002207300831    0.010630697980    -0.000028330031    -0.000014918354
            -0.000036066727    -0.000022096481    0.020437082473    0.010456684685    -0.000026372458    -0.000021522659    0.001722746838    0.010741402834
            0.002207293359    0.010630525905    -0.000026372902    -0.000021522623    0.021999146116    0.010291625470    -0.000021098359    -0.000016298379
            -0.000028330431    -0.000014918325    0.001722625811    0.010741236906    -0.000021097976    -0.000016298401    0.020443981727    0.010536839247
0.050     0.027315504041    0.016393828709    -0.000047631697    -0.000019117957    0.006627738317    0.020043801846    -0.000035710641    -0.000016445958
            -0.000047632080    -0.000019117918    0.025079577070    0.017088119837    -0.000037324987    -0.000019701750    0.005617822946    0.020477873209
            0.006627880186    0.020043780213    -0.000037325477    -0.000019701701    0.027166328670    0.016315496095    -0.000028880924    -0.000017410670
            -0.000035711036    -0.000016445914    0.005617853339    0.020477860723    -0.000028880542    -0.000017410708    0.025101363834    0.017067993868
0.075     0.033203526783    0.020215476294    -0.000052544150    -0.000017789527    0.013145340723    0.027407243882    -0.000040263293    -0.000018300645
            -0.000052544579    -0.000017789458    0.030304411838    0.021925483465    -0.000042204778    -0.000019408808    0.011420952897    0.028613233429
            0.013145457223    0.027407227932    -0.000042205209    -0.000019408693    0.032973314398    0.020149518902    -0.000033131519    -0.000019273468
            -0.000040263684    -0.000018300585    0.011420959261    0.028613231966    -0.000033131148    -0.000019273578    0.030246031334    0.021868217274
0.100     0.039071695041    0.021638690657    -0.000056515941    -0.000017335795    0.020836057030    0.032222362159    -0.000044768363    -0.000020074862
            -0.000056516314    -0.000017335716    0.035650762947    0.024902074373    -0.000046330356    -0.000019883045    0.018471766638    0.034750075578
            0.020836167568    0.032222340697    -0.000046330743    -0.000019882962    0.038759019490    0.021631104293    -0.000037183742    -0.000021408750
            -0.000044768848    -0.000020074761    0.018471768458    0.034750074611    -0.000037183368    -0.000021408829    0.035491585339    0.024874312076
0.125     0.043913329572    0.020848633747    -0.000060384213    -0.000017006822    0.028709167208    0.034380486430    -0.000049512736    -0.000021305658
            -0.000060384628    -0.000017006712    0.040393236413    0.026178106220    -0.000050479517    -0.000020404970    0.026058696507    0.038764122259
            0.028709276022    0.034380459403    -0.000050479899    -0.000020404868    0.043540269961    0.020949050321    -0.000041500315    -0.000023318044
            -0.000049513213    -0.000021305536    0.026058699095    0.038764121725    -0.000041499946    -0.000023318141    0.040151227581    0.026245033965
0.150     0.047045903519    0.018500075065    -0.000064280206    -0.000016449987    0.035775842295    0.034087627067    -0.000054394639    -0.000021891520
            -0.000064280662    -0.000016449841    0.044118841415    0.026254142506    -0.000054763720    -0.000020634436    0.033452471836    0.040723168293
            0.035775954489    0.034087593396    -0.000054764188    -0.000020634296    0.046650288596    0.018741658986    -0.000046085606    -0.000024816825
            -0.000054395013    -0.000021891405    0.033452464246    0.040723170646    -0.000046085255    -0.000024816936    0.043825997443    0.026461765332
0.175     0.047902977168    0.015418307441    -0.000068204518    -0.000015550076    0.041211084659    0.031929463888    -0.000059323929    -0.000021814766
            -0.000068204966    -0.000015549902    0.046445284057    0.025677577214    -0.000059169079    -0.000020439020    0.040020242410    0.040974095477
            0.041211190602    0.031929425112    -0.000059169477    -0.000020438822    0.047541810310    0.015817221092    -0.000050924405    -0.000025822832
            -0.000059324391    -0.000021814595    0.040020243824    0.040974095494    -0.000050924051    -0.000025822965    0.046160768958    0.026054721119
0.200     0.046260957521    0.012648873405    -0.000072133864    -0.000014318584    0.044468960059    0.028761720099    -0.000064241853    -0.000021190462
            -0.000072134300    -0.000014318396    0.047219666530    0.025150759229    -0.000063654965    -0.000019819854    0.045310748638    0.040061126168
            0.044469067347    0.028761673906    -0.000063655324    -0.000019819698    0.045998569328    0.013195711075    -0.000055980843    -0.000026366982
            -0.000064242211    -0.000021190319    0.045310741496    0.040061129716    -0.000055980491    -0.000026367139    0.047012585640    0.025698966471
0.225     0.042332358884    0.011289341930    -0.000076092782    -0.000012751519    0.045362862378    0.025589809612    -0.000069154079    -0.000020063647
            -0.000076093210    -0.000012751303    0.046585317390    0.025403524388    -0.000068218204    -0.000018762118    0.049107313741    0.038643260942
            0.045362961487    0.025589760110    -0.000068218599    -0.000018761932    0.042228032408    0.011946710600    -0.000061277872    -0.000026425764
            -0.000069154431    -0.000020063475    0.049107315876    0.038643259846    -0.000061277559    -0.000026425971    0.046523166469    0.026094439612
0.250     0.036760770152    0.012334031528    -0.000080125806    -0.000010868980    0.044105471337    0.023438073271    -0.000074115787    -0.000018494228
            -0.000080126219    -0.000010868751    0.044974516332    0.027090600350    -0.000072879642    -0.000017285376    0.051458400088    0.037411144070
            0.044105563805    0.023438020731    -0.000072880072    -0.000017285142    0.036856446067    0.013040188165    -0.000066847037    -0.000025998010
            -0.000074116215    -0.000018494005    0.051458403012    0.037411143450    -0.000066846709    -0.000025998191    0.045109860321    0.027870051660
0.275     0.030570990508    0.016491750549    -0.000084293586    -0.000008611076    0.041298832384    0.023194851682    -0.000079184927    -0.000016440414
            -0.000084293881    -0.000008610838    0.043066616827    0.030665140378    -0.000077673158    -0.000015338567    0.052670833408    0.036983715288
            0.041298926364    0.023194792581    -0.000077673575    -0.000015338325    0.030881620066    0.017168796122    -0.000072731499    -0.000024994373
            -0.000079185302    -0.000016440189    0.052670836336    0.036983714599    -0.000072731180    -0.000024994576    0.043428462453    0.031459470628
0.300     0.025044377588    0.024062123951    -0.000088642146    -0.000005900689    0.037873221145    0.025473592962    -0.000084418328    -0.000013829327
            -0.000088642452    -0.000005900476    0.041701436638    0.036307500509    -0.000082628632    -0.000012857811    0.053276091915    0.037822345941
            0.037873306977    0.025473531646    -0.000082628956    -0.000012857596    0.025552954548    0.024628456067    -0.000078950125    -0.000023310181
            -0.000084418734    -0.000013829060    0.053276094866    0.037822345239    -0.000078949901    -0.000023310339    0.042288617766    0.037034794117
0.325     0.021554901643    0.034832751372    -0.000093169254    -0.000002583250    0.034964121834    0.030487409916    -0.000089804758    -0.000010508862
            -0.000093169628    -0.000002582967    0.041767521230    0.043860779127    -0.000087732363    -0.000009708356    0.053954223422    0.040147373670
            0.034964205860    0.030487342461    -0.000087732675    -0.000009708127    0.022211449605    0.035215876481    -0.000085468400    -0.000020766549
            -0.000089805074    -0.000010508629    0.053954227129    0.040147372039    -0.000085468107    -0.000020766763    0.042547067310    0.044442774186
0.350     0.021365143907    0.048070267103    -0.000097806240    0.000001493043    0.033748559806    0.037988837570    -0.000095271180    -0.000006319571
            -0.000097806523    0.000001493286    0.044076693304    0.052837568813    -0.000092914815    -0.000005753854    0.055441868163    0.043899413947
            0.033748645339    0.037988764259    -0.000092915187    -0.000005753551    0.022092570795    0.048220339909    -0.000092178450    -0.000017191006
            -0.000095271556    -0.000006319262    0.055441872029    0.043899412286    -0.000092178165    -0.000017191235    0.044986927825    0.053211998367
0.375     0.025422376608    0.062570896071    -0.000102389106    0.000006491959    0.035250565789    0.047268599409    -0.000100632732    -0.000001100587
            -0.000102389419    0.000006492230    0.049235637498    0.062449371364    -0.000098015910    -0.000000844919    0.058411117460    0.048725167645
            0.035250638640    0.047268530111    -0.000098016236    -0.000000844631    0.026126701873    0.062470315719    -0.000098871607    -0.000012406298
            -0.000100633015    -0.000001100326    0.058411120780    0.048725165227    -0.000098871331    -0.000012406544    0.050194024358    0.062580231030
0.400     0.034189312420    0.076817585295    -0.000106681015    0.000012496464    0.040169806695    0.057253351935    -0.000105632942    0.000005231533
            -0.000106681347    0.000012496805    0.057547236428    0.071708587733    -0.000102805737    0.000005095956    0.063369193320    0.054027988083
            0.040169868304    0.057253286722    -0.000102806014    0.000005096222    0.034774297585    0.076486312598    -0.000105260057    -0.000006323531
            -0.000105633218    0.000005231823    0.063369196910    0.054027985414    -0.000105259791    -0.000006323791    0.058461627626    0.071592644614
0.425     0.047545279049    0.089179823868    -0.000110384448    0.000019511694    0.048752890188    0.066654657184    -0.000109947471    0.000012664246
            -0.000110384765    0.000019512028    0.068943419997    0.079543690793    -0.000106992926    0.000012070807    0.070565389992    0.059040585893
            0.048752949935    0.066654589943    -0.000106993246    0.000012071183    0.047927218356    0.088673165413    -0.000110992451    0.000001054538
            -0.000109947696    0.000012664563    0.070565392053    0.059040583430    -0.000110992203    0.000001054264    0.069725397699    0.079212196167
0.450     0.064789031429    0.098154557164    -0.000113210450    0.000027405244    0.060756136386    0.074172433515    -0.000113266189    0.000021045796
            -0.000113210693    0.000027405512    0.082984148466    0.084950543778    -0.000110291492    0.000019950054    0.079956724854    0.062943461315
            0.060756193564    0.074172365997    -0.000110291790    0.000019950426    0.064909733896    0.097555328881    -0.000115726209    0.000009573745
            -0.000113266437    0.000021046107    0.079956728150    0.062943457128    -0.000115725970    0.000009573481    0.083561399759    0.084464557316
0.475     0.084728766445    0.102566321166    -0.000114913899    0.000035948100    0.075480989034    0.078672325257    -0.000115329156    0.000030110798
            -0.000114914148    0.000035948442    0.098899087343    0.087116004922    -0.000112456512    0.000028505937    0.091202708536    0.064969513310
            0.075481038350    0.078672250226    -0.000112456734    0.000028506244    0.084563080857    0.101971627811    -0.000119171353    0.000018966729
            -0.000115329383    0.000030111115    0.091202711938    0.064969508534    -0.000119171126    0.000018966437    0.099224812393    0.086558665140
0.500     0.105851887596    0.101719732007    -0.000115362513    0.000044817738    0.091887086265    0.079339369280    -0.000116000353    0.000039501851
            -0.000115362732    0.000044818031    0.115688120877    0.085527400855    -0.000113352177    0.000037417320    0.103719659487    0.064512274641
            0.091887143039    0.079339303527    -0.000113352390    0.000037417631    0.105405388721    0.101226490502    -0.000121162775    0.000028861469
            -0.000116000570    0.000039502174    0.103719659487    0.064512274641    -0.000121162558    0.000028861172    0.115744386330    0.084991525778
0.525     0.126515901241    0.095456041726    -0.000114536129    0.000053675754    0.108728508068    0.075756883210    -0.000115271320    0.000048839501
            -0.000114536181    0.000053675949    0.132236615359    0.080019524725    -0.000112955863    0.000046343527    0.116746038199    0.061190615204
            0.108728577873    0.075756765531    -0.000112956101    0.000046343947    0.125812650403    0.095160314519    -0.000121667988    0.000038863208
            -0.000115271475    0.000048839851    0.116746041402    0.061190609091    -0.000121667796    0.000038862889    0.132029469971    0.079603995169
0.550     0.145145186884    0.084140960958    -0.000112549535    0.000062201874    0.124725834776    0.067944149493    -0.000113279418    0.000057775040
            -0.000112549535    0.000062201874    0.147448069147    0.070786032899    -0.000111380955    0.000054963046    0.129453005594    0.054897909229
            0.124725886248    0.067944075910    -0.000111381180    0.000054963472    0.144238566523    0.084165621418    -0.000120809060    0.000048601698
            -0.000113279602    0.000057775384    0.129452998304    0.054897900806    -0.000120808916    0.000048601468    0.147015271265    0.070606299523
0.575     0.160371650396    0.068587995960    -0.000109596263    0.000070151846    0.138709867019    0.056277179724    -0.000110249301    0.000066042472
            -0.000109596465    0.000070152272    0.160344019658    0.058337635905    -0.000108818507    0.000063031426    0.141037410850    0.045768814373
            0.138709934663    0.056277066196    -0.000108818605    0.000063031636    0.159409909062    0.069043397514    -0.000118796168    0.000057795152
            -0.000110249497    0.000066042904    0.141037414045    0.045768804527    -0.000118795999    0.000057794813    0.159794235861    0.058499586968
0.600     0.171153723621    0.049966855750    -0.000105942243    0.000077368498    0.149652965403    0.041420829495    -0.000106477246    0.000073471753
            -0.000105942248    0.000077368474    0.170160054664    0.043446917254    -0.000105528901    0.000070385308    0.150760573569    0.034147650030
            0.149653007089    0.041420753860    -0.000105529275    0.000070386170    0.170318059150    0.050857901677    -0.000115915522    0.000066251206
            -0.000106477618    0.000073472641    0.150760566200    0.034147637295    -0.000115915148    0.000066250348    0.169635455502    0.043986014453
0.625     0.176837086112    0.029682563783    -0.000101862472    0.000083797423    0.156730150060    0.024329923798    -0.000102276446    0.000080007405
            -0.000101862465    0.000083797417    0.176394621469    0.027063987125    -0.000101787771    0.000076965541    0.157992091778    0.020592414671
            0.156730193420    0.024329840045    -0.000101787929    0.000076965996    0.176269906406    0.030947061528    -0.000112474492    0.000073891430
            -0.000102276446    0.000080007405    0.157992092425    0.020592409707    -0.000112474325    0.000073891011    0.176024725308    0.027962905446
0.650     0.177191382306    0.009258456253    -0.000097631116    0.000089480368    0.159425591603    0.006175921990    -0.000097953471    0.000085699401
            -0.000097631400    0.000089481286    0.178846393417    0.010227161063    -0.000097870442    0.000082808033    0.162297675343    0.005827403491
            0.159425625008    0.006175834668    -0.000097870736    0.000082808956    0.177003711307    0.010802629577    -0.000108782957    0.000080750417
            -0.000097953486    0.000085699384    0.162297675648    0.005827394993    -0.000108782953    0.000080750473    0.178747751700    0.011435111059
0.675     0.172412034704    -0.009767718333    -0.000093466097    0.000094540879    0.157559520046    -0.011746763512    -0.000093756224    0.000090687891
            -0.000093466083    0.000094540865    0.177608587286    -0.006017011214    -0.000093996696    0.000088031138    0.163454954292    -0.009324282890
            0.157559559882    -0.011746901701    -0.000093996949    0.000088032053    0.172687521315    -0.008066114779    -0.000105087759    0.000086954508
            -0.000093756345    0.000090688356    0.163454944097    -0.009324286029    -0.000105087618    0.000086954082    0.177882500850    -0.004583787484
0.700     0.163128777982    -0.025945900028    -0.000089537959    0.000099159080    0.151335238816    -0.028096368614    -0.000089877331    0.000095178085
            -0.000089537963    0.000099159050    0.173070423792    -0.020694319393    -0.000090340672    0.000092813457    0.161490587876    -0.023995349261
            0.151335261962    -0.028096463078    -0.000090340672    0.000092813457    0.163915329331    -0.024233870986    -0.000101584514    0.000092696743
            -0.000089877545    0.000095179010    0.161490587876    -0.023995349261    -0.000101584522    0.000092696750    0.173793961098    -0.019149931004
0.725     0.150384257787    -0.038020491485    -0.000085934936    0.000103553252    0.141357075179    -0.041584758388    -0.000086423008    0.000099417878
            -0.000085934961    0.000103553724    0.165882365683    -0.032972193462    -0.000086994807    0.000097367050    0.156676227454    -0.037341112480
            0.141357106044    -0.041584901501    -0.000086994893    0.000097367522    0.151684353141    -0.036461257212    -0.000098378870    0.000098214070
            -0.000086423104    0.000099418338    0.156676226803    -0.037341115214    -0.000098378860    0.000098214094    0.167097723206    -0.031456436157
0.750     0.135606135190    -0.045052761907    -0.000082683149    0.000107963557    0.128654229455    -0.051099663718    -0.000083428606    0.000103679598
            -0.000082683270    0.000107964497    0.156925436395    -0.042235405851    -0.000083992902    0.000101931475    0.149547182458    -0.048609969188
            0.128654250668    -0.051099854121    -0.000083993008    0.000101932437    0.137371009551    -0.043811050536    -0.000095509644    0.000103771261
            -0.000083428734    0.000103680534    0.149547182458    -0.048609969188    -0.000095509625    0.000103771278    0.158632357667    -0.040901082592
0.775     0.120530505102    -0.046552365063    -0.000079720793    0.000112629931    0.114638662078    -0.055862332851    -0.000080834414    0.000108241858
            -0.000079720801    0.000112629901    0.147246139892    -0.048146222749    -0.000081281653    0.000106747503    0.140861548845    -0.057229268141
            0.114638678966    -0.055862435165    -0.000081281647    0.000106747495    0.122655769482    -0.045777932309    -0.000092917705    0.000109637240
            -0.000080834484    0.000108242817    0.140861548845    -0.057229268141    -0.000092917670    0.000109636771    0.149395574550    -0.047148184715
