# GHz S RI R 45
0.000     0.017226697000    0.000000000000    0.000002477587    -0.000000000000    0.000524444430    0.000000000000    0.000012779667    -0.000000000000
            0.000002477678    -0.000000000000    0.016422509000    0.000000000000    0.000007006063    -0.000000000000    0.000273353370    0.000000000000
            0.000524521940    0.000000000000    0.000007006196    -0.000000000000    0.017181596000    0.000000000000    0.000005082836    0.000000000000
            0.000012779763    -0.000000000000    0.000273355430    0.000000000000    0.000005082711    0.000000000000    0.016240970000    0.000000000000
0.025     0.021579488874    0.010115394190    -0.000001975510    -0.000004445965    0.002085068095    0.010386137486    -0.000001152965    -0.000011344425
            -0.000001975414    -0.000004445975    0.020437082473    0.010456684685    0.000004709002    -0.000003569607    0.001722746838    0.010741402834
            0.002085026400    0.010385967365    0.000004709138    -0.000003569614    0.021526811957    0.010139371925    0.000004930434    -0.000003269249
            -0.000001152877    -0.000011344429    0.001722625811    0.010741236906    0.000004930305    -0.000003269243    0.020443981727    0.010536839247
0.050     0.026517376143    0.016087653097    -0.000003438854    -0.000004424943    0.006245930354    0.019621555324    -0.000005962244    -0.000008500327
            -0.000003438759    -0.000004424953    0.025079577070    0.017088119837    0.000003816229    -0.000004831509    0.005617822946    0.020477873209
            0.006246038327    0.019621536695    0.000003816360    -0.000004831523    0.026467331625    0.016151353547    0.000004536716    -0.000006479027
            -0.000005962154    -0.000008500337    0.005617853339    0.020477860723    0.000004536582    -0.000006479013    0.025101363834    0.017067993868
0.075     0.032033197844    0.020027040392    -0.000003407056    -0.000005228899    0.012389681919    0.026992008014    -0.000006149164    -0.000007674813
            -0.000003406961    -0.000005228913    0.030304411838    0.021925483465    0.000003709406    -0.000006504052    0.011420952897    0.028613233429
            0.012389764951    0.026991996309    0.000003709541    -0.000006504073    0.031997606695    0.020129250069    0.000004036690    -0.000009764902
            -0.000006149078    -0.000007674826    0.011420959261    0.028613231966    0.000004036566    -0.000009764882    0.030246031334    0.021868217274
0.100     0.037551824843    0.021799975130    -0.000003152734    -0.000006741684    0.019699278133    0.032036115029    -0.000005382037    -0.000008476698
            -0.000003152640    -0.000006741704    0.035650762947    0.024902074373    0.000003679180    -0.000008608692    0.018471766638    0.034750075578
            0.019699353781    0.032036100208    0.000003679308    -0.000008608718    0.037540019548    0.021937847637    0.000003276142    -0.000013195645
            -0.000005381949    -0.000008476716    0.018471768458    0.034750074611    0.000003276020    -0.000013195618    0.035491585339    0.024874312076
0.125     0.042169285114    0.021572369471    -0.000003094138    -0.000008862153    0.027292197653    0.034636503193    -0.000004578795    -0.000010612035
            -0.000003094044    -0.000008862178    0.040393236413    0.026178106220    0.000003519712    -0.000011163463    0.026058696507    0.038764122259
            0.027292273679    0.034636484029    0.000003519848    -0.000011163498    0.042202124380    0.021739100184    0.000002220658    -0.000016841771
            -0.000004578708    -0.000010612058    0.026058699095    0.038764121725    0.000002220529    -0.000016841737    0.040151227581    0.026245033965
0.150     0.045330159495    0.019940346177    -0.000003385986    -0.000011417637    0.034276642572    0.034944349532    -0.000004131261    -0.000013713234
            -0.000003385897    -0.000011417665    0.044118841415    0.026254142506    0.000003040522    -0.000014106435    0.033452471836    0.040723168293
            0.034276717182    0.034944326774    0.000003040655    -0.000014106476    0.045406187337    0.020121179610    0.000000726594    -0.000020696005
            -0.000004131177    -0.000013713260    0.033452464246    0.040723170646    0.000000726477    -0.000020695967    0.043825997443    0.026461765332
0.175     0.046528445356    0.017610744259    -0.000004213556    -0.000014315911    0.039895646161    0.033453178912    -0.000004422705    -0.000017617872
            -0.000004213466    -0.000014315945    0.046445284057    0.025677577214    0.000002099250    -0.000017418040    0.040020242410    0.040974095477
            0.039895719252    0.033453152443    0.000002099373    -0.000017418083    0.046648977696    0.017792908565    -0.000001313647    -0.000024770543
            -0.000004422624    -0.000017617902    0.040020243824    0.040974095494    -0.000001313766    -0.000024770499    0.046160768958    0.026054721119
0.200     0.045554539600    0.015492118799    -0.000005635661    -0.000017432279    0.043630574049    0.030902521695    -0.000005592815    -0.000022076294
            -0.000005635572    -0.000017432316    0.047219666530    0.025150759229    0.000000545428    -0.000021012064    0.045310748638    0.040061126168
            0.043630645801    0.030902491326    0.000000545551    -0.000021012114    0.045719023435    0.015661706782    -0.000004052088    -0.000029003882
            -0.000005592733    -0.000022076326    0.045310741496    0.040061129716    -0.000004052200    -0.000029003834    0.047012585640    0.025698966471
0.225     0.042579382328    0.014543214924    -0.000007774148    -0.000020671207    0.045273859727    0.028172847291    -0.000007883705    -0.000026895596
            -0.000007774062    -0.000020671250    0.046585317390    0.025403524388    -0.000001766042    -0.000024804290    0.049107313741    0.038643260942
            0.045273929448    0.028172812850    -0.000001765920    -0.000024804346    0.042782711942    0.014685171382    -0.000007640508    -0.000033319801
            -0.000007883629    -0.000026895633    0.049107315876    0.038643259846    -0.000007640618    -0.000033319747    0.046523166469    0.026094439612
0.250     0.038148596103    0.015638843856    -0.000010704307    -0.000023906457    0.044965730288    0.026173968590    -0.000011404723    -0.000031823924
            -0.000010704227    -0.000023906501    0.044974516332    0.027090600350    -0.000004985350    -0.000028638838    0.051458400088    0.037411144070
            0.044965798662    0.026173930637    -0.000004985234    -0.000028638899    0.038379427863    0.015738899415    -0.000012243190    -0.000037554281
            -0.000011404644    -0.000031823966    0.051458403012    0.037411143450    -0.000012243295    -0.000037554224    0.045109860321    0.027870051660
0.275     0.033140866409    0.019409889979    -0.000014543085    -0.000026977318    0.043189390255    0.025710827353    -0.000016317870    -0.000036576000
            -0.000014543037    -0.000026977409    0.043066616827    0.030665140378    -0.000009240620    -0.000032313678    0.052670833408    0.036983715288
            0.043189447740    0.025710797255    -0.000009240505    -0.000032313745    0.033381396073    0.019457584879    -0.000017997396    -0.000041482517
            -0.000016317792    -0.000036576047    0.052670836336    0.036983714599    -0.000017997498    -0.000041482455    0.043428462453    0.031459470628
0.300     0.028660944811    0.026139626116    -0.000019361059    -0.000029657402    0.040722057014    0.027364057808    -0.000022677139    -0.000040796295
            -0.000019360983    -0.000029657455    0.041701436638    0.036307500509    -0.000014621700    -0.000035541562    0.053276091915    0.037822345941
            0.040722121202    0.027364014281    -0.000014621585    -0.000035541635    0.028888493279    0.026131303041    -0.000024991482    -0.000044781554
            -0.000022677065    -0.000040796346    0.053276094866    0.037822345239    -0.000024991579    -0.000044781490    0.042288617766    0.037034794117
0.325     0.025901315337    0.035672823942    -0.000025184984    -0.000031647792    0.038534560758    0.031378598545    -0.000030477912    -0.000044060043
            -0.000025184905    -0.000031647852    0.041767521230    0.043860779127    -0.000021122031    -0.000037977635    0.053954223422    0.040147373670
            0.038534621815    0.031378552071    -0.000021121919    -0.000037977716    0.026090676117    0.035613884199    -0.000033202056    -0.000047065275
            -0.000030477846    -0.000044060095    0.053954227129    0.040147372039    -0.000033202161    -0.000047065197    0.042547067310    0.044442774186
0.350     0.025971398426    0.047408221204    -0.000031923552    -0.000032605006    0.037656721860    0.037608312231    -0.000039552253    -0.000045915855
            -0.000031923485    -0.000032605063    0.044076693304    0.052837568813    -0.000028618686    -0.000039236505    0.055441868163    0.043899413947
            0.037656780636    0.037608263284    -0.000028618587    -0.000039236585    0.026098490814    0.047314511206    -0.000042470011    -0.000047907629
            -0.000039552189    -0.000045915911    0.055441872029    0.043899412286    -0.000042470107    -0.000047907552    0.044986927825    0.053211998367
0.375     0.029724641773    0.060333653503    -0.000039345424    -0.000032181444    0.039012906861    0.045503548057    -0.000049569494    -0.000045928185
            -0.000039345359    -0.000032181505    0.049235637498    0.062449371364    -0.000036821183    -0.000038961099    0.058411117460    0.048725167645
            0.039012968587    0.045503489867    -0.000036821085    -0.000038961186    0.029771540586    0.060230965194    -0.000052450739    -0.000046920544
            -0.000049569426    -0.000045928250    0.058411120780    0.048725165227    -0.000052450832    -0.000046920462    0.050194024358    0.062580231030
0.400     0.037614434275    0.073154200228    -0.000047070759    -0.000030109790    0.043274867592    0.054184662877    -0.000060027188    -0.000043779287
            -0.000047070689    -0.000030109861    0.057547236428    0.071708587733    -0.000045304594    -0.000036886079    0.063369193320    0.054027988083
            0.043274865701    0.054184664387    -0.000045304500    -0.000036886173    0.037572500360    0.073076123418    -0.000062650578    -0.000043825889
            -0.000060027125    -0.000043779353    0.063369196910    0.054027985414    -0.000062650646    -0.000043825822    0.058461627626    0.071592644614
0.425     0.049601316261    0.084452942755    -0.000054601658    -0.000026263967    0.050742001036    0.062556972299    -0.000070295927    -0.000039328376
            -0.000054601595    -0.000026264042    0.068943419997    0.079543690793    -0.000053525798    -0.000032917496    0.070565389992    0.059040585893
            0.050742063647    0.062556902198    -0.000053525707    -0.000032917595    0.049474789145    0.084436422709    -0.000072452192    -0.000038540823
            -0.000070295867    -0.000039328439    0.070565392053    0.059040583430    -0.000072452253    -0.000038540758    0.069725397699    0.079212196167
0.450     0.065145123887    0.092893343374    -0.000061406843    -0.000020717839    0.061297333276    0.069479231340    -0.000079720173    -0.000032676594
            -0.000061406783    -0.000020717915    0.082984148466    0.084950543778    -0.000060932125    -0.000027161893    0.079956724854    0.062943461315
            0.061297393686    0.069479158041    -0.000060932058    -0.000027161978    0.064951272910    0.092973026288    -0.000081232731    -0.000031208826
            -0.000079720113    -0.000032676666    0.079956728150    0.062943457128    -0.000081232785    -0.000031208765    0.083561399759    0.084464557316
0.475     0.083268707173    0.097392993770    -0.000066997289    -0.000013743953    0.074421067565    0.073916050553    -0.000087702453    -0.000024157774
            -0.000066997236    -0.000013744015    0.098899087343    0.087116004922    -0.000067027131    -0.000019938188    0.091202708536    0.064969513310
            0.074421119169    0.073915970215    -0.000067027071    -0.000019938272    0.083034675486    0.097595658819    -0.000088441043    -0.000022208258
            -0.000087702394    -0.000024157857    0.091202711938    0.064969508534    -0.000088441127    -0.000022208148    0.099224812393    0.086558665140
0.500     0.102699830740    0.097267148554    -0.000071028963    -0.000005778842    0.089280636110    0.075079911292    -0.000093822500    -0.000014294658
            -0.000071028912    -0.000005778913    0.115688120877    0.085527400855    -0.000071478212    -0.000011715190    0.103719659487    0.064512274641
            0.089280688735    0.075079833177    -0.000071478158    -0.000011715271    0.102449073863    0.097602338729    -0.000093712459    -0.000012082719
            -0.000093822447    -0.000014294734    0.103719659487    0.064512274641    -0.000093712510    -0.000012082643    0.115744386330    0.084991525778
0.525     0.122089097649    0.092328680773    -0.000073333884    0.000002662643    0.104876617539    0.072526322979    -0.000097867085    -0.000003698795
            -0.000073333834    0.000002662564    0.132236615359    0.080019524725    -0.000074139352    -0.000003043988    0.116746038199    0.061190615204
            0.104876662479    0.072526240413    -0.000074139303    -0.000003044077    0.121766391863    0.092741154061    -0.000096896553    -0.000001461919
            -0.000097867060    -0.000003698828    0.116746041402    0.061190609091    -0.000096896599    -0.000001461835    0.132029469971    0.079603995169
0.550     0.139174273305    0.082994298804    -0.000074029715    0.000010977970    0.119589965496    0.066275538872    -0.000099971444    0.000006904652
            -0.000074029667    0.000010977910    0.147448069147    0.070786032899    -0.000075112995    0.000005514662    0.129453005594    0.054897909229
            0.119590010608    0.066275457470    -0.000075112951    0.000005514566    0.139604202795    0.083256965996    -0.000098126405    0.000009011870
            -0.000099971391    0.000006904561    0.129452998304    0.054897900806    -0.000098126446    0.000009011960    0.147015271265    0.070606299523
0.575     0.154247336183    0.069141594422    -0.000073149085    0.000018824080    0.133193739819    0.056065080216    -0.000100129860    0.000017125943
            -0.000073149045    0.000018823988    0.160344019658    0.058337635905    -0.000074564288    0.000013537722    0.141037410850    0.045768814373
            0.133193777002    0.056064991879    -0.000074564248    0.000013537634    0.154617875849    0.069719949458    -0.000097588151    0.000018872899
            -0.000100129836    0.000017125903    0.141037414045    0.045768804527    -0.000097588191    0.000018872978    0.159794235861    0.058499586968
0.600     0.165373958554    0.052547678314    -0.000071177765    0.000025820775    0.144136152132    0.042947356647    -0.000098915968    0.000026499217
            -0.000071177726    0.000025820690    0.170160054664    0.043446917254    -0.000072918825    0.000020688020    0.150760573569    0.034147650030
            0.144136196784    0.042947276826    -0.000072918755    0.000020687836    0.165781044874    0.053125637454    -0.000095777265    0.000027732827
            -0.000098915963    0.000026499197    0.150760566200    0.034147637295    -0.000095777298    0.000027732909    0.169635455502    0.043986014453
0.625     0.172023780040    0.034167824310    -0.000068486305    0.000031789180    0.151810502315    0.027708956331    -0.000096744453    0.000034801157
            -0.000068486270    0.000031789091    0.176394621469    0.027063987125    -0.000070593030    0.000026826506    0.157992091778    0.020592414671
            0.151810520858    0.027708910434    -0.000070592988    0.000026826363    0.172580434404    0.034911074611    -0.000093172834    0.000035441857
            -0.000096744436    0.000034801113    0.157992092425    0.020592409707    -0.000093172883    0.000035441988    0.176024725308    0.027962905446
0.650     0.173919300834    0.015331595751    -0.000065482088    0.000036692813    0.155725051924    0.011105599291    -0.000094082138    0.000041973526
            -0.000065482060    0.000036692722    0.178846393417    0.010227161063    -0.000067969234    0.000031927735    0.162297675343    0.005827403491
            0.155725078502    0.011105507761    -0.000067969215    0.000031927639    0.174784519701    0.016002608380    -0.000090206517    0.000041967808
            -0.000094082112    0.000041973436    0.162297675648    0.005827394993    -0.000090206543    0.000041967897    0.178747751700    0.011435111059
0.675     0.171173954322    -0.002600712498    -0.000062553227    0.000040624682    0.155535033099    -0.005668677596    -0.000091377925    0.000048111690
            -0.000062553194    0.000040624599    0.177608587286    -0.006017011214    -0.000065449981    0.000036098025    0.163454954292    -0.009324282890
            0.155535051384    -0.005668725015    -0.000065449958    0.000036097878    0.172270132408    -0.002123528626    -0.000087347644    0.000047433047
            -0.000091377906    0.000048111639    0.163454944097    -0.009324286029    -0.000087347683    0.000047433167    0.177882500850    -0.004583787484
0.700     0.164271106799    -0.018338303107    -0.000060024248    0.000043803211    0.151351560048    -0.021411891412    -0.000089008634    0.000053464024
            -0.000060024225    0.000043803114    0.173070423792    -0.020694319393    -0.000063348100    0.000039581642    0.161490587876    -0.023995349261
            0.151351570136    -0.021411891491    -0.000063348091    0.000039581544    0.165527305929    -0.018125921034    -0.000084960166    0.000052122744
            -0.000089008602    0.000053463941    0.161490587876    -0.023995349261    -0.000084960178    0.000052122833    0.173793961098    -0.019149931004
0.725     0.154053402716    -0.030746157254    -0.000058126406    0.000046520231    0.143616289331    -0.034969980715    -0.000087237766    0.000058365762
            -0.000058126387    0.000046520133    0.165882365683    -0.032972193462    -0.000061874486    0.000042686978    0.156676227454    -0.037341112480
            0.143616298998    -0.034970025552    -0.000061874469    0.000042686839    0.155384115784    -0.030852720680    -0.000083289871    0.000056399094
            -0.000087237748    0.000058365662    0.156676226803    -0.037341115214    -0.000083289882    0.000056399185    0.167097723206    -0.031456436157
0.750     0.141698660318    -0.038950572068    -0.000056997206    0.000049143456    0.133134977628    -0.045317177866    -0.000086217886    0.000063245710
            -0.000056997193    0.000049143358    0.156925436395    -0.042235405851    -0.000061139371    0.000045790573    0.149547182458    -0.048609969188
            0.133134987812    -0.045317272082    -0.000061139365    0.000045790485    0.143000384415    -0.039404499189    -0.000082466424    0.000060706055
            -0.000086217882    0.000063245614    0.149547182458    -0.048609969188    -0.000082466430    0.000060706148    0.158632357667    -0.040901082592
0.775     0.128653383257    -0.042444409636    -0.000056651770    0.000052073448    0.121049028804    -0.051685631819    -0.000085950104    0.000068568549
            -0.000056651769    0.000052073374    0.147246139892    -0.048146222749    -0.000061129096    0.000049291466    0.140861548845    -0.057229268141
            0.121049031311    -0.051685727809    -0.000061129083    0.000049291333    0.129809751979    -0.043241534088    -0.000082470234    0.000065518465
            -0.000085950105    0.000068568452    0.140861548845    -0.057229268141    -0.000082470243    0.000065518566    0.149395574550    -0.047148184715
