# GHz S RI R 45
0.000     0.017754233000    0.000000000000    0.000023821775    -0.000000000000    0.000479767300    0.000000000000    -0.000003100463    0.000000000000
            0.000023821676    -0.000000000000    0.016422509000    0.000000000000    0.000002142973    0.000000000000    0.000273353370    0.000000000000
            0.000479685530    0.000000000000    0.000002142826    0.000000000000    0.017693600000    0.000000000000    0.000001109669    0.000000000000
            -0.000003100569    0.000000000000    0.000273355430    0.000000000000    0.000001109766    0.000000000000    0.016240970000    0.000000000000
0.025     0.022398963701    0.010641021830    -0.000009262366    -0.000018518187    0.002271389483    0.010979164017    0.000000839151    0.000004348095
            -0.000009262461    -0.000018518183    0.020437082473    0.010456684685    -0.000005957473    -0.000002763146    0.001722746838    0.010741402834
            0.002271183214    0.010979002453    -0.000005957618    -0.000002763138    0.022340674472    0.010681446596    -0.000002426159    -0.000000759256
            0.000000839044    0.000004348103    0.001722625811    0.010741236906    -0.000002426062    -0.000000759260    0.020443981727    0.010536839247
0.050     0.027916919234    0.016700708472    -0.000018898257    -0.000002621311    0.006993583196    0.020553424203    0.000003668693    0.000004754101
            -0.000018898356    -0.000002621305    0.025079577070    0.017088119837    -0.000007112762    0.000003158464    0.005617822946    0.020477873209
            0.006993531913    0.020553420526    -0.000007112909    0.000003158480    0.027884491215    0.016797502308    -0.000002341843    0.000002396682
            0.000003668589    0.000004754111    0.005617853339    0.020477860723    -0.000002341751    0.000002396672    0.025101363834    0.017067993868
0.075     0.034060266232    0.020373379251    -0.000016445577    0.000008154277    0.013870750281    0.027904028831    0.000006146570    0.000004797210
            -0.000016445676    0.000008154290    0.030304411838    0.021925483465    -0.000004366747    0.000007028640    0.011420952897    0.028613233429
            0.013870675757    0.027904040191    -0.000004366890    0.000007028662    0.034082454686    0.020511082981    -0.000000135051    0.000004299516
            0.000006146466    0.000004797226    0.011420959261    0.028613231966    -0.000000134959    0.000004299502    0.030246031334    0.021868217274
0.100     0.040099549415    0.021508005137    -0.000010391009    0.000014555149    0.021903290597    0.032514330355    0.000008807552    0.000004156747
            -0.000010391110    0.000014555167    0.035650762947    0.024902074373    -0.000000278572    0.000008850546    0.018471766638    0.034750075578
            0.021903211989    0.032514345932    -0.000000278715    0.000008850576    0.040194803830    0.021661604865    0.000002920005    0.000004779277
            0.000008807439    0.000004156769    0.018471768458    0.034750074611    0.000002920096    0.000004779259    0.035491585339    0.024874312076
0.125     0.044967163858    0.020322786309    -0.000003129023    0.000017380683    0.030013082786    0.034292922682    0.000011477305    0.000002627408
            -0.000003129111    0.000017380704    0.040393236413    0.026178106220    0.000004152735    0.000008797189    0.026058696507    0.038764122259
            0.030013006406    0.034292941689    0.000004152593    0.000008797226    0.045136782273    0.020461696371    0.000006145298    0.000003885842
            0.000011477213    0.000002627432    0.026058699095    0.038764121725    0.000006145392    0.000003885818    0.040151227581    0.026245033965
0.150     0.047932466293    0.017558084140    0.000004217484    0.000017247571    0.037135872237    0.033500278703    0.000013874425    0.000000177252
            0.000004217395    0.000017247596    0.044118841415    0.026254142506    0.000008344315    0.000007076483    0.033452471836    0.040723168293
            0.037135787213    0.033500304279    0.000008344174    0.000007076527    0.048181234202    0.017652998436    0.000009081864    0.000001690685
            0.000013874333    0.000000177280    0.033452464246    0.040723170646    0.000009081951    0.000001690658    0.043825997443    0.026461765332
0.175     0.048422547459    0.014116410761    0.000010858471    0.000014703625    0.042397103589    0.030804771981    0.000015722259    -0.000003113253
            0.000010858389    0.000014703653    0.046445284057    0.025677577214    0.000011840818    0.000004014058    0.040020242410    0.040974095477
            0.042397029820    0.030804798656    0.000011840692    0.000004014128    0.048739963077    0.014132874897    0.000011357076    -0.000001552378
            0.000015722169    -0.000003113218    0.040020243824    0.040974095494    0.000011357149    -0.000001552374    0.046160768958    0.026054721119
0.200     0.046235459764    0.011128316027    0.000016296715    0.000010226122    0.045236438636    0.027162843756    0.000016792498    -0.000007093916
            0.000016296621    0.000010226162    0.047219666530    0.025150759229    0.000014352449    -0.000000113618    0.045310748638    0.040061126168
            0.045236365631    0.027162874038    0.000014352366    -0.000000113577    0.046596514299    0.011034648130    0.000012692384    -0.000005621351
            0.000016792412    -0.000007093879    0.045310741496    0.040061129716    0.000012692476    -0.000005621348    0.047012585640    0.025698966471
0.225     0.041639859109    0.009769135443    0.000020189123    0.000004367439    0.045494584652    0.023685103137    0.000016899563    -0.000011552254
            0.000020189030    0.000004367483    0.046585317390    0.025403524388    0.000015691047    -0.000004940376    0.049107313741    0.038643260942
            0.045494513140    0.023685136554    0.000015690920    -0.000004940314    0.042006520708    0.009541759203    0.000012928658    -0.000010188932
            0.000016899475    -0.000011552210    0.049107315876    0.038643259846    0.000012928755    -0.000010188973    0.046523166469    0.026094439612
0.250     0.035367477704    0.011088952335    0.000022313003    -0.000002431383    0.043454921594    0.021489030221    0.000015911798    -0.000016252470
            0.000022312910    -0.000002431333    0.044974516332    0.027090600350    0.000015726400    -0.000010180262    0.051458400088    0.037411144070
            0.043454843624    0.021489072839    0.000015726227    -0.000010180149    0.035691432577    0.010717567832    0.000011942216    -0.000014973372
            0.000015911713    -0.000016252423    0.051458403012    0.037411143450    0.000011942305    -0.000014973395    0.045109860321    0.027870051660
0.275     0.028555459974    0.015816704117    0.000022575588    -0.000009639812    0.039829441811    0.021526008044    0.000013754064    -0.000020907093
            0.000022575500    -0.000009639758    0.043066616827    0.030665140378    0.000014418967    -0.000015479144    0.052670833408    0.036983715288
            0.039829374311    0.021526048809    0.000014418842    -0.000015479069    0.028782863319    0.015308588310    0.000009726505    -0.000019643409
            0.000013753983    -0.000020907043    0.052670836336    0.036983714599    0.000009726594    -0.000019643461    0.043428462453    0.031459470628
0.300     0.022607967715    0.024225461117    0.000020931294    -0.000016818448    0.035684659665    0.024425392969    0.000010413555    -0.000025218175
            0.000020931211    -0.000016818392    0.041701436638    0.036307500509    0.000011749511    -0.000020527774    0.053276091915    0.037822345941
            0.035684593557    0.024425436437    0.000011749432    -0.000020527719    0.022686154862    0.023608221636    0.000006294802    -0.000023894745
            0.000010413477    -0.000025218119    0.053276094866    0.037822345239    0.000006294808    -0.000023894746    0.042288617766    0.037034794117
0.325     0.019010874684    0.036023573733    0.000017501319    -0.000023458639    0.032297461798    0.030356923376    0.000005974671    -0.000028855960
            0.000017501239    -0.000023458577    0.041767521230    0.043860779127    0.000007820417    -0.000024967231    0.053954223422    0.040147373670
            0.032297398614    0.030356970157    0.000007820265    -0.000024967118    0.018895993876    0.035344749317    0.000001787472    -0.000027409447
            0.000005974597    -0.000028855902    0.053954227129    0.040147372039    0.000001787559    -0.000027409509    0.042547067310    0.044442774186
0.350     0.019104391470    0.050350345385    0.000012457529    -0.000029138769    0.030964342167    0.038969736745    0.000000608834    -0.000031520696
            0.000012457453    -0.000029138702    0.044076693304    0.052837568813    0.000002780755    -0.000028481587    0.055441868163    0.043899413947
            0.030964280895    0.038969786707    0.000002780601    -0.000028481463    0.018769378065    0.049674539021    -0.000003612856    -0.000029909850
            0.000000608686    -0.000031520572    0.055441872029    0.043899412286    -0.000003612850    -0.000029909854    0.044986927825    0.053211998367
0.375     0.023856485125    0.065843755398    0.000006166785    -0.000033463945    0.032779443350    0.049403192936    -0.000005389922    -0.000032957021
            0.000006166710    -0.000033463874    0.049235637498    0.062449371364    -0.000003069927    -0.000030783429    0.058411117460    0.048725167645
            0.032779370592    0.049403259213    -0.000003069995    -0.000030783366    0.023298101504    0.065245850933    -0.000009593089    -0.000031173957
            -0.000005390025    -0.000032956925    0.058411120780    0.048725165227    -0.000009593052    -0.000031173992    0.050194024358    0.062580231030
0.400     0.033682752411    0.080825187164    -0.000000971965    -0.000036182799    0.038444407221    0.060410917988    -0.000011665839    -0.000033019741
            -0.000000972033    -0.000036182727    0.057547236428    0.071708587733    -0.000009390585    -0.000031691906    0.063369193320    0.054027988083
            0.038444338900    0.060410987543    -0.000009390650    -0.000031691841    0.032924464210    0.080381329717    -0.000015812791    -0.000031080090
            -0.000011665895    -0.000033019680    0.063369196910    0.054027985414    -0.000015812719    -0.000031080164    0.058461627626    0.071592644614
0.425     0.048349000930    0.093530632246    -0.000008437226    -0.000037185641    0.048135940901    0.070542580580    -0.000017803614    -0.000031696003
            -0.000008437258    -0.000037185603    0.068943419997    0.079543690793    -0.000015749894    -0.000031152951    0.070565389992    0.059040585893
            0.048135875631    0.070542654173    -0.000015750025    -0.000031152806    0.047441317965    0.093307973677    -0.000021869246    -0.000029637417
            -0.000017803672    -0.000031695938    0.070565392053    0.059040583430    -0.000021869211    -0.000029637457    0.069725397699    0.079212196167
0.450     0.066993911352    0.102379650472    -0.000015778106    -0.000036533716    0.061481142592    0.078377765244    -0.000023433616    -0.000029116557
            -0.000015778175    -0.000036533632    0.082984148466    0.084950543778    -0.000021766944    -0.000029254627    0.079956724854    0.062943461315
            0.061481081684    0.078377839712    -0.000021767066    -0.000029254482    0.066010112754    0.102425803734    -0.000027421701    -0.000026979330
            -0.000023433667    -0.000029116497    0.079956728150    0.062943457128    -0.000027421638    -0.000026979410    0.083561399759    0.084464557316
0.475     0.088248380750    0.106187996545    -0.000022563366    -0.000034441315    0.077619014175    0.082723407822    -0.000028246759    -0.000025537640
            -0.000022563426    -0.000034441235    0.098899087343    0.087116004922    -0.000027094476    -0.000026218228    0.091202708536    0.064969513310
            0.077618986366    0.082723447628    -0.000027094560    -0.000026218116    0.087275801621    0.106525313045    -0.000032180824    -0.000023358347
            -0.000028246816    -0.000025537566    0.091202711938    0.064969508534    -0.000032180767    -0.000023358426    0.099224812393    0.086558665140
0.500     0.110434888641    0.104320372475    -0.000028531314    -0.000031212665    0.095345053852    0.082770213882    -0.000032075147    -0.000021283115
            -0.000028531314    -0.000031212665    0.115688120877    0.085527400855    -0.000031527205    -0.000022339503    0.103719659487    0.064512274641
            0.095345009725    0.082770295220    -0.000031527282    -0.000022339392    0.109566276802    0.104939299195    -0.000035997868    -0.000019078661
            -0.000032075204    -0.000021283032    0.103719659487    0.064512274641    -0.000035997817    -0.000019078739    0.115744386330    0.084991525778
0.525     0.131783432412    0.096730217772    -0.000033519699    -0.000027208077    0.113272985877    0.078156280883    -0.000034868620    -0.000016701949
            -0.000033519753    -0.000027207995    0.132236615359    0.080019524725    -0.000034960595    -0.000017956647    0.116746038199    0.061190615204
            0.113272931313    0.078156359963    -0.000034960670    -0.000017956523    0.131105992190    0.097590762952    -0.000038826837    -0.000014469053
            -0.000034868677    -0.000016701864    0.116746041402    0.061190609091    -0.000038826790    -0.000014469136    0.132029469971    0.079603995169
0.550     0.150639209904    0.083931475403    -0.000037534130    -0.000022751601    0.130004211301    0.068976993572    -0.000036712354    -0.000012093743
            -0.000037534172    -0.000022751527    0.147448069147    0.070786032899    -0.000037431802    -0.000013371990    0.129453005594    0.054897909229
            0.130004166757    0.068977077525    -0.000037431870    -0.000013371866    0.150225334673    0.084963831473    -0.000040749577    -0.000009804616
            -0.000036712403    -0.000012093653    0.129452998304    0.054897900806    -0.000040749539    -0.000009804712    0.147015271265    0.070606299523
0.575     0.165611278366    0.066898785628    -0.000040650888    -0.000018129453    0.144250279139    0.055733154563    -0.000037762368    -0.000007695292
            -0.000040650928    -0.000018129377    0.160344019658    0.058337635905    -0.000039047556    -0.000008845654    0.141037410850    0.045768814373
            0.144250233820    0.055733244112    -0.000039047607    -0.000008845508    0.165512045595    0.068009957802    -0.000041906039    -0.000005306396
            -0.000037762415    -0.000007695199    0.141037414045    0.045768804527    -0.000041906002    -0.000005306480    0.159794235861    0.058499586968
0.600     0.175683212751    0.046949704993    -0.000043036664    -0.000013526008    0.154937425973    0.039270730497    -0.000038231873    -0.000003643944
            -0.000043036705    -0.000013525930    0.170160054664    0.043446917254    -0.000039989158    -0.000004545818    0.150760573569    0.034147650030
            0.154937383282    0.039270817525    -0.000039989213    -0.000004545682    0.175920783154    0.048032988791    -0.000042490257    -0.000001101619
            -0.000038231918    -0.000003643854    0.150760566200    0.034147637295    -0.000042490221    -0.000001101692    0.169635455502    0.043986014453
0.625     0.180262041562    0.025618517428    -0.000044866021    -0.000009061458    0.161262987754    0.020700518254    -0.000038338898    -0.000000000000
            -0.000044866054    -0.000009061366    0.176394621469    0.027063987125    -0.000040450154    -0.000000575822    0.157992091778    0.020592414671
            0.161262946148    0.020700606752    -0.000040450187    -0.000000575688    0.180826022749    0.026561234064    -0.000042697655    0.000002746766
            -0.000038338938    0.000000000100    0.157992092425    0.020592409707    -0.000042697612    0.000002746673    0.176024725308    0.027962905446
0.650     0.179212052467    0.004538048116    -0.000046329895    -0.000004752574    0.162757214683    0.001332596789    -0.000038291571    0.000003270136
            -0.000046329920    -0.000004752486    0.178846393417    0.010227161063    -0.000040634977    0.000003054461    0.162297675343    0.005827403491
            0.162757214679    0.001332597215    -0.000040635038    0.000003054636    0.180054743516    0.005232937806    -0.000042719934    0.000006262893
            -0.000038291602    0.000003270220    0.162297675648    0.005827394993    -0.000042719905    0.000006262797    0.178747751700    0.011435111059
0.675     0.172851018369    -0.014666824602    -0.000047579541    -0.000000570667    0.159318281898    -0.017403511703    -0.000038253652    0.000006249983
            -0.000047579575    -0.000000570576    0.177608587286    -0.006017011214    -0.000040716884    0.000006385122    0.163454954292    -0.009324282890
            0.159318276696    -0.017403467239    -0.000040716924    0.000006385252    0.173889079531    -0.014312579564    -0.000042709216    0.000009512382
            -0.000038253685    0.000006250077    0.163454944097    -0.009324286029    -0.000042709210    0.000009512279    0.177882500850    -0.004583787484
0.700     0.161957482532    -0.030487963269    -0.000048739397    0.000003587639    0.151269242110    -0.034041577899    -0.000038345155    0.000009080976
            -0.000048739427    0.000003587735    0.173070423792    -0.020694319393    -0.000040842175    0.000009527284    0.161490587876    -0.023995349261
            0.151269212342    -0.034041482437    -0.000040842209    0.000009527464    0.163074531246    -0.030541809566    -0.000042785216    0.000012618912
            -0.000038345203    0.000009081157    0.161490587876    -0.023995349261    -0.000042785200    0.000012618818    0.173793961098    -0.019149931004
0.725     0.147747300879    -0.041649671115    -0.000049874831    0.000007843485    0.139383005903    -0.047196912419    -0.000038628086    0.000011922321
            -0.000049874849    0.000007843595    0.165882365683    -0.032972193462    -0.000041104141    0.000012620898    0.156676227454    -0.037341112480
            0.139382985728    -0.047196816104    -0.000041104170    0.000012621087    0.148801463010    -0.042142392303    -0.000043016104    0.000015723545
            -0.000038628105    0.000011922408    0.156676226803    -0.037341115214    -0.000043016088    0.000015723446    0.167097723206    -0.031456436157
0.750     0.131842068390    -0.047245847266    -0.000051000636    0.000012364323    0.124904384054    -0.055711347820    -0.000039108006    0.000014962746
            -0.000051000636    0.000012364333    0.156925436395    -0.042235405851    -0.000041543683    0.000015854337    0.149547182458    -0.048609969188
            0.124904384054    -0.055711347820    -0.000041543707    0.000015854529    0.132677502102    -0.048160313083    -0.000043423144    0.000019005294
            -0.000039108020    0.000014962845    0.149547182458    -0.048609969188    -0.000043423131    0.000019005198    0.158632357667    -0.040901082592
0.775     0.116176640558    -0.046889554848    -0.000052059093    0.000017309107    0.109494595653    -0.058839166506    -0.000039724536    0.000018385198
            -0.000052059105    0.000017309212    0.147246139892    -0.048146222749    -0.000042127663    0.000019421796    0.140861548845    -0.057229268141
            0.109494596520    -0.058839122641    -0.000042127670    0.000019421889    0.116639492072    -0.048154514611    -0.000043963061    0.000022643775
            -0.000039724555    0.000018385341    0.140861548845    -0.057229268141    -0.000043963063    0.000022643708    0.149395574550    -0.047148184715
