# GHz S RI R 45
0.000     0.017322589000    0.000000000000    -0.000075405548    0.000000000000    0.000371597180    0.000000000000    -0.000041625227    0.000000000000
            -0.000075405056    0.000000000000    0.016422509000    0.000000000000    -0.000054551239    0.000000000000    0.000273353370    0.000000000000
            0.000371572650    0.000000000000    -0.000054551132    0.000000000000    0.017271727000    0.000000000000    -0.000049505965    0.000000000000
            -0.000041624878    0.000000000000    0.000273355430    0.000000000000    -0.000049506345    0.000000000000    0.016240970000    0.000000000000
0.025     0.021999103934    0.011133054017    -0.000111546049    -0.000035350553    0.002017837088    0.011506858154    -0.000099315040    -0.000047744231
            -0.000111546039    -0.000035350550    0.020437082473    0.010456684685    -0.000115789497    -0.000050967800    0.001722746838    0.010741402834
            0.002017689480    0.011506688093    -0.000115789533    -0.000050967768    0.021921613365    0.011113181950    -0.000088512255    -0.000036075183
            -0.000099314924    -0.000047744240    0.001722625811    0.010741236906    -0.000088512456    -0.000036075157    0.020443981727    0.010536839247
0.050     0.027512507275    0.017888379818    -0.000130803298    -0.000035257438    0.006752284576    0.021798374698    -0.000125864795    -0.000037483609
            -0.000130803298    -0.000035257438    0.025079577070    0.017088119837    -0.000144172847    -0.000040387782    0.005617822946    0.020477873209
            0.006752290114    0.021798365655    -0.000144172885    -0.000040387793    0.027388986077    0.017885805259    -0.000108554557    -0.000033501315
            -0.000125864830    -0.000037483595    0.005617853339    0.020477860723    -0.000108555563    -0.000033501210    0.025101363834    0.017067993868
0.075     0.033776670986    0.022272066040    -0.000142663949    -0.000036027050    0.013756855488    0.029883541975    -0.000137018640    -0.000030956971
            -0.000142662972    -0.000036027201    0.030304411838    0.021925483465    -0.000156252973    -0.000033630940    0.011420952897    0.028613233429
            0.013756835246    0.029883544688    -0.000156253002    -0.000033630946    0.033603469392    0.022318154401    -0.000119874463    -0.000032221128
            -0.000137018684    -0.000030956956    0.011420959261    0.028613231966    -0.000119874473    -0.000032221131    0.030246031334    0.021868217274
0.100     0.040032694096    0.024126680779    -0.000154486997    -0.000036419378    0.022019526382    0.035244967567    -0.000145978964    -0.000026307401
            -0.000154486988    -0.000036419376    0.035650762947    0.024902074373    -0.000166004297    -0.000028817222    0.018471766638    0.034750075578
            0.022019501313    0.035244972617    -0.000166004337    -0.000028817229    0.039820429220    0.024257401957    -0.000130672167    -0.000030873963
            -0.000145978038    -0.000026307576    0.018471768458    0.034750074611    -0.000130672177    -0.000030873965    0.035491585339    0.024874312076
0.125     0.045215902193    0.023719712312    -0.000166974809    -0.000034938943    0.030468028229    0.037796579754    -0.000154638576    -0.000021605069
            -0.000166974326    -0.000034939055    0.040393236413    0.026178106220    -0.000175430262    -0.000023936324    0.026058696507    0.038764122259
            0.030468004801    0.037796585794    -0.000175429821    -0.000023936451    0.044985408748    0.023967108866    -0.000141777992    -0.000027923398
            -0.000154638616    -0.000021605075    0.026058699095    0.038764121725    -0.000141778002    -0.000027923400    0.040151227581    0.026245033965
0.150     0.048611051620    0.021723510767    -0.000179738268    -0.000031143828    0.038058900887    0.037797447580    -0.000163224698    -0.000015910390
            -0.000179738258    -0.000031143826    0.044118841415    0.026254142506    -0.000184787250    -0.000018033241    0.033452471836    0.040723168293
            0.038058873801    0.037797454985    -0.000184786347    -0.000018033543    0.048419892693    0.022110282645    -0.000152880093    -0.000022852284
            -0.000163224737    -0.000015910394    0.033452464246    0.040723170646    -0.000152880093    -0.000022852284    0.043825997443    0.026461765332
0.175     0.049670991468    0.019072920201    -0.000192245342    -0.000024785659    0.043944671405    0.035908163900    -0.000171502822    -0.000008798578
            -0.000192245342    -0.000024785659    0.046445284057    0.025677577214    -0.000193870728    -0.000010676784    0.040020242410    0.040974095477
            0.043944648952    0.035908172414    -0.000193870308    -0.000010676965    0.049581130135    0.019594393801    -0.000163434910    -0.000015428484
            -0.000171502422    -0.000008798767    0.040020243824    0.040974095494    -0.000163434903    -0.000015428455    0.046160768958    0.026054721119
0.200     0.048238944475    0.016892959655    -0.000204050410    -0.000016068612    0.047601344559    0.033062613226    -0.000179198399    -0.000000199510
            -0.000204050400    -0.000016068611    0.047219666530    0.025150759229    -0.000202432720    -0.000001796390    0.045310748638    0.040061126168
            0.047601318390    0.033062624609    -0.000202432770    -0.000001796355    0.048309704327    0.017517304269    -0.000172996041    -0.000005848988
            -0.000179198419    -0.000000199541    0.045310741496    0.040061129716    -0.000172996010    -0.000005849017    0.047012585640    0.025698966471
0.225     0.044631408046    0.016324336747    -0.000214675572    -0.000005119618    0.048903507977    0.030330482243    -0.000185944097    0.000009889705
            -0.000214675127    -0.000005119832    0.046585317390    0.025403524388    -0.000210139424    0.000008642234    0.049107313741    0.038643260942
            0.048903487192    0.030330492989    -0.000210139472    0.000008642273    0.044908978279    0.016993707436    -0.000181062638    0.000005693444
            -0.000185943696    0.000009889521    0.049107315876    0.038643259846    -0.000181062648    0.000005693444    0.046523166469    0.026094439612
0.250     0.039623538442    0.018353015584    -0.000223824759    0.000007737518    0.048161425179    0.028766952635    -0.000191470024    0.000021297683
            -0.000223823884    0.000007737057    0.044974516332    0.027090600350    -0.000216739484    0.000020503104    0.051458400088    0.037411144070
            0.048161409775    0.028766962823    -0.000216739534    0.000020503108    0.040131056693    0.018990078056    -0.000187345324    0.000018824057
            -0.000191470070    0.000021297722    0.051458403012    0.037411143450    -0.000187345334    0.000018824058    0.045109860321    0.027870051660
0.275     0.034374029242    0.023616301972    -0.000231115223    0.000022203384    0.046093419694    0.029241637497    -0.000195441383    0.000033796494
            -0.000231114795    0.000022203139    0.043066616827    0.030665140378    -0.000221897530    0.000033620964    0.052670833408    0.036983715288
            0.046093397136    0.029241652521    -0.000221897584    0.000033621012    0.035103089794    0.024133717099    -0.000191486024    0.000033141500
            -0.000195441432    0.000033796502    0.052670836336    0.036983714599    -0.000191486877    0.000033142026    0.043428462453    0.031459470628
0.300     0.030275747383    0.032275718403    -0.000236355682    0.000037865324    0.043743812731    0.032288805178    -0.000197670004    0.000047045921
            -0.000236355672    0.000037865322    0.041701436638    0.036307500509    -0.000225396935    0.000047707341    0.053276091915    0.037822345941
            0.043743799932    0.032288815782    -0.000225396169    0.000047706809    0.031183442121    0.032589219230    -0.000193352748    0.000048166211
            -0.000197670054    0.000047045970    0.053276094866    0.037822345239    -0.000193352757    0.000048166214    0.042288617766    0.037034794117
0.325     0.028756082150    0.043921992132    -0.000239317127    0.000054256710    0.042327557550    0.037981797872    -0.000197975982    0.000060620290
            -0.000239317127    0.000054256710    0.041767521230    0.043860779127    -0.000227002432    0.000062389868    0.053954223422    0.040147373670
            0.042327520520    0.037981828657    -0.000227002100    0.000062389606    0.029766177043    0.043964482911    -0.000192808803    0.000063343352
            -0.000197975642    0.000060620035    0.053954227129    0.040147372039    -0.000192809204    0.000063343670    0.042547067310    0.044442774186
0.350     0.031047917234    0.057591783361    -0.000240004460    0.000070865299    0.043039158886    0.045889564742    -0.000196389384    0.000074057617
            -0.000240004450    0.000070865296    0.044076693304    0.052837568813    -0.000226669578    0.000077224618    0.055441868163    0.043899413947
            0.043039161973    0.045889563218    -0.000226668862    0.000077224021    0.032058747135    0.057327110403    -0.000189975812    0.000078130672
            -0.000196389428    0.000074057673    0.055441872029    0.043899412286    -0.000189975822    0.000078130676    0.044986927825    0.053211998367
0.375     0.037965164213    0.071858117679    -0.000238486832    0.000087148450    0.046832987834    0.055106485799    -0.000193037498    0.000086877346
            -0.000238486099    0.000087147805    0.049235637498    0.062449371364    -0.000224439749    0.000091726722    0.058411117460    0.048725167645
            0.046832955467    0.055106515931    -0.000224439804    0.000091726744    0.038863113258    0.071289574777    -0.000185056114    0.000091967063
            -0.000193037553    0.000086877371    0.058411120780    0.048725165227    -0.000185056488    0.000091967410    0.050194024358    0.062580231030
0.400     0.049742324007    0.085035746826    -0.000235077172    0.000102649096    0.054252309905    0.064393718732    -0.000188259541    0.000098695795
            -0.000235077172    0.000102649096    0.057547236428    0.071708587733    -0.000220579655    0.000105468151    0.063369193320    0.054027988083
            0.054252313276    0.064393715892    -0.000220579682    0.000105468211    0.050417656020    0.084210312053    -0.000178489890    0.000104442620
            -0.000188259576    0.000098695856    0.063369196910    0.054027985414    -0.000178489907    0.000104442630    0.058461627626    0.071592644614
0.425     0.065960716760    0.095424272025    -0.000230168676    0.000117006007    0.065316673133    0.072368402819    -0.000182476862    0.000109243156
            -0.000230168347    0.000117005638    0.068943419997    0.079543690793    -0.000215455741    0.000118116636    0.070565389992    0.059040585893
            0.065316676252    0.072368398657    -0.000215455773    0.000118116703    0.066324799667    0.094428300155    -0.000170782931    0.000115256482
            -0.000182476894    0.000109243218    0.070565392053    0.059040583430    -0.000170783594    0.000115257233    0.069725397699    0.079212196167
0.450     0.085603867069    0.101572560220    -0.000224284403    0.000130070865    0.079526896008    0.077733853331    -0.000176202089    0.000118460395
            -0.000224284434    0.000130070831    0.082984148466    0.084950543778    -0.000209559083    0.000129530485    0.079956724854    0.062943461315
            0.079526900078    0.077733849167    -0.000209559092    0.000129530491    0.085602530827    0.100521535809    -0.000162536182    0.000124367979
            -0.000176202110    0.000118460453    0.079956728150    0.062943457128    -0.000162536206    0.000124367997    0.083561399759    0.084464557316
0.475     0.107198787735    0.102478344859    -0.000217909516    0.000141860138    0.095943600442    0.079460511705    -0.000169896110    0.000126456070
            -0.000217909516    0.000141860138    0.098899087343    0.087116004922    -0.000203356991    0.000139743478    0.091202708536    0.064969513310
            0.095943603216    0.079460508356    -0.000203357008    0.000139743542    0.106821399484    0.101502620122    -0.000154280660    0.000131894711
            -0.000169896136    0.000126456136    0.091202711938    0.064969508534    -0.000154280668    0.000131894718    0.099224812393    0.086558665140
0.500     0.129035556285    0.097713400288    -0.000211484302    0.000152605633    0.113346044415    0.076919866287    -0.000163943664    0.000133528706
            -0.000211484302    0.000152605633    0.115688120877    0.085527400855    -0.000197271809    0.000148990038    0.103719659487    0.064512274641
            0.113346044415    0.076919866287    -0.000197271831    0.000148990108    0.128315742127    0.096940534777    -0.000146458194    0.000138181575
            -0.000163943671    0.000133528760    0.103719659487    0.064512274641    -0.000146458747    0.000138182387    0.115744386330    0.084991525778
0.525     0.149380239723    0.087437173770    -0.000205282942    0.000162634447    0.130390275767    0.069924274944    -0.000158557777    0.000140061914
            -0.000205282703    0.000162634024    0.132236615359    0.080019524725    -0.000191565002    0.000157614873    0.116746038199    0.061190615204
            0.130390275767    0.069924274944    -0.000191564997    0.000157614926    0.148394369447    0.086977995564    -0.000139325284    0.000143644611
            -0.000158557773    0.000140062009    0.116746041402    0.061190609091    -0.000139325297    0.000143644625    0.132029469971    0.079603995169
0.550     0.166679579823    0.072343623678    -0.000199429198    0.000172367350    0.145772124079    0.058717688810    -0.000153789528    0.000146498166
            -0.000199429198    0.000172367350    0.147448069147    0.070786032899    -0.000186347839    0.000166044630    0.129453005594    0.054897909229
            0.145772117877    0.058717677441    -0.000186347928    0.000166044650    0.165537123989    0.072277093995    -0.000132953397    0.000148776040
            -0.000153789630    0.000146498161    0.129452998304    0.054897900806    -0.000132953411    0.000148776055    0.147015271265    0.070606299523
0.575     0.179691436673    0.053545857323    -0.000193858693    0.000182188871    0.158333766084    0.043912747034    -0.000149512118    0.000153230662
            -0.000193858492    0.000182188427    0.160344019658    0.058337635905    -0.000181543319    0.000174683328    0.141037410850    0.045768814373
            0.158333721519    0.043912832882    -0.000181543310    0.000174683381    0.178525559717    0.053911855709    -0.000127230678    0.000153996202
            -0.000149511892    0.000153230323    0.141037414045    0.045768804527    -0.000127230697    0.000153996225    0.159794235861    0.058499586968
0.600     0.187581397656    0.032448150557    -0.000188372317    0.000192450099    0.167157061501    0.026424111973    -0.000145470604    0.000160593082
            -0.000188372277    0.000192450125    0.170160054664    0.043446917254    -0.000176936979    0.000183890098    0.150760573569    0.034147650030
            0.167157053238    0.026424100201    -0.000176936975    0.000183890158    0.186535791276    0.033243077436    -0.000121903176    0.000159674738
            -0.000145470603    0.000160593137    0.150760566200    0.034147637295    -0.000121903182    0.000159674746    0.169635455502    0.043986014453
0.625     0.189955023658    0.010616177013    -0.000182640196    0.000203370019    0.171607051608    0.007387732707    -0.000141292245    0.000168787601
            -0.000182640196    0.000203370019    0.176394621469    0.027063987125    -0.000172178486    0.000193902915    0.157992091778    0.020592414671
            0.171607051608    0.007387732707    -0.000172178526    0.000193902960    0.189169195796    0.011791181495    -0.000116602270    0.000166025005
            -0.000141292064    0.000168787205    0.157992092425    0.020592409707    -0.000116602436    0.000166025488    0.176024725308    0.027962905446
0.650     0.186879240516    -0.010343307739    -0.000176267549    0.000215056272    0.171387791094    -0.011906901564    -0.000136549218    0.000177887862
            -0.000176267242    0.000215055361    0.178846393417    0.010227161063    -0.000166853053    0.000204839009    0.162297675343    0.005827403491
            0.171387780868    -0.011906904461    -0.000166852760    0.000204838138    0.186474496275    -0.008878079225    -0.000110897234    0.000173138613
            -0.000136548900    0.000177886997    0.162297675648    0.005827394993    -0.000110897524    0.000173139532    0.178747751700    0.011435111059
0.675     0.178866443072    -0.028887570929    -0.000168822940    0.000227437357    0.166566867304    -0.030097085858    -0.000130791680    0.000187789150
            -0.000168822681    0.000227436429    0.177608587286    -0.006017011214    -0.000160500060    0.000216641208    0.163454954292    -0.009324282890
            0.166566855502    -0.030097038695    -0.000160500040    0.000216641261    0.178932626431    -0.027260022860    -0.000104349779    0.000180913137
            -0.000130791665    0.000187789198    0.163454944097    -0.009324286029    -0.000104349991    0.000180914088    0.177882500850    -0.004583787484
0.700     0.166869824778    -0.043650360477    -0.000159904934    0.000240310488    0.157626182802    -0.045835788042    -0.000123613083    0.000198246725
            -0.000159904687    0.000240309572    0.173070423792    -0.020694319393    -0.000152688787    0.000229110173    0.161490587876    -0.023995349261
            0.157626157990    -0.045835694299    -0.000152688803    0.000229110198    0.167453700988    -0.042015866827    -0.000096557917    0.000189110980
            -0.000123613059    0.000198246764    0.161490587876    -0.023995349261    -0.000096558142    0.000189111910    0.173793961098    -0.019149931004
0.725     0.152242582698    -0.053555294659    -0.000149177204    0.000253297318    0.145468944668    -0.057912323657    -0.000114687598    0.000208847218
            -0.000149177103    0.000253296843    0.165882365683    -0.032972193462    -0.000143044552    0.000241871853    0.156676227454    -0.037341112480
            0.145468928537    -0.057912228996    -0.000143044363    0.000241870954    0.153337755525    -0.052085533480    -0.000087218276    0.000197324169
            -0.000114687534    0.000208847276    0.156676226803    -0.037341115214    -0.000087218276    0.000197324169    0.167097723206    -0.031456436157
0.750     0.136686439152    -0.057952501672    -0.000136432655    0.000265914294    0.131423754809    -0.065400192969    -0.000103834881    0.000219071715
            -0.000136432697    0.000265914261    0.156925436395    -0.042235405851    -0.000131323345    0.000254428980    0.149547182458    -0.048609969188
            0.131423745430    -0.065400099586    -0.000131323221    0.000254428088    0.138228593784    -0.056815569264    -0.000076163560    0.000205044392
            -0.000103834885    0.000219071724    0.149547182458    -0.048609969188    -0.000076163708    0.000205045339    0.158632357667    -0.040901082592
0.775     0.122130627426    -0.056754039899    -0.000121634803    0.000277570409    0.117153498187    -0.067831323087    -0.000091060470    0.000228311556
            -0.000121634759    0.000277569915    0.147246139892    -0.048146222749    -0.000117447522    0.000266171908    0.140861548845    -0.057229268141
            0.117153492351    -0.067831273295    -0.000117447538    0.000266171945    0.123996265308    -0.056095324155    -0.000063426379    0.000211677008
            -0.000091060434    0.000228311118    0.140861548845    -0.057229268141    -0.000063426382    0.000211677017    0.149395574550    -0.047148184715
