# GHz S RI R 45
0.000     0.010435671000    0.000000000000    -0.000000854248    0.000000000000    0.000398854420    -0.000000000000    -0.000007693356    0.000000000000
            -0.000000854129    0.000000000000    0.011375512000    0.000000000000    0.000000815423    -0.000000000000    0.000193406730    0.000000000000
            0.000398875290    -0.000000000000    0.000000815456    -0.000000000000    0.010403672000    0.000000000000    0.000002833703    -0.000000000000
            -0.000007693247    0.000000000000    0.000193409150    0.000000000000    0.000002833685    -0.000000000000    0.011194361000    0.000000000000
0.025     0.014087113659    0.009041642559    -0.000000388255    -0.000001774116    0.001663096688    0.007955177077    0.000003739733    0.000005203904
            -0.000000388134    -0.000001774127    0.014505611976    0.010798379679    0.000005455849    0.000001731951    0.001264683609    0.009837627644
            0.001663090597    0.007955220032    0.000005455878    0.000001731948    0.014020106135    0.008987764806    0.000003034013    -0.000001104799
            0.000003739831    0.000005203896    0.001264563592    0.009837462498    0.000003033996    -0.000001104798    0.014520868353    0.010887155171
0.050     0.019015035601    0.015286804266    -0.000001561113    -0.000004125293    0.005168007768    0.015215276847    0.000006561258    -0.000001642830
            -0.000001561006    -0.000004125314    0.018353245012    0.018920246649    0.000006704176    -0.000001444560    0.004095625885    0.019093359294
            0.005168013513    0.015215278064    0.000006704206    -0.000001444566    0.018926048177    0.015204930379    0.000002616463    -0.000002505405
            0.000006561364    -0.000001642851    0.004095657161    0.019093347471    0.000002616445    -0.000002505401    0.018403595240    0.018906078733
0.075     0.025638052892    0.019976226915    -0.000003624430    -0.000005717609    0.010669173111    0.021260388072    0.000004862430    -0.000006449275
            -0.000003624318    -0.000005717642    0.023149209760    0.025963334317    0.000006070384    -0.000003917215    0.008484245639    0.027505966617
            0.010669184010    0.021260379246    0.000006070416    -0.000003917225    0.025525471666    0.019874041343    0.000001782915    -0.000003677269
            0.000004862535    -0.000006449308    0.008484253135    0.027505965351    0.000001782902    -0.000003677266    0.023142381433    0.025890527682
0.100     0.033742317662    0.022659391945    -0.000006195777    -0.000006428547    0.017796700047    0.025655473903    0.000001648004    -0.000009475536
            -0.000006195669    -0.000006428590    0.028819545297    0.031745924263    0.000004765545    -0.000005778072    0.014186036586    0.034800470461
            0.017796716289    0.025655463854    0.000004765577    -0.000005778086    0.033605649214    0.022549765519    0.000000666191    -0.000004581646
            0.000001648104    -0.000009475576    0.014186039016    0.034800469470    0.000000666173    -0.000004581639    0.028725542218    0.031661104850
0.125     0.042739262001    0.022875305699    -0.000008906437    -0.000006239165    0.026107861557    0.028075421132    -0.000002103302    -0.000010967896
            -0.000008906331    -0.000006239222    0.035001200813    0.036084911700    0.000003101308    -0.000007114299    0.020907124757    0.040801729556
            0.026107875958    0.028075409106    0.000003101336    -0.000007114312    0.042585502251    0.022783323803    -0.000000640154    -0.000005198074
            -0.000002103210    -0.000010967944    0.020907126437    0.040801727571    -0.000000640170    -0.000005198066    0.034814427122    0.036038894306
0.150     0.052205835847    0.020599221199    -0.000011502789    -0.000005216071    0.035107073026    0.028250261371    -0.000005970982    -0.000011159090
            -0.000011502689    -0.000005216135    0.041427061449    0.039085215718    0.000001211905    -0.000007972908    0.028319137599    0.045344792368
            0.035107085639    0.028250247292    0.000001211931    -0.000007972924    0.052041220062    0.020532556602    -0.000002080149    -0.000005507724
            -0.000005970891    -0.000011159149    0.028319129678    0.045344793777    -0.000002080164    -0.000005507714    0.041148660630    0.039116543639
0.175     0.061446257553    0.015670687307    -0.000013759739    -0.000003489820    0.044246265818    0.026055355946    -0.000009592867    -0.000010264568
            -0.000013759650    -0.000003489892    0.047764959851    0.040772718216    -0.000000791188    -0.000008379102    0.036068629085    0.048385121768
            0.044246276230    0.026055340236    -0.000000791163    -0.000008379120    0.061288458773    0.015642525027    -0.000003585881    -0.000005511614
            -0.000009592788    -0.000010264631    0.036068630774    0.048385120509    -0.000003585891    -0.000005511606    0.047416936913    0.040920628617
0.200     0.069799564160    0.008160278387    -0.000015554174    -0.000001214881    0.052970323480    0.021491177234    -0.000012796529    -0.000008487386
            -0.000015554095    -0.000001214962    0.053696489877    0.041289211958    -0.000002834992    -0.000008350876    0.043816457883    0.049969061723
            0.052970332460    0.021491160420    -0.000002834962    -0.000008350902    0.069672621182    0.008178797427    -0.000005113176    -0.000005205327
            -0.000012796453    -0.000008487458    0.043816450013    0.049969063304    -0.000005113182    -0.000005205308    0.053313621966    0.041584846819
0.225     0.076648481235    -0.001716506421    -0.000016799873    0.000001441829    0.060735982171    0.014675757359    -0.000015435130    -0.000006045298
            -0.000016799795    0.000001441739    0.058967491024    0.040855853371    -0.000004845939    -0.000007913988    0.051255624351    0.050217706940
            0.060735988725    0.014675738748    -0.000004845916    -0.000007914010    0.076579336445    -0.001650043385    -0.000006612213    -0.000004600845
            -0.000015435060    -0.000006045379    0.051255625227    0.050217706045    -0.000006612225    -0.000004600831    0.058594482114    0.041317813042
0.250     0.081447707681    -0.013604795900    -0.000017479419    0.000004338616    0.067040131265    0.005840408299    -0.000017463217    -0.000003104736
            -0.000017479352    0.000004338522    0.063403961068    0.039763433759    -0.000006770469    -0.000007084542    0.058130628295    0.049321400553
            0.067040134940    0.005840389166    -0.000006770446    -0.000007084573    0.081464871185    -0.013495517935    -0.000008046144    -0.000003696244
            -0.000017463160    -0.000003104814    0.058130629156    0.049321399538    -0.000008046156    -0.000003696227    0.063089833064    0.040396838590
0.275     0.083733840242    -0.027041347573    -0.000017592714    0.000007342890    0.071434662223    -0.004680981897    -0.000018847744    0.000000165015
            -0.000017592665    0.000007342804    0.066927170473    0.038325711192    -0.000008552159    -0.000005889607    0.064246937622    0.047517331091
            0.071434662977    -0.004681000979    -0.000008552141    -0.000005889634    0.083865865138    -0.026901625462    -0.000009372980    -0.000002503161
            -0.000018847693    0.000000164929    0.064246938451    0.047517329969    -0.000009372988    -0.000002503146    0.066721865523    0.039120772995
0.300     0.083158044045    -0.041468216959    -0.000017170144    0.000010359859    0.073552063430    -0.016466566725    -0.000019596612    0.000003651712
            -0.000017170104    0.000010359770    0.069553030115    0.036866079468    -0.000010143112    -0.000004344148    0.069484089330    0.045079122868
            0.073552061358    -0.016466585134    -0.000010143098    -0.000004344176    0.083432428273    -0.041318405402    -0.000010551689    -0.000001019010
            -0.000019596571    0.000003651619    0.069484090117    0.045079121656    -0.000010551694    -0.000001018992    0.069503048690    0.037798905254
0.325     0.079489758889    -0.056260604383    -0.000016243695    0.000013303128    0.073114588055    -0.029020965891    -0.000019719241    0.000007239032
            -0.000016243663    0.000013303036    0.071386635537    0.035678593351    -0.000011491262    -0.000002477404    0.073795489783    0.042291474866
            0.073114583752    -0.029020984863    -0.000011491250    -0.000002477433    0.079930558802    -0.056128807714    -0.000011535285    0.000000743337
            -0.000019719208    0.000007238942    0.073795490521    0.042291473578    -0.000011535291    0.000000743354    0.071531566915    0.036712658483
0.350     0.072639814037    -0.070754291873    -0.000014850252    0.000016116318    0.069954194845    -0.041798976375    -0.000019231607    0.000010852309
            -0.000014850230    0.000016116220    0.072614333586    0.035018887058    -0.000012544348    -0.000000308788    0.077216642105    0.039438299423
            0.069954194845    -0.041798976375    -0.000012544338    -0.000000308820    0.073265494607    -0.070675890816    -0.000012269694    0.000002778719
            -0.000019231585    0.000010852217    0.077216642793    0.039438298075    -0.000012269695    0.000002778724    0.072983447264    0.036107247802
0.375     0.062655540391    -0.084270491106    -0.000013023253    0.000018743485    0.064015288011    -0.054221451160    -0.000018149739    0.000014405742
            -0.000013023230    0.000018743340    0.073485126169    0.035073660017    -0.000013247637    0.000002122331    0.079853351563    0.036774928964
            0.064015288011    -0.054221451160    -0.000013247632    0.000002122302    0.063476998159    -0.084286853941    -0.000012697327    0.000005060979
            -0.000018149725    0.000014405648    0.079853353113    0.036774927989    -0.000012697331    0.000005060998    0.074095093102    0.036162101152
0.400     0.049729606191    -0.096150475939    -0.000010791356    0.000021144176    0.055365440178    -0.065706815679    -0.000016483661    0.000017835002
            -0.000010791357    0.000021144077    0.074297381486    0.035957211627    -0.000013542467    0.000004779345    0.081882710768    0.034518310347
            0.055365382608    -0.065706891649    -0.000013542461    0.000004779311    0.050748333153    -0.096307477547    -0.000012752056    0.000007561433
            -0.000016483657    0.000017834904    0.081882713214    0.034518309694    -0.000012752057    0.000007561449    0.075150625984    0.036987746260
0.425     0.034188705288    -0.105777327509    -0.000008184431    0.000023270102    0.044191392876    -0.075686862026    -0.000014251969    0.000021058540
            -0.000008184433    0.000023270004    0.075372668761    0.037691290370    -0.000013376973    0.000007598270    0.083531643834    0.032821071414
            0.044191359297    -0.075686895528    -0.000013376974    0.000007598240    0.035395283955    -0.106123125468    -0.000012374355    0.000010223478
            -0.000014251973    0.000021058443    0.083531646268    0.032821070688    -0.000012374354    0.000010223496    0.076456933890    0.038606320985
0.450     0.016486058655    -0.112611032497    -0.000005231577    0.000025067086    0.030797366823    -0.083640462988    -0.000011471944    0.000023992510
            -0.000005231590    0.000025066991    0.077038391474    0.040208492020    -0.000012699286    0.000010500213    0.085068611534    0.031766994928
            0.030797291484    -0.083640519500    -0.000012699290    0.000010500183    0.017858871630    -0.113193820310    -0.000011503591    0.000012970679
            -0.000011471960    0.000023992414    0.085068613962    0.031766994143    -0.000011503592    0.000012970699    0.078327326199    0.040954596132
0.475     -0.002816405979    -0.116205425181    -0.000001942484    0.000026453071    0.015594103497    -0.089108086696    -0.000008155236    0.000026522745
            -0.000001942504    0.000026452975    0.079597254657    0.043344797317    -0.000011447242    0.000013363740    0.086774620114    0.031352927253
            0.015594018465    -0.089108132033    -0.000011447250    0.000013363711    -0.001311381901    -0.117070865438    -0.000010074406    0.000015686857
            -0.000008155253    0.000026522651    0.086774623089    0.031352924904    -0.000010074394    0.000015686904    0.081052958183    0.043876798995
0.500     -0.023069829328    -0.116235042867    0.000001684630    0.000027411223    -0.000916573996    -0.091722352490    -0.000004305999    0.000028591552
            0.000001684600    0.000027411132    0.083308842389    0.046853474947    -0.000009553153    0.000016123754    0.088928876085    0.031492910778
            -0.000916573996    -0.091722352490    -0.000009553184    0.000016123659    -0.021479456910    -0.117425229542    -0.000008021011    0.000018295550
            -0.000004306026    0.000028591458    0.088928876085    0.031492910778    -0.000008021005    0.000018295546    0.084885823666    0.047134457856
0.525     -0.043564787686    -0.112505969317    0.000005556340    0.000027891951    -0.018159685599    -0.091216274970    -0.000000023446    0.000030112057
            0.000005556303    0.000027891863    0.088361199306    0.050411989368    -0.000007061607    0.000018669638    0.091772783028    0.032010464033
            -0.018159772815    -0.091216297372    -0.000007061645    0.000018669543    -0.041946058645    -0.114058322820    -0.000005377119    0.000020680377
            -0.000000023483    0.000030111969    0.091772786034    0.032010461489    -0.000005377106    0.000020680417    0.090006665335    0.050407906539
0.550     -0.063564921885    -0.104972673710    0.000009602303    0.000027814191    -0.035516623203    -0.087447454534    0.000004607594    0.000030973413
            0.000009602257    0.000027814109    0.094858441304    0.053649086188    -0.000003999973    0.000020845308    0.095484812047    0.032662471771
            -0.035516623203    -0.087447454534    -0.000004000017    0.000020845222    -0.061980696842    -0.106917624841    -0.000002171582    0.000022683797
            0.000004607548    0.000030973329    0.095484813757    0.032662466772    -0.000002171583    0.000022683797    0.096493056794    0.053326337440
0.575     -0.082335855369    -0.093742086441    0.000013741485    0.000027118124    -0.052345970362    -0.080399648132    0.000009480851    0.000031090168
            0.000013741430    0.000027118047    0.102801617859    0.056163179985    -0.000000425414    0.000022511888    0.100163779064    0.033176896316
            -0.052345971454    -0.080399649808    -0.000000425444    0.000022511838    -0.080849020296    -0.096098139023    0.000001535174    0.000024167572
            0.000009480771    0.000031090049    0.100163781381    0.033176889323    0.000001535169    0.000024167570    0.104316987874    0.055530739332
0.600     -0.099177075545    -0.079076641431    0.000017873418    0.000025762170    -0.068017072911    -0.070194695037    0.000014472015    0.000030398189
            0.000017873357    0.000025762098    0.112087523125    0.057551152558    0.000003576556    0.000023543737    0.105861347229    0.033252582131
            -0.068017072911    -0.070194695037    0.000003576554    0.000023543730    -0.097849788030    -0.081842779483    0.000005653476    0.000025006237
            0.000014471952    0.000030398114    0.105861350711    0.033252571045    0.000005653477    0.000025006239    0.113402614959    0.056662707045
0.625     -0.113443253368    -0.061378896681    0.000021878254    0.000023727955    -0.081926859923    -0.057080489384    0.000019430588    0.000028862218
            0.000021878187    0.000023727888    0.122499805551    0.057435603511    0.000007875433    0.000023838997    0.112527126187    0.032553207141
            -0.081926859923    -0.057080489384    0.000007875398    0.000023838960    -0.112340260963    -0.064533644916    0.000010051643    0.000025098553
            0.000019430521    0.000028862150    0.112527127324    0.032553203213    0.000010051671    0.000025098584    0.123565258277    0.056350004580
0.650     -0.124580072239    -0.041172048248    0.000025628525    0.000021021202    -0.093536300715    -0.041423726741    0.000024198708    0.000026475798
            0.000025628451    0.000021021141    0.133734168512    0.055494248756    0.000012324633    0.000023321737    0.120017059843    0.030764890821
            -0.093536300715    -0.041423726741    0.000012324572    0.000023321808    -0.123767637768    -0.044676790820    0.000014578156    0.000024371318
            0.000024198636    0.000026475737    0.120017063065    0.030764878252    0.000014578155    0.000024371319    0.134514489477    0.054273820786
0.675     -0.132144208417    -0.019077397965    0.000028992131    0.000017681617    -0.102382987010    -0.023689907447    0.000028610828    0.000023274915
            0.000028992050    0.000017681566    0.145403692457    0.051482693948    0.000016747850    0.000021960584    0.128098119891    0.027618053626
            -0.102382987010    -0.023689907447    0.000016747849    0.000021960582    -0.131686526870    -0.022880630548    0.000019056010    0.000022797363
            0.000028610749    0.000023274859    0.128098121337    0.027618046918    0.000019056005    0.000022797361    0.145876192766    0.050196361816
0.700     -0.135828342095    0.004212551971    0.000031847242    0.000013776870    -0.108112926809    -0.004423648297    0.000032515033    0.000019327093
            0.000031847157    0.000013776870    0.157073523934    0.045250842146    0.000020972830    0.000019759516    0.136482126929    0.022908037385
            -0.108112926809    -0.004423648297    0.000020972719    0.000019759422    -0.135781750456    0.000172476947    0.000023311101    0.000020386157
            0.000032514952    0.000019327046    0.136482126929    0.022908037385    0.000023311098    0.000020386157    0.157230339050    0.043972875404
0.725     -0.135466528331    0.027959961057    0.000034087886    0.000009406496    -0.110480742461    0.015773533862    0.000035775419    0.000014738950
            0.000034087755    0.000009406438    0.168273706322    0.036754841816    0.000024824691    0.000016772572    0.144825511549    0.016502868282
            -0.110480742461    0.015773533862    0.000024824646    0.000016772548    -0.135876087295    0.023754521317    0.000027172054    0.000017196477
            0.000035775332    0.000014738910    0.144825502046    0.016502863359    0.000027172053    0.000017196479    0.168124195814    0.035559929342
0.750     -0.131042664070    0.051416463549    0.000035633052    0.000004688624    -0.109369508737    0.036272880821    0.000038285034    0.000009637884
            0.000035632965    0.000004688594    0.178538211733    0.026054682246    0.000028153192    0.000013082544    0.152769837150    0.008353818334
            -0.109369508737    0.036272880821    0.000028153186    0.000013082542    -0.131939018106    0.047124001414    0.000030490870    0.000013316423
            0.000038284945    0.000009637853    0.152769837136    0.008353818601    0.000030490950    0.000013316457    0.178108282633    0.025015496598
0.775     -0.122683498968    0.073848988283    0.000036431673    -0.000000239717    -0.104780382448    0.056437461366    0.000039968909    0.000004175402
            0.000036431582    -0.000000239738    0.187417697348    0.013314704941    0.000030829304    0.000008814087    0.159940547885    -0.001507276618
            -0.104780407814    0.056437498622    0.000030829253    0.000008814074    -0.124081816267    0.069552809066    0.000033145203    0.000008872375
            0.000039968817    0.000004175379    0.159940537816    -0.001507283894    0.000033145199    0.000008872377    0.186749812005    0.012496631500
