# GHz S RI R 45
0.000     0.012186511000    0.000000000000    0.000002591959    -0.000000000000    0.000444511790    0.000000000000    0.000012938295    -0.000000000000
            0.000002592050    -0.000000000000    0.011375512000    0.000000000000    0.000006997277    -0.000000000000    0.000193406730    0.000000000000
            0.000444589110    0.000000000000    0.000006997410    -0.000000000000    0.012140100000    0.000000000000    0.000005081602    0.000000000000
            0.000012938391    -0.000000000000    0.000193409150    0.000000000000    0.000005081477    0.000000000000    0.011194361000    0.000000000000
0.025     0.015613859937    0.010536038774    -0.000001996684    -0.000004613546    0.001580223205    0.009507909050    -0.000001196396    -0.000011565170
            -0.000001996589    -0.000004613556    0.014505611976    0.010798379679    0.000004775953    -0.000003581009    0.001264683609    0.009837627644
            0.001580181799    0.009507739951    0.000004776090    -0.000003581016    0.015560125481    0.010550304334    0.000004973829    -0.000003315889
            -0.000001196309    -0.000011565174    0.001264563592    0.009837462498    0.000004973700    -0.000003315884    0.014520868353    0.010887155171
0.050     0.019659478720    0.018155439890    -0.000003581684    -0.000004611034    0.004554158147    0.018366562093    -0.000006156993    -0.000008721090
            -0.000003581590    -0.000004611043    0.018353245012    0.018920246649    0.000003896546    -0.000004972805    0.004095625885    0.019093359294
            0.004554265856    0.018366543628    0.000003896678    -0.000004972819    0.019603365247    0.018198863023    0.000004566103    -0.000006660274
            -0.000006156904    -0.000008721099    0.004095657161    0.019093347471    0.000004565969    -0.000006660260    0.018403595240    0.018906078733
0.075     0.024657981644    0.024590365430    -0.000003662413    -0.000005426745    0.009151200601    0.026258185095    -0.000006470143    -0.000007904866
            -0.000003662318    -0.000005426759    0.023149209760    0.025963334317    0.000003708174    -0.000006798918    0.008484245639    0.027505966617
            0.009151283776    0.026258173051    0.000003708310    -0.000006798939    0.024606241194    0.024663582449    0.000003950696    -0.000010104102
            -0.000006470057    -0.000007904879    0.008484253135    0.027505965351    0.000003950572    -0.000010104082    0.023142381433    0.025890527682
0.100     0.030515918639    0.029607454835    -0.000003558415    -0.000006932103    0.015064960735    0.032861967898    -0.000005882398    -0.000008705909
            -0.000003558321    -0.000006932122    0.028819545297    0.031745924263    0.000003479452    -0.000009039697    0.014186036586    0.034800470461
            0.015065035915    0.032861953235    0.000003479580    -0.000009039724    0.030473188869    0.029711211102    0.000002940768    -0.000013662764
            -0.000005882310    -0.000008705927    0.014186039016    0.034800469470    0.000002940646    -0.000013662738    0.028725542218    0.031661104850
0.125     0.036796856323    0.032986180192    -0.000003700647    -0.000008996736    0.021931480851    0.037977162316    -0.000005336171    -0.000010781643
            -0.000003700554    -0.000008996760    0.035001200813    0.036084911700    0.000002998302    -0.000011647428    0.020907124757    0.040801729556
            0.021931556810    0.037977143855    0.000002998438    -0.000011647464    0.036779634948    0.033124632215    0.000001499577    -0.000017325626
            -0.000005336083    -0.000010781665    0.020907126437    0.040801727571    0.000001499448    -0.000017325592    0.034814427122    0.036038894306
0.150     0.043168708830    0.034841639847    -0.000004243047    -0.000011403764    0.029343742650    0.041441361084    -0.000005218264    -0.000013695922
            -0.000004242956    -0.000011403792    0.041427061449    0.039085215718    0.000002097499    -0.000014484605    0.028319137599    0.045344792368
            0.029343816552    0.041441338163    0.000002097632    -0.000014484647    0.043177204448    0.035005632947    -0.000000480458    -0.000020997580
            -0.000005218178    -0.000013695949    0.028319129678    0.045344793777    -0.000000480576    -0.000020997542    0.041148660630    0.039116543639
0.175     0.049216675478    0.035226930298    -0.000005343101    -0.000014008806    0.036872838661    0.043235494823    -0.000005865047    -0.000017213631
            -0.000005343013    -0.000014008838    0.047764959851    0.040772718216    0.000000699974    -0.000017460094    0.036068629085    0.048385121768
            0.036872911917    0.043235469148    0.000000700096    -0.000017460140    0.049255017771    0.035411321921    -0.000003020962    -0.000024613268
            -0.000005864964    -0.000017213661    0.036068630774    0.048385120509    -0.000003021082    -0.000024613223    0.047416936913    0.040920628617
0.200     0.054550178626    0.034335537041    -0.000006995984    -0.000016640195    0.044109690908    0.043454482306    -0.000007320805    -0.000021029758
            -0.000006995891    -0.000016640235    0.053696489877    0.041289211958    -0.000001238825    -0.000020439041    0.043816457883    0.049969061723
            0.044109763047    0.043454453251    -0.000001238703    -0.000020439092    0.054623832126    0.034534975813    -0.000006143619    -0.000028066969
            -0.000007320726    -0.000021029789    0.043816450013    0.049969063304    -0.000006143731    -0.000028066920    0.053313621966    0.041584846819
0.225     0.058860772613    0.032463021625    -0.000009224796    -0.000019176437    0.050691872394    0.042288427843    -0.000009692271    -0.000024933127
            -0.000009224709    -0.000019176479    0.058967491024    0.040855853371    -0.000003725341    -0.000023334162    0.051255624351    0.050217706940
            0.050691943495    0.042288394129    -0.000003725222    -0.000023334221    0.058975280505    0.032670051078    -0.000009838002    -0.000031295301
            -0.000009692195    -0.000024933164    0.051255625227    0.050217706045    -0.000009838111    -0.000031295247    0.058594482114    0.041317813042
0.250     0.061938081264    0.029991855307    -0.000011975687    -0.000021514720    0.056324783909    0.040012978287    -0.000012926742    -0.000028722390
            -0.000011975604    -0.000021514766    0.063403961068    0.039763433759    -0.000006754769    -0.000026048692    0.058130628295    0.049321400553
            0.056324852947    0.040012941539    -0.000006754655    -0.000026048755    0.062097429060    0.030196649299    -0.000014095995    -0.000034219975
            -0.000012926664    -0.000028722431    0.058130629156    0.049321399538    -0.000014096104    -0.000034219916    0.063089833064    0.040396838590
0.275     0.063692925875    0.027339393638    -0.000015226479    -0.000023582391    0.060797647324    0.036963518632    -0.000017025483    -0.000032243344
            -0.000015226426    -0.000023582481    0.066927170473    0.038325711192    -0.000010311657    -0.000028516875    0.064246937622    0.047517331091
            0.060797698362    0.036963482808    -0.000010311546    -0.000028516943    0.063898679876    0.027530058866    -0.000018903981    -0.000036787954
            -0.000017025406    -0.000032243390    0.064246938451    0.047517329969    -0.000018904086    -0.000036787890    0.066721865523    0.039120772995
0.300     0.064156118467    0.024938461412    -0.000018936316    -0.000025325577    0.063997386442    0.033518871533    -0.000021929385    -0.000035366988
            -0.000018936239    -0.000025325630    0.069553030115    0.036866079468    -0.000014389321    -0.000030666997    0.069484089330    0.045079122868
            0.063997451395    0.033518827266    -0.000014389211    -0.000030667069    0.064406599303    0.025101475471    -0.000024260403    -0.000038931939
            -0.000021929313    -0.000035367037    0.069484090117    0.045079121656    -0.000024260502    -0.000038931872    0.069503048690    0.037798905254
0.325     0.063478245084    0.023192101931    -0.000023089865    -0.000026691928    0.065913368793    0.030070570214    -0.000027613432    -0.000037971538
            -0.000023089786    -0.000026691988    0.071386635537    0.035678593351    -0.000018976053    -0.000032434390    0.073795489783    0.042291474866
            0.065913430796    0.030070523449    -0.000018975946    -0.000032434468    0.063767601611    0.023313524426    -0.000030160147    -0.000040586160
            -0.000027613360    -0.000037971593    0.073795490521    0.042291473578    -0.000030160246    -0.000040586087    0.071531566915    0.036712658483
0.350     0.061918574264    0.022456556917    -0.000027674712    -0.000027628980    0.066643952760    0.027003970951    -0.000034035495    -0.000039944512
            -0.000027674638    -0.000027629041    0.072614333586    0.035018887058    -0.000024072747    -0.000033738570    0.077216642105    0.039438299423
            0.066644012503    0.027003922035    -0.000024072646    -0.000033738652    0.062236455707    0.022523084509    -0.000036608628    -0.000041662206
            -0.000034035426    -0.000039944572    0.077216642793    0.039438298075    -0.000036608718    -0.000041662132    0.072983447264    0.036107247802
0.375     0.059828475483    0.023003713592    -0.000032684042    -0.000028064026    0.066387449853    0.024663253385    -0.000041157507    -0.000041154490
            -0.000032683971    -0.000028064094    0.073485126169    0.035073660017    -0.000029663433    -0.000034488749    0.079853351563    0.036774928964
            0.066387514468    0.024663194318    -0.000029663338    -0.000034488833    0.060160364459    0.023004246116    -0.000043592147    -0.000042056310
            -0.000041157447    -0.000041154545    0.079853353113    0.036774927989    -0.000043592235    -0.000042056234    0.074095093102    0.036162101152
0.400     0.057632215260    0.025009278977    -0.000038108099    -0.000027909046    0.065437714661    0.023333197477    -0.000048928078    -0.000041463853
            -0.000038108033    -0.000027909110    0.074297381486    0.035957211627    -0.000035732403    -0.000034571088    0.081882710768    0.034518310347
            0.065437713719    0.023333197142    -0.000035732310    -0.000034571179    0.057959561206    0.024936171569    -0.000051091883    -0.000041637549
            -0.000048928015    -0.000041463916    0.081882713214    0.034518309694    -0.000051091942    -0.000041637493    0.075150625984    0.036987746260
0.425     0.055797100048    0.028525924223    -0.000043914499    -0.000027050063    0.064160350455    0.023205979066    -0.000057265128    -0.000040711900
            -0.000043914438    -0.000027050131    0.075372668761    0.037691290370    -0.000042226400    -0.000033859454    0.083531643834    0.032821071414
            0.064160415090    0.023205906204    -0.000042226316    -0.000033859544    0.056098801436    0.028376128367    -0.000059046320    -0.000040260067
            -0.000057265063    -0.000040711973    0.083531646268    0.032821070688    -0.000059046381    -0.000040260002    0.076456933890    0.038606320985
0.450     0.054805422717    0.033480272868    -0.000050048100    -0.000025358337    0.062974304785    0.024369966023    -0.000066057800    -0.000038732514
            -0.000050048038    -0.000025358416    0.077038391474    0.040208492020    -0.000049071690    -0.000032209904    0.085068611534    0.031766994928
            0.062974365007    0.024369890758    -0.000049071627    -0.000032209973    0.055059859342    0.033255933143    -0.000067365928    -0.000037759359
            -0.000066057739    -0.000038732587    0.085068613962    0.031766994143    -0.000067365981    -0.000037759296    0.078327326199    0.040954596132
0.475     0.055114381533    0.039663920221    -0.000056403503    -0.000022695449    0.062313839451    0.026787914040    -0.000075134807    -0.000035357999
            -0.000056403451    -0.000022695520    0.079597254657    0.043344797317    -0.000056137229    -0.000029484029    0.086774620114    0.031352927253
            0.062313895680    0.026787836415    -0.000056137167    -0.000029484109    0.055303269425    0.039371273388    -0.000075897021    -0.000033977820
            -0.000075134748    -0.000035358083    0.086774623089    0.031352924904    -0.000075897111    -0.000033977702    0.081052958183    0.043876798995
0.500     0.057118153926    0.046752145601    -0.000062835322    -0.000018930256    0.062596173813    0.030305290349    -0.000084281773    -0.000030438586
            -0.000062835275    -0.000018930326    0.083308842389    0.046853474947    -0.000063254501    -0.000025549029    0.088928876085    0.031492910778
            0.062596226399    0.030305209270    -0.000063254439    -0.000025549120    0.057236780601    0.046393370707    -0.000084440290    -0.000028767102
            -0.000084281722    -0.000030438667    0.088928876085    0.031492910778    -0.000084440344    -0.000028767022    0.084885823666    0.047134457856
0.525     0.061038707761    0.054354292502    -0.000069145512    -0.000013962791    0.064140013795    0.034673416176    -0.000093225843    -0.000023871474
            -0.000069145466    -0.000013962870    0.088361199306    0.050411989368    -0.000070197165    -0.000020313103    0.091772783028    0.032010464033
            0.064140061821    0.034673333644    -0.000070197110    -0.000020313194    0.061178394013    0.053882525666    -0.000092733152    -0.000022026982
            -0.000093225819    -0.000023871520    0.091772786034    0.032010461489    -0.000092733199    -0.000022026907    0.090006665335    0.050407906539
0.550     0.067341118581    0.061008888554    -0.000074975117    -0.000007748573    0.067369148552    0.038955097724    -0.000101494880    -0.000015631040
            -0.000074975079    -0.000007748648    0.094858441304    0.053649086188    -0.000076660651    -0.000013736333    0.095484812047    0.032662471771
            0.067369192682    0.038955013414    -0.000076660601    -0.000013736420    0.067286395866    0.061308071151    -0.000100415803    -0.000013722189
            -0.000101494837    -0.000015631124    0.095484813757    0.032662466772    -0.000100415855    -0.000013722106    0.096493056794    0.053326337440
0.575     0.075996185851    0.068053199968    -0.000080250866    -0.000000205293    0.072471879350    0.043815310178    -0.000109007942    -0.000005628201
            -0.000080250829    -0.000000205376    0.102801617859    0.056163179985    -0.000082424972    -0.000005801260    0.100163779064    0.033176896316
            0.072471920499    0.043815222788    -0.000082424926    -0.000005801343    0.075709960315    0.068079179417    -0.000107252698    -0.000003833624
            -0.000109007920    -0.000005628238    0.100163781381    0.033176889323    -0.000107252740    -0.000003833550    0.104316987874    0.055530739332
0.600     0.086613820299    0.073539880981    -0.000084546642    0.000008494365    0.079309506378    0.047915953326    -0.000115229714    0.000005893118
            -0.000084546606    0.000008494287    0.112087523125    0.057551152558    -0.000087134489    0.000003359066    0.105861347229    0.033252582131
            0.079309539536    0.047915869437    -0.000087134412    0.000003358881    0.086338443567    0.073550611398    -0.000112829259    0.000007476073
            -0.000115229714    0.000005893118    0.105861350711    0.033252571045    -0.000112829293    0.000007476154    0.113402614959    0.056662707045
0.625     0.099089985908    0.077175969468    -0.000087598780    0.000018203474    0.087701347636    0.050889668007    -0.000119838997    0.000018740165
            -0.000087598751    0.000018203389    0.122499805551    0.057435603511    -0.000090520159    0.000013532932    0.112527126187    0.032553207141
            0.087701362968    0.050889621660    -0.000090520108    0.000013532779    0.098615397449    0.077128035249    -0.000116843832    0.000019959889
            -0.000119838977    0.000018740098    0.112527127324    0.032553203213    -0.000116843880    0.000019960023    0.123565258277    0.056350004580
0.650     0.113036763968    0.078497994400    -0.000089177117    0.000028705604    0.097580901219    0.052465839955    -0.000122558401    0.000032640643
            -0.000089177089    0.000028705526    0.133734168512    0.055494248756    -0.000092369950    0.000024519369    0.120017059843    0.030764890821
            0.097580928473    0.052465747031    -0.000092369917    0.000024519274    0.112408972006    0.078656951619    -0.000119059209    0.000033394969
            -0.000122558366    0.000032640542    0.120017063065    0.030764878252    -0.000119059234    0.000033395066    0.134514489477    0.054273820786
0.675     0.127922814520    0.077150692119    -0.000089087688    0.000039686362    0.108606120799    0.052124655412    -0.000123152696    0.000047203348
            -0.000089087664    0.000039686277    0.145403692457    0.051482693948    -0.000092477836    0.000035983327    0.128098119891    0.027618053626
            0.108606132708    0.052124607488    -0.000092477802    0.000035983166    0.127249464477    0.077536017631    -0.000119237013    0.000047396976
            -0.000123152685    0.000047203294    0.128098121337    0.027618046918    -0.000119237047    0.000047397134    0.145876192766    0.050196361816
0.700     0.143160135283    0.072911421933    -0.000087238965    0.000050802892    0.120312615279    0.049583803476    -0.000121512797    0.000062009796
            -0.000087238957    0.000050802806    0.157073523934    0.045250842146    -0.000090763288    0.000047567720    0.136482126929    0.022908037385
            0.120312611817    0.049583811876    -0.000090763268    0.000047567628    0.142500812694    0.073529562601    -0.000117287368    0.000061558654
            -0.000121512774    0.000062009731    0.136482126929    0.022908037385    -0.000117287398    0.000061558748    0.157230339050    0.043972875404
0.725     0.158118510217    0.065700594916    -0.000083618424    0.000061685929    0.132200481796    0.044673540391    -0.000117619198    0.000076611090
            -0.000083618400    0.000061685843    0.168273706322    0.036754841816    -0.000087226751    0.000058895765    0.144825511549    0.016502868282
            0.132200485578    0.044673497965    -0.000087226740    0.000058895602    0.157529917008    0.066552262592    -0.000113209080    0.000075453607
            -0.000117619166    0.000076611011    0.144825502046    0.016502863359    -0.000113209099    0.000075453705    0.168124195814    0.035559929342
0.750     0.172173622643    0.055582412169    -0.000078311018    0.000071989890    0.143755744412    0.037342835394    -0.000111568459    0.000090589038
            -0.000078310992    0.000071989815    0.178538211733    0.026054682246    -0.000081963693    0.000069619043    0.152769837150    0.008353818334
            0.143755758196    0.037342742555    -0.000081963680    0.000069618934    0.171712078933    0.056659150570    -0.000107108229    0.000088686633
            -0.000111568452    0.000090588935    0.152769837136    0.008353818601    -0.000107108237    0.000088686734    0.178108282633    0.025015496598
0.775     0.184732330450    0.042758311252    -0.000071474458    0.000081390237    0.154464638790    0.027653320420    -0.000103539824    0.000103547993
            -0.000071474455    0.000081390147    0.187417697348    0.013314704941    -0.000075143565    0.000079413186    0.159940547885    -0.001507276618
            0.154464645356    0.027653226996    -0.000075143552    0.000079413033    0.184453779038    0.044039190476    -0.000099171196    0.000100890604
            -0.000103539833    0.000103547857    0.159940537816    -0.001507283894    -0.000099171192    0.000100890706    0.186749812005    0.012496631500
