# GHz S RI R 45
0.000     0.010936298000    0.000000000000    -0.000005517017    0.000000000000    0.000435742980    -0.000000000000    -0.000002474146    0.000000000000
            -0.000005516995    0.000000000000    0.011375512000    0.000000000000    -0.000006393633    0.000000000000    0.000193406730    0.000000000000
            0.000435745050    -0.000000000000    -0.000006393610    0.000000000000    0.010865843000    0.000000000000    -0.000013149934    0.000000000000
            -0.000002474198    0.000000000000    0.000193409150    0.000000000000    -0.000013149942    0.000000000000    0.011194361000    0.000000000000
0.025     0.014517874013    0.009394178048    0.000001860546    -0.000005407999    0.001730080467    0.008252547893    0.000007552030    -0.000002581703
            0.000001860570    -0.000005407999    0.014505611976    0.010798379679    -0.000006188501    -0.000010828350    0.001264683609    0.009837627644
            0.001730055732    0.008252593437    -0.000006188466    -0.000010828355    0.014446094437    0.009330345671    -0.000002542932    -0.000002498649
            0.000007552059    -0.000002581707    0.001264563592    0.009837462498    -0.000002542940    -0.000002498652    0.014520868353    0.010887155171
0.050     0.019544677470    0.015932079531    -0.000000797601    -0.000019044099    0.005329820246    0.015782169775    0.000006478600    -0.000016266477
            -0.000000797590    -0.000019044101    0.018353245012    0.018920246649    -0.000011089766    -0.000023137141    0.004095625885    0.019093359294
            0.005329808811    0.015782176804    -0.000011089748    -0.000023137145    0.019457600955    0.015817747047    0.000000298544    -0.000018020902
            0.000006478630    -0.000016266484    0.004095657161    0.019093347471    0.000000298522    -0.000018020898    0.018403595240    0.018906078733
0.075     0.026298405936    0.020846176533    -0.000009720087    -0.000029035927    0.010971217342    0.022036320939    -0.000000617840    -0.000026488531
            -0.000009720071    -0.000029035932    0.023149209760    0.025963334317    -0.000020380663    -0.000032764250    0.008484245639    0.027505966617
            0.010971211328    0.022036319465    -0.000020380643    -0.000032764258    0.026190642010    0.020688455386    -0.000007616753    -0.000030579274
            -0.000000617811    -0.000026488540    0.008484253135    0.027505965351    -0.000007616774    -0.000030579267    0.023142381433    0.025890527682
0.100     0.034533627467    0.023666189932    -0.000021556427    -0.000034875376    0.018256908129    0.026559633194    -0.000010620161    -0.000033221822
            -0.000021556406    -0.000034875384    0.028819545297    0.031745924263    -0.000032278154    -0.000039198582    0.014186036586    0.034800470461
            0.018256909056    0.026559632557    -0.000032278062    -0.000039198623    0.034403461232    0.023477380900    -0.000019134511    -0.000039177229
            -0.000010620133    -0.000033221833    0.014186039016    0.034800469470    -0.000019134531    -0.000039177217    0.028725542218    0.031661104850
0.125     0.043629625754    0.023930838504    -0.000034504790    -0.000036560134    0.026711204494    0.029016905835    -0.000021915611    -0.000036536968
            -0.000034504782    -0.000036560138    0.035001200813    0.036084911700    -0.000045707512    -0.000042098400    0.020907124757    0.040801729556
            0.026711205507    0.029016904903    -0.000045707513    -0.000042098401    0.043474891577    0.023723898455    -0.000032499300    -0.000043884439
            -0.000021915578    -0.000036536987    0.020907126437    0.040801727571    -0.000032499317    -0.000043884430    0.034814427122    0.036038894306
0.150     0.053104461247    0.021605355897    -0.000047402770    -0.000034406604    0.035802822596    0.029139208860    -0.000033627705    -0.000036634236
            -0.000047402768    -0.000034406603    0.041427061449    0.039085215718    -0.000059707747    -0.000041504565    0.028319137599    0.045344792368
            0.035802823346    0.029139206354    -0.000059707661    -0.000041504629    0.052939050838    0.021402883525    -0.000046696066    -0.000044884526
            -0.000033627677    -0.000036634257    0.028319129678    0.045344793777    -0.000046696067    -0.000044884527    0.041148660630    0.039116543639
0.175     0.062236705760    0.016562030898    -0.000059221952    -0.000028940321    0.044949137545    0.026814424626    -0.000044918935    -0.000033863499
            -0.000059221912    -0.000028940353    0.047764959851    0.040772718216    -0.000073442016    -0.000037607592    0.036068629085    0.048385121768
            0.044949138013    0.026814423842    -0.000073442009    -0.000037607605    0.062079282609    0.016376325216    -0.000060804466    -0.000042455043
            -0.000044918919    -0.000033863512    0.036068630774    0.048385120509    -0.000060804466    -0.000042455043    0.047416936913    0.040920628617
0.200     0.070337934737    0.008902395092    -0.000069397079    -0.000020797323    0.053564756800    0.022065484388    -0.000055315859    -0.000028612893
            -0.000069397007    -0.000020797394    0.053696489877    0.041289211958    -0.000086319154    -0.000030767615    0.043816457883    0.049969061723
            0.053564755876    0.022065484007    -0.000086319090    -0.000030767677    0.070210939038    0.008739034230    -0.000074238744    -0.000036948478
            -0.000055315788    -0.000028612966    0.043816450013    0.049969063304    -0.000074238754    -0.000036948466    0.053313621966    0.041584846819
0.225     0.076767459769    -0.001118802301    -0.000077494329    -0.000010666693    0.061081891000    0.015041373455    -0.000064413290    -0.000021337885
            -0.000077494327    -0.000010666693    0.058967491024    0.040855853371    -0.000097857567    -0.000021384443    0.051255624351    0.050217706940
            0.061081890292    0.015041372150    -0.000097857509    -0.000021384520    0.076696457508    -0.001261235137    -0.000086486494    -0.000028775609
            -0.000064413259    -0.000021337925    0.051255625227    0.050217706045    -0.000086486495    -0.000028775609    0.058594482114    0.041317813042
0.250     0.080967543467    -0.013099510662    -0.000083406523    0.000000860040    0.066980791812    0.006010933436    -0.000072033807    -0.000012414499
            -0.000083406522    0.000000860040    0.063403961068    0.039763433759    -0.000107782299    -0.000009857706    0.058130628295    0.049321400553
            0.066980790879    0.006010932646    -0.000107782307    -0.000009857725    0.080979509143    -0.013229790800    -0.000097257323    -0.000018306139
            -0.000072033752    -0.000012414580    0.058130629156    0.049321399538    -0.000097257324    -0.000018306139    0.063089833064    0.040396838590
0.275     0.082474329876    -0.026524561139    -0.000087086141    0.000013222037    0.070805784924    -0.004649108115    -0.000078035290    -0.000002222782
            -0.000087086139    0.000013222037    0.066927170473    0.038325711192    -0.000115872791    0.000003435522    0.064246937622    0.047517331091
            0.070805783845    -0.004649109286    -0.000115872791    0.000003435522    0.082595797126    -0.026659328067    -0.000106299279    -0.000005913890
            -0.000078035266    -0.000002222822    0.064246938451    0.047517329969    -0.000106299279    -0.000005913890    0.066721865523    0.039120772995
0.300     0.080951879945    -0.040783085083    -0.000088648004    0.000026027426    0.072191229306    -0.016471103338    -0.000082379318    0.000008970498
            -0.000088647966    0.000026027330    0.069553030115    0.036866079468    -0.000122021783    0.000018185181    0.069484089330    0.045079122868
            0.072191227006    -0.016471113418    -0.000122021783    0.000018185181    0.081207150830    -0.040947496126    -0.000113470676    0.000008112858
            -0.000082379280    0.000008970406    0.069484090117    0.045079121656    -0.000113470676    0.000008112858    0.069503048690    0.037798905254
0.325     0.076195142351    -0.055198102993    -0.000088202724    0.000038919139    0.070872792546    -0.028912171170    -0.000085023715    0.000020901073
            -0.000088202706    0.000038919094    0.071386635537    0.035678593351    -0.000126120668    0.000034109751    0.073795489783    0.042291474866
            0.070872791620    -0.028912170793    -0.000126120644    0.000034109650    0.076604133640    -0.055424970133    -0.000118627802    0.000023487948
            -0.000085023714    0.000020901073    0.073795490521    0.042291473578    -0.000118627802    0.000023487948    0.071531566915    0.036712658483
0.350     0.068153573782    -0.069057303177    -0.000085901730    0.000051689782    0.066706475754    -0.041380386955    -0.000085947525    0.000033392533
            -0.000085901730    0.000051689782    0.072614333586    0.035018887058    -0.000128098325    0.000050989801    0.077216642105    0.039438299423
            0.066706474904    -0.041380386428    -0.000128098325    0.000050989801    0.068729821789    -0.069386835575    -0.000121657969    0.000039994823
            -0.000085947523    0.000033392532    0.077216642793    0.039438298075    -0.000121657969    0.000039994823    0.072983447264    0.036107247802
0.375     0.056925549478    -0.081639458852    -0.000081861929    0.000064137232    0.059673158953    -0.053252262757    -0.000085106890    0.000046250303
            -0.000081861929    0.000064137232    0.073485126169    0.035073660017    -0.000127848900    0.000068607580    0.079853351563    0.036774928964
            0.059673158207    -0.053252262092    -0.000127848892    0.000068607489    0.057674489658    -0.082118381223    -0.000122420725    0.000057396456
            -0.000085106891    0.000046250246    0.079853353113    0.036774927989    -0.000122420732    0.000057396512    0.074095093102    0.036162101152
0.400     0.042766761167    -0.092252788312    -0.000076175675    0.000076149195    0.049888993360    -0.063907880670    -0.000082442337    0.000059316834
            -0.000076175678    0.000076149093    0.074297381486    0.035957211627    -0.000125261016    0.000086766023    0.081882710768    0.034518310347
            0.049888992745    -0.063907879882    -0.000125261020    0.000086765929    0.043684163444    -0.092932609552    -0.000120769820    0.000075477787
            -0.000082442337    0.000059316834    0.081882713214    0.034518309694    -0.000120769807    0.000075477808    0.075150625984    0.036987746260
0.425     0.026077800967    -0.100258674823    -0.000068904589    0.000087580733    0.037601703337    -0.072748673374    -0.000077880526    0.000072386884
            -0.000068904589    0.000087580733    0.075372668761    0.037691290370    -0.000120195349    0.000105225742    0.083531643834    0.032821071414
            0.037601702878    -0.072748672486    -0.000120195349    0.000105225742    0.027148859506    -0.101195061135    -0.000116537864    0.000093965713
            -0.000077880526    0.000072386884    0.083531646268    0.032821070688    -0.000116537864    0.000093965713    0.076456933890    0.038606320985
0.450     0.007394885021    -0.105109430660    -0.000060073508    0.000098302126    0.023187604220    -0.079235150440    -0.000071337400    0.000085234317
            -0.000060073508    0.000098302126    0.077038391474    0.040208492020    -0.000112503416    0.000123708762    0.085068611534    0.031766994928
            0.023187603939    -0.079235149480    -0.000112503416    0.000123708762    0.008592802746    -0.106361333486    -0.000109558933    0.000112549228
            -0.000071337400    0.000085234317    0.085068613962    0.031766994143    -0.000109558914    0.000112549247    0.078327326199    0.040954596132
0.475     -0.012627396073    -0.106367784983    -0.000049678450    0.000108108630    0.007141015437    -0.082904328461    -0.000062723043    0.000097552470
            -0.000049678450    0.000108108630    0.079597254657    0.043344797317    -0.000102010162    0.000141849182    0.086774620114    0.031352927253
            0.007141015351    -0.082904327465    -0.000102010162    0.000141849182    -0.011344450850    -0.107997976001    -0.000099654210    0.000130824228
            -0.000062723049    0.000097552478    0.086774623089    0.031352924904    -0.000099654210    0.000130824228    0.081052958183    0.043876798995
0.500     -0.033234162186    -0.103739178024    -0.000037703194    0.000116828651    -0.009940780254    -0.083405111623    -0.000051971407    0.000109041073
            -0.000037703191    0.000116828641    0.083308842389    0.046853474947    -0.000088578939    0.000159288646    0.088928876085    0.031492910778
            -0.009940780135    -0.083405110630    -0.000088578939    0.000159288646    -0.031934525965    -0.105812298016    -0.000086690530    0.000148385224
            -0.000051971434    0.000109040982    0.088928876085    0.031492910778    -0.000086690530    0.000148385224    0.084885823666    0.047134457856
0.525     -0.053585966320    -0.097109023071    -0.000024275141    0.000124198126    -0.027371794715    -0.080523415660    -0.000039170045    0.000119308358
            -0.000024275140    0.000124198116    0.088361199306    0.050411989368    -0.000072200544    0.000175543297    0.091772783028    0.032010464033
            -0.027371794393    -0.080523414714    -0.000072200544    0.000175543297    -0.052389650982    -0.099664093194    -0.000070671091    0.000164703156
            -0.000039170074    0.000119308306    0.091772786034    0.032010461489    -0.000070671091    0.000164703156    0.090006665335    0.050407906539
0.550     -0.072851420392    -0.086619433251    -0.000009570180    0.000129952084    -0.044447503077    -0.074238664261    -0.000024497325    0.000127961613
            -0.000009570180    0.000129952084    0.094858441304    0.053649086188    -0.000052929463    0.000190052316    0.095484812047    0.032662471771
            -0.044447502563    -0.074238663403    -0.000052929466    0.000190052325    -0.071904688208    -0.089580366321    -0.000051677012    0.000179186624
            -0.000024497379    0.000127961531    0.095484813757    0.032662466772    -0.000051677012    0.000179186624    0.096493056794    0.053326337440
0.575     -0.090372906842    -0.072542273933    0.000006268116    0.000133903743    -0.060544020366    -0.064647506891    -0.000008123791    0.000134696111
            0.000006268116    0.000133903743    0.102801617859    0.056163179985    -0.000030912147    0.000202240816    0.100163779064    0.033176896316
            -0.060544018316    -0.064647504702    -0.000030912150    0.000202240816    -0.089695669740    -0.075756785035    -0.000029898457    0.000191238348
            -0.000008123820    0.000134696080    0.100163781381    0.033176889323    -0.000029898457    0.000191238348    0.104316987874    0.055530739332
0.600     -0.105479329379    -0.055134165977    0.000023095718    0.000135756968    -0.075021951753    -0.051903061385    0.000009755597    0.000139115650
            0.000023095715    0.000135756969    0.112087523125    0.057551152558    -0.000006449495    0.000211556734    0.105861347229    0.033252582131
            -0.075021948464    -0.051903059109    -0.000006449499    0.000211556743    -0.105036957314    -0.058561980562    -0.000005669805    0.000200300350
            0.000009755596    0.000139115660    0.105861350711    0.033252571045    -0.000005669806    0.000200300360    0.113402614959    0.056662707045
0.625     -0.117457714678    -0.034871959165    0.000040566226    0.000135202690    -0.087221727237    -0.036346719012    0.000028739251    0.000140817899
            0.000040566226    0.000135202690    0.122499805551    0.057435603511    0.000020016699    0.000217484109    0.112527126187    0.032553207141
            -0.087221727237    -0.036346719012    0.000020016699    0.000217484109    -0.117284992916    -0.038521561852    0.000020525255    0.000205850620
            0.000028739227    0.000140817904    0.112527127324    0.032553203213    0.000020525236    0.000205850612    0.123565258277    0.056350004580
0.650     -0.125752671918    -0.012427974472    0.000058237652    0.000132056716    -0.096596988085    -0.018482360651    0.000048306791    0.000139544457
            0.000058237652    0.000132056716    0.133734168512    0.055494248756    0.000047909478    0.000219603619    0.120017059843    0.030764890821
            -0.096596988085    -0.018482360651    0.000047909478    0.000219603619    -0.125914158843    -0.016285665274    0.000048070691    0.000207475249
            0.000048306791    0.000139544457    0.120017063065    0.030764878252    0.000048070691    0.000207475249    0.134514489477    0.054273820786
0.675     -0.129985644200    0.011430315163    0.000075623627    0.000126257627    -0.102727326349    0.001091038972    0.000067886003    0.000135170496
            0.000075623627    0.000126257627    0.145403692457    0.051482693948    0.000076550578    0.000217613803    0.128098119891    0.027618053626
            -0.102727326349    0.001091038972    0.000076550581    0.000217613813    -0.130540959137    0.007405590012    0.000076246707    0.000204890189
            0.000067885992    0.000135170480    0.128098121337    0.027618046918    0.000076246711    0.000204890167    0.145876192766    0.050196361816
0.700     -0.129954144194    0.035888372945    0.000092235427    0.000117854991    -0.105337417996    0.021713996445    0.000086893162    0.000127709523
            0.000092235396    0.000117854951    0.157073523934    0.045250842146    0.000105205587    0.000211376251    0.136482126929    0.022908037385
            -0.105337417996    0.021713996445    0.000105205587    0.000211376296    -0.130947808003    0.031756526602    0.000104286619    0.000197986009
            0.000086893162    0.000127709523    0.136482126929    0.022908037385    0.000104286619    0.000197986009    0.157230339050    0.043972875404
0.725     -0.125625106329    0.060115884966    0.000107601861    0.000107015730    -0.104288470656    0.042692123724    0.000104761092    0.000117303622
            0.000107601854    0.000107015723    0.168273706322    0.036754841816    0.000133122107    0.000200907812    0.144825511549    0.016502868282
            -0.104288461401    0.042692119935    0.000133122107    0.000200907812    -0.127084511728    0.055950216685    0.000131411586    0.000186811869
            0.000104761092    0.000117303622    0.144825502046    0.016502863359    0.000131411586    0.000186811869    0.168124195814    0.035559929342
0.750     -0.117134089577    0.083307434156    0.000121305347    0.000094006516    -0.099590311002    0.063332308674    0.000120978290    0.000104217597
            0.000121305353    0.000094006507    0.178538211733    0.026054682246    0.000159579509    0.000186395680    0.152769837150    0.008353818334
            -0.099590311002    0.063332308674    0.000159579512    0.000186395690    -0.119068266715    0.079187632213    0.000156885213    0.000171597759
            0.000120977381    0.000104217365    0.152769837136    0.008353818601    0.000156885221    0.000171597792    0.178108282633    0.025015496598
0.775     -0.104769680406    0.104709903032    0.000133006659    0.000079181274    -0.091383107575    0.082964838157    0.000135108680    0.000088814217
            0.000133006186    0.000079181190    0.187417697348    0.013314704941    0.000183921451    0.000168162196    0.159940547885    -0.001507276618
            -0.091383107575    0.082964838157    0.000183920994    0.000168162102    -0.107169740197    0.100718664281    0.000180042562    0.000152704793
            0.000135108693    0.000088814216    0.159940537816    -0.001507283894    0.000180042552    0.000152704790    0.186749812005    0.012496631500
