# GHz S RI R 45
0.000     0.012057673000    0.000000000000    0.000080724978    -0.000000000000    0.000354509070    0.000000000000    0.000059859186    -0.000000000000
            0.000080724980    -0.000000000000    0.011375512000    0.000000000000    0.000050048315    -0.000000000000    0.000193406730    0.000000000000
            0.000354510990    0.000000000000    0.000050048314    -0.000000000000    0.012033259000    0.000000000000    0.000060397372    -0.000000000000
            0.000059859245    -0.000000000000    0.000193409150    0.000000000000    0.000060397301    -0.000000000000    0.011194361000    0.000000000000
0.025     0.015858938825    0.011540842763    0.000098771673    0.000036364254    0.001669091125    0.010501403769    0.000097553416    0.000047897258
            0.000098771674    0.000036364252    0.014505611976    0.010798379679    0.000101167825    0.000057809410    0.001264683609    0.009837627644
            0.001668970916    0.010501238590    0.000101167930    0.000057809388    0.015787568888    0.011498091419    0.000092767467    0.000044971707
            0.000097553472    0.000047897235    0.001264563592    0.009837462498    0.000092767377    0.000044971710    0.014520868353    0.010887155171
0.050     0.020336867197    0.019931715420    0.000116194743    0.000056772021    0.005008352726    0.020220338459    0.000121411577    0.000059453296
            0.000116194743    0.000056772021    0.018353245012    0.018920246649    0.000130666196    0.000065238775    0.004095625885    0.019093359294
            0.005008384232    0.020220326535    0.000130666244    0.000065238768    0.020221930275    0.019860035479    0.000114488729    0.000059132658
            0.000121411637    0.000059453288    0.004095657161    0.019093347471    0.000114488741    0.000059132656    0.018403595240    0.018906078733
0.075     0.025898884393    0.026991167663    0.000136165046    0.000073214611    0.010130531509    0.028858905997    0.000140274397    0.000069847879
            0.000136165048    0.000073214609    0.023149209760    0.025963334317    0.000150829145    0.000072761536    0.008484245639    0.027505966617
            0.010130537885    0.028858904819    0.000150829191    0.000072761532    0.025718856510    0.026914104617    0.000133018691    0.000071680410
            0.000140274449    0.000069847865    0.008484253135    0.027505965351    0.000133018702    0.000071680410    0.023142381433    0.025890527682
0.100     0.032419126148    0.032456194995    0.000159439980    0.000084684759    0.016701599069    0.036058976637    0.000160500615    0.000077647521
            0.000159439980    0.000084684759    0.028819545297    0.031745924263    0.000171430680    0.000078515546    0.014186036586    0.034800470461
            0.016701600328    0.036058976054    0.000171430728    0.000078515538    0.032162012193    0.032404545668    0.000153382865    0.000081340315
            0.000160500664    0.000077647511    0.014186039016    0.034800469470    0.000153382868    0.000081340309    0.028725542218    0.031661104850
0.125     0.039417855362    0.036137770591    0.000184756224    0.000089882381    0.024309519770    0.041599538850    0.000182035032    0.000081179475
            0.000184756224    0.000089882381    0.035001200813    0.036084911700    0.000192948977    0.000080483770    0.020907124757    0.040801729556
            0.024309521222    0.041599538001    0.000192949024    0.000080483762    0.039081905912    0.036151353576    0.000175355628    0.000086543604
            0.000182035082    0.000081179459    0.020907126437    0.040801727571    0.000175355631    0.000086543598    0.034814427122    0.036038894306
0.150     0.046480889852    0.038079686654    0.000210305628    0.000089231836    0.032491837515    0.045316855005    0.000203749022    0.000080366355
            0.000210305628    0.000089231836    0.041427061449    0.039085215718    0.000214445538    0.000078360985    0.028319137599    0.045344792368
            0.032491839097    0.045316853870    0.000214445584    0.000078360977    0.046077581578    0.038191538550    0.000197728297    0.000087280296
            0.000203749072    0.000080366338    0.028319129678    0.045344793777    0.000197728297    0.000087280296    0.041148660630    0.039116543639
0.175     0.053145571555    0.038400586219    0.000234651179    0.000083128163    0.040772141140    0.047208931316    0.000224606824    0.000075342127
            0.000234651179    0.000083128163    0.047764959851    0.040772718216    0.000234942471    0.000072222073    0.036068629085    0.048385121768
            0.040772142787    0.047208929892    0.000234942526    0.000072222063    0.052701648012    0.038643246199    0.000219447879    0.000083675529
            0.000224606872    0.000075342108    0.036068630774    0.048385120509    0.000219447881    0.000083675525    0.047416936913    0.040920628617
0.200     0.058988287444    0.037351216650    0.000256943516    0.000072715431    0.048704084253    0.047401596111    0.000243949298    0.000066911189
            0.000256943506    0.000072715429    0.053696489877    0.041289211958    0.000253819493    0.000062825492    0.043816457883    0.049969061723
            0.048704075596    0.047401599272    0.000253819538    0.000062825475    0.058542773993    0.037748632582    0.000239827252    0.000076531265
            0.000243949344    0.000066911169    0.043816450013    0.049969063304    0.000239827253    0.000076531261    0.053313621966    0.041584846819
0.225     0.063686811933    0.035286393206    0.000276514977    0.000058874571    0.055901662316    0.046125305639    0.000261265443    0.000055701935
            0.000276514977    0.000058874571    0.058967491024    0.040855853371    0.000270591266    0.000050784691    0.051255624351    0.050217706940
            0.055901662350    0.046125304027    0.000270591310    0.000050784675    0.063287441536    0.035849351173    0.000258328728    0.000066458166
            0.000261265498    0.000055701914    0.051255625227    0.050217706045    0.000258328291    0.000066458380    0.058594482114    0.041317813042
0.250     0.067038754310    0.032648177134    0.000293323640    0.000042604585    0.062062724994    0.043701259653    0.000276512935    0.000042478189
            0.000293323630    0.000042604583    0.063403961068    0.039763433759    0.000285239180    0.000036851309    0.058130628295    0.049321400553
            0.062062725811    0.043701260228    0.000285239222    0.000036851290    0.066736915898    0.033371981222    0.000274883341    0.000054218285
            0.000276512979    0.000042478167    0.058130629156    0.049321399538    0.000274883352    0.000054218282    0.063089833064    0.040396838590
0.275     0.068983505982    0.029907294833    0.000307266028    0.000024650392    0.066985410497    0.040509694955    0.000289617021    0.000027794592
            0.000307266018    0.000024650394    0.066927170473    0.038325711192    0.000297707693    0.000021568027    0.064246937622    0.047517331091
            0.066985411204    0.040509693786    0.000297707745    0.000021568005    0.068829449747    0.030771319756    0.000289391611    0.000040361297
            0.000289617064    0.000027794568    0.064246938451    0.047517329969    0.000289391612    0.000040361293    0.066721865523    0.039120772995
0.300     0.069599788197    0.027538846939    0.000318661150    0.000005616367    0.070582330283    0.036969925418    0.000300827948    0.000012118045
            0.000318661140    0.000005616369    0.069553030115    0.036866079468    0.000308261524    0.000005390407    0.069484089330    0.045079122868
            0.070582330283    0.036969925418    0.000308261574    0.000005390382    0.069637992742    0.028506966350    0.000302083162    0.000025360554
            0.000300827999    0.000012118018    0.069484090117    0.045079121656    0.000302083172    0.000025360555    0.069503048690    0.037798905254
0.325     0.069100249712    0.025970249200    0.000327645008    -0.000014033792    0.072882666586    0.033502992626    0.000310262240    -0.000004214993
            0.000327645008    -0.000014033790    0.071386635537    0.035678593351    0.000317030328    -0.000011356603    0.073795489783    0.042291474866
            0.072882667495    0.033502993044    0.000317030387    -0.000011356633    0.069364736404    0.026993162276    0.000313059583    0.000009555168
            0.000310262290    -0.000004215022    0.073795490521    0.042291473578    0.000313059583    0.000009555168    0.071531566915    0.036712658483
0.350     0.067817215384    0.025561257168    0.000334591154    -0.000034037478    0.074037282940    0.030509861803    0.000318220641    -0.000021017092
            0.000334591145    -0.000034037472    0.072614333586    0.035018887058    0.000324319899    -0.000028496837    0.077216642105    0.039438299423
            0.074037283865    0.030509862184    0.000324319956    -0.000028496875    0.068328093138    0.026579704862    0.000322612054    -0.000006858080
            0.000318220689    -0.000021017124    0.077216642793    0.039438298075    0.000322612054    -0.000006858085    0.072983447264    0.036107247802
0.375     0.066178153174    0.026561560838    0.000339676101    -0.000054163874    0.074303809134    0.028330303063    0.000324850344    -0.000038148059
            0.000339676102    -0.000054163869    0.073485126169    0.035073660017    0.000330279579    -0.000045898904    0.079853351563    0.036774928964
            0.074303811002    0.028330303775    0.000330279624    -0.000045898945    0.066938606514    0.027510323328    0.000330882701    -0.000023737756
            0.000324850400    -0.000038148097    0.079853353113    0.036774927989    0.000330882711    -0.000023737758    0.074095093102    0.036162101152
0.400     0.064679993113    0.029098037949    0.000343189432    -0.000074364002    0.074037877256    0.027222942534    0.000330377502    -0.000055605463
            0.000343189434    -0.000074363996    0.074297381486    0.035957211627    0.000335136043    -0.000063565943    0.081882710768    0.034518310347
            0.074037879133    0.027222943224    0.000335136095    -0.000063565989    0.065675305243    0.029911166795    0.000338095585    -0.000041079207
            0.000330377556    -0.000055605504    0.081882713214    0.034518309694    0.000338095585    -0.000041079207    0.075150625984    0.036987746260
0.425     0.063849873703    0.033146469609    0.000345259101    -0.000094551642    0.073660532324    0.027329274652    0.000334892809    -0.000073379586
            0.000345259102    -0.000094551636    0.075372668761    0.037691290370    0.000338978419    -0.000081492280    0.083531643834    0.032821071414
            0.073660534199    0.027329275348    0.000338978467    -0.000081492336    0.065047154748    0.033763083922    0.000344342325    -0.000058882377
            0.000334892858    -0.000073379640    0.083531646268    0.032821070688    0.000344342325    -0.000058882378    0.076456933890    0.038606320985
0.450     0.064209655521    0.038532899779    0.000346050087    -0.000114782663    0.073633332594    0.028663575056    0.000338499191    -0.000091564614
            0.000346050079    -0.000114782654    0.077038391474    0.040208492020    0.000341909324    -0.000099770307    0.085068611534    0.031766994928
            0.073633335459    0.028663573212    0.000341909370    -0.000099770365    0.065560537313    0.038901873489    0.000349722363    -0.000077245771
            0.000338499240    -0.000091564665    0.085068613962    0.031766994143    0.000349722373    -0.000077245773    0.078327326199    0.040954596132
0.475     0.066226624760    0.044927244928    0.000345610414    -0.000135039295    0.074411190481    0.031093251252    0.000341193642    -0.000110210869
            0.000345610416    -0.000135039289    0.079597254657    0.043344797317    0.000343926288    -0.000118444495    0.086774620114    0.031352927253
            0.074411192869    0.031093250725    0.000343926619    -0.000118444945    0.067671516785    0.045011724999    0.000354228550    -0.000096234697
            0.000341193683    -0.000110210935    0.086774623089    0.031352924904    0.000354228549    -0.000096234703    0.081052958183    0.043876798995
0.500     0.070276099922    0.051866276662    0.000343980591    -0.000155400104    0.076407868544    0.034348912900    0.000342944924    -0.000129424361
            0.000343980600    -0.000155400108    0.083308842389    0.046853474947    0.000345001602    -0.000137618356    0.088928876085    0.031492910778
            0.076407869456    0.034348913310    0.000345001639    -0.000137618427    0.071750387343    0.051643028399    0.000357817349    -0.000115970049
            0.000342944424    -0.000129423618    0.088928876085    0.031492910778    0.000357817357    -0.000115970059    0.084885823666    0.047134457856
0.525     0.076595893358    0.058776780892    0.000341125331    -0.000175844740    0.079941050696    0.038028517337    0.000343643043    -0.000149239317
            0.000341125331    -0.000175844740    0.088361199306    0.050411989368    0.000345035901    -0.000157317096    0.091772783028    0.032010464033
            0.079941056060    0.038028513045    0.000345035931    -0.000157317175    0.078029485106    0.058226170082    0.000360363372    -0.000136505123
            0.000343643080    -0.000149239383    0.091772786034    0.032010461489    0.000360363379    -0.000136505133    0.090006665335    0.050407906539
0.550     0.085265518432    0.065024787332    0.000336991498    -0.000196405608    0.085190356203    0.041646608164    0.000343151314    -0.000169692107
            0.000336991511    -0.000196405607    0.094858441304    0.053649086188    0.000343902097    -0.000177573584    0.095484812047    0.032662471771
            0.085190356203    0.041646608164    0.000343902116    -0.000177573655    0.086552689032    0.064131932439    0.000361704524    -0.000157881069
            0.000343151344    -0.000169692182    0.095484813757    0.032662466772    0.000361704533    -0.000157881073    0.096493056794    0.053326337440
0.575     0.096183825847    0.069957632070    0.000331498353    -0.000217013847    0.092189155150    0.044703098543    0.000341304249    -0.000190738390
            0.000331498378    -0.000217013863    0.102801617859    0.056163179985    0.000341451865    -0.000198343698    0.100163779064    0.033176896316
            0.092189146932    0.044703092571    0.000341451870    -0.000198343788    0.097189988858    0.068775111256    0.000361656964    -0.000180066289
            0.000341304292    -0.000190738476    0.100163781381    0.033176889323    0.000361656987    -0.000180066309    0.104316987874    0.055530739332
0.600     0.109071992976    0.072957447870    0.000324548465    -0.000237620854    0.100866434699    0.046685783561    0.000337916763    -0.000212310187
            0.000324548445    -0.000237620813    0.112087523125    0.057551152558    0.000337515250    -0.000219565784    0.105861347229    0.033252582131
            0.100866437958    0.046685776520    0.000337515265    -0.000219565852    0.109719163697    0.071591980586    0.000360006354    -0.000203001304
            0.000337916794    -0.000212310305    0.105861350711    0.033252571045    0.000360005993    -0.000203000438    0.113402614959    0.056662707045
0.625     0.123478957433    0.073490315627    0.000316055988    -0.000258074103    0.110982090763    0.047085101342    0.000332810306    -0.000234246738
            0.000316055976    -0.000258074102    0.122499805551    0.057435603511    0.000331926821    -0.000241084556    0.112527126187    0.032553207141
            0.110982093228    0.047085095531    0.000331926820    -0.000241084626    0.123739548806    0.072041824069    0.000356533241    -0.000226527639
            0.000332810310    -0.000234246785    0.112527127324    0.032553203213    0.000356533084    -0.000226527216    0.123565258277    0.056350004580
0.650     0.138830802931    0.071150619387    0.000305942398    -0.000278220341    0.122158174194    0.045480396653    0.000325829455    -0.000256339104
            0.000305942406    -0.000278220407    0.133734168512    0.055494248756    0.000324544647    -0.000262703994    0.120017059843    0.030764890821
            0.122158174194    0.045480396653    0.000324544646    -0.000262704059    0.138698701471    0.069712995346    0.000351046801    -0.000250423766
            0.000325829451    -0.000256339157    0.120017063065    0.030764878252    0.000351046787    -0.000250423682    0.134514489477    0.054273820786
0.675     0.154459687470    0.065688978636    0.000294190070    -0.000297834289    0.133910794232    0.041567325510    0.000316880409    -0.000278313707
            0.000294190070    -0.000297834331    0.145403692457    0.051482693948    0.000315286063    -0.000284166156    0.128098119891    0.027618053626
            0.133910794232    0.041567325510    0.000315286048    -0.000284166262    0.153948284561    0.064354781233    0.000343418892    -0.000274399406
            0.000316880389    -0.000278313729    0.128098121337    0.027618046918    0.000343418894    -0.000274399437    0.145876192766    0.050196361816
0.700     0.169663544219    0.057027022744    0.000280814137    -0.000316696405    0.145706660157    0.035176223737    0.000305929027    -0.000299874635
            0.000280814149    -0.000316696341    0.157073523934    0.045250842146    0.000304121418    -0.000305193659    0.136482126929    0.022908037385
            0.145706660157    0.035176223737    0.000304121409    -0.000305193724    0.168806041299    0.055885785139    0.000333587869    -0.000298131957
            0.000305929003    -0.000299874675    0.136482126929    0.022908037385    0.000333587871    -0.000298131939    0.157230339050    0.043972875404
0.725     0.183738735402    0.045258199903    0.000265905425    -0.000334564577    0.156982177691    0.026271683323    0.000293019710    -0.000320712315
            0.000265905414    -0.000334564611    0.168273706322    0.036754841816    0.000291101675    -0.000325492810    0.144825511549    0.016502868282
            0.156982169250    0.026271673179    0.000291101633    -0.000325492900    0.182588247800    0.044389521343    0.000321573864    -0.000321284041
            0.000293019669    -0.000320712461    0.144825502046    0.016502863359    0.000321573864    -0.000321284097    0.168124195814    0.035559929342
0.750     0.196033365371    0.030630920814    0.000249592930    -0.000351223288    0.167194549219    0.014949449395    0.000278267184    -0.000340524837
            0.000249592904    -0.000351223368    0.178538211733    0.026054682246    0.000276336790    -0.000344784173    0.152769837150    0.008353818334
            0.167194549219    0.014949449395    0.000276336738    -0.000344784318    0.194660168271    0.030101768592    0.000307476228    -0.000343517702
            0.000278267139    -0.000340524976    0.152769837136    0.008353818601    0.000307476249    -0.000343517629    0.178108282633    0.025015496598
0.775     0.205968979650    0.013531208600    0.000232079957    -0.000366481339    0.175833530509    0.001420712080    0.000261860406    -0.000359048804
            0.000232079958    -0.000366481326    0.187417697348    0.013314704941    0.000260012578    -0.000362819727    0.159940547885    -0.001507276618
            0.175833530509    0.001420712080    0.000260012499    -0.000362819857    0.204457435704    0.013390997256    0.000291474894    -0.000364535910
            0.000261860341    -0.000359048926    0.159940537816    -0.001507283894    0.000291474894    -0.000364535910    0.186749812005    0.012496631500
0.800     0.213074024871    -0.005547932172    0.000213594902    -0.000380192220    0.182457530415    -0.014002438011    0.000244042807    -0.000376059146
