# GHz S RI R 45
0.000     0.012515103000    0.000000000000    -0.000011172920    0.000000000000    0.000502898860    0.000000000000    -0.000014803001    0.000000000000
            -0.000011173405    0.000000000000    0.011375512000    0.000000000000    -0.000003285938    0.000000000000    0.000193406730    0.000000000000
            0.000503009860    0.000000000000    -0.000003286384    0.000000000000    0.012530422000    0.000000000000    -0.000005896589    0.000000000000
            -0.000014803399    0.000000000000    0.000193409150    0.000000000000    -0.000005896205    0.000000000000    0.011194361000    0.000000000000
0.025     0.016101572013    0.010803805850    -0.000036148225    -0.000022173006    0.001677390668    0.009767933524    -0.000028374582    -0.000014940074
            -0.000036148611    -0.000022172983    0.014505611976    0.010798379679    -0.000026433851    -0.000021589977    0.001264683609    0.009837627644
            0.001677383341    0.009767763105    -0.000026434295    -0.000021589941    0.016019057262    0.010759463691    -0.000021140322    -0.000016356007
            -0.000028374983    -0.000014940045    0.001264563592    0.009837462498    -0.000021139941    -0.000016356031    0.014520868353    0.010887155171
0.050     0.020384443621    0.018590496962    -0.000047772105    -0.000019195702    0.004848979245    0.018866090215    -0.000035771864    -0.000016530490
            -0.000047772488    -0.000019195662    0.018353245012    0.018920246649    -0.000037452393    -0.000019811262    0.004095625885    0.019093359294
            0.004849120118    0.018866067430    -0.000037452884    -0.000019811212    0.020260626046    0.018518085725    -0.000028973394    -0.000017538045
            -0.000035772261    -0.000016530446    0.004095657161    0.019093347471    -0.000028973014    -0.000017538084    0.018403595240    0.018906078733
0.075     0.025721624579    0.025075079085    -0.000052748354    -0.000017875042    0.009762938204    0.026888882773    -0.000040401081    -0.000018455111
            -0.000052748783    -0.000017874972    0.023149209760    0.025963334317    -0.000042433380    -0.000019539413    0.008484245639    0.027505966617
            0.009763053864    0.026888866311    -0.000042433810    -0.000019539297    0.025536966457    0.024995254198    -0.000033335967    -0.000019457814
            -0.000040401472    -0.000018455051    0.008484253135    0.027505965351    -0.000033335594    -0.000019457925    0.023142381433    0.025890527682
0.100     0.031972918999    0.029985992087    -0.000056824043    -0.000017416165    0.016060502939    0.033481403436    -0.000045059072    -0.000020271622
            -0.000056824414    -0.000017416095    0.028819545297    0.031745924263    -0.000046701821    -0.000019991085    0.014186036586    0.034800470461
            0.016060613070    0.033481382772    -0.000046702210    -0.000019991001    0.031716047004    0.029926365835    -0.000037568082    -0.000021602431
            -0.000045059558    -0.000020271519    0.014186039016    0.034800469470    -0.000037567710    -0.000021602505    0.028725542218    0.031661104850
0.125     0.038652586969    0.033091980768    -0.000060841631    -0.000017034046    0.023324055095    0.038424932027    -0.000050028604    -0.000021466094
            -0.000060842046    -0.000017033945    0.035001200813    0.036084911700    -0.000051022948    -0.000020419097    0.020907124757    0.040801729556
            0.023324162755    0.038424905280    -0.000051023331    -0.000020418992    0.038322114298    0.033089016825    -0.000042119026    -0.000023428786
            -0.000050029082    -0.000021465968    0.020907126437    0.040801727571    -0.000042118654    -0.000023428887    0.034814427122    0.036038894306
0.150     0.045347950983    0.034493424780    -0.000064917282    -0.000016335861    0.031089400126    0.041556855224    -0.000055176401    -0.000021885528
            -0.000064917740    -0.000016335711    0.041427061449    0.039085215718    -0.000055483390    -0.000020456373    0.028319137599    0.045344792368
            0.031089511124    0.041556822139    -0.000055483862    -0.000020456228    0.044951066769    0.034576949421    -0.000046956926    -0.000024710717
            -0.000055176777    -0.000021885409    0.028319129678    0.045344793777    -0.000046956565    -0.000024710831    0.041148660630    0.039116543639
0.175     0.051587101778    0.034275225569    -0.000069010751    -0.000015171041    0.038874089567    0.042875493433    -0.000060350139    -0.000021473210
            -0.000069011197    -0.000015170886    0.047764959851    0.040772718216    -0.000060027337    -0.000019951101    0.036068629085    0.048385121768
            0.038874194778    0.042875456084    -0.000060027738    -0.000019950897    0.051145985119    0.034475233038    -0.000052005152    -0.000025337658
            -0.000060350600    -0.000021473042    0.036068630774    0.048385120509    -0.000052004797    -0.000025337788    0.047416936913    0.040920628617
0.200     0.056930715614    0.032675789679    -0.000073035371    -0.000013535264    0.046222746451    0.042507911643    -0.000065406451    -0.000020333903
            -0.000073035809    -0.000013535082    0.053696489877    0.041289211958    -0.000064557339    -0.000018901311    0.043816457883    0.049969061723
            0.046222854477    0.042507868041    -0.000064557697    -0.000018901159    0.056479158315    0.033015530632    -0.000057148257    -0.000025339014
            -0.000065406811    -0.000020333752    0.043816450013    0.049969063304    -0.000057147904    -0.000025339168    0.053313621966    0.041584846819
0.225     0.061035551119    0.030047917934    -0.000076937787    -0.000011435754    0.052737095842    0.040689287096    -0.000070255532    -0.000018539922
            -0.000076938216    -0.000011435544    0.058967491024    0.040855853371    -0.000069004837    -0.000017311258    0.051255624351    0.050217706940
            0.052737196584    0.040689240013    -0.000069005236    -0.000017311063    0.060615768694    0.030539310039    -0.000062322203    -0.000024723422
            -0.000070255885    -0.000018539740    0.051255625227    0.050217706045    -0.000062321884    -0.000024723636    0.058594482114    0.041317813042
0.250     0.063674023495    0.026840414747    -0.000080682269    -0.000008942827    0.058100596892    0.037750016512    -0.000074862309    -0.000016222475
            -0.000080682684    -0.000008942602    0.063403961068    0.039763433759    -0.000073324045    -0.000015250903    0.058130628295    0.049321400553
            0.058100691229    0.037749966761    -0.000073324473    -0.000015250671    0.063332079629    0.027481891031    -0.000067477261    -0.000023561908
            -0.000074862738    -0.000016222240    0.058130629156    0.049321399538    -0.000067476929    -0.000023562096    0.063089833064    0.040396838590
0.275     0.064759001231    0.023540805938    -0.000084261832    -0.000006088081    0.062095780523    0.034085938996    -0.000079216525    -0.000013456090
            -0.000084262127    -0.000006087836    0.066927170473    0.038325711192    -0.000077493117    -0.000012753807    0.064246937622    0.047517331091
            0.062095876893    0.034085881889    -0.000077493534    -0.000012753556    0.064540527242    0.024316504897    -0.000072595960    -0.000021877732
            -0.000079216897    -0.000013455869    0.064246938451    0.047517329969    -0.000072595642    -0.000021877926    0.066721865523    0.039120772995
0.300     0.064343235123    0.020651207820    -0.000087690224    -0.000002927079    0.064620515310    0.030138429307    -0.000083350630    -0.000010324141
            -0.000087690531    -0.000002926860    0.069553030115    0.036866079468    -0.000081515861    -0.000009877596    0.069484089330    0.045079122868
            0.064620604080    0.030138369094    -0.000081516184    -0.000009877390    0.064289424848    0.021531429543    -0.000077677363    -0.000019716815
            -0.000083351034    -0.000010323866    0.069484090117    0.045079121656    -0.000077677135    -0.000019716973    0.069503048690    0.037798905254
0.325     0.062618915569    0.018637918359    -0.000090989486    0.000000533168    0.065692703693    0.026359301183    -0.000087294489    -0.000006856628
            -0.000090989861    0.000000533440    0.071386635537    0.035678593351    -0.000085402149    -0.000006636504    0.073795489783    0.042291474866
            0.065692793406    0.026359233350    -0.000085402458    -0.000006636273    0.062762203247    0.019580861681    -0.000082728492    -0.000017076133
            -0.000087294798    -0.000006856407    0.073795490521    0.042291473578    -0.000082728193    -0.000017076358    0.071531566915    0.036712658483
0.350     0.059905086049    0.017909164084    -0.000094192438    0.000004280071    0.065456915408    0.023186534751    -0.000091100097    -0.000003073341
            -0.000094192723    0.000004280314    0.072614333586    0.035018887058    -0.000089177398    -0.000003049100    0.077216642105    0.039438299423
            0.065457004610    0.023186459629    -0.000089177770    -0.000003048801    0.060265979575    0.018863684616    -0.000087764608    -0.000013958275
            -0.000091100471    -0.000003073035    0.077216642793    0.039438298075    -0.000087764320    -0.000013958512    0.072983447264    0.036107247802
0.375     0.056628771755    0.018772741865    -0.000097320383    0.000008347116    0.064174089578    0.021004884266    -0.000094797604    0.000001049793
            -0.000097320695    0.000008347399    0.073485126169    0.035073660017    -0.000092856440    0.000000907772    0.079853351563    0.036774928964
            0.064174167376    0.021004810526    -0.000092856763    0.000000908066    0.057213277024    0.019681969147    -0.000092788609    -0.000010321696
            -0.000094797890    0.000001050061    0.079853353113    0.036774927989    -0.000092788336    -0.000010321944    0.074095093102    0.036162101152
0.400     0.053301047422    0.021418654167    -0.000100391576    0.000012766027    0.062213712633    0.020121980852    -0.000098418343    0.000005548964
            -0.000100391905    0.000012766371    0.074297381486    0.035957211627    -0.000096454806    0.000005258351    0.081882710768    0.034518310347
            0.062213779285    0.020121911253    -0.000096455080    0.000005258619    0.054099412431    0.022224659420    -0.000097798993    -0.000006126378
            -0.000098418616    0.000005549238    0.081882713214    0.034518309694    -0.000097798731    -0.000006126636    0.075150625984    0.036987746260
0.425     0.050482469997    0.025888734704    -0.000103396646    0.000017605236    0.060026117045    0.020730578911    -0.000101958134    0.000010491495
            -0.000103396952    0.000017605585    0.075372668761    0.037691290370    -0.000099962685    0.000010060937    0.083531643834    0.032821071414
            0.060026179073    0.020730506524    -0.000099963011    0.000010061287    0.051469115200    0.026537045035    -0.000102765759    -0.000001298295
            -0.000101958361    0.000010491825    0.083531646268    0.032821070688    -0.000102765516    -0.000001298579    0.076456933890    0.038606320985
0.450     0.048747133481    0.032070405331    -0.000106309782    0.000022925584    0.058116812553    0.022893526652    -0.000105396244    0.000015947943
            -0.000106310021    0.000022925849    0.077038391474    0.040208492020    -0.000103356359    0.000015370702    0.085068611534    0.031766994928
            0.058116869908    0.022893451992    -0.000103356667    0.000015371079    0.049882782879    0.032515289018    -0.000107640680    0.000004229440
            -0.000105396491    0.000015948244    0.085068613962    0.031766994143    -0.000107640441    0.000004229148    0.078327326199    0.040954596132
0.475     0.048635997762    0.039685985554    -0.000109064871    0.000028806082    0.057002642718    0.026519532026    -0.000108666545    0.000022000264
            -0.000109065125    0.000028806413    0.079597254657    0.043344797317    -0.000106573848    0.000021260624    0.086774620114    0.031352927253
            0.057002696567    0.026519454210    -0.000106574080    0.000021260941    0.049871852631    0.039893810339    -0.000112334380    0.000010538775
            -0.000108666779    0.000022000568    0.086774623089    0.031352924904    -0.000112334156    0.000010538477    0.081052958183    0.043876798995
0.500     0.050615170845    0.048307939202    -0.000111574031    0.000035301870    0.057173422892    0.031366968230    -0.000111676895    0.000028713647
            -0.000111574239    0.000035302172    0.083308842389    0.046853474947    -0.000109530638    0.000027784498    0.088928876085    0.031492910778
            0.057173472167    0.031366888810    -0.000109530846    0.000027784815    0.051899382172    0.048256043900    -0.000116731546    0.000017687956
            -0.000111677111    0.000028713972    0.088928876085    0.031492910778    -0.000116731339    0.000017687654    0.084885823666    0.047134457856
0.525     0.055027920847    0.057376046050    -0.000113705992    0.000042460097    0.059036783407    0.037041446962    -0.000114289473    0.000036137225
            -0.000113706043    0.000042460274    0.088361199306    0.050411989368    -0.000112099418    0.000034988326    0.091772783028    0.032010464033
            0.059036852672    0.037041325279    -0.000112099670    0.000034988727    0.056305305829    0.057040472055    -0.000120671622    0.000025721557
            -0.000114289639    0.000036137562    0.091772786034    0.032010461489    -0.000120671431    0.000025721253    0.090006665335    0.050407906539
0.550     0.062064690584    0.066242461708    -0.000115318941    0.000050282168    0.062863759746    0.043040101590    -0.000116351605    0.000044275901
            -0.000115318941    0.000050282144    0.094858441304    0.053649086188    -0.000114140491    0.000042873695    0.095484812047    0.032662471771
            0.062863800926    0.043040020203    -0.000114140724    0.000042874101    0.063241584752    0.065593667311    -0.000123981162    0.000034631231
            -0.000116351793    0.000044276251    0.095484813757    0.032662466772    -0.000123981037    0.000034631010    0.096493056794    0.053326337440
0.575     0.071735243545    0.074212299341    -0.000116245979    0.000058739246    0.068774380932    0.048824981377    -0.000117689214    0.000053098218
            -0.000116246185    0.000058739681    0.102801617859    0.056163179985    -0.000115491700    0.000051414035    0.100163779064    0.033176896316
            0.068774433054    0.048824861318    -0.000115491802    0.000051414249    0.072676005773    0.073285513604    -0.000126469005    0.000044375490
            -0.000117689422    0.000053098658    0.100163781381    0.033176889323    -0.000126468845    0.000044375161    0.104316987874    0.055530739332
0.600     0.083860972891    0.080595948474    -0.000116333844    0.000067751875    0.076779307947    0.053827387987    -0.000118136133    0.000062522569
            -0.000116333856    0.000067751854    0.112087523125    0.057551152558    -0.000115999585    0.000060534681    0.105861347229    0.033252582131
            0.076779333992    0.053827300317    -0.000115999955    0.000060535570    0.084483557136    0.079489727222    -0.000127953141    0.000054862569
            -0.000118136510    0.000062523481    0.105861350711    0.033252571045    -0.000127952755    0.000054861717    0.113402614959    0.056662707045
0.625     0.098073132757    0.084761083356    -0.000115426314    0.000077193779    0.086709323090    0.057454623303    -0.000117525813    0.000072416900
            -0.000115426306    0.000077193773    0.122499805551    0.057435603511    -0.000115504557    0.000070116395    0.112527126187    0.032553207141
            0.086709353548    0.057454541128    -0.000115504723    0.000070116855    0.098350415688    0.083568519207    -0.000128244658    0.000065946127
            -0.000117525813    0.000072416900    0.112527127324    0.032553203213    -0.000128244485    0.000065945698    0.123565258277    0.056350004580
0.650     0.113853549282    0.086184875397    -0.000113414527    0.000086893543    0.098231959706    0.059185822492    -0.000115737950    0.000082596747
            -0.000113414813    0.000086894453    0.133734168512    0.055494248756    -0.000113891598    0.000079988598    0.120017059843    0.030764890821
            0.098231985961    0.059185740162    -0.000113891879    0.000079989538    0.113779714434    0.084991020298    -0.000127208273    0.000077425028
            -0.000115737941    0.000082596741    0.120017063065    0.030764878252    -0.000127208276    0.000077425061    0.134514489477    0.054273820786
0.675     0.130563491779    0.084489223357    -0.000110219720    0.000096650946    0.110884591498    0.058608290918    -0.000112689422    0.000092846202
            -0.000110219737    0.000096650927    0.145403692457    0.051482693948    -0.000111076020    0.000089950477    0.128098119891    0.027618053626
            0.110884628395    0.058608156910    -0.000111076266    0.000089951382    0.130149032018    0.083377754821    -0.000124744627    0.000089062021
            -0.000112689545    0.000092846666    0.128098121337    0.027618046918    -0.000124744497    0.000089061600    0.145876192766    0.050196361816
0.700     0.147497736885    0.079465545278    -0.000105829770    0.000106248591    0.124127725758    0.055444062344    -0.000108365680    0.000102933079
            -0.000105829782    0.000106248566    0.157073523934    0.045250842146    -0.000107040234    0.000099785412    0.136482126929    0.022908037385
            0.124127737073    0.055443963451    -0.000107040234    0.000099785412    0.146770300621    0.078517303041    -0.000120830171    0.000100601039
            -0.000108365894    0.000102934001    0.136482126929    0.022908037385    -0.000120830171    0.000100601039    0.157230339050    0.043972875404
0.725     0.163922233439    0.071080881571    -0.000100272624    0.000115468973    0.137369886421    0.049554582743    -0.000102798653    0.000112624752
            -0.000100272665    0.000115469427    0.168273706322    0.036754841816    -0.000101805916    0.000109270176    0.144825511549    0.016502868282
            0.137369912582    0.049554451284    -0.000101806005    0.000109270653    0.162927085581    0.070368873524    -0.000115487884    0.000111784215
            -0.000102798726    0.000112625227    0.144825502046    0.016502863359    -0.000115487884    0.000111784215    0.168124195814    0.035559929342
0.750     0.179127867032    0.059469881201    -0.000093640143    0.000124114878    0.150018840215    0.040944564919    -0.000096085977    0.000121707696
            -0.000093640263    0.000124115803    0.178538211733    0.026054682246    -0.000095461009    0.000118203931    0.152769837150    0.008353818334
            0.150018867370    0.040944389462    -0.000095461125    0.000118204878    0.177926136742    0.059056906428    -0.000108814590    0.000122373907
            -0.000096086112    0.000121708609    0.152769837136    0.008353818601    -0.000108814575    0.000122373934    0.178108282633    0.025015496598
0.775     0.192460061252    0.044920512145    -0.000086054450    0.000132014009    0.161500700478    0.029747123309    -0.000088360686    0.000129997717
            -0.000086054462    0.000132013977    0.187417697348    0.013314704941    -0.000088124129    0.000126408058    0.159940547885    -0.001507276618
            0.161500715535    0.029747041566    -0.000088124123    0.000126408049    0.191125451162    0.044853349579    -0.000100943421    0.000132158829
            -0.000088360762    0.000129998657    0.159940537816    -0.001507283894    -0.000100943386    0.000132158353    0.186749812005    0.012496631500
