# GHz S RI R 45
0.000     0.011403914000    0.000000000000    0.988193090000    -0.000000000000    0.000429976460    -0.000000000000    -0.000571407700    0.000000000000
            0.988193090000    -0.000000000000    0.011375512000    0.000000000000    -0.000571559290    0.000000000000    0.000193406730    0.000000000000
            0.000429945350    -0.000000000000    -0.000571594460    0.000000000000    0.011378349000    0.000000000000    0.988253630000    -0.000000000000
            -0.000571442890    0.000000000000    0.000193409150    0.000000000000    0.988253630000    -0.000000000000    0.011194361000    0.000000000000
0.025     0.015560036988    0.010739160663    0.978596555039    -0.119719689363    0.002041534095    0.009732853786    -0.000943630808    -0.002404273036
            0.978596555039    -0.119719689363    0.014505611976    0.010798379679    -0.000939872083    -0.002403148818    0.001264683609    0.009837627644
            0.002041475198    0.009732905273    -0.000939900918    -0.002403208945    0.015489352114    0.010691978597    0.978680891710    -0.119396067835
            -0.000943760895    -0.002404351534    0.001264563592    0.009837462498    0.978680891918    -0.119396066127    0.014520868353    0.010887155171
0.050     0.021392308901    0.018178162866    0.955598205894    -0.235129753045    0.006435752083    0.018496692273    -0.002139928830    -0.004602394070
            0.955598205894    -0.235129753045    0.018353245012    0.018920246649    -0.002135083757    -0.004603817900    0.004095625885    0.019093359294
            0.006435708184    0.018496708606    -0.002135116837    -0.004603819755    0.021310367804    0.018110719382    0.955797475007    -0.234478963061
            -0.002139963435    -0.004602397058    0.004095657161    0.019093347471    0.955797475007    -0.234478963061    0.018403595240    0.018906078733
0.075     0.029232657564    0.023649003185    0.919277334002    -0.346518904645    0.013259669936    0.025629810213    -0.003987615619    -0.006297677903
            0.919277334002    -0.346518904645    0.023149209760    0.025963334317    -0.003983102602    -0.006300190016    0.008484245639    0.027505966617
            0.013259636326    0.025629821972    -0.003983133535    -0.006300180516    0.029145057923    0.023563836322    0.919676869996    -0.345575492161
            -0.003987647645    -0.006297667685    0.008484253135    0.027505965351    0.919676869996    -0.345575492161    0.023142381433    0.025890527682
0.100     0.038735346806    0.026559149013    0.870092933644    -0.452313353211    0.021988200872    0.030553615670    -0.006274626162    -0.007387726709
            0.870092933644    -0.452313353211    0.028819545297    0.031745924263    -0.006269669407    -0.007389995756    0.014186036586    0.034800470461
            0.021988178957    0.030553630209    -0.006269700447    -0.007389982667    0.038647262074    0.026462716051    0.870762723779    -0.451125167001
            -0.006274657075    -0.007387716066    0.014186039016    0.034800469470    0.870762723779    -0.451125167001    0.028725542218    0.031661104850
0.125     0.049097270910    0.026383842866    0.808765640276    -0.551060489201    0.031979246769    0.032855289366    -0.008804896555    -0.007850753034
            0.808765640276    -0.551060489201    0.035001200813    0.036084911700    -0.008787263104    -0.007857213985    0.020907124757    0.040801729556
            0.031979224281    0.032855309859    -0.008787296854    -0.007857197245    0.049011758554    0.026280803909    0.809763169114    -0.549685432713
            -0.008804923202    -0.007850738175    0.020907126437    0.040801727571    0.809763169114    -0.549685432713    0.034814427122    0.036038894306
0.150     0.059665574170    0.023078950174    0.736483856764    -0.641334794243    0.042516781376    0.032247192362    -0.011423135401    -0.007658364725
            0.736483856764    -0.641334794243    0.041427061449    0.039085215718    -0.011388908722    -0.007672297730    0.028319137599    0.045344792368
            0.042516764821    0.032247212535    -0.011388939080    -0.007672277723    0.059600952763    0.022986241258    0.737856779179    -0.639841103342
            -0.011423159241    -0.007658348920    0.028319129678    0.045344793777    0.737856779179    -0.639841103342    0.041148660630    0.039116543639
0.175     0.069527973516    0.016579390174    0.654459567800    -0.722040385517    0.052837402824    0.028649967000    -0.013969896614    -0.006850361810
            0.654459567800    -0.722040385517    0.047764959851    0.040772718216    -0.013915209603    -0.006877430710    0.036068629085    0.048385121768
            0.052837388565    0.028649989101    -0.013915238655    -0.006877405784    0.069505442829    0.016499842890    0.656242037782    -0.720501215589
            -0.013969924429    -0.006850339156    0.036068630774    0.048385120509    0.656242037782    -0.720501215589    0.047416936913    0.040920628617
0.200     0.077837461392    0.007099654103    0.563956175513    -0.792256998734    0.062189971214    0.022167890190    -0.016322973957    -0.005505110621
            0.563956175513    -0.792256998734    0.053696489877    0.041289211958    -0.016245024363    -0.005553252896    0.043816457883    0.049969061723
            0.062189960431    0.022167914483    -0.016245045387    -0.005553231583    0.077880058587    0.007028048506    0.566170747397    -0.790750117189
            -0.016323000648    -0.005505081548    0.043816450013    0.049969063304    0.566170747397    -0.790750117189    0.053313621966    0.041584846819
0.225     0.083829803895    -0.004951186540    0.466276546710    -0.851202856217    0.069865590970    0.013074114069    -0.018400599772    -0.003718226717
            0.466276541906    -0.851202847446    0.058967491024    0.040855853371    -0.018298370423    -0.003797484505    0.051255624351    0.050217706940
            0.069865581632    0.013074147660    -0.018298394359    -0.003797452829    0.083961380988    -0.005027760320    0.468933234098    -0.849807801975
            -0.018400622924    -0.003718197969    0.051255625227    0.050217706045    0.468933234098    -0.849807801975    0.058594482114    0.041317813042
0.250     0.086868907346    -0.018985838362    0.362766701005    -0.898238087835    0.075238151290    0.001796281681    -0.020164649621    -0.001586167247
            0.362766701005    -0.898238087835    0.063403961068    0.039763433759    -0.020039527932    -0.001708153511    0.058130628295    0.049321400553
            0.075238147435    0.001796317458    -0.020039547554    -0.001708123476    0.087112514012    -0.019088275635    0.365862865456    -0.897037923958
            -0.020164670333    -0.001586133465    0.058130629156    0.049321399538    0.365862865456    -0.897037923958    0.063089833064    0.040396838590
0.275     0.086460816070    -0.034283000712    0.254806195156    -0.932853016756    0.077785003926    -0.011102822437    -0.021609599913    0.000809670553
            0.254806195156    -0.932853016756    0.066927170473    0.038325711192    -0.021465875459    0.000632165104    0.064246937622    0.047517331091
            0.077785003729    -0.011102809664    -0.021465888680    0.000632191742    0.086835875307    -0.034440106255    0.258331695189    -0.931929587655
            -0.021609616629    0.000809705172    0.064246938451    0.047517329969    0.258331695189    -0.931929587655    0.066721865523    0.039120772995
0.300     0.082293049041    -0.050017958722    0.143812057095    -0.954674183563    0.077120957378    -0.024952438770    -0.022753914506    0.003414104131
            0.143812057095    -0.954674183563    0.069553030115    0.036866079468    -0.022598501359    0.003167783467    0.069484089330    0.045079122868
            0.077120953652    -0.024952440539    -0.022598515752    0.003167817658    0.082813721137    -0.050266910567    0.147739678089    -0.954108623924
            -0.022753927540    0.003414138572    0.069484090117    0.045079121656    0.147739676559    -0.954108614042    0.069503048690    0.037798905254
0.325     0.074238027859    -0.065301468672    0.031233045075    -0.963455060417    0.073010745654    -0.038997574436    -0.023621832206    0.006202390655
            0.031233045075    -0.963455060417    0.071386635537    0.035678593351    -0.023464612129    0.005873588461    0.073795489783    0.042291474866
            0.073010742327    -0.038997574297    -0.023464621334    0.005873629933    0.074910634566    -0.065686199449    0.035526163923    -0.963329176228
            -0.023621841922    0.006202428463    0.073795490521    0.042291473578    0.035526163923    -0.963329176228    0.071531566915    0.036712658483
0.350     0.062377628576    -0.079225935433    -0.081460632573    -0.959099046017    0.065393625465    -0.052438045585    -0.024231212791    0.009180748015
            -0.081460632573    -0.959099046017    0.072614333586    0.035018887058    -0.024083920817    0.008755368656    0.077216642105    0.039438299423
            0.065393622209    -0.052438044850    -0.024083926449    0.008755408775    0.063198275643    -0.079795925387    -0.076852665578    -0.959490000992
            -0.024231219342    0.009180784351    0.077216642793    0.039438298075    -0.076852665578    -0.959490000992    0.072983447264    0.036107247802
0.375     0.046995049644    -0.090900981033    -0.192771630647    -0.941651410448    0.054387381330    -0.064455967859    -0.024576376283    0.012377832509
            -0.192771630647    -0.941651410448    0.073485126169    0.035073660017    -0.024452423220    0.011840260738    0.079853351563    0.036774928964
            0.054387410880    -0.064455929841    -0.024452425221    0.011840293317    0.047948134994    -0.091709332957    -0.187912282876    -0.942631650464
            -0.024576377237    0.012377870632    0.079853353113    0.036774927989    -0.187912282876    -0.942631650464    0.074095093102    0.036162101152
0.400     0.028578151693    -0.099508151986    -0.301197405421    -0.911322078166    0.040297907640    -0.074266867802    -0.024620033545    0.015835056417
            -0.301197405421    -0.911322078166    0.074297381486    0.035957211627    -0.024534015407    0.015165853163    0.081882710768    0.034518310347
            0.040297904913    -0.074266865869    -0.024534013039    0.015165893127    0.029635150400    -0.100609444310    -0.296164118746    -0.912958203269
            -0.024620032943    0.015835092477    0.081882713214    0.034518309694    -0.296164118746    -0.912958203269    0.075150625984    0.036987746260
0.425     0.007800181217    -0.104335533381    -0.405235229166    -0.868492267410    0.023611248891    -0.081149271267    -0.024284991101    0.019589989597
            -0.405235229166    -0.868492267410    0.075372668761    0.037691290370    -0.024253263003    0.018761663818    0.083531643834    0.032821071414
            0.023611246637    -0.081149268798    -0.024253256803    0.018761699617    0.008918794964    -0.105783726868    -0.400120217886    -0.870842000259
            -0.024284987237    0.019590021464    0.083531646268    0.032821070688    -0.400120217886    -0.870842000259    0.076456933890    0.038606320985
0.450     -0.014502141992    -0.104830255996    -0.503415915368    -0.813729086286    0.004980166684    -0.084500224859    -0.023453320193    0.023662678389
            -0.503415910107    -0.813729077782    0.077038391474    0.040208492020    -0.023498495413    0.022633282937    0.085068611534    0.031766994928
            0.004980253172    -0.084500185702    -0.023498487186    0.022633314543    -0.013379190180    -0.106677191033    -0.498323045339    -0.816834870316
            -0.023453311511    0.023662710930    0.085068613962    0.031766994143    -0.498323050547    -0.816834878853    0.078327326199    0.040954596132
0.475     -0.037361498898    -0.100626611380    -0.594318686055    -0.747786851596    -0.014797926985    -0.083862529556    -0.021961698365    0.028036887919
            -0.594318686055    -0.747786851596    0.079597254657    0.043344797317    -0.022127273748    0.026744484969    0.086774620114    0.031352927253
            -0.014797926289    -0.083862525617    -0.022127256372    0.026744530494    -0.036308957154    -0.102921020600    -0.589363372678    -0.751677824488
            -0.021961685037    0.028036931386    0.086774623089    0.031352924904    -0.589363372678    -0.751677824488    0.081052958183    0.043876798995
0.500     -0.059718000957    -0.091588847887    -0.676612270065    -0.671620360023    -0.034817529142    -0.078974307210    -0.019590335400    0.032629303612
            -0.676612270065    -0.671620360023    0.083308842389    0.046853474947    -0.019981475844    0.031009662165    0.088928876085    0.031492910778
            -0.034817529142    -0.078974307210    -0.019981475844    0.031009662165    -0.058840058871    -0.094371021447    -0.671917492673    -0.676303667589
            -0.019590335400    0.032629303612    0.088928876085    0.031492910778    -0.671917492673    -0.676303667589    0.084885823666    0.047134457856
0.525     -0.080463022486    -0.077854200578    -0.749089116285    -0.586366096839    -0.054102327197    -0.069798469699    -0.016074057020    0.037174197264
            -0.749089116285    -0.586366096839    0.088361199306    0.050411989368    -0.016907875123    0.035293125001    0.091772783028    0.032010464033
            -0.054102231366    -0.069798471861    -0.016907873395    0.035293121394    -0.079912841792    -0.081118099643    -0.744780524621    -0.591830940204
            -0.016074006288    0.037174275854    0.091772786034    0.032010461489    -0.744780524621    -0.591830940204    0.090006665335    0.050407906539
0.550     -0.098583505687    -0.059895249458    -0.810714954538    -0.493325038788    -0.071715724498    -0.056569715420    -0.011412707751    0.041110651795
            -0.810714954538    -0.493325038788    0.094858441304    0.053649086188    -0.012797602241    0.039423419373    0.095484812047    0.032662471771
            -0.071715731231    -0.056569700426    -0.012797543535    0.039423496256    -0.098507270533    -0.063495138405    -0.806908326667    -0.499542923454
            -0.011412707751    0.041110651795    0.095484813757    0.032662466772    -0.806908326667    -0.499542923454    0.096493056794    0.053326337440
0.575     -0.113326326282    -0.038320666665    -0.860621322401    -0.393918373624    -0.086863838956    -0.039677091758    -0.006124721182    0.044236480390
            -0.860621322401    -0.393918373624    0.102801617859    0.056163179985    -0.007630818464    0.043192980306    0.100163779064    0.033176896316
            -0.086863840424    -0.039677074105    -0.007630753169    0.043193050739    -0.113702206742    -0.042060648384    -0.857442158353    -0.400855324458
            -0.006124687465    0.044236515344    0.100163781381    0.033176889323    -0.857442149294    -0.400855320223    0.104316987874    0.055530739332
0.600     -0.123960936353    -0.013758759154    -0.898141911854    -0.289694354364    -0.098790272381    -0.019618811095    -0.000246837017    0.046820615345
            -0.898141911854    -0.289694354364    0.112087523125    0.057551152558    -0.001481906247    0.046335462806    0.105861347229    0.033252582131
            -0.098790183641    -0.019618847238    -0.001481838488    0.046335521002    -0.124732058091    -0.017583674371    -0.895719394027    -0.297286741451
            -0.000246769497    0.046820673702    0.105861350711    0.033252571045    -0.895719394027    -0.297286741451    0.113402614959    0.056662707045
0.625     -0.129825417133    0.012886216952    -0.922858636487    -0.182289244285    -0.106821289553    0.002869360331    0.006435756874    0.048665100494
            -0.922858636487    -0.182289244285    0.122499805551    0.057435603511    0.005508875978    0.048538311192    0.112527126187    0.032553207141
            -0.106821211084    0.002869302252    0.005508907939    0.048538335744    -0.131021236642    0.008996598456    -0.921309432371    -0.190437686981
            0.006435791972    0.048665124097    0.112527127324    0.032553203213    -0.921309432371    -0.190437686981    0.123565258277    0.056350004580
0.650     -0.130549154603    0.040539487913    -0.934605731347    -0.073342193668    -0.110511869266    0.026898595921    0.013835766398    0.049407471450
            -0.934605731347    -0.073342193668    0.133734168512    0.055494248756    0.013149966979    0.049515061063    0.120017059843    0.030764890821
            -0.110511864571    0.026898615209    0.013150048127    0.049515108834    -0.132220668343    0.036637942947    -0.934028497056    -0.081929305703
            0.013835848008    0.049407517135    0.120017063065    0.030764878252    -0.934028497056    -0.081929305703    0.134514489477    0.054273820786
0.675     -0.126038905835    0.068093754483    -0.933443648950    0.035525799362    -0.109636390564    0.051523836616    0.021686204936    0.048781579553
            -0.933443648950    0.035525799362    0.145403692457    0.051482693948    0.021185562681    0.049049263964    0.128098119891    0.027618053626
            -0.109636354305    0.051523796215    0.021185601908    0.049049281879    -0.128219118908    0.064258694059    -0.933916779491    0.026633140150
            0.021686243477    0.048781597439    0.128098121337    0.027618046918    -0.933916779491    0.026633140150    0.145876192766    0.050196361816
0.700     -0.116454908672    0.094479261355    -0.919651605510    0.142767851608    -0.104193031749    0.075803296690    0.029649008339    0.046636995029
            -0.919651605510    0.142767851608    0.157073523934    0.045250842146    0.029301061062    0.047013654816    0.136482126929    0.022908037385
            -0.104193031749    0.075803296690    0.029301061062    0.047013654816    -0.119150480474    0.090801243459    -0.921232800198    0.133710301131
            0.029649009689    0.046636995355    0.136482126929    0.022908037385    -0.921232800198    0.133710301131    0.157230339050    0.043972875404
0.725     -0.102177905597    0.118708303885    -0.893700793678    0.246921204310    -0.094373311240    0.098837019272    0.037355126498    0.042929114489
            -0.893700793678    0.246921204310    0.168273706322    0.036754841816    0.037141330810    0.043374856739    0.144825511549    0.016502868282
            -0.094373311240    0.098837019272    0.037141330810    0.043374856739    -0.105369532116    0.115281777762    -0.896425391558    0.237852860504
            0.037355172422    0.042929124900    0.144825502046    0.016502863359    -0.896425391558    0.237852860504    0.168124195814    0.035559929342
0.750     -0.083778780362    0.139925332734    -0.856222481362    0.346658651691    -0.080549010792    0.119816624360    0.044436911951    0.037716775059
            -0.856222481362    0.346658651691    0.178538211733    0.026054682246    0.044345038987    0.038198026793    0.152769837150    0.008353818334
            -0.080548987070    0.119816543910    0.044345031956    0.038198028827    -0.087423659829    0.136840228767    -0.860102857662    0.337729539858
            0.044436904952    0.037716777124    0.152769837136    0.008353818601    -0.860102857662    0.337729539858    0.178108282633    0.025015496598
0.775     -0.061974662819    0.157431674912    -0.807979049250    0.440774770913    -0.063230237703    0.138043730373    0.050551344989    0.031154880169
            -0.807979049250    0.440774770913    0.187417697348    0.013314704941    0.050569984495    0.031642378461    0.159940547885    -0.001507276618
            -0.063230233539    0.138043721282    0.050569983095    0.031642378813    -0.066009803720    0.154769196302    -0.813009305708    0.432139298059
            0.050551438414    0.031154882964    0.159940537816    -0.001507283894    -0.813009296877    0.432139293366    0.186749812005    0.012496631500
