# GHz S RI R 45
0.000     0.011265201000    0.000000000000    -0.000090997338    0.000000000000    0.000434740820    -0.000000000000    -0.000101524110    0.000000000000
            -0.000090996878    0.000000000000    0.011375512000    0.000000000000    -0.000060340267    0.000000000000    0.000193406730    0.000000000000
            0.000434737760    -0.000000000000    -0.000060339417    0.000000000000    0.011178701000    0.000000000000    -0.000062788471    0.000000000000
            -0.000101523420    0.000000000000    0.000193409150    0.000000000000    -0.000062788858    0.000000000000    0.011194361000    0.000000000000
0.025     0.015165234130    0.010442332654    -0.000097924043    -0.000206599303    0.001980580699    0.009419451373    -0.000072695326    -0.000142167037
            -0.000097923591    -0.000206599373    0.014505611976    0.010798379679    -0.000104917377    -0.000286322484    0.001264683609    0.009837627644
            0.001980549946    0.009419498612    -0.000104916459    -0.000286322607    0.015097936866    0.010409929811    -0.000085363372    -0.000217979875
            -0.000072694725    -0.000142167086    0.001264563592    0.009837462498    -0.000085363903    -0.000217979774    0.014520868353    0.010887155171
0.050     0.020805714558    0.017723082724    -0.000190026023    -0.000428557975    0.006209185133    0.017933435609    -0.000132271060    -0.000334057270
            -0.000190025621    -0.000428558077    0.018353245012    0.018920246649    -0.000232900536    -0.000551973242    0.004095625885    0.019093359294
            0.006209168900    0.017933444405    -0.000232899699    -0.000551973411    0.020728046194    0.017675350143    -0.000183582018    -0.000433338893
            -0.000132270379    -0.000334057422    0.004095657161    0.019093347471    -0.000183582507    -0.000433338784    0.018403595240    0.018906078733
0.075     0.028418399056    0.023136888925    -0.000358453256    -0.000606490103    0.012798894876    0.024909741066    -0.000268279914    -0.000485209729
            -0.000358452671    -0.000606490321    0.023149209760    0.025963334317    -0.000438838786    -0.000770498584    0.008484245639    0.027505966617
            0.012798884353    0.024909741976    -0.000438837881    -0.000770498870    0.028331555013    0.023079913620    -0.000350067416    -0.000607598570
            -0.000268279352    -0.000485209914    0.008484253135    0.027505965351    -0.000350068127    -0.000607598334    0.023142381433    0.025890527682
0.100     0.037690186646    0.026112177822    -0.000576145994    -0.000729561395    0.021263815448    0.029795530122    -0.000446782788    -0.000587534507
            -0.000576145994    -0.000729561395    0.028819545297    0.031745924263    -0.000702968583    -0.000927674183    0.014186036586    0.034800470461
            0.021263813428    0.029795532792    -0.000702967814    -0.000927674515    0.037597924512    0.026055749968    -0.000563729667    -0.000729468576
            -0.000446781925    -0.000587534862    0.014186039016    0.034800469470    -0.000563730589    -0.000729468192    0.028725542218    0.031661104850
0.125     0.047877019098    0.026124173745    -0.000825753439    -0.000790284522    0.031008757911    0.032190113131    -0.000650903372    -0.000636236573
            -0.000825753019    -0.000790284672    0.035001200813    0.036084911700    -0.001007295043    -0.001013307944    0.020907124757    0.040801729556
            0.031008756920    0.032190115474    -0.001007294796    -0.001013308048    0.047785391911    0.026090286705    -0.000808326284    -0.000791288902
            -0.000650902953    -0.000636236830    0.020907126437    0.040801727571    -0.000808326284    -0.000791288902    0.034814427122    0.036038894306
0.150     0.058360339756    0.023132023758    -0.001090783469    -0.000786867164    0.041368234390    0.031801383199    -0.000866179490    -0.000630995606
            -0.001090783388    -0.000786867105    0.041427061449    0.039085215718    -0.001333393297    -0.001023808445    0.028319137599    0.045344792368
            0.041368234310    0.031801386584    -0.001333392523    -0.001023808961    0.058287302885    0.023123282295    -0.001067905896    -0.000791117168
            -0.000866178697    -0.000630996185    0.028319129678    0.045344793777    -0.001067905896    -0.000791117168    0.041148660630    0.039116543639
0.175     0.068284334885    0.017035006425    -0.001356196910    -0.000720456409    0.051625948663    0.028529701575    -0.001079638855    -0.000573845104
            -0.001356196910    -0.000720456409    0.047764959851    0.040772718216    -0.001664094230    -0.000959382097    0.036068629085    0.048385121768
            0.051625949418    0.028529704344    -0.001664093382    -0.000959382769    0.068251047390    0.017054730891    -0.001327913154    -0.000730206625
            -0.001079638190    -0.000573845717    0.036068630774    0.048385120509    -0.001327913456    -0.000730206490    0.047416936913    0.040920628617
0.200     0.076841448503    0.008001534939    -0.001609959751    -0.000595378009    0.061071584725    0.022445534987    -0.001281447878    -0.000469322762
            -0.001609959064    -0.000595378713    0.053696489877    0.041289211958    -0.001985154383    -0.000824070580    0.043816457883    0.049969061723
            0.061071585818    0.022445537809    -0.001985153582    -0.000824071467    0.076872104634    0.008049078865    -0.001576696206    -0.000613031476
            -0.001281447175    -0.000469323519    0.043816450013    0.049969063304    -0.001576696206    -0.000613031476    0.053313621966    0.041584846819
0.225     0.083293015008    -0.003615382706    -0.001841806687    -0.000417273655    0.069027577140    0.013776290928    -0.001463408621    -0.000323017451
            -0.001841806321    -0.000417273911    0.058967491024    0.040855853371    -0.002284405522    -0.000623585642    0.051255624351    0.050217706940
            0.069027577640    0.013776293533    -0.002284404906    -0.000623586759    0.083414151171    -0.003547841914    -0.001804639726    -0.000445441471
            -0.001463408005    -0.000323018386    0.051255625227    0.050217706045    -0.001804639726    -0.000445441471    0.058594482114    0.041317813042
0.250     0.087013587820    -0.017292203274    -0.002044383812    -0.000192523991    0.074886755334    0.002894885184    -0.001620149043    -0.000140867120
            -0.002044383213    -0.000192525014    0.063403961068    0.039763433759    -0.002552825030    -0.000364718280    0.058130628295    0.049321400553
            0.074886757236    0.002894887745    -0.002552824507    -0.000364719115    0.087251940517    -0.017220177817    -0.002005130424    -0.000233979947
            -0.001620148571    -0.000140867933    0.058130629156    0.049321399538    -0.002005130903    -0.000233979293    0.063089833064    0.040396838590
0.275     0.087502121912    -0.032376023481    -0.002211543886    0.000072340104    0.078131843847    -0.009697080181    -0.001747408745    0.000071241673
            -0.002211543886    0.000072340104    0.066927170473    0.038325711192    -0.002782910528    -0.000054401051    0.064246937622    0.047517331091
            0.078131846069    -0.009697078519    -0.002782910328    -0.000054401047    0.087882919916    -0.032323543229    -0.002173054680    0.000014905529
            -0.001747408658    0.000071241364    0.064246938451    0.047517329969    -0.002173054978    0.000014905910    0.066721865523    0.039120772995
0.300     0.084422218940    -0.048110638623    -0.002338958595    0.000371219642    0.078367087094    -0.023393237916    -0.001842608539    0.000308158481
            -0.002338958132    0.000371218732    0.069553030115    0.036866079468    -0.002969196526    0.000300821981    0.069484089330    0.045079122868
            0.078367089419    -0.023393237121    -0.002969192889    0.000300813236    0.084966010461    -0.048110443645    -0.002305215578    0.000295465231
            -0.001842608153    0.000308157755    0.069484090117    0.045079121656    -0.002305215578    0.000295465231    0.069503048690    0.037798905254
0.325     0.077603529955    -0.063672315649    -0.002422658072    0.000698175185    0.075330283702    -0.037503155969    -0.001903459725    0.000565095106
            -0.002422658072    0.000698175185    0.071386635537    0.035678593351    -0.003106639661    0.000694765797    0.073795489783    0.042291474866
            0.075330286147    -0.037503155545    -0.003106639661    0.000694765797    0.078324172205    -0.063764630731    -0.002398877686    0.000602586693
            -0.001903459725    0.000565095106    0.073795490521    0.042291473578    -0.002398877686    0.000602586693    0.071531566915    0.036712658483
0.350     0.067067155659    -0.078210911936    -0.002459422532    0.001047791868    0.068915938258    -0.051287587128    -0.001928242149    0.000838081426
            -0.002459422532    0.001047791868    0.072614333586    0.035018887058    -0.003190946756    0.001121892809    0.077216642105    0.039438299423
            0.068915940758    -0.051287587119    -0.003190946756    0.001121892809    0.067969318372    -0.078442124605    -0.002451876713    0.000932135760
            -0.001928242149    0.000838081426    0.077216642793    0.039438298075    -0.002451876713    0.000932135760    0.072983447264    0.036107247802
0.375     0.053018399540    -0.090881884837    -0.002445794007    0.001414431447    0.059179502702    -0.063981795436    -0.001914887054    0.001123195664
            -0.002445794007    0.001414431447    0.073485126169    0.035073660017    -0.003217346871    0.001576576984    0.079853351563    0.036774928964
            0.059179505176    -0.063981795871    -0.003217346871    0.001576576984    0.054095384024    -0.091302437043    -0.002461556294    0.001280279364
            -0.001914887054    0.001123195664    0.079853353113    0.036774927989    -0.002461556294    0.001280279364    0.074095093102    0.036162101152
0.400     0.035852099056    -0.100895697338    -0.002378503029    0.001792382009    0.046347881209    -0.074841518378    -0.001861200060    0.001416709019
            -0.002378503029    0.001792382009    0.074297381486    0.035957211627    -0.003180995053    0.002053104013    0.081882710768    0.034518310347
            0.046347884095    -0.074841520120    -0.003180995053    0.002053104013    0.037084405461    -0.101557386834    -0.002424878489    0.001643496199
            -0.001861200060    0.001416709019    0.081882713214    0.034518309694    -0.002424878406    0.001643496143    0.075150625984    0.036987746260
0.425     0.016136224698    -0.107548736319    -0.002254063174    0.002174970974    0.030812281089    -0.083167909439    -0.001764515272    0.001714203239
            -0.002254063174    0.002174970974    0.075372668761    0.037691290370    -0.003076366200    0.002544673124    0.083531643834    0.032821071414
            0.030812283583    -0.083167911715    -0.003076366785    0.002544668182    0.017490575753    -0.108501054414    -0.002337936926    0.002017574556
            -0.001764515272    0.001714203239    0.083531646268    0.032821070688    -0.002337936926    0.002017574556    0.076456933890    0.038606320985
0.450     -0.005405858267    -0.110271293119    -0.002069321241    0.002554651265    0.013120117301    -0.088357715824    -0.001622106991    0.002010603666
            -0.002069321241    0.002554651265    0.077038391474    0.040208492020    -0.002897964482    0.003043244391    0.085068611534    0.031766994928
            0.013120119137    -0.088357717573    -0.002897963951    0.003043244897    -0.003977391583    -0.111558209426    -0.002196356716    0.002397468903
            -0.001622106991    0.002010603666    0.085068613962    0.031766994143    -0.002196356716    0.002397468903    0.078327326199    0.040954596132
0.475     -0.027924823029    -0.108652772385    -0.001821676048    0.002922278688    -0.006045336662    -0.089926237660    -0.001431327383    0.002299415362
            -0.001821676048    0.002922278688    0.079597254657    0.043344797317    -0.002640427222    0.003538665521    0.086774620114    0.031352927253
            -0.006045335361    -0.089926241756    -0.002640427222    0.003538665521    -0.026483746596    -0.110309944691    -0.001995430138    0.002776336655
            -0.001431327383    0.002299415362    0.086774623089    0.031352924904    -0.001995430138    0.002776336655    0.081052958183    0.043876798995
0.500     -0.050484950954    -0.102477713488    -0.001509790937    0.003267443528    -0.025896915874    -0.087551134587    -0.001190266357    0.002572914908
            -0.001509790937    0.003267443528    0.083308842389    0.046853474947    -0.002299553874    0.004018802030    0.088928876085    0.031492910778
            -0.025896915874    -0.087551134587    -0.002299553923    0.004018802117    -0.049105439067    -0.104529530371    -0.001730910944    0.003145510657
            -0.001190265866    0.002572915025    0.088928876085    0.031492910778    -0.001730907249    0.003145519539    0.084885823666    0.047134457856
0.525     -0.072107948868    -0.091736691510    -0.001134108091    0.003578190664    -0.045577469582    -0.081083645709    -0.000898287583    0.002821770325
            -0.001134108031    0.003578190474    0.088361199306    0.050411989368    -0.001872982146    0.004469061737    0.091772783028    0.032010464033
            -0.045577470562    -0.081083647452    -0.001872982146    0.004469061737    -0.070873397016    -0.094196203549    -0.001399757573    0.003493979421
            -0.000898287091    0.002821770482    0.091772786034    0.032010461489    -0.001399755676    0.003493983521    0.090006665335    0.050407906539
0.550     -0.091830608594    -0.076641104374    -0.000697584970    0.003841958226    -0.064212654295    -0.070574600511    -0.000556791661    0.003035730410
            -0.000697584970    0.003841958226    0.094858441304    0.053649086188    -0.001361355012    0.004873293845    0.095484812047    0.032662471771
            -0.064212647361    -0.070574617636    -0.001361355012    0.004873293845    -0.090826660871    -0.079508082876    -0.001001296284    0.003808875361
            -0.000556792245    0.003035730607    0.095484813757    0.032662466772    -0.001001296385    0.003808875748    0.096493056794    0.053326337440
0.575     -0.108753921347    -0.057616094802    -0.000206117645    0.004046059596    -0.080951499333    -0.056268331536    -0.000169713705    0.003204331302
            -0.000206117716    0.004046059592    0.102801617859    0.056163179985    -0.000768879708    0.005214189301    0.100163779064    0.033176896316
            -0.080951499333    -0.056268331536    -0.000768879617    0.005214189315    -0.108060023475    -0.060873835702    -0.000537872814    0.004076298935
            -0.000169713705    0.003204331302    0.100163781381    0.033176889323    -0.000537872814    0.004076298935    0.104316987874    0.055530739332
0.600     -0.122095237105    -0.035288770200    0.000331236754    0.004178855624    -0.095022949008    -0.038602071508    0.000256574729    0.003317663161
            0.000331236689    0.004178855730    0.112087523125    0.057551152558    -0.000103769094    0.005474756663    0.105861347229    0.033252582131
            -0.095022958273    -0.038602075271    -0.000103768998    0.005474756665    -0.121781047711    -0.038897260169    -0.000014816963    0.004282242866
            0.000256574729    0.003317663161    0.105861350711    0.033252571045    -0.000014816963    0.004282242866    0.113402614959    0.056662707045
0.625     -0.131220634081    -0.010450767698    0.000902158002    0.004230051358    -0.105763998699    -0.018175726300    0.000712833512    0.003366458949
            0.000902157813    0.004230051194    0.122499805551    0.057435603511    0.000621445355    0.005638844552    0.112527126187    0.032553207141
            -0.105763998699    -0.018175726300    0.000621445443    0.005638844442    -0.131347136597    -0.014345691716    0.000558877657    0.004412721358
            0.000712833630    0.003366458924    0.112527127324    0.032553203213    0.000558877657    0.004412721358    0.123565258277    0.056350004580
0.650     -0.135686358383    0.015988607309    0.001491744525    0.004192123044    -0.112668194036    0.004280834955    0.001187258344    0.003343550684
            0.001491744632    0.004192123113    0.133734168512    0.055494248756    0.001390204129    0.005693119951    0.120017059843    0.030764890821
            -0.112668194036    0.004280834955    0.001390204105    0.005693119854    -0.136305715998    0.011890254628    0.001170379114    0.004455713816
            0.001187258461    0.003343550643    0.120017063065    0.030764878252    0.001170379166    0.004455713699    0.134514489477    0.054273820786
0.675     -0.135254865092    0.043052552147    0.002083160032    0.004060720318    -0.115394561991    0.027951400281    0.001666137728    0.003244348789
            0.002083160032    0.004060720318    0.145403692457    0.051482693948    0.002182523711    0.005627623459    0.128098119891    0.027618053626
            -0.115394600904    0.027951367063    0.002182523711    0.005627623459    -0.136407496503    0.038846093097    0.001803603607    0.004401897048
            0.001666137876    0.003244348938    0.128098121337    0.027618046918    0.001803603606    0.004401897264    0.145876192766    0.050196361816
0.700     -0.129910693564    0.069751414081    0.002658965667    0.003835508042    -0.113796080293    0.051981423943    0.002134898364    0.003067652737
            0.002658965734    0.003835507995    0.157073523934    0.045250842146    0.002976350114    0.005437183362    0.136482126929    0.022908037385
            -0.113796089389    0.051981428098    0.002976350209    0.005437183310    -0.131619744714    0.065537990469    0.002440355390    0.004245873414
            0.002134898417    0.003067652700    0.136482126929    0.022908037385    0.002440355316    0.004245873457    0.157230339050    0.043972875404
0.725     -0.119845538239    0.095128354893    0.003201838603    0.003519951778    -0.107901605321    0.075517234183    0.002578849287    0.002815524206
            0.003201838597    0.003519951649    0.168273706322    0.036754841816    0.003748513101    0.005121296613    0.144825511549    0.016502868282
            -0.107901605321    0.075517234183    0.003748508533    0.005121295247    -0.122114747753    0.091011714485    0.003061181752    0.003986250254
            0.002578849287    0.002815524206    0.144825502046    0.016502863359    0.003061181622    0.003986250228    0.168124195814    0.035559929342
0.750     -0.105444160414    0.118309220952    0.003695938146    0.003121326964    -0.097918235096    0.097754547670    0.002984288053    0.002493378371
            0.003695929016    0.003121325221    0.178538211733    0.026054682246    0.004476483024    0.004684659506    0.152769837150    0.008353818334
            -0.097918235096    0.097754547670    0.004476482967    0.004684659283    -0.108256160306    0.114391385285    0.003646804472    0.003626114168
            0.002984288217    0.002493378331    0.152769837136    0.008353818601    0.003646804472    0.003626114168    0.178108282633    0.025015496598
0.775     -0.087250122030    0.138534219300    0.004127407692    0.002649915175    -0.084197922156    0.117961638394    0.003339073583    0.002109338024
            0.004127407739    0.002649915103    0.187417697348    0.013314704941    0.005139122373    0.004136404491    0.159940547885    -0.001507276618
            -0.084197922156    0.117961638394    0.005139122373    0.004136404491    -0.090567342828    0.134911798882    0.004178933312    0.003172502784
            0.003339073535    0.002109337912    0.159940537816    -0.001507283894    0.004178933233    0.003172502724    0.186749812005    0.012496631500
