# GHz S RI R 45
0.000     0.011557868000    0.000000000000    0.000000683562    0.000000000000    0.000469568350    -0.000000000000    -0.000009451730    0.000000000000
            0.000000683629    0.000000000000    0.011375512000    0.000000000000    0.000001102069    0.000000000000    0.000193406730    0.000000000000
            0.000469568360    -0.000000000000    0.000001102195    0.000000000000    0.011376604000    0.000000000000    -0.000032127712    0.000000000000
            -0.000009451707    0.000000000000    0.000193409150    0.000000000000    -0.000032127673    0.000000000000    0.011194361000    0.000000000000
0.025     0.015327200205    0.009928850404    -0.000015966914    -0.000062769806    0.001864453450    0.008851426293    -0.000014556934    -0.000059466668
            -0.000015966878    -0.000062769803    0.014505611976    0.010798379679    -0.000015805740    -0.000065829924    0.001264683609    0.009837627644
            0.001864426780    0.008851472788    -0.000015805611    -0.000065829944    0.015269526442    0.009902231566    -0.000008998645    -0.000047018049
            -0.000014556838    -0.000059466677    0.001264563592    0.009837462498    -0.000008998693    -0.000047018034    0.014520868353    0.010887155171
0.050     0.020668746626    0.016782259361    -0.000044535529    -0.000112821529    0.005740533706    0.016888113379    -0.000040259477    -0.000118827716
            -0.000044535529    -0.000112821529    0.018353245012    0.018920246649    -0.000045863699    -0.000118828420    0.004095625885    0.019093359294
            0.005740519934    0.016888121229    -0.000045863613    -0.000118828442    0.020606143646    0.016743214243    -0.000025283468    -0.000124320640
            -0.000040259391    -0.000118827734    0.004095657161    0.019093347471    -0.000025283512    -0.000124320632    0.018403595240    0.018906078733
0.075     0.027804747469    0.021840051943    -0.000085067395    -0.000154927834    0.011783353099    0.023493702145    -0.000083814916    -0.000168145077
            -0.000085067395    -0.000154927834    0.023149209760    0.025963334317    -0.000088744546    -0.000163218044    0.008484245639    0.027505966617
            0.011783345155    0.023493701655    -0.000088744418    -0.000163218080    0.027741961877    0.021792989286    -0.000073062463    -0.000187090191
            -0.000083814858    -0.000168145106    0.008484253135    0.027505965351    -0.000073062529    -0.000187090165    0.023142381433    0.025890527682
0.100     0.036431128209    0.024593124636    -0.000136523941    -0.000186141198    0.019528873374    0.028166616509    -0.000140450861    -0.000204464512
            -0.000136523831    -0.000186141253    0.028819545297    0.031745924263    -0.000143134005    -0.000195916287    0.014186036586    0.034800470461
            0.019528872882    0.028166616850    -0.000143133845    -0.000195916355    0.036374561706    0.024543986406    -0.000137977639    -0.000232433685
            -0.000140450784    -0.000204464552    0.014186039016    0.034800469470    -0.000137977599    -0.000232433709    0.028725542218    0.031661104850
0.125     0.045836673632    0.024570200225    -0.000196136391    -0.000204258004    0.028423571136    0.030549275573    -0.000206364425    -0.000225739251
            -0.000196136349    -0.000204258031    0.035001200813    0.036084911700    -0.000205998063    -0.000214687424    0.020907124757    0.040801729556
            0.028423571136    0.030549275573    -0.000205997960    -0.000214687467    0.045793369313    0.024533932303    -0.000213772365    -0.000259008056
            -0.000206364333    -0.000225739309    0.020907126437    0.040801727571    -0.000213772455    -0.000259007982    0.034814427122    0.036038894306
0.150     0.055463259862    0.021744819318    -0.000260659790    -0.000208187394    0.037850092864    0.030375091663    -0.000277816486    -0.000230998642
            -0.000260659790    -0.000208187394    0.041427061449    0.039085215718    -0.000273862081    -0.000218409463    0.028319137599    0.045344792368
            0.037850092864    0.030375091663    -0.000273861920    -0.000218409569    0.055451406810    0.021720741742    -0.000295761767    -0.000266360991
            -0.000277816390    -0.000230998727    0.028319129678    0.045344793777    -0.000295761874    -0.000266360901    0.041148660630    0.039116543639
0.175     0.064495201899    0.016037030727    -0.000327001339    -0.000197640969    0.047143702570    0.027561996751    -0.000351252731    -0.000220057499
            -0.000327001287    -0.000197641016    0.047764959851    0.040772718216    -0.000343415459    -0.000206868002    0.036068629085    0.048385121768
            0.047143702570    0.027561996751    -0.000343415352    -0.000206868101    0.064534343117    0.016022212146    -0.000379497013    -0.000254772084
            -0.000351252667    -0.000220057544    0.036068630774    0.048385120509    -0.000379497066    -0.000254772023    0.047416936913    0.040920628617
0.200     0.072172071186    0.007622237952    -0.000392402162    -0.000173017047    0.055646669998    0.022186886836    -0.000423636087    -0.000193422953
            -0.000392402162    -0.000173017047    0.053696489877    0.041289211958    -0.000411769234    -0.000180571255    0.043816457883    0.049969061723
            0.055646669998    0.022186886836    -0.000411769234    -0.000180571255    0.072282643116    0.007609570658    -0.000461538377    -0.000225160558
            -0.000423636087    -0.000193422953    0.043816450013    0.049969063304    -0.000461538377    -0.000225160558    0.053313621966    0.041584846819
0.225     0.077802793860    -0.003148819659    -0.000454476486    -0.000135082072    0.062733921933    0.014473476130    -0.000492282031    -0.000151995158
            -0.000454476486    -0.000135082072    0.058967491024    0.040855853371    -0.000476424260    -0.000140404983    0.051255624351    0.050217706940
            0.062733921933    0.014473476130    -0.000476423965    -0.000140405348    0.078005638018    -0.003172613995    -0.000538784221    -0.000178898219
            -0.000492281736    -0.000151995538    0.051255625227    0.050217706045    -0.000538784497    -0.000178897893    0.058594482114    0.041317813042
0.250     0.080806174891    -0.015763358682    -0.000511273340    -0.000084851813    0.067848197235    0.004781655333    -0.000555042569    -0.000096904875
            -0.000511273340    -0.000084851813    0.063403961068    0.039763433759    -0.000535385445    -0.000087499455    0.058130628295    0.049321400553
            0.067848197235    0.004781655333    -0.000535385435    -0.000087499454    0.081120682019    -0.015818064168    -0.000608960493    -0.000117468811
            -0.000555042589    -0.000096904879    0.058130629156    0.049321399538    -0.000608960512    -0.000117468815    0.063089833064    0.040396838590
0.275     0.080723484309    -0.029585696567    -0.000561129656    -0.000023408323    0.070519374322    -0.006408674807    -0.000610034074    -0.000029383677
            -0.000561129656    -0.000023408323    0.066927170473    0.038325711192    -0.000586953520    -0.000023042896    0.064246937622    0.047517331091
            0.070519374322    -0.006408674807    -0.000586953510    -0.000023042895    0.081165966366    -0.029697769525    -0.000670042325    -0.000042492812
            -0.000610033874    -0.000029384094    0.064246938451    0.047517329969    -0.000670042335    -0.000042492813    0.066721865523    0.039120772995
0.300     0.077256056625    -0.043883057645    -0.000602661448    0.000048163997    0.070393402467    -0.018520113371    -0.000655699442    0.000049357762
            -0.000602661448    0.000048163997    0.069553030115    0.036866079468    -0.000629747750    0.000051797595    0.069484089330    0.045079122868
            0.070393402467    -0.018520113371    -0.000629747750    0.000051797595    0.077837507550    -0.044085888924    -0.000720477861    0.000044572215
            -0.000655699442    0.000049357762    0.069484090117    0.045079121656    -0.000720477861    0.000044572215    0.069503048690    0.037798905254
0.325     0.070268363511    -0.057860996975    -0.000634552104    0.000128813120    0.067245685341    -0.030898422890    -0.000690535856    0.000138084830
            -0.000634552104    0.000128813120    0.071386635537    0.035678593351    -0.000662454230    0.000135897500    0.073795489783    0.042291474866
            0.067245685341    -0.030898422890    -0.000662454230    0.000135897500    0.070992336430    -0.058193298121    -0.000758756390    0.000142225489
            -0.000690535856    0.000138084830    0.073795490521    0.042291473578    -0.000758756390    0.000142225489    0.071531566915    0.036712658483
0.350     0.059811332734    -0.070703021602    -0.000655553588    0.000217502719    0.061001394219    -0.042845473482    -0.000713143231    0.000235585869
            -0.000655553578    0.000217502716    0.072614333586    0.035018887058    -0.000683841413    0.000228177528    0.077216642105    0.039438299423
            0.061001394219    -0.042845473482    -0.000683841235    0.000228176672    0.060672429947    -0.071207497952    -0.000783517226    0.000249106017
            -0.000713143231    0.000235585869    0.077216642793    0.039438298075    -0.000783517216    0.000249106014    0.072983447264    0.036107247802
0.375     0.046115884692    -0.081603915153    -0.000664300021    0.000313108520    0.051741208503    -0.053643538365    -0.000722013119    0.000340503314
            -0.000664300030    0.000313108525    0.073485126169    0.035073660017    -0.000692550249    0.000327477181    0.079853351563    0.036774928964
            0.051741208503    -0.053643538365    -0.000692550249    0.000327477181    0.047097741537    -0.082324821275    -0.000793277386    0.000363687424
            -0.000722013089    0.000340502838    0.079853353113    0.036774927989    -0.000793277386    0.000363687424    0.074095093102    0.036162101152
0.400     0.029597113172    -0.089817165341    -0.000659387472    0.000414351315    0.039709293560    -0.062598690045    -0.000715638359    0.000451315401
            -0.000659387472    0.000414351315    0.074297381486    0.035957211627    -0.000687178937    0.000432501360    0.081882710768    0.034518310347
            0.039709293560    -0.062598690045    -0.000687178937    0.000432501360    0.030671423263    -0.090797761948    -0.000786544255    0.000484362443
            -0.000715638359    0.000451315401    0.081882713214    0.034518309694    -0.000786544255    0.000484362443    0.075150625984    0.036987746260
0.425     0.010837543623    -0.094687165408    -0.000639291158    0.000519612498    0.025307977897    -0.069067260706    -0.000692431527    0.000566117645
            -0.000639291158    0.000519612498    0.075372668761    0.037691290370    -0.000666186998    0.000541617932    0.083531643834    0.032821071414
            0.025307977897    -0.069067260706    -0.000666186998    0.000541617932    0.011963809311    -0.095966682419    -0.000761735797    0.000609111602
            -0.000692431535    0.000566117652    0.083531646268    0.032821070688    -0.000761735804    0.000609111609    0.076456933890    0.038606320985
0.450     -0.009431682527    -0.095695712245    -0.000602548543    0.000626877041    0.009086633933    -0.072503157294    -0.000650916760    0.000682604685
            -0.000602548543    0.000626877041    0.077038391474    0.040208492020    -0.000628084951    0.000652802244    0.085068611534    0.031766994928
            0.009086633933    -0.072503157294    -0.000628084944    0.000652802236    -0.008306270101    -0.097305764207    -0.000717349923    0.000735554343
            -0.000650916760    0.000682604685    0.085068613962    0.031766994143    -0.000717349923    0.000735554343    0.078327326199    0.040954596132
0.475     -0.030361162900    -0.092488150685    -0.000547820273    0.000733580789    -0.008277636019    -0.072482824547    -0.000589803098    0.000797907258
            -0.000547820267    0.000733580781    0.079597254657    0.043344797317    -0.000571487051    0.000763470702    0.086774620114    0.031352927253
            -0.008277636019    -0.072482824547    -0.000571487405    0.000763469787    -0.029300858783    -0.094450444102    -0.000652071012    0.000860711786
            -0.000589803361    0.000797906740    0.086774623089    0.031352924904    -0.000652071012    0.000860711786    0.081052958183    0.043876798995
0.500     -0.051024177800    -0.084907683105    -0.000474184066    0.000836655563    -0.026014416324    -0.068745313094    -0.000508270732    0.000908655610
            -0.000474184066    0.000836655563    0.083308842389    0.046853474947    -0.000495415839    0.000870524199    0.088928876085    0.031492910778
            -0.026014416324    -0.068745313094    -0.000495415839    0.000870524199    -0.050103013726    -0.087231276166    -0.000565023297    0.000981109999
            -0.000508270732    0.000908655610    0.088928876085    0.031492910778    -0.000565023297    0.000981109999    0.084885823666    0.047134457856
0.525     -0.070462255440    -0.073006054412    -0.000381260761    0.000932457106    -0.043294508863    -0.061205425375    -0.000406113829    0.001010917897
            -0.000381260761    0.000932457106    0.088361199306    0.050411989368    -0.000399442340    0.000970275067    0.091772783028    0.032010464033
            -0.043294508863    -0.061205425375    -0.000399442340    0.000970275067    -0.069760173137    -0.075687782668    -0.000455978396    0.001092681222
            -0.000406114043    0.001010917918    0.091772786034    0.032010461489    -0.000455978396    0.001092681222    0.090006665335    0.050407906539
0.550     -0.087743518644    -0.057054403804    -0.000269483570    0.001017073769    -0.059283610283    -0.049973731694    -0.000284018117    0.001100529249
            -0.000269483570    0.001017073769    0.094858441304    0.053649086188    -0.000283969102    0.001058725656    0.095484812047    0.032662471771
            -0.059283610283    -0.049973731694    -0.000283969076    0.001058725559    -0.087340527755    -0.060077702982    -0.000325611205    0.001191081045
            -0.000284018117    0.001100529249    0.095484813757    0.032662466772    -0.000325610532    0.001191081851    0.096493056794    0.053326337440
0.575     -0.102013413033    -0.037535103482    -0.000140216257    0.001086492121    -0.073184539326    -0.035350995456    -0.000143655852    0.001173351468
            -0.000140216257    0.001086492121    0.102801617859    0.056163179985    -0.000150347657    0.001131725372    0.100163779064    0.033176896316
            -0.073184539326    -0.035350995456    -0.000150347657    0.001131725372    -0.101980829637    -0.040867919727    -0.000175638728    0.001271934576
            -0.000143655852    0.001173351468    0.100163781381    0.033176889323    -0.000175638728    0.001271934576    0.104316987874    0.055530739332
0.600     -0.112547254215    -0.015123605376    0.000004152585    0.001136964317    -0.084292923311    -0.017820917210    0.000012334780    0.001225557929
            0.000004152605    0.001136964317    0.112087523125    0.057551152558    -0.000000942662    0.001185352025    0.105861347229    0.033252582131
            -0.084292923311    -0.017820917210    -0.000000942662    0.001185352025    -0.112943792722    -0.018713480559    -0.000008722931    0.001331142120
            0.000012334045    0.001225557236    0.105861350711    0.033252571045    -0.000008722931    0.001331142120    0.113402614959    0.056662707045
0.625     -0.118783163234    0.009349146928    0.000160211158    0.001165125725    -0.092026203808    0.001980845983    0.000180262946    0.001253726840
            0.000160211158    0.001165125725    0.122499805551    0.057435603511    0.000160853366    0.001216066915    0.112527126187    0.032553207141
            -0.092026203808    0.001980845983    0.000160852932    0.001216066569    -0.119655875219    0.005576292033    0.000171395387    0.001365017844
            0.000180262946    0.001253726840    0.112527127324    0.032553203213    0.000171395387    0.001365017844    0.123565258277    0.056350004580
0.650     -0.120359524998    0.034949633607    0.000323717093    0.001168455943    -0.095966563275    0.023305457415    0.000355592125    0.001255323479
            0.000323717113    0.001168455937    0.133734168512    0.055494248756    0.000330768905    0.001221189581    0.120017059843    0.030764890821
            -0.095966563275    0.023305457415    0.000330768082    0.001221189079    -0.121743104236    0.031083391078    0.000360070110    0.001370799222
            0.000355592147    0.001255323473    0.120017063065    0.030764878252    0.000360070110    0.001370799222    0.134514489477    0.054273820786
0.675     -0.117128778623    0.060692785832    0.000489814781    0.001145386295    -0.095870088411    0.045335435393    0.000533181683    0.001228842720
            0.000489814801    0.001145386286    0.145403692457    0.051482693948    0.000503860781    0.001199006582    0.128098119891    0.027618053626
            -0.095870088411    0.045335435393    0.000503860351    0.001199006437    -0.119044081336    0.056831952063    0.000551979907    0.001346761885
            0.000533180804    0.001228842339    0.128098121337    0.027618046918    0.000551979907    0.001346761885    0.145876192766    0.050196361816
0.700     -0.109166466552    0.085600151236    0.000653438448    0.001095576026    -0.091685981777    0.067235457110    0.000707710124    0.001174057111
            0.000653438467    0.001095576015    0.157073523934    0.045250842146    0.000674918285    0.001149042532    0.136482126929    0.022908037385
            -0.091685981777    0.067235457110    0.000674917389    0.001149042246    -0.111616004375    0.081846111550    0.000741556264    0.001292491639
            0.000707710124    0.001174057111    0.136482126929    0.022908037385    0.000741556264    0.001292491639    0.157230339050    0.043972875404
0.725     -0.096753981719    0.108745402580    0.000809543985    0.001019801900    -0.083537672271    0.088191577896    0.000873926022    0.001091906601
            0.000809543985    0.001019801900    0.168273706322    0.036754841816    0.000838710032    0.001071962929    0.144825511549    0.016502868282
            -0.083537672271    0.088191577896    0.000838710032    0.001071962929    -0.099720684589    0.105198490566    0.000923244323    0.001208770961
            0.000873926022    0.001091906601    0.144825502046    0.016502863359    0.000923244344    0.001208770945    0.168124195814    0.035559929342
0.750     -0.080356916062    0.129303530666    0.000953532243    0.000919978218    -0.071716111344    0.107458387564    0.001027069762    0.000984471541
            0.000953532243    0.000919978218    0.178538211733    0.026054682246    0.000990423659    0.000969597231    0.152769837150    0.008353818334
            -0.071716111344    0.107458387564    0.000990423659    0.000969597231    -0.083803314434    0.126058363090    0.001091944363    0.001097578091
            0.001027069762    0.000984471541    0.152769837136    0.008353818601    0.001091944433    0.001097578162    0.178108282633    0.025015496598
0.775     -0.060589385114    0.146579460612    0.001081384037    0.000798896977    -0.056645464329    0.124379957721    0.001162990526    0.000854717804
            0.001081384037    0.000798896977    0.187417697348    0.013314704941    0.001125800438    0.000844700204    0.159940547885    -0.001507276618
            -0.056645464329    0.124379957721    0.001125800438    0.000844700204    -0.064459286808    0.143721693437    0.001243172442    0.000961855097
            0.001162990526    0.000854717804    0.159940537816    -0.001507283894    0.001243172442    0.000961855097    0.186749812005    0.012496631500
