# GHz S RI R 45
0.000     0.010874456000    0.000000000000    -0.000043974951    0.000000000000    0.000388485580    -0.000000000000    -0.000033289402    0.000000000000
            -0.000043975295    0.000000000000    0.011375512000    0.000000000000    -0.000020506651    0.000000000000    0.000193406730    0.000000000000
            0.000388402570    -0.000000000000    -0.000020506345    0.000000000000    0.010834662000    0.000000000000    -0.000016425886    0.000000000000
            -0.000033289605    0.000000000000    0.000193409150    0.000000000000    -0.000016426209    0.000000000000    0.011194361000    0.000000000000
0.025     0.014732585737    0.010201252967    -0.000033526677    -0.000050080380    0.001906038089    0.009151475381    -0.000035502702    -0.000050632831
            -0.000033526871    -0.000050080367    0.014505611976    0.010798379679    -0.000036164801    -0.000075892177    0.001264683609    0.009837627644
            0.001905926190    0.009151534233    -0.000036164521    -0.000075892203    0.014664576043    0.010134493807    -0.000034510954    -0.000066767307
            -0.000035502856    -0.000050632807    0.001264563592    0.009837462498    -0.000034511214    -0.000066767266    0.014520868353    0.010887155171
0.050     0.020226922487    0.017324304179    -0.000053664657    -0.000118677435    0.006008360297    0.017420826285    -0.000058464180    -0.000104966401
            -0.000053664864    -0.000118677396    0.018353245012    0.018920246649    -0.000070312274    -0.000142563945    0.004095625885    0.019093359294
            0.006008266931    0.017420857428    -0.000070311995    -0.000142564005    0.020141300932    0.017199427352    -0.000065556389    -0.000120749247
            -0.000058464374    -0.000104966361    0.004095657161    0.019093347471    -0.000065556659    -0.000120749191    0.018403595240    0.018906078733
0.075     0.027647689980    0.022670433051    -0.000101208763    -0.000173151346    0.012403339056    0.024234343620    -0.000100509942    -0.000147941983
            -0.000101208833    -0.000173151328    0.023149209760    0.025963334317    -0.000123362839    -0.000197524208    0.008484245639    0.027505966617
            0.012403258886    0.024234376788    -0.000123362521    -0.000197524312    0.027534148071    0.022496964427    -0.000111070112    -0.000164984926
            -0.000100510099    -0.000147941937    0.008484253135    0.027505965351    -0.000111070324    -0.000164984868    0.023142381433    0.025890527682
0.100     0.036720210509    0.025691191951    -0.000163920745    -0.000210856860    0.020645404748    0.029064056023    -0.000154478608    -0.000177070049
            -0.000163920837    -0.000210856826    0.028819545297    0.031745924263    -0.000191013578    -0.000237131523    0.014186036586    0.034800470461
            0.020645332429    0.029064102487    -0.000191013219    -0.000237131671    0.036574570922    0.025484859673    -0.000168427859    -0.000196233993
            -0.000154478802    -0.000177069960    0.014186039016    0.034800469470    -0.000168428035    -0.000196233921    0.028725542218    0.031661104850
0.125     0.046745017648    0.025883576509    -0.000236123912    -0.000229998118    0.030181329306    0.031520213663    -0.000215993366    -0.000190467388
            -0.000236124006    -0.000229998050    0.035001200813    0.036084911700    -0.000268946380    -0.000258557238    0.020907124757    0.040801729556
            0.030181267676    0.031520267137    -0.000268946135    -0.000258557363    0.046570982748    0.025652814266    -0.000234055584    -0.000211963425
            -0.000215993462    -0.000190467339    0.020907126437    0.040801727571    -0.000234055791    -0.000211963315    0.034814427122    0.036038894306
0.150     0.057156504276    0.023175457945    -0.000312862768    -0.000230385480    0.040392154957    0.031309573425    -0.000280782795    -0.000187944421
            -0.000312862768    -0.000230385480    0.041427061449    0.039085215718    -0.000352455019    -0.000260872590    0.028319137599    0.045344792368
            0.040392104556    0.031309630285    -0.000352455019    -0.000260872590    0.056964765638    0.022946196862    -0.000303838754    -0.000211434566
            -0.000280782795    -0.000187944421    0.028319129678    0.045344793777    -0.000303838754    -0.000211434566    0.041148660630    0.039116543639
0.175     0.067145042243    0.017450444407    -0.000389696413    -0.000212504853    0.050605985696    0.028315957942    -0.000345076294    -0.000169956165
            -0.000389696404    -0.000212504848    0.047764959851    0.040772718216    -0.000437188997    -0.000244033546    0.036068629085    0.048385121768
            0.050605941796    0.028316026160    -0.000437188997    -0.000244033546    0.066952731046    0.017237244210    -0.000374028648    -0.000194730388
            -0.000345076690    -0.000169955836    0.036068630774    0.048385120509    -0.000374028648    -0.000194730388    0.047416936913    0.040920628617
0.200     0.075941613735    0.008840410170    -0.000463204897    -0.000177754182    0.060150980722    0.022580246552    -0.000405939466    -0.000137847187
            -0.000463205612    -0.000177753436    0.053696489877    0.041289211958    -0.000519509250    -0.000209065332    0.043816457883    0.049969061723
            0.060150945153    0.022580324231    -0.000519508560    -0.000209066003    0.075770837888    0.008651096033    -0.000441504590    -0.000162913085
            -0.000405939466    -0.000137847187    0.043816450013    0.049969063304    -0.000441504590    -0.000162913085    0.053313621966    0.041584846819
0.225     0.082835981961    -0.002352072546    -0.000530450255    -0.000127843348    0.068379737672    0.014289242291    -0.000460941537    -0.000093205530
            -0.000530450255    -0.000127843348    0.058967491024    0.040855853371    -0.000596283354    -0.000157368960    0.051255624351    0.050217706940
            0.068379714360    0.014289319626    -0.000596283042    -0.000157369323    0.082712438723    -0.002517297979    -0.000503668349    -0.000117360856
            -0.000460941854    -0.000093205176    0.051255625227    0.050217706045    -0.000503668655    -0.000117360464    0.058594482114    0.041317813042
0.250     0.087216289397    -0.015662609224    -0.000589428156    -0.000064666362    0.074705001266    0.003766931205    -0.000508478938    -0.000037796685
            -0.000589428146    -0.000064666361    0.063403961068    0.039763433759    -0.000665189948    -0.000090673828    0.058130628295    0.049321400553
            0.074704988490    0.003767005853    -0.000665189385    -0.000090674697    0.087167429606    -0.015811176346    -0.000558662005    -0.000059729879
            -0.000508478938    -0.000037796685    0.058130629156    0.049321399538    -0.000558661995    -0.000059729878    0.063089833064    0.040396838590
0.275     0.088580174806    -0.030502621758    -0.000638438641    0.000009870014    0.078616650298    -0.008540590965    -0.000547269292    0.000026672679
            -0.000638438631    0.000009870014    0.066927170473    0.038325711192    -0.000724260605    -0.000010735802    0.064246937622    0.047517331091
            0.078616648470    -0.008540505940    -0.000724260615    -0.000010735802    0.088633250809    -0.030650388775    -0.000605001683    0.000008356400
            -0.000547269302    0.000026672679    0.064246938451    0.047517329969    -0.000605001683    0.000008356400    0.066721865523    0.039120772995
0.300     0.086573041407    -0.046181696240    -0.000676363811    0.000094030594    0.079712569348    -0.022085901114    -0.000576540437    0.000098671141
            -0.000676363847    0.000094030478    0.069553030115    0.036866079468    -0.000772066612    0.000080754576    0.069484089330    0.045079122868
            0.079712580912    -0.022085806944    -0.000772066592    0.000080754574    0.086752338823    -0.046353181562    -0.000641696362    0.000085383029
            -0.000576540821    0.000098672035    0.069484090117    0.045079121656    -0.000641696352    0.000085383028    0.069503048690    0.037798905254
0.325     0.080989066553    -0.061939375755    -0.000702153570    0.000186138412    0.077708835686    -0.036238375055    -0.000595592690    0.000176803257
            -0.000702153560    0.000186138410    0.071386635537    0.035678593351    -0.000807277470    0.000182186648    0.073795489783    0.042291474866
            0.077708860399    -0.036238284204    -0.000807277331    0.000182186173    0.081313773954    -0.062167502628    -0.000667858878    0.000169988207
            -0.000595592825    0.000176803749    0.073795490521    0.042291473578    -0.000667859174    0.000169989151    0.071531566915    0.036712658483
0.350     0.071797056154    -0.076982539479    -0.000714996432    0.000284724055    0.072462876849    -0.050316022207    -0.000603911147    0.000259894825
            -0.000714996432    0.000284724055    0.072614333586    0.035018887058    -0.000828785534    0.000292088778    0.077216642105    0.039438299423
            0.072462913933    -0.050315935488    -0.000828785544    0.000292088781    0.072278829375    -0.077307295881    -0.000682783453    0.000261001545
            -0.000603911147    0.000259894825    0.077216642793    0.039438298075    -0.000682783684    0.000261002453    0.072983447264    0.036107247802
0.375     0.059133176525    -0.090513655247    -0.000713987463    0.000388267390    0.063976363904    -0.063605342179    -0.000600861574    0.000346799514
            -0.000713987505    0.000388267897    0.073485126169    0.035073660017    -0.000835372655    0.000408962482    0.079853351563    0.036774928964
            0.063976386477    -0.063605302454    -0.000835372565    0.000408962076    0.059773518220    -0.090980874018    -0.000685627143    0.000357310281
            -0.000600861565    0.000346799509    0.079853353113    0.036774927989    -0.000685627204    0.000357310770    0.074095093102    0.036162101152
0.400     0.043308272682    -0.101775460946    -0.000698264329    0.000495284057    0.052406225837    -0.075403036616    -0.000585790152    0.000436431141
            -0.000698264370    0.000495285001    0.074297381486    0.035957211627    -0.000825841396    0.000531289311    0.081882710768    0.034518310347
            0.052406286012    -0.075402963130    -0.000825841405    0.000531289316    0.044096763685    -0.102434735494    -0.000675507158    0.000457835704
            -0.000585790144    0.000436431135    0.081882713214    0.034518309694    -0.000675507158    0.000457835704    0.075150625984    0.036987746260
0.425     0.024793406147    -0.110077171185    -0.000666870713    0.000604037007    0.038058588455    -0.085036034121    -0.000557887909    0.000527517834
            -0.000666870706    0.000604037000    0.075372668761    0.037691290370    -0.000798846309    0.000657289154    0.083531643834    0.032821071414
            0.038058659312    -0.085035969541    -0.000798846306    0.000657288685    0.025704582566    -0.110979916518    -0.000651327026    0.000561314553
            -0.000557887909    0.000527517834    0.083531646268    0.032821070688    -0.000651327026    0.000561314553    0.076456933890    0.038606320985
0.450     0.004206268890    -0.114838953168    -0.000618908556    0.000712589029    0.021382374228    -0.091907412297    -0.000516323831    0.000618599865
            -0.000618908550    0.000712589021    0.077038391474    0.040208492020    -0.000753071517    0.000784911436    0.085068611534    0.031766994928
            0.021382452917    -0.091907358055    -0.000753071719    0.000784910550    0.005196543266    -0.116035567145    -0.000611930332    0.000666251119
            -0.000516323850    0.000618599888    0.085068613962    0.031766994143    -0.000611930352    0.000666251142    0.078327326199    0.040954596132
0.475     -0.017713699133    -0.115613086501    -0.000553572110    0.000818572557    0.002949447063    -0.095515376434    -0.000460268299    0.000707822450
            -0.000553572099    0.000818572540    0.079597254657    0.043344797317    -0.000687229599    0.000911636503    0.086774620114    0.031352927253
            0.002949532546    -0.095515334776    -0.000687229599    0.000911636503    -0.016714956380    -0.117152922533    -0.000556092519    0.000770725682
            -0.000460268175    0.000707822531    0.086774623089    0.031352924904    -0.000556092432    0.000770726127    0.081052958183    0.043876798995
0.500     -0.040137414509    -0.112117578514    -0.000470341883    0.000919286090    -0.016585188489    -0.095497579268    -0.000389079415    0.000792975380
            -0.000470341883    0.000919286090    0.083308842389    0.046853474947    -0.000600273264    0.001034653601    0.088928876085    0.031492910778
            -0.016585098948    -0.095497548131    -0.000600273505    0.001034652768    -0.039262245771    -0.114058174454    -0.000482711570    0.000872499264
            -0.000389079411    0.000792975371    0.088928876085    0.031492910778    -0.000482711565    0.000872499255    0.084885823666    0.047134457856
0.525     -0.062183341365    -0.104245051482    -0.000369119195    0.001011592541    -0.036632210108    -0.091716790073    -0.000302444252    0.000871390729
            -0.000369118945    0.001011592951    0.088361199306    0.050411989368    -0.000491480432    0.001151905973    0.091772783028    0.032010464033
            -0.036632110782    -0.091716773750    -0.000491480432    0.001151905973    -0.061870242190    -0.106821255651    -0.000390902877    0.000969894182
            -0.000302444069    0.000871391184    0.091772786034    0.032010461489    -0.000390902877    0.000969894182    0.090006665335    0.050407906539
0.550     -0.082948129010    -0.092099661856    -0.000250605951    0.001092104200    -0.054674937750    -0.084482671581    -0.000200760897    0.000940071600
            -0.000250605951    0.001092104200    0.094858441304    0.053649086188    -0.000371577825    0.001249750580    0.095484812047    0.032662471771
            -0.054674851604    -0.084482667775    -0.000371578280    0.001249749715    -0.080454620149    -0.095933314777    -0.000289787114    0.001051216230
            -0.000200760905    0.000940071639    0.095484813757    0.032662466772    -0.000289787114    0.001051216230    0.096493056794    0.053326337440
0.575     -0.101552787620    -0.075862248568    -0.000115624148    0.001156994910    -0.073022418412    -0.072321463939    -0.000084590287    0.000995654267
            -0.000115624169    0.001156994908    0.102801617859    0.056163179985    -0.000216623963    0.001337306966    0.100163779064    0.033176896316
            -0.073022364747    -0.072321461281    -0.000216623963    0.001337306966    -0.100089842774    -0.079278023815    -0.000158400074    0.001124064209
            -0.000084590268    0.000995654248    0.100163781381    0.033176889323    -0.000158400074    0.001124064209    0.104316987874    0.055530739332
0.600     -0.116936677476    -0.055968335257    0.000033054168    0.001201656773    -0.088841823243    -0.057126853863    0.000043852283    0.001033999022
            0.000033054105    0.001201656775    0.112087523125    0.057551152558    -0.000048503967    0.001405322505    0.105861347229    0.033252582131
            -0.088841724483    -0.057126878027    -0.000048503942    0.001405322506    -0.116226638375    -0.059972292855    -0.000015442520    0.001180521602
            0.000043852926    0.001033999695    0.105861350711    0.033252571045    -0.000015442498    0.001180521502    0.113402614959    0.056662707045
0.625     -0.128603626464    -0.033972636785    0.000188706634    0.001226178777    -0.101833139549    -0.039370097667    0.000178891625    0.001054953197
            0.000188706613    0.001226178780    0.122499805551    0.057435603511    0.000134021252    0.001449337370    0.112527126187    0.032553207141
            -0.101833046774    -0.039370143518    0.000134021252    0.001449337370    -0.128716845221    -0.037801102586    0.000140282084    0.001216475154
            0.000178891625    0.001054953197    0.112527127324    0.032553203213    0.000140282084    0.001216475154    0.123565258277    0.056350004580
0.650     -0.136753951254    -0.009576942937    0.000354134959    0.001228791421    -0.111822765214    -0.019009658603    0.000322930414    0.001056693455
            0.000354134959    0.001228791421    0.133734168512    0.055494248756    0.000327343245    0.001466222417    0.120017059843    0.030764890821
            -0.111822686250    -0.019009705422    0.000327343245    0.001466222417    -0.137104924918    -0.013454320508    0.000305695097    0.001228954574
            0.000322930433    0.001056693450    0.120017063065    0.030764878252    0.000305695118    0.001228954569    0.134514489477    0.054273820786
0.675     -0.140322231825    0.016277681954    0.000522760978    0.001204964034    -0.118009170450    0.003191173151    0.000470177712    0.001035062107
            0.000522760957    0.001204964043    0.145403692457    0.051482693948    0.000526638250    0.001453624390    0.128098119891    0.027618053626
            -0.118009131021    0.003191151473    0.000526638250    0.001453624390    -0.141049244495    0.012233277521    0.000476564919    0.001215664730
            0.000470177694    0.001035062115    0.128098121337    0.027618046918    0.000476564919    0.001215664730    0.145876192766    0.050196361816
0.700     -0.139200818448    0.042536071644    0.000689375798    0.001154822466    -0.120166007666    0.026397191067    0.000615928949    0.000989965768
            0.000689375778    0.001154822478    0.157073523934    0.045250842146    0.000726656825    0.001410348819    0.136482126929    0.022908037385
            -0.120165943351    0.026397110984    0.000726656825    0.001410348819    -0.140386204909    0.038381118250    0.000648159421    0.001175359034
            0.000615928932    0.000989965779    0.136482126929    0.022908037385    0.000648159421    0.001175359034    0.157230339050    0.043972875404
0.725     -0.133448656615    0.068279781857    0.000849253311    0.001079019762    -0.118201125214    0.049817588056    0.000755866877    0.000921837622
            0.000849253311    0.001079019762    0.168273706322    0.036754841816    0.000921838306    0.001336271517    0.144825511549    0.016502868282
            -0.118201068884    0.049817515726    0.000921838306    0.001336271517    -0.135129898708    0.064099346713    0.000815435747    0.001107790783
            0.000755866861    0.000921837636    0.144825502046    0.016502863359    0.000815435766    0.001107790769    0.168124195814    0.035559929342
0.750     -0.123287103218    0.092648130144    0.000997986538    0.000979116730    -0.112177130095    0.072680446278    0.000885887967    0.000831979799
            0.000997986538    0.000979116730    0.178538211733    0.026054682246    0.001106802893    0.001232532614    0.152769837150    0.008353818334
            -0.112177088326    0.072680363621    0.001106802893    0.001232532614    -0.125474321223    0.088533651094    0.000973437546    0.001013890172
            0.000885887952    0.000831979814    0.152769837136    0.008353818601    0.000973437546    0.001013890172    0.178108282633    0.025015496598
0.775     -0.109091481050    0.114854931683    0.001131608546    0.000857482838    -0.102291532817    0.094252378332    0.001002251278    0.000722479306
            0.001131608546    0.000857482838    0.187417697348    0.013314704941    0.001276511998    0.001101295201    0.159940547885    -0.001507276618
            -0.102291506884    0.094252288416    0.001276511998    0.001101295201    -0.111772844169    0.110898256849    0.001117513037    0.000895582255
            0.001002251278    0.000722479306    0.159940537816    -0.001507283894    0.001117513037    0.000895582255    0.186749812005    0.012496631500
