# GHz S RI R 45
0.000     0.012426918000    0.000000000000    0.000013904891    0.000000000000    0.000185461710    0.000000000000    0.000023066201    0.000000000000
            0.000013904787    0.000000000000    0.011375512000    0.000000000000    0.000042546786    0.000000000000    0.000193406730    0.000000000000
            0.000185437490    0.000000000000    0.000042546602    0.000000000000    0.012338578000    0.000000000000    0.000021945683    0.000000000000
            0.000023065920    0.000000000000    0.000193409150    0.000000000000    0.000021945701    0.000000000000    0.011194361000    0.000000000000
0.025     0.016363657565    0.012104518377    -0.000046745666    -0.000021339064    0.001502589909    0.011015695328    -0.000029601536    -0.000017930194
            -0.000046745771    -0.000021339052    0.014505611976    0.010798379679    -0.000043149364    -0.000033631291    0.001264683609    0.009837627644
            0.001502442323    0.011015530764    -0.000043149535    -0.000033631279    0.016264730017    0.012039750374    -0.000021813429    -0.000009079500
            -0.000029601807    -0.000017930168    0.001264563592    0.009837462498    -0.000021813414    -0.000009079499    0.014520868353    0.010887155171
0.050     0.021328389333    0.020893960242    -0.000058631481    0.000021695109    0.005241935045    0.021256617349    -0.000039231865    0.000020124863
            -0.000058631579    0.000021695123    0.018353245012    0.018920246649    -0.000061253490    0.000023395836    0.004095625885    0.019093359294
            0.005241939808    0.021256607935    -0.000061253673    0.000023395857    0.021183712895    0.020769012645    -0.000026200524    0.000029100182
            -0.000039232148    0.000020124895    0.004095657161    0.019093347471    -0.000026200507    0.000029100184    0.018403595240    0.018906078733
0.075     0.027560086985    0.028074136590    -0.000043935316    0.000051656327    0.011004556697    0.030170068052    -0.000026033285    0.000046563386
            -0.000043935410    0.000051656347    0.023149209760    0.025963334317    -0.000043653163    0.000062991999    0.008484245639    0.027505966617
            0.011004536896    0.030170071016    -0.000043653335    0.000062992035    0.027337912374    0.027916304533    -0.000010240052    0.000055704999
            -0.000026033514    0.000046563416    0.008484253135    0.027505965351    -0.000010240042    0.000055704996    0.023142381433    0.025890527682
0.100     0.034815975367    0.033342971399    -0.000020412692    0.000069474773    0.018333611501    0.037343888224    -0.000004909049    0.000062350279
            -0.000020412790    0.000069474792    0.028819545297    0.031745924263    -0.000014021567    0.000086846983    0.014186036586    0.034800470461
            0.018333586256    0.037343892820    -0.000014021748    0.000086847022    0.034500239354    0.033187687681    0.000013606372    0.000071530432
            -0.000004909327    0.000062350336    0.014186039016    0.034800469470    0.000013606396    0.000071530427    0.028725542218    0.031661104850
0.125     0.042484494920    0.036492871172    0.000005694614    0.000076564150    0.026695709665    0.042537187192    0.000018466715    0.000068672116
            0.000005694523    0.000076564172    0.035001200813    0.036084911700    0.000019163352    0.000096908302    0.020907124757    0.040801729556
            0.026695681334    0.042537193166    0.000019163168    0.000096908352    0.042081592208    0.036382631381    0.000039683793    0.000077472785
            0.000018466463    0.000068672178    0.020907126437    0.040801727571    0.000039683804    0.000077472779    0.034814427122    0.036038894306
0.150     0.050047197561    0.037624042985    0.000031198001    0.000074620357    0.035518866018    0.045600092287    0.000041423069    0.000066993002
            0.000031197908    0.000074620381    0.041427061449    0.039085215718    0.000051965579    0.000095380182    0.028319137599    0.045344792368
            0.035518838566    0.045600099727    0.000051965403    0.000095380232    0.049564996363    0.037588703553    0.000065272524    0.000074869325
            0.000041422801    0.000066993082    0.028319129678    0.045344793777    0.000065272536    0.000074869320    0.041148660630    0.039116543639
0.175     0.056942640364    0.036910694985    0.000053605498    0.000065465006    0.044221982931    0.046577850284    0.000061682375    0.000058893286
            0.000053605398    0.000065465039    0.047764959851    0.040772718216    0.000081088788    0.000084542159    0.036068629085    0.048385121768
            0.044221964416    0.046577856831    0.000081088619    0.000084542225    0.056402802943    0.036980963182    0.000087921001    0.000065310346
            0.000061682156    0.000058893360    0.036068630774    0.048385120509    0.000087921016    0.000065310343    0.047416936913    0.040920628617
0.200     0.062671912461    0.034694270907    0.000071700544    0.000050938685    0.052275562979    0.045671177217    0.000078215782    0.000045986408
            0.000071700443    0.000050938725    0.053696489877    0.041289211958    0.000105018403    0.000066690160    0.043816457883    0.049969061723
            0.052275536449    0.045671187823    0.000105018238    0.000066690233    0.062107763471    0.034894168968    0.000106526089    0.000050505453
            0.000078215616    0.000045986477    0.043816450013    0.049969063304    0.000106526094    0.000050505444    0.053313621966    0.041584846819
0.225     0.066866065696    0.031443683770    0.000084687319    0.000032930948    0.059232460495    0.043209481189    0.000090256462    0.000029921706
            0.000084687222    0.000032930992    0.058967491024    0.040855853371    0.000122624994    0.000044178986    0.051255624351    0.050217706940
            0.059232434102    0.043209493615    0.000122624837    0.000044179068    0.066319427461    0.031785546272    0.000120211611    0.000032203235
            0.000090256208    0.000029921827    0.051255625227    0.050217706045    0.000120211622    0.000032203229    0.058594482114    0.041317813042
0.250     0.069313775957    0.027726626745    0.000092502943    0.000012959407    0.064761375490    0.039628354499    0.000097778527    0.000012044408
            0.000092502850    0.000012959454    0.063403961068    0.039763433759    0.000133821930    0.000018923316    0.058130628295    0.049321400553
            0.064761350407    0.039628368667    0.000133821951    0.000018923311    0.068830367104    0.028208742204    0.000128961318    0.000011869215
            0.000097778278    0.000012044541    0.058130629156    0.049321399538    0.000128961339    0.000011869210    0.063089833064    0.040396838590
0.275     0.069981312959    0.024141450395    0.000095287183    -0.000007552420    0.068663300849    0.035431496894    0.000100850319    -0.000006389913
            0.000095287131    -0.000007552394    0.066927170473    0.038325711192    0.000138679697    -0.000007272021    0.064246937622    0.047517331091
            0.068663284541    0.035431506689    0.000138679291    -0.000007271759    0.069606698558    0.024747665115    0.000132806353    -0.000009132886
            0.000100850078    -0.000006389767    0.064246938451    0.047517329969    0.000132806363    -0.000009132891    0.066721865523    0.039120772995
0.300     0.069013489299    0.021282673788    0.000093486078    -0.000027616683    0.070891513651    0.031160688459    0.000099899339    -0.000024503740
            0.000093485990    -0.000027616626    0.069553030115    0.036866079468    0.000137767376    -0.000033144549    0.069484089330    0.045079122868
            0.070891513651    0.031160688459    0.000137767385    -0.000033144554    0.068788224541    0.021981721188    0.000132234839    -0.000029840685
            0.000099899100    -0.000024503582    0.069484090117    0.045079121656    0.000132234847    -0.000029840692    0.069503048690    0.037798905254
0.325     0.066724108644    0.019679567279    0.000087611057    -0.000046324994    0.071551701429    0.027350061411    0.000095336276    -0.000041486399
            0.000087611053    -0.000046324990    0.071386635537    0.035678593351    0.000131658312    -0.000057520283    0.073795489783    0.042291474866
            0.071551661867    0.027350092090    0.000131658330    -0.000057520293    0.066679392670    0.020427361188    0.000127664776    -0.000049358010
            0.000095335501    -0.000041485824    0.073795490521    0.042291473578    0.000127664793    -0.000049358022    0.071531566915    0.036712658483
0.350     0.063578862329    0.019764432390    0.000078241347    -0.000063109248    0.070907335483    0.024491739375    0.000087710174    -0.000056841356
            0.000078241338    -0.000063109243    0.072614333586    0.035018887058    0.000121107011    -0.000079673780    0.077216642105    0.039438299423
            0.070907336428    0.024491739701    0.000121107019    -0.000079673786    0.063732662167    0.020506431721    0.000119724006    -0.000067147358
            0.000087710181    -0.000056841363    0.077216642793    0.039438298075    0.000119724023    -0.000067147370    0.072983447264    0.036107247802
0.375     0.060162662036    0.021821541406    0.000065989521    -0.000077438991    0.069358401130    0.022984814696    0.000077531950    -0.000070092612
            0.000065989513    -0.000077438985    0.073485126169    0.035073660017    0.000106837541    -0.000098910213    0.079853351563    0.036774928964
            0.069358402080    0.022984815011    0.000106837202    -0.000098909888    0.060516608770    0.022497188387    0.000108951431    -0.000082677353
            0.000077531612    -0.000070092284    0.079853353113    0.036774927989    0.000108951439    -0.000082677359    0.074095093102    0.036162101152
0.400     0.057144255605    0.025964920839    0.000051439446    -0.000089012930    0.067424519087    0.023103973057    0.000065350910    -0.000080994844
            0.000051439445    -0.000089012931    0.074297381486    0.035957211627    0.000089610371    -0.000114860211    0.081882710768    0.034518310347
            0.067424520033    0.023103973381    0.000089610389    -0.000114860222    0.057681879272    0.026511750617    0.000095970108    -0.000095697779
            0.000065350226    -0.000080994163    0.081882713214    0.034518309694    0.000095970123    -0.000095697793    0.075150625984    0.036987746260
0.425     0.055221152181    0.032104720060    0.000035216656    -0.000097560998    0.065698139567    0.024955084436    0.000051690970    -0.000089307177
            0.000035216586    -0.000097560917    0.075372668761    0.037691290370    0.000070172887    -0.000127167503    0.083531643834    0.032821071414
            0.065698108495    0.024955121180    0.000070172901    -0.000127167518    0.055907560524    0.032464279150    0.000081336748    -0.000105939240
            0.000051690651    -0.000089306842    0.083531646268    0.032821070688    0.000081336762    -0.000105939255    0.076456933890    0.038606320985
0.450     0.055067399873    0.039947047373    0.000017890594    -0.000102970669    0.064802407934    0.028462477478    0.000037075078    -0.000094962814
            0.000017890536    -0.000102970588    0.077038391474    0.040208492020    0.000049250708    -0.000135713156    0.085068611534    0.031766994928
            0.064802408849    0.028462477880    0.000049250719    -0.000135713174    0.055851134054    0.040069165650    0.000065631323    -0.000113353625
            0.000037074469    -0.000094962076    0.085068613962    0.031766994143    0.000065631337    -0.000113353640    0.078327326199    0.040954596132
0.475     0.057263319335    0.048996148805    0.000000069939    -0.000105183717    0.065323235876    0.033353113555    0.000022005190    -0.000097910224
            0.000000069878    -0.000105183627    0.079597254657    0.043344797317    0.000027560487    -0.000140405788    0.086774620114    0.031352927253
            0.065323235876    0.033353113555    0.000027560202    -0.000140405427    0.058081389424    0.048841370060    0.000049384142    -0.000117880155
            0.000022005057    -0.000097910049    0.086774623089    0.031352924904    0.000049384152    -0.000117880173    0.081052958183    0.043876798995
0.500     0.062236351102    0.058598814527    -0.000017705635    -0.000104261819    0.067754047510    0.039184774334    0.000006958910    -0.000098236667
            -0.000017705685    -0.000104261729    0.083308842389    0.046853474947    0.000005770379    -0.000141339517    0.088928876085    0.031492910778
            0.067754052843    0.039184771106    0.000005770382    -0.000141339537    0.063026093194    0.058129725674    0.000033109415    -0.000119638753
            0.000006958758    -0.000098236440    0.088928876085    0.031492910778    0.000033109422    -0.000119638772    0.084885823666    0.047134457856
0.525     0.070134398489    0.068060270384    -0.000034886968    -0.000100349806    0.072395804144    0.045416369550    -0.000007623530    -0.000096062380
            -0.000034887019    -0.000100349725    0.088361199306    0.050411989368    -0.000015484007    -0.000138661004    0.091772783028    0.032010464033
            0.072395782113    0.045416410314    -0.000015484238    -0.000138660596    0.070920258275    0.067161325701    0.000017263240    -0.000118747920
            -0.000007623631    -0.000096062123    0.091772786034    0.032010461489    0.000017263244    -0.000118747930    0.090006665335    0.050407906539
0.550     0.080940543364    0.075304801606    -0.000050992468    -0.000093659779    0.079351692858    0.050665410022    -0.000021352425    -0.000091593555
            -0.000050992505    -0.000093659691    0.094858441304    0.053649086188    -0.000035628737    -0.000132648715    0.095484812047    0.032662471771
            0.079351692858    0.050665410022    -0.000035629209    -0.000132647884    0.081711708810    0.075116003939    0.000002259358    -0.000115461246
            -0.000021352554    -0.000091593315    0.095484813757    0.032662466772    0.000002259363    -0.000115461256    0.096493056794    0.053326337440
0.575     0.095032748858    0.081823485757    -0.000065651294    -0.000084518801    0.089021391835    0.055497134267    -0.000033914927    -0.000085109110
            -0.000065651305    -0.000084518755    0.102801617859    0.056163179985    -0.000054212740    -0.000123634306    0.100163779064    0.033176896316
            0.089021377075    0.055497176846    -0.000054212829    -0.000123634157    0.095285464584    0.081107659350    -0.000011589963    -0.000110033501
            -0.000033915035    -0.000085108904    0.100163781381    0.033176889323    -0.000011589960    -0.000110033522    0.104316987874    0.055530739332
0.600     0.111086446352    0.085335606947    -0.000078510064    -0.000073268148    0.100608228919    0.058330929561    -0.000045040862    -0.000076894772
            -0.000078510091    -0.000073268045    0.112087523125    0.057551152558    -0.000070823489    -0.000112035015    0.105861347229    0.033252582131
            0.100608232991    0.058330922537    -0.000070823553    -0.000112034856    0.111132612841    0.084344547547    -0.000024010384    -0.000102798686
            -0.000045040970    -0.000076894525    0.105861350711    0.033252571045    -0.000024010370    -0.000102798710    0.113402614959    0.056662707045
0.625     0.128720029887    0.085496881403    -0.000089329084    -0.000060302170    0.113616428616    0.058776504545    -0.000054559656    -0.000067257010
            -0.000089329112    -0.000060302075    0.122499805551    0.057435603511    -0.000085176709    -0.000098279165    0.112527126187    0.032553207141
            0.113616428616    0.058776504545    -0.000085176776    -0.000098279001    0.128225579365    0.084316621539    -0.000034827526    -0.000094056280
            -0.000054559760    -0.000067256753    0.112527127324    0.032553203213    -0.000034827533    -0.000094056299    0.123565258277    0.056350004580
0.650     0.147141827494    0.081912460875    -0.000097965249    -0.000046003688    0.127728475762    0.056550101721    -0.000062350263    -0.000056525971
            -0.000097965280    -0.000046003577    0.133734168512    0.055494248756    -0.000097082544    -0.000082818499    0.120017059843    0.030764890821
            0.127728475762    0.056550101721    -0.000097082600    -0.000082818342    0.146221422766    0.080905351872    -0.000043926277    -0.000084161196
            -0.000062350352    -0.000056525715    0.120017063065    0.030764878252    -0.000043926270    -0.000084161218    0.134514489477    0.054273820786
0.675     0.165447478511    0.074430371438    -0.000104348509    -0.000030764223    0.142210341382    0.051236780420    -0.000068382929    -0.000044985456
            -0.000104348536    -0.000030764132    0.145403692457    0.051482693948    -0.000106444758    -0.000066074368    0.128098119891    0.027618053626
            0.142210341382    0.051236780420    -0.000106444817    -0.000066074198    0.164204804791    0.073650301242    -0.000051281447    -0.000073386295
            -0.000068382999    -0.000044985211    0.128098121337    0.027618046918    -0.000051281445    -0.000073386319    0.145876192766    0.050196361816
0.700     0.182754644932    0.063115009396    -0.000108470882    -0.000014914753    0.156315708266    0.042783273276    -0.000072639626    -0.000032911318
            -0.000108470895    -0.000014914658    0.157073523934    0.045250842146    -0.000113220684    -0.000048450820    0.136482126929    0.022908037385
            0.156315703101    0.042783254267    -0.000113220724    -0.000048450650    0.181247563523    0.062624194718    -0.000056877656    -0.000062020937
            -0.000072639669    -0.000032911170    0.136482126929    0.022908037385    -0.000056877663    -0.000062020966    0.157230339050    0.043972875404
0.725     0.198226036244    0.048235817642    -0.000110379059    0.000001227159    0.169336255737    0.031297873337    -0.000075171902    -0.000020518374
            -0.000110379078    0.000001227256    0.168273706322    0.036754841816    -0.000117448220    -0.000030293905    0.144825511549    0.016502868282
            0.169336248090    0.031297914713    -0.000117448262    -0.000030293741    0.196525029589    0.048093476805    -0.000060771726    -0.000050262382
            -0.000075171951    -0.000020518133    0.144825502046    0.016502863359    -0.000060771732    -0.000050262405    0.168124195814    0.035559929342
0.750     0.211130699273    0.030236439386    -0.000110131307    0.000017414634    0.180633967695    0.017037692016    -0.000076004638    -0.000008014000
            -0.000110131321    0.000017414735    0.178538211733    0.026054682246    -0.000119161424    -0.000011921072    0.152769837150    0.008353818334
            0.180633949740    0.017037775884    -0.000119161453    -0.000011920886    0.209319310150    0.030487702924    -0.000062981912    -0.000038331117
            -0.000076004679    -0.000008013749    0.152769837136    0.008353818601    -0.000062981918    -0.000038331136    0.178108282633    0.025015496598
0.775     0.220863166221    0.009702078505    -0.000107818303    0.000033419990    0.189644354412    0.000382425577    -0.000075209656    0.000004461177
            -0.000107818318    0.000033420077    0.187417697348    0.013314704941    -0.000118452797    0.000006413951    0.159940547885    -0.001507276618
            0.189644344430    0.000382416851    -0.000118452818    0.000006414118    0.219035569677    0.010371682194    -0.000063586287    -0.000026339746
            -0.000075209686    0.000004461389    0.159940537816    -0.001507283894    -0.000063586298    -0.000026339763    0.186749812005    0.012496631500
0.800     0.226972213799    -0.012685063916    -0.000103501047    0.000049063099    0.195912558192    -0.018189951469    -0.000072802774    0.000016747508
