# GHz S RI R 45
0.000     0.011780514000    0.000000000000    -0.000015016847    0.000000000000    0.000383751780    0.000000000000    -0.000003482517    0.000000000000
            -0.000015016869    0.000000000000    0.011375512000    0.000000000000    -0.000001547298    0.000000000000    0.000193406730    0.000000000000
            0.000383751730    0.000000000000    -0.000001547262    0.000000000000    0.011771005000    0.000000000000    -0.000007791574    0.000000000000
            -0.000003482501    0.000000000000    0.000193409150    0.000000000000    -0.000007791605    0.000000000000    0.011194361000    0.000000000000
0.025     0.015164671524    0.010475643481    -0.000019250985    -0.000011019642    0.001468485787    0.009307929258    -0.000015995050    -0.000017664404
            -0.000019250983    -0.000011019641    0.014505611976    0.010798379679    -0.000016357753    -0.000017992077    0.001264683609    0.009837627644
            0.001468363218    0.009307764445    -0.000016357757    -0.000017992075    0.015087172238    0.010481014220    -0.000012736069    -0.000013820045
            -0.000015995054    -0.000017664402    0.001264563592    0.009837462498    -0.000012736072    -0.000013820043    0.014520868353    0.010887155171
0.050     0.019119505058    0.018062624529    -0.000023227335    -0.000018508424    0.004281197941    0.017996428340    -0.000023138598    -0.000023184091
            -0.000023227339    -0.000018508420    0.018353245012    0.018920246649    -0.000024112546    -0.000021325020    0.004095625885    0.019093359294
            0.004281228111    0.017996417051    -0.000024112542    -0.000021325024    0.019021402872    0.018086414278    -0.000017382436    -0.000023388043
            -0.000023138603    -0.000023184088    0.004095657161    0.019093347471    -0.000017382437    -0.000023388044    0.018403595240    0.018906078733
0.075     0.023972151358    0.024516216514    -0.000028011445    -0.000025342253    0.008623184916    0.025797266530    -0.000028081564    -0.000029166887
            -0.000028011445    -0.000025342253    0.023149209760    0.025963334317    -0.000028603586    -0.000025491690    0.008484245639    0.027505966617
            0.008623190502    0.025797266771    -0.000028603537    -0.000025491700    0.023847728791    0.024571197771    -0.000022953072    -0.000032315284
            -0.000028081569    -0.000029166882    0.008484253135    0.027505965351    -0.000022953078    -0.000032315280    0.023142381433    0.025890527682
0.100     0.029656097811    0.029631794192    -0.000033822685    -0.000031323681    0.014222062070    0.032424491813    -0.000033442152    -0.000035205734
            -0.000033822678    -0.000031323685    0.028819545297    0.031745924263    -0.000033147233    -0.000030017725    0.014186036586    0.034800470461
            0.014222061504    0.032424492061    -0.000033147235    -0.000030017727    0.029503683515    0.029733069781    -0.000029763287    -0.000040303453
            -0.000033442250    -0.000035205715    0.014186039016    0.034800469470    -0.000029763389    -0.000040303429    0.028725542218    0.031661104850
0.125     0.035784688660    0.033202084901    -0.000040585747    -0.000036144689    0.020758557302    0.037697612168    -0.000039653466    -0.000040820920
            -0.000040585746    -0.000036144688    0.035001200813    0.036084911700    -0.000038300353    -0.000034392800    0.020907124757    0.040801729556
            0.020758557784    0.037697613044    -0.000038300353    -0.000034392800    0.035602540897    0.033365256289    -0.000037726157    -0.000047053779
            -0.000039653474    -0.000040820914    0.020907126437    0.040801727571    -0.000037726157    -0.000047053779    0.034814427122    0.036038894306
0.150     0.042037336321    0.035335187615    -0.000047956262    -0.000039786055    0.027873329037    0.041457151981    -0.000046621938    -0.000045774194
            -0.000047956259    -0.000039786052    0.041427061449    0.039085215718    -0.000044056380    -0.000038338064    0.028319137599    0.045344792368
            0.027873329037    0.041457151981    -0.000044056381    -0.000038338064    0.041840209849    0.035581651594    -0.000046507138    -0.000052505715
            -0.000046621937    -0.000045774193    0.028319129678    0.045344793777    -0.000046507147    -0.000052505707    0.041148660630    0.039116543639
0.175     0.048043006610    0.036070824647    -0.000055732624    -0.000042226651    0.035184339584    0.043672700764    -0.000054328126    -0.000049929805
            -0.000055732672    -0.000042226626    0.047764959851    0.040772718216    -0.000050442290    -0.000041705815    0.036068629085    0.048385121768
            0.035184339584    0.043672700764    -0.000050442242    -0.000041705834    0.047851827762    0.036416016663    -0.000055891174    -0.000056646935
            -0.000054328125    -0.000049929804    0.036068630774    0.048385120509    -0.000055891173    -0.000056646934    0.047416936913    0.040920628617
0.200     0.053440869633    0.035576495084    -0.000063691593    -0.000043604372    0.042324313657    0.044413631692    -0.000062606280    -0.000053274208
            -0.000063691589    -0.000043604370    0.053696489877    0.041289211958    -0.000057324956    -0.000044463053    0.043816457883    0.049969061723
            0.042324313657    0.044413631692    -0.000057324948    -0.000044463063    0.053281266971    0.036029412474    -0.000065652234    -0.000059595091
            -0.000062606288    -0.000053274196    0.043816450013    0.049969063304    -0.000065652328    -0.000059595051    0.053313621966    0.041584846819
0.225     0.057941123498    0.034113184580    -0.000071728893    -0.000044010560    0.048963654174    0.043832827069    -0.000071434393    -0.000055781958
            -0.000071728891    -0.000044010558    0.058967491024    0.040855853371    -0.000064710922    -0.000046568327    0.051255624351    0.050217706940
            0.048963654174    0.043832827069    -0.000064710923    -0.000046568328    0.057842276408    0.034674853796    -0.000075686457    -0.000061446622
            -0.000071434393    -0.000055781958    0.051255625227    0.050217706045    -0.000075686456    -0.000061446622    0.058594482114    0.041317813042
0.250     0.061340141245    0.032023263469    -0.000079777030    -0.000043599151    0.054829525288    0.042160000037    -0.000080732160    -0.000057491860
            -0.000079777026    -0.000043599149    0.063403961068    0.039763433759    -0.000072531972    -0.000048046470    0.058130628295    0.049321400553
            0.054829525288    0.042160000037    -0.000072531972    -0.000048046470    0.061332177383    0.032686745194    -0.000085930947    -0.000062340143
            -0.000080732159    -0.000057491859    0.058130629156    0.049321399538    -0.000085930958    -0.000062340128    0.063089833064    0.040396838590
0.275     0.063542949068    0.029682783769    -0.000087841347    -0.000042451362    0.059719405724    0.039678554026    -0.000090527020    -0.000058383985
            -0.000087841347    -0.000042451362    0.066927170473    0.038325711192    -0.000080829771    -0.000048863962    0.064246937622    0.047517331091
            0.059719405724    0.039678554026    -0.000080829737    -0.000048863980    0.063655104546    0.030432538616    -0.000096403558    -0.000062350221
            -0.000090527057    -0.000058383965    0.064246938451    0.047517329969    -0.000096403558    -0.000062350221    0.066721865523    0.039120772995
0.300     0.064562855498    0.027485655477    -0.000095962921    -0.000040655374    0.063514166735    0.036713177086    -0.000100821470    -0.000058463018
            -0.000095962921    -0.000040655374    0.069553030115    0.036866079468    -0.000089608523    -0.000049018180    0.069484089330    0.045079122868
            0.063514167601    0.036713177587    -0.000089608523    -0.000049018180    0.064820984459    0.028297705211    -0.000107157549    -0.000061539408
            -0.000100821470    -0.000058463018    0.069484090117    0.045079121656    -0.000107157549    -0.000061539408    0.069503048690    0.037798905254
0.325     0.064521348954    0.025800610117    -0.000104210013    -0.000038214581    0.066181617238    0.033602577569    -0.000111672449    -0.000057648322
            -0.000104210077    -0.000038214522    0.071386635537    0.035678593351    -0.000098931426    -0.000048422250    0.073795489783    0.042291474866
            0.066181617238    0.033602577569    -0.000098931426    -0.000048422250    0.064945673077    0.026643678074    -0.000118274978    -0.000059882768
            -0.000111672525    -0.000057648263    0.073795490521    0.042291473578    -0.000118275006    -0.000059882756    0.071531566915    0.036712658483
0.350     0.063638908985    0.024957733759    -0.000112665219    -0.000035109537    0.067783796742    0.030684600446    -0.000123117417    -0.000055857450
            -0.000112665291    -0.000035109473    0.072614333586    0.035018887058    -0.000108833672    -0.000046993846    0.077216642105    0.039438299423
            0.067783796742    0.030684600446    -0.000108833672    -0.000046993846    0.064242034005    0.025794579531    -0.000129849485    -0.000057319020
            -0.000123117501    -0.000055857385    0.077216642793    0.039438298075    -0.000129849495    -0.000057319024    0.072983447264    0.036107247802
0.375     0.062220657975    0.025213618258    -0.000121394727    -0.000031237714    0.068468695720    0.028265614451    -0.000135189085    -0.000052913267
            -0.000121394767    -0.000031237679    0.073485126169    0.035073660017    -0.000119351822    -0.000044558750    0.079853351563    0.036774928964
            0.068468695720    0.028265614451    -0.000119351822    -0.000044558750    0.063005749597    0.026002782202    -0.000141950352    -0.000053693870
            -0.000135189085    -0.000052913267    0.079853353113    0.036774927989    -0.000141950352    -0.000053693870    0.074095093102    0.036162101152
0.400     0.060639169832    0.026741055608    -0.000130445315    -0.000026464604    0.068468378159    0.026605936421    -0.000147882593    -0.000048627672
            -0.000130445387    -0.000026464548    0.074297381486    0.035957211627    -0.000130481563    -0.000040937167    0.081882710768    0.034518310347
            0.068468378159    0.026605936421    -0.000130481487    -0.000040937243    0.061599005679    0.027439698721    -0.000154616747    -0.000048810024
            -0.000147882593    -0.000048627672    0.081882713214    0.034518309694    -0.000154616747    -0.000048810024    0.075150625984    0.036987746260
0.425     0.059308806146    0.029604301174    -0.000139805097    -0.000020589423    0.068079405717    0.025890613796    -0.000161131660    -0.000042733339
            -0.000139805130    -0.000020589403    0.075372668761    0.037691290370    -0.000142163125    -0.000035872204    0.083531643834    0.032821071414
            0.068079405717    0.025890613796    -0.000142163125    -0.000035872204    0.060425288187    0.030170752777    -0.000167812668    -0.000042397040
            -0.000161131660    -0.000042733339    0.083531646268    0.032821070688    -0.000167812739    -0.000042396965    0.076456933890    0.038606320985
0.450     0.058662283042    0.033756784527    -0.000149406936    -0.000013394827    0.067648516802    0.026220053261    -0.000174801926    -0.000034964788
            -0.000149406936    -0.000013394827    0.077038391474    0.040208492020    -0.000154269393    -0.000029112807    0.085068611534    0.031766994928
            0.067648516802    0.026220053261    -0.000154269393    -0.000029112807    0.059906718610    0.034153185291    -0.000181430224    -0.000034165348
            -0.000174801994    -0.000034964706    0.085068613962    0.031766994143    -0.000181430224    -0.000034165348    0.078327326199    0.040954596132
0.475     0.059116511862    0.039029720279    -0.000159085584    -0.000004636347    0.067542686037    0.027589027873    -0.000188649915    -0.000025025545
            -0.000159085574    -0.000004636346    0.079597254657    0.043344797317    -0.000166574068    -0.000020378655    0.086774620114    0.031352927253
            0.067542686037    0.027589027873    -0.000166574068    -0.000020378655    0.060450703105    0.039225204477    -0.000195241146    -0.000023801294
            -0.000188650205    -0.000025025181    0.086774623089    0.031352924904    -0.000195241146    -0.000023801294    0.081052958183    0.043876798995
0.500     0.061045001053    0.045142772473    -0.000168600106    0.000005900668    0.068125792004    0.029889719459    -0.000202344475    -0.000012665376
            -0.000168600106    0.000005900668    0.083308842389    0.046853474947    -0.000178763566    -0.000009434647    0.088928876085    0.031492910778
            0.068125792004    0.029889719459    -0.000178763567    -0.000009434616    0.062423393493    0.045115737459    -0.000208915862    -0.000011025234
            -0.000202344475    -0.000012665376    0.088928876085    0.031492910778    -0.000208915862    -0.000011025234    0.084885823666    0.047134457856
0.525     0.064742766673    0.051710610283    -0.000177597141    0.000018395674    0.069722745685    0.032907230605    -0.000215425869    0.000002319905
            -0.000177597141    0.000018395674    0.088361199306    0.050411989368    -0.000190413494    0.000003912224    0.091772783028    0.032010464033
            0.069722745685    0.032907230605    -0.000190413494    0.000003912224    0.066115801242    0.051451433687    -0.000221994674    0.000004386121
            -0.000215425869    0.000002319905    0.091772786034    0.032010461489    -0.000221994927    0.000004386514    0.090006665335    0.050407906539
0.550     0.070404541552    0.058270586976    -0.000185666830    0.000032932734    0.072596265075    0.036339816487    -0.000227373694    0.000020013590
            -0.000185666830    0.000032932734    0.094858441304    0.053649086188    -0.000201033014    0.000019740791    0.095484812047    0.032662471771
            0.072596265075    0.036339816487    -0.000201033014    0.000019740791    0.071720958163    0.057783278269    -0.000233938972    0.000022537217
            -0.000227373694    0.000020013590    0.095484813757    0.032662466772    -0.000233938972    0.000022537217    0.096493056794    0.053326337440
0.575     0.078097721784    0.064306592051    -0.000192322927    0.000049493572    0.076915023927    0.039811897349    -0.000237590917    0.000040377847
            -0.000192322927    0.000049493572    0.102801617859    0.056163179985    -0.000210060694    0.000038014618    0.100163779064    0.033176896316
            0.076915023232    0.039811898691    -0.000210060694    0.000038014618    0.079307355271    0.063610267172    -0.000244139141    0.000043397248
            -0.000237590907    0.000040377845    0.100163781381    0.033176889323    -0.000244139141    0.000043397248    0.104316987874    0.055530739332
0.600     0.087757275567    0.069288812183    -0.000197080384    0.000067927057    0.082744081018    0.042909736000    -0.000245481677    0.000063228458
            -0.000197080384    0.000067927057    0.112087523125    0.057551152558    -0.000216939051    0.000058552359    0.105861347229    0.033252582131
            0.082744081018    0.042909736000    -0.000216939051    0.000058552359    0.088813397003    0.068415561917    -0.000251976439    0.000066788361
            -0.000245481677    0.000063228458    0.105861350711    0.033252571045    -0.000251976439    0.000066788361    0.113402614959    0.056662707045
0.625     0.099176992175    0.072707251623    -0.000199448690    0.000087935088    0.090027992084    0.045204221097    -0.000250440633    0.000088206106
            -0.000199448863    0.000087935538    0.122499805551    0.057435603511    -0.000221107231    0.000081008638    0.112527126187    0.032553207141
            0.090027992084    0.045204221097    -0.000221107226    0.000081008592    0.100040096691    0.071699670081    -0.000256823564    0.000092347756
            -0.000250440624    0.000088206103    0.112527127324    0.032553203213    -0.000256823880    0.000092348679    0.123565258277    0.056350004580
0.650     0.112027696396    0.074110903103    -0.000199030701    0.000109087248    0.098604011397    0.046292057867    -0.000251974230    0.000114793087
            -0.000199030685    0.000109087194    0.133734168512    0.055494248756    -0.000222112300    0.000104891948    0.120017059843    0.030764890821
            0.098604011397    0.046292057867    -0.000222112291    0.000104891944    0.112668460178    0.073018986860    -0.000258162639    0.000119543109
            -0.000251974211    0.000114793079    0.120017063065    0.030764878252    -0.000258162639    0.000119543109    0.134514489477    0.054273820786
0.675     0.125867830851    0.073136300848    -0.000195515683    0.000130832040    0.108202116123    0.045817804137    -0.000249688927    0.000142329327
            -0.000195515683    0.000130832040    0.145403692457    0.051482693948    -0.000219597682    0.000129579917    0.128098119891    0.027618053626
            0.108202117722    0.045817800360    -0.000219597682    0.000129579917    0.126271059836    0.072015367086    -0.000255589169    0.000147693750
            -0.000249688935    0.000142329332    0.128098121337    0.027618046918    -0.000255589170    0.000147693810    0.145876192766    0.050196361816
0.700     0.140181791561    0.069533529707    -0.000188760708    0.000152552682    0.118476701428    0.043504792378    -0.000243389480    0.000170079052
            -0.000188760708    0.000152552682    0.157073523934    0.045250842146    -0.000213391943    0.000154379038    0.136482126929    0.022908037385
            0.118476701428    0.043504792378    -0.000213391943    0.000154379038    0.140345886611    0.068440595640    -0.000248894879    0.000176035010
            -0.000243389480    0.000170079052    0.136482126929    0.022908037385    -0.000248894879    0.000176035010    0.157230339050    0.043972875404
0.725     0.154402012161    0.063179693170    -0.000178760571    0.000173589982    0.129017891683    0.039165493670    -0.000233035562    0.000197251728
            -0.000178760571    0.000173589982    0.168273706322    0.036754841816    -0.000203474578    0.000178546733    0.144825511549    0.016502868282
            0.129017891683    0.039165493670    -0.000203474578    0.000178546733    0.154340723659    0.062170481739    -0.000238041912    0.000203751167
            -0.000233035543    0.000197251781    0.144825502046    0.016502863359    -0.000238041912    0.000203751167    0.168124195814    0.035559929342
0.750     0.167952358283    0.054083126097    -0.000165690177    0.000193318690    0.139390204177    0.032714596158    -0.000218800715    0.000223089817
            -0.000165690177    0.000193318690    0.178538211733    0.026054682246    -0.000190026399    0.000201376945    0.152769837150    0.008353818334
            0.139390203606    0.032714598590    -0.000190026399    0.000201376945    0.167692372002    0.053209482523    -0.000223211813    0.000230053102
            -0.000218800715    0.000223089817    0.152769837136    0.008353818601    -0.000223211813    0.000230053102    0.178108282633    0.025015496598
0.775     0.180270564875    0.042380597825    -0.000149851668    0.000211156122    0.149145959341    0.024164784943    -0.000201006956    0.000246882627
            -0.000149851685    0.000211156146    0.187417697348    0.013314704941    -0.000173369545    0.000222208030    0.159940547885    -0.001507276618
            0.149145959341    0.024164784943    -0.000173369545    0.000222208030    0.179850379923    0.041686729101    -0.000204743940    0.000254204705
            -0.000201006925    0.000246882678    0.159940537816    -0.001507283894    -0.000204743940    0.000254204705    0.186749812005    0.012496631500
