# GHz S RI R 45
0.000     0.011685204000    0.000000000000    -0.000057135007    0.000000000000    0.000229740280    0.000000000000    -0.000028447700    0.000000000000
            -0.000057135243    0.000000000000    0.011375512000    0.000000000000    -0.000040095530    0.000000000000    0.000193406730    0.000000000000
            0.000229738640    0.000000000000    -0.000040095524    0.000000000000    0.011637443000    0.000000000000    -0.000028052263    0.000000000000
            -0.000028447361    0.000000000000    0.000193409150    0.000000000000    -0.000028052271    0.000000000000    0.011194361000    0.000000000000
0.025     0.015335298202    0.011411650621    -0.000011419810    0.000032398417    0.001520088946    0.010301308759    -0.000020531503    0.000011644598
            -0.000011419807    0.000032398408    0.014505611976    0.010798379679    -0.000017966993    0.000018557237    0.001264683609    0.009837627644
            0.001519965617    0.010301143997    -0.000017966994    0.000018557239    0.015250562699    0.011390926186    -0.000017353895    0.000016415227
            -0.000020531503    0.000011644598    0.001264563592    0.009837462498    -0.000017353916    0.000016415224    0.014520868353    0.010887155171
0.050     0.019659469188    0.019749701672    0.000002490684    0.000017896467    0.004688245681    0.019819505568    -0.000019113211    0.000015415572
            0.000002490673    0.000017896468    0.018353245012    0.018920246649    -0.000012367136    0.000014588122    0.004095625885    0.019093359294
            0.004688274855    0.019819494557    -0.000012367140    0.000014588121    0.019541933773    0.019735318415    -0.000014536914    0.000022238699
            -0.000019113119    0.000015415564    0.004095657161    0.019093347471    -0.000014536843    0.000022238691    0.018403595240    0.018906078733
0.075     0.025000282564    0.026832978021    -0.000000092442    0.000010741413    0.009518859873    0.028356992977    -0.000021204030    0.000021774710
            -0.000000092450    0.000010741426    0.023149209760    0.025963334317    -0.000015824960    0.000015336562    0.008484245639    0.027505966617
            0.009518864469    0.028356993544    -0.000015824914    0.000015336554    0.024841356809    0.026838497561    -0.000015847967    0.000030976842
            -0.000021204034    0.000021774714    0.008484253135    0.027505965351    -0.000015847940    0.000030976842    0.023142381433    0.025890527682
0.100     0.031263910893    0.032435595460    -0.000006475730    0.000009579065    0.015732046245    0.035594295685    -0.000023650321    0.000030820907
            -0.000006475709    0.000009579063    0.028819545297    0.031745924263    -0.000021296049    0.000020568797    0.014186036586    0.034800470461
            0.015732044164    0.035594297698    -0.000021296052    0.000020568792    0.031057663775    0.032480477819    -0.000017413234    0.000042629477
            -0.000023650329    0.000030820907    0.014186039016    0.034800469470    -0.000017413167    0.000042629461    0.028725542218    0.031661104850
0.125     0.038009850068    0.036373451015    -0.000013756953    0.000013813460    0.022970596723    0.041330373112    -0.000025253500    0.000042430057
            -0.000013756933    0.000013813459    0.035001200813    0.036084911700    -0.000026546175    0.000029996879    0.020907124757    0.040801729556
            0.022970595045    0.041330375189    -0.000026546175    0.000029996880    0.037766554957    0.036483854695    -0.000017847889    0.000057027317
            -0.000025253509    0.000042430056    0.020907126437    0.040801727571    -0.000017847903    0.000057027327    0.034814427122    0.036038894306
0.150     0.044888612765    0.038713265985    -0.000020022007    0.000021936735    0.030830911028    0.045401187083    -0.000025017675    0.000055995006
            -0.000020021989    0.000021936731    0.041427061449    0.039085215718    -0.000030090797    0.000042602793    0.028319137599    0.045344792368
            0.030830910005    0.045401188987    -0.000030090798    0.000042602795    0.044613143825    0.038904122366    -0.000016093958    0.000073422081
            -0.000025017677    0.000055995009    0.028319129678    0.045344793777    -0.000016093974    0.000073422093    0.041148660630    0.039116543639
0.175     0.051487447136    0.039538482719    -0.000024196775    0.000033173340    0.038891213222    0.047786776745    -0.000022410721    0.000071002361
            -0.000024196754    0.000033173336    0.047764959851    0.040772718216    -0.000031105982    0.000057637704    0.036068629085    0.048385121768
            0.038891220953    0.047786774320    -0.000031105992    0.000057637699    0.051194515151    0.039828426208    -0.000011541901    0.000091268844
            -0.000022410723    0.000071002366    0.036068630774    0.048385120509    -0.000011541920    0.000091268852    0.047416936913    0.040920628617
0.200     0.057419810449    0.039058137629    -0.000025676816    0.000046462533    0.046751859005    0.048578553098    -0.000017057449    0.000086731951
            -0.000025676793    0.000046462530    0.053696489877    0.041289211958    -0.000029066342    0.000074137938    0.043816457883    0.049969061723
            0.046751858157    0.048578553914    -0.000029066355    0.000074137934    0.057132419595    0.039462879839    -0.000003831764    0.000109735051
            -0.000017057449    0.000086731953    0.043816450013    0.049969063304    -0.000003831787    0.000109735060    0.053313621966    0.041584846819
0.225     0.062386814782    0.037576309358    -0.000024218740    0.000060993356    0.054061839571    0.047959803733    -0.000008868728    0.000102628604
            -0.000024218815    0.000060993390    0.058967491024    0.040855853371    -0.000023849405    0.000091343372    0.051255624351    0.050217706940
            0.054061838734    0.047959804677    -0.000023849406    0.000091343375    0.062134337578    0.038104778465    0.000007153914    0.000128224179
            -0.000008868729    0.000102628614    0.051255625227    0.050217706045    0.000007153979    0.000128224145    0.058594482114    0.041317813042
0.250     0.066193896814    0.035478707142    -0.000019726366    0.000076026589    0.060539196969    0.046195047476    0.000002181851    0.000118121181
            -0.000019726433    0.000076026628    0.063403961068    0.039763433759    -0.000015421395    0.000108557136    0.058130628295    0.049321400553
            0.060539196162    0.046195048533    -0.000015421399    0.000108557135    0.066009352043    0.036131226116    0.000021400608    0.000146086423
            0.000002181852    0.000118121191    0.058130629156    0.049321399538    0.000021400589    0.000146086436    0.063089833064    0.040396838590
0.275     0.068770992801    0.033178020416    -0.000012299693    0.000090981505    0.065985736636    0.043602772533    0.000015977894    0.000132781769
            -0.000012299715    0.000090981521    0.066927170473    0.038325711192    -0.000003954750    0.000125259625    0.064246937622    0.047517331091
            0.065985739827    0.043602771333    -0.000003954759    0.000125259625    0.068688341675    0.033945546552    0.000038792617    0.000162858697
            0.000015977894    0.000132781769    0.064246938451    0.047517329969    0.000038792592    0.000162858703    0.066721865523    0.039120772995
0.300     0.070170554923    0.031094651917    -0.000002004452    0.000105381929    0.070299854743    0.040539320242    0.000032439947    0.000146204171
            -0.000002004430    0.000105381919    0.069553030115    0.036866079468    0.000010457881    0.000141025093    0.069484089330    0.045079122868
            0.070299854743    0.040539320242    0.000010457879    0.000141025094    0.070222282204    0.031957984885    0.000059208888    0.000178083846
            0.000032439944    0.000146204182    0.069484090117    0.045079121656    0.000059208872    0.000178083861    0.069503048690    0.037798905254
0.325     0.070563104718    0.029608889652    0.000010987363    0.000118824998    0.073478301217    0.037366704868    0.000051405537    0.000158049785
            0.000010987347    0.000118825010    0.071386635537    0.035678593351    0.000027620929    0.000155514326    0.073795489783    0.042291474866
            0.073478299674    0.037366705697    0.000027620961    0.000155514300    0.070776768757    0.030539485960    0.000082475481    0.000191392108
            0.000051405534    0.000158049786    0.073795490521    0.042291473578    0.000082475462    0.000191392128    0.071531566915    0.036712658483
0.350     0.070224843637    0.029044964870    0.000026607217    0.000130952112    0.075622284275    0.034435507606    0.000072783671    0.000167971420
            0.000026607238    0.000130952097    0.072614333586    0.035018887058    0.000047482457    0.000168410980    0.077216642105    0.039438299423
            0.075622283674    0.034435508926    0.000047482528    0.000168410919    0.070621026097    0.030006408606    0.000108470044    0.000202402160
            0.000072783668    0.000167971421    0.077216642793    0.039438298075    0.000108470098    0.000202402108    0.072983447264    0.036107247802
0.375     0.069515792004    0.029633093135    0.000044687514    0.000141407095    0.076923879368    0.032049019827    0.000096392896    0.000175631114
            0.000044687536    0.000141407088    0.073485126169    0.035073660017    0.000069896412    0.000179400097    0.079853351563    0.036774928964
            0.076923877522    0.032049019058    0.000069896449    0.000179400072    0.070105687878    0.030582616630    0.000136996386    0.000210743027
            0.000096392893    0.000175631116    0.079853353113    0.036774927989    0.000136996404    0.000210743015    0.074095093102    0.036162101152
0.400     0.068859241771    0.031499986130    0.000065149573    0.000149814218    0.077661726069    0.030448159189    0.000122101850    0.000180651249
            0.000065149519    0.000149814264    0.074297381486    0.035957211627    0.000094838366    0.000188117581    0.081882710768    0.034518310347
            0.077661724607    0.030448160179    0.000094838356    0.000188117586    0.069642795987    0.032391412281    0.000167899405    0.000216003313
            0.000122101850    0.000180651249    0.081882713214    0.034518309694    0.000167899382    0.000216003331    0.075150625984    0.036987746260
0.425     0.068706809695    0.034643803252    0.000087779764    0.000155776496    0.078172963027    0.029779626373    0.000149647420    0.000182647768
            0.000087779752    0.000155776513    0.075372668761    0.037691290370    0.000122140498    0.000194159593    0.083531643834    0.032821071414
            0.078172961573    0.029779627381    0.000122140498    0.000194159593    0.069672262681    0.035430366778    0.000200897640    0.000217758855
            0.000149647417    0.000182647771    0.083531646268    0.032821070688    0.000200897621    0.000217758872    0.076456933890    0.038606320985
0.450     0.069509941934    0.038936147741    0.000112396725    0.000158850244    0.078835469856    0.030088964795    0.000178768796    0.000181195010
            0.000112396744    0.000158850219    0.077038391474    0.040208492020    0.000151684148    0.000197039464    0.085068611534    0.031766994928
            0.078835467463    0.030088965458    0.000151684141    0.000197039469    0.070634064191    0.039573117506    0.000235704770    0.000215540495
            0.000178768786    0.000181195006    0.085068613962    0.031766994143    0.000235704766    0.000215540499    0.078327326199    0.040954596132
0.475     0.071677292840    0.044116774951    0.000138635391    0.000158596143    0.080027445409    0.031302568290    0.000209030392    0.000175893396
            0.000138635349    0.000158596207    0.079597254657    0.043344797317    0.000183142529    0.000196253766    0.086774620114    0.031352927253
            0.080027445409    0.031302568290    0.000183142522    0.000196253786    0.072927789022    0.044563488322    0.000271853592    0.000208897866
            0.000209030393    0.000175893410    0.086774623089    0.031352924904    0.000271853592    0.000208897866    0.081052958183    0.043876798995
0.500     0.075539964627    0.049818761326    0.000166098375    0.000154560477    0.082099332786    0.033240773857    0.000239953700    0.000166345281
            0.000166098324    0.000154560516    0.083308842389    0.046853474947    0.000216152902    0.000191246277    0.088928876085    0.031492910778
            0.082099328265    0.033240777029    0.000216152927    0.000191246279    0.076883838337    0.050033231536    0.000308822595    0.000197376385
            0.000239953703    0.000166345276    0.088928876085    0.031492910778    0.000308822562    0.000197376418    0.084885823666    0.047134457856
0.525     0.081258670458    0.055625198121    0.000194179976    0.000146402424    0.085299558158    0.035647535260    0.000270886464    0.000152276842
            0.000194179973    0.000146402411    0.088361199306    0.050411989368    0.000250107194    0.000181535460    0.091772783028    0.032010464033
            0.085299554446    0.035647538956    0.000250107215    0.000181535448    0.082727955165    0.055520175993    0.000345888038    0.000180625941
            0.000270886458    0.000152276833    0.091772786034    0.032010461489    0.000345888010    0.000180625973    0.090006665335    0.050407906539
0.550     0.089053915634    0.060179551087    0.000221916937    0.000133593322    0.089884213865    0.037642582198    0.000300760553    0.000133456195
            0.000221916928    0.000133593338    0.094858441304    0.053649086188    0.000284194345    0.000166694689    0.095484812047    0.032662471771
            0.089884213865    0.037642582198    0.000284194356    0.000166694709    0.090517732453    0.060503591832    0.000382124981    0.000158408437
            0.000300760562    0.000133456199    0.095484813757    0.032662466772    0.000382124998    0.000158408397    0.096493056794    0.053326337440
0.575     0.099036883949    0.064546074736    0.000249133194    0.000116262308    0.096090187400    0.039791040890    0.000329362616    0.000109744236
            0.000249133194    0.000116262308    0.102801617859    0.056163179985    0.000317698173    0.000146362561    0.100163779064    0.033176896316
            0.096090187400    0.039791040890    0.000317698180    0.000146362570    0.100288680968    0.064401196062    0.000416787220    0.000130559523
            0.000329362608    0.000109744228    0.100163781381    0.033176889323    0.000416787208    0.000130559528    0.104316987874    0.055530739332
0.600     0.110605021606    0.067063665207    0.000274442814    0.000094340163    0.103618838816    0.040926044215    0.000355390308    0.000081461026
            0.000274442825    0.000094340102    0.112087523125    0.057551152558    0.000349499134    0.000120507435    0.105861347229    0.033252582131
            0.103618835958    0.040926051449    0.000349499184    0.000120507384    0.111820851964    0.066638681521    0.000448767036    0.000097278881
            0.000355390324    0.000081461043    0.105861350711    0.033252571045    0.000448767005    0.000097278931    0.113402614959    0.056662707045
0.625     0.123575028499    0.067447824423    0.000297030208    0.000068115789    0.112242923714    0.040750799157    0.000378020434    0.000048956107
            0.000297030184    0.000068115805    0.122499805551    0.057435603511    0.000378517300    0.000089386847    0.112527126187    0.032553207141
            0.112242923003    0.040750801116    0.000378517310    0.000089386849    0.124511484332    0.066745481306    0.000477092670    0.000059014694
            0.000378020430    0.000048956139    0.112527127324    0.032553203213    0.000477092666    0.000059014726    0.123565258277    0.056350004580
0.650     0.137489954331    0.065314839646    0.000316089102    0.000037977002    0.121859925938    0.039045940239    0.000396498078    0.000012711576
            0.000316089092    0.000037976998    0.133734168512    0.055494248756    0.000403848348    0.000053264091    0.120017059843    0.030764890821
            0.121859925938    0.039045940239    0.000403848349    0.000053264086    0.138165854196    0.064582009037    0.000500947091    0.000016164496
            0.000396498046    0.000012711642    0.120017063065    0.030764878252    0.000500947069    0.000016164567    0.134514489477    0.054273820786
0.675     0.151771093430    0.060414114440    0.000330811289    0.000004653658    0.132083395374    0.035403178024    0.000410083192    -0.000026460761
            0.000330811278    0.000004653707    0.145403692457    0.051482693948    0.000424418237    0.000012826513    0.128098119891    0.027618053626
            0.132083403180    0.035403187529    0.000424418248    0.000012826468    0.152233881841    0.059692825046    0.000519401427    -0.000030425734
            0.000410083199    -0.000026460801    0.128098121337    0.027618046918    0.000519401437    -0.000030425740    0.145876192766    0.050196361816
0.700     0.165808887494    0.052633853016    0.000340647361    -0.000031014973    0.142453482430    0.029647613877    0.000418314147    -0.000067657023
            0.000340647352    -0.000031014968    0.157073523934    0.045250842146    0.000439464934    -0.000031061733    0.136482126929    0.022908037385
            0.142453482430    0.029647613877    0.000439464934    -0.000031061733    0.166073160773    0.051970362085    0.000531885731    -0.000079790138
            0.000418314148    -0.000067656951    0.136482126929    0.022908037385    0.000531885731    -0.000079790139    0.157230339050    0.043972875404
0.725     0.178973968609    0.042008937917    0.000345223727    -0.000068019275    0.152492115937    0.021710508687    0.000420909843    -0.000109832447
            0.000345223720    -0.000068019311    0.168273706322    0.036754841816    0.000448389518    -0.000077317474    0.144825511549    0.016502868282
            0.152492115369    0.021710512679    0.000448389526    -0.000077317484    0.179063366998    0.041452585355    0.000538009005    -0.000130810962
            0.000420909851    -0.000109832417    0.144825502046    0.016502863359    0.000538009013    -0.000130810884    0.168124195814    0.035559929342
0.750     0.190668280371    0.028713433361    0.000344442138    -0.000105357773    0.161730599412    0.011632018937    0.000417867804    -0.000151969100
            0.000344442113    -0.000105357857    0.178538211733    0.026054682246    0.000450892689    -0.000124829782    0.152769837150    0.008353818334
            0.161730598843    0.011632026841    0.000450892715    -0.000124829688    0.190618168028    0.028309952800    0.000537679090    -0.000182383999
            0.000417867813    -0.000151969104    0.152769837136    0.008353818601    0.000537679097    -0.000182384012    0.178108282633    0.025015496598
0.775     0.200344795898    0.013051699352    0.000338419502    -0.000141986950    0.169713611834    -0.000446810949    0.000409390634    -0.000193031801
            0.000338419490    -0.000141986979    0.187417697348    0.013314704941    0.000446899932    -0.000172388156    0.159940547885    -0.001507276618
            0.169713611834    -0.000446810742    0.000446899904    -0.000172388200    0.200201926632    0.012837306567    0.000531020165    -0.000233371477
            0.000409390631    -0.000193031809    0.159940537816    -0.001507283894    0.000531020181    -0.000233371440    0.186749812005    0.012496631500
0.800     0.207542110074    -0.004566872492    0.000327524571    -0.000176996225    0.176036734224    -0.014292643552    0.000395927370    -0.000232134000
            0.000327524559    -0.000176996225    0.194512109546    -0.001211120175    0.000436628082    -0.000218887982    0.165987168463    -0.012967227374
