!$
! Info: Touchstone file created by Circ.  Input file=Intel_C2M_200G_3p0in_202208016_staggered.circ
!$
# Hz S RI R 50
0	0.01292607	2.137169e-24	4.194564e-05	4.714752e-23	8.593895e-05	2.405967e-22	4.1938e-05	4.705077e-23
	4.194564e-05	4.714752e-23	0.01293928	2.408758e-24	4.195042e-05	4.719112e-23	8.552827e-05	2.394591e-22
	8.599726e-05	2.40725e-22	4.195041e-05	4.719205e-23	0.01292085	2.211891e-24	4.194067e-05	4.708854e-23
	4.193799e-05	4.705171e-23	8.558658e-05	2.395877e-22	4.194067e-05	4.708854e-23	0.0129372	2.286792e-24
1e+07	0.01570883	-0.0004935853	1.740065e-06	1.332696e-05	0.0009665195	0.004550612	6.051979e-06	1.320117e-05
	1.740067e-06	1.332697e-05	0.01582067	-0.0004993883	1.169928e-06	3.677172e-06	0.0009721223	0.004611151
	0.0009665195	0.004550612	1.169928e-06	3.677172e-06	0.01579865	-0.0004477189	1.697313e-06	1.27189e-05
	6.051979e-06	1.320117e-05	0.0009721223	0.004611151	1.697313e-06	1.27189e-05	0.01573537	-0.0004700589
2e+07	0.01788947	-0.0033609	2.051194e-06	7.621267e-06	0.002048892	0.008667377	3.544345e-06	9.338412e-06
	2.051195e-06	7.621286e-06	0.01798739	-0.003412149	7.374498e-06	8.284419e-06	0.00206171	0.008786807
	0.002048904	0.008667365	7.374498e-06	8.284419e-06	0.01797731	-0.003308225	1.398701e-06	6.664265e-06
	3.544345e-06	9.338412e-06	0.002061722	0.008786795	1.398701e-06	6.664265e-06	0.01792467	-0.003320995
3e+07	0.0192693	-0.007249381	3.612499e-06	6.042079e-06	0.003623115	0.0126734	1.881307e-06	8.869713e-06
	3.612499e-06	6.042079e-06	0.01934929	-0.007330098	1.373404e-05	1.012879e-05	0.003646401	0.01284925
	0.003623084	0.01267344	1.373404e-05	1.012879e-05	0.01935074	-0.007168664	2.493511e-06	5.073788e-06
	1.881307e-06	8.869713e-06	0.003646369	0.01284928	2.493511e-06	5.073788e-06	0.01930123	-0.007191987
4e+07	0.01984754	-0.01162617	4.865017e-06	4.826316e-06	0.0057471	0.01638919	3.943669e-06	7.894713e-06
	4.865017e-06	4.826316e-06	0.01990408	-0.01173163	1.887198e-05	9.405387e-06	0.00578364	0.0166187
	0.005747092	0.01638922	1.887198e-05	9.405387e-06	0.01993096	-0.01151578	3.367335e-06	3.973749e-06
	3.943669e-06	7.894713e-06	0.005783632	0.01661873	3.367336e-06	3.973749e-06	0.01987762	-0.01155389
5e+07	0.01974536	-0.01617759	5.847974e-06	3.635652e-06	0.008355137	0.01978525	5.738962e-06	6.720091e-06
	5.847974e-06	3.635652e-06	0.01977326	-0.01630358	2.300059e-05	7.257375e-06	0.008407319	0.02006524
	0.008355138	0.01978526	2.300059e-05	7.257375e-06	0.01983402	-0.01603736	4.043926e-06	2.976748e-06
	5.738962e-06	6.720091e-06	0.00840732	0.02006525	4.043926e-06	2.976748e-06	0.0197706	-0.01609114
6e+07	0.01903204	-0.02076868	6.57358e-06	2.396608e-06	0.01140903	0.02280861	7.187491e-06	5.3475e-06
	6.57358e-06	2.396608e-06	0.01902661	-0.02091068	2.620714e-05	4.163886e-06	0.01147871	0.02313541
	0.01140905	0.0228086	2.620714e-05	4.163886e-06	0.01912886	-0.02059855	4.530842e-06	1.990929e-06
	7.187491e-06	5.3475e-06	0.01147873	0.0231354	4.530842e-06	1.990929e-06	0.01904974	-0.0206672
7e+07	0.01774756	-0.02528696	7.043214e-06	1.099069e-06	0.01485949	0.0254091	8.296324e-06	3.793622e-06
	7.043214e-06	1.099069e-06	0.01770473	-0.02544008	2.851218e-05	3.776701e-07	0.01494789	0.02577859
	0.01485949	0.02540909	2.851218e-05	3.776701e-07	0.01785562	-0.02508766	4.826767e-06	9.917525e-07
	8.296324e-06	3.793622e-06	0.01494789	0.02577858	4.826767e-06	9.917522e-07	0.01775587	-0.02516922
8e+07	0.01594199	-0.02963027	7.249214e-06	-2.507558e-07	0.01865204	0.02754308	9.057449e-06	2.075984e-06
	7.249214e-06	-2.507558e-07	0.01585854	-0.02978919	2.989724e-05	-3.95397e-06	0.01875964	0.02795083
	0.01865204	0.02754308	2.989724e-05	-3.95397e-06	0.01606447	-0.02940287	4.925241e-06	-2.225561e-08
	9.057449e-06	2.075984e-06	0.01875964	0.02795083	4.925241e-06	-2.225562e-08	0.01593992	-0.02949455
9e+07	0.01368088	-0.03371179	7.168043e-06	-1.65068e-06	0.02272863	0.02917364	9.438486e-06	1.908474e-07
	7.168043e-06	-1.65068e-06	0.01355461	-0.03387077	3.02825e-05	-8.788985e-06	0.02285512	0.029615
	0.02272863	0.02917365	3.02825e-05	-8.788985e-06	0.01382051	-0.03345792	4.809219e-06	-1.049171e-06
	9.438486e-06	1.908473e-07	0.02285512	0.02961501	4.809219e-06	-1.049171e-06	0.01366776	-0.03355649
1e+08	0.01105913	-0.03743608	6.660657e-06	-3.195771e-06	0.02703012	0.03027104	9.247501e-06	-2.049929e-06
	6.660657e-06	-3.195771e-06	0.01088931	-0.03758894	2.915982e-05	-1.461282e-05	0.02717429	0.0307412
	0.02703012	0.03027104	2.915982e-05	-1.461282e-05	0.0112184	-0.03715756	4.377438e-06	-2.143896e-06
	9.247501e-06	-2.049929e-06	0.02717429	0.0307412	4.377438e-06	-2.143896e-06	0.01103475	-0.03725996
1.1e+08	0.008210394	-0.04095717	5.500398e-06	-4.053531e-06	0.03150879	0.03080137	7.949013e-06	-3.423033e-06
	5.500397e-06	-4.053531e-06	0.007996062	-0.04109961	2.505504e-05	-1.812606e-05	0.03166814	0.03129615
	0.03150879	0.03080137	2.505504e-05	-1.812606e-05	0.008454376	-0.04066409	3.523118e-06	-2.721554e-06
	7.949013e-06	-3.423033e-06	0.03166814	0.03129615	3.523118e-06	-2.721554e-06	0.008234392	-0.04076509
1.2e+08	0.004997813	-0.04413498	4.555911e-06	-4.565106e-06	0.036045	0.03075201	6.901261e-06	-4.242455e-06
	4.555911e-06	-4.565106e-06	0.004737725	-0.04426161	2.230965e-05	-1.936271e-05	0.03621675	0.03126745
	0.036045	0.030752	2.230965e-05	-1.936271e-05	0.005271353	-0.04385457	2.834825e-06	-3.068313e-06
	6.901261e-06	-4.242455e-06	0.03621675	0.03126745	2.834825e-06	-3.068313e-06	0.005014012	-0.04394788
1.3e+08	0.001531698	-0.04690597	3.720957e-06	-4.95166e-06	0.04058474	0.0301238	5.94106e-06	-4.806396e-06
	3.720957e-06	-4.95166e-06	0.001225867	-0.04701112	2.125613e-05	-1.861503e-05	0.04076535	0.03065615
	0.04058474	0.0301238	2.125613e-05	-1.861503e-05	0.001810499	-0.04662835	2.237581e-06	-3.344902e-06
	5.94106e-06	-4.806396e-06	0.04076535	0.03065615	2.237581e-06	-3.344902e-06	0.001515654	-0.0467085
1.4e+08	-0.002109996	-0.04925061	2.965667e-06	-5.162917e-06	0.04506531	0.0289219	5.046711e-06	-5.190248e-06
	2.965667e-06	-5.162917e-06	-0.002460639	-0.04932872	2.013649e-05	-1.806106e-05	0.04525052	0.02946788
	0.04506531	0.0289219	2.013649e-05	-1.806106e-05	-0.001828675	-0.04896411	1.670697e-06	-3.518148e-06
	5.046711e-06	-5.190248e-06	0.04525051	0.02946787	1.670697e-06	-3.518148e-06	-0.002160383	-0.04902604
1.5e+08	-0.005857015	-0.05116126	2.644304e-06	-4.943707e-06	0.04942218	0.02715727	4.216866e-06	-5.452014e-06
	2.644304e-06	-4.943707e-06	-0.006250741	-0.05120712	1.898641e-05	-1.762193e-05	0.04960711	0.02771411
	0.04942218	0.02715726	1.898641e-05	-1.762193e-05	-0.005568403	-0.0508607	1.131005e-06	-3.605134e-06
	4.216866e-06	-5.452014e-06	0.04960711	0.02771411	1.131005e-06	-3.605134e-06	-0.005935632	-0.05089972
1.6e+08	-0.009643293	-0.05263981	2.321718e-06	-4.740202e-06	0.05359156	0.02484752	3.578611e-06	-5.513671e-06
	2.321718e-06	-4.740202e-06	-0.01007765	-0.05264861	1.782003e-05	-1.724339e-05	0.05377078	0.02541315
	0.05359156	0.02484752	1.782003e-05	-1.724339e-05	-0.009340976	-0.0523254	8.909537e-07	-3.431312e-06
	3.578611e-06	-5.513671e-06	0.05377078	0.02541315	8.909537e-07	-3.431312e-06	-0.009741746	-0.05233729
1.7e+08	-0.01340564	-0.05369692	2.004138e-06	-4.557238e-06	0.05751174	0.02201685	3.309533e-06	-5.293793e-06
	2.004138e-06	-4.557238e-06	-0.01387754	-0.05366441	1.664488e-05	-1.688429e-05	0.05767934	0.02258993
	0.05751173	0.02201685	1.664488e-05	-1.688429e-05	-0.0130847	-0.05337234	6.595114e-07	-3.275649e-06
	3.309533e-06	-5.293793e-06	0.05767934	0.02258992	6.595114e-07	-3.275649e-06	-0.01351647	-0.0533534
1.8e+08	-0.01708484	-0.05435208	1.688642e-06	-4.369985e-06	0.06112398	0.01869588	3.040546e-06	-5.087671e-06
	1.688642e-06	-4.369985e-06	-0.01759068	-0.05427465	1.547228e-05	-1.652155e-05	0.06127374	0.01927583
	0.06112398	0.01869588	1.547228e-05	-1.652155e-05	-0.01674249	-0.05402278	4.300494e-07	-3.11549e-06
	3.040546e-06	-5.087671e-06	0.06127374	0.01927583	4.300494e-07	-3.11549e-06	-0.01720222	-0.05396991
1.9e+08	-0.0206257	-0.05463303	1.378386e-06	-4.17447e-06	0.06437372	0.01492156	2.774389e-06	-4.889373e-06
	1.378386e-06	-4.17447e-06	-0.0211615	-0.0545078	1.431137e-05	-1.613992e-05	0.06449914	0.01550871
	0.06437372	0.01492156	1.431137e-05	-1.613992e-05	-0.02026151	-0.0543051	2.053474e-07	-2.947188e-06
	2.774389e-06	-4.889373e-06	0.06449913	0.01550871	2.053474e-07	-2.947188e-06	-0.02074584	-0.05421589
2e+08	-0.02397886	-0.05457542	1.076619e-06	-3.967293e-06	0.06721095	0.01073635	2.51343e-06	-4.694146e-06
	1.076619e-06	-3.967293e-06	-0.0245406	-0.05440026	1.316913e-05	-1.57296e-05	0.06730536	0.01133192
	0.06721095	0.01073635	1.316913e-05	-1.57296e-05	-0.02359398	-0.05425439	-1.242895e-08	-2.769332e-06
	2.51343e-06	-4.694146e-06	0.06730536	0.01133192	-1.242895e-08	-2.769332e-06	-0.02409912	-0.05412719
2.1e+08	-0.02710196	-0.05422102	7.861722e-07	-3.747121e-06	0.06959068	0.006187777	2.259653e-06	-4.499173e-06
	7.861722e-07	-3.747121e-06	-0.0276853	-0.05399457	1.205335e-05	-1.528541e-05	0.06964742	0.006793875
	0.06959068	0.006187777	1.205335e-05	-1.528541e-05	-0.02669888	-0.05391226	-2.206511e-07	-2.580813e-06
	2.259653e-06	-4.499173e-06	0.06964742	0.006793875	-2.206511e-07	-2.580813e-06	-0.02722116	-0.05374617
2.2e+08	-0.02995981	-0.05361789	5.096802e-07	-3.513279e-06	0.07147344	0.001327671	2.014765e-06	-4.30253e-06
	5.096802e-07	-3.513279e-06	-0.03056044	-0.05333957	1.097016e-05	-1.480374e-05	0.07148597	0.00194735
	0.07147344	0.001327671	1.097016e-05	-1.480374e-05	-0.02954214	-0.05332547	-4.171954e-07	-2.381325e-06
	2.014765e-06	-4.30253e-06	0.07148597	0.00194735	-4.171954e-07	-2.381325e-06	-0.03007792	-0.05312037
2.3e+08	-0.03252543	-0.05281801	2.495519e-07	-3.265752e-06	0.07282599	-0.003788456	1.780246e-06	-4.102989e-06
	2.495519e-07	-3.265752e-06	-0.0331392	-0.05248804	9.925101e-06	-1.428277e-05	0.07278794	-0.003151239
	0.07282599	-0.003788457	9.925101e-06	-1.428277e-05	-0.0320969	-0.05254519	-6.001392e-07	-2.171053e-06
	1.780246e-06	-4.102989e-06	0.07278794	-0.003151239	-6.001392e-07	-2.171053e-06	-0.03264281	-0.05230172
2.4e+08	-0.03478044	-0.0518764	7.988603e-09	-3.00505e-06	0.07362103	-0.009101867	1.557411e-06	-3.899862e-06
	7.988602e-09	-3.00505e-06	-0.03540347	-0.05149568	8.923182e-06	-1.372214e-05	0.07352638	-0.008442248
	0.07362103	-0.009101868	8.923182e-06	-1.372214e-05	-0.0343456	-0.05162588	-7.67728e-07	-1.950595e-06
	1.557411e-06	-3.899862e-06	0.07352638	-0.008442248	-7.67728e-07	-1.950595e-06	-0.03489854	-0.05134537
2.5e+08	-0.03671555	-0.05084991	-2.130442e-07	-2.732145e-06	0.07383766	-0.01455155	1.34738e-06	-3.692879e-06
	-2.130442e-07	-2.732145e-06	-0.03734438	-0.05042007	7.968929e-06	-1.312254e-05	0.0736808	-0.01386377
	0.07383766	-0.01455155	7.968929e-06	-1.312254e-05	-0.0362786	-0.0506234	-9.184192e-07	-1.720873e-06
	1.34738e-06	-3.692879e-06	0.0736808	-0.01386377	-9.184192e-07	-1.720873e-06	-0.03683601	-0.05030782
2.6e+08	-0.03833004	-0.04979583	-4.118433e-07	-2.448364e-06	0.07346195	-0.02007481	1.151114e-06	-3.482097e-06
	-4.118433e-07	-2.448364e-06	-0.03896176	-0.04931904	7.066389e-06	-1.248555e-05	0.07323782	-0.01935229
	0.07346195	-0.02007481	7.066389e-06	-1.248555e-05	-0.03789557	-0.04959475	-1.050894e-06	-1.483096e-06
	1.151114e-06	-3.482097e-06	0.07323782	-0.01935229	-1.050894e-06	-1.483096e-06	-0.0384555	-0.04924659
2.7e+08	-0.03963202	-0.04877074	-5.869517e-07	-2.155343e-06	0.07248607	-0.02560769	9.694003e-07	-3.26783e-06
	-5.869517e-07	-2.155343e-06	-0.04026436	-0.0482497	6.219116e-06	-1.181349e-05	0.07219028	-0.02484306
	0.07248607	-0.02560769	6.219116e-06	-1.181349e-05	-0.03920456	-0.0485959	-1.164063e-06	-1.238695e-06
	9.694003e-07	-3.26783e-06	0.07219028	-0.02484306	-1.164063e-06	-1.238695e-06	-0.03976573	-0.04821811
2.8e+08	-0.04063863	-0.04782913	-7.372079e-07	-1.854979e-06	0.07090917	-0.031086	8.028859e-07	-3.050604e-06
	-7.372079e-07	-1.854979e-06	-0.04127	-0.04726691	5.430269e-06	-1.110926e-05	0.07053806	-0.03027116
	0.07090917	-0.031086	5.430269e-06	-1.110926e-05	-0.04022235	-0.04768064	-1.257065e-06	-9.892798e-07
	8.028859e-07	-3.050604e-06	0.07053806	-0.03027116	-1.257065e-06	-9.892798e-07	-0.04078435	-0.04727646
2.9e+08	-0.04137476	-0.04702233	-8.617439e-07	-1.549358e-06	0.06873723	-0.03644578	6.520567e-07	-2.831103e-06
	-8.617439e-07	-1.549358e-06	-0.04200441	-0.04642224	4.702576e-06	-1.037624e-05	0.06828799	-0.035572
	0.06873723	-0.03644578	4.702576e-06	-1.037624e-05	-0.04097413	-0.04690028	-1.329295e-06	-7.365907e-07
	6.520567e-07	-2.831103e-06	0.06828799	-0.035572	-1.329295e-06	-7.365907e-07	-0.04153737	-0.04647308
3e+08	-0.04187313	-0.04639731	-9.5999e-07	-1.240697e-06	0.06598248	-0.04162376	5.172522e-07	-2.610114e-06
	-9.5999e-07	-1.240697e-06	-0.04250114	-0.04576278	4.038291e-06	-9.618206e-06	0.06545325	-0.04068172
	0.06598248	-0.04162376	4.038291e-06	-9.618206e-06	-0.04149231	-0.04630146	-1.380385e-06	-4.824537e-07
	5.172522e-07	-2.610114e-06	0.06545325	-0.04068172	-1.380385e-06	-4.824537e-07	-0.04205815	-0.04585464
3.1e+08	-0.04217332	-0.04599575	-1.031701e-06	-9.31304e-07	0.06266395	-0.04655842	3.986666e-07	-2.38852e-06
	-1.031701e-06	-9.31304e-07	-0.04280061	-0.04533019	3.439245e-06	-8.839236e-06	0.06205386	-0.04553837
	0.06266395	-0.04655842	3.439245e-06	-8.839236e-06	-0.04181683	-0.0459259	-1.410222e-06	-2.287463e-07
	3.986666e-07	-2.38852e-06	0.06205386	-0.04553837	-1.410222e-06	-2.287463e-07	-0.04238761	-0.04546267
3.2e+08	-0.0423215	-0.04585342	-1.076923e-06	-6.235286e-07	0.05880701	-0.05119048	2.963567e-07	-2.167251e-06
	-1.076923e-06	-6.235286e-07	-0.04294993	-0.04516008	2.906846e-06	-8.043685e-06	0.05811631	-0.05008229
	0.05880701	-0.05119048	2.906846e-06	-8.043685e-06	-0.04199355	-0.04580826	-1.418947e-06	2.265725e-08
	2.963567e-07	-2.167251e-06	0.05811631	-0.05008229	-1.418947e-06	2.265725e-08	-0.04257251	-0.04533149
3.3e+08	-0.04236889	-0.04599887	-1.095991e-06	-3.196988e-07	0.05444295	-0.05546304	2.102601e-07	-1.947257e-06
	-1.095991e-06	-3.196988e-07	-0.04300123	-0.04528061	2.442108e-06	-7.236045e-06	0.05367306	-0.05425632
	0.05444295	-0.05546304	2.442108e-06	-7.236045e-06	-0.0420741	-0.04597721	-1.406905e-06	2.698933e-07
	2.102601e-07	-1.947257e-06	0.05367306	-0.05425632	-1.406905e-06	2.698933e-07	-0.04266547	-0.0454892
3.4e+08	-0.0423715	-0.04645263	-1.089555e-06	-2.210234e-08	0.04960909	-0.05932317	1.401819e-07	-1.729509e-06
	-1.089555e-06	-2.210232e-08	-0.04301134	-0.04571183	2.045579e-06	-6.421024e-06	0.04876262	-0.05800748
	0.04960909	-0.05932317	2.045579e-06	-6.421024e-06	-0.04211397	-0.04645275	-1.374676e-06	5.111759e-07
	1.401819e-07	-1.729509e-06	0.04876262	-0.05800748	-1.374676e-06	5.111759e-07	-0.04272283	-0.04595506
3.5e+08	-0.04238842	-0.04722701	-1.058519e-06	2.670867e-07	0.04434809	-0.06272148	8.583305e-08	-1.514948e-06
	-1.058519e-06	2.670867e-07	-0.04304016	-0.04646532	1.717399e-06	-5.603378e-06	0.04342891	-0.06128636
	0.04434809	-0.06272148	1.717399e-06	-5.603378e-06	-0.04217286	-0.04724709	-1.323031e-06	7.447869e-07
	8.583305e-08	-1.514948e-06	0.04342891	-0.06128636	-1.323031e-06	7.447869e-07	-0.04280503	-0.04674041
3.6e+08	-0.04248124	-0.04832555	-1.004035e-06	5.458065e-07	0.03870798	-0.06561337	4.681639e-08	-1.304496e-06
	-1.004035e-06	5.458065e-07	-0.04314999	-0.04754382	1.457305e-06	-4.787944e-06	0.03772122	-0.06404859
	0.03870798	-0.06561337	1.457305e-06	-4.787944e-06	-0.04231191	-0.04836294	-1.252934e-06	9.691399e-07
	4.681639e-08	-1.304496e-06	0.03772122	-0.06404859	-1.252934e-06	9.691399e-07	-0.04297392	-0.04784688
3.7e+08	-0.04271207	-0.04974237	-9.274745e-07	8.121857e-07	0.03274103	-0.06795963	2.265279e-08	-1.099022e-06
	-9.274745e-07	8.121857e-07	-0.04340353	-0.04894044	1.264606e-06	-3.97954e-06	0.03169309	-0.06625525
	0.03274103	-0.06795963	1.264606e-06	-3.97954e-06	-0.04259322	-0.04979407	-1.165494e-06	1.182782e-06
	2.265279e-08	-1.099022e-06	0.03169309	-0.06625525	-1.165494e-06	1.182782e-06	-0.04329207	-0.04926694
3.8e+08	-0.04314311	-0.05146249	-8.303856e-07	1.064533e-06	0.02650365	-0.06972618	1.280094e-08	-8.99349e-07
	-8.303856e-07	1.064533e-06	-0.04386342	-0.05063905	1.138208e-06	-3.182969e-06	0.02540217	-0.06787277
	0.02650365	-0.06972618	1.138208e-06	-3.182969e-06	-0.04307918	-0.05152513	-1.061947e-06	1.384395e-06
	1.280094e-08	-8.99349e-07	0.02540217	-0.06787277	-1.061947e-06	1.384395e-06	-0.0438222	-0.05098391
3.9e+08	-0.04383548	-0.05346077	-7.144969e-07	1.301369e-06	0.02005596	-0.07088562	1.664416e-08	-7.062512e-07
	-7.144969e-07	1.301369e-06	-0.0445911	-0.05261327	1.07659e-06	-2.403018e-06	0.01890986	-0.06887442
	0.02005596	-0.07088562	1.07659e-06	-2.403018e-06	-0.04382986	-0.0535303	-9.436544e-07	1.572835e-06
	1.664416e-08	-7.062512e-07	0.01890986	-0.06887442	-9.436544e-07	1.572835e-06	-0.04462448	-0.05297042
4e+08	-0.04484689	-0.05570328	-5.816314e-07	1.521443e-06	0.0134605	-0.07141663	3.35332e-08	-5.204329e-07
	-5.816314e-07	1.521443e-06	-0.04564436	-0.05482775	1.077853e-06	-1.644336e-06	0.01227979	-0.06923966
	0.0134605	-0.07141663	1.077853e-06	-1.644336e-06	-0.04490319	-0.05577569	-8.120449e-07	1.747118e-06
	3.35332e-08	-5.204329e-07	0.01227979	-0.06923966	-8.120449e-07	1.747118e-06	-0.04575672	-0.05519101
4.1e+08	-0.04623048	-0.05814755	-4.336875e-07	1.723754e-06	0.006782106	-0.0713047	6.278526e-08	-3.425228e-07
	-4.336875e-07	1.723754e-06	-0.0470762	-0.05723861	1.139709e-06	-9.113736e-07	0.0055779	-0.06895496
	0.006782106	-0.0713047	1.139709e-06	-9.113736e-07	-0.04635215	-0.05821804	-6.686018e-07	1.90644e-06
	6.278526e-08	-3.425228e-07	0.0055779	-0.06895496	-6.686018e-07	1.90644e-06	-0.04727149	-0.05760077
4.2e+08	-0.04803495	-0.06074138	-2.726273e-07	1.907539e-06	8.674272e-05	-0.07054273	1.036816e-07	-1.731173e-07
	-2.726273e-07	1.907539e-06	-0.04893492	-0.05979211	1.259461e-06	-2.085311e-07	-0.001128906	-0.06801431
	8.674272e-05	-0.07054273	1.259461e-06	-2.085311e-07	-0.04822478	-0.06080475	-5.148556e-07	2.050158e-06
	1.036816e-07	-1.731173e-07	-0.001128906	-0.06801431	-5.148556e-07	2.050158e-06	-0.04921615	-0.06014542
4.3e+08	-0.05030149	-0.06342571	-1.003855e-07	2.072263e-06	-0.006559335	-0.06913026	1.555065e-07	-1.272485e-08
	-1.003855e-07	2.072263e-06	-0.05126111	-0.0624277	1.43408e-06	4.601269e-07	-0.007773498	-0.06641849
	-0.006559335	-0.06913026	1.43408e-06	4.601269e-07	-0.05056196	-0.06347671	-3.523178e-07	2.177806e-06
	1.555065e-07	-1.272485e-08	-0.007773498	-0.06641849	-3.523178e-07	2.177806e-06	-0.05163063	-0.06276424
4.4e+08	-0.05306376	-0.06613474	8.111313e-08	2.217623e-06	-0.01308992	-0.06707422	2.175275e-07	1.38184e-07
	8.111313e-08	2.217623e-06	-0.05408752	-0.06507812	1.660186e-06	1.090745e-06	-0.01428895	-0.06417574
	-0.01308992	-0.06707422	1.660186e-06	1.090745e-06	-0.05339695	-0.06616739	-1.825111e-07	2.289061e-06
	2.175275e-07	1.38184e-07	-0.01428895	-0.06417574	-1.825111e-07	2.289061e-06	-0.05454692	-0.06538913
4.5e+08	-0.05634658	-0.06879568	2.700084e-07	2.343513e-06	-0.0194402	-0.06438872	2.890129e-07	2.791826e-07
	2.700084e-07	2.343513e-06	-0.05743778	-0.06766916	1.934059e-06	1.679717e-06	-0.0206099	-0.06130162
	-0.0194402	-0.06438872	1.934059e-06	1.679717e-06	-0.05675411	-0.06880386	-6.92195e-09	2.383759e-06
	2.890129e-07	2.791826e-07	-0.0206099	-0.06130162	-6.92195e-09	2.383759e-06	-0.05798779	-0.06794572
4.6e+08	-0.06016522	-0.07133127	4.645323e-07	2.450015e-06	-0.02554726	-0.06109459	3.692397e-07	4.098878e-07
	4.645323e-07	2.450015e-06	-0.06132572	-0.07012222	2.251701e-06	2.22379e-06	-0.02667308	-0.05781848
	-0.02554726	-0.06109459	2.251701e-06	2.22379e-06	-0.06064812	-0.07130917	1.730108e-07	2.46186e-06
	3.692397e-07	4.098878e-07	-0.02667308	-0.05781848	1.730108e-07	2.46186e-06	-0.0619661	-0.07035582
4.7e+08	-0.06452339	-0.07366191	6.630311e-07	2.537395e-06	-0.03135141	-0.05721925	4.574831e-07	5.299672e-07
	6.630311e-07	2.537395e-06	-0.06575334	-0.07235669	2.608834e-06	2.720126e-06	-0.03241856	-0.05375527
	-0.03135141	-0.05721925	2.608834e-06	2.720126e-06	-0.06508265	-0.07360251	3.559076e-07	2.523459e-06
	4.574831e-07	5.299672e-07	-0.03241856	-0.05375527	3.559076e-07	2.523459e-06	-0.06648341	-0.07253758
4.8e+08	-0.06941543	-0.07570486	8.639796e-07	2.606011e-06	-0.03679599	-0.05279634	5.530354e-07	6.390925e-07
