!$
! Info: Touchstone file created by Circ.  Input file=Intel_C2M_200G_3p0in_202208016_staggered.circ
!$
# Hz S RI R 50
0	0.01293928	2.408758e-24	0.9868593	-4.329371e-24	8.552827e-05	2.394591e-22	-0.0002173036	2.661202e-20
	0.9868593	-4.327739e-24	0.01349632	4.837775e-24	-0.000217359	2.66188e-20	0.0003111621	3.074695e-22
	8.558658e-05	2.395877e-22	-0.000217497	2.66357e-20	0.0129372	2.286792e-24	0.9868597	-4.359534e-24
	-0.0002174416	2.662892e-20	0.0003112318	3.07684e-22	0.9868597	-4.361174e-24	0.01349773	4.909893e-24
1e+07	0.01582067	-0.0004993883	0.9817558	-0.06782674	0.0009721223	0.004611151	-0.0006661175	-0.0005438304
	0.9817558	-0.06782674	0.01574734	-0.0004197742	-0.0006661029	-0.0005438335	0.0009322302	0.004620546
	0.0009721223	0.004611151	-0.0006661029	-0.0005438335	0.01573537	-0.0004700589	0.9818432	-0.0678315
	-0.0006661175	-0.0005438304	0.0009322302	0.004620546	0.9818432	-0.0678315	0.01566286	-0.0003909778
2e+07	0.01798739	-0.003412149	0.9724811	-0.1328483	0.00206171	0.008786807	-0.000838	-0.0007830928
	0.9724811	-0.1328483	0.01786969	-0.003076042	-0.0008379087	-0.0007832106	0.001858031	0.008887634
	0.002061722	0.008786795	-0.0008379037	-0.0007833219	0.01792467	-0.003320995	0.9725545	-0.1328928
	-0.0008379943	-0.0007831977	0.001858117	0.00888753	0.9725545	-0.1328928	0.01780154	-0.002982765
3e+07	0.01934929	-0.007330098	0.9595654	-0.1960695	0.003646401	0.01284925	-0.0009806133	-0.001003518
	0.9595654	-0.1960695	0.01874738	-0.006967034	-0.0009805581	-0.001003638	0.003315354	0.0129514
	0.003646369	0.01284928	-0.0009806003	-0.001003639	0.01930123	-0.007191987	0.9596257	-0.196136
	-0.0009806253	-0.001003524	0.003315331	0.01295137	0.9596257	-0.196136	0.0187067	-0.006831436
4e+07	0.01990408	-0.01173163	0.94288	-0.257834	0.00578364	0.0166187	-0.001107471	-0.001214441
	0.94288	-0.257834	0.0188151	-0.01107752	-0.001107442	-0.001214552	0.005205992	0.01682363
	0.005783632	0.01661873	-0.001107447	-0.001214548	0.01987762	-0.01155389	0.9429273	-0.2579178
	-0.001107473	-0.001214428	0.005205992	0.01682364	0.9429273	-0.2579178	0.01880166	-0.01090589
5e+07	0.01977326	-0.01630358	0.9224428	-0.3180566	0.008407319	0.02006524	-0.001224935	-0.001424246
	0.9224428	-0.3180566	0.01814749	-0.01527777	-0.001224953	-0.001424437	0.007533783	0.02043526
	0.00840732	0.02006525	-0.001224949	-0.001424438	0.0197706	-0.01609114	0.9224775	-0.3181554
	-0.001224932	-0.001424247	0.007533786	0.02043527	0.9224775	-0.3181554	0.01816416	-0.01507503
6e+07	0.01902661	-0.02091068	0.8983297	-0.3765743	0.01147871	0.02313541	-0.001338605	-0.001644181
	0.8983297	-0.3765743	0.01677479	-0.01938516	-0.001338758	-0.00164445	0.01026231	0.02373974
	0.01147873	0.0231354	-0.001338756	-0.001644451	0.01904974	-0.0206672	0.8983513	-0.3766864
	-0.001338603	-0.001644181	0.01026231	0.02373974	0.8983513	-0.3766864	0.01682478	-0.0191562
7e+07	0.01770473	-0.02544008	0.8706428	-0.4332043	0.01494789	0.02577859	-0.001457878	-0.001883131
	0.8706428	-0.4332043	0.01477043	-0.02325223	-0.001458177	-0.001883521	0.01335224	0.02669757
	0.01494789	0.02577858	-0.001458123	-0.001883567	0.01775587	-0.02516922	0.8706497	-0.4333282
	-0.001457875	-0.001883132	0.01335224	0.02669757	0.8706497	-0.4333282	0.01485615	-0.02300241
8e+07	0.01585854	-0.02978919	0.839501	-0.4877586	0.01875964	0.02795083	-0.001594027	-0.002146473
	0.839501	-0.4877586	0.01221606	-0.02677159	-0.001594549	-0.002146997	0.01675981	0.02927403
	0.01875964	0.02795083	-0.00159455	-0.002146994	0.01593992	-0.02949455	0.8394937	-0.4878933
	-0.001594029	-0.002146471	0.01675981	0.02927403	0.8394937	-0.4878933	0.01233907	-0.02650668
9e+07	0.01355461	-0.03387077	0.8050366	-0.540053	0.02285512	0.029615	-0.001759685	-0.002436216
	0.8050366	-0.540053	0.009193584	-0.02985449	-0.001760518	-0.002436836	0.02043867	0.03144058
	0.02285512	0.02961501	-0.001760518	-0.002436827	0.01366776	-0.03355649	0.8050124	-0.5401965
	-0.001759688	-0.002436206	0.02043867	0.03144058	0.8050124	-0.5401965	0.009354968	-0.02957983
1e+08	0.01088931	-0.03758894	0.7673688	-0.5899398	0.02717429	0.0307412	-0.001970395	-0.002751919
	0.7673688	-0.5899398	0.005809871	-0.03239496	-0.001971731	-0.002752505	0.02434334	0.03317524
	0.02717429	0.0307412	-0.00197173	-0.002752506	0.01103475	-0.03725996	0.7673286	-0.5900906
	-0.001970394	-0.00275192	0.02434334	0.03317524	0.7673286	-0.5900906	0.006009908	-0.03211649
1.1e+08	0.007996062	-0.04109961	0.7265792	-0.6370453	0.03166814	0.03129615	-0.002238349	-0.003072228
	0.7265792	-0.6370453	0.002264185	-0.03449294	-0.002240302	-0.003071634	0.02841855	0.03444629
	0.03166814	0.03129615	-0.002240301	-0.003071635	0.008234392	-0.04076509	0.7265247	-0.6372037
	-0.002238349	-0.003072229	0.02841855	0.03444629	0.7265247	-0.6372037	0.002500537	-0.03419873
1.2e+08	0.004737725	-0.04426161	0.6830519	-0.6812431	0.03621675	0.03126745	-0.002558145	-0.003405393
	0.6830519	-0.6812431	-0.00156576	-0.03608683	-0.002559958	-0.003404181	0.0325995	0.03525215
	0.03621675	0.03126745	-0.002559958	-0.003404182	0.005014012	-0.04394788	0.6829794	-0.6814095
	-0.002558145	-0.003405394	0.0325995	0.03525215	0.6829794	-0.6814095	-0.00128704	-0.03579208
1.3e+08	0.001225867	-0.04701112	0.6369568	-0.7224283	0.04076535	0.03065615	-0.002945561	-0.003742991
	0.6369568	-0.7224283	-0.005558152	-0.03709403	-0.002947292	-0.003741919	0.03683638	0.03559254
	0.04076535	0.03065615	-0.002947292	-0.00374192	0.001515654	-0.0467085	0.6368654	-0.7226025
	-0.002945561	-0.003742992	0.03683638	0.03559254	0.6368654	-0.7226025	-0.005239061	-0.03680965
1.4e+08	-0.002460639	-0.04932872	0.5884923	-0.7604733	0.04525052	0.02946788	-0.003410383	-0.004073286
	0.5884923	-0.7604733	-0.009606926	-0.03748494	-0.003412602	-0.00407224	0.04107786	0.03547154
	0.04525051	0.02946787	-0.003412602	-0.004072241	-0.002160383	-0.04902604	0.5883796	-0.7606518
	-0.003410383	-0.004073287	0.04107786	0.03547154	0.5883796	-0.7606518	-0.00925195	-0.03721744
1.5e+08	-0.006250741	-0.05120712	0.5378645	-0.7952578	0.04960711	0.02771411	-0.003959354	-0.004381828
	0.5378645	-0.7952578	-0.01360863	-0.03725251	-0.003962303	-0.004380683	0.04527436	0.03489848
	0.04960711	0.02771411	-0.003962304	-0.004380684	-0.005935632	-0.05089972	0.5377301	-0.7954383
	-0.003959355	-0.004381829	0.04527436	0.03489848	0.5377301	-0.7954383	-0.01322248	-0.03700573
1.6e+08	-0.01007765	-0.05264861	0.4852866	-0.8266703	0.05377078	0.02541315	-0.004595982	-0.00465253
	0.4852866	-0.8266703	-0.01746324	-0.03640747	-0.004599802	-0.004650904	0.04937853	0.03388821
	0.05377078	0.02541315	-0.004599802	-0.004650905	-0.009741746	-0.05233729	0.4851285	-0.8268518
	-0.004595983	-0.004652531	0.04937853	0.03388821	0.4851285	-0.8268518	-0.01705035	-0.03618347
1.7e+08	-0.01387754	-0.05366441	0.4309764	-0.8546152	0.05767934	0.02258993	-0.005320481	-0.004868284
	0.4309764	-0.8546152	-0.02107588	-0.03497586	-0.005325169	-0.004865661	0.05334568	0.03245996
	0.05767934	0.02258992	-0.005325169	-0.004865662	-0.01351647	-0.0533534	0.4307938	-0.8547958
	-0.005320481	-0.004868285	0.05334568	0.03245996	0.4307938	-0.8547958	-0.02063981	-0.03477588
1.8e+08	-0.01759068	-0.05427465	0.375156	-0.8790101	0.06127374	0.01927583	-0.006129723	-0.005011567
	0.375156	-0.8790101	-0.02435762	-0.03299684	-0.006135079	-0.005007576	0.05713468	0.03063751
	0.06127374	0.01927583	-0.006135079	-0.005007576	-0.01720222	-0.05396991	0.3749476	-0.8791868
	-0.006129723	-0.005011567	0.05713468	0.03063751	0.3749476	-0.8791868	-0.02390186	-0.03282179
1.9e+08	-0.0211615	-0.0545078	0.3180514	-0.8997832	0.06449914	0.01550871	-0.007017248	-0.005064731
	0.3180514	-0.8997832	-0.0272274	-0.0305219	-0.007022972	-0.005059072	0.06070808	0.02844891
	0.06449913	0.01550871	-0.007022972	-0.005059072	-0.02074584	-0.05421589	0.3178182	-0.8999549
	-0.007017248	-0.005064731	0.06070808	0.02844891	0.3178182	-0.8999549	-0.0267549	-0.03037255
2e+08	-0.0245406	-0.05440026	0.2598905	-0.9168777	0.06730536	0.01133192	-0.007973205	-0.005011023
	0.2598905	-0.9168777	-0.02961202	-0.027613	-0.007978918	-0.005003684	0.06403212	0.02592495
	0.06730536	0.01133192	-0.007978918	-0.005003684	-0.02409912	-0.05412719	0.2596302	-0.9170406
	-0.007973205	-0.005011024	0.06403212	0.02592495	0.2596302	-0.9170406	-0.02912597	-0.02748953
2.1e+08	-0.0276853	-0.05399457	0.2009018	-0.9302511	0.06964742	0.006793875	-0.008984739	-0.004835372
	0.2009018	-0.9302511	-0.03144867	-0.02434113	-0.008990089	-0.004826035	0.06707814	0.02309983
	0.06964742	0.006793875	-0.008990089	-0.004826035	-0.02722116	-0.05374617	0.2006148	-0.9304021
	-0.008984739	-0.004835372	0.06707814	0.02309983	0.2006148	-0.9304021	-0.03095158	-0.02424386
2.2e+08	-0.03056044	-0.05333957	0.1413146	-0.9398719	0.07148597	0.00194735	-0.01003593	-0.004524041
	0.1413146	-0.9398719	-0.03268387	-0.02078537	-0.01004051	-0.004512828	0.06982144	0.02000965
	0.07148597	0.00194735	-0.01004051	-0.004512828	-0.03007792	-0.05312037	0.1410011	-0.940008
	-0.01003593	-0.004524041	0.06982144	0.02000965	0.1410011	-0.940008	-0.03217895	-0.02071404
2.3e+08	-0.0331392	-0.05248804	0.08136014	-0.9457211	0.07278794	-0.003151239	-0.01110837	-0.004066473
	0.08136014	-0.9457211	-0.0332758	-0.01703142	-0.01111187	-0.004053195	0.07224195	0.01669218
	0.07278794	-0.003151239	-0.01111187	-0.004053195	-0.03264281	-0.05230172	0.08101951	-0.9458393
	-0.01110837	-0.004066473	0.07224195	0.01669218	0.08101951	-0.9458393	-0.03276593	-0.01698523
2.4e+08	-0.03540347	-0.05149568	0.02126614	-0.9477948	0.07352638	-0.008442248	-0.01218171	-0.003454093
	0.02126614	-0.9477948	-0.03319435	-0.01316956	-0.0121837	-0.003439051	0.0743247	0.01318656
	0.07352638	-0.008442248	-0.0121837	-0.003439051	-0.03489854	-0.05134537	0.02090051	-0.9478931
	-0.01218171	-0.003454094	0.0743247	0.01318656	0.02090051	-0.9478931	-0.0326824	-0.01314753
2.5e+08	-0.03734438	-0.05042007	-0.03873686	-0.9461015	0.0736808	-0.01386377	-0.01323385	-0.002682023
	-0.03873686	-0.9461015	-0.03242135	-0.00929407	-0.01323388	-0.002665385	0.07605911	0.00953227
	0.0736808	-0.01386377	-0.01323388	-0.002665385	-0.03683601	-0.05030782	-0.03912793	-0.9461747
	-0.01323385	-0.002682023	0.07605911	0.00953227	-0.03912793	-0.9461747	-0.03190961	-0.009294486
2.6e+08	-0.03896176	-0.04931904	-0.0984234	-0.9406599	0.07323782	-0.01935229	-0.01424191	-0.001748972
	-0.0984234	-0.9406599	-0.03095133	-0.005500674	-0.01423956	-0.001730715	0.07743917	0.005768835
	0.07323782	-0.01935229	-0.01423956	-0.001730715	-0.0384555	-0.04924659	-0.0988362	-0.9407047
	-0.01424191	-0.001748973	0.07743917	0.005768835	-0.0988362	-0.9407047	-0.03044206	-0.005522022
2.7e+08	-0.04026436	-0.0482497	-0.1575673	-0.9315008	0.07219028	-0.02484306	-0.01518235	-0.0006568909
	-0.1575673	-0.9315008	-0.02879083	-0.001886149	-0.01517728	-0.000637561	0.07846341	0.001935632
	0.07219028	-0.02484306	-0.01517728	-0.000637561	-0.03976573	-0.04821811	-0.1580009	-0.9315155
	-0.01518235	-0.0006568909	0.07846341	0.001935632	-0.1580009	-0.9315155	-0.02828584	-0.001925952
2.8e+08	-0.04127	-0.04726691	-0.2159457	-0.9186696	0.07053806	-0.03027116	-0.01603184	0.000588324
	-0.2159457	-0.9186696	-0.02595922	0.001454025	-0.01602366	0.0006086024	0.07913481	-0.001929214
	0.07053806	-0.03027116	-0.01602366	0.0006086024	-0.04078435	-0.04727646	-0.2163978	-0.9186513
	-0.01603184	0.0005883237	0.07913481	-0.001929214	-0.2163978	-0.9186513	-0.02545981	0.001398577
2.9e+08	-0.04200441	-0.04642224	-0.2733374	-0.9022232	0.06828799	-0.035572	-0.01676766	0.001977834
	-0.2733374	-0.9022232	-0.0224886	0.004427291	-0.01675622	0.001998418	0.07946034	-0.005788553
	0.06828799	-0.035572	-0.01675622	0.001998418	-0.04153737	-0.04647308	-0.2738054	-0.9021694
	-0.01676766	0.001977834	0.07946034	-0.005788553	-0.2738054	-0.9021694	-0.02199537	0.004358904
3e+08	-0.04250114	-0.04576278	-0.329525	-0.8822291	0.06545325	-0.04068172	-0.01736868	0.003498601
	-0.329525	-0.8822291	-0.0184221	0.00694474	-0.01735382	0.003518993	0.07945074	-0.009607423
	0.06545325	-0.04068172	-0.01735382	0.003518993	-0.04205815	-0.04585464	-0.3300061	-0.8821364
	-0.01736868	0.003498601	0.07945074	-0.009607423	-0.3300061	-0.8821364	-0.01793504	0.006866352
3.1e+08	-0.04280061	-0.04533019	-0.3842962	-0.8587683	0.06205386	-0.04553837	-0.0178156	0.00513476
	-0.3842962	-0.8587683	-0.01381443	0.008923412	-0.01779688	0.00515454	0.07912086	-0.01335234
	0.06205386	-0.04553837	-0.01779688	0.00515454	-0.04238761	-0.04546267	-0.3847848	-0.8586338
	-0.0178156	0.00513476	0.07912086	-0.01335234	-0.3847848	-0.8586338	-0.01333332	0.008837577
3.2e+08	-0.04294993	-0.04516008	-0.4374383	-0.831934	0.05811631	-0.05008229	-0.01809134	0.006867636
	-0.4374383	-0.831934	-0.008731343	0.01028674	-0.01806873	0.006886233	0.07848874	-0.01699286
	0.05811631	-0.05008229	-0.01806873	0.006886233	-0.04257251	-0.04533149	-0.437934	-0.8317564
	-0.01809134	0.006867636	0.07848874	-0.01699286	-0.437934	-0.8317564	-0.008254882	0.01019655
3.3e+08	-0.04300123	-0.04528061	-0.488748	-0.8018294	0.05367306	-0.05425632	-0.01818136	0.008676317
	-0.488748	-0.8018294	-0.003247631	0.01096657	-0.01815529	0.008692642	0.07757511	-0.02050111
	0.05367306	-0.05425632	-0.01815529	0.008692642	-0.04266547	-0.0454892	-0.4892452	-0.8016079
	-0.01818136	0.008676317	0.07757511	-0.02050111	-0.4892452	-0.8016079	-0.002774239	0.0108746
3.4e+08	-0.04301134	-0.04571183	-0.5380231	-0.7685736	0.04876262	-0.05800748	-0.01807482	0.01053724
	-0.5380231	-0.7685736	0.002552564	0.01090419	-0.01804507	0.01055103	0.07640411	-0.02385215
	0.04876262	-0.05800748	-0.01804507	0.01055103	-0.04272283	-0.04595506	-0.5385209	-0.768307
	-0.01807482	0.01053724	0.07640411	-0.02385215	-0.5385209	-0.768307	0.00302538	0.01081307
3.5e+08	-0.04304016	-0.04646532	-0.5850728	-0.7322959	0.04342891	-0.06128636	-0.01776382	0.0124261
	-0.5850728	-0.7322959	0.008578188	0.01005157	-0.01773062	0.01243669	0.07500181	-0.02702493
	0.04342891	-0.06128636	-0.01773062	0.01243669	-0.04280503	-0.04674041	-0.585563	-0.7319828
	-0.01776382	0.0124261	0.07500181	-0.02702493	-0.585563	-0.7319828	0.009052795	0.009962459
3.6e+08	-0.04314999	-0.04754382	-0.6297077	-0.6931388	0.03772122	-0.06404859	-0.01724409	0.01431745
	-0.6297077	-0.6931388	0.0147313	0.008371257	-0.01720814	0.0143241	0.07339636	-0.03000165
	0.03772122	-0.06404859	-0.01720814	0.0143241	-0.04297392	-0.04784688	-0.6301868	-0.6927788
	-0.01724409	0.01431745	0.07339636	-0.03000165	-0.6301868	-0.6927788	0.01521112	0.00828602
3.7e+08	-0.04340353	-0.04894044	-0.6717491	-0.6512553	0.03169309	-0.06625525	-0.01651531	0.01618539
	-0.6717491	-0.6512553	0.02090972	0.005838544	-0.01647689	0.0161877	0.07161744	-0.03276849
	0.03169309	-0.06625525	-0.01647689	0.0161877	-0.04329207	-0.04926694	-0.6722141	-0.6508487
	-0.01651531	0.01618539	0.07161744	-0.03276849	-0.6722141	-0.6508487	0.02139848	0.005757989
3.8e+08	-0.04386342	-0.05063905	-0.7110275	-0.6068114	0.02540217	-0.06787277	-0.01557992	0.01800486
	-0.7110275	-0.6068114	0.02700802	0.002441464	-0.0155402	0.01800194	0.06969562	-0.03531575
	0.02540217	-0.06787277	-0.0155402	0.01800194	-0.0438222	-0.05098391	-0.7114715	-0.6063581
	-0.01557992	0.01800486	0.06969562	-0.03531575	-0.7114715	-0.6063581	0.02750944	0.002365193
3.9e+08	-0.0445911	-0.05261327	-0.7473795	-0.5599863	0.01890986	-0.06887442	-0.01444536	0.01975073
	-0.7473795	-0.5599863	0.03291817	-0.001819426	-0.01440419	0.01974265	0.06766236	-0.037638
	0.01890986	-0.06887442	-0.01440419	0.01974265	-0.04462448	-0.05297042	-0.7478006	-0.5594892
	-0.01444536	0.01975073	0.06766236	-0.037638	-0.7478006	-0.5594892	0.03343651	-0.001891007
4e+08	-0.04564436	-0.05482775	-0.7806554	-0.5109715	0.01227979	-0.06923966	-0.01312076	0.02139995
	-0.7806554	-0.5109715	0.03853264	-0.00692922	-0.0130795	0.02138628	0.06554887	-0.0397339
	0.01227979	-0.06923966	-0.0130795	0.02138628	-0.04575672	-0.05519101	-0.7810479	-0.5104296
	-0.01312076	0.02139995	0.06554887	-0.0397339	-0.7810479	-0.5104296	0.03907229	-0.006998084
4.1e+08	-0.0470762	-0.05723861	-0.8107172	-0.4599632	0.0055779	-0.06895496	-0.01161884	0.02293113
	-0.8107172	-0.4599632	0.04374615	-0.01286084	-0.01157845	0.02291158	0.06338576	-0.041606
	0.0055779	-0.06895496	-0.01157845	0.02291158	-0.04727149	-0.05760077	-0.8110781	-0.4593783
	-0.01161884	0.02293113	0.06338576	-0.041606	-0.8110781	-0.4593783	0.04431148	-0.01292893
4.2e+08	-0.04893492	-0.05979211	-0.8374391	-0.4071757	-0.001128906	-0.06801431	-0.009955611	0.02432497
	-0.8374391	-0.4071757	0.04845575	-0.01957297	-0.009916634	0.02429957	0.06120276	-0.04326195
	-0.001128906	-0.06801431	-0.009916634	0.02429957	-0.04921615	-0.06014542	-0.837763	-0.4065513
	-0.009955611	0.02432497	0.06120276	-0.04326195	-0.837763	-0.4065513	0.04905075	-0.01964301
4.3e+08	-0.05126111	-0.0624277	-0.8607093	-0.3528275	-0.007773498	-0.06641849	-0.008147883	0.02556498
	-0.8607093	-0.3528275	0.05256431	-0.02701229	-0.008111603	0.025534	0.0590277	-0.04471233
	-0.007773498	-0.06641849	-0.008111603	0.025534	-0.05163063	-0.06276424	-0.860993	-0.3521653
	-0.008147882	0.02556498	0.0590277	-0.04471233	-0.860993	-0.3521653	0.0531927	-0.02708808
4.4e+08	-0.05408752	-0.06507812	-0.8804316	-0.2971463	-0.01428895	-0.06417574	-0.006215154	0.02663736
	-0.8804316	-0.2971463	0.05598109	-0.03511339	-0.006182137	0.02660098	0.05688603	-0.0459721
	-0.01428895	-0.06417574	-0.006182137	0.02660098	-0.05454692	-0.06538913	-0.8806708	-0.2964498
	-0.006215154	0.02663736	0.05688603	-0.0459721	-0.8806708	-0.2964498	0.05664644	-0.03519929
4.5e+08	-0.05743778	-0.06766916	-0.8965236	-0.2403706	-0.0206099	-0.06130162	-0.004177785	0.02753137
	-0.8965236	-0.2403706	0.05862301	-0.04379931	-0.004148867	0.02749014	0.05480094	-0.04705943
	-0.0206099	-0.06130162	-0.004148867	0.02749014	-0.05798779	-0.06794572	-0.8967151	-0.2396431
	-0.004177785	0.02753137	0.05480094	-0.04705943	-0.8967151	-0.2396431	0.05932839	-0.04390048
4.6e+08	-0.06132572	-0.07012222	-0.9089208	-0.1827432	-0.02667308	-0.05781848	-0.002056273	0.02823927
	-0.9089208	-0.1827432	0.0604169	-0.05298352	-0.002032613	0.02819384	0.05279206	-0.0479958
	-0.02667308	-0.05781848	-0.002032613	0.02819384	-0.0619661	-0.07035582	-0.9090612	-0.1819869
	-0.002056273	0.02823927	0.05279206	-0.0479958	-0.9090612	-0.1819869	0.06116467	-0.05310598
4.7e+08	-0.06575334	-0.07235669	-0.9175798	-0.1245086	-0.03241856	-0.05375527	0.0001276265	0.02875633
	-0.9175798	-0.1245086	0.06130121	-0.0625704	0.0001456801	0.02870743	0.05087523	-0.04880463
	-0.03241856	-0.05375527	0.0001456802	0.02870743	-0.06648341	-0.07253758	-0.9176643	-0.1237285
	0.0001276265	0.02875633	0.05087523	-0.04880463	-0.9176643	-0.1237285	0.06209276	-0.06272065
4.8e+08	-0.07071306	-0.07428888	-0.9224665	-0.06591727	-0.03778967	-0.04914718	0.002354005	0.0290808
	-0.9224665	-0.06591727	0.06122491	-0.0724578	0.002365388	0.02902922	0.04906255	-0.04951179
	-0.03778967	-0.04914718	0.002365388	0.02902922	-0.07153017	-0.07440794	-0.9224956	-0.06511796
	0.002354005	0.0290808	0.04906255	-0.04951179	-0.9224956	-0.06511796	0.06206157	-0.07264243
4.9e+08	-0.07618418	-0.07583444	-0.9235727	-0.007225613	-0.04273482	-0.04403514	0.004602214	0.02921355
	-0.9235727	-0.007225613	0.06015048	-0.08253613	0.004606995	0.02916026	0.04736165	-0.05014455
	-0.04273482	-0.04403514	0.004606995	0.02916026	-0.0770855	-0.07588278	-0.9235431	-0.006408739
	0.004602214	0.02921355	0.04736165	-0.05014455	-0.9235431	-0.006408739	0.06103203	-0.08276318
5e+08	-0.08213445	-0.07691226	-0.9209078	0.05132011	-0.04720698	-0.03846468	0.006854413	0.0291574
	-0.9209078	0.05132011	0.05805424	-0.09269416	0.006851882	0.02910367	0.04577558	-0.05073044
	-0.04720698	-0.03846468	0.006851882	0.02910367	-0.08311605	-0.07688035	-0.9208162	0.0521464
	0.006854413	0.0291574	0.04577558	-0.05073044	-0.9208162	0.0521464	0.0589793	-0.09297075
5.1e+08	-0.08852079	-0.07744202	-0.9144947	0.1094656	-0.05116438	-0.03248631	0.009092612	0.02891797
	-0.9144947	0.1094656	0.05492508	-0.1028167	0.009082703	0.02886479	0.04430307	-0.0512975
	-0.05116438	-0.03248631	0.009082703	0.02886479	-0.08957741	-0.0773217	-0.9143419	0.110298
	0.009092612	0.02891797	0.04430307	-0.0512975	-0.9143419	0.110298	0.05589202	-0.1031507
5.2e+08	-0.09528769	-0.07734917	-0.9043802	0.1669631	-0.05457221	-0.02615347	0.01130193	0.02850168
