!$
! Info: Touchstone file created by Circ.  Input file=Intel_C2M_200G_3p0in_202208016_staggered.circ
!$
# Hz S RI R 50
0	0.01349632	4.837389e-24	-6.423998e-05	7.867129e-21	0.0003111639	3.074646e-22	-5.987254e-05	7.332272e-21
	-6.424008e-05	7.867141e-21	0.01293928	2.408758e-24	-7.148343e-05	8.754195e-21	8.552827e-05	2.394591e-22
	0.0003112336	3.076767e-22	-7.148352e-05	8.754206e-21	0.01349754	4.911218e-24	-6.426558e-05	7.870264e-21
	-5.987253e-05	7.332271e-21	8.558658e-05	2.395877e-22	-6.426548e-05	7.870252e-21	0.0129372	2.286792e-24
1e+07	0.01608624	-0.0003012528	-0.0003327199	-9.558127e-05	0.0007819845	0.004605785	-4.229436e-05	-0.0001028906
	-0.0003327199	-9.558127e-05	0.01582067	-0.0004993883	-0.0004758976	-2.69667e-05	0.0009721223	0.004611151
	0.0007819845	0.004605785	-0.0004758976	-2.69667e-05	0.01591149	-0.0002288609	-0.0002482455	-0.0001023483
	-4.229436e-05	-0.0001028906	0.0009721223	0.004611151	-0.0002482455	-0.0001023483	0.01573537	-0.0004700589
2e+07	0.01824638	-0.003003245	-0.0003026524	-0.0003105666	0.001725586	0.008918359	-6.18562e-05	-0.0001783336
	-0.0003026523	-0.0003105666	0.01798739	-0.003412149	-0.0004592182	-0.0002361439	0.00206171	0.008786807
	0.001725672	0.008918256	-0.0004592182	-0.0002361439	0.01815042	-0.002807391	-0.0002443276	-0.0002583031
	-6.185619e-05	-0.0001783336	0.002061722	0.008786795	-0.0002443277	-0.0002583031	0.01792467	-0.003320995
3e+07	0.01915364	-0.006919123	-0.0003021335	-0.0004368906	0.003197961	0.01299924	-9.178127e-05	-0.0002497197
	-0.0003021335	-0.0004368907	0.01934929	-0.007330098	-0.0004619747	-0.0003485129	0.003646401	0.01284925
	0.003197938	0.01299921	-0.0004619747	-0.0003485129	0.01913407	-0.006667423	-0.0002634073	-0.0003703545
	-9.178126e-05	-0.0002497197	0.003646369	0.01284928	-0.0002634073	-0.0003703545	0.01930123	-0.007191987
4e+07	0.01924485	-0.01105668	-0.0003236694	-0.0005394145	0.005102439	0.01688178	-0.0001398705	-0.000313663
	-0.0003236694	-0.0005394145	0.01990408	-0.01173163	-0.0004800975	-0.0004392771	0.00578364	0.0166187
	0.005102439	0.01688179	-0.0004800975	-0.0004392771	0.0192935	-0.01077009	-0.0003003027	-0.0004644316
	-0.0001398705	-0.000313663	0.005783632	0.01661873	-0.0003003027	-0.0004644316	0.01987762	-0.01155389
5e+07	0.01859543	-0.01528735	-0.0003624478	-0.0006261686	0.007443076	0.02049987	-0.0001962344	-0.0003708449
	-0.0003624478	-0.0006261686	0.01977326	-0.01630358	-0.0005104628	-0.0005183666	0.008407319	0.02006524
	0.007443079	0.02049988	-0.0005104628	-0.0005183666	0.01870874	-0.01497989	-0.000351942	-0.0005454153
	-0.0001962344	-0.0003708449	0.00840732	0.02006525	-0.000351942	-0.0005454153	0.0197706	-0.01609114
6e+07	0.01723583	-0.01942842	-0.0004152327	-0.0006992955	0.01018346	0.02380807	-0.0002598211	-0.0004208767
	-0.0004152327	-0.0006992955	0.01902661	-0.02091068	-0.0005514386	-0.0005892642	0.01147871	0.02313541
	0.01018346	0.02380807	-0.0005514386	-0.0005892642	0.01741107	-0.01911158	-0.0004160307	-0.000614334
	-0.0002598211	-0.0004208767	0.01147873	0.0231354	-0.0004160307	-0.000614334	0.01904974	-0.0206672
7e+07	0.01523935	-0.02333218	-0.0005083748	-0.0007455209	0.01328414	0.02676749	-0.0003296463	-0.0004628402
	-0.0005083748	-0.0007455209	0.01770473	-0.02544008	-0.0006018208	-0.0006530386	0.01494789	0.02577859
	0.01328414	0.02676749	-0.0006018208	-0.0006530386	0.01547313	-0.02301656	-0.0004905779	-0.0006711224
	-0.0003296463	-0.0004628402	0.01494789	0.02577858	-0.0004905779	-0.0006711224	0.01775587	-0.02516922
8e+07	0.01268723	-0.02689109	-0.0006407862	-0.0007569504	0.01670121	0.02934377	-0.0004046629	-0.0004961111
	-0.0006407862	-0.0007569504	0.01585854	-0.02978919	-0.0006608334	-0.0007100562	0.01875964	0.02795083
	0.01670121	0.02934377	-0.0006608334	-0.0007100562	0.01297511	-0.02658687	-0.0005736454	-0.0007152349
	-0.0004046629	-0.0004961111	0.01875964	0.02795083	-0.0005736454	-0.0007152349	0.01593992	-0.02949455
9e+07	0.009660536	-0.03001673	-0.0007712468	-0.0007483347	0.02038814	0.03150878	-0.0004842893	-0.0005205376
	-0.0007712468	-0.0007483347	0.01355461	-0.03387077	-0.0007282455	-0.0007605336	0.02285512	0.029615
	0.02038814	0.03150878	-0.0007282455	-0.0007605336	0.009996914	-0.02973349	-0.0006716797	-0.0007402528
	-0.0004842893	-0.0005205376	0.02285512	0.02961501	-0.0006716797	-0.0007402527	0.01366776	-0.03355649
1e+08	0.00626207	-0.03260715	-0.000892895	-0.0007136775	0.02429867	0.03324076	-0.0005667805	-0.0005351508
	-0.000892895	-0.0007136775	0.01088931	-0.03758894	-0.000802491	-0.000802718	0.02717429	0.0307412
	0.02429867	0.03324076	-0.000802491	-0.000802718	0.006636924	-0.0323585	-0.00079096	-0.0007324695
	-0.0005667805	-0.0005351508	0.02717429	0.0307412	-0.00079096	-0.0007324695	0.01103475	-0.03725996
1.1e+08	0.002679953	-0.03473801	-0.0009878478	-0.0006853514	0.02837832	0.03451124	-0.0006511484	-0.0005433429
	-0.0009878478	-0.0006853514	0.007996062	-0.04109961	-0.0008912647	-0.0008350022	0.03166814	0.03129615
	0.02837832	0.03451124	-0.0008912648	-0.0008350022	0.003070269	-0.03449704	-0.0008977734	-0.0007215592
	-0.0006511484	-0.0005433429	0.03166814	0.03129615	-0.0008977734	-0.0007215592	0.008234392	-0.04076509
1.2e+08	-0.001181254	-0.03635386	-0.001091305	-0.0006562426	0.03256425	0.03531633	-0.0007403817	-0.000543629
	-0.001091305	-0.0006562426	0.004737725	-0.04426161	-0.0009902399	-0.0008619185	0.03621675	0.03126745
	0.03256425	0.03531633	-0.0009902399	-0.0008619185	-0.0007649106	-0.0361262	-0.001010339	-0.0007038612
	-0.0007403817	-0.000543629	0.03621675	0.03126745	-0.001010339	-0.0007038612	0.005014012	-0.04394788
1.3e+08	-0.005203091	-0.0373781	-0.001197672	-0.000618382	0.03680599	0.03565559	-0.000834868	-0.0005365495
	-0.001197672	-0.000618382	0.001225867	-0.04701112	-0.001098344	-0.0008808499	0.04076535	0.03065615
	0.03680599	0.03565559	-0.001098344	-0.0008808499	-0.004761187	-0.03717056	-0.001125057	-0.0006750369
	-0.000834868	-0.0005365495	0.04076535	0.03065615	-0.001125057	-0.0006750369	0.001515654	-0.0467085
1.4e+08	-0.009280199	-0.0377826	-0.001304858	-0.0005701321	0.04105206	0.03553306	-0.0009311054	-0.0005187637
	-0.001304858	-0.0005701321	-0.002460639	-0.04932872	-0.001215111	-0.000890185	0.04525052	0.02946788
	0.04105206	0.03553306	-0.001215111	-0.000890185	-0.008816204	-0.03759892	-0.001240196	-0.0006342532
	-0.0009311054	-0.0005187637	0.04525051	0.02946787	-0.001240196	-0.0006342532	-0.002160383	-0.04902604
1.5e+08	-0.01330946	-0.03756105	-0.001411315	-0.0005107191	0.04525276	0.03495809	-0.001028191	-0.0004900707
	-0.001411315	-0.0005107191	-0.006250741	-0.05120712	-0.001339986	-0.0008883169	0.04960711	0.02771411
	0.04525276	0.03495809	-0.001339986	-0.0008883169	-0.01282728	-0.03740298	-0.001354317	-0.0005811592
	-0.001028191	-0.0004900707	0.04960711	0.02771411	-0.001354317	-0.0005811592	-0.005935632	-0.05089972
1.6e+08	-0.01719107	-0.03672461	-0.001515637	-0.0004398538	0.04936071	0.03394559	-0.001125139	-0.0004503803
	-0.001515637	-0.0004398538	-0.01007765	-0.05264861	-0.001472117	-0.0008737019	0.05377078	0.02541315
	0.04936071	0.03394559	-0.001472117	-0.0008737019	-0.0166944	-0.03659253	-0.001466109	-0.0005157117
	-0.001125139	-0.0004503803	0.05377078	0.02541315	-0.001466109	-0.0005157117	-0.009741746	-0.05233729
1.7e+08	-0.02083028	-0.0352996	-0.001616545	-0.0003574527	0.05333114	0.03251487	-0.001220964	-0.0003996091
	-0.001616545	-0.0003574527	-0.01387754	-0.05366441	-0.001610393	-0.0008448838	0.05767934	0.02258993
	0.05333114	0.03251487	-0.001610393	-0.0008448838	-0.02032204	-0.03519334	-0.0015743	-0.0004380162
	-0.001220964	-0.0003996091	0.05767934	0.02258992	-0.0015743	-0.0004380162	-0.01351647	-0.0533534
1.8e+08	-0.0241383	-0.03332533	-0.00171283	-0.0002636788	0.05712292	0.03068974	-0.001314644	-0.00033775
	-0.00171283	-0.0002636788	-0.01759068	-0.05427465	-0.001753481	-0.0008003531	0.06127374	0.01927583
	0.05712292	0.03068974	-0.001753481	-0.0008003531	-0.02362135	-0.03324465	-0.001677761	-0.0003483973
	-0.001314644	-0.00033775	0.06127374	0.01927583	-0.001677761	-0.0003483973	-0.01720222	-0.05396991
1.9e+08	-0.02703413	-0.03085339	-0.001803345	-0.0001587756	0.06069856	0.02849832	-0.001405171	-0.0002648587
	-0.001803345	-0.0001587756	-0.0211615	-0.0545078	-0.001899812	-0.0007386243	0.06449914	0.01550871
	0.06069856	0.02849832	-0.001899812	-0.0007386243	-0.02651084	-0.03079805	-0.001775332	-0.0002472265
	-0.001405171	-0.0002648587	0.06449913	0.01550871	-0.001775332	-0.0002472265	-0.02074584	-0.05421589
2e+08	-0.02944446	-0.02794578	-0.001886198	-4.340459e-05	0.06402431	0.02597154	-0.00149149	-0.0001811251
	-0.001886198	-4.340459e-05	-0.0245406	-0.05440026	-0.002054823	-0.0006370292	0.06730536	0.01133192
	0.06402431	0.02597154	-0.002054823	-0.0006370292	-0.02891777	-0.02791501	-0.001865191	-0.0001353937
	-0.00149149	-0.0001811251	0.06730536	0.01133192	-0.001865191	-0.0001353937	-0.02409912	-0.05412719
2.1e+08	-0.03130666	-0.02467352	-0.001961191	8.206789e-05	0.0670715	0.02314361	-0.001572566	-8.674651e-05
	-0.001961191	8.206789e-05	-0.0276853	-0.05399457	-0.002205964	-0.0005162043	0.06964742	0.006793875
	0.0670715	0.02314361	-0.002205964	-0.0005162043	-0.03077851	-0.02466682	-0.001947235	-1.321006e-05
	-0.001572566	-8.674651e-05	0.06964742	0.006793875	-0.001947235	-1.321006e-05	-0.02722116	-0.05374617
2.2e+08	-0.03256722	-0.02111564	-0.002027364	0.0002171035	0.06981547	0.02005074	-0.001647352	1.797347e-05
	-0.002027364	0.0002171035	-0.03056044	-0.05333957	-0.002350939	-0.0003757328	0.07148597	0.00194735
	0.06981547	0.02005074	-0.002350939	-0.0003757328	-0.0320403	-0.02113196	-0.002020561	0.0001187377
	-0.001647352	1.797347e-05	0.07148597	0.00194735	-0.002020561	0.0001187377	-0.03007792	-0.05312037
2.3e+08	-0.03318429	-0.01735781	-0.002083806	0.0003610162	0.07223615	0.01673074	-0.00171483	0.0001326146
	-0.002083806	0.0003610162	-0.0331392	-0.05248804	-0.002487291	-0.0002156892	0.07278794	-0.003151239
	0.07223615	0.01673074	-0.002487291	-0.0002156892	-0.03266094	-0.01739571	-0.002084347	0.0002597627
	-0.00171483	0.0001326146	0.07278794	-0.003151239	-0.002084347	0.0002597627	-0.03264281	-0.05230172
2.4e+08	-0.0331277	-0.01349029	-0.002129659	0.0005131969	0.07431865	0.01322286	-0.00177399	0.0002566645
	-0.002129659	0.0005131969	-0.03540347	-0.05149568	-0.002612503	-3.641617e-05	0.07352638	-0.008442248
	0.07431865	0.01322286	-0.002612503	-3.641617e-05	-0.03261025	-0.0135481	-0.00213779	0.0004091644
	-0.00177399	0.0002566645	0.07352638	-0.008442248	-0.00213779	0.0004091644	-0.03489854	-0.05134537
2.5e+08	-0.03237918	-0.009607253	-0.002164128	0.0006728289	0.07605238	0.009566621	-0.00182382	0.0003895744
	-0.002164128	0.0006728289	-0.03734438	-0.05042007	-0.002723988	0.0001613767	0.0736808	-0.01386377
	0.07605238	0.009566621	-0.002723988	0.0001613767	-0.03186937	-0.009682728	-0.002180187	0.0005661669
	-0.00182382	0.0003895744	0.0736808	-0.01386377	-0.002180187	0.0005661669	-0.03683601	-0.05030782
2.6e+08	-0.03093314	-0.005804419	-0.002186431	0.0008390999	0.07743142	0.00580158	-0.001863405	0.000530613
	-0.002186431	0.0008390999	-0.03896176	-0.04931904	-0.002819249	0.0003765967	0.07323782	-0.01935229
	0.07743142	0.00580158	-0.002819249	0.0003765967	-0.03043266	-0.00589548	-0.002210855	0.0007299759
	-0.001863405	0.000530613	0.07323782	-0.01935229	-0.002210855	0.0007299759	-0.0384555	-0.04924659
2.7e+08	-0.02879596	-0.002178509	-0.002195854	0.001011138	0.07845436	0.0019672	-0.001891791	0.000679074
	-0.002195854	0.001011138	-0.04026436	-0.0482497	-0.002895904	0.0006076816	0.07219028	-0.02484306
	0.07845436	0.0019672	-0.002895904	0.0006076816	-0.02830605	-0.002282168	-0.002229161	0.0008997623
	-0.001891791	0.000679074	0.07219028	-0.02484306	-0.002229161	0.0008997623	-0.03976573	-0.04821811
2.8e+08	-0.02598686	0.001175007	-0.00219174	0.001188009	0.07912425	-0.001898383	-0.001908123	0.0008340383
	-0.00219174	0.001188009	-0.04127	-0.04726691	-0.00295168	0.0008528523	0.07053806	-0.03027116
	0.07912425	-0.001898383	-0.00295168	0.0008528523	-0.02550824	0.001062047	-0.002234548	0.001074622
	-0.001908123	0.0008340383	0.07053806	-0.03027116	-0.002234548	0.001074622	-0.04078435	-0.04727646
2.9e+08	-0.02253773	0.004163586	-0.002173483	0.001368672	0.07944813	-0.005757988	-0.001911604	0.0009945524
	-0.002173483	0.001368672	-0.04200441	-0.04642224	-0.002984566	0.001109944	0.06828799	-0.035572
	0.07944813	-0.005757988	-0.002984566	0.001109944	-0.0220704	0.004044433	-0.002226467	0.001253689
	-0.001911604	0.0009945524	0.06828799	-0.035572	-0.002226467	0.001253689	-0.04153737	-0.04647308
3e+08	-0.01849154	0.006698295	-0.002140526	0.001552062	0.07943682	-0.00957662	-0.001901507	0.001159578
	-0.002140526	0.001552062	-0.04250114	-0.04576278	-0.00299284	0.00137645	0.06545325	-0.04068172
	0.07943682	-0.00957662	-0.00299284	0.00137645	-0.01803478	0.006576243	-0.002204428	0.001436004
	-0.001901507	0.001159578	0.06545325	-0.04068172	-0.002204428	0.001436004	-0.04205815	-0.04585464
3.1e+08	-0.01390275	0.00869609	-0.002092417	0.001737054	0.07910523	-0.01332079	-0.001877132	0.00132802
	-0.002092417	0.001737054	-0.04280061	-0.04533019	-0.002975031	0.001649682	0.06205386	-0.04553837
	0.07910523	-0.01332079	-0.002975031	0.001649682	-0.0134557	0.008574108	-0.002168058	0.001620528
	-0.001877132	0.00132802	0.06205386	-0.04553837	-0.002168058	0.001620528	-0.04238761	-0.04546267
3.2e+08	-0.00883691	0.01008035	-0.00202873	0.001922467	0.07847152	-0.01696011	-0.001837946	0.001498604
	-0.00202873	0.001922467	-0.04294993	-0.04516008	-0.00293016	0.001926616	0.05811631	-0.05008229
	0.07847152	-0.01696011	-0.00293016	0.001926616	-0.008397558	0.009961804	-0.002116956	0.001806249
	-0.001837946	0.001498604	0.05811631	-0.05008229	-0.002116956	0.001806249	-0.04257251	-0.04533149
3.3e+08	-0.003368589	0.01078284	-0.001949133	0.002107055	0.07755644	-0.02046663	-0.001783452	0.001670059
	-0.001949133	0.002107055	-0.04300123	-0.04528061	-0.00285749	0.002204256	0.05367306	-0.05425632
	0.07755644	-0.02046663	-0.00285749	0.002204256	-0.002934624	0.01067049	-0.0020508	0.001992109
	-0.001783452	0.001670059	0.05367306	-0.05425632	-0.0020508	0.001992109	-0.04266547	-0.0454892
3.4e+08	0.002418265	0.01074463	-0.001853412	0.002289514	0.07638428	-0.0238155	-0.001713299	0.001841046
	-0.001853412	0.002289514	-0.04301134	-0.04571183	-0.002756852	0.002479339	0.04876262	-0.05800748
	0.07638428	-0.0238155	-0.002756852	0.002479339	0.0028501	0.01064132	-0.001969335	0.002177022
	-0.001713299	0.001841046	0.04876262	-0.05800748	-0.001969335	0.002177022	-0.04272283	-0.04595506
3.5e+08	0.008432808	0.009917561	-0.001741441	0.002468449	0.07498114	-0.02698572	-0.001627243	0.002010103
	-0.001741441	0.002468449	-0.04304016	-0.04646532	-0.002628483	0.002748679	0.04342891	-0.06128636
	0.07498114	-0.02698572	-0.002628483	0.002748679	0.008865692	0.009824562	-0.001872394	0.002359797
	-0.001627243	0.002010103	0.04342891	-0.06128636	-0.001872394	0.002359797	-0.04280503	-0.04674041
3.6e+08	0.01457732	0.008263973	-0.001613214	0.002642487	0.07337524	-0.02995952	-0.001525209	0.002175761
	-0.001613214	0.002642487	-0.04314999	-0.04754382	-0.00247292	0.003009169	0.03772122	-0.06404859
	0.07337524	-0.02995952	-0.00247292	0.003009169	0.01501542	0.00818314	-0.001759881	0.002539256
	-0.001525209	0.002175761	0.03772122	-0.06404859	-0.001759881	0.002539256	-0.04297392	-0.04784688
3.7e+08	0.02074975	0.005758885	-0.001468767	0.002810197	0.07159632	-0.03272311	-0.001407159	0.002336557
	-0.001468767	0.002810197	-0.04340353	-0.04894044	-0.002291209	0.003257779	0.03169309	-0.06625525
	0.07159632	-0.03272311	-0.002291209	0.003257779	0.02119759	0.005691013	-0.00163168	0.002714227
	-0.001407159	0.002336557	0.03169309	-0.06625525	-0.00163168	0.002714227	-0.04329207	-0.04926694
3.8e+08	0.02684486	0.002390101	-0.001308364	0.0029701	0.06967499	-0.03526692	-0.001273335	0.002490918
	-0.001308364	0.0029701	-0.04386342	-0.05063905	-0.002084855	0.003491603	0.02540217	-0.06787277
	0.06967499	-0.03526692	-0.002084855	0.003491603	0.02730695	0.002334646	-0.001487876	0.002883411
	-0.001273335	0.002490918	0.02540217	-0.06787277	-0.001487876	0.002883411	-0.0438222	-0.05098391
3.9e+08	0.03275464	-0.00184212	-0.001132354	0.003120721	0.06764277	-0.03758553	-0.001124033	0.002637319
	-0.001132354	0.003120721	-0.0445911	-0.05261327	-0.001855669	0.003708043	0.01890986	-0.06887442
	0.06764277	-0.03758553	-0.001855669	0.003708043	0.03323606	-0.001885008	-0.001328589	0.003045545
	-0.001124033	0.002637319	0.01890986	-0.06887442	-0.001328589	0.003045545	-0.04462448	-0.05297042
4e+08	0.03837173	-0.006923252	-0.0009412335	0.003260571	0.06553089	-0.03967772	-0.000959751	0.002774216
	-0.0009412335	0.003260571	-0.04564436	-0.05482775	-0.001605675	0.003904793	0.01227979	-0.06923966
	0.06553089	-0.03967772	-0.001605675	0.003904793	0.03887759	-0.006955752	-0.001153976	0.003199318
	-0.000959751	0.002774216	0.01227979	-0.06923966	-0.001153976	0.003199318	-0.04575672	-0.05519101
4.1e+08	0.04359084	-0.01282643	-0.0007356155	0.003388173	0.06336999	-0.04154609	-0.0007811381	0.002900111
	-0.0007356155	0.003388173	-0.0470762	-0.05723861	-0.001337419	0.004079826	0.0055779	-0.06895496
	0.06336999	-0.04154609	-0.001337419	0.004079826	0.04412623	-0.01285093	-0.0009644677	0.003343372
	-0.0007811381	0.002900111	0.0055779	-0.06895496	-0.0009644677	0.003343372	-0.04727149	-0.05760077
4.2e+08	0.04830905	-0.01951078	-0.0005163148	0.003502078	0.0611898	-0.04319841	-0.0005890505	0.003013561
	-0.0005163148	0.003502078	-0.04893492	-0.05979211	-0.001053327	0.004231575	-0.001128906	-0.06801431
	0.0611898	-0.04319841	-0.001053327	0.004231575	0.04887864	-0.01953042	-0.0007604456	0.003476371
	-0.0005890505	0.003013561	-0.001128906	-0.06801431	-0.0007604456	0.003476371	-0.04921615	-0.06014542
4.3e+08	0.05242917	-0.02692328	-0.0002842534	0.003600881	0.05901813	-0.04464537	-0.0003843301	0.003113163
	-0.0002842534	0.003600881	-0.05126111	-0.0624277	-0.0007562837	0.004358781	-0.007773498	-0.06641849
	0.05901813	-0.04464537	-0.0007562837	0.004358781	0.05303727	-0.02694237	-0.0005423875	0.003596972
	-0.0003843301	0.003113163	-0.007773498	-0.06641849	-0.0005423875	0.003596972	-0.05163063	-0.06276424
4.4e+08	0.05586034	-0.03499888	-4.05404e-05	0.00368322	0.05688043	-0.04590193	-0.0001681511	0.003197607
	-4.05404e-05	0.00368322	-0.05408752	-0.06507812	-0.0004489876	0.004460644	-0.01428895	-0.06417574
	0.05688043	-0.04590193	-0.0004489876	0.004460644	0.05651107	-0.03502237	-0.000311105	0.003703791
	-0.0001681511	0.003197607	-0.01428895	-0.06417574	-0.000311105	0.003703791	-0.05454692	-0.06538913
4.5e+08	0.05851946	-0.04366095	0.0002135913	0.003747849	0.0547999	-0.04698644	5.818659e-05	0.00326569
	0.0002135913	0.003747849	-0.05743778	-0.06766916	-0.0001341469	0.004536774	-0.0206099	-0.06130162
	0.0547999	-0.04698644	-0.0001341469	0.004536774	0.0592163	-0.04369465	-6.740531e-05	0.003795522
	5.818659e-05	0.00326569	-0.0206099	-0.06130162	-6.740531e-05	0.003795522	-0.05798779	-0.06794572
4.6e+08	0.06033303	-0.0528233	0.000476659	0.003793586	0.05279605	-0.0479204	0.0002933522	0.003316323
	0.000476659	0.003793586	-0.06132572	-0.07012222	0.0001853534	0.004587124	-0.02667308	-0.05781848
	0.05279605	-0.0479204	0.0001853534	0.004587124	0.06107879	-0.05287384	0.0001879061	0.003870828
	0.0002933522	0.003316323	-0.02667308	-0.05781848	0.0001879061	0.003870828	-0.0619661	-0.07035582
4.7e+08	0.06123937	-0.0623906	0.0007472163	0.003819384	0.05088473	-0.04872734	0.0005357884	0.00334856
	0.0007472163	0.003819384	-0.06575334	-0.07235669	0.0005069338	0.004612026	-0.03241856	-0.05375527
	0.05088473	-0.04872734	0.0005069338	0.004612026	0.06203572	-0.06246524	0.0004535914	0.003928485
	0.0005357884	0.00334856	-0.03241856	-0.05375527	0.0004535914	0.003928485	-0.06648341	-0.07253758
4.8e+08	0.06118716	-0.07226097	0.001023594	0.003824345	0.04907796	-0.04943316	0.0007839479	0.003361587
	0.001023594	0.003824345	-0.07071306	-0.07428888	0.0008283564	0.004612162	-0.03778967	-0.04914718
	0.04907796	-0.04943316	0.0008283564	0.004612162	0.06203567	-0.07236695	0.0007284939	0.003967273
	0.0007839479	0.003361587	-0.03778967	-0.04914718	0.0007284939	0.003967273	-0.07153017	-0.07440794
