!$
! Info: Touchstone file created by Circ.  Input file=Intel_C2M_200G_0p5in_202204012_staggered.circ
!$
# Hz S RI R 50
0	0.008835465	2.265395e-24	-4.365006e-05	5.345591e-21	0.000269152	7.430259e-23	-3.924017e-05	4.805535e-21
	-4.365016e-05	5.345603e-21	0.008290519	1.21331e-24	-5.096263e-05	6.241123e-21	6.330216e-05	1.868452e-22
	0.000269223	7.434957e-23	-5.096273e-05	6.241134e-21	0.008841248	2.279126e-24	-4.36755e-05	5.348707e-21
	-3.924017e-05	4.805534e-21	6.336102e-05	1.869797e-22	-4.36754e-05	5.348694e-21	0.008283362	1.151123e-24
1e+07	0.01018883	0.001498914	-0.0001402692	-0.0001215529	0.0004702304	0.003332291	-3.703428e-05	-9.197016e-05
	-0.0001402692	-0.0001215529	0.009919461	0.001498222	-0.0002418101	-8.264454e-05	0.0005312552	0.003342016
	0.0004702304	0.003332291	-0.0002418101	-8.264454e-05	0.01007482	0.00157638	-0.0001450232	-0.0001146551
	-3.703428e-05	-9.197016e-05	0.0005312552	0.003342016	-0.0001450232	-0.0001146551	0.009904283	0.00152867
2e+07	0.01179735	0.001742004	-0.0001295214	-0.0002755017	0.0009793761	0.006510082	-5.64842e-05	-0.0001690132
	-0.0001295214	-0.0002755017	0.01124549	0.001683102	-0.000256547	-0.0002419409	0.0009525599	0.006444206
	0.0009794238	0.006510067	-0.000256547	-0.0002419409	0.01175494	0.001924944	-0.0001382616	-0.0002654661
	-5.64842e-05	-0.0001690132	0.0009525499	0.00644419	-0.0001382616	-0.0002654661	0.01123244	0.001752713
3e+07	0.01300284	0.0012195	-0.0001336961	-0.0003890241	0.001792087	0.009552729	-8.084208e-05	-0.000245227
	-0.0001336961	-0.0003890241	0.01238212	0.001383769	-0.0002805491	-0.0003600918	0.001488877	0.009577292
	0.001792075	0.009552709	-0.0002805491	-0.0003600918	0.01302898	0.001450746	-0.0001452012	-0.0003779568
	-8.084208e-05	-0.000245227	0.00148886	0.009577288	-0.0001452012	-0.0003779568	0.01236335	0.001496074
4e+07	0.01412826	0.0004996373	-0.0001524782	-0.0004909515	0.002826176	0.0125331	-0.0001109037	-0.0003184047
	-0.0001524782	-0.0004909515	0.01321938	0.0007530271	-0.0003143342	-0.0004683106	0.002235956	0.01262693
	0.002826179	0.0125331	-0.0003143342	-0.0004683106	0.01421283	0.0007626416	-0.0001645653	-0.0004798711
	-0.0001109037	-0.0003184047	0.002235943	0.01262695	-0.0001645653	-0.0004798711	0.0132032	0.0009078399
5e+07	0.01517514	-0.000434631	-0.0001993203	-0.0005811411	0.004107228	0.01541215	-0.0001465807	-0.0003883612
	-0.0001993203	-0.0005811411	0.01385113	-3.111638e-05	-0.0003566088	-0.0005691601	0.003157745	0.01561519
	0.004107235	0.01541216	-0.0003566088	-0.0005691601	0.01531531	-0.000150133	-0.0001936505	-0.0005742182
	-0.0001465807	-0.0003883612	0.003157747	0.01561521	-0.0001936505	-0.0005742182	0.01383895	0.0001654543
6e+07	0.01612478	-0.001522116	-0.0002721655	-0.0006586905	0.005626151	0.01817431	-0.0001875702	-0.0004546619
	-0.0002721655	-0.0006586905	0.01431583	-0.000920492	-0.0004065701	-0.0006638483	0.004254734	0.01853448
	0.005626155	0.01817431	-0.0004065701	-0.0006638483	0.01631881	-0.001224613	-0.000248869	-0.0006579082
	-0.0001875702	-0.0004546619	0.004254756	0.01853448	-0.000248869	-0.0006579082	0.01430941	-0.0006817916
7e+07	0.01698513	-0.002732859	-0.000353302	-0.0007264774	0.007375308	0.02080411	-0.0002336927	-0.0005172898
	-0.000353302	-0.0007264774	0.01461011	-0.001882859	-0.0004640076	-0.0007532138	0.005520907	0.02137529
	0.007375311	0.02080411	-0.0004640076	-0.0007532138	0.01723136	-0.00243054	-0.0003173013	-0.0007325639
	-0.0002336927	-0.0005172898	0.005520912	0.02137529	-0.0003173013	-0.0007325639	0.01461163	-0.001601922
8e+07	0.01775421	-0.004063184	-0.0004390523	-0.0007864677	0.009344481	0.02328527	-0.0002846862	-0.0005760485
	-0.0004390523	-0.0007864676	0.01473279	-0.002885895	-0.0005287866	-0.0008371918	0.006949837	0.02412952
	0.009344482	0.02328527	-0.0005287866	-0.0008371918	0.01805071	-0.003763733	-0.0004006268	-0.0007977432
	-0.0002846862	-0.0005760486	0.006949841	0.02412952	-0.0004006268	-0.0007977432	0.01474477	-0.00256257
9e+07	0.01844946	-0.00545076	-0.0005240688	-0.0008327327	0.01152495	0.02560382	-0.000340229	-0.0006307056
	-0.0005240688	-0.0008327327	0.01473071	-0.003848112	-0.00060002	-0.0009170606	0.008538866	0.02679234
	0.01152495	0.02560382	-0.00060002	-0.0009170606	0.01879253	-0.005166396	-0.0004823819	-0.0008516592
	-0.000340229	-0.0006307056	0.008538868	0.02679234	-0.0004823819	-0.0008516593	0.01475581	-0.003481969
1e+08	0.01902812	-0.006937786	-0.0006156115	-0.0008739475	0.01390197	0.02774422	-0.0004004634	-0.0006816878
	-0.0006156115	-0.0008739475	0.01458839	-0.00480422	-0.000678246	-0.0009912571	0.01027906	0.02935293
	0.01390197	0.02774422	-0.000678246	-0.0009912571	0.01941607	-0.006674648	-0.0005716164	-0.0009002157
	-0.0004004634	-0.0006816878	0.01027906	0.02935293	-0.0005716164	-0.0009002157	0.01462905	-0.004395847
1.1e+08	0.01964336	-0.008546113	-0.000694011	-0.0009139032	0.0164623	0.02969222	-0.0004648313	-0.000729331
	-0.000694011	-0.0009139032	0.01436267	-0.005761575	-0.0007579598	-0.001061265	0.01218818	0.03181101
	0.0164623	0.02969222	-0.0007579598	-0.001061265	0.02005351	-0.008291693	-0.0006504496	-0.0009476965
	-0.0004648313	-0.000729331	0.01218818	0.03181101	-0.0006504496	-0.0009476965	0.01442152	-0.005315181
1.2e+08	0.02013755	-0.01020416	-0.0007775866	-0.0009495168	0.01919232	0.03143564	-0.000533646	-0.0007726839
	-0.0007775866	-0.0009495168	0.01402778	-0.006694158	-0.0008448096	-0.001124975	0.01422099	0.0341358
	0.01919232	0.03143565	-0.0008448096	-0.001124975	0.02056833	-0.009963742	-0.0007345737	-0.0009907143
	-0.000533646	-0.0007726839	0.01422099	0.0341358	-0.0007345737	-0.0009907143	0.01410687	-0.006209376
1.3e+08	0.02053295	-0.01190983	-0.0008664831	-0.0009815631	0.02207571	0.03296299	-0.0006066217	-0.0008113288
	-0.0008664831	-0.0009815631	0.01357596	-0.007594481	-0.0009367194	-0.001182131	0.01637704	0.03632832
	0.02207571	0.03296299	-0.0009367194	-0.001182131	0.02098596	-0.01168174	-0.000824256	-0.001030108
	-0.0006066217	-0.0008113288	0.01637704	0.03632832	-0.000824256	-0.001030108	0.01367686	-0.007072584
1.4e+08	0.02083992	-0.01366457	-0.0009603688	-0.001009556	0.02509595	0.03426394	-0.0006831557	-0.00084446
	-0.0009603688	-0.001009556	0.01300582	-0.008447177	-0.001032848	-0.001232347	0.0186505	0.03838615
	0.02509595	0.03426394	-0.001032848	-0.001232347	0.02131889	-0.01344386	-0.0009193505	-0.001065569
	-0.0006831557	-0.00084446	0.0186505	0.03838615	-0.0009193505	-0.001065569	0.01312983	-0.007889736
1.5e+08	0.02106004	-0.01546014	-0.001057766	-0.001030661	0.02823717	0.03532975	-0.0007631271	-0.0008723189
	-0.001057766	-0.001030661	0.01232325	-0.009227383	-0.001134745	-0.001275512	0.02103584	0.04030723
	0.02823717	0.03532975	-0.001134745	-0.001275512	0.02156511	-0.01524998	-0.001018456	-0.001094445
	-0.0007631271	-0.0008723189	0.02103584	0.04030723	-0.001018456	-0.001094445	0.01247185	-0.008635894
1.6e+08	0.02119553	-0.01729045	-0.00115827	-0.001044924	0.03148272	0.03615247	-0.0008461829	-0.0008947087
	-0.00115827	-0.001044924	0.01154156	-0.009917044	-0.001241225	-0.001311743	0.02352509	0.04208689
	0.03148272	0.03615247	-0.001241225	-0.001311743	0.02172702	-0.01709334	-0.001121284	-0.001116727
	-0.0008461829	-0.0008947087	0.02352509	0.04208689	-0.001121284	-0.001116727	0.01171614	-0.009292743
1.7e+08	0.02125678	-0.01913908	-0.001262039	-0.001053174	0.0348158	0.03672416	-0.0009319923	-0.0009113118
	-0.001262039	-0.001053174	0.01068687	-0.01049385	-0.00134982	-0.001341969	0.02610991	0.04371976
	0.0348158	0.03672416	-0.00134982	-0.001341969	0.02181737	-0.01895448	-0.001228031	-0.001133095
	-0.0009319923	-0.0009113118	0.02610992	0.04371976	-0.001228031	-0.001133095	0.01088816	-0.009838362
1.8e+08	0.02123254	-0.02101285	-0.001367768	-0.001053783	0.03821805	0.03703942	-0.001020228	-0.000922102
	-0.001367768	-0.001053783	0.009758767	-0.01095925	-0.001463298	-0.00136426	0.02878141	0.04520219
	0.03821805	0.03703942	-0.001463298	-0.00136426	0.02182173	-0.02084384	-0.001337537	-0.001142086
	-0.001020229	-0.000922102	0.02878141	0.04520219	-0.001337537	-0.001142086	0.009987953	-0.01027391
1.9e+08	0.02112373	-0.02290556	-0.001474951	-0.001046645	0.0416713	0.03709366	-0.001110579	-0.0009269294
	-0.001474951	-0.001046645	0.008771486	-0.01130468	-0.001580853	-0.001378588	0.03153044	0.04653058
	0.04167129	0.03709366	-0.001580853	-0.001378588	0.02174137	-0.02275515	-0.001449316	-0.001143504
	-0.001110579	-0.0009269294	0.03153044	0.04653058	-0.001449316	-0.001143504	0.009029648	-0.01059115
2e+08	0.02093376	-0.02481057	-0.001583109	-0.001031779	0.04515697	0.03688294	-0.001202654	-0.0009256517
	-0.001583109	-0.001031779	0.007740486	-0.0115229	-0.001701573	-0.001385097	0.03434787	0.04770182
	0.04515697	0.03688294	-0.001701573	-0.001385097	0.02157882	-0.02468151	-0.001562978	-0.001137265
	-0.001202654	-0.0009256517	0.03434787	0.04770182	-0.001562978	-0.001137265	0.008028488	-0.01078243
2.1e+08	0.02068119	-0.02670669	-0.001692611	-0.001010102	0.0486579	0.03640362	-0.001296108	-0.0009180215
	-0.001692611	-0.001010102	0.006700334	-0.01159712	-0.001820453	-0.001387869	0.03722504	0.04871231
	0.0486579	0.03640362	-0.001820453	-0.001387869	0.02135527	-0.02660031	-0.001678812	-0.001124063
	-0.001296108	-0.0009180215	0.03722504	0.04871231	-0.001678812	-0.001124063	0.007018973	-0.0108314
2.2e+08	0.02035281	-0.02860715	-0.001801961	-0.0009804767	0.05215391	0.0356557	-0.001390585	-0.0009040565
	-0.001801961	-0.0009804767	0.005645237	-0.01153727	-0.00194409	-0.001380547	0.04015164	0.04956079
	0.05215391	0.0356557	-0.00194409	-0.001380547	0.02105475	-0.02852634	-0.001795552	-0.001102827
	-0.001390585	-0.0009040565	0.04015164	0.04956079	-0.001795552	-0.001102827	0.005995135	-0.01074791
2.3e+08	0.01995113	-0.03050844	-0.001910636	-0.0009430229	0.05562599	0.03463918	-0.001485714	-0.0008836975
	-0.001910636	-0.0009430229	0.004589278	-0.01134071	-0.002070968	-0.00136367	0.04311835	0.05024605
	0.05562599	0.03463918	-0.002070968	-0.00136367	0.02067978	-0.03045606	-0.001912733	-0.00107354
	-0.001485714	-0.0008836975	0.04311835	0.05024605	-0.001912733	-0.00107354	0.004971162	-0.01052896
2.4e+08	0.01947873	-0.03240771	-0.00201821	-0.0008977679	0.0590555	0.03335572	-0.001581113	-0.000856902
	-0.00201821	-0.0008977679	0.003546508	-0.01100598	-0.002200009	-0.00133753	0.04611561	0.05076734
	0.0590555	0.03335572	-0.002200009	-0.00133753	0.0202327	-0.03238661	-0.002029871	-0.001036151
	-0.001581113	-0.000856902	0.04611561	0.05076734	-0.002029871	-0.001036151	0.003961204	-0.0101736
2.5e+08	0.0189383	-0.03430265	-0.002124186	-0.0008448894	0.0624237	0.03180793	-0.001676407	-0.0008235859
	-0.002124186	-0.0008448894	0.002531049	-0.01053302	-0.002330333	-0.001302275	0.04913407	0.05112433
	0.0624237	0.03180793	-0.002330333	-0.001302275	0.01971595	-0.03431545	-0.002146502	-0.0009906882
	-0.001676407	-0.0008235859	0.04913407	0.05112433	-0.002146502	-0.0009906882	0.002979077	-0.009681366
2.6e+08	0.01834872	-0.03617776	-0.002228371	-0.0007850393	0.06571291	0.02999745	-0.001771179	-0.0007836856
	-0.002228371	-0.0007850393	0.001577964	-0.009915554	-0.00246349	-0.001255111	0.05216551	0.05131646
	0.06571291	0.02999745	-0.00246349	-0.001255111	0.01914929	-0.03622679	-0.00226248	-0.0009375115
	-0.001771179	-0.0007836856	0.05216551	0.05131646	-0.00226248	-0.0009375115	0.002059922	-0.009046294
2.7e+08	0.0176985	-0.03804381	-0.002330128	-0.0007178997	0.06890412	0.02793114	-0.001865088	-0.0007372169
	-0.002330128	-0.0007178997	0.0006837778	-0.009163404	-0.002596522	-0.001198693	0.05519982	0.05134528
	0.06890412	0.02793114	-0.002596522	-0.001198693	0.01852005	-0.03813157	-0.002377077	-0.0008763173
	-0.001865088	-0.0007372169	0.05519982	0.05134528	-0.002377077	-0.0008763173	0.001200263	-0.008278258
2.8e+08	0.01698733	-0.03990161	-0.002428987	-0.0006435925	0.07197946	0.0256155	-0.001957727	-0.0006842673
	-0.002428987	-0.0006435925	-0.0001409121	-0.008281294	-0.002728641	-0.001133282	0.05822801	0.05121249
	0.07197946	0.0256155	-0.002728641	-0.001133282	0.0178275	-0.04003025	-0.002489765	-0.0008071583
	-0.001957727	-0.0006842673	0.05822801	0.05121249	-0.002489765	-0.0008071583	0.0004103553	-0.007381687
2.9e+08	0.0162165	-0.04174993	-0.002524498	-0.0005623631	0.0749215	0.02305827	-0.002048724	-0.0006248835
	-0.002524498	-0.0005623631	-0.0008829318	-0.007273495	-0.002859378	-0.001058819	0.06124142	0.05092021
	0.0749215	0.02305827	-0.002859378	-0.001058819	0.01707287	-0.0419218	-0.002600089	-0.0007300758
	-0.002048724	-0.0006248835	0.06124142	0.05092021	-0.002600089	-0.0007300758	-0.000296417	-0.00636123
3e+08	0.0153877	-0.04358814	-0.00261625	-0.0004744449	0.07771328	0.02026776	-0.002137714	-0.0005591364
	-0.00261625	-0.0004744449	-0.001529686	-0.006145578	-0.002988232	-0.0009753094	0.0642314	0.05047071
	0.07771328	0.02026776	-0.002988232	-0.0009753094	0.01625764	-0.04380516	-0.00270757	-0.0006451853
	-0.002137714	-0.0005591364	0.0642314	0.05047071	-0.00270757	-0.0006451853	-0.0009075381	-0.005222175
3.1e+08	0.01450216	-0.04541567	-0.002703883	-0.0003801169	0.08033886	0.01725414	-0.002224323	-0.0004870564
	-0.002703883	-0.0003801169	-0.002068978	-0.004903979	-0.003114695	-0.0008826676	0.0671898	0.04986702
	0.08033886	0.01725414	-0.003114695	-0.0008826676	0.01538269	-0.04567966	-0.002811748	-0.0005527024
	-0.002224323	-0.0004870564	0.0671898	0.04986702	-0.002811748	-0.0005527024	-0.001410534	-0.003971248
3.2e+08	0.01356777	-0.0472281	-0.002787184	-0.0002797506	0.0827828	0.01402687	-0.002308128	-0.0004087728
	-0.002787184	-0.0002797506	-0.002480481	-0.003555701	-0.003238147	-0.0007813497	0.07010906	0.04911184
	0.0827828	0.01402687	-0.003238147	-0.0007813497	0.01445612	-0.04754065	-0.00291231	-0.0004528319
	-0.002308128	-0.0004087728	0.07010906	0.04911184	-0.00291231	-0.0004528319	-0.001785938	-0.002615278
3.3e+08	0.0125901	-0.0490231	-0.002865956	-0.0001736674	0.08502968	0.01059679	-0.002388735	-0.0003243463
	-0.002865956	-0.0001736674	-0.002747553	-0.002109984	-0.003357987	-0.0006716798	0.07298132	0.04820818
	0.08502968	0.01059679	-0.003357987	-0.0006716798	0.01348369	-0.0493855	-0.00300894	-0.0003457724
	-0.002388735	-0.0003243463	0.07298132	0.04820818	-0.00300894	-0.0003457724	-0.002016686	-0.00116375
3.4e+08	0.01155842	-0.05080751	-0.002939649	-6.1993e-05	0.08706574	0.006978785	-0.002465874	-0.0002339948
	-0.002939649	-6.1993e-05	-0.002873884	-0.0005780221	-0.003473814	-0.0005533815	0.07579906	0.0471615
	0.08706574	0.006978785	-0.003473814	-0.0005533815	0.0124538	-0.05122076	-0.003100993	-0.0002315913
	-0.002465874	-0.0002339948	0.07579906	0.0471615	-0.003100993	-0.0002315913	-0.002106734	0.0003724765
3.5e+08	0.01047279	-0.05258114	-0.003007946	5.492259e-05	0.08887768	0.00318625	-0.002539157	-0.0001379071
	-0.003007946	5.492259e-05	-0.00284997	0.001029958	-0.003585149	-0.0004266097	0.07855508	0.04597621
	0.08887768	0.00318625	-0.003585149	-0.0004266097	0.01136677	-0.0530464	-0.003188028	-0.0001105734
	-0.002539157	-0.0001379071	0.07855508	0.04597621	-0.003188028	-0.0001105734	-0.002046212	0.001982816
3.6e+08	0.009333342	-0.05434431	-0.003070613	0.0001767451	0.09045325	-0.0007661088	-0.002608265	-3.629236e-05
	-0.003070613	0.0001767451	-0.002666889	0.002702901	-0.003691461	-0.0002914203	0.08124272	0.04465737
	0.09045325	-0.0007661091	-0.003691461	-0.0002914203	0.0102225	-0.05486185	-0.003269661	1.700713e-05
	-0.002608265	-3.629236e-05	0.08124272	0.04465737	-0.003269661	1.700713e-05	-0.001826765	0.003656324
3.7e+08	0.008139801	-0.05609675	-0.003127383	0.0003031853	0.09178124	-0.004862977	-0.002672864	7.072774e-05
	-0.003127383	0.0003031853	-0.002317022	0.004429345	-0.003792246	-0.0001479996	0.08385595	0.04321011
	0.09178124	-0.004862978	-0.003792246	-0.0001479996	0.009020628	-0.05666707	-0.003345501	0.0001509589
	-0.002672864	7.072774e-05	0.08385595	0.04321011	-0.003345501	0.0001509589	-0.001440671	0.005381456
3.8e+08	0.006891896	-0.05783826	-0.003178051	0.0004338486	0.09285129	-0.009088431	-0.002732637	0.0001828552
	-0.003178051	0.0004338486	-0.001793122	0.006197032	-0.003886997	3.357718e-06	0.08638867	0.04163972
	0.09285129	-0.009088431	-0.003886997	3.357718e-06	0.007760969	-0.05846181	-0.003415163	0.0002909163
	-0.002732637	0.0001828552	0.08638867	0.04163972	-0.003415163	0.0002909163	-0.0008805664	0.007145718
3.9e+08	0.005588656	-0.05956927	-0.003222431	0.0005683877	0.09365435	-0.01342575	-0.002787266	0.0002998904
	-0.003222431	0.0005683877	-0.00108929	0.007992432	-0.00397523	0.0001624118	0.08883557	0.03995227
	0.09365435	-0.01342575	-0.00397523	0.0001624118	0.006442426	-0.06024543	-0.003478312	0.0004365731
	-0.002787266	0.0002998904	0.08883557	0.03995227	-0.003478312	0.0004365731	-0.0001411865	0.008936132
4e+08	0.004232254	-0.0612883	-0.003260417	0.0007064421	0.09418189	-0.01785832	-0.002836431	0.0004215797
	-0.003260417	0.0007064421	-0.000196961	0.009801262	-0.004056373	0.0003284574	0.09119154	0.03815305
	0.09418189	-0.01785832	-0.004056373	0.0003284574	0.005067453	-0.06201692	-0.003534643	0.0005876538
	-0.002836431	0.0004215797	0.09119154	0.03815305	-0.003534643	0.0005876538	0.0007865033	0.01073831
4.1e+08	0.002831578	-0.06299178	-0.003292072	0.0008477153	0.09442582	-0.0223702	-0.002879792	0.0005477046
	-0.003292072	0.0008477153	0.0008987307	0.01160632	-0.004129913	0.000499064	0.09345143	0.03624685
	0.09442582	-0.0223702	-0.004129913	0.000499064	0.003644947	-0.0637723	-0.003584082	0.0007437248
	-0.002879792	0.0005477046	0.09345143	0.03624685	-0.003584082	0.0007437248	0.001917041	0.01253466
4.2e+08	0.001372009	-0.06468457	-0.00331701	0.0009918728	0.09438128	-0.02694094	-0.002917185	0.0006778735
	-0.00331701	0.0009918728	0.002185869	0.01339599	-0.004195655	0.0006761396	0.09561136	0.03424191
	0.09438128	-0.02694094	-0.004195655	0.0006761396	0.002160302	-0.06551613	-0.003626059	0.0009044948
	-0.002917185	0.0006778735	0.09561136	0.03424191	-0.003626059	0.0009044948	0.003238339	0.01431388
4.3e+08	-0.0001478625	-0.06636602	-0.003335115	0.001138585	0.09404362	-0.03155169	-0.002948293	0.0008118941
	-0.003335115	0.001138585	0.003666376	0.01515613	-0.004253223	0.0008591366	0.09766745	0.03214454
	0.09404362	-0.03155169	-0.004253223	0.0008591366	0.0006116439	-0.06724754	-0.003660272	0.001069658
	-0.002948293	0.0008118941	0.09766745	0.03214454	-0.003660272	0.001069658	0.004752479	0.01606193
4.4e+08	-0.001729907	-0.06803535	-0.003346289	0.00128749	0.09340917	-0.03618374	-0.002972899	0.0009493947
	-0.003346289	0.00128749	0.00534145	0.0168724	-0.004302204	0.001047745	0.09961622	0.02996148
	0.09340917	-0.03618374	-0.004302204	0.001047745	-0.001002271	-0.06896554	-0.003686481	0.001238688
	-0.002972899	0.0009493947	0.09961622	0.02996148	-0.003686481	0.001238688	0.006460284	0.01776416
4.5e+08	-0.003376161	-0.06969173	-0.003350471	0.001438272	0.09247584	-0.04081782	-0.002990801	0.001090006
	-0.003350471	0.001438272	0.007210468	0.01852956	-0.00434222	0.001241617	0.1014548	0.02769952
	0.09247584	-0.04081782	-0.00434222	0.001241617	-0.002683532	-0.07066898	-0.003704466	0.00141119
	-0.002990801	0.001090006	0.1014548	0.02769952	-0.003704466	0.00141119	0.008361193	0.01940544
4.6e+08	-0.005088786	-0.07133419	-0.003347621	0.001590503	0.09124256	-0.0454349	-0.003001768	0.001233442
	-0.003347621	0.001590503	0.009272223	0.02011232	-0.00437296	0.001440141	0.1031806	0.02536556
	0.09124256	-0.0454349	-0.00437296	0.001440141	-0.004434308	-0.07235661	-0.003713924	0.001586876
	-0.003001768	0.001233442	0.1031806	0.02536556	-0.003713924	0.001586876	0.01045417	0.02097107
4.7e+08	-0.006870065	-0.07296077	-0.003337664	0.001743937	0.0897095	-0.05001559	-0.003005628	0.001379301
	-0.003337664	0.001743937	0.01152417	0.02160688	-0.0043941	0.001642841	0.1047916	0.02296621
	0.0897095	-0.05001559	-0.0043941	0.001642841	-0.006256517	-0.0740266	-0.003714736	0.001765186
	-0.003005628	0.001379301	0.1047916	0.02296621	-0.003714736	0.001765186	0.01273643	0.02244618
4.8e+08	-0.008722019	-0.07457026	-0.00332059	0.001898251	0.08787803	-0.05454066	-0.003002183	0.001527275
	-0.00332059	0.001898251	0.01396339	0.02299785	-0.004405319	0.001849397	0.106286	0.02050862
	0.08787803	-0.05454066	-0.004405319	0.001849397	-0.008152304	-0.07567705	-0.003706672	0.001945749
