!$
! Info: Touchstone file created by Circ.  Input file=Intel_C2M_200G_1in_202204012_staggered.circ
!$
# Hz S RI R 50
0	0.009249904	1.232076e-24	2.558501e-05	1.645623e-23	6.777715e-05	1.950411e-22	2.551726e-05	1.638905e-23
	2.558501e-05	1.645623e-23	0.009263273	1.431911e-24	2.55669e-05	1.644891e-23	6.738665e-05	1.943357e-22
	6.78359e-05	1.951753e-22	2.55669e-05	1.644961e-23	0.009239596	1.200908e-24	2.553001e-05	1.638319e-23
	2.551726e-05	1.638975e-23	6.744539e-05	1.9447e-22	2.553001e-05	1.638319e-23	0.009256131	1.357414e-24
1e+07	0.01124853	0.001472186	7.046227e-06	7.667699e-06	0.0004810462	0.003518152	8.772988e-07	9.447557e-06
	7.046227e-06	7.667699e-06	0.01113961	0.001373493	3.469645e-05	5.883776e-06	0.0006123034	0.003584328
	0.0004810462	0.003518152	3.469645e-05	5.883776e-06	0.01138864	0.001459071	1.152793e-06	7.813982e-06
	8.772988e-07	9.447557e-06	0.0006123034	0.003584328	1.152793e-06	7.813982e-06	0.01112092	0.001402821
2e+07	0.01287771	0.001340917	4.582599e-06	5.466782e-06	0.001029649	0.006812624	1.678518e-06	7.079232e-06
	4.582599e-06	5.466781e-06	0.01270826	0.001222702	2.662142e-05	1.421844e-05	0.00114366	0.006896219
	0.001029639	0.006812608	2.662142e-05	1.421844e-05	0.01293975	0.001281571	1.665245e-06	4.557429e-06
	1.678518e-06	7.079232e-06	0.00114365	0.006896203	1.665245e-06	4.557428e-06	0.01269125	0.001292088
3e+07	0.01423379	0.0005929979	3.15832e-06	9.519231e-06	0.001750544	0.01009604	2.358197e-06	7.577812e-06
	3.158321e-06	9.519231e-06	0.01401668	0.0004714679	2.098897e-05	2.112255e-05	0.001854951	0.01022443
	0.001750527	0.01009604	2.098896e-05	2.112255e-05	0.0142276	0.0005561143	2.140233e-06	4.774046e-06
	2.358197e-06	7.577812e-06	0.001854933	0.01022442	2.140232e-06	4.774045e-06	0.0139945	0.0005847701
4e+07	0.01522954	-0.0005405859	2.216965e-06	1.266664e-05	0.002737793	0.01326568	2.930669e-06	8.424639e-06
	2.216965e-06	1.266664e-05	0.01497158	-0.0006556854	1.669767e-05	2.573589e-05	0.002837504	0.0134442
	0.002737781	0.01326569	1.669767e-05	2.573589e-05	0.01517318	-0.0005364055	2.574978e-06	5.596519e-06
	2.93067e-06	8.424639e-06	0.002837492	0.01344422	2.574978e-06	5.596519e-06	0.01495327	-0.0004987912
5e+07	0.01597099	-0.001858821	3.392019e-06	1.490588e-05	0.003953907	0.01634108	3.405435e-06	9.366022e-06
	3.392019e-06	1.490588e-05	0.01567717	-0.001960596	1.301129e-05	2.915898e-05	0.004053406	0.01657227
	0.00395391	0.01634109	1.301129e-05	2.915898e-05	0.01587354	-0.001802529	3.031847e-06	6.854286e-06
	3.405436e-06	9.366022e-06	0.004053409	0.01657228	3.031847e-06	6.854286e-06	0.0156648	-0.001760936
6e+07	0.01650091	-0.003300389	4.919805e-06	1.665561e-05	0.005396602	0.01931017	3.791648e-06	1.033332e-05
	4.919805e-06	1.665561e-05	0.01617562	-0.003383121	8.943943e-06	3.203664e-05	0.005500014	0.01959491
	0.005396624	0.01931017	8.943942e-06	3.203664e-05	0.0163709	-0.003183208	3.492378e-06	8.23804e-06
	3.791648e-06	1.033332e-05	0.005500036	0.01959491	3.492378e-06	8.23804e-06	0.01617164	-0.003140497
7e+07	0.01681762	-0.004824566	6.368372e-06	1.803413e-05	0.007056465	0.02215872	4.098164e-06	1.130912e-05
	6.368372e-06	1.803413e-05	0.01646539	-0.004882584	1.047346e-05	3.267402e-05	0.007167537	0.02249704
	0.00705647	0.02215873	1.047346e-05	3.267402e-05	0.01666351	-0.004639328	3.893587e-06	9.504414e-06
	4.098164e-06	1.130912e-05	0.007167542	0.02249704	3.893588e-06	9.504415e-06	0.01647262	-0.00459715
8e+07	0.01692194	-0.006392467	7.676664e-06	1.922714e-05	0.008923185	0.02487406	4.350827e-06	1.233855e-05
	7.676664e-06	1.922714e-05	0.01654753	-0.00642064	1.447261e-05	3.187512e-05	0.009045339	0.02526536
	0.008923189	0.02487406	1.447261e-05	3.187512e-05	0.01675231	-0.006133031	4.241741e-06	1.069154e-05
	4.350827e-06	1.233855e-05	0.009045343	0.02526536	4.241741e-06	1.069154e-05	0.01656913	-0.006092606
9e+07	0.01686898	-0.007914201	8.452836e-06	1.991112e-05	0.01098968	0.02744607	4.448788e-06	1.322391e-05
	8.452836e-06	1.991112e-05	0.01648002	-0.00790247	1.69462e-05	2.914231e-05	0.01112715	0.02789025
	0.01098968	0.02744607	1.69462e-05	2.914231e-05	0.01669555	-0.007569602	4.512758e-06	1.183553e-05
	4.448788e-06	1.322391e-05	0.01112715	0.02789025	4.512758e-06	1.183553e-05	0.01651933	-0.007531734
1e+08	0.01664085	-0.009423689	9.303463e-06	2.0794e-05	0.01324245	0.02986076	4.584489e-06	1.433686e-05
	9.303463e-06	2.0794e-05	0.01624317	-0.009368695	2.025903e-05	2.649212e-05	0.01339822	0.03035611
	0.01324245	0.02986076	2.025903e-05	2.649212e-05	0.01647234	-0.008990839	4.78156e-06	1.30077e-05
	4.584489e-06	1.433686e-05	0.01339822	0.03035611	4.78156e-06	1.30077e-05	0.01630314	-0.008956364
1.1e+08	0.01629761	-0.01090434	8.953322e-06	2.200452e-05	0.01569246	0.03211441	4.291237e-06	1.555654e-05
	8.953322e-06	2.200452e-05	0.0159159	-0.01082578	1.90399e-05	2.50644e-05	0.01587321	0.03265381
	0.01569246	0.03211441	1.90399e-05	2.50644e-05	0.01616397	-0.01040671	4.916256e-06	1.453122e-05
	4.291237e-06	1.555654e-05	0.01587321	0.03265381	4.916256e-06	1.453122e-05	0.01599987	-0.01037698
1.2e+08	0.0158188	-0.01234542	8.831818e-06	2.369222e-05	0.01828993	0.03417423	4.192911e-06	1.715473e-05
	8.831818e-06	2.369222e-05	0.01545518	-0.01224317	1.808837e-05	2.457227e-05	0.01849708	0.03475495
	0.01828993	0.03417423	1.808837e-05	2.457227e-05	0.01572541	-0.01178277	5.141753e-06	1.613972e-05
	4.192911e-06	1.715473e-05	0.01849708	0.03475495	5.141753e-06	1.613972e-05	0.01556569	-0.01175824
1.3e+08	0.01520501	-0.01372978	8.768257e-06	2.55094e-05	0.02102998	0.03603861	4.22841e-06	1.897858e-05
	8.768258e-06	2.55094e-05	0.01485694	-0.01360911	1.734559e-05	2.476785e-05	0.02126391	0.03665658
	0.02102998	0.03603861	1.734559e-05	2.476785e-05	0.01515253	-0.01310939	5.42362e-06	1.778016e-05
	4.22841e-06	1.897858e-05	0.02126391	0.03665658	5.42362e-06	1.778016e-05	0.0149958	-0.01309017
1.4e+08	0.01446268	-0.01503617	8.871329e-06	2.758951e-05	0.02390178	0.03770292	4.401582e-06	2.09883e-05
	8.871329e-06	2.758951e-05	0.01412451	-0.01490455	1.676986e-05	2.546455e-05	0.02416197	0.03835342
	0.02390178	0.03770292	1.676986e-05	2.546455e-05	0.01444847	-0.01436826	5.690294e-06	1.93618e-05
	4.401582e-06	2.09883e-05	0.02416197	0.03835342	5.690294e-06	1.93618e-05	0.01429315	-0.0143541
1.5e+08	0.01359744	-0.01624347	9.217616e-06	2.996471e-05	0.02689341	0.03916173	4.714958e-06	2.312728e-05
	9.217616e-06	2.996471e-05	0.01326969	-0.01610089	1.633198e-05	2.648291e-05	0.02718004	0.03984152
	0.02689341	0.03916173	1.633198e-05	2.648291e-05	0.01362407	-0.01553067	6.008549e-06	2.097795e-05
	4.714958e-06	2.312728e-05	0.02718004	0.03984152	6.008549e-06	2.097795e-05	0.01346968	-0.01552121
1.6e+08	0.01262966	-0.01733146	9.732872e-06	3.249573e-05	0.02999103	0.04040902	5.182223e-06	2.539509e-05
	9.732872e-06	3.249573e-05	0.01231219	-0.01717842	1.598987e-05	2.773598e-05	0.03030386	0.04111466
	0.02999103	0.04040902	1.598987e-05	2.773598e-05	0.01269889	-0.01657687	6.377761e-06	2.262854e-05
	5.182223e-06	2.539509e-05	0.03030386	0.04111466	6.377761e-06	2.262854e-05	0.012545	-0.01657157
1.7e+08	0.01159724	-0.01827474	1.041647e-05	3.519542e-05	0.03318078	0.04143874	5.63698e-06	2.761301e-05
	1.041647e-05	3.519542e-05	0.01128651	-0.01811377	1.564923e-05	2.91236e-05	0.03351868	0.04216616
	0.03318078	0.04143874	1.564923e-05	2.91236e-05	0.01170689	-0.01748427	6.779336e-06	2.431537e-05
	5.63698e-06	2.761301e-05	0.03351868	0.04216616	6.779336e-06	2.431537e-05	0.0115528	-0.01748222
1.8e+08	0.01049865	-0.01907909	1.127815e-05	3.799715e-05	0.0364469	0.04224638	6.211025e-06	2.990267e-05
	1.127815e-05	3.799715e-05	0.01019512	-0.01891005	1.546257e-05	3.074447e-05	0.036809	0.0429923
	0.0364469	0.04224638	1.546257e-05	3.074447e-05	0.01065014	-0.01825535	7.243968e-06	2.604247e-05
	6.211025e-06	2.990267e-05	0.036809	0.0429923	7.243968e-06	2.604247e-05	0.01049603	-0.018256
1.9e+08	0.009353611	-0.01973716	1.236059e-05	4.091922e-05	0.03977413	0.04282848	6.914319e-06	3.22591e-05
	1.236059e-05	4.091922e-05	0.009057893	-0.01955997	1.54198e-05	3.25531e-05	0.04015916	0.04358962
	0.03977413	0.04282848	1.54198e-05	3.25531e-05	0.009548109	-0.0188831	7.775244e-06	2.781059e-05
	6.914319e-06	3.22591e-05	0.04015916	0.04358962	7.775244e-06	2.781059e-05	0.009394333	-0.0188859
2e+08	0.008183189	-0.02024359	1.371954e-05	4.397923e-05	0.04314717	0.04318251	7.755071e-06	3.467474e-05
	1.371954e-05	4.397923e-05	0.007895884	-0.02005827	1.549693e-05	3.450364e-05	0.04355361	0.04395564
	0.04314717	0.04318251	1.549693e-05	3.450364e-05	0.008421482	-0.0193618	8.37712e-06	2.962125e-05
	7.755071e-06	3.467474e-05	0.04355361	0.04395564	8.37712e-06	2.962125e-05	0.008268577	-0.01936626
2.1e+08	0.007033007	-0.02058314	1.504535e-05	4.69544e-05	0.04655183	0.04330572	8.688802e-06	3.713958e-05
	1.504535e-05	4.69544e-05	0.006752324	-0.02039045	1.54334e-05	3.643766e-05	0.04697741	0.04408739
	0.04655183	0.04330572	1.54334e-05	3.643766e-05	0.007313284	-0.0196777	9.042265e-06	3.148768e-05
	8.688802e-06	3.713958e-05	0.04697741	0.04408739	9.042265e-06	3.148768e-05	0.007161725	-0.01968309
2.2e+08	0.005895735	-0.02077069	1.656008e-05	4.997195e-05	0.04997129	0.04319856	9.773032e-06	3.96581e-05
	1.656008e-05	4.997195e-05	0.005622597	-0.02057066	1.564361e-05	3.861669e-05	0.05041382	0.04398583
	0.04997129	0.04319856	1.564361e-05	3.861669e-05	0.006218251	-0.01984424	9.796407e-06	3.339175e-05
	9.773032e-06	3.96581e-05	0.05041382	0.04398583	9.796407e-06	3.339175e-05	0.006069005	-0.01985035
2.3e+08	0.004789923	-0.02080743	1.827169e-05	5.30254e-05	0.05339051	0.04286181	1.10183e-05	4.222356e-05
	1.827169e-05	5.30254e-05	0.00452536	-0.02060026	1.607633e-05	4.096523e-05	0.05384751	0.0436519
	0.05339051	0.04286181	1.607633e-05	4.096523e-05	0.005154978	-0.01986231	1.064391e-05	3.533403e-05
	1.10183e-05	4.222356e-05	0.05384751	0.0436519	1.064391e-05	3.533403e-05	0.005009186	-0.01986907
2.4e+08	0.00373373	-0.02069633	2.018856e-05	5.610661e-05	0.05679435	0.04229722	1.24326e-05	4.482911e-05
	2.018856e-05	5.610661e-05	0.003478841	-0.02048239	1.670206e-05	4.343975e-05	0.05726305	0.04308749
	0.05679435	0.04229722	1.670206e-05	4.343975e-05	0.004141485	-0.01973536	1.159143e-05	3.73141e-05
	1.24326e-05	4.482911e-05	0.05726305	0.04308748	1.159143e-05	3.73141e-05	0.004000422	-0.01974293
2.5e+08	0.002744853	-0.02044235	2.231917e-05	5.920622e-05	0.06016807	0.04150732	1.402466e-05	4.746659e-05
	2.231917e-05	5.920622e-05	0.002500838	-0.02022219	1.750714e-05	4.601267e-05	0.06064549	0.04229538
	0.06016807	0.04150732	1.750714e-05	4.601267e-05	0.003195202	-0.01946785	1.264447e-05	3.933066e-05
	1.402466e-05	4.746659e-05	0.06064549	0.04229538	1.264447e-05	3.933066e-05	0.003060247	-0.0194766
2.6e+08	0.001865392	-0.02004574	2.462771e-05	6.230446e-05	0.06349862	0.04049414	1.57821e-05	5.013382e-05
	2.462771e-05	6.230446e-05	0.001632195	-0.01981998	1.858251e-05	4.873573e-05	0.06398128	0.04127764
	0.06349862	0.04049414	1.858251e-05	4.873573e-05	0.002356842	-0.01906044	1.380911e-05	4.138061e-05
	1.57821e-05	5.013382e-05	0.06398128	0.04127764	1.380911e-05	4.138061e-05	0.002229431	-0.01907078
2.7e+08	0.001090722	-0.01952207	2.715797e-05	6.539921e-05	0.0667708	0.03926334	1.773298e-05	5.281588e-05
	2.715797e-05	6.539921e-05	0.000869504	-0.01929162	1.984033e-05	5.151798e-05	0.06725518	0.04004033
	0.0667708	0.03926334	1.984033e-05	5.151798e-05	0.001622812	-0.01852847	1.509506e-05	4.346084e-05
	1.773298e-05	5.281588e-05	0.06725518	0.04004033	1.509506e-05	4.346084e-05	0.001504502	-0.01854132
2.8e+08	0.0004327229	-0.01888238	2.99222e-05	6.84798e-05	0.06997107	0.03782057	1.988762e-05	5.550133e-05
	2.99222e-05	6.84798e-05	0.0002248189	-0.01864836	2.127833e-05	5.434138e-05	0.07045352	0.03858939
	0.06997107	0.03782057	2.127833e-05	5.434138e-05	0.001004825	-0.01788256	1.650917e-05	4.556733e-05
	1.988762e-05	5.550133e-05	0.07045352	0.03858939	1.650917e-05	4.556733e-05	0.0008972086	-0.01789911
2.9e+08	-9.418018e-05	-0.01813778	3.292728e-05	7.153286e-05	0.07308662	0.03617222	2.225283e-05	5.817922e-05
	3.292728e-05	7.153286e-05	-0.0002874238	-0.01790158	2.290616e-05	5.719795e-05	0.07356329	0.03693146
	0.07308662	0.03617222	2.290616e-05	5.719795e-05	0.0005173794	-0.01713413	1.805929e-05	4.769488e-05
	2.225283e-05	5.817922e-05	0.07356329	0.03693146	1.805929e-05	4.769488e-05	0.0004220298	-0.01715594
3e+08	-0.0004768587	-0.01730092	3.618179e-05	7.454357e-05	0.0761049	0.03432513	2.483569e-05	6.083681e-05
	3.618179e-05	7.454357e-05	-0.0006541321	-0.01706417	2.473299e-05	6.007885e-05	0.07657179	0.03507369
	0.0761049	0.03432513	2.473299e-05	6.007885e-05	0.0001735461	-0.0162955	1.975316e-05	4.983743e-05
	2.483569e-05	6.083681e-05	0.07657179	0.03507369	1.975316e-05	4.983743e-05	9.200043e-05	-0.01632438
3.1e+08	-0.0007032744	-0.01638553	3.968872e-05	7.749814e-05	0.07901432	0.03228708	2.764256e-05	6.346131e-05
	3.968872e-05	7.749814e-05	-0.0008633138	-0.01615016	2.677076e-05	6.29723e-05	0.07946733	0.03302411
	0.07901432	0.03228708	2.677076e-05	6.29723e-05	-1.447459e-05	-0.01538071	2.159739e-05	5.198874e-05
	2.764256e-05	6.346131e-05	0.07946733	0.03302411	2.159739e-05	5.198874e-05	-8.077933e-05	-0.01541885
3.2e+08	-0.000753378	-0.01540704	4.344906e-05	8.038563e-05	0.08180407	0.03006539	3.067517e-05	6.604379e-05
	4.344906e-05	8.038563e-05	-0.0008952882	-0.0151751	2.900105e-05	6.587337e-05	0.08223891	0.03079034
	0.08180407	0.03006539	2.900105e-05	6.587337e-05	-2.773682e-05	-0.01440461	2.360123e-05	5.414414e-05
	3.067517e-05	6.604379e-05	0.08223891	0.03079034	2.360123e-05	5.414414e-05	-7.7443e-05	-0.01445443
3.3e+08	-0.0006121407	-0.01438302	4.746384e-05	8.319433e-05	0.08446331	0.0276681	3.393857e-05	6.857168e-05
	4.746384e-05	8.319433e-05	-0.0007353454	-0.01415676	3.140964e-05	6.877335e-05	0.08487558	0.02838075
	0.08446331	0.0276681	3.140964e-05	6.877335e-05	0.0001488939	-0.01338495	2.577198e-05	5.629846e-05
	3.393857e-05	6.857168e-05	0.08487558	0.02838075	2.577198e-05	5.629846e-05	0.0001169705	-0.01344924
3.4e+08	-0.000287209	-0.01333089	5.174766e-05	8.589715e-05	0.08698233	0.02510647	3.743956e-05	7.102304e-05
	5.174766e-05	8.589715e-05	-0.0003908304	-0.013113	3.404253e-05	7.165014e-05	0.08736767	0.02580691
	0.08698233	0.02510647	3.404253e-05	7.165014e-05	0.000508091	-0.01233883	2.811669e-05	5.843662e-05
	3.743956e-05	7.102304e-05	0.08736767	0.02580691	2.811669e-05	5.843662e-05	0.0004949265	-0.01242074
3.5e+08	0.0002275725	-0.01226841	5.63009e-05	8.847821e-05	0.08935194	0.02239043	4.118435e-05	7.338036e-05
	5.63009e-05	8.847821e-05	0.0001442143	-0.01206184	3.690463e-05	7.449146e-05	0.08970593	0.02307914
	0.08935194	0.02239043	3.690463e-05	7.449146e-05	0.001056231	-0.01128437	3.064189e-05	6.054893e-05
	4.118435e-05	7.338036e-05	0.08970593	0.02307914	3.064189e-05	6.054893e-05	0.001062549	-0.01138737
3.6e+08	0.0009369427	-0.01121412	6.112754e-05	9.091596e-05	0.0915639	0.01953065	4.517333e-05	7.562786e-05
	6.112754e-05	9.091596e-05	0.0008742946	-0.01102207	4.000487e-05	7.728124e-05	0.09188215	0.02020837
	0.0915639	0.01953065	4.000487e-05	7.728124e-05	0.001797553	-0.01023978	3.335226e-05	6.262534e-05
	4.517333e-05	7.562786e-05	0.09188215	0.02020837	3.335226e-05	6.262534e-05	0.001823801	-0.01036759
3.7e+08	0.00184367	-0.0101866	6.622513e-05	9.319527e-05	0.093611	0.01653787	4.940671e-05	7.774898e-05
	6.622513e-05	9.319527e-05	0.001801937	-0.0100125	4.334501e-05	8.000627e-05	0.09388911	0.01720567
	0.093611	0.01653787	4.334501e-05	8.000627e-05	0.0027349	-0.009223669	3.625604e-05	6.465288e-05
	4.940671e-05	7.774898e-05	0.09388911	0.01720567	3.625604e-05	6.465288e-05	0.002781205	-0.009380279
3.8e+08	0.002949288	-0.009205137	7.159471e-05	9.529342e-05	0.09548624	0.01342314	5.388388e-05	7.972684e-05
	7.159471e-05	9.529342e-05	0.002928372	-0.009052654	4.693115e-05	8.264948e-05	0.09571987	0.01408243
	0.09548624	0.01342314	4.693115e-05	8.264948e-05	0.003869837	-0.008255511	3.935584e-05	6.66211e-05
	5.388388e-05	7.972684e-05	0.09571987	0.01408243	3.935584e-05	6.66211e-05	0.003935958	-0.008445215
3.9e+08	0.004252977	-0.008289746	7.723372e-05	9.719151e-05	0.09718403	0.01019821	5.860669e-05	8.154112e-05
	7.723372e-05	9.719151e-05	0.004252452	-0.00816273	5.076725e-05	8.519367e-05	0.09736891	0.0108507
	0.09718403	0.01019821	5.076725e-05	8.519367e-05	0.005201167	-0.007354533	4.265881e-05	6.851477e-05
	5.860669e-05	8.154112e-05	0.09736891	0.0108507	4.265881e-05	6.851477e-05	0.00528649	-0.0075818
4e+08	0.00575583	-0.007461292	8.313696e-05	9.8873e-05	0.098699	0.006874009	6.356996e-05	8.317893e-05
	8.313696e-05	9.8873e-05	0.005774889	-0.007363736	5.484691e-05	8.76274e-05	0.0988309	0.007521721
	0.098699	0.006874009	5.484691e-05	8.76274e-05	0.00673034	-0.006541774	4.616701e-05	7.032345e-05
	6.356996e-05	8.317893e-05	0.0988309	0.007521721	4.616701e-05	7.032345e-05	0.006833832	-0.006811301
4.1e+08	0.007463796	-0.006743913	8.93048e-05	0.0001003238	0.1000258	0.003460754	6.87749e-05	8.462365e-05
	8.93048e-05	0.0001003238	0.007501175	-0.006679816	5.91481e-05	8.995144e-05	0.1001005	0.004106026
	0.1000258	0.003460754	5.91481e-05	8.995144e-05	0.008462803	-0.005841357	4.989088e-05	7.203358e-05
	6.87749e-05	8.462365e-05	0.1001005	0.004106025	4.989088e-05	7.203358e-05	0.008582963	-0.00615804
4.2e+08	0.009356673	-0.006152413	9.572821e-05	0.000101511	0.1011619	-2.723213e-05	7.421282e-05	8.585002e-05
	9.572821e-05	0.000101511	0.00941082	-0.006126115	6.370518e-05	9.212504e-05	0.1011756	0.0006182231
	0.1011619	-2.723216e-05	6.370518e-05	9.212504e-05	0.01037849	-0.005267913	5.382614e-05	7.362508e-05
	7.421282e-05	8.585002e-05	0.1011756	0.0006182231	5.382614e-05	7.362508e-05	0.01051333	-0.005636744
4.3e+08	0.01142715	-0.005705442	0.0001023994	0.0001024134	0.1021046	-0.003578055	7.987679e-05	8.683898e-05
	0.0001023994	0.0001024134	0.01149612	-0.00572134	6.851432e-05	9.412676e-05	0.1020534	-0.002929511
	0.1021046	-0.003578055	6.851432e-05	9.412676e-05	0.01247034	-0.00484001	5.797446e-05	7.508261e-05
	7.987679e-05	8.683898e-05	0.1020534	-0.002929511	5.797446e-05	7.508261e-05	0.01261736	-0.005266062
4.4e+08	0.01366655	-0.005421243	0.0001093092	0.0001030131	0.1028519	-0.007179479	8.576274e-05	8.756926e-05
	0.0001093092	0.0001030131	0.01374794	-0.005483806	7.357441e-05	9.593786e-05	0.1027322	-0.006524632
	0.1028519	-0.007179479	7.357441e-05	9.593786e-05	0.01472926	-0.004576003	6.233439e-05	7.639005e-05
	8.576274e-05	8.756926e-05	0.1027322	-0.006524632	6.233439e-05	7.639005e-05	0.0148854	-0.005064374
4.5e+08	0.0160636	-0.005317847	0.0001164469	0.0001032874	0.1034029	-0.0108194	9.185892e-05	8.802447e-05
	0.0001164469	0.0001032874	0.01615452	-0.005431559	7.888149e-05	9.754071e-05	0.1032113	-0.01015483
	0.1034029	-0.0108194	7.888149e-05	9.754071e-05	0.01714412	-0.004493765	6.69077e-05	7.752742e-05
	9.185892e-05	8.802447e-05	0.1032113	-0.01015483	6.69077e-05	7.752742e-05	0.01730578	-0.005049593
4.6e+08	0.01860588	-0.005412732	0.0001237997	0.0001032156	0.1037571	-0.01448576	9.815363e-05	8.818602e-05
	0.0001237997	0.0001032156	0.01870296	-0.005582052	8.443365e-05	9.891125e-05	0.1034904	-0.01380774
	0.1037571	-0.01448576	8.443365e-05	9.891125e-05	0.01970293	-0.004610348	7.169146e-05	7.84791e-05
	9.815363e-05	8.818602e-05	0.1034904	-0.01380774	7.169146e-05	7.84791e-05	0.01986594	-0.005238653
4.7e+08	0.02127984	-0.005721068	0.0001313558	0.0001027763	0.1039151	-0.01816697	0.0001046396	8.803317e-05
	0.0001313558	0.0001027763	0.02137924	-0.005950395	9.022074e-05	0.0001000304	0.1035704	-0.01747159
	0.1039151	-0.01816697	9.022074e-05	0.0001000304	0.02239151	-0.004941685	7.667952e-05	7.922707e-05
	0.0001046396	8.803317e-05	0.1035704	-0.01747159	7.667952e-05	7.922707e-05	0.02255111	-0.005647458
4.8e+08	0.02407035	-0.006258822	0.0001390979	0.0001019519	0.1038781	-0.02185103	0.0001112994	8.755133e-05
	0.0001390979	0.0001019519	0.02416766	-0.006552471	9.623716e-05	0.0001008761	0.1034525	-0.02113416
	0.1038781	-0.02185103	9.623716e-05	0.0001008761	0.02519475	-0.005502685	8.187069e-05	7.975138e-05
	0.0001112994	8.755133e-05	0.1034525	-0.02113416	8.187069e-05	7.975138e-05	0.02534559	-0.006290738
4.9e+08	0.02696	-0.007040124	0.0001470079	0.0001007242	0.1036482	-0.02552683	0.0001181213	8.672e-05
	0.0001470079	0.0001007242	0.02705035	-0.007402218	0.0001024728	0.0001014304	0.1031395	-0.02478417
