!$
! Info: Touchstone file created by Circ.  Input file=Intel_C2M_200G_0p5in_202204012_staggered.circ
!$
# Hz S RI R 50
0	0.008277123	1.011281e-24	2.141877e-05	8.723387e-24	6.369331e-05	1.874548e-22	2.135082e-05	8.668674e-24
	2.141877e-05	8.723387e-24	0.008290519	1.21331e-24	2.140054e-05	8.724845e-24	6.330216e-05	1.868452e-22
	6.375217e-05	1.875893e-22	2.140054e-05	8.725487e-24	0.008266795	9.927744e-25	2.13635e-05	8.671461e-24
	2.135082e-05	8.669315e-24	6.336102e-05	1.869797e-22	2.13635e-05	8.67146e-24	0.008283362	1.151123e-24
1e+07	0.01000629	0.001580124	5.9184e-06	6.816676e-06	0.0004208563	0.003276504	7.408229e-07	8.16481e-06
	5.9184e-06	6.816676e-06	0.009919461	0.001498222	2.904113e-05	5.387071e-06	0.0005312552	0.003342016
	0.0004208563	0.003276504	2.904113e-05	5.387071e-06	0.01012293	0.00157651	9.919056e-07	6.812782e-06
	7.408229e-07	8.16481e-06	0.0005312552	0.003342016	9.919056e-07	6.812782e-06	0.009904283	0.00152867
2e+07	0.01138168	0.001781513	3.829364e-06	5.343513e-06	0.0008557417	0.006354162	1.379901e-06	6.444172e-06
	3.829364e-06	5.343513e-06	0.01124549	0.001683102	2.225186e-05	1.2744e-05	0.0009525599	0.006444206
	0.0008557317	0.006354146	2.225186e-05	1.2744e-05	0.01143437	0.001745816	1.408722e-06	4.354555e-06
	1.379901e-06	6.444172e-06	0.0009525499	0.00644419	1.408722e-06	4.354554e-06	0.01123244	0.001752713
3e+07	0.01255684	0.001485666	2.537746e-06	9.09383e-06	0.001398991	0.009439964	1.881156e-06	7.121937e-06
	2.537746e-06	9.09383e-06	0.01238212	0.001383769	1.744909e-05	1.888564e-05	0.001488877	0.009577292
	0.001398974	0.00943996	1.744909e-05	1.888564e-05	0.01255146	0.001475325	1.765362e-06	4.795247e-06
	1.881156e-06	7.121937e-06	0.00148886	0.009577288	1.765362e-06	4.795247e-06	0.01236335	0.001496074
4e+07	0.01342695	0.0008505518	1.611289e-06	1.208896e-05	0.002148642	0.01243788	2.264755e-06	8.093875e-06
	1.611289e-06	1.208896e-05	0.01321938	0.0007530271	1.373613e-05	2.310332e-05	0.002235956	0.01262693
	0.002148629	0.01243789	1.373613e-05	2.310332e-05	0.01337917	0.000881006	2.065768e-06	5.742088e-06
	2.264755e-06	8.093875e-06	0.002235943	0.01262695	2.065768e-06	5.742087e-06	0.0132032	0.0009078399
5e+07	0.01408742	5.645112e-05	2.428358e-06	1.434923e-05	0.003068971	0.01537228	2.540095e-06	9.150734e-06
	2.428358e-06	1.434923e-05	0.01385113	-3.111638e-05	1.050232e-05	2.632234e-05	0.003157745	0.01561519
	0.003068973	0.01537229	1.050232e-05	2.632234e-05	0.01400429	0.000136742	2.361125e-06	7.055112e-06
	2.540095e-06	9.150734e-06	0.003157747	0.01561521	2.361125e-06	7.055113e-06	0.01383895	0.0001654543
6e+07	0.01457719	-0.000847542	3.514562e-06	1.621293e-05	0.004160744	0.01823688	2.715358e-06	1.023438e-05
	3.514562e-06	1.621293e-05	0.01431583	-0.000920492	6.919614e-06	2.907254e-05	0.004254734	0.01853448
	0.004160766	0.01823688	6.919614e-06	2.907254e-05	0.0144653	-0.0007099591	2.637935e-06	8.475188e-06
	2.715358e-06	1.023438e-05	0.004254756	0.01853448	2.637935e-06	8.475188e-06	0.01430941	-0.0006817916
7e+07	0.0148928	-0.001829206	4.513735e-06	1.778329e-05	0.005418226	0.02102289	2.798123e-06	1.132967e-05
	4.513735e-06	1.778329e-05	0.01461011	-0.001882859	8.046326e-06	3.002173e-05	0.005520907	0.02137529
	0.005418231	0.02102289	8.046326e-06	3.002173e-05	0.01475876	-0.001628137	2.850597e-06	9.806695e-06
	2.798123e-06	1.132967e-05	0.005520912	0.02137529	2.850597e-06	9.806696e-06	0.01461163	-0.001601922
8e+07	0.01503288	-0.002855829	5.373313e-06	1.921263e-05	0.006835231	0.02372268	2.808707e-06	1.2475e-05
	5.373313e-06	1.921263e-05	0.01473279	-0.002885895	1.126905e-05	2.98164e-05	0.006949837	0.02412952
	0.006835236	0.02372268	1.126905e-05	2.98164e-05	0.01488343	-0.002585784	3.004123e-06	1.107967e-05
	2.808707e-06	1.2475e-05	0.006949841	0.02412952	3.004123e-06	1.107967e-05	0.01474477	-0.00256257
9e+07	0.01504197	-0.003850207	5.771511e-06	2.021042e-05	0.008408405	0.02633095	2.665396e-06	1.350049e-05
	5.771511e-06	2.021042e-05	0.01473071	-0.003848112	1.32467e-05	2.796027e-05	0.008538866	0.02679234
	0.008408408	0.02633095	1.32467e-05	2.796027e-05	0.01488634	-0.003501465	3.078778e-06	1.231645e-05
	2.665396e-06	1.350049e-05	0.008538868	0.02679234	3.078778e-06	1.231645e-05	0.01475581	-0.003481969
1e+08	0.01490596	-0.004841437	6.202028e-06	2.139076e-05	0.01012979	0.02883824	2.521109e-06	1.472559e-05
	6.202028e-06	2.139076e-05	0.01458839	-0.00480422	1.593883e-05	2.619517e-05	0.01027906	0.02935293
	0.01012979	0.02883824	1.593883e-05	2.619517e-05	0.01475108	-0.004410879	3.132866e-06	1.358436e-05
	2.521109e-06	1.472559e-05	0.01027906	0.02935293	3.132866e-06	1.358436e-05	0.01462905	-0.004395847
1.1e+08	0.01466533	-0.005818042	5.570756e-06	2.281849e-05	0.01201377	0.03124868	1.977783e-06	1.603561e-05
	5.570756e-06	2.281849e-05	0.01436267	-0.005761575	1.475948e-05	2.535188e-05	0.01218818	0.03181101
	0.01201377	0.03124868	1.475948e-05	2.535188e-05	0.01453659	-0.005324698	3.038802e-06	1.514118e-05
	1.977782e-06	1.603561e-05	0.01218818	0.03181101	3.038802e-06	1.514118e-05	0.01442152	-0.005315181
1.2e+08	0.01431362	-0.006770181	5.081769e-06	2.466703e-05	0.01401964	0.0335279	1.555898e-06	1.768047e-05
	5.081769e-06	2.466703e-05	0.01402778	-0.006694158	1.376436e-05	2.529998e-05	0.01422099	0.0341358
	0.01401964	0.0335279	1.376436e-05	2.529998e-05	0.01421537	-0.006212987	2.993396e-06	1.678001e-05
	1.555898e-06	1.768047e-05	0.01422099	0.0341358	2.993396e-06	1.678001e-05	0.01410687	-0.006209376
1.3e+08	0.01384689	-0.00768569	4.596928e-06	2.664061e-05	0.01614772	0.03567817	1.206397e-06	1.953215e-05
	4.596928e-06	2.664061e-05	0.01357596	-0.007594481	1.290529e-05	2.583302e-05	0.01637704	0.03632832
	0.01614772	0.03567817	1.290529e-05	2.583302e-05	0.01377978	-0.007070214	2.968436e-06	1.845638e-05
	1.206397e-06	1.953215e-05	0.01637704	0.03632832	2.968436e-06	1.845638e-05	0.01367686	-0.007072584
1.4e+08	0.01326632	-0.008547194	4.203223e-06	2.885984e-05	0.01839287	0.03769769	9.318858e-07	2.156059e-05
	4.203223e-06	2.885984e-05	0.01300582	-0.008447177	1.214768e-05	2.679631e-05	0.0186505	0.03838615
	0.01839287	0.03769769	1.214768e-05	2.679631e-05	0.01322835	-0.007881605	2.904989e-06	2.009162e-05
	9.318858e-07	2.156059e-05	0.0186505	0.03838615	2.904989e-06	2.009162e-05	0.01312983	-0.007889736
1.5e+08	0.01257273	-0.009336386	3.964223e-06	3.135933e-05	0.02074896	0.03958308	7.345599e-07	2.372157e-05
	3.964223e-06	3.135933e-05	0.01232325	-0.009227383	1.146885e-05	2.804081e-05	0.02103584	0.04030723
	0.02074896	0.03958308	1.146885e-05	2.804081e-05	0.0125662	-0.008622385	2.856933e-06	2.176859e-05
	7.345599e-07	2.372157e-05	0.02103584	0.04030723	2.856933e-06	2.176859e-05	0.01247185	-0.008635894
1.6e+08	0.01177997	-0.0100348	3.819505e-06	3.402211e-05	0.0232083	0.04132995	6.254789e-07	2.601845e-05
	3.819505e-06	3.402211e-05	0.01154156	-0.009917044	1.083311e-05	2.949384e-05	0.02352509	0.04208689
	0.0232083	0.04132995	1.083311e-05	2.949384e-05	0.01180649	-0.009274422	2.822891e-06	2.348879e-05
	6.254789e-07	2.601845e-05	0.02352509	0.04208689	2.822891e-06	2.348879e-05	0.01171614	-0.009292743
1.7e+08	0.010917	-0.01061825	3.767614e-06	3.686159e-05	0.02576323	0.04293352	4.662201e-07	2.829384e-05
	3.767614e-06	3.686159e-05	0.01068687	-0.01049385	1.015931e-05	3.106872e-05	0.02610991	0.04371976
	0.02576323	0.04293352	1.015931e-05	3.106872e-05	0.01097494	-0.009816115	2.786108e-06	2.525322e-05
	4.662201e-07	2.829384e-05	0.02610992	0.04371976	2.786108e-06	2.525322e-05	0.01088816	-0.009838362
1.8e+08	0.009980054	-0.01109062	3.817861e-06	3.982712e-05	0.02840464	0.04438952	3.653593e-07	3.066013e-05
	3.817861e-06	3.982712e-05	0.009758767	-0.01095925	9.573895e-06	3.285933e-05	0.02878141	0.04520219
	0.02840464	0.04438952	9.573895e-06	3.285933e-05	0.01007083	-0.01024842	2.771401e-06	2.706991e-05
	3.653593e-07	3.066013e-05	0.02878141	0.04520219	2.771401e-06	2.706991e-05	0.009987953	-0.01027391
1.9e+08	0.008983215	-0.01144337	4.005811e-06	4.294096e-05	0.03112364	0.0456944	3.306265e-07	3.311712e-05
	4.005811e-06	4.294096e-05	0.008771486	-0.01130468	9.067843e-06	3.48303e-05	0.03153044	0.04653058
	0.03112364	0.0456944	9.067843e-06	3.48303e-05	0.009108088	-0.01056311	2.780824e-06	2.894158e-05
	3.306265e-07	3.311712e-05	0.03153044	0.04653058	2.780824e-06	2.894158e-05	0.009029648	-0.01059115
2e+08	0.007941913	-0.0116692	4.379474e-06	4.622646e-05	0.03391132	0.04684507	3.685064e-07	3.566271e-05
	4.379474e-06	4.622646e-05	0.007740486	-0.0115229	8.620042e-06	3.6945e-05	0.03434787	0.04770182
	0.03391132	0.04684507	8.620042e-06	3.6945e-05	0.0081018	-0.01075251	2.816785e-06	3.08718e-05
	3.685064e-07	3.566271e-05	0.03434787	0.04770182	2.816785e-06	3.08718e-05	0.008028488	-0.01078243
2.1e+08	0.006892756	-0.01175055	4.676879e-06	4.947641e-05	0.03675957	0.04783826	4.39812e-07	3.828748e-05
	4.676879e-06	4.947641e-05	0.006700334	-0.01159712	8.006733e-06	3.905344e-05	0.03722504	0.04871231
	0.03675957	0.04783826	8.006733e-06	3.905344e-05	0.007086498	-0.01080056	2.871099e-06	3.287217e-05
	4.39812e-07	3.828748e-05	0.03722504	0.04871231	2.871099e-06	3.287217e-05	0.007018973	-0.0108314
2.2e+08	0.005827598	-0.01169816	5.08531e-06	5.281953e-05	0.03965802	0.04867232	5.938006e-07	4.10033e-05
	5.08531e-06	5.281953e-05	0.005645237	-0.01153727	7.577385e-06	4.140907e-05	0.04015164	0.04956079
	0.03965802	0.04867232	7.577385e-06	4.140907e-05	0.006055737	-0.01071669	2.965377e-06	3.493392e-05
	5.938006e-07	4.10033e-05	0.04015164	0.04956079	2.965377e-06	3.493392e-05	0.005995135	-0.01074791
2.3e+08	0.004760385	-0.01150929	5.612143e-06	5.625528e-05	0.04259759	0.04934599	8.39697e-07	4.380936e-05
	5.612143e-06	5.625528e-05	0.004589278	-0.01134071	7.28976e-06	4.394925e-05	0.04311835	0.05024605
	0.04259759	0.04934599	7.28976e-06	4.394925e-05	0.005023502	-0.01049782	3.102719e-06	3.706025e-05
	8.39697e-07	4.380936e-05	0.04311835	0.05024605	3.102719e-06	3.706025e-05	0.004971162	-0.01052896
2.4e+08	0.003705047	-0.01118237	6.26532e-06	5.978206e-05	0.04556891	0.04985847	1.18429e-06	4.670452e-05
	6.26532e-06	5.978206e-05	0.003546508	-0.01100598	7.118737e-06	4.663937e-05	0.04611561	0.05076734
	0.04556891	0.04985847	7.118737e-06	4.663937e-05	0.004003772	-0.01014287	3.28831e-06	3.925424e-05
	1.18429e-06	4.670452e-05	0.04611561	0.05076734	3.28831e-06	3.925424e-05	0.003961204	-0.0101736
2.5e+08	0.002675562	-0.01071722	7.05315e-06	6.339756e-05	0.04856285	0.05020937	1.635584e-06	4.968696e-05
	7.05315e-06	6.339756e-05	0.002531049	-0.01053302	7.052696e-06	4.945947e-05	0.04913407	0.05112433
	0.04856285	0.05020937	7.052696e-06	4.945947e-05	0.0030102	-0.009651221	3.526227e-06	4.151813e-05
	1.635584e-06	4.968696e-05	0.04913407	0.05112433	3.526227e-06	4.151813e-05	0.002979077	-0.009681366
2.6e+08	0.001708067	-0.01010743	7.94348e-06	6.708872e-05	0.05157158	0.05039816	2.181702e-06	5.275884e-05
	7.94348e-06	6.708872e-05	0.001577964	-0.009915554	7.168987e-06	5.246758e-05	0.05216551	0.05131646
	0.05157158	0.05039816	7.168987e-06	5.246758e-05	0.002077817	-0.009016934	3.820309e-06	4.385424e-05
	2.181702e-06	5.275884e-05	0.05216551	0.05131646	3.820309e-06	4.385424e-05	0.002059922	-0.009046294
2.7e+08	0.0007979234	-0.009362717	8.977375e-06	7.086154e-05	0.05458507	0.05042618	2.849286e-06	5.59143e-05
	8.977375e-06	7.086154e-05	0.0006837778	-0.009163404	7.394155e-06	5.558282e-05	0.05519982	0.05134528
	0.05458507	0.05042618	7.394155e-06	5.558282e-05	0.00120294	-0.008249481	4.179802e-06	4.626348e-05
	2.849286e-06	5.59143e-05	0.05519982	0.05134528	4.179802e-06	4.626348e-05	0.001200263	-0.008278258
2.8e+08	-4.450851e-05	-0.008487608	1.016744e-05	7.471332e-05	0.05759445	0.05029494	3.648869e-06	5.914939e-05
	1.016744e-05	7.471332e-05	-0.0001409121	-0.008281294	7.727011e-06	5.879448e-05	0.05822801	0.05121249
	0.05759445	0.05029494	7.727011e-06	5.879448e-05	0.0003956875	-0.007353059	4.610615e-06	4.874652e-05
	3.648869e-06	5.914939e-05	0.05822801	0.05121249	4.610615e-06	4.874652e-05	0.0004103553	-0.007381687
2.9e+08	-0.0008061614	-0.00748621	1.152203e-05	7.863915e-05	0.06059124	0.05000645	4.587983e-06	6.246062e-05
	1.152203e-05	7.863915e-05	-0.0008829318	-0.007273495	8.176634e-06	6.21016e-05	0.06124142	0.05092021
	0.06059124	0.05000645	8.176634e-06	6.21016e-05	-0.000330645	-0.006332059	5.119889e-06	5.13037e-05
	4.587983e-06	6.246062e-05	0.06124142	0.05092021	5.119889e-06	5.13037e-05	-0.000296417	-0.00636123
3e+08	-0.001474503	-0.006363881	1.305191e-05	8.263366e-05	0.06356696	0.04956286	5.6752e-06	6.584322e-05
	1.305191e-05	8.263366e-05	-0.001529686	-0.006145578	8.751927e-06	6.550265e-05	0.0642314	0.05047071
	0.06356696	0.04956286	8.751927e-06	6.550265e-05	-0.000963633	-0.005191546	5.71493e-06	5.393485e-05
	5.6752e-06	6.584322e-05	0.0642314	0.05047071	5.71493e-06	5.393485e-05	-0.0009075381	-0.005222175
3.1e+08	-0.002037406	-0.005126805	1.476238e-05	8.669118e-05	0.06651363	0.04896703	6.918672e-06	6.929256e-05
	1.476238e-05	8.669118e-05	-0.002068978	-0.004903979	9.465587e-06	6.899448e-05	0.0671898	0.04986702
	0.06651363	0.04896703	9.465587e-06	6.899448e-05	-0.001490845	-0.003937932	6.402147e-06	5.663952e-05
	6.918672e-06	6.929256e-05	0.0671898	0.04986702	6.402147e-06	5.663952e-05	-0.001410534	-0.003971248
3.2e+08	-0.002474319	-0.00378186	1.665707e-05	9.080976e-05	0.06942384	0.04822152	8.321862e-06	7.280741e-05
	1.665707e-05	9.080976e-05	-0.002480481	-0.003555701	1.030036e-05	7.257763e-05	0.07010906	0.04911184
	0.06942384	0.04822152	1.030036e-05	7.257763e-05	-0.001892877	-0.002577834	7.190267e-06	5.941957e-05
	8.321862e-06	7.280741e-05	0.07010906	0.04911184	7.190267e-06	5.941957e-05	-0.001785938	-0.002615278
3.3e+08	-0.002768435	-0.002338124	1.873969e-05	9.498638e-05	0.07228992	0.04732921	9.892261e-06	7.638422e-05
	1.873969e-05	9.498638e-05	-0.002747553	-0.002109984	1.124349e-05	7.625047e-05	0.07298132	0.04820818
	0.07228992	0.04732921	1.124349e-05	7.625047e-05	-0.002152671	-0.00112039	8.086218e-06	6.227598e-05
	9.892261e-06	7.638422e-05	0.07298132	0.04820818	8.086218e-06	6.227598e-05	-0.002016686	-0.00116375
3.4e+08	-0.002923861	-0.0008063606	2.103085e-05	9.920533e-05	0.07510436	0.04629529	1.164107e-05	8.00094e-05
	2.103085e-05	9.920533e-05	-0.002873884	-0.0005780221	1.234221e-05	8.000252e-05	0.07579906	0.0471615
	0.07510436	0.04629529	1.234221e-05	8.000252e-05	-0.002274149	0.0004238526	9.099578e-06	6.520153e-05
	1.164107e-05	8.00094e-05	0.07579906	0.0471615	9.099578e-06	6.520153e-05	-0.002106734	0.0003724765
3.5e+08	-0.002931064	0.0008034592	2.353568e-05	0.0001034596	0.07786011	0.04512402	1.35793e-05	8.367544e-05
	2.353568e-05	0.0001034596	-0.00284997	0.001029958	1.360372e-05	8.382967e-05	0.07855508	0.04597621
	0.07786011	0.04512402	1.360372e-05	8.382967e-05	-0.002247394	0.002044666	1.023834e-05	6.819378e-05
	1.35793e-05	8.367544e-05	0.07855508	0.04597621	1.023834e-05	6.819378e-05	-0.002046212	0.001982816
3.6e+08	-0.002781058	0.002480521	2.626521e-05	0.0001077384	0.08055054	0.04382028	1.571221e-05	8.737475e-05
	2.626521e-05	0.0001077384	-0.002666889	0.002702901	1.504064e-05	8.772601e-05	0.08124272	0.04465737
	0.08055054	0.04382028	1.504064e-05	8.772601e-05	-0.002063956	0.003731359	1.150905e-05	7.124965e-05
	1.571221e-05	8.737475e-05	0.08124272	0.04465737	1.150905e-05	7.124965e-05	-0.001826765	0.003656324
3.7e+08	-0.002466146	0.004213618	2.922262e-05	0.0001120352	0.08316973	0.04238899	1.804573e-05	9.109924e-05
	2.922262e-05	0.0001120352	-0.002317022	0.004429345	1.665814e-05	9.168613e-05	0.08385595	0.04321011
	0.08316973	0.04238899	1.665814e-05	9.168613e-05	-0.001716012	0.005472745	1.292293e-05	7.436487e-05
	1.804573e-05	9.109924e-05	0.08385595	0.04321011	1.292293e-05	7.436487e-05	-0.001440671	0.005381456
3.8e+08	-0.001978974	0.005990798	3.241778e-05	0.0001163378	0.08571162	0.04083521	2.058556e-05	9.484056e-05
	3.241778e-05	0.0001163378	-0.001793122	0.006197032	1.846722e-05	9.570286e-05	0.08638867	0.04163972
	0.08571162	0.04083521	1.846722e-05	9.570286e-05	-0.001196061	0.007256625	1.448516e-05	7.753585e-05
	2.058556e-05	9.484056e-05	0.08638867	0.04163972	1.448516e-05	7.753585e-05	-0.0008805664	0.007145718
3.9e+08	-0.001313514	0.007798777	3.585628e-05	0.0001206367	0.08817096	0.03916487	2.334153e-05	9.858835e-05
	3.585628e-05	0.0001206367	-0.00108929	0.007992432	2.047738e-05	9.976859e-05	0.08883557	0.03995227
	0.08817096	0.03916487	2.047738e-05	9.976859e-05	-0.0004986606	0.00907035	1.620729e-05	8.075661e-05
	2.334153e-05	9.858835e-05	0.08883557	0.03995227	1.620729e-05	8.075661e-05	-0.0001411865	0.008936132
4e+08	-0.000460992	0.00962349	3.954117e-05	0.0001249238	0.09054267	0.03738305	2.631496e-05	0.0001023371
	3.954117e-05	0.0001249238	-0.000196961	0.009801262	2.268705e-05	0.0001038801	0.09119154	0.03815305
	0.09054267	0.03738305	2.268705e-05	0.0001038801	0.0003853976	0.01089981	1.809448e-05	8.402374e-05
	2.631496e-05	0.0001023371	0.09119154	0.03815305	1.809448e-05	8.402374e-05	0.0007865033	0.01073831
4.1e+08	0.0005937413	0.01144784	4.348042e-05	0.000129197	0.09282172	0.03549432	2.95155e-05	0.0001060816
	4.348042e-05	0.000129197	0.0008987307	0.01160632	2.507637e-05	0.0001080467	0.09345143	0.03624685
	0.09282172	0.03549432	2.507637e-05	0.0001080467	0.001470881	0.01272779	2.016078e-05	8.733427e-05
	2.95155e-05	0.0001060816	0.09345143	0.03624685	2.016078e-05	8.733427e-05	0.001917041	0.01253466
4.2e+08	0.001838812	0.01326069	4.768026e-05	0.0001334304	0.09500412	0.03350675	3.294534e-05	0.0001098021
	4.768026e-05	0.0001334304	0.002185869	0.01339599	2.769115e-05	0.0001122393	0.09561136	0.03424191
	0.09500412	0.03350675	2.769115e-05	0.0001122393	0.002745965	0.01454322	2.241026e-05	9.067502e-05
	3.294534e-05	0.0001098021	0.09561136	0.03424191	2.241026e-05	9.067502e-05	0.003238339	0.01431388
4.3e+08	0.003276377	0.0150481	5.21451e-05	0.0001376114	0.097086	0.03142641	3.660819e-05	0.0001134868
	5.21451e-05	0.0001376114	0.003666376	0.01515613	3.053721e-05	0.0001164445	0.09766745	0.03214454
	0.097086	0.03142641	3.053721e-05	0.0001164445	0.004213038	0.01633233	2.485075e-05	9.403915e-05
	3.660819e-05	0.0001134868	0.09766745	0.03214454	2.485075e-05	9.403915e-05	0.004752479	0.01606193
4.4e+08	0.004907861	0.01679594	5.687743e-05	0.0001417297	0.09906385	0.02925983	4.051209e-05	0.0001171236
	5.687743e-05	0.0001417297	0.00534145	0.0168724	3.362228e-05	0.0001206529	0.09961622	0.02996148
	0.09906385	0.02925983	3.362228e-05	0.0001206529	0.005873225	0.0180807	2.748804e-05	9.741805e-05
	4.051209e-05	0.0001171236	0.09961622	0.02996148	2.748804e-05	9.741805e-05	0.006460284	0.01776416
4.5e+08	0.006732944	0.01848921	6.188146e-05	0.0001457701	0.1009348	0.02701365	4.465658e-05	0.0001207015
	6.188146e-05	0.0001457701	0.007210468	0.01852956	3.695151e-05	0.0001248547	0.1014548	0.02769952
	0.1009348	0.02701365	3.695151e-05	0.0001248547	0.0077263	0.01977347	3.033294e-05	0.0001008013
	4.465658e-05	0.0001207015	0.1014548	0.02769952	3.033294e-05	0.0001008013	0.008361193	0.01940544
4.6e+08	0.00875073	0.02011279	6.715919e-05	0.0001497186	0.1026961	0.0246945	4.904298e-05	0.0001242075
	6.715919e-05	0.0001497186	0.009272223	0.02011232	4.053528e-05	0.0001290361	0.1031806	0.02536556
	0.1026961	0.0246945	4.053528e-05	0.0001290361	0.009771602	0.02139614	3.339055e-05	0.0001041808
	4.904298e-05	0.0001242075	0.1031806	0.02536556	3.339055e-05	0.0001041808	0.01045417	0.02097107
4.7e+08	0.01095896	0.02165306	7.271472e-05	0.000153561	0.1043459	0.02230888	5.367832e-05	0.0001276288
	7.271472e-05	0.000153561	0.01152417	0.02160688	4.4375e-05	0.0001331837	0.1047916	0.02296621
	0.1043459	0.02230888	4.4375e-05	0.0001331837	0.01200672	0.02293402	3.666471e-05	0.0001075449
	5.367832e-05	0.0001276288	0.1047916	0.02296621	3.666471e-05	0.0001075449	0.01273643	0.02244618
4.8e+08	0.01335507	0.02309479	7.854659e-05	0.0001572837	0.1058821	0.01986371	5.855851e-05	0.0001309538
	7.854659e-05	0.0001572837	0.01396339	0.02299785	4.847814e-05	0.0001372843	0.106286	0.02050862
	0.1058821	0.01986371	4.847814e-05	0.0001372843	0.01442861	0.02437288	4.01651e-05	0.000110883
	5.855851e-05	0.0001309538	0.106286	0.02050862	4.01651e-05	0.000110883	0.01520451	0.02381634
4.9e+08	0.01593429	0.02442314	8.46533e-05	0.0001608726	0.1073038	0.01736556	6.368811e-05	0.0001341676
	8.46533e-05	0.0001608726	0.01658474	0.02427025	5.284682e-05	0.0001413259	0.1076629	0.01799951
