!$
! Info: Touchstone file created by Circ.  Input file=Intel_C2M_200G_1in_202204012_staggered.circ
!$
# Hz S RI R 50
0	0.009807834	2.589755e-24	-4.777137e-05	5.850306e-21	0.0002729962	1.180839e-22	-4.337023e-05	5.311322e-21
	-4.777147e-05	5.850318e-21	0.009263273	1.431911e-24	-5.506963e-05	6.744084e-21	6.738665e-05	1.943357e-22
	0.000273067	1.181643e-22	-5.506972e-05	6.744096e-21	0.009813618	2.615644e-24	-4.779681e-05	5.853421e-21
	-4.337023e-05	5.311321e-21	6.744539e-05	1.9447e-22	-4.779671e-05	5.853409e-21	0.009256131	1.357414e-24
1e+07	0.01143246	0.001404798	-0.0001620706	-0.0001222444	0.0005144481	0.00357758	-3.960114e-05	-9.166462e-05
	-0.0001620706	-0.0001222444	0.01113961	0.001373493	-0.0002812858	-6.916154e-05	0.0006123034	0.003584328
	0.0005144481	0.00357758	-0.0002812858	-6.916154e-05	0.01129547	0.001491693	-0.0001677577	-0.0001137893
	-3.960114e-05	-9.166462e-05	0.0006123034	0.003584328	-0.0001677577	-0.0001137893	0.01112092	0.001402821
2e+07	0.01321503	0.001325097	-0.0001470968	-0.0002863366	0.001092774	0.006980668	-6.062509e-05	-0.0001675646
	-0.0001470968	-0.0002863366	0.01270826	0.001222702	-0.0002952337	-0.0002338009	0.00114366	0.006896219
	0.001092822	0.006980653	-0.0002952337	-0.0002338009	0.01316541	0.001530864	-0.0001576955	-0.0002738611
	-6.062509e-05	-0.0001675646	0.00114365	0.006896203	-0.0001576955	-0.0002738611	0.01269125	0.001292088
3e+07	0.01447748	0.0003847232	-0.0001496789	-0.0004025681	0.002008411	0.01023438	-8.728235e-05	-0.0002426998
	-0.0001496789	-0.0004025681	0.01401668	0.0004714679	-0.0003196073	-0.0003497442	0.001854951	0.01022443
	0.002008399	0.01023436	-0.0003196073	-0.0003497442	0.01450888	0.000640634	-0.0001638514	-0.0003885127
	-8.728235e-05	-0.0002426998	0.001854933	0.01022442	-0.0001638514	-0.0003885127	0.0139945	0.0005847701
4e+07	0.01556456	-0.0007824816	-0.0001691755	-0.0005051985	0.003178156	0.01340897	-0.0001202874	-0.0003143223
	-0.0001691755	-0.0005051985	0.01497158	-0.0006556854	-0.000354724	-0.0004542327	0.002837504	0.0134442
	0.003178158	0.01340897	-0.000354724	-0.0004542327	0.01566501	-0.0004968091	-0.0001844447	-0.0004907132
	-0.0001202874	-0.0003143223	0.002837492	0.01344422	-0.0001844447	-0.0004907132	0.01495327	-0.0004987912
5e+07	0.01648872	-0.002168952	-0.0002214598	-0.0005934732	0.004625782	0.01646212	-0.000159469	-0.0003821465
	-0.0002214598	-0.0005934732	0.01567717	-0.001960596	-0.0003989692	-0.0005503386	0.004053406	0.01657227
	0.004625789	0.01646213	-0.0003989692	-0.0005503386	0.0166538	-0.00186634	-0.0002161308	-0.0005839762
	-0.000159469	-0.0003821464	0.004053409	0.01657228	-0.0002161309	-0.0005839762	0.0156648	-0.001760936
6e+07	0.01723803	-0.003697489	-0.0003038534	-0.0006659774	0.006339882	0.01937492	-0.0002044054	-0.0004456201
	-0.0003038534	-0.0006659774	0.01617562	-0.003383121	-0.0004513455	-0.0006394818	0.005500014	0.01959491
	0.006339885	0.01937492	-0.0004513455	-0.0006394818	0.01746444	-0.00338836	-0.0002782922	-0.0006638956
	-0.0002044054	-0.0004456201	0.005500036	0.01959491	-0.0002782922	-0.0006638956	0.01617164	-0.003140497
7e+07	0.01782466	-0.005327067	-0.0003951221	-0.000726525	0.008310028	0.02212866	-0.0002548567	-0.000504722
	-0.0003951221	-0.0007265249	0.01646539	-0.004882584	-0.0005116173	-0.0007226803	0.007167537	0.02249704
	0.00831003	0.02212866	-0.0005116173	-0.0007226803	0.01810913	-0.005021262	-0.0003553808	-0.0007325588
	-0.0002548567	-0.000504722	0.007167542	0.02249704	-0.0003553808	-0.0007325588	0.01647262	-0.00459715
8e+07	0.01825018	-0.007045171	-0.0004908465	-0.0007775822	0.0105228	0.0247041	-0.0003104832	-0.0005592174
	-0.0004908464	-0.0007775822	0.01654753	-0.00642064	-0.0005796221	-0.0007998579	0.009045339	0.02526536
	0.0105228	0.0247041	-0.0005796221	-0.0007998579	0.01858911	-0.00675178	-0.0004492422	-0.0007891973
	-0.0003104832	-0.0005592174	0.009045343	0.02526536	-0.0004492422	-0.0007891974	0.01656913	-0.006092606
9e+07	0.01854607	-0.008773015	-0.0005842446	-0.0008123435	0.01296654	0.02708476	-0.0003708611	-0.0006088365
	-0.0005842446	-0.0008123435	0.01648002	-0.00790247	-0.0006544278	-0.0008725858	0.01112715	0.02789025
	0.01296654	0.02708476	-0.0006544278	-0.0008725858	0.01893316	-0.00850626	-0.0005399839	-0.0008323519
	-0.0003708611	-0.0006088365	0.01112715	0.02789025	-0.0005399839	-0.0008323519	0.01651933	-0.007531734
1e+08	0.01866577	-0.0105541	-0.000684316	-0.0008408568	0.0156222	0.02925263	-0.0004361664	-0.0006540546
	-0.0006843161	-0.0008408568	0.01624317	-0.009368695	-0.0007366253	-0.0009389655	0.01339822	0.03035611
	0.0156222	0.02925264	-0.0007366253	-0.0009389655	0.01909734	-0.01032088	-0.0006385833	-0.0008686542
	-0.0004361664	-0.0006540546	0.01339822	0.03035611	-0.0006385833	-0.0008686542	0.01630314	-0.008956364
1.1e+08	0.01878719	-0.01241567	-0.000767761	-0.0008688718	0.01847291	0.03119054	-0.0005057809	-0.0006953147
	-0.000767761	-0.0008688718	0.0159159	-0.01082578	-0.0008197547	-0.001001094	0.01587321	0.03265381
	0.01847291	0.03119054	-0.0008197547	-0.001001094	0.01923611	-0.01219876	-0.0007239004	-0.0009043206
	-0.0005057809	-0.0006953147	0.01587321	0.03265381	-0.0007239004	-0.0009043206	0.01599987	-0.01037698
1.2e+08	0.01873971	-0.01426818	-0.0008563179	-0.0008917699	0.02150033	0.03288585	-0.0005799781	-0.0007314306
	-0.0008563179	-0.0008917699	0.01545518	-0.01224317	-0.0009105242	-0.001056143	0.01849708	0.03475495
	0.02150033	0.03288585	-0.0009105242	-0.001056143	0.01920331	-0.01407272	-0.0008144451	-0.0009344722
	-0.0005799781	-0.0007314306	0.01849708	0.03475495	-0.0008144451	-0.0009344722	0.01556569	-0.01175824
1.3e+08	0.01855273	-0.0161045	-0.0009502235	-0.0009104624	0.02468376	0.03432616	-0.0006583741	-0.0007619082
	-0.0009502235	-0.0009104624	0.01485694	-0.01360911	-0.001006472	-0.001103904	0.02126391	0.03665658
	0.02468376	0.03432616	-0.001006472	-0.001103904	0.01903256	-0.01592784	-0.0009105755	-0.0009600976
	-0.0006583741	-0.0007619082	0.02126391	0.03665658	-0.0009105755	-0.0009600976	0.0149958	-0.01309017
1.4e+08	0.01824402	-0.01792133	-0.001049067	-0.0009243839	0.02800224	0.03550067	-0.0007401674	-0.0007858206
	-0.001049067	-0.0009243839	0.01412451	-0.01490455	-0.001106612	-0.001143953	0.02416197	0.03835342
	0.02800224	0.03550067	-0.001106612	-0.001143953	0.01874459	-0.01775731	-0.001012079	-0.000980832
	-0.0007401674	-0.0007858206	0.02416197	0.03835342	-0.001012079	-0.000980832	0.01429315	-0.0143541
1.5e+08	0.01782389	-0.01970484	-0.001150853	-0.0009302762	0.03143562	0.03640067	-0.0008252024	-0.0008034761
	-0.001150853	-0.0009302762	0.01326969	-0.01610089	-0.001212827	-0.001176003	0.02718004	0.03984152
	0.03143562	0.03640066	-0.001212827	-0.001176003	0.01834463	-0.01955637	-0.001117035	-0.0009936201
	-0.0008252024	-0.0008034761	0.02718004	0.03984152	-0.001117035	-0.0009936201	0.01346968	-0.01552121
1.6e+08	0.01730387	-0.02144557	-0.001255091	-0.000928241	0.03496285	0.03701859	-0.0009130275	-0.0008146599
	-0.001255091	-0.000928241	0.01231219	-0.01717842	-0.001323757	-0.001200225	0.03030386	0.04111466
	0.03496285	0.03701859	-0.001323757	-0.001200225	0.01784456	-0.02131475	-0.00122505	-0.0009984977
	-0.0009130275	-0.0008146599	0.03030386	0.04111466	-0.00122505	-0.0009984977	0.012545	-0.01657157
1.7e+08	0.01670643	-0.02312465	-0.001362031	-0.0009192701	0.03856286	0.03734725	-0.001003195	-0.0008190139
	-0.001362031	-0.0009192701	0.01128651	-0.01811377	-0.001436591	-0.001217872	0.03351868	0.04216616
	0.03856286	0.03734725	-0.001436591	-0.001217872	0.01727001	-0.02301037	-0.001336398	-0.0009962832
	-0.001003195	-0.0008190139	0.03351868	0.04216616	-0.001336398	-0.0009962832	0.0115528	-0.01748222
1.8e+08	0.01602577	-0.02474828	-0.001469959	-0.0009015691	0.0422129	0.03738268	-0.001095291	-0.0008165505
	-0.001469959	-0.0009015691	0.01019512	-0.01891005	-0.001554473	-0.001226339	0.036809	0.0429923
	0.0422129	0.03738268	-0.001554473	-0.001226339	0.01661114	-0.02465326	-0.001449492	-0.0009853596
	-0.001095291	-0.0008165505	0.036809	0.0429923	-0.001449492	-0.0009853596	0.01049603	-0.018256
1.9e+08	0.01527189	-0.02630989	-0.001578243	-0.0008750975	0.04589072	0.03712208	-0.001188901	-0.0008071262
	-0.001578243	-0.0008750975	0.009057893	-0.01955997	-0.001676462	-0.001225558	0.04015916	0.04358962
	0.04589072	0.03712208	-0.001676462	-0.001225558	0.01587829	-0.02623671	-0.001563695	-0.0009655945
	-0.001188901	-0.0008071262	0.04015916	0.04358962	-0.001563695	-0.0009655945	0.009394333	-0.0188859
2e+08	0.01445753	-0.02780343	-0.001686304	-0.0008399556	0.04957378	0.03656367	-0.001283534	-0.0007906175
	-0.001686304	-0.0008399556	0.007895884	-0.02005827	-0.00180148	-0.001215711	0.04355361	0.04395564
	0.04957378	0.03656367	-0.00180148	-0.001215711	0.01508341	-0.02775431	-0.001678491	-0.0009369738
	-0.001283534	-0.0007906175	0.04355361	0.04395564	-0.001678491	-0.0009369738	0.008268577	-0.01936626
2.1e+08	0.0136151	-0.02920995	-0.001794675	-0.0007972023	0.05324134	0.03570601	-0.001378719	-0.000766763
	-0.001794675	-0.0007972023	0.006752324	-0.02039045	-0.001924045	-0.001202163	0.04697741	0.04408739
	0.05324134	0.03570601	-0.001924045	-0.001202163	0.01426205	-0.02918576	-0.001794316	-0.0009003088
	-0.001378719	-0.000766763	0.04697741	0.04408739	-0.001794316	-0.0009003088	0.007161725	-0.01968309
2.2e+08	0.01273514	-0.03054512	-0.001901461	-0.000745707	0.05686959	0.03455236	-0.001474016	-0.0007356503
	-0.001901461	-0.000745707	0.005622597	-0.02057066	-0.002051268	-0.001176472	0.05041382	0.04398583
	0.05686958	0.03455236	-0.002051268	-0.001176472	0.01340148	-0.03054815	-0.001909448	-0.0008545508
	-0.001474016	-0.0007356503	0.05041382	0.04398583	-0.001909448	-0.0008545508	0.006069005	-0.01985035
2.3e+08	0.0118286	-0.0318088	-0.002006061	-0.0006856969	0.06043635	0.03310603	-0.001568959	-0.0006972607
	-0.002006061	-0.0006856969	0.00452536	-0.02060026	-0.002181348	-0.00113933	0.05384751	0.0436519
	0.06043635	0.03310603	-0.002181348	-0.00113933	0.01251268	-0.03184126	-0.002023312	-0.0007997896
	-0.001568959	-0.0006972607	0.05384751	0.0436519	-0.002023312	-0.0007997896	0.005009186	-0.01986907
2.4e+08	0.01090614	-0.03300233	-0.002107965	-0.0006173034	0.0639202	0.03137226	-0.001663068	-0.0006516007
	-0.002107965	-0.0006173034	0.003478841	-0.02048239	-0.002312963	-0.001091113	0.05726305	0.04308749
	0.0639202	0.03137226	-0.002312963	-0.001091113	0.01160612	-0.03306636	-0.002135313	-0.0007360914
	-0.001663068	-0.0006516007	0.05726305	0.04308748	-0.002135313	-0.0007360914	0.004000422	-0.01974293
2.5e+08	0.009978073	-0.03412846	-0.002206616	-0.0005408213	0.06729989	0.02935755	-0.00175587	-0.0005986435
	-0.002206616	-0.0005408213	0.002500838	-0.02022219	-0.002445009	-0.001032023	0.06064549	0.04229538
	0.06729989	0.02935755	-0.002445009	-0.001032023	0.01069194	-0.03422586	-0.002244889	-0.0006636101
	-0.00175587	-0.0005986435	0.06064549	0.04229538	-0.002244889	-0.0006636101	0.003060247	-0.0194766
2.6e+08	0.009074829	-0.03517959	-0.002301907	-0.0004570688	0.07055561	0.02706719	-0.001846832	-0.000538362
	-0.002301907	-0.0004570688	0.001632195	-0.01981998	-0.002578768	-0.0009583577	0.06398128	0.04127764
	0.07055561	0.02706719	-0.002578768	-0.0009583577	0.009801699	-0.03531202	-0.00235189	-0.0005828601
	-0.001846832	-0.000538362	0.06398128	0.04127764	-0.00235189	-0.0005828601	0.002229431	-0.01907078
2.7e+08	0.008187586	-0.03617186	-0.002393039	-0.0003657866	0.07366656	0.02451273	-0.001935536	-0.0004708645
	-0.002393039	-0.0003657866	0.000869504	-0.01929162	-0.002711012	-0.0008736483	0.06725518	0.04004033
	0.07366656	0.02451273	-0.002711012	-0.0008736483	0.008925207	-0.03634093	-0.002455431	-0.0004936437
	-0.001935536	-0.0004708645	0.06725518	0.04004033	-0.002455431	-0.0004936437	0.001504502	-0.01854132
2.8e+08	0.007321252	-0.03711297	-0.002479484	-0.0002672089	0.07661363	0.0217052	-0.002021504	-0.0003963229
	-0.002479484	-0.0002672089	0.0002248189	-0.01864836	-0.002840725	-0.0007782834	0.07045352	0.03858939
	0.07661363	0.0217052	-0.002840725	-0.0007782834	0.008067055	-0.03731989	-0.002554904	-0.0003961552
	-0.002021504	-0.0003963229	0.07045352	0.03858939	-0.002554904	-0.0003961552	0.0008972086	-0.01789911
2.9e+08	0.006482316	-0.03800946	-0.002560764	-0.0001617083	0.07937851	0.01865699	-0.00210428	-0.000314869
	-0.002560764	-0.0001617083	-0.0002874238	-0.01790158	-0.002967209	-0.0006722253	0.07356329	0.03693146
	0.07937851	0.01865699	-0.002967209	-0.0006722253	0.007233742	-0.03825556	-0.002649781	-0.0002905851
	-0.00210428	-0.000314869	0.07356329	0.03693146	-0.002649781	-0.0002905851	0.0004220298	-0.01715594
3e+08	0.005676922	-0.03886896	-0.002636449	-4.964204e-05	0.08194383	0.01538111	-0.002183428	-0.000226662
	-0.002636449	-4.964204e-05	-0.0006541321	-0.01706417	-0.003089731	-0.0005555227	0.07657179	0.03507369
	0.08194383	0.01538111	-0.003089731	-0.0005555227	0.006431299	-0.03915509	-0.002739527	-0.0001772079
	-0.002183428	-0.000226662	0.07657179	0.03507369	-0.002739527	-0.0001772079	9.200043e-05	-0.01632438
3.1e+08	0.004909956	-0.0396996	-0.00270617	6.859296e-05	0.08429363	0.01189246	-0.002258495	-0.0001318304
	-0.00270617	6.859296e-05	-0.0008633138	-0.01615016	-0.003207525	-0.0004281604	0.07946733	0.03302411
	0.08429363	0.01189246	-0.003207525	-0.0004281604	0.005664331	-0.04002653	-0.002823652	-5.639722e-05
	-0.002258495	-0.0001318304	0.07946733	0.03302411	-0.002823652	-5.639722e-05	-8.077933e-05	-0.01541885
3.2e+08	0.004193398	-0.04050761	-0.002769756	0.0001925141	0.08641277	0.008205098	-0.002328984	-3.060337e-05
	-0.002769756	0.0001925141	-0.0008952882	-0.0151751	-0.003319766	-0.0002907725	0.08223891	0.03079034
	0.08641277	0.008205098	-0.003319766	-0.0002907725	0.004945167	-0.04087579	-0.002901844	7.149827e-05
	-0.002328984	-3.060337e-05	0.08223891	0.03079034	-0.002901844	7.149827e-05	-7.7443e-05	-0.01445443
3.3e+08	0.003535325	-0.04130138	-0.002827042	0.000321707	0.08828653	0.004334477	-0.002394419	7.684909e-05
	-0.002827042	0.000321707	-0.0007353454	-0.01415676	-0.003425635	-0.000143911	0.08487558	0.02838075
	0.08828653	0.004334477	-0.003425635	-0.000143911	0.004282156	-0.04171108	-0.002973786	0.0002061454
	-0.002394419	7.684909e-05	0.08487558	0.02838075	-0.002973786	0.0002061454	0.0001169705	-0.01344924
3.4e+08	0.00292376	-0.0420951	-0.002877415	0.0004559229	0.08990267	0.0003004674	-0.002454512	0.0001901916
	-0.002877415	0.0004559229	-0.0003908304	-0.013113	-0.003524476	1.264937e-05	0.08736767	0.02580691
	0.08990267	0.0003004672	-0.003524476	1.264937e-05	0.003662573	-0.04254607	-0.00303876	0.0003472843
	-0.002454512	0.0001901916	0.08736767	0.02580691	-0.00303876	0.0003472843	0.0004949265	-0.01242074
3.5e+08	0.00235892	-0.04289823	-0.002920581	0.0005946976	0.09124966	-0.003878952	-0.002508832	0.0003091104
	-0.002920581	0.0005946976	0.0001442143	-0.01206184	-0.003615585	0.0001785696	0.08970593	0.02307914
	0.09124966	-0.003878952	-0.003615585	0.0001785696	0.003086963	-0.04339055	-0.003096333	0.0004944609
	-0.002508832	0.0003091104	0.08970593	0.02307914	-0.003096333	0.0004944609	0.001062549	-0.01138737
3.6e+08	0.001840108	-0.04372092	-0.002956329	0.0007375961	0.09231739	-0.008184658	-0.002557025	0.0004332781
	-0.002956329	0.0007375961	0.0008742946	-0.01102207	-0.003698191	0.0003535688	0.09188215	0.02020837
	0.09231739	-0.008184658	-0.003698191	0.0003535688	0.002554545	-0.04425368	-0.003146138	0.0006472406
	-0.002557025	0.0004332781	0.09188215	0.02020837	-0.003146138	0.0006472406	0.001823801	-0.01036759
3.7e+08	0.001365389	-0.04457269	-0.002984411	0.0008842216	0.09309718	-0.01259708	-0.002598712	0.0005624432
	-0.002984411	0.0008842216	0.001801937	-0.0100125	-0.003771584	0.0005372142	0.09388911	0.01720567
	0.09309718	-0.01259708	-0.003771584	0.0005372142	0.002063411	-0.04514515	-0.003187788	0.000805263
	-0.002598712	0.0005624432	0.09388911	0.01720567	-0.003187788	0.000805263	0.002781205	-0.009380279
3.8e+08	0.0009318933	-0.04546296	-0.003004665	0.001034084	0.09358162	-0.01709624	-0.002633561	0.0006961796
	-0.003004665	0.001034084	0.002928372	-0.009052654	-0.00383508	0.0007289353	0.09571987	0.01408243
	0.09358162	-0.01709624	-0.00383508	0.0007289353	0.001610906	-0.04607451	-0.003220945	0.0009679986
	-0.002633561	0.0006961796	0.09571987	0.01408243	-0.003220945	0.0009679986	0.003935958	-0.008445215
3.9e+08	0.000535054	-0.04640165	-0.003016936	0.001186742	0.093765	-0.02166163	-0.002661235	0.0008341513
	-0.003016936	0.001186742	0.004252452	-0.00816273	-0.003888023	0.0009281905	0.09736891	0.0108507
	0.093765	-0.02166163	-0.003888023	0.0009281905	0.001192445	-0.04705053	-0.003245313	0.001134984
	-0.002661235	0.0008341513	0.09736891	0.0108507	-0.003245313	0.001134984	0.00528649	-0.0075818
4e+08	0.0001727298	-0.0473974	-0.003021167	0.001341756	0.09364229	-0.0262731	-0.002681392	0.000975964
	-0.003021167	0.001341756	0.005774889	-0.007363736	-0.003929793	0.001133826	0.0988309	0.007521721
	0.09364229	-0.0262731	-0.003929793	0.001133826	0.0008063582	-0.04808247	-0.003260636	0.001305799
	-0.002681392	0.000975964	0.0988309	0.007521721	-0.003260636	0.001305799	0.006833832	-0.006811301
4.1e+08	-0.0001512623	-0.04845861	-0.003017474	0.001498789	0.0932088	-0.03091149	-0.002693655	0.001121252
	-0.003017474	0.001498789	0.007501175	-0.006679816	-0.003960273	0.001342688	0.1001005	0.004106026
	0.0932088	-0.03091149	-0.003960273	0.001342688	0.0004565087	-0.04917837	-0.003266929	0.001479947
	-0.002693655	0.001121252	0.1001005	0.004106025	-0.003266929	0.001479947	0.008582963	-0.00615804
4.2e+08	-0.0004587024	-0.04959467	-0.003005474	0.001657378	0.09246463	-0.03555326	-0.002697918	0.001269492
	-0.003005474	0.001657378	0.00941082	-0.006126115	-0.003978728	0.001556769	0.1011756	0.0006182231
	0.09246463	-0.03555326	-0.003978728	0.001556769	0.0001212437	-0.0503474	-0.003263649	0.001656895
	-0.002697918	0.001269492	0.1011756	0.0006182231	-0.003263649	0.001656895	0.01051333	-0.005636744
4.3e+08	-0.0007578991	-0.05081284	-0.002985088	0.001817111	0.09140967	-0.04017697	-0.002693854	0.001420332
	-0.002985088	0.001817111	0.01149612	-0.00572134	-0.00398478	0.00177516	0.1020534	-0.002929511
	0.09140967	-0.04017697	-0.00398478	0.00177516	-0.0002080132	-0.05159662	-0.003250555	0.001836182
	-0.002693854	0.001420332	0.1020534	-0.002929511	-0.003250555	0.001836182	0.01261736	-0.005266062
4.4e+08	-0.001058411	-0.05211962	-0.002956261	0.001977546	0.09004503	-0.04476169	-0.002681281	0.001573257
	-0.002956261	0.001977546	0.01374794	-0.005483806	-0.003977989	0.001997153	0.1027322	-0.006524632
	0.09004503	-0.04476169	-0.003977989	0.001997153	-0.0005401516	-0.05293245	-0.003227518	0.002017143
	-0.002681281	0.001573257	0.1027322	-0.006524632	-0.003227518	0.002017143	0.0148854	-0.005064374
4.5e+08	-0.001370817	-0.05352081	-0.002918968	0.002138286	0.08837376	-0.04928631	-0.002660036	0.001727756
	-0.002918968	0.002138286	0.01615452	-0.005431559	-0.003957994	0.002222	0.1032113	-0.01015483
	0.08837376	-0.04928631	-0.003957994	0.002222	-0.0008856684	-0.05436051	-0.003194408	0.00219925
	-0.002660036	0.001727756	0.1032113	-0.01015483	-0.003194408	0.00219925	0.01730578	-0.005049593
4.6e+08	-0.001706423	-0.05502142	-0.002873229	0.002298836	0.08640001	-0.05373043	-0.002629918	0.001883385
	-0.002873229	0.002298836	0.01870296	-0.005582052	-0.003924588	0.002448696	0.1034904	-0.01380774
	0.08640001	-0.05373043	-0.003924588	0.002448696	-0.001255718	-0.05588564	-0.003150994	0.002382053
	-0.002629918	0.001883385	0.1034904	-0.01380774	-0.003150994	0.002382053	0.01986594	-0.005238653
4.7e+08	-0.002077079	-0.05662451	-0.002818992	0.00245886	0.0841293	-0.05807367	-0.002590817	0.002039598
	-0.002818992	0.00245886	0.02137924	-0.005950395	-0.003877556	0.002676364	0.1035704	-0.01747159
	0.0841293	-0.05807367	-0.003877556	0.002676364	-0.001661826	-0.05751124	-0.003097293	0.002564882
	-0.002590817	0.002039598	0.1035704	-0.01747159	-0.003097293	0.002564882	0.02255111	-0.005647458
4.8e+08	-0.00249514	-0.05833341	-0.002756287	0.002617959	0.08156859	-0.06229623	-0.002542581	0.002195926
	-0.002756287	0.002617959	0.02416766	-0.006552471	-0.003816685	0.002904268	0.1034525	-0.02113416
	0.08156859	-0.06229623	-0.003816685	0.002904268	-0.002116284	-0.05923989	-0.003033171	0.002747225
