!$
! Info: Touchstone file created by Circ.  Input file=Intel_C2M_200G_1in_202204012_staggered.circ
!$
# Hz S RI R 50
0	0.009263273	1.431911e-24	0.9905411	-2.453041e-24	6.738665e-05	1.943357e-22	-0.0001889905	2.314466e-20
	0.9905411	-2.452419e-24	0.009807832	2.590053e-24	-0.000188853	2.312782e-20	0.0002729944	1.180883e-22
	6.744539e-05	1.9447e-22	-0.0001889917	2.314481e-20	0.009256131	1.357414e-24	0.9905415	-2.428468e-24
	-0.0001891292	2.316164e-20	0.0002730652	1.181687e-22	0.9905415	-2.429091e-24	0.009813815	2.614674e-24
1e+07	0.01113961	0.001373493	0.9878463	-0.04438748	0.0006123034	0.003584328	-0.0004946789	-0.00065551
	0.9878463	-0.04438748	0.01115819	0.001348655	-0.0004946393	-0.0006555335	0.0006398328	0.003580057
	0.0006123034	0.003584328	-0.0004946393	-0.0006555335	0.01112092	0.001402821	0.9878662	-0.04438755
	-0.0004946789	-0.00065551	0.0006398328	0.003580057	0.9878662	-0.04438755	0.01114086	0.001377282
2e+07	0.01270826	0.001222702	0.9833159	-0.08714734	0.00114366	0.006896219	-0.0006564096	-0.001095926
	0.9833159	-0.08714734	0.01296052	0.001326802	-0.0006562974	-0.001095975	0.001194099	0.006938075
	0.00114365	0.006896203	-0.0006563166	-0.001096043	0.01269125	0.001292088	0.9833414	-0.08715973
	-0.0006564262	-0.001095984	0.001194147	0.00693806	0.9833414	-0.08715973	0.01293881	0.001397238
3e+07	0.01401668	0.0004714679	0.9772995	-0.1290074	0.001854951	0.01022443	-0.0008285122	-0.00151674
	0.9772995	-0.1290074	0.01423669	0.0003977877	-0.0008283087	-0.001516895	0.002090494	0.01017595
	0.001854933	0.01022442	-0.0008283398	-0.001516908	0.0139945	0.0005847701	0.9773277	-0.1290332
	-0.0008285138	-0.001516756	0.002090481	0.01017593	0.9773277	-0.1290332	0.01422606	0.0005077294
4e+07	0.01497158	-0.0006556854	0.9697041	-0.1702587	0.002837504	0.0134442	-0.001020138	-0.001917658
	0.9697041	-0.1702587	0.0153346	-0.0007662267	-0.001019874	-0.001917892	0.003243144	0.01334163
	0.002837492	0.01344422	-0.00101988	-0.001917899	0.01495327	-0.0004987912	0.9697331	-0.1702986
	-0.001020141	-0.001917655	0.003243147	0.01334163	0.9697331	-0.1702986	0.01533534	-0.0006171022
5e+07	0.01567717	-0.001960596	0.9604952	-0.2109466	0.004053406	0.01657227	-0.001233161	-0.002297993
	0.9604952	-0.2109466	0.01626707	-0.002153841	-0.001232797	-0.002298394	0.004675449	0.01639012
	0.004053409	0.01657228	-0.001232792	-0.002298397	0.0156648	-0.001760936	0.9605243	-0.2110013
	-0.001233155	-0.002297996	0.004675457	0.01639012	0.9605243	-0.2110013	0.01628425	-0.00196595
6e+07	0.01617562	-0.003383121	0.9496752	-0.2510594	0.005500014	0.01959491	-0.00146613	-0.002659851
	0.9496752	-0.2510594	0.01702251	-0.003685839	-0.001465731	-0.002660464	0.006375741	0.01930115
	0.005500036	0.01959491	-0.001465724	-0.002660462	0.01617164	-0.003140497	0.9497031	-0.251129
	-0.001466123	-0.00265985	0.006375745	0.01930114	0.9497031	-0.251129	0.017061	-0.003460759
7e+07	0.01646539	-0.004882584	0.9372641	-0.2905574	0.007167537	0.02249704	-0.001718538	-0.003005391
	0.9372641	-0.2905574	0.01761355	-0.00532014	-0.001718095	-0.003006295	0.008333362	0.02205544
	0.007167542	0.02249704	-0.00171802	-0.003006329	0.01647262	-0.00459715	0.9372883	-0.2906425
	-0.001718522	-0.00300539	0.008333365	0.02205544	0.9372883	-0.2906425	0.01767765	-0.005060114
8e+07	0.01654753	-0.00642064	0.9232888	-0.3293877	0.009045339	0.02526536	-0.001989982	-0.003336236
	0.9232888	-0.3293877	0.01804214	-0.007043827	-0.00198954	-0.003337482	0.01053476	0.02463347
	0.009045343	0.02526536	-0.001989521	-0.003337483	0.01656913	-0.006092606	0.923309	-0.3294885
	-0.001989963	-0.003336237	0.01053476	0.02463346	0.923309	-0.3294885	0.01813543	-0.006751453
9e+07	0.01648002	-0.00790247	0.9077343	-0.3675595	0.01112715	0.02789025	-0.002284751	-0.00365598
	0.9077343	-0.3675595	0.01833906	-0.008778277	-0.002284333	-0.003657587	0.01296932	0.02701964
	0.01112715	0.02789025	-0.002284319	-0.003657591	0.01651933	-0.007531734	0.907747	-0.367677
	-0.002284737	-0.003655984	0.01296932	0.02701964	0.907747	-0.367677	0.01846542	-0.008455182
1e+08	0.01624317	-0.009368695	0.8906702	-0.4049506	0.01339822	0.03035611	-0.002599493	-0.003962577
	0.8906702	-0.4049506	0.01845884	-0.01056622	-0.002599214	-0.003964561	0.01561702	0.02919448
	0.01339822	0.03035611	-0.002599215	-0.003964559	0.01630314	-0.008956364	0.8906748	-0.405085
	-0.002599493	-0.003962575	0.01561702	0.02919448	0.8906748	-0.405085	0.01862194	-0.01021526
1.1e+08	0.0159159	-0.01082578	0.8720144	-0.4414717	0.01587321	0.03265381	-0.002942642	-0.004245126
	0.8720144	-0.4414717	0.01857646	-0.01243304	-0.002942195	-0.004247437	0.01846592	0.03113528
	0.01587321	0.03265381	-0.002942192	-0.004247437	0.01599987	-0.01037698	0.8720059	-0.4416199
	-0.00294264	-0.004245125	0.01846592	0.03113529	0.8720059	-0.4416199	0.01878449	-0.01205926
1.2e+08	0.01545518	-0.01224317	0.8519102	-0.4770997	0.01849708	0.03475495	-0.00330634	-0.004514998
	0.8519102	-0.4770997	0.01852463	-0.01429061	-0.003306054	-0.004517714	0.02149202	0.03283407
	0.01849708	0.03475495	-0.003306052	-0.004517715	0.01556569	-0.01175824	0.8518875	-0.4772609
	-0.003306337	-0.004515	0.02149202	0.03283407	0.8518875	-0.4772609	0.01877871	-0.01389932
1.3e+08	0.01485694	-0.01360911	0.8304002	-0.5117755	0.02126391	0.03665658	-0.003690493	-0.004769254
	0.8304002	-0.5117755	0.01833263	-0.01613091	-0.003690371	-0.004772615	0.02467386	0.03427707
	0.02126391	0.03665658	-0.003690369	-0.004772616	0.0149958	-0.01309017	0.8303642	-0.5119498
	-0.003690491	-0.004769256	0.02467386	0.03427707	0.8303642	-0.5119498	0.01863348	-0.01572735
1.4e+08	0.01412451	-0.01490455	0.8075285	-0.5454459	0.02416197	0.03835342	-0.004095033	-0.005006999
	0.8075285	-0.5454459	0.01801834	-0.01795019	-0.004095424	-0.005010916	0.02798989	0.0354529
	0.02416197	0.03835342	-0.004095423	-0.005010918	0.01429315	-0.0143541	0.8074777	-0.5456302
	-0.004095032	-0.005007001	0.02798989	0.0354529	0.8074777	-0.5456302	0.0183663	-0.01753965
1.5e+08	0.01326969	-0.01610089	0.78334	-0.5780693	0.02718004	0.03984152	-0.004523235	-0.005229751
	0.78334	-0.5780693	0.01759232	-0.01973555	-0.004524185	-0.005234311	0.03142103	0.03635458
	0.02718004	0.03984152	-0.004524185	-0.005234313	0.01346968	-0.01552121	0.7832738	-0.5782626
	-0.004523235	-0.005229753	0.03142103	0.03635458	0.7832738	-0.5782626	0.01798837	-0.01932254
1.6e+08	0.01231219	-0.01717842	0.7578762	-0.6095991	0.03030386	0.04111466	-0.004976456	-0.005436124
	0.7578762	-0.6095991	0.01706616	-0.02147734	-0.004978133	-0.005441307	0.03494614	0.03697437
	0.03030386	0.04111466	-0.004978133	-0.005441308	0.012545	-0.01657157	0.7577934	-0.6098014
	-0.004976456	-0.005436126	0.03494614	0.03697437	0.7577934	-0.6098014	0.01751068	-0.02106641
1.7e+08	0.01128651	-0.01811377	0.7311684	-0.6400019	0.03351868	0.04216616	-0.005455828	-0.00562321
	0.7311684	-0.6400019	0.01646221	-0.02315594	-0.005458476	-0.005628865	0.03854367	0.03730438
	0.03351868	0.04216616	-0.005458476	-0.005628866	0.0115528	-0.01748222	0.7310686	-0.6402122
	-0.005455828	-0.005623211	0.03854367	0.03730438	0.7310686	-0.6402122	0.01695493	-0.02275199
1.8e+08	0.01019512	-0.01891005	0.7032833	-0.6692194	0.036809	0.0429923	-0.005962435	-0.005790494
	0.7032833	-0.6692194	0.01577505	-0.02477832	-0.005966186	-0.005796511	0.0421914	0.03734148
	0.036809	0.0429923	-0.005966186	-0.005796511	0.01049603	-0.018256	0.703165	-0.6694363
	-0.005962435	-0.005790495	0.0421914	0.03734148	0.703165	-0.6694363	0.0163154	-0.02438586
1.9e+08	0.009057893	-0.01955997	0.674272	-0.6972072	0.04015916	0.04358962	-0.006497322	-0.005935439
	0.674272	-0.6972072	0.0150148	-0.0263379	-0.006502292	-0.005941675	0.04586712	0.0370828
	0.04015916	0.04358962	-0.006502292	-0.005941675	0.009394333	-0.0188859	0.6741365	-0.6974302
	-0.006497322	-0.00593544	0.04586712	0.0370828	0.6741365	-0.6974302	0.01560235	-0.0259613
2e+08	0.007895884	-0.02005827	0.6441855	-0.7239255	0.04355361	0.04395564	-0.007061185	-0.006055139
	0.6441855	-0.7239255	0.01419428	-0.02782858	-0.007067389	-0.006061614	0.04954829	0.03652654
	0.04355361	0.04395564	-0.007067389	-0.006061614	0.008268577	-0.01936626	0.64403	-0.7241533
	-0.007061185	-0.00605514	0.04954829	0.03652654	0.64403	-0.7241533	0.01482749	-0.027472
2.1e+08	0.006752324	-0.02039045	0.6130515	-0.7493531	0.04697741	0.04408739	-0.007654633	-0.006144885
	0.6130515	-0.7493531	0.01334585	-0.0292308	-0.00766229	-0.006151289	0.05321386	0.03567086
	0.04697741	0.04408739	-0.00766229	-0.006151289	0.007161725	-0.01968309	0.6128765	-0.7495837
	-0.007654633	-0.006144885	0.05321386	0.03567086	0.6128765	-0.7495837	0.01402347	-0.02889858
2.2e+08	0.005622597	-0.02057066	0.5809505	-0.7734343	0.05041382	0.04398583	-0.008277143	-0.006202682
	0.5809505	-0.7734343	0.01246035	-0.03056089	-0.008286239	-0.006208997	0.05684036	0.03451941
	0.05041382	0.04398583	-0.008286239	-0.006208997	0.006069005	-0.01985035	0.5807552	-0.7736669
	-0.008277143	-0.006202682	0.05684036	0.03451941	0.5807552	-0.7736669	0.01318041	-0.03025702
2.3e+08	0.00452536	-0.02060026	0.5479404	-0.7961328	0.05384751	0.0436519	-0.008927968	-0.006225358
	0.5479404	-0.7961328	0.01154882	-0.03181879	-0.008938762	-0.006231276	0.06040563	0.03307547
	0.05384751	0.0436519	-0.008938762	-0.006231276	0.005009186	-0.01986907	0.5477235	-0.7963669
	-0.008927969	-0.006225358	0.06040563	0.03307547	0.5477235	-0.7963669	0.01230928	-0.03154707
2.4e+08	0.003478841	-0.02048239	0.5140784	-0.8174188	0.05726305	0.04308749	-0.009606504	-0.006208879
	0.5140784	-0.8174188	0.01062198	-0.03300587	-0.009618928	-0.006214381	0.06388827	0.03134426
	0.05726305	0.04308748	-0.009618928	-0.006214381	0.004000422	-0.01974293	0.5138408	-0.8176532
	-0.009606504	-0.006208879	0.06388827	0.03134426	0.5138408	-0.8176532	0.01142045	-0.03276998
2.5e+08	0.002500838	-0.02022219	0.479426	-0.8372619	0.06064549	0.04229538	-0.01031128	-0.006149497
	0.479426	-0.8372619	0.009690262	-0.03412492	-0.01032533	-0.006154369	0.06726705	0.02933223
	0.06064549	0.04229538	-0.01032533	-0.006154369	0.003060247	-0.0194766	0.4791652	-0.8374946
	-0.01031128	-0.006149497	0.06726705	0.02933223	0.4791652	-0.8374946	0.01052406	-0.03392818
2.6e+08	0.001632195	-0.01981998	0.444013	-0.8556464	0.06398128	0.04127764	-0.01104041	-0.006041508
	0.444013	-0.8556464	0.008784105	-0.03516797	-0.01105621	-0.006045289	0.070522	0.02704448
	0.06398128	0.04127764	-0.01105621	-0.006045289	0.002229431	-0.01907078	0.4437299	-0.8558747
	-0.01104041	-0.006041508	0.070522	0.02704448	0.4437299	-0.8558747	0.009650049	-0.03501385
2.7e+08	0.000869504	-0.01929162	0.4079236	-0.8725342	0.06725518	0.04004033	-0.01179132	-0.005882668
	0.4079236	-0.8725342	0.007894816	-0.03615163	-0.01180875	-0.005885349	0.0736325	0.0244927
	0.06725518	0.04004033	-0.01180875	-0.005885349	0.001504502	-0.01854132	0.407618	-0.8727583
	-0.01179132	-0.005882669	0.0736325	0.0244927	0.407618	-0.8727583	0.008789584	-0.03604306
2.8e+08	0.0002248189	-0.01864836	0.3712237	-0.8879023	0.07045352	0.03858939	-0.012561	-0.005669735
	0.3712237	-0.8879023	0.007027429	-0.03708377	-0.01258014	-0.005670835	0.07657941	0.02168791
	0.07045352	0.03858939	-0.01258014	-0.005670835	0.0008972086	-0.01789911	0.3708953	-0.8881207
	-0.012561	-0.005669736	0.07657941	0.02168791	0.3708953	-0.8881207	0.007947406	-0.03702312
2.9e+08	-0.0002874238	-0.01790158	0.3339773	-0.9017309	0.07356329	0.03693146	-0.01334628	-0.00539873
	0.3339773	-0.9017309	0.006188431	-0.03797102	-0.01336706	-0.005398251	0.07934448	0.01864243
	0.07356329	0.03693146	-0.01336706	-0.005398251	0.0004220298	-0.01715594	0.3336261	-0.9019422
	-0.01334628	-0.00539873	0.07934448	0.01864243	0.3336261	-0.9019422	0.007129984	-0.03796069
3e+08	-0.0006541321	-0.01706417	0.296247	-0.9140019	0.07657179	0.03507369	-0.01414329	-0.005066727
	0.296247	-0.9140019	0.005384031	-0.0388211	-0.01416568	-0.005064438	0.0819103	0.01536926
	0.07657179	0.03507369	-0.01416568	-0.005064438	9.200043e-05	-0.01632438	0.295872	-0.9142036
	-0.01414329	-0.005066727	0.0819103	0.01536926	0.295872	-0.9142036	0.0063433	-0.03886293
3.1e+08	-0.0008633138	-0.01615016	0.2580954	-0.9247015	0.07946733	0.03302411	-0.01494784	-0.004670715
	0.2580954	-0.9247015	0.004619128	-0.03964224	-0.0149716	-0.004666053	0.08426092	0.01188328
	0.07946733	0.03302411	-0.0149716	-0.004666053	-8.077933e-05	-0.01541885	0.2576982	-0.9248904
	-0.01494784	-0.004670715	0.08426092	0.01188328	0.2576982	-0.9248904	0.005591942	-0.03973789
3.2e+08	-0.0008952882	-0.0151751	0.2195764	-0.9338175	0.08223891	0.03079034	-0.01575486	-0.004206984
	0.2195764	-0.9338175	0.003905754	-0.04044065	-0.01577992	-0.004199682	0.08638118	0.008198447
	0.08223891	0.03079034	-0.01577992	-0.004199682	-7.7443e-05	-0.01445443	0.2191549	-0.9339941
	-0.01575486	-0.004206984	0.08638118	0.008198447	0.2191549	-0.9339941	0.004887836	-0.04059127
3.3e+08	-0.0007353454	-0.01415676	0.1807426	-0.9413391	0.08487558	0.02838075	-0.01655876	-0.003672201
	0.1807426	-0.9413391	0.00325203	-0.04122477	-0.0165849	-0.003662597	0.08825638	0.004330153
	0.08487558	0.02838075	-0.0165849	-0.003662597	0.0001169705	-0.01344924	0.180299	-0.941501
	-0.01655876	-0.003672201	0.08825638	0.004330152	0.180299	-0.941501	0.004239158	-0.04143116
3.4e+08	-0.0003908304	-0.013113	0.1416816	-0.9472545	0.08736767	0.02580691	-0.01735447	-0.003066556
	0.1416816	-0.9472545	0.002645925	-0.04200914	-0.0173815	-0.003053846	0.0898742	0.0002983248
	0.08736767	0.02580691	-0.0173815	-0.003053846	0.0004949265	-0.01242074	0.141214	-0.9474022
	-0.01735447	-0.003066556	0.0898742	0.0002983246	0.141214	-0.9474022	0.003633677	-0.04227154
3.5e+08	0.0001442143	-0.01206184	0.1024557	-0.9515609	0.08970593	0.02307914	-0.01813634	-0.002388346
	0.1024557	-0.9515609	0.002087691	-0.04280331	-0.01816394	-0.002372276	0.09122319	-0.003879119
	0.08970593	0.02307914	-0.01816394	-0.002372276	0.001062549	-0.01138737	0.1019673	-0.9516894
	-0.01813634	-0.002388346	0.09122319	-0.003879119	0.1019673	-0.9516894	0.003071904	-0.04312218
3.6e+08	0.0008742946	-0.01102207	0.0631317	-0.9542539	0.09188215	0.02020837	-0.01889826	-0.001636604
	0.0631317	-0.9542539	0.001576533	-0.04361758	-0.01892632	-0.001617275	0.09229318	-0.008183057
	0.09188215	0.02020837	-0.01892632	-0.001617276	0.001823801	-0.01036759	0.0626223	-0.954362
	-0.01889826	-0.001636604	0.09229318	-0.008183058	0.0626223	-0.954362	0.002553005	-0.04399222
3.7e+08	0.001801937	-0.0100125	0.02377261	-0.9553325	0.09388911	0.01720567	-0.01963407	-0.0008113013
	0.02377261	-0.9553325	0.001110536	-0.04446155	-0.01966221	-0.0007882063	0.09307549	-0.01259399
	0.09388911	0.01720567	-0.01966221	-0.0007882067	0.002781205	-0.009380279	0.02324251	-0.9554199
	-0.01963407	-0.0008113017	0.09307549	-0.01259399	0.02324251	-0.9554199	0.002075035	-0.04489139
3.8e+08	0.002928372	-0.009052654	-0.01555779	-0.9547999	0.09571987	0.01408243	-0.02033727	8.812316e-05
	-0.01555779	-0.9547999	0.0006867422	-0.04534476	-0.02036525	0.000114441	0.09356264	-0.01709195
	0.09571987	0.01408243	-0.02036525	0.0001144406	0.003935958	-0.008445215	-0.01610651	-0.9548624
	-0.02033727	8.812281e-05	0.09356264	-0.01709195	-0.01610651	-0.9548624	0.00163528	-0.0458292
3.9e+08	0.004252452	-0.00816273	-0.05479279	-0.9526592	0.09736891	0.0108507	-0.02100156	0.001059828
	-0.05479279	-0.9526592	0.0003005456	-0.04627725	-0.02102879	0.001090481	0.09374894	-0.02165645
	0.09736891	0.0108507	-0.02102879	0.001090481	0.00528649	-0.0075818	-0.05535939	-0.9526985
	-0.02100156	0.001059828	0.09374894	-0.02165645	-0.05535939	-0.9526985	0.001229099	-0.0468144
4e+08	0.005774889	-0.007363736	-0.09387307	-0.9489178	0.0988309	0.007521721	-0.02161974	0.0021034
	-0.09387307	-0.9489178	-5.026771e-05	-0.04726772	-0.02164609	0.002137976	0.09362932	-0.02626738
	0.0988309	0.007521721	-0.02164609	0.002137975	0.006833832	-0.006811301	-0.09445709	-0.9489297
	-0.02161974	0.0021034	0.09362932	-0.02626739	-0.09445709	-0.9489297	0.0008547226	-0.04785616
4.1e+08	0.007501175	-0.006679816	-0.1327578	-0.9435773	0.1001005	0.004106026	-0.02218378	0.003217844
	-0.1327578	-0.9435773	-0.0003618925	-0.04832452	-0.02220876	0.003256249	0.09319902	-0.03090567
	0.1001005	0.004106025	-0.02220876	0.003256249	0.008582963	-0.00615804	-0.1333587	-0.9435613
	-0.02218378	0.003217844	0.09319902	-0.03090567	-0.1333587	-0.9435613	0.0005158004	-0.04896223
4.2e+08	0.00941082	-0.006126115	-0.1713556	-0.9366549	0.1011756	0.0006182231	-0.02268911	0.004398374
	-0.1713556	-0.9366549	-0.0006562677	-0.04945734	-0.02271213	0.00444095	0.09245813	-0.03554773
	0.1011756	0.0006182231	-0.02271213	0.00444095	0.01051333	-0.005636744	-0.1719702	-0.9366096
	-0.02268911	0.004398374	0.09245813	-0.03554773	-0.1719702	-0.9366096	0.000190886	-0.05014212
4.3e+08	0.01149612	-0.00572134	-0.2096051	-0.9281638	0.1020534	-0.002929511	-0.0231292	0.005642325
	-0.2096051	-0.9281638	-0.0009418179	-0.05067352	-0.02315014	0.005688835	0.0914065	-0.04017209
	0.1020534	-0.002929511	-0.02315014	0.005688835	0.01261736	-0.005266062	-0.2102328	-0.9280878
	-0.0231292	0.005642325	0.0914065	-0.04017209	-0.2102328	-0.9280878	-0.0001286654	-0.05140287
4.4e+08	0.01374794	-0.005483806	-0.2474449	-0.9181197	0.1027322	-0.006524632	-0.02349815	0.006945521
	-0.2474449	-0.9181197	-0.001228212	-0.05197961	-0.02351625	0.006996115	0.09004519	-0.04475787
	0.1027322	-0.006524632	-0.02351625	0.006996115	0.0148854	-0.005064374	-0.248083	-0.9180122
	-0.02349815	0.006945521	0.09004519	-0.04475787	-0.248083	-0.9180122	-0.0004517793	-0.05275088
4.5e+08	0.01615452	-0.005431559	-0.2848101	-0.9065421	0.1032113	-0.01015483	-0.02379019	0.008303448
	-0.2848101	-0.9065421	-0.001526148	-0.05338147	-0.02380506	0.008358107	0.08837722	-0.04928398
	0.1032113	-0.01015483	-0.02380506	0.008358107	0.01730578	-0.005049593	-0.2854574	-0.9064015
	-0.02379019	0.008303448	0.08837722	-0.04928398	-0.2854574	-0.9064015	-0.0007890172	-0.05419172
4.6e+08	0.01870296	-0.005582052	-0.3216392	-0.8934515	0.1034904	-0.01380774	-0.02399962	0.00971146
	-0.3216392	-0.8934515	-0.001847072	-0.05488416	-0.02401105	0.009769757	0.08640667	-0.05372999
	0.1034904	-0.01380774	-0.02401105	0.009769757	0.01986594	-0.005238653	-0.3222948	-0.8932763
	-0.02399962	0.009711459	0.08640667	-0.05372999	-0.3222948	-0.8932763	-0.001151581	-0.0557302
4.7e+08	0.02137924	-0.005950395	-0.3578758	-0.878873	0.1035704	-0.01747159	-0.0241218	0.01116336
	-0.3578758	-0.878873	-0.002202941	-0.0564908	-0.02412911	0.01122538	0.08413905	-0.05807553
	0.1035704	-0.01747159	-0.02412911	0.01122538	0.02255111	-0.005647458	-0.358536	-0.8786613
	-0.0241218	0.01116336	0.08413905	-0.05807553	-0.358536	-0.8786613	-0.001551051	-0.05736967
4.8e+08	0.02416766	-0.006552471	-0.3934575	-0.8628281	0.1034525	-0.02113416	-0.02415178	0.01265386
	-0.3934575	-0.8628281	-0.002606266	-0.05820471	-0.0241547	0.01271889	0.08158126	-0.0623008
	0.1034525	-0.02113416	-0.0241547	0.01271889	0.02534559	-0.006290738	-0.3941214	-0.862582
	-0.02415178	0.01265386	0.08158126	-0.0623008	-0.3941214	-0.862582	-0.001999768	-0.05911267
4.9e+08	0.02705035	-0.007402218	-0.4283233	-0.8453489	0.1031395	-0.02478417	-0.02408589	0.01417574
	-0.4283233	-0.8453489	-0.003070772	-0.06002687	-0.02408375	0.01424396	0.07874157	-0.06638657
	0.1031395	-0.02478417	-0.02408375	0.01424396	0.0282318	-0.00718271	-0.4289908	-0.8450655
	-0.02408589	0.01417574	0.07874157	-0.06638657	-0.4289908	-0.8450655	-0.002510958	-0.06096071
5e+08	0.03000936	-0.008511408	-0.4624213	-0.8264645	0.1026337	-0.02841028	-0.0239199	0.01572275
	-0.4624213	-0.8264645	-0.003609824	-0.06195762	-0.02391269	0.01579351	0.0756294	-0.07031421
	0.1026337	-0.02841028	-0.02391269	0.01579351	0.03119123	-0.00833534	-0.4630867	-0.8261439
	-0.0239199	0.01572275	0.0756294	-0.07031421	-0.4630867	-0.8261439	-0.003097965	-0.06291391
5.1e+08	0.0330297	-0.009900346	-0.4957104	-0.8061908	0.1019367	-0.03200233	-0.02364908	0.01728697
	-0.4957104	-0.8061908	-0.004229416	-0.06399746	-0.02363629	0.0173599	0.07225176	-0.07406712
	0.1019367	-0.03200233	-0.02363629	0.0173599	0.03420928	-0.009768057	-0.496374	-0.8058343
	-0.02364908	0.01728697	0.07225176	-0.07406712	-0.496374	-0.8058343	-0.003766119	-0.06497237
5.2e+08	0.03608452	-0.01157127	-0.5281175	-0.7845767	0.1010547	-0.03554897	-0.0232726	0.01886099
