!$
! Info: Touchstone file created by Circ.  Input file=Intel_C2M_200G_2in_202204012_staggered.circ
!$
# Hz S RI R 50
0	0.01174686	3.234558e-24	-5.596474e-05	6.853704e-21	0.0002806371	2.053882e-22	-5.158104e-05	6.316855e-21
	-5.596484e-05	6.853716e-21	0.01120307	1.863852e-24	-6.32345e-05	7.743992e-21	7.55067e-05	2.091809e-22
	0.0002807074	2.055353e-22	-6.323459e-05	7.744004e-21	0.01175265	3.284618e-24	-5.599018e-05	6.856819e-21
	-5.158103e-05	6.316854e-21	7.556521e-05	2.093146e-22	-5.599008e-05	6.856807e-21	0.01119595	1.764952e-24
1e+07	0.01390668	0.001175504	-0.0002053892	-0.0001228647	0.0006106132	0.00406482	-4.468107e-05	-9.094663e-05
	-0.0002053892	-0.0001228647	0.01356636	0.001083995	-0.0003591777	-4.082166e-05	0.0007815883	0.00406447
	0.0006106132	0.00406482	-0.0003591777	-4.082166e-05	0.0137244	0.001281877	-0.0002128741	-0.0001112851
	-4.468107e-05	-9.094663e-05	0.0007815883	0.00406447	-0.0002128741	-0.0001112851	0.01354068	0.001111228
2e+07	0.01600834	0.0004020924	-0.000182746	-0.0003066803	0.001349277	0.007909889	-6.878321e-05	-0.0001644219
	-0.000182746	-0.0003066803	0.0155887	0.0002099993	-0.0003712754	-0.0002146737	0.001553435	0.007783586
	0.001349324	0.007909873	-0.0003712754	-0.0002146737	0.01594587	0.0006535208	-0.0001968625	-0.0002892364
	-6.878321e-05	-0.0001644219	0.001553424	0.007783571	-0.0001968625	-0.0002892364	0.01556387	0.0002792228
3e+07	0.01732619	-0.001418093	-0.0001828688	-0.0004279744	0.002504891	0.01156848	-9.991846e-05	-0.0002371813
	-0.0001828688	-0.0004279744	0.01717589	-0.001501305	-0.0003955958	-0.0003249747	0.002645611	0.01147571
	0.002504879	0.01156846	-0.0003955959	-0.0003249747	0.01737034	-0.001113945	-0.0002020201	-0.000407714
	-9.991846e-05	-0.0002371813	0.002645594	0.0114757	-0.0002020201	-0.000407714	0.0171471	-0.001385677
4e+07	0.01824868	-0.00351179	-0.0002044577	-0.0005316095	0.003990084	0.01510234	-0.0001385982	-0.0003053746
	-0.0002044577	-0.0005316095	0.01826643	-0.003677293	-0.0004321391	-0.0004209463	0.004137179	0.01498969
	0.003990087	0.01510234	-0.0004321391	-0.0004209463	0.01838329	-0.003183399	-0.0002255544	-0.000509915
	-0.0001385982	-0.0003053746	0.004137168	0.01498971	-0.0002255544	-0.000509915	0.01824426	-0.003516003
5e+07	0.01881212	-0.005814658	-0.0002679264	-0.0006150772	0.005822346	0.01845974	-0.0001844392	-0.0003684967
	-0.0002679264	-0.0006150772	0.01898456	-0.006075345	-0.000478641	-0.0005067264	0.005982386	0.01832624
	0.005822354	0.01845975	-0.000478641	-0.0005067264	0.01902899	-0.005480249	-0.0002627565	-0.0006002993
	-0.0001844392	-0.0003684967	0.005982389	0.01832625	-0.0002627565	-0.0006002993	0.01897245	-0.005869578
6e+07	0.01902174	-0.008210584	-0.0003690799	-0.000675672	0.007982484	0.0216126	-0.0002367174	-0.0004257557
	-0.0003690799	-0.000675672	0.01938043	-0.008607224	-0.0005337265	-0.0005842153	0.008167272	0.02145481
	0.007982488	0.02161259	-0.0005337265	-0.0005842153	0.01931385	-0.007884587	-0.0003385571	-0.0006712218
	-0.0002367174	-0.0004257557	0.008167293	0.02145481	-0.0003385571	-0.0006712218	0.01938219	-0.008357398
7e+07	0.01890299	-0.01062997	-0.0004796596	-0.0007194654	0.01045088	0.02453385	-0.0002950518	-0.0004771372
	-0.0004796596	-0.0007194654	0.0194575	-0.01121133	-0.0005971857	-0.000654844	0.0106687	0.0243453
	0.01045088	0.02453384	-0.0005971857	-0.000654844	0.01926311	-0.0103255	-0.0004320831	-0.0007258916
	-0.0002950518	-0.0004771372	0.0106687	0.0243453	-0.0004320831	-0.0007258916	0.01947719	-0.01091843
8e+07	0.01847035	-0.01303678	-0.0005937398	-0.0007500611	0.01320374	0.0271971	-0.0003589158	-0.0005223404
	-0.0005937398	-0.0007500611	0.01922323	-0.01383363	-0.0006688613	-0.0007185451	0.01346113	0.02697104
	0.01320375	0.0271971	-0.0006688613	-0.0007185452	0.01889071	-0.01276555	-0.0005452787	-0.0007627293
	-0.0003589158	-0.0005223404	0.01346114	0.02697104	-0.0005452787	-0.0007627294	0.01926516	-0.01349897
9e+07	0.01779197	-0.01531749	-0.0007013382	-0.0007593031	0.0162194	0.02957998	-0.0004276653	-0.0005610637
	-0.0007013382	-0.0007593031	0.0187621	-0.0163523	-0.0007479055	-0.0007774859	0.01652403	0.02931033
	0.0162194	0.02957997	-0.0007479055	-0.0007774859	0.01826007	-0.01509705	-0.00065132	-0.0007816866
	-0.0004276653	-0.0005610637	0.01652403	0.02931033	-0.00065132	-0.0007816866	0.01883075	-0.01597686
1e+08	0.01681975	-0.01751231	-0.0008151456	-0.0007596166	0.01946573	0.03165995	-0.0005015348	-0.0005938455
	-0.0008151456	-0.0007596166	0.01804682	-0.01881544	-0.0008350202	-0.0008290586	0.01982346	0.03133731
	0.01946573	0.03165996	-0.0008350203	-0.0008290586	0.01732711	-0.01735042	-0.0007650808	-0.0007904471
	-0.0005015348	-0.0005938455	0.01982346	0.03133731	-0.0007650807	-0.0007904471	0.01814598	-0.01840178
1.1e+08	0.01578423	-0.01966226	-0.0009051494	-0.0007618465	0.02291357	0.03341453	-0.0005798649	-0.0006213521
	-0.0009051494	-0.0007618465	0.01720136	-0.02123156	-0.0009221354	-0.0008768259	0.02335781	0.03302458
	0.02291357	0.03341453	-0.0009221354	-0.0008768259	0.01629591	-0.01953088	-0.0008594133	-0.0008001386
	-0.0005798649	-0.0006213521	0.02335781	0.03302458	-0.0008594133	-0.0008001386	0.01733526	-0.02078716
1.2e+08	0.0145017	-0.02163608	-0.0009995061	-0.0007574247	0.0265313	0.03483213	-0.0006627289	-0.0006419105
	-0.0009995061	-0.0007574246	0.01615269	-0.02355444	-0.001017947	-0.0009161544	0.02704679	0.03435084
	0.0265313	0.03483213	-0.001017947	-0.0009161544	0.0150125	-0.02153928	-0.0009580241	-0.0008022072
	-0.0006627289	-0.0006419105	0.02704679	0.03435084	-0.0009580241	-0.0008022072	0.01632437	-0.02308147
1.3e+08	0.01302458	-0.02341679	-0.00109869	-0.0007475251	0.03028527	0.03590087	-0.0007494968	-0.0006548854
	-0.00109869	-0.0007475251	0.01490796	-0.02576308	-0.001119302	-0.0009469544	0.03086516	0.03530744
	0.03028527	0.03590087	-0.001119302	-0.0009469544	0.01353604	-0.02334961	-0.001061482	-0.0007979526
	-0.0007494968	-0.0006548854	0.03086516	0.03530744	-0.001061482	-0.0007979526	0.0151191	-0.02526575
1.4e+08	0.01139468	-0.02499326	-0.001202122	-0.0007314671	0.03414174	0.03661213	-0.0008388939	-0.0006591654
	-0.001202122	-0.0007314671	0.01348397	-0.02783154	-0.001224953	-0.0009686781	0.03478135	0.03588682
	0.03414174	0.03661213	-0.001224953	-0.0009686781	0.01191295	-0.02494703	-0.001169418	-0.0007869591
	-0.000838894	-0.0006591654	0.03478135	0.03588682	-0.001169418	-0.0007869591	0.01373549	-0.02731451
1.5e+08	0.009649315	-0.02634407	-0.001306599	-0.0007053529	0.03806859	0.03696086	-0.000930694	-0.0006552085
	-0.001306599	-0.0007053529	0.0119084	-0.02972558	-0.001337423	-0.0009804304	0.03876509	0.03608554
	0.03806859	0.03696086	-0.001337423	-0.0009804304	0.01017243	-0.02632049	-0.001278685	-0.0007656131
	-0.000930694	-0.0006552085	0.03876509	0.03608554	-0.001278685	-0.0007656131	0.01220134	-0.02919301
1.6e+08	0.007827571	-0.0274581	-0.001411465	-0.0006694722	0.04203296	0.03694457	-0.001024212	-0.0006427945
	-0.001411465	-0.0006694722	0.0102171	-0.03142498	-0.001455026	-0.0009824054	0.04278213	0.03589965
	0.04203296	0.03694457	-0.001455026	-0.0009824054	0.008354228	-0.02745783	-0.001388677	-0.0007341455
	-0.001024212	-0.0006427945	0.04278213	0.03589965	-0.001388677	-0.0007341455	0.01055223	-0.03088082
1.7e+08	0.005984108	-0.02831942	-0.001517238	-0.0006251281	0.04600277	0.03656219	-0.001118705	-0.000621527
	-0.001517238	-0.0006251281	0.008463848	-0.03290875	-0.001574371	-0.0009765256	0.04679772	0.03532632
	0.04600277	0.03656219	-0.001574371	-0.0009765256	0.006517848	-0.0283399	-0.001499882	-0.0006936794
	-0.001118705	-0.000621527	0.04679773	0.03532632	-0.001499882	-0.0006936794	0.008840773	-0.03235733
1.8e+08	0.004131541	-0.0289389	-0.001621297	-0.0005704025	0.0499448	0.03581804	-0.00121358	-0.0005915372
	-0.001621297	-0.0005704025	0.006658579	-0.03418586	-0.001699019	-0.0009584976	0.05077706	0.03436929
	0.0499448	0.03581804	-0.001699019	-0.0009584976	0.004670259	-0.02898136	-0.001609779	-0.0006425554
	-0.00121358	-0.0005915372	0.05077706	0.03436929	-0.001609779	-0.0006425554	0.007077346	-0.03363113
1.9e+08	0.00230474	-0.02931796	-0.001722789	-0.0005054794	0.05382751	0.0347185	-0.00130819	-0.0005527416
	-0.001722789	-0.0005054794	0.004833509	-0.03525586	-0.00182765	-0.0009280852	0.0546859	0.03303376
	0.05382751	0.0347185	-0.00182765	-0.0009280852	0.002846692	-0.0293834	-0.001717462	-0.0005809107
	-0.00130819	-0.0005527416	0.0546859	0.03303376	-0.001717462	-0.0005809107	0.005293653	-0.03470197
2e+08	0.0005406128	-0.02946175	-0.001820978	-0.0004307021	0.05762017	0.03327194	-0.001401811	-0.0005051061
	-0.001820978	-0.0004307021	0.003021054	-0.03612226	-0.001958738	-0.0008854858	0.05849094	0.03132768
	0.05762017	0.03327194	-0.001958738	-0.0008854858	0.001083534	-0.02955056	-0.001822212	-0.0005090057
	-0.001401811	-0.0005051061	0.05849094	0.03132768	-0.001822212	-0.0005090057	0.003521892	-0.03557292
2.1e+08	-0.001097495	-0.02936938	-0.001916827	-0.0003473404	0.06129497	0.03148719	-0.001493661	-0.000448412
	-0.001916827	-0.0003473404	0.001280481	-0.03678241	-0.002086387	-0.0008388632	0.06216017	0.02925897
	0.06129497	0.03148719	-0.002086387	-0.0008388632	-0.0005516939	-0.02948101	-0.001924848	-0.0004278353
	-0.001493661	-0.000448412	0.06216017	0.02925897	-0.001924848	-0.0004278353	0.001820592	-0.03624172
2.2e+08	-0.002608031	-0.0290703	-0.002007631	-0.0002545073	0.06482239	0.02938028	-0.001583148	-0.0003829406
	-0.002007631	-0.0002545073	-0.000392128	-0.03726189	-0.002217478	-0.0007751168	0.06566149	0.02684382
	0.06482239	0.02938028	-0.002217478	-0.0007751168	-0.002061555	-0.02920512	-0.002022777	-0.0003367413
	-0.001583148	-0.0003829406	0.06566149	0.02684382	-0.002022777	-0.0003367413	0.000185724	-0.03673353
2.3e+08	-0.003961636	-0.02858339	-0.002092701	-0.0001527058	0.06817604	0.02696717	-0.001669592	-0.0003088188
	-0.002092701	-0.0001527058	-0.00197189	-0.03757521	-0.002349484	-0.0006953253	0.06896545	0.02409848
	0.06817604	0.02696717	-0.002349484	-0.0006953253	-0.003416477	-0.02874151	-0.002115305	-0.0002361448
	-0.001669592	-0.0003088188	0.06896545	0.02409848	-0.002115305	-0.0002361448	-0.001357774	-0.0370626
2.4e+08	-0.005131649	-0.02793101	-0.002171428	-4.23312e-05	0.07133169	0.02426614	-0.001752313	-0.0002262199
	-0.002171428	-4.23312e-05	-0.00343625	-0.03773982	-0.002480395	-0.0006001427	0.07204406	0.02104161
	0.07133169	0.02426614	-0.002480395	-0.0006001427	-0.004589803	-0.0281124	-0.002201736	-0.0001264573
	-0.001752313	-0.0002262199	0.07204406	0.02104161	-0.002201736	-0.0001264573	-0.002787804	-0.03724667
2.5e+08	-0.006094138	-0.02713894	-0.002243206	7.604847e-05	0.07426688	0.0212971	-0.001830627	-0.0001353038
	-0.002243206	7.604847e-05	-0.004765247	-0.03777599	-0.002608438	-0.0004900238	0.0748712	0.01769388
	0.07426688	0.0212971	-0.002608438	-0.0004900238	-0.005557457	-0.0273431	-0.00228144	-8.171935e-06
	-0.001830627	-0.0001353038	0.0748712	0.01769388	-0.00228144	-8.171935e-06	-0.004084592	-0.03730544
2.6e+08	-0.006801376	-0.02623113	-0.00230821	0.0002013233	0.0769613	0.01807797	-0.00190374	-3.62246e-05
	-0.00230821	0.0002013233	-0.005914249	-0.03770323	-0.002733459	-0.0003596222	0.0774229	0.01407467
	0.0769613	0.01807797	-0.002733459	-0.0003596222	-0.006270176	-0.02645789	-0.002354428	0.0001178152
	-0.00190374	-3.62246e-05	0.0774229	0.01407467	-0.002354428	0.0001178152	-0.005203927	-0.0372586
2.7e+08	-0.007260583	-0.02524495	-0.002365342	0.0003335566	0.07939623	0.01463461	-0.001971103	7.065997e-05
	-0.002365342	0.0003335566	-0.006893175	-0.03755134	-0.002852005	-0.0002145487	0.07967677	0.01021122
	0.07939623	0.01463461	-0.002852005	-0.0002145487	-0.006736547	-0.02549355	-0.002419624	0.0002514141
	-0.001971103	7.065997e-05	0.07967677	0.01021122	-0.002419624	0.0002514141	-0.006155924	-0.03713586
2.8e+08	-0.007462812	-0.024214	-0.002414016	0.0004722583	0.08155587	0.01099152	-0.002032101	0.0001849304
	-0.002414016	0.0004722583	-0.007695381	-0.03734726	-0.002962463	-5.575131e-05	0.08161332	0.006130149
	0.08155587	0.01099152	-0.002962463	-5.575131e-05	-0.006947719	-0.02448326	-0.0024764	0.0003920896
	-0.002032101	0.0001849304	0.08161332	0.006130149	-0.0024764	0.0003920896	-0.006934124	-0.03696349
2.9e+08	-0.00739972	-0.02317225	-0.002453765	0.0006167921	0.08342664	0.007174081	-0.002086132	0.0003061988
	-0.002453765	0.0006167921	-0.008313433	-0.0371183	-0.003063465	0.0001164242	0.08321555	0.001859046
	0.08342664	0.007174081	-0.003063465	0.0001164242	-0.006895022	-0.02346111	-0.002524238	0.0005393072
	-0.002086132	0.0003061988	0.08321555	0.001859046	-0.002524238	0.0005393072	-0.007531409	-0.03676903
3e+08	-0.007066307	-0.02215512	-0.002484168	0.0007665434	0.08499726	0.003207897	-0.002132625	0.0004340381
	-0.002484168	0.0007665434	-0.008743651	-0.0368927	-0.003153643	0.0003014431	0.0844685	-0.00257336
	0.08499726	0.003207897	-0.003153643	0.0003014431	-0.006573265	-0.02246207	-0.002562658	0.0006924495
	-0.002132625	0.0004340381	0.0844685	-0.00257336	-0.002562658	0.0006924495	-0.007944097	-0.03658033
3.1e+08	-0.006461992	-0.02119835	-0.002504884	0.0009208751	0.0862593	-0.0008802998	-0.002170995	0.0005680246
	-0.002504884	0.0009208751	-0.008985684	-0.03669911	-0.003231595	0.0004987263	0.08536009	-0.007137455
	0.0862593	-0.0008802999	-0.003231595	0.0004987263	-0.005981887	-0.02152198	-0.002591264	0.0008508196
	-0.002170995	0.0005680246	0.08536009	-0.007137455	-0.002591264	0.0008508196	-0.008172101	-0.03642625
3.2e+08	-0.005581358	-0.02033934	-0.002515863	0.001079109	0.08720583	-0.005065507	-0.002200616	0.0007076108
	-0.002515863	0.001079109	-0.009034025	-0.03656827	-0.003296099	0.0007067998	0.08588001	-0.01180438
	0.08720583	-0.005065507	-0.003296099	0.0007067998	-0.005114798	-0.02067791	-0.002609889	0.001013806
	-0.002200616	0.0007076108	0.08588001	-0.01180438	-0.002609889	0.001013806	-0.008210427	-0.03633654
3.3e+08	-0.004427223	-0.01961596	-0.00251702	0.001240661	0.0878316	-0.00932191	-0.002220893	0.000852282
	-0.00251702	0.001240661	-0.008891038	-0.03653103	-0.003346013	0.0009241448	0.08601986	-0.01654406
	0.0878316	-0.00932191	-0.003346013	0.0009241448	-0.003974368	-0.0199679	-0.00261835	0.001180838
	-0.002220893	0.000852282	0.08601986	-0.01654406	-0.00261835	0.001180838	-0.008061545	-0.0363423
3.4e+08	-0.00302735	-0.019062	-0.002507639	0.001404978	0.08813636	-0.01362006	-0.002231545	0.001001398
	-0.002507639	0.001404978	-0.008582716	-0.036613	-0.003380167	0.00115036	0.08577652	-0.02132288
	0.08813636	-0.01362006	-0.003380167	0.00115036	-0.002588644	-0.01942506	-0.002615951	0.001351264
	-0.002231545	0.001001398	0.08577652	-0.02132288	-0.002615951	0.001351264	-0.007751393	-0.0364685
3.5e+08	-0.001397923	-0.0187109	-0.002487489	0.001571356	0.08812074	-0.01793378	-0.002232119	0.001154291
	-0.002487489	0.001571356	-0.008123156	-0.03684067	-0.003397575	0.001384192	0.08514793	-0.02610935
	0.08812074	-0.01793378	-0.003397575	0.001384192	-0.0009734419	-0.01908368	-0.002602423	0.001524339
	-0.002232119	0.001154291	0.08514793	-0.02610935	-0.002602423	0.001524339	-0.007294292	-0.03674189
3.6e+08	0.0004409449	-0.01859532	-0.00245641	0.001739136	0.08778771	-0.02223703	-0.002222248	0.001310285
	-0.00245641	0.001739136	-0.007529799	-0.03723928	-0.003397252	0.001624344	0.0841349	-0.03087204
	0.08778771	-0.02223703	-0.003397252	0.001624344	0.0008515121	-0.01897539	-0.002577562	0.001699359
	-0.002222248	0.001310285	0.0841349	-0.03087204	-0.002577562	0.001699359	-0.006707947	-0.03718689
3.7e+08	0.002465552	-0.01874528	-0.002414198	0.001907667	0.08714246	-0.02650458	-0.002201534	0.001468745
	-0.002414198	0.001907667	-0.006823114	-0.03783169	-0.003378416	0.001869348	0.0827407	-0.03558022
	0.08714246	-0.02650458	-0.003378416	0.001869348	0.002862771	-0.01913069	-0.002541126	0.001875683
	-0.002201534	0.001468745	0.0827407	-0.03558022	-0.002541126	0.001875683	-0.00601294	-0.03782623
3.8e+08	0.004648811	-0.01918834	-0.002360772	0.00207623	0.08619211	-0.03071223	-0.002169705	0.001628877
	-0.002360772	0.00207623	-0.006026465	-0.03863906	-0.003340462	0.002117568	0.08097082	-0.04020327
	0.08619211	-0.03071223	-0.003340462	0.002117568	0.005033586	-0.01957776	-0.002492987	0.002052531
	-0.002169705	0.001628877	0.08097082	-0.04020327	-0.002492987	0.002052531	-0.00523285	-0.03868102
3.9e+08	0.006959649	-0.01995019	-0.002296046	0.00224414	0.08494607	-0.0348367	-0.002126471	0.001789949
	-0.002296046	0.00224414	-0.005166757	-0.03967995	-0.003282913	0.002367375	0.07883378	-0.04471142
	0.08494607	-0.0348367	-0.003282913	0.002367375	0.007333131	-0.02034119	-0.002433036	0.002229199
	-0.002126471	0.001789949	0.07883378	-0.04471142	-0.002433036	0.002229199	-0.00439436	-0.03976873
4e+08	0.009366819	-0.02105394	-0.002220052	0.002410734	0.08341457	-0.03885642	-0.002071572	0.001951147
	-0.002220052	0.002410734	-0.004270404	-0.04097147	-0.003205787	0.002616374	0.07633913	-0.04907631
	0.08341457	-0.03885642	-0.003205787	0.002616374	0.009730794	-0.02144543	-0.002361192	0.002405048
	-0.002071572	0.001951147	0.07633913	-0.04907631	-0.002361192	0.002405048	-0.00352385	-0.04110665
4.1e+08	0.01184119	-0.02252316	-0.002133	0.002575508	0.08160761	-0.04275166	-0.002004705	0.002111635
	-0.002133	0.002575508	-0.003361732	-0.04253093	-0.003110874	0.002860053	0.0734967	-0.05327095
	0.08160761	-0.04275166	-0.003110874	0.002860053	0.01219752	-0.022914	-0.002277644	0.002579516
	-0.002004705	0.002111635	0.0734967	-0.05327095	-0.002277644	0.002579516	-0.002646152	-0.04271163
4.2e+08	0.01433206	-0.02436662	-0.002034543	0.002737621	0.07954267	-0.04650149	-0.001925996	0.002270574
	-0.002034543	0.002737621	-0.002484854	-0.04436109	-0.002996625	0.003099946	0.07032501	-0.05726704
	0.07954267	-0.04650149	-0.002996625	0.003099946	0.0146828	-0.02475575	-0.002182082	0.002751669
	-0.001925996	0.002270574	0.07032501	-0.05726704	-0.002182082	0.002751669	-0.001805052	-0.04458586
4.3e+08	0.01679906	-0.02659493	-0.001924701	0.002896372	0.07723546	-0.05008794	-0.001835281	0.002427155
	-0.001924701	0.002896372	-0.001673774	-0.04646709	-0.002863444	0.003334262	0.06684093	-0.06103941
	0.07723546	-0.05008794	-0.002863444	0.003334262	0.01714621	-0.02698164	-0.002074462	0.002920798
	-0.001835281	0.002427155	0.06684093	-0.06103941	-0.002074462	0.002920798	-0.00103437	-0.04673432
4.4e+08	0.0191999	-0.02921449	-0.001803546	0.003051015	0.07470277	-0.05349527	-0.001732621	0.002580475
	-0.001803546	0.003051015	-0.0009635044	-0.04885066	-0.002711705	0.003561416	0.06306356	-0.06456442
	0.07470277	-0.05349527	-0.002711705	0.003561416	0.01954599	-0.02959839	-0.001954943	0.003086058
	-0.001732621	0.002580475	0.06306356	-0.06456442	-0.001954943	0.003086058	-0.0003693971	-0.04915816
4.5e+08	0.02149083	-0.03222732	-0.001671184	0.003200845	0.07196307	-0.05670934	-0.001618129	0.002729632
	-0.001671184	0.003200845	-0.0003906145	-0.05150903	-0.002541967	0.003779881	0.05901384	-0.0678204
	0.07196307	-0.05670934	-0.002541967	0.003779881	0.0218385	-0.03260833	-0.001823628	0.003246711
	-0.001618129	0.002729632	0.05901384	-0.0678204	-0.001823628	0.003246711	0.0001535033	-0.05185436
4.6e+08	0.02362763	-0.03563108	-0.001527827	0.003345069	0.06903529	-0.05971824	-0.001491892	0.002873764
	-0.001527827	0.003345069	8.107453e-06	-0.05443584	-0.002355129	0.003988045	0.05471424	-0.07078736
	0.06903529	-0.05971824	-0.002355129	0.003988045	0.02397957	-0.03600958	-0.001680509	0.003402037
	-0.001491892	0.002873764	0.05471424	-0.07078736	-0.001680509	0.003402037	0.0004982573	-0.0548163
4.7e+08	0.02556639	-0.03941807	-0.001373589	0.003482986	0.06593894	-0.06251165	-0.001354158	0.003011954
	-0.001373589	0.003482986	0.0001974129	-0.05762016	-0.002152104	0.004184499	0.05018847	-0.07344771
	0.06593894	-0.06251165	-0.002152104	0.004184499	0.02592525	-0.0397951	-0.001525909	0.00355122
	-0.001354158	0.003011954	0.05018847	-0.07344771	-0.001525909	0.00355122	0.0006286965	-0.05803272
4.8e+08	0.02726298	-0.04357721	-0.001208709	0.00361386	0.06269428	-0.06508146	-0.001205143	0.003143335
	-0.001208709	0.00361386	0.0001410784	-0.06104785	-0.00193381	0.004368049	0.04546186	-0.07578554
	0.06269428	-0.06508146	-0.00193381	0.004368049	0.0276316	-0.04395352	-0.001359963	0.003693501
