!$
! Info: Touchstone file created by Circ.  Input file=Intel_C2M_200G_2in_202204012_staggered.circ
!$
# Hz S RI R 50
0	0.01118981	1.61421e-24	3.358379e-05	3.170163e-23	7.591852e-05	2.101384e-22	3.357609e-05	3.161262e-23
	3.358379e-05	3.170163e-23	0.01120307	1.863852e-24	3.358873e-05	3.172286e-23	7.55067e-05	2.091809e-22
	7.597704e-05	2.102721e-22	3.358872e-05	3.172368e-23	0.01117955	1.663236e-24	3.357892e-05	3.162883e-23
	3.357609e-05	3.161344e-23	7.556521e-05	2.093146e-22	3.357892e-05	3.162883e-23	0.01119595	1.764952e-24
1e+07	0.01351279	0.001071868	1.283761e-06	1.089687e-05	0.0007760836	0.004001499	4.690223e-06	9.08307e-06
	1.283761e-06	1.089687e-05	0.01356636	0.001083995	1.214589e-06	9.212764e-06	0.0007815883	0.00406447
	0.0007760836	0.004001499	1.214589e-06	9.212764e-06	0.01354275	0.001132764	1.154425e-06	8.722067e-06
	4.690223e-06	9.08307e-06	0.0007815883	0.00406447	1.154425e-06	8.722067e-06	0.01354068	0.001111228
2e+07	0.01552338	0.0002070752	1.724351e-06	6.488359e-06	0.00154132	0.007658923	3.759289e-06	4.800349e-06
	1.724351e-06	6.488359e-06	0.0155887	0.0002099993	8.560401e-07	3.230966e-06	0.001553435	0.007783586
	0.001541309	0.007658908	8.560403e-07	3.230966e-06	0.01556987	0.0003100238	1.305797e-06	2.808723e-06
	3.759289e-06	4.800349e-06	0.001553424	0.007783571	1.305797e-06	2.808723e-06	0.01556387	0.0002792228
3e+07	0.01710414	-0.001490838	3.062174e-06	5.340969e-06	0.002623589	0.01129116	3.146761e-06	3.895346e-06
	3.062174e-06	5.340969e-06	0.01717589	-0.001501305	6.626807e-07	1.833502e-06	0.002645611	0.01147571
	0.002623571	0.01129116	6.626808e-07	1.833502e-06	0.01715784	-0.001342512	1.491038e-06	1.365308e-06
	3.146761e-06	3.895346e-06	0.002645594	0.0114757	1.491038e-06	1.365308e-06	0.0171471	-0.001385677
4e+07	0.01819333	-0.003651093	4.196825e-06	4.482818e-06	0.004102283	0.0147473	2.670524e-06	3.44101e-06
	4.196825e-06	4.482818e-06	0.01826643	-0.003677293	5.018941e-07	1.173022e-06	0.004137179	0.01498969
	0.004102272	0.01474732	5.018942e-07	1.173022e-06	0.01826182	-0.003460108	1.640914e-06	6.389422e-07
	2.670524e-06	3.44101e-06	0.004137168	0.01498971	1.640914e-06	6.389423e-07	0.01824426	-0.003516003
5e+07	0.01891458	-0.006032388	5.126621e-06	3.649426e-06	0.005931846	0.01802838	2.25547e-06	3.150507e-06
	5.126621e-06	3.649426e-06	0.01898456	-0.006075345	3.538897e-07	7.93191e-07	0.005982386	0.01832624
	0.005931849	0.01802839	3.538898e-07	7.93191e-07	0.01899895	-0.005801289	1.764102e-06	1.844927e-07
	2.25547e-06	3.150507e-06	0.005982389	0.01832625	1.764102e-06	1.844928e-07	0.01897245	-0.005869578
6e+07	0.01931765	-0.008547217	5.867901e-06	2.749304e-06	0.008098603	0.02110427	1.842382e-06	2.931917e-06
	5.867901e-06	2.749304e-06	0.01938043	-0.008607224	3.454794e-07	5.137222e-07	0.008167272	0.02145481
	0.008098625	0.02110427	3.454794e-07	5.137221e-07	0.01941956	-0.008277448	1.869169e-06	-1.265e-07
	1.842382e-06	2.931917e-06	0.008167293	0.02145481	1.869169e-06	-1.265e-07	0.01938219	-0.008357398
7e+07	0.01940577	-0.01113449	6.437609e-06	1.757986e-06	0.01057978	0.02394528	1.259518e-06	2.810404e-06
	6.437609e-06	1.757986e-06	0.0194575	-0.01121133	3.521216e-07	3.019097e-07	0.0106687	0.0243453
	0.01057978	0.02394528	3.521219e-07	3.019097e-07	0.01952711	-0.01082797	1.964492e-06	-3.431376e-07
	1.259518e-06	2.810404e-06	0.0106687	0.0243453	1.964492e-06	-3.431377e-07	0.01947719	-0.01091843
8e+07	0.01918609	-0.01374072	6.868331e-06	7.405324e-07	0.01335026	0.02652508	1.204184e-06	2.520632e-06
	6.868331e-06	7.405324e-07	0.01922323	-0.01383363	3.799362e-07	1.290898e-07	0.01346113	0.02697104
	0.01335026	0.02652508	3.799363e-07	1.290898e-07	0.01932903	-0.0133994	2.03786e-06	-5.330481e-07
	1.204184e-06	2.520632e-06	0.01346114	0.02697104	2.03786e-06	-5.330481e-07	0.01926516	-0.01349897
9e+07	0.01874291	-0.01624337	6.950159e-06	-6.354147e-07	0.01638999	0.02882234	1.187631e-06	2.022256e-06
	6.950159e-06	-6.354147e-07	0.0187621	-0.0163523	3.744586e-07	2.832778e-08	0.01652403	0.02931033
	0.01638999	0.02882234	3.744586e-07	2.832776e-08	0.018909	-0.01587018	2.127397e-06	-6.20642e-07
	1.187631e-06	2.022256e-06	0.01652403	0.02931033	2.127397e-06	-6.20642e-07	0.01883075	-0.01597686
1e+08	0.01804846	-0.01869202	7.016161e-06	-1.765811e-06	0.01966555	0.03081139	1.644623e-06	1.331001e-06
	7.016161e-06	-1.765811e-06	0.01804682	-0.01881544	3.679569e-07	-7.255089e-08	0.01982346	0.03133731
	0.01966555	0.03081139	3.679569e-07	-7.255089e-08	0.01823918	-0.01828951	2.195306e-06	-7.207423e-07
	1.644623e-06	1.331001e-06	0.01982346	0.03133731	2.195306e-06	-7.207423e-07	0.01814598	-0.01840178
1.1e+08	0.01723078	-0.02109945	6.146458e-06	-2.814838e-06	0.02317627	0.03246468	1.456696e-06	9.442392e-07
	6.146458e-06	-2.814838e-06	0.01720136	-0.02123156	3.105481e-07	-7.202861e-08	0.02335781	0.03302458
	0.02317627	0.03246468	3.105481e-07	-7.202861e-08	0.01744345	-0.02066807	2.121256e-06	-7.077077e-07
	1.456696e-06	9.442392e-07	0.02335781	0.03302458	2.121256e-06	-7.077077e-07	0.01733526	-0.02078716
1.2e+08	0.01621218	-0.02341634	5.522821e-06	-3.350655e-06	0.02684216	0.03376105	1.294235e-06	6.422307e-07
	5.522821e-06	-3.350655e-06	0.01615269	-0.02355444	2.627398e-07	-7.431385e-08	0.02704679	0.03435084
	0.02684216	0.03376105	2.627398e-07	-7.431386e-08	0.01644888	-0.02295726	2.061062e-06	-6.918273e-07
	1.294235e-06	6.422307e-07	0.02704679	0.03435084	2.061062e-06	-6.918273e-07	0.01632437	-0.02308147
1.3e+08	0.01499858	-0.02562282	5.075704e-06	-3.570242e-06	0.03063848	0.03469187	1.157308e-06	4.118342e-07
	5.075704e-06	-3.570242e-06	0.01490796	-0.02576308	2.165821e-07	-8.298991e-08	0.03086516	0.03530744
	0.03063848	0.03469187	2.165821e-07	-8.298992e-08	0.01526164	-0.02513777	1.995058e-06	-6.917798e-07
	1.157308e-06	4.118342e-07	0.03086516	0.03530744	1.995058e-06	-6.917798e-07	0.0151191	-0.02526575
1.4e+08	0.0136058	-0.02769339	4.74721e-06	-3.61089e-06	0.03453421	0.03524953	1.041271e-06	2.360524e-07
	4.74721e-06	-3.61089e-06	0.01348397	-0.02783154	1.691804e-07	-9.580727e-08	0.03478135	0.03588682
	0.03453421	0.03524953	1.691804e-07	-9.580728e-08	0.01389784	-0.0271841	1.909475e-06	-7.157728e-07
	1.041271e-06	2.360524e-07	0.03478135	0.03588682	1.909475e-06	-7.157728e-07	0.01373549	-0.02731451
1.5e+08	0.01206209	-0.02959277	4.438342e-06	-3.634174e-06	0.03849963	0.03543045	9.31046e-07	9.127173e-08
	4.438342e-06	-3.634174e-06	0.0119084	-0.02972558	1.229263e-07	-1.017783e-07	0.03876509	0.03608554
	0.03849963	0.03543045	1.229263e-07	-1.017783e-07	0.01238403	-0.02906236	1.827115e-06	-7.379407e-07
	9.31046e-07	9.127172e-08	0.03876509	0.03608554	1.827115e-06	-7.379407e-07	0.01220134	-0.02919301
1.6e+08	0.01040266	-0.03130074	4.150893e-06	-3.634579e-06	0.04250104	0.03523056	8.253786e-07	-2.906376e-08
	4.150893e-06	-3.634579e-06	0.0102171	-0.03142498	7.631812e-08	-1.031904e-07	0.04278213	0.03589965
	0.04250104	0.03523056	7.631812e-08	-1.031904e-07	0.01075548	-0.03075204	1.745452e-06	-7.585588e-07
	8.253786e-07	-2.906376e-08	0.04278213	0.03589965	1.745452e-06	-7.585588e-07	0.01055223	-0.03088082
1.7e+08	0.008680146	-0.0327963	3.905987e-06	-3.576364e-06	0.04650418	0.03464675	7.216619e-07	-1.297966e-07
	3.905987e-06	-3.576364e-06	0.008463848	-0.03290875	2.680543e-08	-1.060148e-07	0.04679772	0.03532632
	0.04650418	0.03464675	2.680543e-08	-1.060148e-07	0.009064839	-0.03223211	1.655336e-06	-7.774713e-07
	7.216619e-07	-1.297966e-07	0.04679773	0.03532632	1.655336e-06	-7.774713e-07	0.008840773	-0.03235733
1.8e+08	0.006904893	-0.034088	3.694726e-06	-3.502396e-06	0.05047474	0.03368244	6.230751e-07	-2.132307e-07
	3.694726e-06	-3.502396e-06	0.006658579	-0.03418586	-1.945408e-08	-1.026998e-07	0.05077706	0.03436929
	0.05047474	0.03368244	-1.945408e-08	-1.026998e-07	0.007321713	-0.03351138	1.567447e-06	-7.937214e-07
	6.23075e-07	-2.132307e-07	0.05077706	0.03436929	1.567447e-06	-7.937214e-07	0.007077346	-0.03363113
1.9e+08	0.005108749	-0.03517517	3.517375e-06	-3.415652e-06	0.05437894	0.03234249	5.290558e-07	-2.824505e-07
	3.517375e-06	-3.415652e-06	0.004833509	-0.03525586	-6.336602e-08	-9.544933e-08	0.0546859	0.03303376
	0.05437894	0.03234249	-6.336602e-08	-9.544933e-08	0.005557499	-0.03458943	1.481386e-06	-8.072117e-07
	5.290558e-07	-2.824505e-07	0.0546859	0.03303376	1.481386e-06	-8.072117e-07	0.005293653	-0.03470197
2e+08	0.003323764	-0.03606105	3.369106e-06	-3.321226e-06	0.05818386	0.0306344	4.387466e-07	-3.397322e-07
	3.369106e-06	-3.321226e-06	0.003021054	-0.03612226	-1.05499e-07	-8.551254e-08	0.05849094	0.03132768
	0.05818386	0.0306344	-1.05499e-07	-8.551254e-08	0.003804188	-0.035469	1.396554e-06	-8.176098e-07
	4.387466e-07	-3.397322e-07	0.05849094	0.03132768	1.396554e-06	-8.176098e-07	0.003521892	-0.03557292
2.1e+08	0.001608392	-0.03674232	3.146083e-06	-3.257517e-06	0.06185787	0.02856565	3.460545e-07	-3.820143e-07
	3.146083e-06	-3.257517e-06	0.001280481	-0.03678241	-1.442386e-07	-6.222867e-08	0.06216017	0.02925897
	0.06185787	0.02856565	-1.442386e-07	-6.222867e-08	0.002120391	-0.03614726	1.307906e-06	-8.205455e-07
	3.460545e-07	-3.820143e-07	0.06216017	0.02925897	1.307906e-06	-8.205455e-07	0.001820592	-0.03624172
2.2e+08	-4.084934e-05	-0.03724446	2.938198e-06	-3.189454e-06	0.06536919	0.02615196	2.584743e-07	-4.132849e-07
	2.938198e-06	-3.189454e-06	-0.000392128	-0.03726189	-1.827662e-07	-3.673156e-08	0.06566149	0.02684382
	0.06536919	0.02615196	-1.827662e-07	-3.673156e-08	0.0005015584	-0.03664934	1.221463e-06	-8.206332e-07
	2.584743e-07	-4.132849e-07	0.06566149	0.02684382	1.221463e-06	-8.206332e-07	0.000185724	-0.03673353
2.3e+08	-0.001599229	-0.03758157	2.744111e-06	-3.117759e-06	0.06868862	0.02340901	1.756677e-07	-4.350349e-07
	2.744111e-06	-3.117759e-06	-0.00197189	-0.03757521	-2.209786e-07	-8.906961e-09	0.06896545	0.02409848
	0.06868862	0.02340901	-2.209786e-07	-8.906961e-09	-0.001027443	-0.0369891	1.137143e-06	-8.177471e-07
	1.756677e-07	-4.350349e-07	0.06896545	0.02409848	1.137143e-06	-8.177471e-07	-0.001357774	-0.0370626
2.4e+08	-0.003044275	-0.03777066	2.562575e-06	-3.043086e-06	0.07178837	0.02035488	9.736811e-08	-4.484803e-07
	2.562575e-06	-3.043086e-06	-0.00343625	-0.03773982	-2.587883e-07	2.128733e-08	0.07204406	0.02104161
	0.07178837	0.02035488	-2.587883e-07	2.128733e-08	-0.002444548	-0.03718393	1.054889e-06	-8.118268e-07
	9.736811e-08	-4.484803e-07	0.07204406	0.02104161	1.054889e-06	-8.118268e-07	-0.002787804	-0.03724667
2.5e+08	-0.004356079	-0.03783164	2.39244e-06	-2.965993e-06	0.07464248	0.01700971	2.336666e-08	-4.546238e-07
	2.39244e-06	-2.965993e-06	-0.004765247	-0.03777599	-2.961085e-07	5.385577e-08	0.0748712	0.01769388
	0.07464248	0.01700971	-2.961085e-07	5.385578e-08	-0.003729919	-0.03725308	9.746696e-07	-8.028442e-07
	2.336666e-08	-4.546238e-07	0.0748712	0.01769388	9.746696e-07	-8.028442e-07	-0.004084592	-0.03730544
2.6e+08	-0.00549008	-0.03778316	2.197802e-06	-2.881165e-06	0.07722712	0.01339226	-5.038524e-08	-4.517996e-07
	2.197802e-06	-2.881165e-06	-0.005914249	-0.03770323	-3.262675e-07	9.226177e-08	0.0774229	0.01407467
	0.07722712	0.01339226	-3.262675e-07	9.226177e-08	-0.004839178	-0.03721563	8.937678e-07	-7.871667e-07
	-5.038524e-08	-4.517996e-07	0.0774229	0.01407467	8.937678e-07	-7.871667e-07	-0.005203927	-0.0372586
2.7e+08	-0.006455966	-0.03765496	2.009052e-06	-2.792428e-06	0.07951987	0.009529149	-1.188258e-07	-4.421561e-07
	2.009052e-06	-2.792428e-06	-0.006893175	-0.03755134	-3.54176e-07	1.332132e-07	0.07967677	0.01021122
	0.07951987	0.009529149	-3.54176e-07	1.332132e-07	-0.005782319	-0.03710106	8.152173e-07	-7.683786e-07
	-1.188258e-07	-4.421561e-07	0.07967677	0.01021122	8.152173e-07	-7.683786e-07	-0.006155924	-0.03713586
2.8e+08	-0.007246864	-0.03747358	1.830221e-06	-2.700649e-06	0.08150123	0.005446377	-1.816171e-07	-4.268871e-07
	1.830221e-06	-2.700649e-06	-0.007695381	-0.03734726	-3.805375e-07	1.760695e-07	0.08161332	0.006130149
	0.08150123	0.005446377	-3.805375e-07	1.760695e-07	-0.006552694	-0.03693531	7.393405e-07	-7.470836e-07
	-1.816171e-07	-4.268871e-07	0.08161332	0.006130149	7.393405e-07	-7.470836e-07	-0.006934124	-0.03696349
2.9e+08	-0.00785513	-0.03726598	1.660664e-06	-2.605978e-06	0.08315411	0.001170946	-2.390112e-07	-4.067782e-07
	1.660664e-06	-2.605978e-06	-0.008313433	-0.0371183	-4.052482e-07	2.206483e-07	0.08321555	0.001859046
	0.08315411	0.001170946	-4.052482e-07	2.206483e-07	-0.007142891	-0.0367456	6.660459e-07	-7.233841e-07
	-2.390112e-07	-4.067782e-07	0.08321555	0.001859046	6.660459e-07	-7.233841e-07	-0.007531409	-0.03676903
3e+08	-0.008276778	-0.03706	1.499815e-06	-2.508527e-06	0.08446341	-0.00326905	-2.912104e-07	-3.825139e-07
	1.499815e-06	-2.508527e-06	-0.008743651	-0.0368927	-4.282529e-07	2.66748e-07	0.0844685	-0.00257336
	0.08446341	-0.00326905	-4.282529e-07	2.66748e-07	-0.007548877	-0.03655938	5.952304e-07	-6.97391e-07
	-2.912104e-07	-3.825139e-07	0.0844685	-0.00257336	5.952304e-07	-6.97391e-07	-0.007944097	-0.03658033
3.1e+08	-0.008511118	-0.03688404	1.347176e-06	-2.408396e-06	0.08541684	-0.007844582	-3.38381e-07	-3.547021e-07
	1.347176e-06	-2.408396e-06	-0.008985684	-0.03669911	-4.495656e-07	3.141543e-07	0.08536009	-0.007137455
	0.08541684	-0.007844582	-4.495656e-07	3.141543e-07	-0.007770159	-0.03640527	5.267668e-07	-6.6923e-07
	-3.38381e-07	-3.547021e-07	0.08536009	-0.007137455	5.267668e-07	-6.6923e-07	-0.008172101	-0.03642625
3.2e+08	-0.008552238	-0.03676835	1.197087e-06	-2.299888e-06	0.08600384	-0.01252741	-3.819494e-07	-3.230542e-07
	1.197087e-06	-2.299888e-06	-0.009034025	-0.03656827	-4.69701e-07	3.630368e-07	0.08588001	-0.01180438
	0.08600384	-0.01252741	-4.69701e-07	3.630368e-07	-0.007801201	-0.03631269	4.605198e-07	-6.370935e-07
	-3.819494e-07	-3.230542e-07	0.08588001	-0.01180438	4.605198e-07	-6.370935e-07	-0.008210427	-0.03633654
3.3e+08	-0.008402045	-0.03674349	1.047446e-06	-2.179864e-06	0.08621573	-0.01728798	-4.215446e-07	-2.875699e-07
	1.047446e-06	-2.179864e-06	-0.008891038	-0.03653103	-4.890419e-07	4.137741e-07	0.08601986	-0.01654406
	0.08621573	-0.01728798	-4.890419e-07	4.137741e-07	-0.007643841	-0.03631259	3.970501e-07	-6.001638e-07
	-4.215446e-07	-2.875699e-07	0.08601986	-0.01654406	3.970501e-07	-6.001638e-07	-0.008061545	-0.0363423
3.4e+08	-0.00808598	-0.03683513	9.072859e-07	-2.058195e-06	0.08604899	-0.02209327	-4.54891e-07	-2.502917e-07
	9.072859e-07	-2.058195e-06	-0.008582716	-0.036613	-5.068902e-07	4.657347e-07	0.08577652	-0.02132288
	0.08604899	-0.02209327	-5.068902e-07	4.657347e-07	-0.007323576	-0.03642992	3.364836e-07	-5.618654e-07
	-4.54891e-07	-2.502917e-07	0.08577652	-0.02132288	3.364836e-07	-5.618654e-07	-0.007751393	-0.0364685
3.5e+08	-0.007617661	-0.03706969	7.762295e-07	-1.934967e-06	0.08550109	-0.02691224	-4.824639e-07	-2.118228e-07
	7.762295e-07	-1.934967e-06	-0.008123156	-0.03684067	-5.232084e-07	5.188133e-07	0.08514793	-0.02610935
	0.08550109	-0.02691224	-5.232084e-07	5.188133e-07	-0.006854145	-0.03669141	2.787168e-07	-5.222518e-07
	-4.824639e-07	-2.118228e-07	0.08514793	-0.02610935	2.787168e-07	-5.222518e-07	-0.007294292	-0.03674189
3.6e+08	-0.007013929	-0.03747236	6.539758e-07	-1.810284e-06	0.08457241	-0.03171397	-5.04687e-07	-1.726983e-07
	6.539758e-07	-1.810284e-06	-0.007529799	-0.03723928	-5.379748e-07	5.729042e-07	0.0841349	-0.03087204
	0.08457241	-0.03171397	-5.379748e-07	5.729042e-07	-0.00625262	-0.03712156	2.236452e-07	-4.813774e-07
	-5.04687e-07	-1.726983e-07	0.0841349	-0.03087204	2.236452e-07	-4.813774e-07	-0.006707947	-0.03718689
3.7e+08	-0.00629468	-0.03806602	5.402544e-07	-1.684252e-06	0.08326568	-0.03646814	-5.219441e-07	-1.333943e-07
	5.402544e-07	-1.684252e-06	-0.006823114	-0.03783169	-5.511758e-07	6.279115e-07	0.0827407	-0.03558022
	0.08326568	-0.03646814	-5.511758e-07	6.279115e-07	-0.005538918	-0.0377432	1.711763e-07	-4.39288e-07
	-5.219441e-07	-1.333943e-07	0.0827407	-0.03558022	1.711763e-07	-4.39288e-07	-0.00601294	-0.03782623
3.8e+08	-0.005482693	-0.03887197	4.348268e-07	-1.556994e-06	0.08158581	-0.04114452	-5.345923e-07	-9.434222e-08
	4.348268e-07	-1.556994e-06	-0.006026465	-0.03863906	-5.628088e-07	6.837425e-07	0.08097082	-0.04020327
	0.08158581	-0.04114452	-5.628088e-07	6.837425e-07	-0.004735989	-0.03857765	1.212293e-07	-3.960236e-07
	-5.345923e-07	-9.434222e-08	0.08097082	-0.04020327	1.212293e-07	-3.960236e-07	-0.00523285	-0.03868102
3.9e+08	-0.004604248	-0.03990895	3.375018e-07	-1.428646e-06	0.07954076	-0.04571371	-5.429764e-07	-5.593663e-08
	3.375018e-07	-1.428646e-06	-0.005166757	-0.03967995	-5.728817e-07	7.403113e-07	0.07883378	-0.04471142
	0.07954076	-0.04571371	-5.728817e-07	7.403113e-07	-0.003869828	-0.03964271	7.372468e-08	-3.516268e-07
	-5.429764e-07	-5.593663e-08	0.07883378	-0.04471142	7.372468e-08	-3.516268e-07	-0.00439436	-0.03976873
4e+08	-0.003685131	-0.0411943	2.481298e-07	-1.297111e-06	0.07713938	-0.05014759	-5.484326e-07	-1.790173e-08
	2.481298e-07	-1.297111e-06	-0.004270404	-0.04097147	-5.809205e-07	7.97313e-07	0.07633913	-0.04907631
	0.07713938	-0.05014759	-5.809205e-07	7.97313e-07	-0.002966149	-0.04095607	2.90932e-08	-3.05444e-07
	-5.484326e-07	-1.790173e-08	0.07633913	-0.04907631	2.90932e-08	-3.05444e-07	-0.00352385	-0.04110665
4.1e+08	-0.002748998	-0.04274548	1.670125e-07	-1.156604e-06	0.07439091	-0.05441948	-5.520942e-07	2.046224e-08
	1.670125e-07	-1.156604e-06	-0.003361732	-0.04253093	-5.853414e-07	8.538279e-07	0.0734967	-0.05327095
	0.07439091	-0.05441948	-5.853414e-07	8.538279e-07	-0.002049058	-0.04253498	-1.124076e-08	-2.559633e-07
	-5.520942e-07	2.046224e-08	0.0734967	-0.05327095	-1.124076e-08	-2.559633e-07	-0.002646152	-0.04271163
4.2e+08	-0.001839466	-0.044566	9.405819e-08	-1.017766e-06	0.07131309	-0.05850119	-5.496822e-07	5.568215e-08
	9.405819e-08	-1.017766e-06	-0.002484854	-0.04436109	-5.882478e-07	9.106809e-07	0.07032501	-0.05726704
	0.07131309	-0.05850119	-5.882478e-07	9.106809e-07	-0.001161865	-0.04438238	-4.947695e-08	-2.064269e-07
	-5.496822e-07	5.568215e-08	0.07032501	-0.05726704	-4.947695e-08	-2.064269e-07	-0.001805052	-0.04458586
4.3e+08	-0.0009899951	-0.04666153	2.903189e-08	-8.805539e-07	0.06792209	-0.06236767	-5.428397e-07	8.781909e-08
	2.903189e-08	-8.805539e-07	-0.001673774	-0.04646709	-5.896573e-07	9.677946e-07	0.06684093	-0.06103941
	0.06792209	-0.06236767	-5.896573e-07	9.677946e-07	-0.000337835	-0.04650395	-8.561877e-08	-1.5668e-07
	-5.428397e-07	8.781909e-08	0.06684093	-0.06103941	-8.561877e-08	-1.5668e-07	-0.00103437	-0.04673432
4.4e+08	-0.0002351038	-0.0490344	-2.830662e-08	-7.449797e-07	0.06423628	-0.06599528	-5.327418e-07	1.169216e-07
	-2.830662e-08	-7.449797e-07	-0.0009635044	-0.04885066	-5.895912e-07	1.025097e-06	0.06306356	-0.06456442
	0.06423628	-0.06599528	-5.895912e-07	1.025097e-06	0.0003881992	-0.04890163	-1.19674e-07	-1.066168e-07
	-5.327418e-07	1.169216e-07	0.06306356	-0.06456442	-1.19674e-07	-1.066168e-07	-0.0003693971	-0.04915816
4.5e+08	0.0003890958	-0.05168259	-7.818899e-08	-6.111051e-07	0.06027586	-0.06936235	-5.202737e-07	1.430311e-07
	-7.818899e-08	-6.111051e-07	-0.0003906145	-0.05150903	-5.880786e-07	1.082529e-06	0.05901384	-0.0678204
	0.06027586	-0.06936235	-5.880786e-07	1.082529e-06	0.000980314	-0.05157327	-1.516484e-07	-5.616138e-08
	-5.202737e-07	1.430311e-07	0.05901384	-0.0678204	-1.516484e-07	-5.616138e-08	0.0001535033	-0.05185436
4.6e+08	0.0008462017	-0.05460052	-1.208517e-07	-4.790053e-07	0.05606254	-0.07244877	-5.061274e-07	1.661884e-07
	-1.208517e-07	-4.790053e-07	8.107453e-06	-0.05443584	-5.851462e-07	1.140037e-06	0.05471424	-0.07078736
	0.05606254	-0.07244877	-5.851462e-07	1.140037e-06	0.001402766	-0.05451327	-1.815463e-07	-5.253725e-09
	-5.061274e-07	1.661884e-07	0.05471424	-0.07078736	-1.815463e-07	-5.253725e-09	0.0004982573	-0.0548163
4.7e+08	0.001101246	-0.05777812	-1.565482e-07	-3.487618e-07	0.05161933	-0.07523677	-4.90875e-07	1.86446e-07
	-1.565482e-07	-3.487618e-07	0.0001974129	-0.05762016	-5.808246e-07	1.197582e-06	0.05018847	-0.07344771
	0.05161933	-0.07523677	-5.808246e-07	1.197582e-06	0.001619597	-0.05771137	-2.093729e-07	4.615034e-08
	-4.90875e-07	1.86446e-07	0.05018847	-0.07344771	-2.093729e-07	4.615034e-08	0.0006286965	-0.05803272
4.8e+08	0.001118245	-0.06120219	-1.854971e-07	-2.204693e-07	0.04697082	-0.07771019	-4.750098e-07	2.038669e-07
