!$
! Info: Touchstone file created by Circ.  Input file=Intel_C2M_200G_1p5in_202204012_staggered.circ
!$
# Hz S RI R 50
0	0.01022083	1.409694e-24	2.945002e-05	2.407218e-23	7.186731e-05	2.02638e-22	2.944223e-05	2.399529e-23
	2.945002e-05	2.407218e-23	0.01023412	1.648754e-24	2.945498e-05	2.409021e-23	7.14548e-05	2.017809e-22
	7.192594e-05	2.02772e-22	2.945497e-05	2.409097e-23	0.01021055	1.446628e-24	2.944507e-05	2.400874e-23
	2.944223e-05	2.399605e-23	7.151343e-05	2.019148e-22	2.944507e-05	2.400874e-23	0.01022699	1.562019e-24
1e+07	0.01230533	0.001223712	1.082389e-06	9.568302e-06	0.0006903699	0.003762375	4.076035e-06	7.987502e-06
	1.082389e-06	9.568302e-06	0.01235529	0.001235389	1.030758e-06	8.092844e-06	0.0006957548	0.003825153
	0.0006903699	0.003762375	1.030758e-06	8.092844e-06	0.01233121	0.001282731	9.769259e-07	7.659511e-06
	4.076035e-06	7.987502e-06	0.0006957548	0.003825153	9.769259e-07	7.659511e-06	0.0123331	0.001263647
2e+07	0.01409509	0.0007271101	1.465187e-06	5.714317e-06	0.001332406	0.007218317	3.262072e-06	4.243297e-06
	1.465187e-06	5.714317e-06	0.0141562	0.0007315274	7.283368e-07	2.853718e-06	0.001343999	0.007342738
	0.001332396	0.007218302	7.28337e-07	2.853718e-06	0.01413594	0.0008285496	1.124242e-06	2.48019e-06
	3.262072e-06	4.243296e-06	0.001343988	0.007342722	1.124242e-06	2.480191e-06	0.01413527	0.0008007848
3e+07	0.0155472	-0.0004838651	2.632793e-06	4.73254e-06	0.002219767	0.01067292	2.720543e-06	3.458886e-06
	2.632793e-06	4.73254e-06	0.0156151	-0.0004906795	5.62826e-07	1.6337e-06	0.0022407	0.01085743
	0.002219749	0.01067292	5.62826e-07	1.6337e-06	0.01559327	-0.0003367552	1.29423e-06	1.22176e-06
	2.720543e-06	3.458886e-06	0.002240683	0.01085742	1.29423e-06	1.22176e-06	0.01558957	-0.0003762682
4e+07	0.01658432	-0.002113246	3.628179e-06	4.009325e-06	0.003438568	0.01398934	2.29861e-06	3.067869e-06
	3.628179e-06	4.009325e-06	0.01665483	-0.002133556	4.258055e-07	1.059045e-06	0.003471702	0.01423222
	0.003438556	0.01398936	4.258055e-07	1.059045e-06	0.01664289	-0.001922679	1.433351e-06	5.923552e-07
	2.298611e-06	3.067869e-06	0.00347169	0.01423224	1.433351e-06	5.923552e-07	0.01663451	-0.0019745
5e+07	0.01732021	-0.00394261	4.451294e-06	3.31036e-06	0.004947883	0.01717743	1.930778e-06	2.818838e-06
	4.451294e-06	3.31036e-06	0.01738968	-0.003977529	3.00555e-07	7.300369e-07	0.004995957	0.01747671
	0.004947886	0.01717744	3.00555e-07	7.300369e-07	0.01739208	-0.003710756	1.549622e-06	2.014319e-07
	1.930778e-06	2.818838e-06	0.004995961	0.01747672	1.549622e-06	2.014319e-07	0.01737733	-0.003774799
6e+07	0.01780055	-0.005899174	5.117875e-06	2.553086e-06	0.006740571	0.02021616	1.565228e-06	2.630511e-06
	5.117875e-06	2.553086e-06	0.01786567	-0.005949215	2.996216e-07	4.90804e-07	0.006806127	0.02056951
	0.006740593	0.02021616	2.996215e-07	4.90804e-07	0.01788707	-0.005627035	1.650624e-06	-6.365691e-08
	1.565227e-06	2.630511e-06	0.006806149	0.0205695	1.650624e-06	-6.36569e-08	0.01786443	-0.005702877
7e+07	0.0180258	-0.007932983	5.643707e-06	1.713731e-06	0.008801522	0.02308387	1.048927e-06	2.521207e-06
	5.643707e-06	1.713731e-06	0.01808349	-0.007998259	3.138725e-07	3.112393e-07	0.008886851	0.0234886
	0.008801527	0.02308388	3.138728e-07	3.112392e-07	0.01812864	-0.007621961	1.743433e-06	-2.462957e-07
	1.048928e-06	2.521207e-06	0.008886856	0.0234886	1.743433e-06	-2.462958e-07	0.01809679	-0.007708828
8e+07	0.01799956	-0.009998966	6.056899e-06	8.489498e-07	0.01111417	0.0257613	1.003748e-06	2.273236e-06
	6.056899e-06	8.489498e-07	0.01804694	-0.01007917	3.487936e-07	1.6594e-07	0.01122127	0.02621438
	0.01111418	0.0257613	3.487937e-07	1.6594e-07	0.01812069	-0.009650425	1.818743e-06	-4.05683e-07
	1.003748e-06	2.273236e-06	0.01122127	0.02621438	1.818743e-06	-4.05683e-07	0.01807857	-0.009747348
9e+07	0.01779214	-0.01198824	6.180893e-06	-3.447145e-07	0.0136668	0.02823339	1.001891e-06	1.839936e-06
	6.180893e-06	-3.447145e-07	0.01782653	-0.01208374	3.551955e-07	8.12289e-08	0.01379728	0.02873149
	0.0136668	0.02823339	3.551956e-07	8.122888e-08	0.01793304	-0.01160442	1.907695e-06	-4.747402e-07
	1.001891e-06	1.839936e-06	0.01379729	0.02873149	1.907695e-06	-4.747402e-07	0.0178804	-0.0117099
1e+08	0.01737943	-0.01394724	6.293996e-06	-1.32489e-06	0.01643684	0.0304796	1.430391e-06	1.249018e-06
	6.293996e-06	-1.32489e-06	0.01739847	-0.01405714	3.624161e-07	-4.496307e-09	0.01659197	0.03101914
	0.01643684	0.0304796	3.624161e-07	-4.496299e-09	0.01754156	-0.01353005	1.980229e-06	-5.55119e-07
	1.430391e-06	1.249018e-06	0.01659197	0.03101914	1.980229e-06	-5.55119e-07	0.01747803	-0.01364304
1.1e+08	0.01686668	-0.01588663	5.578673e-06	-2.271805e-06	0.01943341	0.03248139	1.279801e-06	9.041787e-07
	5.578673e-06	-2.271805e-06	0.01686405	-0.01600628	3.195525e-07	-6.097805e-09	0.01961364	0.03305889
	0.01943341	0.03248139	3.195526e-07	-6.097808e-09	0.0170476	-0.01543645	1.922288e-06	-5.413194e-07
	1.279801e-06	9.041787e-07	0.01961364	0.0330589	1.922288e-06	-5.413194e-07	0.01697316	-0.01555815
1.2e+08	0.01619069	-0.01776644	5.066855e-06	-2.761857e-06	0.02259011	0.03421351	1.149994e-06	6.337791e-07
	5.066855e-06	-2.761857e-06	0.01616433	-0.01789389	2.846243e-07	-9.824062e-09	0.02279569	0.03482531
	0.02259011	0.03421351	2.846243e-07	-9.824071e-09	0.0163924	-0.01728372	1.876564e-06	-5.250513e-07
	1.149994e-06	6.337791e-07	0.02279569	0.03482531	1.876564e-06	-5.250513e-07	0.01630589	-0.01741293
1.3e+08	0.01535127	-0.01957147	4.701182e-06	-2.968916e-06	0.02589317	0.03566955	1.041095e-06	4.265594e-07
	4.701182e-06	-2.968916e-06	0.01530011	-0.0197037	2.510447e-07	-1.939301e-08	0.02612398	0.03631189
	0.02589317	0.03566955	2.510447e-07	-1.939302e-08	0.01557608	-0.01905723	1.826306e-06	-5.237276e-07
	1.041095e-06	4.265594e-07	0.02612398	0.03631189	1.826306e-06	-5.237276e-07	0.01547597	-0.01919301
1.4e+08	0.01435695	-0.02127962	4.434e-06	-3.014978e-06	0.02932276	0.03684226	9.493343e-07	2.675116e-07
	4.434e-06	-3.014978e-06	0.01428072	-0.02141313	2.163266e-07	-3.310654e-08	0.02957826	0.03751133
	0.02932276	0.03684226	2.163266e-07	-3.310655e-08	0.0146075	-0.02073484	1.759597e-06	-5.455261e-07
	9.493343e-07	2.675116e-07	0.02957826	0.03751133	1.759597e-06	-5.455261e-07	0.01449218	-0.02087627
1.5e+08	0.01322723	-0.0228582	4.183013e-06	-3.047688e-06	0.03285988	0.03772688	8.621e-07	1.34853e-07
	4.183013e-06	-3.047688e-06	0.01312516	-0.02299042	1.823508e-07	-4.143446e-08	0.03313907	0.03841885
	0.03285988	0.03772688	1.823508e-07	-4.143447e-08	0.01350476	-0.02228525	1.695748e-06	-5.665117e-07
	8.621e-07	1.348529e-07	0.03313907	0.03841885	1.695748e-06	-5.665117e-07	0.01337368	-0.02243057
1.6e+08	0.0119888	-0.0242868	3.94945e-06	-3.0617e-06	0.03648191	0.038317	7.782818e-07	2.286023e-08
	3.94945e-06	-3.0617e-06	0.01186066	-0.0244151	1.47786e-07	-4.651089e-08	0.03678334	0.0390281
	0.03648191	0.038317	1.47786e-07	-4.651089e-08	0.01229463	-0.02368776	1.632464e-06	-5.870284e-07
	7.782818e-07	2.286023e-08	0.03678334	0.0390281	1.632464e-06	-5.870284e-07	0.0121475	-0.02383528
1.7e+08	0.01068439	-0.02554257	3.750455e-06	-3.023343e-06	0.04016562	0.03860627	6.953847e-07	-7.274098e-08
	3.750455e-06	-3.023343e-06	0.01053095	-0.0256642	1.103898e-07	-5.361503e-08	0.04048744	0.03933283
	0.04016562	0.03860627	1.103898e-07	-5.361504e-08	0.01101989	-0.02491947	1.561442e-06	-6.075888e-07
	6.953847e-07	-7.274098e-08	0.04048744	0.03933283	1.561442e-06	-6.075888e-07	0.01085642	-0.0250678
1.8e+08	0.00932029	-0.02663075	3.580067e-06	-2.971039e-06	0.04388716	0.0385929	6.163798e-07	-1.537294e-07
	3.580067e-06	-2.971039e-06	0.009141976	-0.02674336	7.552255e-08	-5.567874e-08	0.04422707	0.03933139
	0.04388716	0.0385929	7.552254e-08	-5.567874e-08	0.009686265	-0.02598595	1.492162e-06	-6.266649e-07
	6.163798e-07	-1.537294e-07	0.04422707	0.03933139	1.492162e-06	-6.266649e-07	0.009506833	-0.02613345
1.9e+08	0.007922092	-0.02754661	3.43883e-06	-2.907035e-06	0.04762273	0.03827574	5.407993e-07	-2.227641e-07
	3.43883e-06	-2.907035e-06	0.007719651	-0.02764792	4.246878e-08	-5.461947e-08	0.04797801	0.03902279
	0.04762273	0.03827574	4.246878e-08	-5.461948e-08	0.008319024	-0.02688275	1.424211e-06	-6.44173e-07
	5.407993e-07	-2.227641e-07	0.04797801	0.03902278	1.424211e-06	-6.44173e-07	0.008124303	-0.02702789
2e+08	0.006516241	-0.02828828	3.322829e-06	-2.835861e-06	0.05134882	0.03765535	4.678834e-07	-2.818485e-07
	3.322829e-06	-2.835861e-06	0.006290785	-0.02837627	1.07778e-08	-5.152353e-08	0.05171638	0.03840784
	0.05134882	0.03765535	1.077779e-08	-5.152353e-08	0.006944551	-0.02760752	1.356957e-06	-6.598343e-07
	4.678834e-07	-2.818485e-07	0.05171638	0.03840784	1.356957e-06	-6.598343e-07	0.006735441	-0.02774904
2.1e+08	0.005153578	-0.02884558	3.138872e-06	-2.799318e-06	0.05504277	0.03673191	3.913599e-07	-3.291693e-07
	3.138872e-06	-2.799318e-06	0.004907	-0.02891865	-1.934982e-08	-3.779012e-08	0.05541916	0.03748697
	0.05504277	0.0367319	-1.934982e-08	-3.779012e-08	0.005613973	-0.02815057	1.285192e-06	-6.699466e-07
	3.913599e-07	-3.291693e-07	0.05541916	0.03748697	1.285192e-06	-6.699466e-07	0.005391373	-0.02828768
2.2e+08	0.003830549	-0.02923784	2.967126e-06	-2.759824e-06	0.05868054	0.03551149	3.184321e-07	-3.672237e-07
	2.967126e-06	-2.759824e-06	0.003564396	-0.02929452	-4.974099e-08	-2.264203e-08	0.05906194	0.03626655
	0.05868054	0.03551149	-4.974099e-08	-2.264203e-08	0.00432277	-0.02853105	1.214853e-06	-6.782531e-07
	3.184321e-07	-3.672237e-07	0.05906194	0.03626655	1.214853e-06	-6.782531e-07	0.004088064	-0.02866293
2.3e+08	0.002569361	-0.0294719	2.806434e-06	-2.717982e-06	0.06223993	0.03400014	2.48786e-07	-3.9727e-07
	2.806434e-06	-2.717982e-06	0.002285381	-0.02951106	-8.038377e-08	-5.972656e-09	0.06262224	0.03475296
	0.06223993	0.03400014	-8.038377e-08	-5.972656e-09	0.003093301	-0.02875558	1.145784e-06	-6.846047e-07
	2.48786e-07	-3.9727e-07	0.06262224	0.03475296	1.145784e-06	-6.846047e-07	0.002848016	-0.02888171
2.4e+08	0.001391095	-0.02955708	2.655706e-06	-2.67435e-06	0.06569916	0.03220549	1.821692e-07	-4.203203e-07
	2.655706e-06	-2.67435e-06	0.00109119	-0.02957787	-1.112671e-07	1.227485e-08	0.066078	0.0329542
	0.06569916	0.03220549	-1.112671e-07	1.227485e-08	0.001946411	-0.02883389	1.077867e-06	-6.88901e-07
	1.821692e-07	-4.203203e-07	0.066078	0.0329542	1.077867e-06	-6.88901e-07	0.00169219	-0.02895408
2.5e+08	0.0003155283	-0.02950515	2.513949e-06	-2.629407e-06	0.06903734	0.03013662	1.183797e-07	-4.371959e-07
	2.513949e-06	-2.629407e-06	1.731674e-06	-0.0295071	-1.423712e-07	3.213331e-08	0.06940807	0.03087971
	0.06903734	0.03013662	-1.423712e-07	3.213331e-08	0.000901749	-0.02877724	1.011012e-06	-6.910627e-07
	1.183797e-07	-4.371959e-07	0.06940807	0.03087971	1.011012e-06	-6.910627e-07	0.0006402745	-0.02889169
2.6e+08	-0.000613297	-0.02932465	2.346691e-06	-2.580648e-06	0.07223535	0.02780153	5.290809e-08	-4.467333e-07
	2.346691e-06	-2.580648e-06	-0.000938747	-0.02930801	-1.681563e-07	5.719385e-08	0.07259307	0.02853791
	0.07223535	0.02780153	-1.681563e-07	5.719385e-08	3.337982e-06	-0.02859463	9.423103e-07	-6.877225e-07
	5.290809e-08	-4.467333e-07	0.07259307	0.02853791	9.423103e-07	-6.877225e-07	-0.0002637376	-0.02870411
2.7e+08	-0.001400688	-0.02903829	2.182606e-06	-2.529417e-06	0.07527327	0.02521416	-9.105257e-09	-4.502254e-07
	2.182606e-06	-2.529417e-06	-0.001735684	-0.02900341	-1.927225e-07	8.426701e-08	0.07561297	0.02594316
	0.07527327	0.02521416	-1.927225e-07	8.426701e-08	-0.0007543896	-0.02830862	8.74832e-07	-6.819756e-07
	-9.105258e-09	-4.502254e-07	0.07561297	0.02594316	8.74832e-07	-6.819756e-07	-0.001025422	-0.02841413
2.8e+08	-0.002035682	-0.0286648	2.025554e-06	-2.476105e-06	0.07813333	0.02238815	-6.723756e-08	-4.48583e-07
	2.025554e-06	-2.476105e-06	-0.002378222	-0.02861241	-2.166541e-07	1.12787e-07	0.07844987	0.02310954
	0.07813333	0.02238815	-2.166541e-07	1.12787e-07	-0.001360782	-0.02793747	8.089124e-07	-6.74301e-07
	-6.723756e-08	-4.48583e-07	0.07844987	0.02310954	8.089124e-07	-6.74301e-07	-0.001634171	-0.02804032
2.9e+08	-0.002505585	-0.02822333	1.87493e-06	-2.420769e-06	0.0807991	0.01933805	-1.216994e-07	-4.424146e-07
	1.87493e-06	-2.420769e-06	-0.002853727	-0.02815449	-2.398477e-07	1.426492e-07	0.08108721	0.02005207
	0.0807991	0.01933805	-2.398477e-07	1.426492e-07	-0.001803218	-0.02750069	7.44469e-07	-6.6473e-07
	-1.216994e-07	-4.424146e-07	0.08108721	0.02005207	7.44469e-07	-6.6473e-07	-0.002077505	-0.02760258
3e+08	-0.002800055	-0.0277345	1.730194e-06	-2.363428e-06	0.08325498	0.01607928	-1.726531e-07	-4.322342e-07
	1.730194e-06	-2.363428e-06	-0.003152022	-0.02765068	-2.622251e-07	1.737237e-07	0.08350937	0.01678658
	0.08325498	0.01607928	-2.622251e-07	1.737237e-07	-0.002071358	-0.02701853	6.81421e-07	-6.533063e-07
	-1.726531e-07	-4.322342e-07	0.08350937	0.01678658	6.81421e-07	-6.533063e-07	-0.002345283	-0.02712157
3.1e+08	-0.002910864	-0.02721999	1.590869e-06	-2.30409e-06	0.08548711	0.01262828	-2.202222e-07	-4.184836e-07
	1.590869e-06	-2.30409e-06	-0.003265057	-0.02712304	-2.837507e-07	2.058543e-07	0.08570245	0.01333002
	0.08548711	0.01262828	-2.837507e-07	2.058543e-07	-0.00215701	-0.02651304	6.196821e-07	-6.400972e-07
	-2.202222e-07	-4.184836e-07	0.08570245	0.01333002	6.196821e-07	-6.400972e-07	-0.002429538	-0.0266197
3.2e+08	-0.002823096	-0.02670349	1.450689e-06	-2.237461e-06	0.08748267	0.009000949	-2.660891e-07	-4.007585e-07
	1.450689e-06	-2.237461e-06	-0.003178149	-0.02659576	-3.052796e-07	2.392817e-07	0.08765363	0.009698732
	0.08748267	0.009000949	-3.052796e-07	2.392817e-07	-0.00204584	-0.02600727	5.588471e-07	-6.232646e-07
	-2.660891e-07	-4.007585e-07	0.08765363	0.009698732	5.588471e-07	-6.232646e-07	-0.002316295	-0.02612045
3.3e+08	-0.002528231	-0.0262103	1.306926e-06	-2.160277e-06	0.08922956	0.005214336	-3.100895e-07	-3.787298e-07
	1.306926e-06	-2.160277e-06	-0.002883083	-0.02609458	-3.276337e-07	2.745238e-07	0.08935084	0.005910256
	0.08922956	0.005214336	-3.276338e-07	2.745238e-07	-0.001729112	-0.02552694	4.992113e-07	-6.017985e-07
	-3.100895e-07	-3.787298e-07	0.08935084	0.005910256	4.992113e-07	-6.017985e-07	-0.001997275	-0.02564989
3.4e+08	-0.002040887	-0.02576385	1.169575e-06	-2.081296e-06	0.09071846	0.001289229	-3.493481e-07	-3.541296e-07
	1.169575e-06	-2.081296e-06	-0.002394866	-0.02564296	-3.495024e-07	3.109976e-07	0.09078494	0.001985794
	0.09071846	0.001289229	-3.495024e-07	3.109976e-07	-0.001221637	-0.02509485	4.414438e-07	-5.789865e-07
	-3.493481e-07	-3.541296e-07	0.09078494	0.001985794	4.414438e-07	-5.789865e-07	-0.001487584	-0.02523098
3.5e+08	-0.001362955	-0.02538814	1.038303e-06	-2.00048e-06	0.09194073	-0.00275521	-3.841959e-07	-3.274298e-07
	1.038303e-06	-2.00048e-06	-0.00171576	-0.0252652	-3.708308e-07	3.486704e-07	0.09194737	-0.002054965
	0.09194073	-0.00275521	-3.708308e-07	3.486704e-07	-0.0005252646	-0.02473544	3.854795e-07	-5.548408e-07
	-3.841959e-07	-3.274298e-07	0.09194737	-0.002054966	3.854795e-07	-5.548408e-07	-0.0007895293	-0.02488839
3.6e+08	-0.0004987204	-0.02510738	9.128631e-07	-1.917799e-06	0.09288948	-0.006899203	-4.149079e-07	-2.990441e-07
	9.128631e-07	-1.917799e-06	-0.0008504856	-0.0249857	-3.915694e-07	3.875029e-07	0.09283143	-0.006191857
	0.09288948	-0.006899203	-3.915694e-07	3.875029e-07	0.0003552843	-0.02447239	3.312553e-07	-5.293839e-07
	-4.149079e-07	-2.990441e-07	0.09283143	-0.006191857	3.312553e-07	-5.293839e-07	9.171156e-05	-0.024646
3.7e+08	0.0005448268	-0.02494496	7.930354e-07	-1.833225e-06	0.09355936	-0.0111231	-4.417133e-07	-2.693379e-07
	7.930354e-07	-1.833225e-06	0.0001935221	-0.02482806	-4.116726e-07	4.274593e-07	0.093432	-0.0104048
	0.09355936	-0.0111231	-4.116726e-07	4.274593e-07	0.001413068	-0.02432913	2.787187e-07	-5.026352e-07
	-4.417133e-07	-2.693379e-07	0.093432	-0.0104048	2.787187e-07	-5.026352e-07	0.001148634	-0.02452739
3.8e+08	0.001758517	-0.0249242	6.786404e-07	-1.74675e-06	0.09394603	-0.01540685	-4.648066e-07	-2.386435e-07
	6.786404e-07	-1.74675e-06	0.001406579	-0.02481577	-4.310989e-07	4.684995e-07	0.09374499	-0.0146733
	0.09394603	-0.01540685	-4.310989e-07	4.684995e-07	0.002638763	-0.02432913	2.278278e-07	-4.746132e-07
	-4.648066e-07	-2.386435e-07	0.09374499	-0.0146733	2.278278e-07	-4.746132e-07	0.002371357	-0.02455615
3.9e+08	0.003129887	-0.02506789	5.695584e-07	-1.65837e-06	0.09404732	-0.01973015	-4.843603e-07	-2.072704e-07
	5.695584e-07	-1.65837e-06	0.002775719	-0.02497166	-4.49812e-07	5.105822e-07	0.09376849	-0.01897668
	0.09404732	-0.01973015	-4.49812e-07	5.105822e-07	0.004019875	-0.02449428	1.785437e-07	-4.453482e-07
	-4.843603e-07	-2.072704e-07	0.09376849	-0.01897668	1.785437e-07	-4.453482e-07	0.003746783	-0.02475418
4e+08	0.004647495	-0.02539889	4.653486e-07	-1.565517e-06	0.09386149	-0.02407363	-5.018616e-07	-1.747103e-07
	4.653486e-07	-1.565517e-06	0.004288903	-0.02531872	-4.673965e-07	5.536616e-07	0.0935011	-0.02329518
	0.09386149	-0.02407363	-4.673965e-07	5.536616e-07	0.00554517	-0.02484782	1.311673e-07	-4.140063e-07
	-5.018616e-07	-1.747103e-07	0.0935011	-0.02329518	1.311673e-07	-4.140063e-07	0.005263037	-0.02514474
4.1e+08	0.006303088	-0.02594225	3.654778e-07	-1.460894e-06	0.09338691	-0.02841883	-5.189921e-07	-1.394082e-07
	3.654778e-07	-1.460894e-06	0.005937266	-0.02588217	-4.825411e-07	5.976538e-07	0.09294149	-0.02760996
	0.09338691	-0.02841883	-4.825411e-07	5.976538e-07	0.007205922	-0.02541482	8.680718e-08	-3.78434e-07
	-5.189921e-07	-1.394082e-07	0.09294149	-0.02760996	8.680718e-08	-3.78434e-07	0.006910631	-0.02575292
4.2e+08	0.008064653	-0.02671135	2.716772e-07	-1.356328e-06	0.09262757	-0.03274358	-5.296535e-07	-1.054925e-07
	2.716772e-07	-1.356328e-06	0.007688228	-0.02667505	-4.968222e-07	6.425009e-07	0.09209406	-0.03189856
	0.09262757	-0.03274358	-4.968222e-07	6.425009e-07	0.008970204	-0.02620814	4.407212e-08	-3.425774e-07
	-5.296535e-07	-1.054925e-07	0.09209406	-0.03189856	4.407212e-08	-3.425774e-07	0.008657104	-0.02659126
4.3e+08	0.009911466	-0.02772295	1.838017e-07	-1.251704e-06	0.09158647	-0.03702852	-5.35352e-07	-7.305488e-08
	1.838017e-07	-1.251704e-06	0.009520484	-0.02771393	-5.10196e-07	6.881459e-07	0.09096224	-0.03614133
	0.09158647	-0.03702852	-5.10196e-07	6.881459e-07	0.01081749	-0.02724451	2.936131e-09	-3.063125e-07
	-5.35352e-07	-7.305488e-08	0.09096224	-0.03614133	2.936131e-09	-3.063125e-07	0.01048128	-0.02767624
4.4e+08	0.01182113	-0.02899216	1.017122e-07	-1.146974e-06	0.09026822	-0.04125441	-5.37121e-07	-4.217447e-08
	1.017122e-07	-1.146974e-06	0.01141107	-0.02901377	-5.22623e-07	7.34528e-07	0.08955106	-0.04031879
	0.09026822	-0.04125441	-5.22623e-07	7.34528e-07	0.01272495	-0.02853894	-3.662152e-08	-2.695608e-07
	-5.37121e-07	-4.217447e-08	0.08955106	-0.04031879	-3.662152e-08	-2.695608e-07	0.01235965	-0.02902254
4.5e+08	0.01376849	-0.03053201	2.530484e-08	-1.042136e-06	0.08867884	-0.04540279	-5.35696e-07	-1.293351e-08
	2.530484e-08	-1.042136e-06	0.01333418	-0.03058725	-5.340725e-07	7.815867e-07	0.08786702	-0.04441221
	0.08867884	-0.04540279	-5.340725e-07	7.815867e-07	0.01466756	-0.03010432	-7.461784e-08	-2.322697e-07
	-5.35696e-07	-1.293351e-08	0.08786702	-0.04441221	-7.461784e-08	-2.322697e-07	0.01426656	-0.03064269
4.6e+08	0.01572712	-0.03235363	-4.552667e-08	-9.372186e-07	0.08682553	-0.04945556	-5.316183e-07	1.458144e-08
	-4.552667e-08	-9.372186e-07	0.01526283	-0.03244517	-5.445168e-07	8.292615e-07	0.08591775	-0.04840339
	0.08682553	-0.04945556	-5.445168e-07	8.292615e-07	0.01661949	-0.0319515	-1.110702e-07	-1.944023e-07
	-5.316183e-07	1.458144e-08	0.08591775	-0.04840339	-1.110702e-07	-1.944023e-07	0.01617553	-0.03254705
4.7e+08	0.01767026	-0.03446469	-1.109025e-07	-8.322758e-07	0.08471661	-0.05339584	-5.253125e-07	4.028017e-08
	-1.109025e-07	-8.322758e-07	0.01716967	-0.0345948	-5.539369e-07	8.774942e-07	0.08371211	-0.05227521
	0.08471661	-0.05339584	-5.539369e-07	8.774942e-07	0.01855299	-0.03408859	-1.459986e-07	-1.559385e-07
	-5.253125e-07	4.028017e-08	0.08371211	-0.05227521	-1.459986e-07	-1.559385e-07	0.0180582	-0.03474317
4.8e+08	0.01956905	-0.03687195	-1.709052e-07	-7.273745e-07	0.08236176	-0.05720686	-5.171267e-07	6.406558e-08
	-1.709052e-07	-7.273745e-07	0.01902528	-0.03704236	-5.623114e-07	9.262235e-07	0.08126025	-0.05601086
