!$
! Info: Touchstone file created by Circ.  Input file=Intel_C2M_200G_2in_202204012_staggered.circ
!$
# Hz S RI R 50
0	0.01120307	1.863852e-24	0.9886017	-3.110216e-24	7.55067e-05	2.091809e-22	-0.0001968706	2.41097e-20
	0.9886017	-3.109305e-24	0.01174686	3.234904e-24	-0.0001967337	2.409293e-20	0.0002806353	2.053927e-22
	7.556521e-05	2.093146e-22	-0.000196872	2.410987e-20	0.01119595	1.764952e-24	0.9886021	-3.109986e-24
	-0.000197009	2.412664e-20	0.0002807055	2.055398e-22	0.9886021	-3.110898e-24	0.01175284	3.283474e-24
1e+07	0.01356636	0.001083995	0.9848735	-0.05534094	0.0007815883	0.00406447	-0.0005864043	-0.0006301592
	0.9848735	-0.05534094	0.01354204	0.001107128	-0.0005863787	-0.0006301785	0.0007771824	0.004066396
	0.0007815883	0.00406447	-0.0005863787	-0.0006301785	0.01354068	0.001111228	0.984901	-0.05533654
	-0.0005864043	-0.0006301592	0.0007771824	0.004066396	0.984901	-0.05533654	0.01351746	0.001133709
2e+07	0.0155887	0.0002099993	0.9782867	-0.1085188	0.001553435	0.007783586	-0.0007627282	-0.0009986788
	0.9782867	-0.1085188	0.01567177	0.0004154804	-0.0007626481	-0.0009987059	0.001482285	0.007851018
	0.001553424	0.007783571	-0.0007626688	-0.0009987731	0.01556387	0.0002792228	0.9783222	-0.1085268
	-0.000762746	-0.0009987363	0.001482333	0.007851003	0.9783222	-0.1085268	0.01564146	0.0004861578
3e+07	0.01717589	-0.001501305	0.9693491	-0.1603997	0.002645611	0.01147571	-0.000942118	-0.001347904
	0.9693491	-0.1603997	0.01700941	-0.001385175	-0.0009419852	-0.001348021	0.002610859	0.01148862
	0.002645594	0.0114757	-0.0009420166	-0.001348033	0.0171471	-0.001385677	0.9693892	-0.1604216
	-0.0009421202	-0.00134792	0.002610846	0.0114886	0.9693892	-0.1604216	0.0169903	-0.001272582
4e+07	0.01826643	-0.003677293	0.9579429	-0.2113355	0.004137179	0.01498969	-0.001133486	-0.001675944
	0.9579429	-0.2113355	0.01794782	-0.003470563	-0.001133341	-0.001676114	0.004071941	0.01501122
	0.004137168	0.01498971	-0.001133347	-0.00167612	0.01824426	-0.003516003	0.957985	-0.2113724
	-0.001133489	-0.001675941	0.004071944	0.01501122	0.957985	-0.2113724	0.01794139	-0.003316509
5e+07	0.01898456	-0.006075345	0.9440373	-0.2613392	0.005982386	0.01832624	-0.001339374	-0.001984445
	0.9440373	-0.2613392	0.01852372	-0.005771082	-0.001339195	-0.001984752	0.005882631	0.01836342
	0.005982389	0.01832625	-0.00133919	-0.001984756	0.01897245	-0.005869578	0.9440803	-0.2613921
	-0.001339369	-0.001984448	0.005882638	0.01836342	0.9440803	-0.2613921	0.01853604	-0.00557642
6e+07	0.01938043	-0.008607224	0.9276526	-0.310352	0.008167272	0.02145481	-0.001559348	-0.00227768
	0.9276526	-0.310352	0.01874284	-0.008167832	-0.001559222	-0.002278166	0.008023464	0.02151527
	0.008167293	0.02145481	-0.001559214	-0.002278165	0.01938219	-0.008357398	0.9276946	-0.3104214
	-0.00155934	-0.002277679	0.008023468	0.02151527	0.9276946	-0.3104214	0.0187796	-0.007934794
7e+07	0.0194575	-0.01121133	0.9088365	-0.3582787	0.0106687	0.0243453	-0.001794361	-0.002559675
	0.9088365	-0.3582787	0.01863124	-0.01058975	-0.00179431	-0.002560409	0.0104746	0.02443888
	0.0106687	0.0243453	-0.001794238	-0.002560449	0.01947719	-0.01091843	0.9088746	-0.3583653
	-0.001794345	-0.002559674	0.0104746	0.02443888	0.9088746	-0.3583653	0.0186974	-0.01032137
8e+07	0.01922323	-0.01383363	0.8876506	-0.4050095	0.01346113	0.02697104	-0.002045864	-0.002833513
	0.8876506	-0.4050095	0.01820391	-0.01300022	-0.002045962	-0.002834528	0.01321214	0.02710739
	0.01346114	0.02697104	-0.002045943	-0.002834532	0.01926516	-0.01349897	0.8876839	-0.4051138
	-0.002045845	-0.002833516	0.01321215	0.02710739	0.8876839	-0.4051138	0.01830351	-0.01270007
9e+07	0.0187621	-0.0163523	0.8640977	-0.450514	0.01652403	0.02931033	-0.002322015	-0.003103601
	0.8640977	-0.450514	0.01752806	-0.01528571	-0.002322316	-0.003104891	0.01621602	0.02949936
	0.01652403	0.02931033	-0.002322302	-0.003104895	0.01883075	-0.01597686	0.864122	-0.4506372
	-0.002322002	-0.003103606	0.01621602	0.02949936	0.864122	-0.4506372	0.01766541	-0.01495628
1e+08	0.01804682	-0.01881544	0.8383081	-0.4946004	0.01982346	0.03133731	-0.002620365	-0.003367909
	0.8383081	-0.4946004	0.01655708	-0.01748556	-0.002621011	-0.00336945	0.0194527	0.03159032
	0.01982346	0.03133731	-0.002621011	-0.003369448	0.01814598	-0.01840178	0.8383222	-0.4947426
	-0.002620366	-0.003367907	0.0194527	0.03159032	0.8383222	-0.4947426	0.01673591	-0.01713085
1.1e+08	0.01720136	-0.02123156	0.8102092	-0.5371019	0.02335781	0.03302458	-0.002952093	-0.003610603
	0.8102092	-0.5371019	0.01551816	-0.01963779	-0.002952811	-0.003612346	0.02289848	0.03334971
	0.02335781	0.03302458	-0.002952809	-0.003612346	0.01733526	-0.02078716	0.8102067	-0.5372587
	-0.002952091	-0.003610603	0.02289848	0.03334971	0.8102067	-0.5372587	0.01574685	-0.0192653
1.2e+08	0.01615269	-0.02355444	0.7800303	-0.5779727	0.02704679	0.03435084	-0.003310878	-0.003846511
	0.7800303	-0.5779727	0.01423165	-0.02161345	-0.003312032	-0.003848441	0.02651503	0.03477277
	0.02704679	0.03435084	-0.003312029	-0.003848443	0.01632437	-0.02308147	0.7800101	-0.5781431
	-0.003310876	-0.003846513	0.02651503	0.03477277	0.7800101	-0.5781431	0.0145107	-0.02122973
1.3e+08	0.01490796	-0.02576308	0.7478662	-0.61711	0.03086516	0.03530744	-0.003698267	-0.004071221
	0.7478662	-0.61711	0.01275008	-0.0233944	-0.003699908	-0.004073508	0.03026751	0.03584601
	0.03086516	0.03530744	-0.003699907	-0.00407351	0.0151191	-0.02526575	0.7478284	-0.6172935
	-0.003698265	-0.004071223	0.03026751	0.03584602	0.7478284	-0.6172935	0.01307901	-0.02300595
1.4e+08	0.01348397	-0.02783154	0.7138151	-0.6544206	0.03478135	0.03588682	-0.004116091	-0.004282019
	0.7138151	-0.6544206	0.01111551	-0.02496898	-0.00411856	-0.004284444	0.03412128	0.03656021
	0.03478135	0.03588682	-0.00411856	-0.004284446	0.01373549	-0.02731451	0.7137585	-0.6546137
	-0.00411609	-0.00428202	0.03412128	0.03656021	0.7137585	-0.6546137	0.01149312	-0.02458214
1.5e+08	0.0119084	-0.02972558	0.6779769	-0.6898302	0.03876509	0.03608554	-0.004570662	-0.004478219
	0.6779769	-0.6898302	0.009365519	-0.02631698	-0.004574013	-0.004480778	0.03804591	0.03691229
	0.03876509	0.03608554	-0.004574013	-0.00448078	0.01220134	-0.02919301	0.6779007	-0.6900314
	-0.004570662	-0.004478221	0.03804591	0.03691229	0.6779007	-0.6900314	0.009791446	-0.02593705
1.6e+08	0.0102171	-0.03142498	0.6404493	-0.7232603	0.04278213	0.03589965	-0.005064868	-0.004655211
	0.6404493	-0.7232603	0.007539289	-0.02742709	-0.005069245	-0.00465776	0.04200842	0.03689953
	0.04278213	0.03589965	-0.005069245	-0.004657761	0.01055223	-0.03088082	0.640352	-0.7234691
	-0.005064868	-0.004655212	0.04200842	0.03689953	0.640352	-0.7234691	0.00801234	-0.0270592
1.7e+08	0.008463848	-0.03290875	0.601315	-0.7546495	0.04679772	0.03532632	-0.005600358	-0.004805995
	0.601315	-0.7546495	0.005691626	-0.02828244	-0.005605938	-0.004808241	0.04597592	0.03652015
	0.04679773	0.03532632	-0.005605938	-0.004808242	0.008840773	-0.03235733	0.601196	-0.754864
	-0.005600358	-0.004805996	0.04597592	0.03652015	0.601196	-0.754864	0.006209642	-0.0279318
1.8e+08	0.006658579	-0.03418586	0.5607098	-0.7839132	0.05077706	0.03436929	-0.006178999	-0.004926751
	0.5607098	-0.7839132	0.003835479	-0.02889502	-0.006185839	-0.004928456	0.0499161	0.03577933
	0.05077706	0.03436929	-0.006185839	-0.004928456	0.007077346	-0.03363113	0.5605675	-0.7841318
	-0.006179	-0.004926752	0.0499161	0.03577933	0.5605675	-0.7841318	0.004396162	-0.02856619
1.9e+08	0.004833509	-0.03525586	0.5187469	-0.8109868	0.0546859	0.03303376	-0.00680146	-0.005010798
	0.5187469	-0.8109868	0.002005872	-0.0292663	-0.006809566	-0.005011697	0.05379743	0.03468332
	0.0546859	0.03303376	-0.006809566	-0.005011698	0.005293653	-0.03470197	0.5185823	-0.8112084
	-0.00680146	-0.005010798	0.05379743	0.03468332	0.5185823	-0.8112084	0.002606935	-0.02896354
2e+08	0.003021054	-0.03612226	0.4755398	-0.835813	0.05849094	0.03132768	-0.007467271	-0.005050959
	0.4755398	-0.835813	0.0002398802	-0.02940144	-0.007476565	-0.005050967	0.05758917	0.03324046
	0.05849094	0.03132768	-0.007476565	-0.005050968	0.003521892	-0.03557292	0.4753501	-0.8360353
	-0.007467271	-0.00505096	0.05758917	0.03324045	0.4753501	-0.8360353	0.0008779441	-0.02912842
2.1e+08	0.001280481	-0.03678241	0.4311664	-0.8583551	0.06216017	0.02925897	-0.008174393	-0.005037582
	0.4311664	-0.8583551	-0.001398948	-0.02929886	-0.008184896	-0.005036256	0.06126305	0.03145917
	0.06216017	0.02925897	-0.008184897	-0.005036256	0.001820592	-0.03624172	0.4309523	-0.8585756
	-0.008174393	-0.005037583	0.06126305	0.03145917	0.4309523	-0.8585756	-0.0007271061	-0.02905914
2.2e+08	-0.000392128	-0.03726189	0.3857843	-0.8785485	0.06566149	0.02684382	-0.008920087	-0.00496546
	0.3857843	-0.8785485	-0.002908934	-0.02898902	-0.008931638	-0.004962701	0.06479004	0.02935583
	0.06566149	0.02684382	-0.008931638	-0.004962701	0.000185724	-0.03673353	0.3855448	-0.8787653
	-0.008920087	-0.00496546	0.06479004	0.02935583	0.3855448	-0.8787653	-0.002207061	-0.02878554
2.3e+08	-0.00197189	-0.03757521	0.3395159	-0.896351	0.06896545	0.02409848	-0.009700235	-0.004827766
	0.3395159	-0.896351	-0.004260611	-0.02849094	-0.009712845	-0.004823147	0.06814374	0.02694633
	0.06896545	0.02409848	-0.009712845	-0.004823147	-0.001357774	-0.0370626	0.3392498	-0.8965627
	-0.009700235	-0.004827767	0.06814374	0.02694633	0.3392498	-0.8965627	-0.003532486	-0.02832619
2.4e+08	-0.00343625	-0.03773982	0.2924824	-0.9117302	0.07204406	0.02104161	-0.01050995	-0.004617127
	0.2924824	-0.9117302	-0.005427235	-0.02782713	-0.01052337	-0.0046106	0.07129999	0.02424889
	0.07204406	0.02104161	-0.01052337	-0.0046106	-0.002787804	-0.03724667	0.2921909	-0.9119352
	-0.01050995	-0.004617127	0.07129999	0.02424889	0.2921909	-0.9119352	-0.004676838	-0.02770324
2.5e+08	-0.004765247	-0.03777599	0.2448097	-0.9246579	0.0748712	0.01769388	-0.01134293	-0.004327069
	0.2448097	-0.9246579	-0.006384792	-0.02702355	-0.01135688	-0.004318404	0.07423627	0.02128334
	0.0748712	0.01769388	-0.01135688	-0.004318404	-0.004084592	-0.03730544	0.2444907	-0.9248526
	-0.01134293	-0.004327069	0.07423627	0.02128334	0.2444907	-0.9248526	-0.005616195	-0.026942
2.6e+08	-0.005914249	-0.03770323	0.1965793	-0.9351157	0.0774229	0.01407467	-0.01219069	-0.003949337
	0.1965793	-0.9351157	-0.007085429	-0.02610382	-0.01220496	-0.003938069	0.07693205	0.01806742
	0.0774229	0.01407467	-0.01220496	-0.003938069	-0.005203927	-0.0372586	0.1962346	-0.9352971
	-0.01219069	-0.003949337	0.07693205	0.01806742	0.1962346	-0.9352971	-0.00630302	-0.026066
2.7e+08	-0.006893175	-0.03755134	0.14795	-0.9430781	0.07967677	0.01021122	-0.01304551	-0.003480926
	0.14795	-0.9430781	-0.007536353	-0.02510598	-0.01305973	-0.003467115	0.07936881	0.01462707
	0.07967677	0.01021122	-0.01305973	-0.003467115	-0.006155924	-0.03713586	0.1475794	-0.9432453
	-0.01304551	-0.003480926	0.07936881	0.01462707	0.1475794	-0.9432453	-0.006744512	-0.02511244
2.8e+08	-0.007695381	-0.03734726	0.09905241	-0.9485342	0.08161332	0.006130149	-0.01389827	-0.002918239
	0.09905241	-0.9485342	-0.007728651	-0.02406392	-0.01391215	-0.002901476	0.0815307	0.01098675
	0.08161332	0.006130149	-0.01391215	-0.002901476	-0.006934124	-0.03696349	0.09865643	-0.9486847
	-0.01389827	-0.002918239	0.0815307	0.01098675	0.09865643	-0.9486847	-0.006931684	-0.02411457
2.9e+08	-0.008313433	-0.0371183	0.05001271	-0.9514796	0.08321555	0.001859046	-0.01473912	-0.002257713
	0.05001271	-0.9514796	-0.007654003	-0.02301183	-0.01475233	-0.00223813	0.08340417	0.00717176
	0.08321555	0.001859046	-0.01475233	-0.00223813	-0.007531409	-0.03676903	0.04959213	-0.9516113
	-0.01473912	-0.002257714	0.08340417	0.00717176	0.04959213	-0.9516113	-0.006855983	-0.02310637
3e+08	-0.008743651	-0.0368927	0.0009557878	-0.9519144	0.0844685	-0.00257336	-0.0155576	-0.001497808
	0.0009557878	-0.9519144	-0.007307485	-0.0219853	-0.01556981	-0.001475338	0.08497787	0.003207633
	0.0844685	-0.00257336	-0.01556981	-0.001475338	-0.007944097	-0.03658033	0.0005107527	-0.9520237
	-0.0155576	-0.001497808	0.08497787	0.003207633	0.0005107527	-0.9520237	-0.006512326	-0.0221228
3.1e+08	-0.008985684	-0.03669911	-0.04799537	-0.9498458	0.08536009	-0.007137455	-0.01634287	-0.0006378301
	-0.04799537	-0.9498458	-0.006688574	-0.02102029	-0.01635345	-0.0006122137	0.08624332	-0.0008789012
	0.08536009	-0.007137455	-0.01635345	-0.0006122137	-0.008172101	-0.03642625	-0.04846179	-0.9499295
	-0.01634287	-0.0006378301	0.08624332	-0.0008789014	-0.04846179	-0.9499295	-0.005900256	-0.02119962
3.2e+08	-0.009034025	-0.03656827	-0.09673069	-0.9452825	0.08588001	-0.01180438	-0.01708272	0.0003224768
	-0.09673069	-0.9452825	-0.005791916	-0.02015425	-0.01709126	0.0003512314	0.08719353	-0.005062948
	0.08588001	-0.01180438	-0.01709126	0.0003512314	-0.008210427	-0.03633654	-0.09721982	-0.9453394
	-0.01708272	0.0003224765	0.08719353	-0.005062948	-0.09721982	-0.9453394	-0.005014038	-0.02037348
3.3e+08	-0.008891038	-0.03653103	-0.1451406	-0.9382359	0.08601986	-0.01654406	-0.0177647	0.001381822
	-0.1451406	-0.9382359	-0.004620353	-0.0194252	-0.01777092	0.00141306	0.08782317	-0.009318763
	0.08601986	-0.01654406	-0.01777092	0.001413059	-0.008061545	-0.0363423	-0.1456491	-0.9382641
	-0.0177647	0.001381822	0.08782317	-0.009318763	-0.1456491	-0.9382641	-0.003856208	-0.01968217
3.4e+08	-0.008582716	-0.036613	-0.1930728	-0.928734	0.08577652	-0.02132288	-0.01837923	0.002534845
	-0.1930728	-0.928734	-0.003201966	-0.01886731	-0.01838247	0.002568927	0.08813195	-0.01361684
	0.08577652	-0.02132288	-0.01838247	0.002568927	-0.007751393	-0.0364685	-0.1936016	-0.9287323
	-0.01837923	0.002534845	0.08813195	-0.01361684	-0.1936016	-0.9287323	-0.002454505	-0.01915925
3.5e+08	-0.008123156	-0.03684067	-0.240409	-0.916807	0.08514793	-0.02610935	-0.01891533	0.003777122
	-0.240409	-0.916807	-0.001553084	-0.01851417	-0.0189151	0.003813826	0.08812049	-0.01793106
	0.08514793	-0.02610935	-0.0189151	0.003813825	-0.007294292	-0.03674189	-0.2409527	-0.9167714
	-0.01891533	0.003777122	0.08812049	-0.01793106	-0.2409527	-0.9167714	-0.0008248216	-0.01883888
3.6e+08	-0.007529799	-0.03723928	-0.2870269	-0.902489	0.0841349	-0.03087204	-0.01936241	0.005102656
	-0.2870269	-0.902489	0.0003059452	-0.01839858	-0.01935852	0.005141455	0.08779166	-0.02223541
	0.0841349	-0.03087204	-0.01935852	0.005141455	-0.006707947	-0.03718689	-0.2875844	-0.9024177
	-0.01936241	0.005102656	0.08779166	-0.02223541	-0.2875844	-0.9024177	0.001012992	-0.01875263
3.7e+08	-0.006823114	-0.03783169	-0.3328097	-0.8858188	0.0827407	-0.03558022	-0.01971075	0.006503894
	-0.3328097	-0.8858188	0.002351242	-0.01855065	-0.01970261	0.006544706	0.08715058	-0.02650467
	0.0827407	-0.03558022	-0.01970261	0.006544706	-0.00601294	-0.03782623	-0.3333793	-0.8857111
	-0.01971075	0.006503894	0.08715058	-0.02650467	-0.3333793	-0.8857111	0.003035387	-0.01893086
3.8e+08	-0.006026465	-0.03863906	-0.3776422	-0.8668431	0.08097082	-0.04020327	-0.0199508	0.007973056
	-0.3776422	-0.8668431	0.004555478	-0.01899805	-0.01993837	0.008014846	0.08620428	-0.03071462
	0.08097082	-0.04020327	-0.01993837	0.008014846	-0.00523285	-0.03868102	-0.3782196	-0.8666956
	-0.0199508	0.007973056	0.08620428	-0.03071462	-0.3782196	-0.8666956	0.005215556	-0.01940164
3.9e+08	-0.005166757	-0.03967995	-0.4214073	-0.8456125	0.07883378	-0.04471142	-0.02007486	0.00949972
	-0.4214073	-0.8456125	0.006887338	-0.01976651	-0.02005725	0.009542831	0.08496212	-0.03484201
	0.07883378	-0.04471142	-0.02005725	0.00954283	-0.00439436	-0.03976873	-0.4219912	-0.8454268
	-0.02007486	0.00949972	0.08496212	-0.03484201	-0.4219912	-0.8454268	0.00752256	-0.02018943
4e+08	-0.004270404	-0.04097147	-0.463999	-0.8221815	0.07633913	-0.04907631	-0.02007456	0.01107395
	-0.463999	-0.8221815	0.009315346	-0.02087918	-0.02005191	0.01111748	0.08343424	-0.03886525
	0.07633913	-0.04907631	-0.02005191	0.01111748	-0.00352385	-0.04110665	-0.4645865	-0.8219537
	-0.02007456	0.01107395	0.08343424	-0.03886525	-0.4645865	-0.8219537	0.009925744	-0.02131842
4.1e+08	-0.003361732	-0.04253093	-0.5053305	-0.7965911	0.0734967	-0.05327095	-0.01994156	0.01268434
	-0.5053305	-0.7965911	0.01181024	-0.02235959	-0.01991365	0.01272754	0.08163055	-0.04276462
	0.0734967	-0.05327095	-0.01991365	0.01272754	-0.002646152	-0.04271163	-0.5059196	-0.7963211
	-0.01994156	0.01268434	0.08163055	-0.04276462	-0.5059196	-0.7963211	0.012396	-0.0228117
4.2e+08	-0.002484854	-0.04436109	-0.5452642	-0.7689302	0.07032501	-0.05726704	-0.01967425	0.01431801
	-0.5452642	-0.7689302	0.01432092	-0.02421659	-0.01964063	0.01436047	0.07956846	-0.04651914
	0.07032501	-0.05726704	-0.01964063	0.01436047	-0.001805052	-0.04458586	-0.5458504	-0.7686177
	-0.01967425	0.01431801	0.07956846	-0.04651914	-0.5458504	-0.7686177	0.01488281	-0.0246784
4.3e+08	-0.001673774	-0.04646709	-0.5836971	-0.7392704	0.06684093	-0.06103941	-0.01926859	0.01596287
	-0.5836971	-0.7392704	0.01680671	-0.02646074	-0.01922956	0.01600388	0.07726363	-0.05011075
	0.06684093	-0.06103941	-0.01922956	0.01600388	-0.00103437	-0.04673432	-0.5842779	-0.7389147
	-0.01926859	0.01596287	0.07726363	-0.05011075	-0.5842779	-0.7389147	0.01734566	-0.02692929
4.4e+08	-0.0009635044	-0.04885066	-0.6205292	-0.7076893	0.06306356	-0.06456442	-0.01872269	0.01760584
	-0.6205292	-0.7076893	0.0192251	-0.02909836	-0.0186779	0.01764479	0.07473279	-0.05352369
	0.06306356	-0.06456442	-0.0186779	0.01764479	-0.0003693971	-0.04915816	-0.6211011	-0.7072909
	-0.01872269	0.01760584	0.07473279	-0.05352369	-0.6211011	-0.7072909	0.01974282	-0.02957093
4.5e+08	-0.0003906145	-0.05150903	-0.6556611	-0.674273	0.05901384	-0.0678204	-0.01803585	0.01923384
	-0.6556611	-0.674273	0.02153208	-0.03213134	-0.01798538	0.01927015	0.07199433	-0.05674377
	0.05901384	-0.0678204	-0.01798538	0.01927015	0.0001535033	-0.05185436	-0.656221	-0.6738313
	-0.01803585	0.01923384	0.07199433	-0.05674378	-0.656221	-0.6738313	0.02203061	-0.03260549
4.6e+08	8.107453e-06	-0.05443584	-0.688999	-0.6391101	0.05471424	-0.07078736	-0.01720826	0.020834
	-0.688999	-0.6391101	0.02368318	-0.03555724	-0.01715262	0.02086684	0.06906712	-0.05975901
	0.05471424	-0.07078736	-0.01715262	0.02086684	0.0004982573	-0.0548163	-0.6895443	-0.6386245
	-0.01720826	0.020834	0.06906712	-0.05975901	-0.6895443	-0.6386245	0.02416489	-0.03603086
4.7e+08	0.0001974129	-0.05762016	-0.7204584	-0.6022948	0.05018847	-0.07344771	-0.01624257	0.02239302
	-0.7204584	-0.6022948	0.02563427	-0.03936814	-0.01618168	0.02242187	0.06597065	-0.062559
	0.05018847	-0.07344771	-0.01618168	0.02242187	0.0006286965	-0.05803272	-0.7209841	-0.6017656
	-0.01624257	0.02239302	0.06597065	-0.062559	-0.7209841	-0.6017656	0.02610172	-0.03983985
4.8e+08	0.0001410784	-0.06104785	-0.749951	-0.5639236	0.04546186	-0.07578554	-0.01514146	0.0238988
	-0.749951	-0.5639236	0.02734099	-0.04355283	-0.01507602	0.02392269	0.06272512	-0.06513557
	0.04546186	-0.07578554	-0.01507602	0.02392269	0.0005096326	-0.06148856	-0.7504561	-0.5633537
	-0.01514146	0.0238988	0.06272512	-0.06513557	-0.7504561	-0.5633537	0.0277972	-0.04402086
4.9e+08	-0.0001959481	-0.06469949	-0.7773968	-0.5241053	0.04056051	-0.07778785	-0.01391025	0.02533881
	-0.7773968	-0.5241053	0.02875949	-0.04809374	-0.01384024	0.02535741	0.05935098	-0.06748269
	0.04056051	-0.07778785	-0.01384024	0.02535741	0.0001061299	-0.06516463	-0.777879	-0.5234926
	-0.01391025	0.02533881	0.05935098	-0.06748269	-0.777879	-0.5234926	0.02920765	-0.04855779
5e+08	-0.0008458113	-0.06855226	-0.8027269	-0.4829444	0.03551123	-0.07944329	-0.01255383	0.02670174
	-0.8027269	-0.4829444	0.02984821	-0.05296996	-0.01248023	0.0267144	0.0558685	-0.06959611
	0.03551123	-0.07944329	-0.01248023	0.0267144	-0.0006142611	-0.06903754	-0.80318	-0.4822921
	-0.01255383	0.02670174	0.0558685	-0.06959611	-0.80318	-0.4822921	0.03029118	-0.05342965
5.1e+08	-0.001840187	-0.07258179	-0.8258804	-0.4405236	0.03033829	-0.08074158	-0.01107799	0.02797472
	-0.8258804	-0.4405236	0.03056698	-0.0581589	-0.01100127	0.02798084	0.05229451	-0.07147314
	0.03033829	-0.08074158	-0.01100127	0.02798084	-0.001682079	-0.07308261	-0.8263046	-0.4398337
	-0.01107799	0.02797472	0.05229451	-0.07147314	-0.8263046	-0.4398337	0.03100848	-0.05861425
