!$
! Info: Touchstone file created by Circ.  Input file=Intel_C2M_200G_0p5in_202204012_staggered.circ
!$
# Hz S RI R 50
0	0.00827718	9.956132e-25	2.113292e-05	8.674799e-24	6.371604e-05	1.87501e-22	2.112493e-05	8.622329e-24
	2.113292e-05	8.674799e-24	0.008290519	1.21331e-24	2.11379e-05	8.68636e-24	6.330216e-05	1.868452e-22
	6.377491e-05	1.876355e-22	2.11379e-05	8.687001e-24	0.00826686	1.008147e-24	2.112779e-05	8.630222e-24
	2.112493e-05	8.62297e-24	6.336102e-05	1.869797e-22	2.112779e-05	8.630222e-24	0.008283362	1.151123e-24
1e+07	0.009876765	0.001487584	7.226478e-07	6.883173e-06	0.0005261032	0.003279626	2.877279e-06	5.758328e-06
	7.226478e-07	6.883173e-06	0.009919461	0.001498222	6.978536e-07	5.828668e-06	0.0005312552	0.003342016
	0.0005261032	0.003279626	6.978536e-07	5.828668e-06	0.009894495	0.001542687	6.563204e-07	5.511063e-06
	2.877279e-06	5.758328e-06	0.0005312552	0.003342016	6.563204e-07	5.511063e-06	0.009904283	0.00152867
2e+07	0.01119299	0.00167599	9.938046e-07	4.134601e-06	0.0009419968	0.006320308	2.296906e-06	3.086009e-06
	9.938046e-07	4.134601e-06	0.01124549	0.001683102	4.958645e-07	2.081961e-06	0.0009525599	0.006444206
	0.0009419867	0.006320292	4.958648e-07	2.081961e-06	0.01122257	0.001774012	7.80375e-07	1.804023e-06
	2.296906e-06	3.086009e-06	0.0009525499	0.00644419	7.80375e-07	1.804023e-06	0.01123244	0.001752713
3e+07	0.01232238	0.00138364	1.825101e-06	3.461416e-06	0.001470119	0.009392968	1.903094e-06	2.53512e-06
	1.825101e-06	3.461416e-06	0.01238212	0.001383769	3.815462e-07	1.21736e-06	0.001488877	0.009577292
	0.001470102	0.009392964	3.815462e-07	1.21736e-06	0.01235319	0.001527553	9.115454e-07	9.111624e-07
	1.903094e-06	2.53512e-06	0.00148886	0.009577288	9.115454e-07	9.111624e-07	0.01236335	0.001496074
4e+07	0.01315496	0.0007618493	2.540137e-06	2.979306e-06	0.00220641	0.0123833	1.595067e-06	2.264651e-06
	2.540137e-06	2.979306e-06	0.01321938	0.0007530271	2.876029e-07	8.147238e-07	0.002235956	0.01262693
	0.002206397	0.01238331	2.876029e-07	8.147238e-07	0.0131936	0.0009502928	1.020748e-06	4.697565e-07
	1.595067e-06	2.264651e-06	0.002235943	0.01262695	1.020748e-06	4.697565e-07	0.0132032	0.0009078399
5e+07	0.01378414	-1.227179e-05	3.140607e-06	2.517601e-06	0.003114827	0.01531348	1.326272e-06	2.094409e-06
	3.140607e-06	2.517601e-06	0.01385113	-3.111638e-05	2.029464e-07	5.881492e-07	0.003157745	0.01561519
	0.003114829	0.01531349	2.029464e-07	5.881492e-07	0.01383074	0.0002190999	1.114273e-06	1.994547e-07
	1.326272e-06	2.094409e-06	0.003157747	0.01561521	1.114273e-06	1.994547e-07	0.01383895	0.0001654543
6e+07	0.01424809	-0.0008909486	3.63963e-06	2.014391e-06	0.004195924	0.01817614	1.059709e-06	1.965283e-06
	3.63963e-06	2.014391e-06	0.01431583	-0.000920492	2.101e-07	4.283621e-07	0.004254734	0.01853448
	0.004195946	0.01817614	2.101001e-07	4.283621e-07	0.01430325	-0.0006169866	1.197763e-06	1.95677e-08
	1.059709e-06	1.965283e-06	0.004254756	0.01853448	1.197763e-06	1.956769e-08	0.01430941	-0.0006817916
7e+07	0.01454328	-0.001842177	4.049861e-06	1.449973e-06	0.005443779	0.02096201	6.825479e-07	1.885881e-06
	4.049861e-06	1.449973e-06	0.01461011	-0.001882859	2.310524e-07	3.125929e-07	0.005520907	0.02137529
	0.005443784	0.02096201	2.310527e-07	3.12593e-07	0.01460801	-0.001526243	1.276065e-06	-1.016004e-07
	6.825482e-07	1.885881e-06	0.005520912	0.02137529	1.276065e-06	-1.016005e-07	0.01461163	-0.001601922
8e+07	0.01466837	-0.002833882	4.39114e-06	8.652354e-07	0.006852087	0.02366323	6.541345e-07	1.717982e-06
	4.39114e-06	8.652353e-07	0.01473279	-0.002885895	2.69962e-07	2.221759e-07	0.006949837	0.02412952
	0.006852091	0.02366324	2.699621e-07	2.221759e-07	0.014744	-0.002476424	1.344293e-06	-2.057063e-07
	6.541346e-07	1.717982e-06	0.006949841	0.02412952	1.344293e-06	-2.057063e-07	0.01474477	-0.00256257
9e+07	0.01467004	-0.003784016	4.546384e-06	2.684766e-08	0.008418352	0.02627521	6.688196e-07	1.414234e-06
	4.546384e-06	2.684764e-08	0.01473071	-0.003848112	2.905941e-07	1.722587e-07	0.008538866	0.02679234
	0.008418355	0.02627521	2.905942e-07	1.722587e-07	0.01475761	-0.003386148	1.422327e-06	-2.439104e-07
	6.688197e-07	1.414234e-06	0.008538868	0.02679234	1.422327e-06	-2.439104e-07	0.01475581	-0.003481969
1e+08	0.01453263	-0.004728144	4.698705e-06	-6.591947e-07	0.0101338	0.02878731	1.011627e-06	1.011789e-06
	4.698705e-06	-6.591947e-07	0.01458839	-0.00480422	3.143129e-07	1.211708e-07	0.01027906	0.02935293
	0.0101338	0.02878731	3.143129e-07	1.211708e-07	0.01463319	-0.004290775	1.492171e-06	-2.896059e-07
	1.011627e-06	1.011789e-06	0.01027906	0.02935293	1.492171e-06	-2.896059e-07	0.01462905	-0.004395847
1.1e+08	0.01431653	-0.00567641	4.246963e-06	-1.370006e-06	0.01201673	0.03119921	9.225558e-07	7.591385e-07
	4.246963e-06	-1.370006e-06	0.01436267	-0.005761575	2.963625e-07	1.224392e-07	0.01218818	0.03181101
	0.01201673	0.03119921	2.963625e-07	1.224392e-07	0.0144279	-0.005199923	1.461107e-06	-2.748053e-07
	9.225558e-07	7.591385e-07	0.01218818	0.03181101	1.461107e-06	-2.748053e-07	0.01442152	-0.005315181
1.2e+08	0.01399258	-0.006600828	3.927096e-06	-1.744185e-06	0.01402194	0.0334803	8.461207e-07	5.602292e-07
	3.927096e-06	-1.744185e-06	0.01402778	-0.006694158	2.830712e-07	1.227701e-07	0.01422099	0.0341358
	0.01402194	0.0334803	2.830712e-07	1.227701e-07	0.0141161	-0.006084555	1.439065e-06	-2.580268e-07
	8.461207e-07	5.602292e-07	0.01422099	0.0341358	1.439065e-06	-2.580268e-07	0.01410687	-0.006209376
1.3e+08	0.01355242	-0.007494788	3.702288e-06	-1.907833e-06	0.01614915	0.03563172	7.826629e-07	4.07311e-07
	3.702288e-06	-1.907833e-06	0.01357596	-0.007594481	2.704453e-07	1.187306e-07	0.01637704	0.03632832
	0.01614915	0.03563172	2.704453e-07	1.187306e-07	0.01368985	-0.006938642	1.414679e-06	-2.531019e-07
	7.826629e-07	4.07311e-07	0.01637704	0.03632832	1.414679e-06	-2.531019e-07	0.01367686	-0.007072584
1.4e+08	0.01299416	-0.008343382	3.542046e-06	-1.950428e-06	0.01839271	0.03765119	7.300196e-07	2.894802e-07
	3.542046e-06	-1.950428e-06	0.01300582	-0.008447177	2.569195e-07	1.111728e-07	0.0186505	0.03838615
	0.01839271	0.03765119	2.569195e-07	1.111728e-07	0.01314757	-0.007747134	1.379652e-06	-2.672104e-07
	7.300196e-07	2.894802e-07	0.0186505	0.03838615	1.379652e-06	-2.672104e-07	0.01312983	-0.007889736
1.5e+08	0.01232405	-0.009121096	3.392936e-06	-1.985671e-06	0.02074734	0.03953676	6.801905e-07	1.897232e-07
	3.392936e-06	-1.985671e-06	0.01232325	-0.009227383	2.439096e-07	1.068148e-07	0.02103584	0.04030723
	0.02074734	0.03953676	2.439096e-07	1.068148e-07	0.01249461	-0.008485826	1.347063e-06	-2.815882e-07
	6.801905e-07	1.897232e-07	0.02103584	0.04030723	1.347063e-06	-2.815882e-07	0.01247185	-0.008635894
1.6e+08	0.01155505	-0.009810022	3.255465e-06	-2.009095e-06	0.02320527	0.04128385	6.323608e-07	1.039416e-07
	3.255465e-06	-2.009095e-06	0.01154156	-0.009917044	2.305029e-07	1.039182e-07	0.02352509	0.04208689
	0.02320527	0.04128385	2.305029e-07	1.039182e-07	0.01174401	-0.009136455	1.315195e-06	-2.966398e-07
	6.323608e-07	1.039416e-07	0.02352509	0.04208689	1.315195e-06	-2.966398e-07	0.01171614	-0.009292743
1.7e+08	0.01071254	-0.01038806	3.140245e-06	-1.993455e-06	0.0257584	0.04288711	5.84421e-07	2.89246e-08
	3.140245e-06	-1.993455e-06	0.01068687	-0.01049385	2.149507e-07	9.852668e-08	0.02610991	0.04371976
	0.0257584	0.04288711	2.149507e-07	9.852668e-08	0.01092121	-0.009676884	1.277872e-06	-3.136715e-07
	5.84421e-07	2.892459e-08	0.02610992	0.04371976	1.277872e-06	-3.136715e-07	0.01088816	-0.009838362
1.8e+08	0.009796385	-0.01085643	3.045332e-06	-1.967395e-06	0.02839808	0.04434298	5.387934e-07	-3.621317e-08
	3.045332e-06	-1.967395e-06	0.009758767	-0.01095925	2.011525e-07	9.641516e-08	0.02878141	0.04520219
	0.02839808	0.04434298	2.011525e-07	9.641515e-08	0.01002577	-0.01010861	1.241999e-06	-3.306803e-07
	5.387934e-07	-3.621318e-08	0.02878141	0.04520219	1.241999e-06	-3.306803e-07	0.009987953	-0.01027391
1.9e+08	0.008820559	-0.0112066	2.971559e-06	-1.93199e-06	0.03111541	0.04564786	4.951747e-07	-9.332801e-08
	2.971559e-06	-1.93199e-06	0.008771486	-0.01130468	1.886764e-07	9.624098e-08	0.03153044	0.04653058
	0.03111541	0.04564786	1.886764e-07	9.624098e-08	0.00907156	-0.01042337	1.207237e-06	-3.476438e-07
	4.951747e-07	-9.332801e-08	0.03153044	0.04653058	1.207237e-06	-3.476438e-07	0.009029648	-0.01059115
2e+08	0.007800234	-0.01143128	2.916577e-06	-1.890503e-06	0.03390147	0.04679864	4.53027e-07	-1.438911e-07
	2.916577e-06	-1.890503e-06	0.007740486	-0.0115229	1.772573e-07	9.723928e-08	0.03434787	0.04770182
	0.03390147	0.04679864	1.772573e-07	9.723928e-08	0.008073609	-0.01061344	1.173033e-06	-3.644343e-07
	4.530271e-07	-1.438911e-07	0.03434787	0.04770182	1.173033e-06	-3.644343e-07	0.008028488	-0.01078243
2.1e+08	0.006769315	-0.01151347	2.810842e-06	-1.884673e-06	0.03674786	0.04779172	4.071062e-07	-1.88194e-07
	2.810842e-06	-1.884673e-06	0.006700334	-0.01159712	1.663554e-07	1.039336e-07	0.03722504	0.04871231
	0.03674786	0.04779172	1.663554e-07	1.039336e-07	0.007066307	-0.01066218	1.134587e-06	-3.788415e-07
	4.071062e-07	-1.88194e-07	0.03722504	0.04871231	1.134587e-06	-3.788415e-07	0.007018973	-0.0108314
2.2e+08	0.005722221	-0.01146311	2.713604e-06	-1.877991e-06	0.03964449	0.0486258	3.630716e-07	-2.264488e-07
	2.713604e-06	-1.877991e-06	0.005645237	-0.01153727	1.552076e-07	1.109264e-07	0.04015164	0.04956079
	0.03964449	0.0486258	1.552076e-07	1.109264e-07	0.006043315	-0.01057956	1.097044e-06	-3.92985e-07
	3.630716e-07	-2.264488e-07	0.04015164	0.04956079	1.097044e-06	-3.92985e-07	0.005995135	-0.01074791
2.3e+08	0.0046728	-0.0112774	2.624104e-06	-1.870912e-06	0.0425823	0.04929963	3.206803e-07	-2.595408e-07
	2.624104e-06	-1.870912e-06	0.004589278	-0.01134071	1.437659e-07	1.182259e-07	0.04311835	0.05024605
	0.0425823	0.04929963	1.437659e-07	1.182259e-07	0.0050186	-0.01036247	1.060196e-06	-4.067866e-07
	3.206803e-07	-2.595408e-07	0.04311835	0.05024605	1.060196e-06	-4.067866e-07	0.004971162	-0.01052896
2.4e+08	0.003634891	-0.01095476	2.541639e-06	-1.863882e-06	0.04555192	0.04981236	2.797284e-07	-2.881781e-07
	2.541639e-06	-1.863882e-06	0.003546508	-0.01100598	1.319844e-07	1.258287e-07	0.04611561	0.05076734
	0.04555192	0.04981236	1.319844e-07	1.258287e-07	0.004006098	-0.0100098	1.023871e-06	-4.201851e-07
	2.797284e-07	-2.881781e-07	0.04611561	0.05076734	1.023871e-06	-4.201851e-07	0.003961204	-0.0101736
2.5e+08	0.002622391	-0.01049495	2.46556e-06	-1.857297e-06	0.04854422	0.05016364	2.400428e-07	-3.129287e-07
	2.46556e-06	-1.857297e-06	0.002531049	-0.01053302	1.198236e-07	1.337301e-07	0.04913407	0.05112433
	0.04854422	0.05016364	1.198236e-07	1.337301e-07	0.003019447	-0.009520873	9.879177e-07	-4.331236e-07
	2.400428e-07	-3.129287e-07	0.04913407	0.05112433	9.879177e-07	-4.331236e-07	0.002979077	-0.009681366
2.6e+08	0.00167	-0.009891223	2.366758e-06	-1.853074e-06	0.05155122	0.05035278	1.972066e-07	-3.338966e-07
	2.366758e-06	-1.853074e-06	0.001577964	-0.009915554	1.109625e-07	1.44929e-07	0.05216551	0.05131646
	0.05155122	0.05035278	1.109625e-07	1.44929e-07	0.002093634	-0.008889332	9.4937e-07	-4.430562e-07
	1.972066e-07	-3.338966e-07	0.05216551	0.05131646	9.4937e-07	-4.430562e-07	0.002059922	-0.009046294
2.7e+08	0.0007742232	-0.009153401	2.26874e-06	-1.849182e-06	0.05456299	0.05038123	1.557164e-07	-3.509521e-07
	2.26874e-06	-1.849182e-06	0.0006837778	-0.009163404	1.026643e-07	1.568529e-07	0.05519982	0.05134528
	0.05456299	0.05038123	1.026643e-07	1.568529e-07	0.001225012	-0.00812496	9.110411e-07	-4.521541e-07
	1.557164e-07	-3.509521e-07	0.05519982	0.05134528	9.110411e-07	-4.521541e-07	0.001200263	-0.008278258
2.8e+08	-5.443478e-05	-0.008285981	2.174758e-06	-1.845427e-06	0.05757071	0.05025054	1.159946e-07	-3.645757e-07
	2.174758e-06	-1.845427e-06	-0.0001409121	-0.008281294	9.452951e-08	1.690683e-07	0.05822801	0.05121249
	0.05757071	0.05025054	9.452951e-08	1.690683e-07	0.0004236719	-0.007231993	8.732243e-07	-4.607347e-07
	1.159946e-07	-3.645757e-07	0.05822801	0.05121249	8.732243e-07	-4.607347e-07	0.0004103553	-0.007381687
2.9e+08	-0.0008029499	-0.00729301	2.084311e-06	-1.841859e-06	0.06056594	0.04996272	7.786057e-08	-3.751665e-07
	2.084311e-06	-1.841859e-06	-0.0008829318	-0.007273495	8.663237e-08	1.81529e-07	0.06124142	0.05092021
	0.06056594	0.04996272	8.663237e-08	1.81529e-07	-0.0002971106	-0.006214792	8.358172e-07	-4.687816e-07
	7.786057e-08	-3.751665e-07	0.06124142	0.05092021	8.358172e-07	-4.687816e-07	-0.000296417	-0.00636123
3e+08	-0.001458825	-0.006179767	1.996929e-06	-1.8385e-06	0.06354015	0.04951989	4.116401e-08	-3.830483e-07
	1.996929e-06	-1.8385e-06	-0.001529686	-0.006145578	7.904711e-08	1.941737e-07	0.0642314	0.05047071
	0.06354015	0.04951989	7.904711e-08	1.941737e-07	-0.0009249234	-0.00507834	7.987254e-07	-4.762814e-07
	4.116401e-08	-3.830483e-07	0.0642314	0.05047071	7.987254e-07	-4.762814e-07	-0.0009075381	-0.005222175
3.1e+08	-0.002009952	-0.004952413	1.912189e-06	-1.835371e-06	0.06648539	0.0489249	5.78085e-09	-3.884855e-07
	1.912189e-06	-1.835371e-06	-0.002068978	-0.004903979	7.184193e-08	2.06922e-07	0.0671898	0.04986702
	0.06648539	0.0489249	7.184193e-08	2.06922e-07	-0.00144736	-0.003829084	7.618704e-07	-4.832314e-07
	5.78085e-09	-3.884855e-07	0.0671898	0.04986702	7.618704e-07	-4.832314e-07	-0.001410534	-0.003971248
3.2e+08	-0.002436103	-0.003617526	1.823407e-06	-1.828705e-06	0.06939422	0.04818031	-3.029479e-08	-3.913296e-07
	1.823407e-06	-1.828705e-06	-0.002480481	-0.003555701	6.374704e-08	2.196655e-07	0.07010906	0.04911184
	0.06939422	0.04818031	6.374705e-08	2.196655e-07	-0.001844976	-0.002473424	7.244281e-07	-4.880984e-07
	-3.029479e-08	-3.913296e-07	0.07010906	0.04911184	7.244281e-07	-4.880984e-07	-0.001785938	-0.002615278
3.3e+08	-0.002720681	-0.002183915	1.726944e-06	-1.815864e-06	0.07225893	0.04728897	-6.741492e-08	-3.911238e-07
	1.726944e-06	-1.815864e-06	-0.002747553	-0.002109984	5.33338e-08	2.325196e-07	0.07298132	0.04820818
	0.07225893	0.04728897	5.33338e-08	2.325196e-07	-0.002100665	-0.001020455	6.861822e-07	-4.899337e-07
	-6.741492e-08	-3.911238e-07	0.07298132	0.04820818	6.861822e-07	-4.899337e-07	-0.002016686	-0.00116375
3.4e+08	-0.002867279	-0.0006626729	1.633233e-06	-1.802879e-06	0.07507209	0.04625613	-1.022392e-07	-3.886021e-07
	1.633233e-06	-1.802879e-06	-0.002873884	-0.0005780221	4.25285e-08	2.455745e-07	0.07579906	0.0471615
	0.07507209	0.04625613	4.25285e-08	2.455745e-07	-0.002218413	0.0005191562	6.484436e-07	-4.912955e-07
	-1.022392e-07	-3.886021e-07	0.07579906	0.0471615	6.484436e-07	-4.912955e-07	-0.002106734	0.0003724765
3.5e+08	-0.002866403	0.0009362856	1.541936e-06	-1.789677e-06	0.07782666	0.04508601	-1.350086e-07	-3.840523e-07
	1.541936e-06	-1.789677e-06	-0.00284997	0.001029958	3.132217e-08	2.588458e-07	0.07855508	0.04597621
	0.07782666	0.04508601	3.132217e-08	2.588458e-07	-0.002188305	0.002135163	6.111361e-07	-4.921479e-07
	-1.350086e-07	-3.840523e-07	0.07855508	0.04597621	6.111361e-07	-4.921479e-07	-0.002046212	0.001982816
3.6e+08	-0.002709064	0.002602195	1.452773e-06	-1.776159e-06	0.080516	0.0437835	-1.659177e-07	-3.777076e-07
	1.452773e-06	-1.776159e-06	-0.002666889	0.002702901	1.970827e-08	2.723484e-07	0.08124272	0.04465737
	0.080516	0.0437835	1.970827e-08	2.723484e-07	-0.002001912	0.003816935	5.741936e-07	-4.924664e-07
	-1.659177e-07	-3.777076e-07	0.08124272	0.04465737	5.741936e-07	-4.924664e-07	-0.001826765	0.003656324
3.7e+08	-0.002387557	0.004323951	1.365483e-06	-1.762231e-06	0.08313421	0.04235352	-1.951252e-07	-3.697552e-07
	1.365483e-06	-1.762231e-06	-0.002317022	0.004429345	7.678858e-09	2.861024e-07	0.08385595	0.04321011
	0.08313421	0.04235352	7.678858e-09	2.861024e-07	-0.001651399	0.005553283	5.375565e-07	-4.922223e-07
	-1.951252e-07	-3.697552e-07	0.08385595	0.04321011	5.375565e-07	-4.922223e-07	-0.001440671	0.005381456
3.8e+08	-0.001894544	0.006089608	1.279839e-06	-1.7478e-06	0.08567523	0.04080114	-2.227565e-07	-3.60349e-07
	1.279839e-06	-1.7478e-06	-0.001793122	0.006197032	-4.772264e-09	3.001276e-07	0.08638867	0.04163972
	0.08567523	0.04080114	-4.772264e-09	3.001276e-07	-0.001129276	0.007332077	5.011761e-07	-4.913832e-07
	-2.227565e-07	-3.60349e-07	0.08638867	0.04163972	5.011761e-07	-4.913832e-07	-0.0008805664	0.007145718
3.9e+08	-0.001223984	0.007885954	1.195657e-06	-1.732758e-06	0.0881338	0.03913224	-2.489108e-07	-3.496188e-07
	1.195657e-06	-1.732758e-06	-0.00108929	0.007992432	-1.765033e-08	3.144453e-07	0.08883557	0.03995227
	0.0881338	0.03913224	-1.765033e-08	3.144453e-07	-0.000430094	0.009140642	4.650155e-07	-4.89927e-07
	-2.489108e-07	-3.496188e-07	0.08883557	0.03995227	4.650155e-07	-4.89927e-07	-0.0001411865	0.008936132
4e+08	-0.0003671244	0.009699091	1.111609e-06	-1.71435e-06	0.09050486	0.03735194	-2.755953e-07	-3.37066e-07
	1.111609e-06	-1.71435e-06	-0.000196961	0.009801262	-3.089529e-08	3.292147e-07	0.09119154	0.03815305
	0.09050486	0.03735194	-3.089529e-08	3.292147e-07	0.0004553922	0.01096499	4.290081e-07	-4.869043e-07
	-2.755953e-07	-3.37066e-07	0.09119154	0.03815305	4.290081e-07	-4.869043e-07	0.0007865033	0.01073831
4.1e+08	0.0006911039	0.01151235	1.024431e-06	-1.684308e-06	0.09278332	0.03546477	-3.061826e-07	-3.208341e-07
	1.024431e-06	-1.684308e-06	0.0008987307	0.01160632	-4.431816e-08	3.449501e-07	0.09345143	0.03624685
	0.09278332	0.03546477	-4.431816e-08	3.449501e-07	0.001542041	0.012788	3.932407e-07	-4.796339e-07
	-3.061826e-07	-3.208341e-07	0.09345143	0.03624685	3.932407e-07	-4.796339e-07	0.001917041	0.01253466
4.2e+08	0.001939015	0.01331412	9.394561e-07	-1.654228e-06	0.09496526	0.03347879	-3.31681e-07	-3.038338e-07
	9.394561e-07	-1.654228e-06	0.002185869	0.01339599	-5.818191e-08	3.611284e-07	0.09561136	0.03424191
	0.09496526	0.03347879	-5.818191e-08	3.611284e-07	0.002817945	0.01459849	3.579444e-07	-4.72169e-07
	-3.31681e-07	-3.038338e-07	0.09561136	0.03424191	3.579444e-07	-4.72169e-07	0.003238339	0.01431388
4.3e+08	0.003378778	0.01509052	8.564934e-07	-1.623917e-06	0.09704681	0.03140009	-3.534215e-07	-2.862798e-07
	8.564934e-07	-1.623917e-06	0.003666376	0.01515613	-7.246779e-08	3.777829e-07	0.09766745	0.03214454
	0.09704681	0.03140009	-7.246779e-08	3.777829e-07	0.004285482	0.01638269	3.23061e-07	-4.644074e-07
	-3.534215e-07	-2.862798e-07	0.09766745	0.03214454	3.23061e-07	-4.644073e-07	0.004752479	0.01606193
4.4e+08	0.005011841	0.01682751	7.753862e-07	-1.593217e-06	0.09902447	0.02923521	-3.722918e-07	-2.682931e-07
	7.753862e-07	-1.593217e-06	0.00534145	0.0168724	-8.71513e-08	3.949462e-07	0.09961622	0.02996148
	0.09902447	0.02923521	-8.71513e-08	3.949462e-07	0.005945778	0.01812621	2.885511e-07	-4.562689e-07
	-3.722918e-07	-2.682931e-07	0.09961622	0.02996148	2.885511e-07	-4.562689e-07	0.006460284	0.01776416
4.5e+08	0.006837901	0.01851007	6.960213e-07	-1.561979e-06	0.1008953	0.02699075	-3.888866e-07	-2.499443e-07
	6.960213e-07	-1.561979e-06	0.007210468	0.01852956	-1.022084e-07	4.126487e-07	0.1014548	0.02769952
	0.1008953	0.02699075	-1.022084e-07	4.126487e-07	0.00779863	0.01981422	2.543849e-07	-4.476854e-07
	-3.888866e-07	-2.499443e-07	0.1014548	0.02769952	2.543849e-07	-4.476854e-07	0.008361193	0.01940544
4.6e+08	0.008856087	0.02012315	6.183006e-07	-1.530074e-06	0.1026567	0.02467335	-4.036031e-07	-2.312756e-07
	6.183006e-07	-1.530074e-06	0.009272223	0.02011232	-1.176105e-07	4.309209e-07	0.1031806	0.02536556
	0.1026567	0.02467335	-1.176105e-07	4.309209e-07	0.009843382	0.02143223	2.205373e-07	-4.386001e-07
	-4.036031e-07	-2.312756e-07	0.1031806	0.02536556	2.205373e-07	-4.386001e-07	0.01045417	0.02097107
4.7e+08	0.01106417	0.02165316	5.421331e-07	-1.497401e-06	0.1043067	0.02228951	-4.167081e-07	-2.123185e-07
	5.421331e-07	-1.497401e-06	0.01152417	0.02160688	-1.333318e-07	4.497908e-07	0.1047916	0.02296621
	0.1043067	0.02228951	-1.333318e-07	4.497908e-07	0.01207762	0.02296559	1.869893e-07	-4.289698e-07
	-4.167081e-07	-2.123185e-07	0.1047916	0.02296621	1.869893e-07	-4.289698e-07	0.01273643	0.02244618
4.8e+08	0.01345961	0.0230849	4.674644e-07	-1.463837e-06	0.1058433	0.01984612	-4.283741e-07	-1.930997e-07
	4.674644e-07	-1.463837e-06	0.01396339	0.02299785	-1.493367e-07	4.692897e-07	0.106286	0.02050862
	0.1058433	0.01984612	-1.493367e-07	4.692897e-07	0.01449836	0.02440006	1.53729e-07	-4.187505e-07
