!$
! Info: Touchstone file created by Circ.  Input file=Intel_C2M_200G_1p5in_202204012_staggered.circ
!$
# Hz S RI R 50
0	0.01022078	1.451104e-24	2.973466e-05	2.414267e-23	7.184466e-05	2.025818e-22	2.966713e-05	2.406309e-23
	2.973466e-05	2.414267e-23	0.01023412	1.648754e-24	2.971669e-05	2.412664e-23	7.14548e-05	2.017809e-22
	7.190329e-05	2.027157e-22	2.971668e-05	2.41274e-23	0.01021049	1.407348e-24	2.967995e-05	2.404865e-23
	2.966713e-05	2.406385e-23	7.151343e-05	2.019148e-22	2.967995e-05	2.404865e-23	0.01022699	1.562019e-24
1e+07	0.01248637	0.001350559	8.177284e-06	8.499587e-06	0.000543736	0.003758527	1.027583e-06	1.072151e-05
	8.177284e-06	8.499587e-06	0.01235529	0.001235389	4.032749e-05	6.313608e-06	0.0006957548	0.003825153
	0.000543736	0.003758527	4.032749e-05	6.313608e-06	0.01264973	0.00132773	1.32309e-06	8.806433e-06
	1.027583e-06	1.072151e-05	0.0006957548	0.003825153	1.32309e-06	8.806433e-06	0.0123331	0.001263647
2e+07	0.01435914	0.0008687338	5.333789e-06	5.569573e-06	0.001213031	0.007265882	1.988922e-06	7.703094e-06
	5.333789e-06	5.569572e-06	0.0141562	0.0007315274	3.099434e-05	1.558766e-05	0.001343999	0.007342738
	0.00121302	0.007265867	3.099434e-05	1.558766e-05	0.01442999	0.0007856899	1.924086e-06	4.750602e-06
	1.988922e-06	7.703094e-06	0.001343988	0.007342722	1.924086e-06	4.750601e-06	0.01413527	0.0008007848
3e+07	0.01587494	-0.0003509627	3.788464e-06	9.916981e-06	0.002122134	0.01073832	2.84625e-06	8.014194e-06
	3.788464e-06	9.91698e-06	0.0156151	-0.0004906795	2.457244e-05	2.322876e-05	0.0022407	0.01085743
	0.002122116	0.01073832	2.457243e-05	2.322876e-05	0.01586712	-0.000414158	2.511934e-06	4.737232e-06
	2.84625e-06	8.014194e-06	0.002240683	0.01085742	2.511934e-06	4.737232e-06	0.01558957	-0.0003762682
4e+07	0.0169635	-0.002003073	2.842923e-06	1.320757e-05	0.003360082	0.01406457	3.604981e-06	8.723494e-06
	2.842924e-06	1.320757e-05	0.01665483	-0.002133556	1.974247e-05	2.821977e-05	0.003471702	0.01423222
	0.003360071	0.01406459	1.974247e-05	2.821977e-05	0.01689759	-0.002024586	3.074883e-06	5.42605e-06
	3.604981e-06	8.723494e-06	0.00347169	0.01423224	3.074883e-06	5.42605e-06	0.01663451	-0.0019745
5e+07	0.01774126	-0.00386458	4.376989e-06	1.539907e-05	0.004886351	0.0172576	4.273782e-06	9.532517e-06
	4.376989e-06	1.539907e-05	0.01738968	-0.003977529	1.564054e-05	3.183373e-05	0.004995957	0.01747671
	0.004886354	0.01725761	1.564054e-05	3.183373e-05	0.01762846	-0.003831329	3.687714e-06	6.61488e-06
	4.273782e-06	9.532517e-06	0.004995961	0.01747672	3.687714e-06	6.61488e-06	0.01737733	-0.003774799
6e+07	0.01825487	-0.005860656	6.33945e-06	1.699713e-05	0.006694056	0.02029797	4.862318e-06	1.036202e-05
	6.33945e-06	1.699713e-05	0.01786567	-0.005949215	1.112567e-05	3.48354e-05	0.006806127	0.02056951
	0.006694077	0.02029796	1.112567e-05	3.48354e-05	0.01810576	-0.005762577	4.326019e-06	7.944244e-06
	4.862318e-06	1.036202e-05	0.006806149	0.0205695	4.326019e-06	7.944244e-06	0.01786443	-0.005702877
7e+07	0.01850481	-0.007940795	8.22001e-06	1.813727e-05	0.008768313	0.02316471	5.380488e-06	1.119218e-05
	8.220011e-06	1.813727e-05	0.01808349	-0.007998259	1.305581e-05	3.510936e-05	0.008886851	0.0234886
	0.008768318	0.02316471	1.305582e-05	3.510936e-05	0.01832986	-0.007769831	4.905271e-06	9.123152e-06
	5.380488e-06	1.119218e-05	0.008886856	0.0234886	4.905271e-06	9.123153e-06	0.01809679	-0.007708828
8e+07	0.01849463	-0.01005879	9.949548e-06	1.903938e-05	0.01109269	0.02583896	5.860001e-06	1.207411e-05
	9.949548e-06	1.903938e-05	0.01804694	-0.01007917	1.779319e-05	3.363251e-05	0.01122127	0.02621438
	0.0110927	0.02583896	1.779319e-05	3.363251e-05	0.01830439	-0.009808302	5.432738e-06	1.019802e-05
	5.860001e-06	1.207411e-05	0.01122127	0.02621438	5.432738e-06	1.019802e-05	0.01807857	-0.009747348
9e+07	0.01829129	-0.01211192	1.106354e-05	1.935589e-05	0.01365419	0.02830489	6.178916e-06	1.278427e-05
	1.106354e-05	1.935589e-05	0.01782653	-0.01208374	2.068916e-05	2.995564e-05	0.01379728	0.02873149
	0.01365419	0.02830489	2.068916e-05	2.995564e-05	0.01810011	-0.01176997	5.881302e-06	1.122036e-05
	6.178916e-06	1.278427e-05	0.01379729	0.02873149	5.881303e-06	1.122036e-05	0.0178804	-0.0117099
1e+08	0.01787331	-0.01413755	1.228664e-05	1.987668e-05	0.01643143	0.03054351	6.572926e-06	1.37414e-05
	1.228664e-05	1.987668e-05	0.01739847	-0.01405714	2.45267e-05	2.633435e-05	0.01659197	0.03101914
	0.01643143	0.03054351	2.45267e-05	2.633435e-05	0.01769184	-0.01370135	6.342173e-06	1.226253e-05
	6.572926e-06	1.37414e-05	0.01659197	0.03101914	6.342173e-06	1.226253e-05	0.01747803	-0.01364304
1.1e+08	0.01732115	-0.01611514	1.217733e-05	2.081325e-05	0.01942885	0.03254285	6.509265e-06	1.482481e-05
	1.217733e-05	2.081325e-05	0.01686405	-0.01600628	2.319996e-05	2.429418e-05	0.01961364	0.03305889
	0.01942885	0.03254285	2.319996e-05	2.429418e-05	0.01718338	-0.01561311	6.689439e-06	1.371337e-05
	6.509265e-06	1.482481e-05	0.01961364	0.0330589	6.68944e-06	1.371337e-05	0.01697316	-0.01555815
1.2e+08	0.01660127	-0.01803105	1.238311e-05	2.226671e-05	0.02258576	0.03427213	6.715413e-06	1.631568e-05
	1.238311e-05	2.226671e-05	0.01616433	-0.01789389	2.222869e-05	2.332347e-05	0.02279569	0.03482531
	0.02258576	0.03427213	2.222869e-05	2.332347e-05	0.01651353	-0.01746409	7.168251e-06	1.524226e-05
	6.715413e-06	1.631568e-05	0.02279569	0.03482531	7.168251e-06	1.524226e-05	0.01630589	-0.01741293
1.3e+08	0.0157201	-0.01986308	1.26961e-05	2.383995e-05	0.02588936	0.03572632	7.116125e-06	1.803626e-05
	1.26961e-05	2.383995e-05	0.01530011	-0.0197037	2.154218e-05	2.31323e-05	0.02612398	0.03631189
	0.02588936	0.03572632	2.154218e-05	2.31323e-05	0.01568279	-0.01924036	7.736823e-06	1.67873e-05
	7.116125e-06	1.803626e-05	0.02612398	0.03631189	7.736823e-06	1.67873e-05	0.01547597	-0.01919301
1.4e+08	0.01469064	-0.02158635	1.324762e-05	2.567419e-05	0.02932055	0.03689869	7.715289e-06	1.99351e-05
	1.324762e-05	2.567419e-05	0.01428072	-0.02141313	2.109003e-05	2.350124e-05	0.02957826	0.03751133
	0.02932055	0.03689869	2.109003e-05	2.350124e-05	0.01470015	-0.02092017	8.309253e-06	1.824677e-05
	7.715289e-06	1.99351e-05	0.02957826	0.03751133	8.309253e-06	1.824677e-05	0.01449218	-0.02087627
1.5e+08	0.01352455	-0.02317729	1.412628e-05	2.779512e-05	0.03285904	0.03778278	8.513721e-06	2.194135e-05
	1.412628e-05	2.779512e-05	0.01312516	-0.02299042	2.083376e-05	2.421961e-05	0.03313907	0.03841885
	0.03285904	0.03778278	2.083376e-05	2.421961e-05	0.0135835	-0.02247145	8.965547e-06	1.972157e-05
	8.513721e-06	2.194135e-05	0.03313907	0.03841885	8.965547e-06	1.972157e-05	0.01337368	-0.02243057
1.6e+08	0.01224981	-0.02461492	1.52408e-05	3.004134e-05	0.03648232	0.03837238	9.526494e-06	2.404871e-05
	1.52408e-05	3.004134e-05	0.01186066	-0.0244151	2.072373e-05	2.518566e-05	0.03678334	0.0390281
	0.03648232	0.03837238	2.072373e-05	2.518566e-05	0.01235979	-0.02387373	9.705075e-06	2.120889e-05
	9.526494e-06	2.404871e-05	0.03678334	0.0390281	9.705075e-06	2.120889e-05	0.0121475	-0.02383528
1.7e+08	0.01091417	-0.02587418	1.659066e-05	3.242349e-05	0.04016785	0.03866177	1.055624e-05	2.606061e-05
	1.659066e-05	3.242349e-05	0.01053095	-0.0256642	2.065147e-05	2.628636e-05	0.04048744	0.03933283
	0.04016785	0.03866177	2.065147e-05	2.628636e-05	0.01107212	-0.02510485	1.050732e-05	2.271085e-05
	1.055624e-05	2.606061e-05	0.04048744	0.03933283	1.050732e-05	2.271085e-05	0.01085642	-0.0250678
1.8e+08	0.009518898	-0.02696343	1.818224e-05	3.48567e-05	0.04389107	0.03864834	1.175737e-05	2.810248e-05
	1.818224e-05	3.48567e-05	0.009141976	-0.02674336	2.079506e-05	2.761929e-05	0.04422707	0.03933139
	0.04389107	0.03864834	2.079506e-05	2.761929e-05	0.009725922	-0.02616966	1.140712e-05	2.422515e-05
	1.175737e-05	2.810248e-05	0.04422707	0.03933139	1.140712e-05	2.422515e-05	0.009506833	-0.02613345
1.9e+08	0.008089798	-0.027878	2.006292e-05	3.7352e-05	0.04762821	0.03833104	1.313999e-05	3.016252e-05
	2.006292e-05	3.7352e-05	0.007719651	-0.02764792	2.114145e-05	2.912716e-05	0.04797801	0.03902279
	0.04762821	0.03833104	2.114145e-05	2.912716e-05	0.008346577	-0.02706375	1.240839e-05	2.57492e-05
	1.313999e-05	3.016252e-05	0.04797801	0.03902278	1.240839e-05	2.57492e-05	0.008124303	-0.02702789
2e+08	0.006653716	-0.02861608	2.229312e-05	3.991771e-05	0.05135575	0.03771042	1.471153e-05	3.22257e-05
	2.229312e-05	3.991771e-05	0.006290785	-0.02837627	2.166168e-05	3.075366e-05	0.05171638	0.03840784
	0.05135575	0.03771042	2.166168e-05	3.075366e-05	0.006960531	-0.02778494	1.35153e-05	2.728107e-05
	1.471153e-05	3.22257e-05	0.05171638	0.03840784	1.35153e-05	2.728107e-05	0.006735441	-0.02774904
2.1e+08	0.005265021	-0.02916727	2.451373e-05	4.232412e-05	0.05505149	0.03678699	1.642141e-05	3.428124e-05
	2.451373e-05	4.232412e-05	0.004907	-0.02891865	2.205865e-05	3.23384e-05	0.05541916	0.03748697
	0.05505149	0.03678699	2.205865e-05	3.23384e-05	0.005618996	-0.02832429	1.472131e-05	2.883451e-05
	1.642141e-05	3.428124e-05	0.05541916	0.03748697	1.472131e-05	2.883451e-05	0.005391373	-0.02828768
2.2e+08	0.003916769	-0.02955163	2.697678e-05	4.468765e-05	0.05869095	0.03556647	1.833156e-05	3.632293e-05
	2.697678e-05	4.468765e-05	0.003564396	-0.02929452	2.280863e-05	3.413558e-05	0.05906194	0.03626655
	0.05869095	0.03556647	2.280863e-05	3.413558e-05	0.004317468	-0.02870026	1.60524e-05	3.037955e-05
	1.833156e-05	3.632293e-05	0.05906194	0.03626655	1.60524e-05	3.037955e-05	0.004088064	-0.02866293
2.3e+08	0.002631328	-0.02977613	2.968723e-05	4.699411e-05	0.06225194	0.03405491	2.045064e-05	3.833629e-05
	2.968723e-05	4.699411e-05	0.002285381	-0.02951106	2.384794e-05	3.605681e-05	0.06262224	0.03475296
	0.06225194	0.03405491	2.384794e-05	3.605681e-05	0.003078324	-0.02891955	1.751225e-05	3.191279e-05
	2.045064e-05	3.833629e-05	0.06262224	0.03475296	1.751225e-05	3.191279e-05	0.002848016	-0.02888171
2.4e+08	0.001429922	-0.02985018	3.26498e-05	4.922716e-05	0.06571268	0.03225998	2.278434e-05	4.030694e-05
	3.26498e-05	4.922716e-05	0.00109119	-0.02957787	2.513953e-05	3.804886e-05	0.066078	0.0329542
	0.06571268	0.03225998	2.513953e-05	3.804886e-05	0.001922459	-0.02899197	1.910661e-05	3.342894e-05
	2.278434e-05	4.030694e-05	0.066078	0.0329542	1.910661e-05	3.342894e-05	0.00169219	-0.02895408
2.5e+08	0.0003324417	-0.02978569	3.58687e-05	5.136891e-05	0.0690523	0.03019072	2.533832e-05	4.22188e-05
	3.58687e-05	5.136891e-05	1.731674e-06	-0.0295071	2.66643e-05	4.00753e-05	0.06940807	0.03087971
	0.0690523	0.03019072	2.66643e-05	4.00753e-05	0.0008695394	-0.02892887	2.083994e-05	3.492181e-05
	2.533832e-05	4.22188e-05	0.06940807	0.03087971	2.083994e-05	3.492181e-05	0.0006402745	-0.02889169
2.6e+08	-0.0006154428	-0.02959193	3.92999e-05	5.339189e-05	0.07225181	0.02785531	2.809625e-05	4.406394e-05
	3.92999e-05	5.339189e-05	-0.000938747	-0.02930801	2.852239e-05	4.217628e-05	0.07259307	0.02853791
	0.07225181	0.02785531	2.852239e-05	4.217628e-05	-3.642312e-05	-0.02873981	2.271716e-05	3.638085e-05
	2.809625e-05	4.406394e-05	0.07259307	0.02853791	2.271716e-05	3.638085e-05	-0.0002637376	-0.02870411
2.7e+08	-0.001420393	-0.02929134	4.298435e-05	5.528435e-05	0.0752912	0.02526752	3.108229e-05	4.581693e-05
	4.298435e-05	5.528435e-05	-0.001735684	-0.02900341	3.060764e-05	4.425325e-05	0.07561297	0.02594316
	0.0752912	0.02526752	3.060764e-05	4.425325e-05	-0.0008009963	-0.02844699	2.474547e-05	3.77983e-05
	3.108229e-05	4.581693e-05	0.07561297	0.02594316	2.474547e-05	3.77983e-05	-0.001025422	-0.02841413
2.8e+08	-0.002071622	-0.02890273	4.692815e-05	5.702669e-05	0.07815265	0.02244101	3.430137e-05	4.745778e-05
	4.692815e-05	5.702669e-05	-0.002378222	-0.02861241	3.291222e-05	4.627999e-05	0.07844987	0.02310954
	0.07815265	0.02244101	3.291222e-05	4.627999e-05	-0.00141349	-0.02806866	2.692922e-05	3.916444e-05
	3.430137e-05	4.745778e-05	0.07844987	0.02310954	2.692922e-05	3.916444e-05	-0.001634171	-0.02804032
2.9e+08	-0.002556399	-0.02844535	5.113045e-05	5.859661e-05	0.08081968	0.01939031	3.775418e-05	4.896738e-05
	5.113045e-05	5.859661e-05	-0.002853727	-0.02815449	3.544166e-05	4.824031e-05	0.08108721	0.02005207
	0.08081968	0.01939031	3.544166e-05	4.824031e-05	-0.001861255	-0.02762439	2.927308e-05	4.046757e-05
	3.775418e-05	4.896738e-05	0.08108721	0.02005207	2.927308e-05	4.046757e-05	-0.002077505	-0.02760258
3e+08	-0.002864382	-0.02793998	5.55908e-05	5.996974e-05	0.08327675	0.01613088	4.144044e-05	5.032466e-05
	5.55908e-05	5.996974e-05	-0.003152022	-0.02765068	3.820021e-05	5.011722e-05	0.08350937	0.01678658
	0.08327675	0.01613088	3.820021e-05	5.011722e-05	-0.002133972	-0.02713457	3.178097e-05	4.169512e-05
	4.144044e-05	5.032466e-05	0.08350937	0.01678658	3.178097e-05	4.169512e-05	-0.002345283	-0.02712157
3.1e+08	-0.002987331	-0.02740839	6.030293e-05	6.112438e-05	0.08550996	0.01267913	4.535847e-05	5.150871e-05
	6.030293e-05	6.112438e-05	-0.003265057	-0.02712304	4.119329e-05	5.188991e-05	0.08570245	0.01333002
	0.08550996	0.01267913	4.119329e-05	5.188991e-05	-0.002223403	-0.02662128	3.445527e-05	4.283445e-05
	4.535847e-05	5.150871e-05	0.08570245	0.01333002	3.445527e-05	4.283445e-05	-0.002429538	-0.0266197
3.2e+08	-0.002910051	-0.02687472	6.525787e-05	6.204102e-05	0.08750653	0.009051	4.950173e-05	5.250284e-05
	6.525787e-05	6.204102e-05	-0.003178149	-0.02659576	4.439637e-05	5.35475e-05	0.08765363	0.009698732
	0.08750653	0.009051	4.439637e-05	5.35475e-05	-0.002115329	-0.02610777	3.730095e-05	4.387379e-05
	4.950173e-05	5.250284e-05	0.08765363	0.009698732	3.730095e-05	4.387379e-05	-0.002316295	-0.02612045
3.3e+08	-0.002623857	-0.02636463	7.044631e-05	6.270009e-05	0.08925436	0.00526358	5.386566e-05	5.328619e-05
	7.044631e-05	6.270009e-05	-0.002883083	-0.02609458	4.778818e-05	5.507421e-05	0.08935084	0.005910256
	0.08925436	0.00526358	4.778818e-05	5.507421e-05	-0.001801129	-0.02561986	4.032085e-05	4.48014e-05
	5.386566e-05	5.328619e-05	0.08935084	0.005910256	4.032085e-05	4.48014e-05	-0.001997275	-0.02564989
3.4e+08	-0.002143907	-0.0259011	7.586776e-05	6.306599e-05	0.09074409	0.00133758	5.844536e-05	5.383037e-05
	7.586776e-05	6.306599e-05	-0.002394866	-0.02564296	5.140567e-05	5.643734e-05	0.09078494	0.001985794
	0.09074409	0.00133758	5.140567e-05	5.643734e-05	-0.001295497	-0.02518022	4.351359e-05	4.559545e-05
	5.844536e-05	5.383037e-05	0.09078494	0.001985794	4.351359e-05	4.559545e-05	-0.001487584	-0.02523098
3.5e+08	-0.001472096	-0.02550828	8.150933e-05	6.311643e-05	0.09196706	-0.002707809	6.323418e-05	5.411031e-05
	8.150933e-05	6.311643e-05	-0.00171576	-0.0252652	5.524475e-05	5.761751e-05	0.09194737	-0.002054965
	0.09196706	-0.002707809	5.524475e-05	5.761751e-05	-0.0006002966	-0.02481331	4.687843e-05	4.623978e-05
	6.323418e-05	5.411031e-05	0.09194737	-0.002054966	4.687843e-05	4.623978e-05	-0.0007895293	-0.02488839
3.6e+08	-0.0006127645	-0.02521048	8.735854e-05	6.282298e-05	0.09291637	-0.006852811	6.821975e-05	5.410469e-05
	8.735854e-05	6.282298e-05	-0.0008504856	-0.0249857	5.930309e-05	5.859049e-05	0.09283143	-0.006191857
	0.09291637	-0.006852812	5.930309e-05	5.859049e-05	0.0002797448	-0.02454292	5.041233e-05	4.671852e-05
	6.821975e-05	5.410469e-05	0.09283143	-0.006191857	5.041233e-05	4.671852e-05	9.171156e-05	-0.024646
3.7e+08	0.0004270883	-0.02503117	9.339833e-05	6.216581e-05	0.09358667	-0.01107777	7.338848e-05	5.379196e-05
	9.339833e-05	6.216581e-05	0.0001935221	-0.02482806	6.357205e-05	5.933729e-05	0.093432	-0.0104048
	0.09358667	-0.01107777	6.357205e-05	5.933729e-05	0.001337643	-0.02439249	5.411387e-05	4.701184e-05
	7.338848e-05	5.379196e-05	0.093432	-0.0104048	5.411387e-05	4.701184e-05	0.001148634	-0.02452739
3.8e+08	0.00163821	-0.02499375	9.961115e-05	6.111733e-05	0.09397361	-0.01536259	7.872507e-05	5.315098e-05
	9.961115e-05	6.111733e-05	0.001406579	-0.02481577	6.804484e-05	5.983403e-05	0.09374499	-0.0146733
	0.09397361	-0.01536259	6.804484e-05	5.983403e-05	0.002564056	-0.02438559	5.797677e-05	4.710432e-05
	7.872507e-05	5.315098e-05	0.09374499	-0.0146733	5.797677e-05	4.710432e-05	0.002371357	-0.02455615
3.9e+08	0.003008134	-0.02512111	0.0001059766	5.965535e-05	0.09407503	-0.01968701	8.421428e-05	5.215696e-05
	0.0001059766	5.965535e-05	0.002775719	-0.02497166	7.271193e-05	6.005766e-05	0.09376849	-0.01897668
	0.09407503	-0.01968701	7.271193e-05	6.005766e-05	0.003946436	-0.02454412	6.199655e-05	4.697457e-05
	8.421428e-05	5.215696e-05	0.09376849	-0.01897668	6.199655e-05	4.697457e-05	0.003746783	-0.02475418
4e+08	0.004525338	-0.02543629	0.0001124715	5.776117e-05	0.09388917	-0.02403161	8.983596e-05	5.079483e-05
	0.0001124715	5.776117e-05	0.004288903	-0.02531872	7.755429e-05	5.999197e-05	0.0935011	-0.02329518
	0.09388917	-0.02403161	7.755429e-05	5.999197e-05	0.005473495	-0.0248914	6.616543e-05	4.660758e-05
	8.983596e-05	5.079483e-05	0.0935011	-0.02329518	6.616543e-05	4.660758e-05	0.005263037	-0.02514474
4.1e+08	0.006181516	-0.02596472	0.0001190776	5.541572e-05	0.09341441	-0.02837791	9.557264e-05	4.904329e-05
	0.0001190776	5.541572e-05	0.005937266	-0.02588217	8.253949e-05	5.963178e-05	0.09294149	-0.02760996
	0.09341441	-0.02837791	8.253949e-05	5.963178e-05	0.007136357	-0.02545261	7.04819e-05	4.598223e-05
	9.557264e-05	4.904329e-05	0.09294149	-0.02760996	7.04819e-05	4.598223e-05	0.006910631	-0.02575292
4.2e+08	0.007944531	-0.02671938	0.0001257616	5.259041e-05	0.09265473	-0.03270373	0.0001013973	4.688039e-05
	0.0001257616	5.259041e-05	0.007688228	-0.02667505	8.76812e-05	5.893278e-05	0.09209406	-0.03189856
	0.09265473	-0.03270373	8.76812e-05	5.893278e-05	0.008903172	-0.02624051	7.49265e-05	4.507762e-05
	0.0001013973	4.688039e-05	0.09209406	-0.03189856	7.49265e-05	4.507762e-05	0.008657104	-0.02659126
4.3e+08	0.009793604	-0.02771709	0.0001324941	4.926649e-05	0.09161313	-0.0369897	0.000107284	4.428875e-05
	0.0001324941	4.926649e-05	0.009520484	-0.02771393	9.295802e-05	5.787256e-05	0.09096224	-0.03614133
	0.09161313	-0.0369897	9.295802e-05	5.787256e-05	0.0107534	-0.02727187	7.948692e-05	4.387522e-05
	0.000107284	4.428875e-05	0.09096224	-0.03614133	7.948692e-05	4.387522e-05	0.01048128	-0.02767624
4.4e+08	0.01170627	-0.02897303	0.0001392445	4.542958e-05	0.09029416	-0.0412166	0.0001132074	4.124861e-05
	0.0001392445	4.542958e-05	0.01141107	-0.02901377	9.835136e-05	5.643054e-05	0.08955106	-0.04031879
	0.09029416	-0.0412166	9.835136e-05	5.643054e-05	0.01266411	-0.02856172	8.414708e-05	4.235741e-05
	0.0001132074	4.124861e-05	0.08955106	-0.04031879	8.414708e-05	4.235741e-05	0.01235965	-0.02902254
4.5e+08	0.01365731	-0.03050024	0.0001459785	4.10627e-05	0.08870394	-0.04536592	0.0001191371	3.774894e-05
	0.0001459785	4.10627e-05	0.01333418	-0.03058725	0.0001038399	5.458888e-05	0.08786702	-0.04441221
	0.08870394	-0.04536592	0.0001038399	5.458888e-05	0.01461032	-0.03012296	8.889141e-05	4.050221e-05
	0.0001191371	3.774894e-05	0.08786702	-0.04441221	8.889141e-05	4.050221e-05	0.01426656	-0.03064269
4.6e+08	0.01562024	-0.0323099	0.0001526602	3.615303e-05	0.08684958	-0.0494196	0.000125041	3.377779e-05
	0.0001526602	3.615303e-05	0.01526283	-0.03244517	0.0001094004	5.232375e-05	0.08591775	-0.04840339
	0.08684958	-0.0494196	0.0001094004	5.232375e-05	0.01656607	-0.03196652	9.370127e-05	3.8294e-05
	0.000125041	3.377779e-05	0.08591775	-0.04840339	9.370127e-05	3.8294e-05	0.01617553	-0.03254705
4.7e+08	0.0175682	-0.03440974	0.0001592533	3.0688e-05	0.08473946	-0.05336066	0.0001308894	2.932048e-05
	0.0001592533	3.0688e-05	0.01716967	-0.0345948	0.0001150039	4.962013e-05	0.08371211	-0.05227521
	0.08473946	-0.05336066	0.0001150039	4.962013e-05	0.0185036	-0.03410044	9.855348e-05	3.571709e-05
	0.0001308894	2.932048e-05	0.08371211	-0.05227521	9.855348e-05	3.571709e-05	0.0180582	-0.03474317
4.8e+08	0.01947225	-0.03680651	0.0001657183	2.466196e-05	0.08238321	-0.05717236	0.0001366461	2.437346e-05
	0.0001657183	2.466196e-05	0.01902528	-0.03704236	0.0001206234	4.645916e-05	0.08126025	-0.05601086
	0.08238321	-0.05717236	0.0001206234	4.645916e-05	0.02039452	-0.03653048	0.0001034276	3.275243e-05
	0.0001366461	2.437346e-05	0.08126025	-0.05601086	0.0001034276	3.275243e-05	0.01988566	-0.03723612
4.9e+08	0.02130213	-0.03950321	0.0001720143	1.807115e-05	0.07979165	-0.06083954	0.000142277	1.892673e-05
	0.0001720143	1.807115e-05	0.02079892	-0.03979028	0.000126229	4.282849e-05	0.07857346	-0.05959516
