!$
! Info: Touchstone file created by Circ.  Input file=Intel_C2M_200G_1in_202204012_staggered.circ
!$
# Hz S RI R 50
0	0.009249961	1.203499e-24	2.529976e-05	1.639667e-23	6.779985e-05	1.950923e-22	2.529187e-05	1.633195e-23
	2.529976e-05	1.639667e-23	0.009263273	1.431911e-24	2.530473e-05	1.641147e-23	6.738665e-05	1.943357e-22
	6.785859e-05	1.952265e-22	2.530472e-05	1.641217e-23	0.009239661	1.22827e-24	2.529472e-05	1.634263e-23
	2.529187e-05	1.633265e-23	6.744539e-05	1.9447e-22	2.529472e-05	1.634263e-23	0.009256131	1.357414e-24
1e+07	0.01109328	0.001362311	8.952904e-07	8.230367e-06	0.000607036	0.003521743	3.471653e-06	6.879238e-06
	8.952904e-07	8.230367e-06	0.01113961	0.001373493	8.584617e-07	6.964786e-06	0.0006123034	0.003584328
	0.000607036	0.003521743	8.584617e-07	6.964786e-06	0.01111508	0.001419399	8.108404e-07	6.589147e-06
	3.471653e-06	6.879238e-06	0.0006123034	0.003584328	8.108404e-07	6.589147e-06	0.01112092	0.001402821
2e+07	0.01265142	0.001216888	1.221561e-06	4.929639e-06	0.001132585	0.006772053	2.774484e-06	3.671807e-06
	1.221561e-06	4.92964e-06	0.01270826	0.001222702	6.082154e-07	2.470675e-06	0.00114366	0.006896219
	0.001132574	0.006772038	6.082156e-07	2.470675e-06	0.01268664	0.001316686	9.490386e-07	2.145257e-06
	2.774485e-06	3.671807e-06	0.00114365	0.006896203	9.490386e-07	2.145257e-06	0.01269125	0.001292088
3e+07	0.01395278	0.0004747487	2.220199e-06	4.105883e-06	0.001835106	0.01003999	2.305775e-06	3.005391e-06
	2.220199e-06	4.105883e-06	0.01401668	0.0004714679	4.690285e-07	1.428268e-06	0.001854951	0.01022443
	0.001835088	0.01003999	4.690286e-07	1.428268e-06	0.01399122	0.000620388	1.100967e-06	1.070357e-06
	2.305775e-06	3.005391e-06	0.001854933	0.01022442	1.100967e-06	1.070357e-06	0.0139945	0.0005847701
4e+07	0.01490397	-0.0006411719	3.075514e-06	3.507995e-06	0.002806155	0.01320091	1.939815e-06	2.675612e-06
	3.075514e-06	3.507995e-06	0.01497158	-0.0006556854	3.542658e-07	9.395627e-07	0.002837504	0.0134442
	0.002806142	0.01320092	3.542659e-07	9.395627e-07	0.01495259	-0.0004514522	1.226479e-06	5.35973e-07
	1.939815e-06	2.675612e-06	0.002837492	0.01344422	1.226479e-06	5.35973e-07	0.01495327	-0.0004987912
5e+07	0.0156087	-0.001933724	3.78858e-06	2.93296e-06	0.004007875	0.0162717	1.620634e-06	2.46661e-06
	3.78858e-06	2.93296e-06	0.01567717	-0.001960596	2.501099e-07	6.616586e-07	0.004053406	0.01657227
	0.004007878	0.01627171	2.501099e-07	6.616586e-07	0.01566796	-0.001701775	1.332796e-06	2.064906e-07
	1.620634e-06	2.46661e-06	0.004053409	0.01657228	1.332796e-06	2.064906e-07	0.0156648	-0.001760936
6e+07	0.01610884	-0.003343249	4.374076e-06	2.308114e-06	0.005437747	0.01923896	1.303833e-06	2.308045e-06
	4.374076e-06	2.308114e-06	0.01617562	-0.003383121	2.543323e-07	4.623698e-07	0.005500014	0.01959491
	0.005437769	0.01923896	2.543323e-07	4.623698e-07	0.01617976	-0.003069706	1.426527e-06	-1.481262e-08
	1.303833e-06	2.308045e-06	0.005500036	0.01959491	1.426527e-06	-1.481261e-08	0.01617164	-0.003140497
7e+07	0.01640266	-0.004829382	4.846381e-06	1.611305e-06	0.007086145	0.02208789	8.56055e-07	2.21269e-06
	4.846381e-06	1.611305e-06	0.01646539	-0.004882584	2.733229e-07	3.149076e-07	0.007167537	0.02249704
	0.007086149	0.02208789	2.733232e-07	3.149076e-07	0.0164866	-0.004515211	1.513572e-06	-1.655206e-07
	8.560553e-07	2.21269e-06	0.007167542	0.02249704	1.513572e-06	-1.655207e-07	0.01647262	-0.00459715
8e+07	0.01649102	-0.0063541	5.229377e-06	8.911585e-07	0.008942631	0.02480548	8.197445e-07	2.005347e-06
	5.229377e-06	8.911585e-07	0.01654753	-0.00642064	3.119197e-07	1.972101e-07	0.009045339	0.02526536
	0.008942635	0.02480548	3.119198e-07	1.972101e-07	0.01658966	-0.00600016	1.587078e-06	-2.961591e-07
	8.197446e-07	2.005347e-06	0.009045343	0.02526536	1.587078e-06	-2.961592e-07	0.01656913	-0.006092606
9e+07	0.01643176	-0.007821956	5.3776e-06	-1.226874e-07	0.01100119	0.02738241	8.282346e-07	1.637033e-06
	5.3776e-06	-1.226874e-07	0.01648002	-0.00790247	3.270435e-07	1.296065e-07	0.01112715	0.02789025
	0.01100119	0.02738241	3.270436e-07	1.296064e-07	0.01654641	-0.007429875	1.672092e-06	-3.485895e-07
	8.282347e-07	1.637033e-06	0.01112715	0.02789025	1.672092e-06	-3.485895e-07	0.01651933	-0.007531734
1e+08	0.01620491	-0.009274631	5.519263e-06	-9.539625e-07	0.01324732	0.02980329	1.218502e-06	1.142731e-06
	5.519263e-06	-9.539625e-07	0.01624317	-0.009368695	3.443906e-07	6.068749e-08	0.01339822	0.03035611
	0.01324732	0.02980329	3.443906e-07	6.06875e-08	0.01633688	-0.008845773	1.745179e-06	-4.106138e-07
	1.218502e-06	1.142731e-06	0.01339822	0.03035611	1.745179e-06	-4.106138e-07	0.01630314	-0.008956364
1.1e+08	0.0158932	-0.01072183	4.943511e-06	-1.787418e-06	0.01569635	0.03205893	1.100917e-06	8.427804e-07
	4.943511e-06	-1.787418e-06	0.0159159	-0.01082578	3.147904e-07	5.946508e-08	0.01587321	0.03265381
	0.01569635	0.03205893	3.147904e-07	5.946508e-08	0.01604022	-0.01025653	1.701515e-06	-3.960789e-07
	1.100917e-06	8.427804e-07	0.01587321	0.03265381	1.701515e-06	-3.960789e-07	0.01599987	-0.01037698
1.2e+08	0.01544978	-0.01213071	4.533162e-06	-2.222943e-06	0.01829337	0.03412113	9.998538e-07	6.069478e-07
	4.533162e-06	-2.222943e-06	0.01545518	-0.01224317	2.914925e-07	5.675215e-08	0.01849708	0.03475495
	0.01829337	0.03412113	2.914926e-07	5.675214e-08	0.01561358	-0.0116288	1.668461e-06	-3.793537e-07
	9.998538e-07	6.069478e-07	0.01849708	0.03475495	1.668461e-06	-3.793537e-07	0.01556569	-0.01175824
1.3e+08	0.01486978	-0.01349046	4.241766e-06	-2.410769e-06	0.02103269	0.03598706	9.155278e-07	4.257664e-07
	4.241766e-06	-2.410769e-06	0.01485694	-0.01360911	2.692382e-07	4.888238e-08	0.02126391	0.03665658
	0.02103269	0.03598706	2.692382e-07	4.888237e-08	0.01505247	-0.01295235	1.632052e-06	-3.762314e-07
	9.155279e-07	4.257664e-07	0.02126391	0.03665658	1.632052e-06	-3.762314e-07	0.0149958	-0.01309017
1.4e+08	0.0141559	-0.01478253	4.030816e-06	-2.456937e-06	0.02390288	0.03765156	8.449972e-07	2.862572e-07
	4.030816e-06	-2.456937e-06	0.01412451	-0.01490455	2.459895e-07	3.708634e-08	0.02416197	0.03835342
	0.02390288	0.03765156	2.459895e-07	3.708634e-08	0.01435994	-0.01420853	1.582214e-06	-3.945475e-07
	8.449972e-07	2.862572e-07	0.02416197	0.03835342	1.582214e-06	-3.945475e-07	0.01429315	-0.0143541
1.5e+08	0.01332035	-0.01597752	3.833304e-06	-2.49309e-06	0.02689309	0.03911076	7.780311e-07	1.68838e-07
	3.833304e-06	-2.49309e-06	0.01326969	-0.01610089	2.233099e-07	2.946197e-08	0.02718004	0.03984152
	0.02689309	0.03911076	2.233099e-07	2.946196e-08	0.01354703	-0.01536929	1.535002e-06	-4.127442e-07
	7.780311e-07	1.688379e-07	0.02718004	0.03984152	1.535002e-06	-4.127442e-07	0.01346968	-0.01552121
1.6e+08	0.01238243	-0.01705583	3.650023e-06	-2.514241e-06	0.02998938	0.04035847	7.136693e-07	6.860184e-08
	3.650023e-06	-2.514241e-06	0.01231219	-0.01717842	2.000696e-07	2.405357e-08	0.03030386	0.04111466
	0.02998938	0.04035847	2.000696e-07	2.405356e-08	0.01263314	-0.01641474	1.488395e-06	-4.312133e-07
	7.136693e-07	6.860183e-08	0.03030386	0.04111466	1.488395e-06	-4.312133e-07	0.012545	-0.01657157
1.7e+08	0.01137573	-0.01799426	3.494575e-06	-2.489585e-06	0.0331773	0.04138803	6.495826e-07	-1.819049e-08
	3.494575e-06	-2.489585e-06	0.01128651	-0.01811377	1.74292e-07	1.625046e-08	0.03351868	0.04216616
	0.0331773	0.04138803	1.74292e-07	1.625045e-08	0.01165197	-0.0173216	1.435095e-06	-4.509666e-07
	6.495826e-07	-1.819049e-08	0.03351868	0.04216616	1.435095e-06	-4.509666e-07	0.0115528	-0.01748222
1.8e+08	0.01030306	-0.01879565	3.363331e-06	-2.452777e-06	0.03644173	0.04219569	5.884903e-07	-9.284372e-08
	3.363331e-06	-2.452777e-06	0.01019512	-0.01891005	1.505815e-07	1.252679e-08	0.036809	0.0429923
	0.03644173	0.04219569	1.505815e-07	1.252679e-08	0.01060585	-0.01809304	1.383314e-06	-4.701267e-07
	5.884903e-07	-9.284372e-08	0.036809	0.0429923	1.383314e-06	-4.701267e-07	0.01049603	-0.018256
1.9e+08	0.009183978	-0.01945263	3.257022e-06	-2.40543e-06	0.03976734	0.04277793	5.300125e-07	-1.576098e-07
	3.257022e-06	-2.40543e-06	0.009057893	-0.01955997	1.283816e-07	1.125172e-08	0.04015916	0.04358962
	0.03976734	0.04277793	1.283816e-07	1.125172e-08	0.009514169	-0.01872199	1.332663e-06	-4.886405e-07
	5.300125e-07	-1.576098e-07	0.04015916	0.04358962	1.332663e-06	-4.886405e-07	0.009394333	-0.0188859
2e+08	0.008039224	-0.01995983	3.172559e-06	-2.351462e-06	0.04313886	0.04313221	4.734971e-07	-2.14228e-07
	3.172559e-06	-2.351462e-06	0.007895884	-0.02005827	1.073429e-07	1.149914e-08	0.04355361	0.04395564
	0.04313886	0.04313221	1.073429e-07	1.149914e-08	0.008397565	-0.01920261	1.282525e-06	-5.06305e-07
	4.734971e-07	-2.14228e-07	0.04355361	0.04395564	1.282525e-06	-5.06305e-07	0.008268577	-0.01936626
2.1e+08	0.006911288	-0.02030244	3.028346e-06	-2.333877e-06	0.04654171	0.04325541	4.129746e-07	-2.620486e-07
	3.028346e-06	-2.333877e-06	0.006752324	-0.02039045	8.696515e-08	1.975724e-08	0.04697741	0.04408739
	0.04654171	0.04325541	8.696515e-08	1.975724e-08	0.007298927	-0.01952052	1.227765e-06	-5.201643e-07
	4.129746e-07	-2.620486e-07	0.04697741	0.04408739	1.227765e-06	-5.201643e-07	0.007161725	-0.01968309
2.2e+08	0.005795825	-0.02049453	2.894205e-06	-2.314568e-06	0.04995945	0.04314839	3.550173e-07	-3.022887e-07
	2.894205e-06	-2.314568e-06	0.005622597	-0.02057066	6.621791e-08	2.875738e-08	0.05041382	0.04398583
	0.04995945	0.04314839	6.621791e-08	2.875738e-08	0.006213055	-0.01968977	1.174031e-06	-5.331165e-07
	3.550173e-07	-3.022887e-07	0.05041382	0.04398583	1.174031e-06	-5.331165e-07	0.006069005	-0.01985035
2.3e+08	0.00471126	-0.02053722	2.769169e-06	-2.294059e-06	0.05337702	0.04281191	2.99341e-07	-3.36011e-07
	2.769169e-06	-2.294059e-06	0.00452536	-0.02060026	4.506098e-08	3.85623e-08	0.05384751	0.0436519
	0.05337702	0.04281191	4.506098e-08	3.85623e-08	0.005158521	-0.01971117	1.121121e-06	-5.450355e-07
	2.99341e-07	-3.36011e-07	0.05384751	0.0436519	1.121121e-06	-5.450355e-07	0.005009186	-0.01986907
2.4e+08	0.003675629	-0.02043344	2.652331e-06	-2.272848e-06	0.0567793	0.04224767	2.457114e-07	-3.640651e-07
	2.652331e-06	-2.272848e-06	0.003478841	-0.02048239	2.345862e-08	4.920536e-08	0.05726305	0.04308749
	0.0567793	0.04224766	2.345862e-08	4.920536e-08	0.004153299	-0.01958815	1.068873e-06	-5.558275e-07
	2.457114e-07	-3.640651e-07	0.05726305	0.04308748	1.068873e-06	-5.558275e-07	0.004000422	-0.01974293
2.5e+08	0.002706531	-0.02018805	2.542861e-06	-2.25137e-06	0.06015155	0.04145823	1.939351e-07	-3.871338e-07
	2.542861e-06	-2.25137e-06	0.002500838	-0.02022219	1.384916e-09	6.070858e-08	0.06064549	0.04229538
	0.06015155	0.04145823	1.384916e-09	6.070858e-08	0.003214798	-0.0193251	1.017152e-06	-5.654095e-07
	1.939351e-07	-3.871338e-07	0.06064549	0.04229538	1.017152e-06	-5.654095e-07	0.003060247	-0.0194766
2.6e+08	0.001844508	-0.01980077	2.408583e-06	-2.229623e-06	0.06348052	0.04044548	1.393729e-07	-4.046924e-07
	2.408583e-06	-2.229623e-06	0.001632195	-0.01981998	-1.664245e-08	7.648333e-08	0.06398128	0.04127764
	0.06348052	0.04044548	-1.664245e-08	7.648333e-08	0.002383709	-0.01892216	9.629509e-07	-5.707897e-07
	1.393729e-07	-4.046924e-07	0.06398128	0.04127764	9.629509e-07	-5.707897e-07	0.002229431	-0.01907078
2.7e+08	0.001086195	-0.01928737	2.275832e-06	-2.206955e-06	0.06675118	0.03921519	8.696327e-08	-4.172519e-07
	2.275832e-06	-2.206955e-06	0.000869504	-0.01929162	-3.399282e-08	9.358456e-08	0.06725518	0.04004033
	0.06675118	0.03921519	-3.399282e-08	9.358456e-08	0.001656464	-0.01839506	9.09263e-07	-5.745867e-07
	8.696327e-08	-4.172519e-07	0.06725518	0.04004033	9.09263e-07	-5.745867e-07	0.001504502	-0.01854132
2.8e+08	0.0004436338	-0.01865883	2.148197e-06	-2.183403e-06	0.06995001	0.03777304	3.714787e-08	-4.254859e-07
	2.148197e-06	-2.183403e-06	0.0002248189	-0.01864836	-5.115467e-08	1.115127e-07	0.07045352	0.03858939
	0.06995001	0.03777304	-5.115467e-08	1.115127e-07	0.001044734	-0.01775438	8.564067e-07	-5.771847e-07
	3.714787e-08	-4.254859e-07	0.07045352	0.03858939	8.564067e-07	-5.771847e-07	0.0008972086	-0.01789911
2.9e+08	-6.879714e-05	-0.01792617	2.025109e-06	-2.159001e-06	0.07306423	0.0361254	-1.027053e-08	-4.298789e-07
	2.025109e-06	-2.159001e-06	-0.0002874238	-0.01790158	-6.804226e-08	1.302046e-07	0.07356329	0.03693146
	0.07306423	0.0361254	-6.804226e-08	1.302046e-07	0.0005629953	-0.01701155	8.042879e-07	-5.785758e-07
	-1.027053e-08	-4.298789e-07	0.07356329	0.03693146	8.042879e-07	-5.785758e-07	0.0004220298	-0.01715594
3e+08	-0.0004379911	-0.01710194	1.906048e-06	-2.133746e-06	0.07608127	0.03427912	-5.544853e-08	-4.308288e-07
	1.906048e-06	-2.133746e-06	-0.0006541321	-0.01706417	-8.457946e-08	1.495757e-07	0.07657179	0.03507369
	0.07608127	0.03427912	-8.457946e-08	1.495757e-07	0.0002243169	-0.01617878	7.528206e-07	-5.787607e-07
	-5.544853e-08	-4.308288e-07	0.07657179	0.03507369	7.528206e-07	-5.787607e-07	9.200043e-05	-0.01632438
3.1e+08	-0.0006519267	-0.01619981	1.790549e-06	-2.107629e-06	0.07898955	0.03224194	-9.850932e-08	-4.286653e-07
	1.790549e-06	-2.107629e-06	-0.0008633138	-0.01615016	-1.007105e-07	1.695144e-07	0.07946733	0.03302411
	0.07898955	0.03224194	-1.007105e-07	1.695144e-07	4.085803e-05	-0.01527011	7.01928e-07	-5.777601e-07
	-9.850932e-08	-4.286653e-07	0.07946733	0.03302411	7.01928e-07	-5.777601e-07	-8.077933e-05	-0.01541885
3.2e+08	-0.000690869	-0.01523484	1.67197e-06	-2.076043e-06	0.08177822	0.03002117	-1.413583e-07	-4.230487e-07
	1.67197e-06	-2.076043e-06	-0.0008952882	-0.0151751	-1.175703e-07	1.901492e-07	0.08223891	0.03079034
	0.08177822	0.03002117	-1.175703e-07	1.901492e-07	3.16445e-05	-0.01430017	6.509546e-07	-5.738332e-07
	-1.413583e-07	-4.230487e-07	0.08223891	0.03079034	6.509546e-07	-5.738332e-07	-7.7443e-05	-0.01445443
3.3e+08	-0.0005399899	-0.01422429	1.547023e-06	-2.035918e-06	0.08443643	0.02762487	-1.841063e-07	-4.135021e-07
	1.547023e-06	-2.035918e-06	-0.0007353454	-0.01415676	-1.363696e-07	2.118873e-07	0.08487558	0.02838075
	0.08443643	0.02762487	-1.363696e-07	2.118873e-07	0.0002118794	-0.01328662	5.999111e-07	-5.659292e-07
	-1.841063e-07	-4.135021e-07	0.08487558	0.02838075	5.999111e-07	-5.659292e-07	0.0001169705	-0.01344924
3.4e+08	-0.0002063927	-0.01318595	1.426181e-06	-1.994673e-06	0.08695454	0.02506429	-2.235188e-07	-4.012864e-07
	1.426181e-06	-1.994673e-06	-0.0003908304	-0.013113	-1.553715e-07	2.344222e-07	0.08736767	0.02580691
	0.08695454	0.02506429	-1.553715e-07	2.344222e-07	0.0005741548	-0.01224674	5.498737e-07	-5.570227e-07
	-2.235188e-07	-4.012864e-07	0.08736767	0.02580691	5.498737e-07	-5.570227e-07	0.0004949265	-0.01242074
3.5e+08	0.0003160456	-0.0121375	1.309104e-06	-1.952219e-06	0.08932333	0.02234937	-2.598653e-07	-3.867596e-07
	1.309104e-06	-1.952219e-06	0.0001442143	-0.01206184	-1.745502e-07	2.57767e-07	0.08970593	0.02307914
	0.08932333	0.02234937	-1.745502e-07	2.57767e-07	0.001124841	-0.01119859	5.007795e-07	-5.47087e-07
	-2.598653e-07	-3.867596e-07	0.08970593	0.02307914	5.007795e-07	-5.47087e-07	0.001062549	-0.01138737
3.6e+08	0.001032092	-0.01109738	1.195529e-06	-1.908453e-06	0.09153463	0.01949079	-2.933606e-07	-3.702235e-07
	1.195529e-06	-1.908453e-06	0.0008742946	-0.01102207	-1.938779e-07	2.819308e-07	0.09188215	0.02020837
	0.09153463	0.01949079	-1.938779e-07	2.819308e-07	0.001868162	-0.01016035	4.525727e-07	-5.361087e-07
	-2.933606e-07	-3.702235e-07	0.09188215	0.02020837	4.525727e-07	-5.361087e-07	0.001823801	-0.01036759
3.7e+08	0.001944536	-0.01008411	1.085219e-06	-1.863275e-06	0.09358117	0.01649924	-3.241752e-07	-3.519317e-07
	1.085219e-06	-1.863275e-06	0.001801937	-0.0100125	-2.133279e-07	3.069264e-07	0.09388911	0.01720567
	0.09358117	0.01649924	-2.133279e-07	3.069264e-07	0.002806989	-0.009150569	4.052072e-07	-5.240707e-07
	-3.241752e-07	-3.519317e-07	0.09388911	0.01720567	4.052072e-07	-5.240707e-07	0.002781205	-0.009380279
3.8e+08	0.003054914	-0.009116904	9.779792e-07	-1.816595e-06	0.09545599	0.01338581	-3.524416e-07	-3.321055e-07
	9.779792e-07	-1.816595e-06	0.002928372	-0.009052654	-2.328721e-07	3.327637e-07	0.09571987	0.01408243
	0.09545599	0.01338581	-2.328721e-07	3.327637e-07	0.003942884	-0.008188704	3.586492e-07	-5.109554e-07
	-3.524416e-07	-3.321055e-07	0.09571987	0.01408243	3.586492e-07	-5.109554e-07	0.003935958	-0.008445215
3.9e+08	0.00436243	-0.008215713	8.736683e-07	-1.768315e-06	0.09715351	0.01016221	-3.782642e-07	-3.10944e-07
	8.736683e-07	-1.768315e-06	0.004252452	-0.00816273	-2.52482e-07	3.594512e-07	0.09736891	0.0108507
	0.09715351	0.01016221	-2.52482e-07	3.594512e-07	0.005274674	-0.007293922	3.128734e-07	-4.967584e-07
	-3.782642e-07	-3.10944e-07	0.09736891	0.0108507	3.128734e-07	-4.967584e-07	0.00528649	-0.0075818
4e+08	0.005868195	-0.007401233	7.714053e-07	-1.715634e-06	0.09866832	0.006839376	-4.033938e-07	-2.878476e-07
	7.714053e-07	-1.715634e-06	0.005774889	-0.007363736	-2.719065e-07	3.871153e-07	0.0988309	0.007521721
	0.09866832	0.006839376	-2.719065e-07	3.871153e-07	0.006803858	-0.00648721	2.680017e-07	-4.805356e-07
	-4.033938e-07	-2.878476e-07	0.0988309	0.007521721	2.680017e-07	-4.805356e-07	0.006833832	-0.006811301
4.1e+08	0.00757815	-0.006697148	6.693355e-07	-1.650392e-06	0.09999506	0.003427483	-4.303554e-07	-2.608473e-07
	6.693355e-07	-1.650392e-06	0.007501175	-0.006679816	-2.903767e-07	4.161741e-07	0.1001005	0.004106026
	0.09999506	0.003427483	-2.903767e-07	4.161741e-07	0.008535992	-0.005792545	2.246549e-07	-4.597271e-07
	-4.303554e-07	-2.608473e-07	0.1001005	0.004106025	2.246549e-07	-4.597271e-07	0.008582963	-0.00615804
4.2e+08	0.009472228	-0.00611874	5.711243e-07	-1.584686e-06	0.1011313	-5.910534e-05	-4.513579e-07	-2.338013e-07
	5.711243e-07	-1.584686e-06	0.00941082	-0.006126115	-3.087793e-07	4.461389e-07	0.1011756	0.0006182231
	0.1011313	-5.910537e-05	-3.087793e-07	4.461389e-07	0.01045092	-0.005224704	1.823202e-07	-4.385181e-07
	-4.513579e-07	-2.338013e-07	0.1011756	0.0006182231	1.823202e-07	-4.385181e-07	0.01051333	-0.005636744
4.3e+08	0.01154316	-0.005684574	4.766247e-07	-1.518328e-06	0.1020743	-0.003608528	-4.678022e-07	-2.068642e-07
	4.766247e-07	-1.518328e-06	0.01149612	-0.00572134	-3.270591e-07	4.770123e-07	0.1020534	-0.002929511
	0.1020743	-0.003608528	-3.270591e-07	4.770123e-07	0.0125416	-0.004802196	1.409608e-07	-4.167911e-07
	-4.678022e-07	-2.068642e-07	0.1020534	-0.002929511	1.409608e-07	-4.167911e-07	0.01261736	-0.005266062
4.4e+08	0.01378231	-0.005412852	3.857221e-07	-1.451183e-06	0.102822	-0.007208545	-4.806196e-07	-1.801386e-07
	3.857221e-07	-1.451183e-06	0.01374794	-0.005483806	-3.451575e-07	5.087914e-07	0.1027322	-0.006524632
	0.102822	-0.007208545	-3.451575e-07	5.087914e-07	0.01479895	-0.004543341	1.005555e-07	-3.944644e-07
	-4.806196e-07	-1.801386e-07	0.1027322	-0.006524632	1.005555e-07	-3.944644e-07	0.0148854	-0.005064374
4.5e+08	0.01617846	-0.005321574	2.983457e-07	-1.383146e-06	0.1033736	-0.01084709	-4.904367e-07	-1.537069e-07
	2.983457e-07	-1.383146e-06	0.01615452	-0.005431559	-3.630192e-07	5.414696e-07	0.1032113	-0.01015483
	0.1033736	-0.01084709	-3.630192e-07	5.414696e-07	0.01721187	-0.004466023	6.10921e-08	-3.714766e-07
	-4.904367e-07	-1.537069e-07	0.1032113	-0.01015483	6.10921e-08	-3.714766e-07	0.01730578	-0.005049593
4.6e+08	0.01871921	-0.005428154	2.144356e-07	-1.314143e-06	0.1037285	-0.01451208	-4.976783e-07	-1.27644e-07
	2.144356e-07	-1.314143e-06	0.01870296	-0.005582052	-3.805875e-07	5.750376e-07	0.1034904	-0.01380774
	0.1037285	-0.01451208	-3.805875e-07	5.750376e-07	0.0197684	-0.004587216	2.256079e-08	-3.477817e-07
	-4.976783e-07	-1.27644e-07	0.1034904	-0.01380774	2.256079e-08	-3.477817e-07	0.01986594	-0.005238653
4.7e+08	0.02139106	-0.005747734	1.33933e-07	-1.24413e-06	0.1038875	-0.01819195	-5.026412e-07	-1.020277e-07
	1.33933e-07	-1.24413e-06	0.02137924	-0.005950395	-3.978108e-07	6.09483e-07	0.1035704	-0.01747159
	0.1038875	-0.01819195	-3.978108e-07	6.09483e-07	0.02245437	-0.004922881	-1.504591e-08	-3.233512e-07
	-5.026412e-07	-1.020277e-07	0.1035704	-0.01747159	-1.504591e-08	-3.233512e-07	0.02255111	-0.005647458
4.8e+08	0.02417894	-0.006296255	5.682382e-08	-1.173062e-06	0.1038515	-0.0218747	-5.055331e-07	-7.694414e-08
	5.682382e-08	-1.173062e-06	0.02416766	-0.006552471	-4.146293e-07	6.447904e-07	0.1034525	-0.02113416
