!$
! Info: Touchstone file created by Circ.  Input file=Intel_C2M_200G_1p5in_202204012_staggered.circ
!$
# Hz S RI R 50
0	0.01023412	1.648754e-24	0.9895704	-2.782506e-24	7.14548e-05	2.017809e-22	-0.0001929386	2.362816e-20
	0.9895704	-2.781739e-24	0.01077829	2.91313e-24	-0.0001928013	2.361136e-20	0.0002768227	1.617835e-22
	7.151343e-05	2.019148e-22	-0.0001929399	2.362832e-20	0.01022699	1.562019e-24	0.9895708	-2.770123e-24
	-0.0001930771	2.364512e-20	0.0002768932	1.618973e-22	0.9895708	-2.770891e-24	0.01078428	2.949749e-24
1e+07	0.01235529	0.001235389	0.9863736	-0.04987162	0.0006957548	0.003825153	-0.0005407689	-0.0006433606
	0.9863736	-0.04987162	0.01235225	0.001234447	-0.0005407364	-0.0006433822	0.0007072789	0.003823895
	0.0006957548	0.003825153	-0.0005407364	-0.0006433822	0.0123331	0.001263647	0.9863974	-0.04986943
	-0.0005407689	-0.0006433606	0.0007072789	0.003823895	0.9863974	-0.04986943	0.0123313	0.001262026
2e+07	0.0141562	0.0007315274	0.9808576	-0.09785425	0.001343999	0.007342738	-0.0007105338	-0.001048365
	0.9808576	-0.09785425	0.01432319	0.0008854604	-0.0007104381	-0.001048404	0.001333411	0.007396735
	0.001343988	0.007342722	-0.0007104581	-0.001048471	0.01413527	0.0008007848	0.9808881	-0.09786435
	-0.000710551	-0.001048423	0.001333459	0.00739672	0.9808881	-0.09786435	0.01429716	0.0009559662
3e+07	0.0156151	-0.0004906795	0.9734488	-0.1447479	0.0022407	0.01085743	-0.0008876267	-0.00143376
	0.9734488	-0.1447479	0.01563999	-0.0004724521	-0.0008874597	-0.001433897	0.002340367	0.0108375
	0.002240683	0.01085742	-0.0008874909	-0.001433909	0.01558957	-0.0003762682	0.973483	-0.1447717
	-0.0008876285	-0.001433776	0.002340355	0.01083748	0.973483	-0.1447717	0.01562507	-0.0003612534
4e+07	0.01665483	-0.002133556	0.9640405	-0.1908777	0.003471702	0.01423222	-0.001081042	-0.001798252
	0.9640405	-0.1908777	0.01667297	-0.002092536	-0.00108084	-0.001798457	0.003640133	0.01418674
	0.00347169	0.01423224	-0.001080845	-0.001798463	0.01663451	-0.0019745	0.964076	-0.190916
	-0.001081045	-0.001798249	0.003640136	0.01418674	0.964076	-0.190916	0.01667005	-0.001941018
5e+07	0.01738968	-0.003977529	0.9525982	-0.2362763	0.004995957	0.01747671	-0.001292885	-0.002142156
	0.9525982	-0.2362763	0.01744648	-0.003935643	-0.001292618	-0.002142514	0.005253455	0.01739478
	0.004995961	0.01747672	-0.001292613	-0.002142518	0.01737733	-0.003774799	0.9526342	-0.2363299
	-0.00129288	-0.002142159	0.005253462	0.01739479	0.9526342	-0.2363299	0.01746111	-0.00374442
6e+07	0.01786567	-0.005949215	0.9391313	-0.2809117	0.006806127	0.02056951	-0.00152206	-0.002468525
	0.9391313	-0.2809117	0.01795683	-0.005903933	-0.001521804	-0.002469082	0.00716536	0.02043692
	0.006806149	0.0205695	-0.001521796	-0.00246908	0.01786443	-0.005702877	0.9391662	-0.2809809
	-0.001522053	-0.002468523	0.007165363	0.02043691	0.9391662	-0.2809809	0.01799431	-0.005674881
7e+07	0.01808349	-0.007998259	0.9236715	-0.3247196	0.008886851	0.0234886	-0.001768593	-0.002780357
	0.9236715	-0.3247196	0.01822244	-0.007941943	-0.001768356	-0.002781188	0.009361273	0.02328987
	0.008886856	0.0234886	-0.001768282	-0.002781225	0.01809679	-0.007708828	0.9237026	-0.3248051
	-0.001768577	-0.002780356	0.009361275	0.02328986	0.9237026	-0.3248051	0.0182874	-0.007677673
8e+07	0.01804694	-0.01007917	0.90626	-0.3676217	0.01122127	0.02621438	-0.002032783	-0.003079961
	0.90626	-0.3676217	0.01825062	-0.01002588	-0.002032626	-0.003081112	0.0118232	0.0259306
	0.01122127	0.02621438	-0.002032607	-0.003081114	0.01807857	-0.009747348	0.9062869	-0.3677238
	-0.002032764	-0.003079964	0.0118232	0.0259306	0.9062869	-0.3677238	0.01834689	-0.009729446
9e+07	0.01782653	-0.01208374	0.8868887	-0.4096101	0.01379728	0.02873149	-0.002320618	-0.003371418
	0.8868887	-0.4096101	0.01808877	-0.01205993	-0.00232058	-0.003372895	0.01453658	0.02834071
	0.01379729	0.02873149	-0.002320566	-0.003372899	0.0178804	-0.0117099	0.8869072	-0.4097299
	-0.002320604	-0.003371422	0.01453658	0.02834071	0.8869072	-0.4097299	0.01822049	-0.01173336
1e+08	0.01739847	-0.01405714	0.8656535	-0.4505299	0.01659197	0.03101914	-0.002628965	-0.003652719
	0.8656535	-0.4505299	0.01768965	-0.01408602	-0.002629178	-0.003654521	0.01747544	0.03049807
	0.01659197	0.03101914	-0.002629178	-0.003654519	0.01747803	-0.01364304	0.8656631	-0.4506677
	-0.002628966	-0.003652717	0.01747544	0.03049807	0.8656631	-0.4506677	0.01786054	-0.01373272
1.1e+08	0.01686405	-0.01600628	0.8424733	-0.4902561	0.01961364	0.03305889	-0.002967574	-0.003910655
	0.8424733	-0.4902561	0.01725363	-0.01613532	-0.002967749	-0.003912737	0.02062292	0.03237585
	0.01961364	0.0330589	-0.002967746	-0.003912737	0.01697316	-0.01555815	0.8424681	-0.490408
	-0.002967571	-0.003910655	0.02062292	0.03237585	0.8424681	-0.490408	0.01747207	-0.01576153
1.2e+08	0.01616433	-0.01789389	0.8175313	-0.5287551	0.02279569	0.03482531	-0.003329031	-0.004158486
	0.8175313	-0.5287551	0.01660493	-0.01810001	-0.003329521	-0.004160882	0.02394849	0.03396721
	0.02279569	0.03482531	-0.003329518	-0.004160883	0.01630589	-0.01741293	0.8175102	-0.5289204
	-0.003329029	-0.004158487	0.02394849	0.03396721	0.8175102	-0.5289204	0.01687179	-0.01771166
1.3e+08	0.01530011	-0.0197037	0.7908922	-0.5659473	0.02612398	0.03631189	-0.003713906	-0.00439276
	0.7908922	-0.5659473	0.0157828	-0.01996674	-0.003714744	-0.004395681	0.02742471	0.03525797
	0.02612398	0.03631189	-0.003714742	-0.004395682	0.01547597	-0.01919301	0.7908559	-0.5661257
	-0.003713904	-0.004392762	0.02742471	0.03525797	0.7908559	-0.5661257	0.01609829	-0.01956973
1.4e+08	0.01428072	-0.02141313	0.7626236	-0.6017604	0.02957826	0.03751133	-0.004122972	-0.004611963
	0.7626236	-0.6017604	0.01481556	-0.0217273	-0.004124512	-0.004615254	0.03102414	0.03623714
	0.02957826	0.03751133	-0.004124511	-0.004615256	0.01449218	-0.02087627	0.7625706	-0.6019487
	-0.004122971	-0.004611965	0.03102414	0.03623714	0.7625706	-0.6019487	0.01517933	-0.02132749
1.5e+08	0.01312516	-0.02299042	0.7327937	-0.6361374	0.03313907	0.03841885	-0.004560966	-0.004816881
	0.7327937	-0.6361374	0.01372562	-0.02336419	-0.004563267	-0.004820589	0.03472253	0.03689895
	0.03313907	0.03841885	-0.004563267	-0.00482059	0.01337368	-0.02243057	0.7327233	-0.6363341
	-0.004560966	-0.004816883	0.03472253	0.03689895	0.7327233	-0.6363341	0.01413805	-0.02296654
1.6e+08	0.01186066	-0.0244151	0.7014683	-0.6690156	0.03678334	0.0390281	-0.005030053	-0.005004888
	0.7014683	-0.6690156	0.01253685	-0.02486577	-0.005033283	-0.005008929	0.03849326	0.03723728
	0.03678334	0.0390281	-0.005033283	-0.00500893	0.0121475	-0.02383528	0.7013792	-0.6692207
	-0.005030053	-0.005004889	0.03849326	0.03723728	0.7013792	-0.6692207	0.01299758	-0.02447518
1.7e+08	0.01053095	-0.0256642	0.6687005	-0.7003482	0.04048744	0.03933283	-0.005531784	-0.005171392
	0.6687005	-0.7003482	0.01128652	-0.02621211	-0.005536169	-0.005175543	0.04230942	0.03724636
	0.04048744	0.03933283	-0.005536169	-0.005175544	0.01085642	-0.0250678	0.6685921	-0.7005604
	-0.005531784	-0.005171393	0.04230942	0.03724635	0.6685921	-0.7005604	0.01179442	-0.02583375
1.8e+08	0.009141976	-0.02674336	0.6345872	-0.7300632	0.04422707	0.03933139	-0.006067808	-0.005314599
	0.6345872	-0.7300632	0.009977215	-0.02741134	-0.006073455	-0.005318684	0.0461439	0.03692613
	0.04422707	0.03933139	-0.006073456	-0.005318684	0.009506833	-0.02613345	0.6344581	-0.7302808
	-0.006067808	-0.005314599	0.0461439	0.03692613	0.6344581	-0.7302808	0.01053091	-0.02704983
1.9e+08	0.007719651	-0.02764792	0.5992066	-0.7581052	0.04797801	0.03902279	-0.006639272	-0.005430236
	0.5992066	-0.7581052	0.008630547	-0.02845905	-0.006646261	-0.005434044	0.04996984	0.03627725
	0.04797801	0.03902278	-0.006646262	-0.005434044	0.008124303	-0.02702789	0.5990579	-0.7583277
	-0.006639273	-0.005430237	0.04996984	0.03627725	0.5990579	-0.7583277	0.009228702	-0.02811884
2e+08	0.006290785	-0.02837627	0.5626372	-0.7844247	0.05171638	0.03840784	-0.007246673	-0.005513563
	0.5626372	-0.7844247	0.007270747	-0.02935274	-0.007254987	-0.005517052	0.05376045	0.03530186
	0.05171638	0.03840784	-0.007254988	-0.005517052	0.006735441	-0.02774904	0.5624661	-0.7846501
	-0.007246673	-0.005513563	0.05376045	0.03530186	0.5624661	-0.7846501	0.007910934	-0.02903787
2.1e+08	0.004907	-0.02891865	0.5249278	-0.8089922	0.05541916	0.03748697	-0.007889815	-0.005557595
	0.5249278	-0.8089922	0.005945586	-0.0300792	-0.007899597	-0.005560374	0.05749085	0.03400217
	0.05541916	0.03748697	-0.007899597	-0.005560374	0.005391373	-0.02828768	0.5247347	-0.8092185
	-0.007889815	-0.005557596	0.05749085	0.03400217	0.5247347	-0.8092185	0.006625556	-0.02979378
2.2e+08	0.003564396	-0.02929452	0.4861935	-0.8317452	0.05906194	0.03626655	-0.008567525	-0.005558907
	0.4861935	-0.8317452	0.004651036	-0.03065998	-0.008578703	-0.005560901	0.06113426	0.0323871
	0.05906194	0.03626655	-0.008578703	-0.005560901	0.004088064	-0.02866293	0.4859777	-0.831971
	-0.008567525	-0.005558907	0.06113426	0.0323871	0.4859777	-0.831971	0.005367926	-0.03040764
2.3e+08	0.002285381	-0.02951106	0.4465208	-0.8526428	0.06262224	0.03475296	-0.009277937	-0.005512567
	0.4465208	-0.8526428	0.003407534	-0.03110222	-0.009290665	-0.005513385	0.06466579	0.03046515
	0.06262224	0.03475296	-0.009290665	-0.005513385	0.002848016	-0.02888171	0.4462808	-0.8528671
	-0.009277937	-0.005512567	0.06466579	0.03046515	0.4462808	-0.8528671	0.004158381	-0.03088626
2.4e+08	0.00109119	-0.02957787	0.4059952	-0.8716515	0.066078	0.0329542	-0.01001892	-0.005412833
	0.4059952	-0.8716515	0.00223432	-0.03141547	-0.01003305	-0.005412418	0.06806189	0.02824709
	0.066078	0.0329542	-0.01003305	-0.005412418	0.00169219	-0.02895408	0.4057321	-0.8718731
	-0.01001892	-0.005412834	0.06806189	0.02824709	0.4057321	-0.8718731	0.003015865	-0.03123898
2.5e+08	1.731674e-06	-0.0295071	0.3647068	-0.8887398	0.06940807	0.03087971	-0.01078721	-0.005254451
	0.3647068	-0.8887398	0.001149449	-0.03161174	-0.01080263	-0.005252545	0.07129978	0.02574514
	0.06940807	0.03087971	-0.01080263	-0.005252545	0.0006402745	-0.02889169	0.3644182	-0.8889559
	-0.01078721	-0.005254451	0.07129978	0.02574514	0.3644182	-0.8889559	0.001958201	-0.03147729
2.6e+08	-0.000938747	-0.02930801	0.3227079	-0.9038884	0.07259307	0.02853791	-0.01157834	-0.005030093
	0.3227079	-0.9038884	0.0001937013	-0.03169615	-0.011595	-0.005026194	0.07435825	0.02296989
	0.07259307	0.02853791	-0.011595	-0.005026194	-0.0002637376	-0.02870411	0.3223952	-0.9040962
	-0.01157834	-0.005030093	0.07435825	0.02296989	0.3223952	-0.9040962	0.001025744	-0.03160633
2.7e+08	-0.001735684	-0.02900341	0.2801167	-0.9170623	0.07561297	0.02594316	-0.01238769	-0.004736793
	0.2801167	-0.9170623	-0.0006396519	-0.03169415	-0.01240536	-0.004730885	0.0772165	0.01993944
	0.07561297	0.02594316	-0.01240536	-0.004730885	-0.001025422	-0.02841413	0.2797795	-0.9172614
	-0.01238769	-0.004736793	0.0772165	0.01993944	0.2797795	-0.9172614	0.0002116513	-0.03165087
2.8e+08	-0.002378222	-0.02861241	0.2370283	-0.9282411	0.07844987	0.02310954	-0.01320977	-0.004370639
	0.2370283	-0.9282411	-0.001341876	-0.03162464	-0.01322834	-0.00436223	0.07985573	0.01667098
	0.07844987	0.02310954	-0.01322834	-0.00436223	-0.001634171	-0.02804032	0.2366666	-0.9284296
	-0.01320977	-0.004370639	0.07985573	0.01667098	0.2366666	-0.9284296	-0.0004754487	-0.03162917
2.9e+08	-0.002853727	-0.02815449	0.193535	-0.9374094	0.08108721	0.02005207	-0.01403857	-0.003927238
	0.193535	-0.9374094	-0.001903407	-0.03150611	-0.01405786	-0.003916341	0.08225868	0.01318289
	0.08108721	0.02005207	-0.01405786	-0.003916341	-0.002077505	-0.02760258	0.1931489	-0.9375856
	-0.01403857	-0.003927238	0.08225868	0.01318289	0.1931489	-0.9375856	-0.001025958	-0.03155964
3e+08	-0.003152022	-0.02765068	0.1497273	-0.9445545	0.08350937	0.01678658	-0.01486737	-0.003403628
	0.1497273	-0.9445545	-0.002316275	-0.03135856	-0.01488717	-0.003390044	0.08440951	0.009494171
	0.08350937	0.01678658	-0.01488717	-0.003390044	-0.002345283	-0.02712157	0.1493166	-0.9447153
	-0.01486737	-0.003403628	0.08440951	0.009494171	0.1493166	-0.9447153	-0.001431932	-0.03146164
3.1e+08	-0.003265057	-0.02712304	0.1056957	-0.9496692	0.08570245	0.01333002	-0.01568899	-0.002797137
	0.1056957	-0.9496692	-0.002575054	-0.03120266	-0.01570883	-0.002780389	0.08629449	0.005625497
	0.08570245	0.01333002	-0.01570883	-0.00278039	-0.002429538	-0.0266197	0.1052624	-0.9498113
	-0.01568899	-0.002797137	0.08629449	0.005625497	0.1052624	-0.9498113	-0.001688181	-0.03135563
3.2e+08	-0.003178149	-0.02659576	0.06151925	-0.952748	0.08765363	0.009698732	-0.01649499	-0.002104809
	0.06151925	-0.952748	-0.002667834	-0.03105908	-0.01651461	-0.002084711	0.087901	0.001596337
	0.08765363	0.009698732	-0.01651461	-0.002084711	-0.002316295	-0.02612045	0.06106179	-0.9528711
	-0.01649499	-0.002104809	0.087901	0.001596337	0.06106179	-0.9528711	-0.001782684	-0.03126159
3.3e+08	-0.002883083	-0.02609458	0.01727664	-0.9537869	0.08935084	0.005910256	-0.01727641	-0.001324588
	0.01727664	-0.9537869	-0.002588544	-0.03095028	-0.01729553	-0.001301579	0.08921746	-0.00257257
	0.08935084	0.005910256	-0.01729553	-0.001301579	-0.001997275	-0.02564989	0.01679741	-0.9538888
	-0.01727641	-0.001324588	0.08921746	-0.00257257	0.01679741	-0.9538888	-0.001709207	-0.03120166
3.4e+08	-0.002394866	-0.02564296	-0.02691407	-0.9527892	0.09078494	0.001985794	-0.01802585	-0.0004583374
	-0.02691407	-0.9527892	-0.002354386	-0.03090035	-0.01804399	-0.0004317683	0.09023588	-0.006856013
	0.09078494	0.001985794	-0.01804399	-0.0004317686	-0.001487584	-0.02523098	-0.02741662	-0.9528693
	-0.01802585	-0.0004583374	0.09023588	-0.006856014	-0.02741662	-0.9528693	-0.001484909	-0.03119929
3.5e+08	-0.00171576	-0.0252652	-0.07096458	-0.9497632	0.09194737	-0.002054965	-0.01873476	0.0004936307
	-0.07096458	-0.9497632	-0.001969922	-0.03093083	-0.01875144	0.0005238306	0.09094924	-0.01123136
	0.09194737	-0.002054966	-0.01875144	0.0005238306	-0.0007895293	-0.02488839	-0.07148604	-0.9498171
	-0.01873476	0.0004936307	0.09094924	-0.01123136	-0.07148604	-0.9498171	-0.001113994	-0.03127639
3.6e+08	-0.0008504856	-0.0249857	-0.1147819	-0.944719	0.09283143	-0.006191857	-0.01939441	0.001529836
	-0.1147819	-0.944719	-0.001442168	-0.0310637	-0.0194094	0.001563404	0.09135234	-0.01567521
	0.09283143	-0.006191857	-0.0194094	0.001563404	9.171156e-05	-0.024646	-0.1153221	-0.944745
	-0.01939441	0.001529836	0.09135234	-0.01567521	-0.1153221	-0.944745	-0.0006032788	-0.03145367
3.7e+08	0.0001935221	-0.02482806	-0.1582777	-0.9376699	0.093432	-0.0104048	-0.01999627	0.002647525
	-0.1582777	-0.9376699	-0.0007804075	-0.0313196	-0.02000902	0.002684728	0.09144184	-0.02016424
	0.093432	-0.0104048	-0.02000902	0.002684728	0.001148634	-0.02452739	-0.1588358	-0.9376674
	-0.01999627	0.002647525	0.09144184	-0.02016424	-0.1588358	-0.9376674	3.810088e-05	-0.03175193
3.8e+08	0.001406579	-0.02481577	-0.2013635	-0.9286352	0.09374499	-0.0146733	-0.02053163	0.003844069
	-0.2013635	-0.9286352	3.822546e-06	-0.03171843	-0.02054188	0.003884138	0.09121607	-0.02467515
	0.09374499	-0.0146733	-0.02054188	0.003884138	0.002371357	-0.02455615	-0.2019363	-0.9286003
	-0.02053163	0.003844069	0.09121607	-0.02467515	-0.2019363	-0.9286003	0.0007990155	-0.03219119
3.9e+08	0.002775719	-0.02497166	-0.2439483	-0.917636	0.09376849	-0.01897668	-0.02099259	0.005114194
	-0.2439483	-0.917636	0.0008961185	-0.03227981	-0.0209995	0.005157905	0.09067551	-0.02918467
	0.09376849	-0.01897668	-0.0209995	0.005157904	0.003746783	-0.02475418	-0.2445349	-0.9175702
	-0.02099259	0.005114194	0.09067551	-0.02918467	-0.2445349	-0.9175702	0.001665224	-0.03278973
4e+08	0.004288903	-0.02531872	-0.2859502	-0.9046971	0.0935011	-0.02329518	-0.0213703	0.006453555
	-0.2859502	-0.9046971	0.001883256	-0.03302193	-0.02137375	0.006500253	0.08982137	-0.03367043
	0.0935011	-0.02329518	-0.02137375	0.006500253	0.005263037	-0.02514474	-0.2865488	-0.9045962
	-0.0213703	0.006453555	0.08982137	-0.03367043	-0.2865488	-0.9045962	0.002624144	-0.03356646
4.1e+08	0.005937266	-0.02588217	-0.3273063	-0.8898338	0.09294149	-0.02760996	-0.02165529	0.0078567
	-0.3273063	-0.8898338	0.002956298	-0.03396374	-0.0216548	0.007905961	0.08865507	-0.03811142
	0.09294149	-0.02760996	-0.0216548	0.007905961	0.006910631	-0.02575292	-0.3279158	-0.8896974
	-0.02165529	0.0078567	0.08865507	-0.03811142	-0.3279158	-0.8896974	0.00366689	-0.0345397
4.2e+08	0.007688228	-0.02667505	-0.3679009	-0.8730919	0.09209406	-0.03189856	-0.02184328	0.009315137
	-0.3679009	-0.8730919	0.004081112	-0.03511739	-0.02183819	0.009366923	0.08718442	-0.04248324
	0.09209406	-0.03189856	-0.02183819	0.009366923	0.008657104	-0.02659126	-0.3685175	-0.8729189
	-0.02184328	0.009315137	0.08718442	-0.04248324	-0.3685175	-0.8729189	0.004759871	-0.03572165
4.3e+08	0.009520484	-0.02771393	-0.4076511	-0.854507	0.09096224	-0.03614133	-0.02192758	0.01082183
	-0.4076511	-0.854507	0.005235926	-0.03649541	-0.02191784	0.01087563	0.08541633	-0.04676404
	0.09096224	-0.03614133	-0.02191784	0.01087563	0.01048128	-0.02767624	-0.4082734	-0.8542962
	-0.02192758	0.01082183	0.08541633	-0.04676404	-0.4082734	-0.8542962	0.005881332	-0.03712469
4.4e+08	0.01141107	-0.02901377	-0.446475	-0.8341187	0.08955106	-0.04031879	-0.02190285	0.01236827
	-0.446475	-0.8341187	0.006397055	-0.0381082	-0.02188774	0.0124238	0.08335911	-0.05093325
	0.08955106	-0.04031879	-0.02188774	0.0124238	0.01235965	-0.02902254	-0.4470998	-0.8338697
	-0.02190285	0.01236827	0.08335911	-0.05093325	-0.4470998	-0.8338697	0.007008427	-0.03875927
4.5e+08	0.01333418	-0.03058725	-0.4842886	-0.8119724	0.08786702	-0.04441221	-0.02176432	0.01394559
	-0.4842886	-0.8119724	0.007539199	-0.03996405	-0.02174355	0.01400248	0.0810231	-0.05497083
	0.08786702	-0.04441221	-0.02174355	0.01400248	0.01426656	-0.03064269	-0.4849138	-0.811684
	-0.02176432	0.01394559	0.0810231	-0.05497083	-0.4849138	-0.811684	0.008116112	-0.04063357
4.6e+08	0.01526283	-0.03244517	-0.5210121	-0.7881155	0.08591775	-0.04840339	-0.02150771	0.01554475
	-0.5210121	-0.7881155	0.008635953	-0.04206902	-0.02148128	0.01560228	0.07841966	-0.05885807
	0.08591775	-0.04840339	-0.02148128	0.01560228	0.01617553	-0.03254705	-0.5216359	-0.7877864
	-0.02150771	0.01554475	0.07841966	-0.05885807	-0.5216359	-0.7877864	0.009178371	-0.04275367
4.7e+08	0.01716967	-0.0345948	-0.556572	-0.7626001	0.08371211	-0.05227521	-0.02113052	0.01715551
	-0.556572	-0.7626001	0.009660353	-0.04442571	-0.02109791	0.01721333	0.07556142	-0.06257702
	0.08371211	-0.05227521	-0.02109791	0.01721333	0.0180582	-0.03474317	-0.5571899	-0.7622294
	-0.02113052	0.01715551	0.07556142	-0.06257702	-0.5571899	-0.7622294	0.01016859	-0.04512261
4.8e+08	0.01902528	-0.03704236	-0.5908893	-0.7354779	0.08126025	-0.05601086	-0.02063012	0.01876846
	-0.5908893	-0.7354779	0.0105845	-0.04703551	-0.02059143	0.01882559	0.07246236	-0.06611098
	0.08126025	-0.05601086	-0.02059143	0.01882559	0.01988566	-0.03723612	-0.5915003	-0.7350678
	-0.02063012	0.01876846	0.07246236	-0.06611098	-0.5915003	-0.7350678	0.01105923	-0.04774117
4.9e+08	0.02079892	-0.03979028	-0.6238891	-0.7068117	0.07857346	-0.05959516	-0.02000598	0.02037277
	-0.6238891	-0.7068117	0.01137945	-0.04989565	-0.01996073	0.02042898	0.06913759	-0.06944466
	0.07857346	-0.05959516	-0.01996073	0.02042898	0.02162735	-0.04002862	-0.6244922	-0.7063595
	-0.02000598	0.02037277	0.06913759	-0.06944466	-0.6244922	-0.7063595	0.01182183	-0.05060753
5e+08	0.02246079	-0.042838	-0.6555064	-0.6766611	0.07566368	-0.06301339	-0.01925714	0.02195857
	-0.6555064	-0.6766611	0.01201707	-0.05300143	-0.01920571	0.02201301	0.06560301	-0.07256392
	0.07566368	-0.06301339	-0.01920571	0.02201301	0.02325287	-0.04311992	-0.6560955	-0.6761683
	-0.01925714	0.02195857	0.065603	-0.07256392	-0.6560955	-0.6761683	0.01242814	-0.05371686
5.1e+08	0.02398118	-0.04618905	-0.6856858	-0.6450678	0.07254094	-0.06625195	-0.01838275	0.02351407
	-0.6856858	-0.6450678	0.01247306	-0.05634848	-0.01832502	0.02356605	0.06187165	-0.07545646
	0.07254094	-0.06625195	-0.01832502	0.02356605	0.02473331	-0.04651283	-0.6862609	-0.644536
	-0.01838275	0.02351407	0.06187165	-0.07545646	-0.6862609	-0.644536	0.01285476	-0.05706476
