!$
! Info: Touchstone file created by Circ.  Input file=Intel_C2M_200G_1p5in_202204012_staggered.circ
!$
# Hz S RI R 50
0	0.0107783	2.912808e-24	-5.187624e-05	6.353007e-21	0.0002768245	1.61779e-22	-4.748383e-05	5.815092e-21
	-5.187634e-05	6.353019e-21	0.01023412	1.648754e-24	-5.916022e-05	7.245038e-21	7.14548e-05	2.017809e-22
	0.0002768951	1.618928e-22	-5.916032e-05	7.245049e-21	0.01078408	2.950806e-24	-5.190168e-05	6.356122e-21
	-4.748382e-05	5.815091e-21	7.151343e-05	2.019148e-22	-5.190158e-05	6.35611e-21	0.01022699	1.562019e-24
1e+07	0.01267179	0.001296967	-0.0001837778	-0.0001226808	0.0005612483	0.003821764	-4.21502e-05	-9.132329e-05
	-0.0001837778	-0.0001226808	0.01235529	0.001235389	-0.0003204094	-5.521853e-05	0.0006957548	0.003825153
	0.0005612483	0.003821764	-0.0003204094	-5.521853e-05	0.01251204	0.001393499	-0.0001903752	-0.0001126651
	-4.21502e-05	-9.132329e-05	0.0006957548	0.003825153	-0.0001903752	-0.0001126651	0.0123331	0.001263647
2e+07	0.0146189	0.0008783269	-0.0001648413	-0.0002967295	0.001216112	0.007447338	-6.472531e-05	-0.0001660337
	-0.0001648413	-0.0002967295	0.0141562	0.0007315274	-0.0003334829	-0.0002247062	0.001343999	0.007342738
	0.001216159	0.007447323	-0.0003334829	-0.0002247062	0.01456258	0.001106926	-0.0001772321	-0.000281784
	-6.472531e-05	-0.0001660337	0.001343988	0.007342722	-0.0001772321	-0.000281784	0.01413527	0.0008007848
3e+07	0.01591904	-0.000494892	-0.0001660758	-0.0004155538	0.002246138	0.01090652	-9.364245e-05	-0.0002400169
	-0.0001660758	-0.0004155538	0.0156151	-0.0004906795	-0.0003579698	-0.0003380255	0.0022407	0.01085743
	0.002246125	0.0109065	-0.0003579698	-0.0003380255	0.01595645	-0.0002146729	-0.0001827975	-0.0003984328
	-9.364245e-05	-0.0002400169	0.002240683	0.01085742	-0.0001827975	-0.0003984328	0.01558957	-0.0003762682
4e+07	0.01693874	-0.002120604	-0.0001865121	-0.0005187569	0.003566442	0.01426588	-0.0001295214	-0.0003099769
	-0.0001865121	-0.0005187569	0.01665483	-0.002133556	-0.0003940139	-0.0004384182	0.003471702	0.01423222
	0.003566445	0.01426588	-0.0003940139	-0.0004384182	0.01705589	-0.001813127	-0.0002047859	-0.000500731
	-0.0001295214	-0.0003099769	0.00347169	0.01423224	-0.000204786	-0.000500731	0.01663451	-0.0019745
5e+07	0.01770196	-0.003964203	-0.0002443458	-0.0006047939	0.005198163	0.0174789	-0.0001720928	-0.0003755208
	-0.0002443458	-0.0006047939	0.01738968	-0.003977529	-0.0004396746	-0.0005294796	0.004995957	0.01747671
	0.00519817	0.01747891	-0.0004396746	-0.0005294796	0.01789263	-0.003644947	-0.000239185	-0.0005926751
	-0.0001720928	-0.0003755208	0.004995961	0.01747672	-0.000239185	-0.0005926751	0.01737733	-0.003774799
6e+07	0.01820461	-0.005930244	-0.0003361878	-0.0006716465	0.007126596	0.02052249	-0.0002207945	-0.0004359765
	-0.0003361878	-0.0006716465	0.01786567	-0.005949215	-0.0004937612	-0.0006128587	0.006806127	0.02056951
	0.0071266	0.02052249	-0.0004937612	-0.0006128587	0.01846375	-0.005611617	-0.0003082195	-0.0006683375
	-0.0002207945	-0.0004359765	0.006806149	0.0205695	-0.0003082194	-0.0006683375	0.01786443	-0.005702877
7e+07	0.01846453	-0.007964521	-0.0004372884	-0.0007241921	0.009337399	0.02337406	-0.0002753194	-0.0004913231
	-0.0004372884	-0.0007241921	0.01808349	-0.007998259	-0.0005560348	-0.0006897707	0.008886851	0.0234886
	0.009337402	0.02337406	-0.0005560348	-0.0006897707	0.01878703	-0.007658015	-0.0003936908	-0.0007303325
	-0.0002753194	-0.0004913232	0.008886856	0.0234886	-0.0003936908	-0.0007303325	0.01809679	-0.007708828
8e+07	0.01848862	-0.01004373	-0.0005424788	-0.0007654416	0.0118127	0.02601096	-0.0003352392	-0.0005412906
	-0.0005424788	-0.0007654415	0.01804694	-0.01007917	-0.0006263218	-0.0007601387	0.01122127	0.02621438
	0.01181271	0.02601096	-0.0006263218	-0.0007601387	0.01886893	-0.00975979	-0.0004975349	-0.0007775091
	-0.0003352392	-0.0005412906	0.01122127	0.02621438	-0.0004975349	-0.0007775091	0.01807857	-0.009747348
9e+07	0.01832512	-0.01207197	-0.0006434301	-0.0007878435	0.01453662	0.02841383	-0.0004000217	-0.0005855857
	-0.0006434301	-0.0007878435	0.01782653	-0.01208374	-0.0007036998	-0.0008258332	0.01379728	0.02873149
	0.01453662	0.02841383	-0.0007036998	-0.0008258332	0.018754	-0.01182661	-0.0005964022	-0.0008089847
	-0.0004000217	-0.0005855857	0.01379729	0.02873149	-0.0005964022	-0.0008089847	0.0178804	-0.0117099
1e+08	0.01792546	-0.014092	-0.0007509544	-0.0008026944	0.01748437	0.03056226	-0.0004698738	-0.0006247207
	-0.0007509545	-0.0008026944	0.01739847	-0.01405714	-0.0007888112	-0.0008846092	0.01659197	0.03101914
	0.01748437	0.03056227	-0.0007888112	-0.0008846092	0.01839696	-0.01389268	-0.000703214	-0.0008319817
	-0.0004698738	-0.0006247207	0.01659197	0.03101914	-0.000703214	-0.0008319817	0.01747803	-0.01364304
1.1e+08	0.01749322	-0.0161374	-0.0008382951	-0.0008180985	0.02063383	0.0324362	-0.0005441435	-0.0006592507
	-0.0008382951	-0.0008180985	0.01686405	-0.01600628	-0.0008743373	-0.0009392637	0.01961364	0.03305889
	0.02063383	0.0324362	-0.0008743373	-0.0009392637	0.0179761	-0.0159617	-0.0007937332	-0.0008549992
	-0.0005441435	-0.0006592507	0.01961364	0.0330589	-0.0007937331	-0.0008549993	0.01697316	-0.01555815
1.2e+08	0.01684887	-0.0180985	-0.0009304745	-0.0008276043	0.0239607	0.03402309	-0.0006230245	-0.000687747
	-0.0009304745	-0.0008276043	0.01616433	-0.01789389	-0.0009680031	-0.0009861287	0.02279569	0.03482531
	0.0239607	0.03402309	-0.0009680031	-0.0009861287	0.01733924	-0.01795117	-0.0008891444	-0.0008714302
	-0.0006230245	-0.000687747	0.02279569	0.03482531	-0.0008891444	-0.0008714302	0.01630589	-0.01741293
1.3e+08	0.01603171	-0.019963	-0.001027838	-0.0008322548	0.02743853	0.03531025	-0.0007060182	-0.0007096427
	-0.001027838	-0.0008322548	0.01530011	-0.0197037	-0.001066987	-0.001025056	0.02612398	0.03631189
	0.02743853	0.03531025	-0.001066987	-0.001025056	0.0165311	-0.01984031	-0.0009899044	-0.0008824148
	-0.0007060182	-0.0007096428	0.02612398	0.03631189	-0.0009899044	-0.0008824148	0.01547597	-0.01919301
1.4e+08	0.01506988	-0.02172315	-0.001129892	-0.0008314198	0.03104059	0.0362873	-0.0007920989	-0.0007239082
	-0.001129892	-0.0008314198	0.01428072	-0.02141313	-0.001170168	-0.001055575	0.02957826	0.03751133
	0.03104059	0.0362873	-0.001170168	-0.001055575	0.01558357	-0.02161771	-0.001095724	-0.0008875501
	-0.0007920989	-0.0007239082	0.02957826	0.03751133	-0.001095724	-0.0008875501	0.01449218	-0.02087627
1.5e+08	0.0139855	-0.02336043	-0.001234061	-0.0008214831	0.03474128	0.0369466	-0.0008810754	-0.0007309241
	-0.001234061	-0.0008214831	0.01312516	-0.02299042	-0.001279758	-0.001077141	0.03313907	0.03841885
	0.03474128	0.0369466	-0.001279758	-0.001077141	0.01451224	-0.02327465	-0.001204094	-0.0008834567
	-0.0008810754	-0.0007309241	0.03313907	0.03841885	-0.001204094	-0.0008834567	0.01337368	-0.02243057
1.6e+08	0.01280239	-0.02486336	-0.001339769	-0.0008026285	0.03851406	0.03728222	-0.0009723854	-0.0007304671
	-0.001339769	-0.0008026285	0.01186066	-0.0244151	-0.001394235	-0.001089954	0.03678334	0.0390281
	0.03851406	0.03728222	-0.001394235	-0.001089954	0.01334138	-0.02479875	-0.001314513	-0.0008702478
	-0.0009723854	-0.0007304671	0.03678334	0.0390281	-0.001314513	-0.0008702478	0.0121475	-0.02383528
1.7e+08	0.01155783	-0.02621289	-0.001447384	-0.0007760059	0.0423327	0.03728909	-0.001065444	-0.000722152
	-0.001447384	-0.0007760059	0.01053095	-0.0256642	-0.001510485	-0.001095606	0.04048744	0.03933283
	0.0423327	0.03728909	-0.001510485	-0.001095606	0.01211228	-0.02616766	-0.001427348	-0.0008488901
	-0.001065444	-0.000722152	0.04048744	0.03933283	-0.001427348	-0.0008488901	0.01085642	-0.0250678
1.8e+08	0.010254	-0.0274162	-0.00155475	-0.0007397235	0.04616935	0.03696635	-0.001159748	-0.0007060438
	-0.00155475	-0.0007397235	0.009141976	-0.02674336	-0.001631925	-0.001090702	0.04422707	0.03933139
	0.04616935	0.03696635	-0.001631925	-0.001090702	0.01082226	-0.02739244	-0.00154055	-0.0008176992
	-0.001159748	-0.0007060438	0.04422707	0.03933139	-0.00154055	-0.0008176992	0.009506833	-0.02613345
1.9e+08	0.008912397	-0.02846887	-0.001661115	-0.0006938385	0.04999711	0.03631469	-0.001254772	-0.0006820202
	-0.001661115	-0.0006938385	0.007719651	-0.02764792	-0.001757452	-0.001075105	0.04797801	0.03902279
	0.04999711	0.03631469	-0.001757452	-0.001075105	0.009493151	-0.02846851	-0.001653336	-0.000776653
	-0.001254772	-0.0006820202	0.04797801	0.03902278	-0.001653336	-0.000776653	0.008124303	-0.02702789
2e+08	0.007557123	-0.02936842	-0.001765813	-0.0006385615	0.05378923	0.03533631	-0.001349913	-0.0006499937
	-0.001765813	-0.0006385615	0.006290785	-0.02837627	-0.001885792	-0.001049014	0.05171638	0.03840784
	0.05378923	0.03533631	-0.001885792	-0.001049014	0.008148374	-0.02939289	-0.001765075	-0.0007258549
	-0.001349913	-0.0006499937	0.05171638	0.03840784	-0.001765075	-0.0007258549	0.006735441	-0.02774904
2.1e+08	0.00623587	-0.03010231	-0.001869576	-0.0005750715	0.05752115	0.03403383	-0.001444553	-0.00060971
	-0.001869576	-0.0005750715	0.004907	-0.02891865	-0.002011169	-0.00101916	0.05541916	0.03748697
	0.05752115	0.03403383	-0.002011169	-0.00101916	0.006839279	-0.03015184	-0.001876377	-0.0006662181
	-0.001444553	-0.00060971	0.05541916	0.03748697	-0.001876377	-0.0006662181	0.005391373	-0.02828768
2.2e+08	0.004944377	-0.03069127	-0.0019701	-0.0005023225	0.06116574	0.03241576	-0.001538175	-0.0005613453
	-0.0019701	-0.0005023225	0.003564396	-0.02929452	-0.002140806	-0.000974834	0.05906194	0.03626655
	0.06116574	0.03241576	-0.002140806	-0.000974834	0.005557897	-0.03076732	-0.001985067	-0.0005968347
	-0.001538175	-0.0005613453	0.05906194	0.03626655	-0.001985067	-0.0005968347	0.004088064	-0.02866293
2.3e+08	0.003702997	-0.03114233	-0.002066729	-0.000420673	0.06469806	0.0304907	-0.001630208	-0.0005049419
	-0.002066729	-0.000420673	0.002285381	-0.02951106	-0.002272573	-0.0009168975	0.06262224	0.03475296
	0.06469806	0.0304907	-0.002272573	-0.0009168975	0.004324651	-0.03124616	-0.002090485	-0.0005179451
	-0.001630208	-0.0005049419	0.06262224	0.03475296	-0.002090485	-0.0005179451	0.002848016	-0.02888171
2.4e+08	0.002530859	-0.03146495	-0.00215889	-0.0003303797	0.06809454	0.02826943	-0.001720075	-0.0004405777
	-0.00215889	-0.0003303797	0.00109119	-0.02957787	-0.002404843	-0.000845836	0.066078	0.0329542
	0.06809454	0.02826942	-0.002404843	-0.000845836	0.003158571	-0.03159773	-0.002191963	-0.000429776
	-0.001720075	-0.0004405777	0.066078	0.0329542	-0.002191963	-0.000429776	0.00169219	-0.02895408
2.5e+08	0.001445923	-0.03167105	-0.002245991	-0.0002318707	0.0713324	0.02576423	-0.001807197	-0.0003683051
	-0.002245991	-0.0002318707	1.731674e-06	-0.0295071	-0.002536218	-0.0007619416	0.06940807	0.03087971
	0.0713324	0.02576423	-0.002536218	-0.0007619416	0.002077576	-0.03183349	-0.002288879	-0.0003326414
	-0.001807197	-0.0003683051	0.06940807	0.03087971	-0.002288879	-0.0003326414	0.0006402745	-0.02889169
2.6e+08	0.0004888837	-0.0317661	-0.00232805	-0.0001261211	0.07439062	0.02298589	-0.001890915	-0.0002881683
	-0.00232805	-0.0001261211	-0.000938747	-0.02930801	-0.002667415	-0.0006606296	0.07259307	0.02853791
	0.07439062	0.02298589	-0.002667415	-0.0006606296	0.001123687	-0.03195902	-0.002381127	-0.0002272447
	-0.001890915	-0.0002881683	0.07259307	0.02853791	-0.002381127	-0.0002272447	-0.0002637376	-0.02870411
2.7e+08	-0.0003470765	-0.03177499	-0.002404115	-1.295804e-05	0.07724819	0.0199524	-0.001970743	-0.0002003885
	-0.002404115	-1.295804e-05	-0.001735684	-0.02900341	-0.002795037	-0.0005464094	0.07561297	0.02594316
	0.07724819	0.0199524	-0.002795037	-0.0005464094	0.0002887007	-0.03199886	-0.002467707	-0.000113526
	-0.001970743	-0.0002003885	0.07561297	0.02594316	-0.002467707	-0.000113526	-0.001025422	-0.02841413
2.8e+08	-0.001053257	-0.03171636	-0.002473621	0.0001072595	0.07988638	0.01668097	-0.002046131	-0.0001052469
	-0.002473621	0.0001072595	-0.002378222	-0.02861241	-0.002917787	-0.000419882	0.07844987	0.02310954
	0.07988638	0.01668097	-0.002917787	-0.000419882	-0.0004189347	-0.03197123	-0.002547974	8.150321e-06
	-0.002046131	-0.0001052469	0.07844987	0.02310954	-0.002547974	8.150321e-06	-0.001634171	-0.02804032
2.9e+08	-0.001620149	-0.03160858	-0.002536091	0.0002340267	0.08228786	0.01319006	-0.002116548	-2.986807e-06
	-0.002536091	0.0002340267	-0.002853727	-0.02815449	-0.003034658	-0.0002811244	0.08108721	0.02005207
	0.08228786	0.01319006	-0.003034658	-0.0002811244	-0.0009895344	-0.03189459	-0.002621379	0.0001374201
	-0.002116548	-2.986807e-06	0.08108721	0.02005207	-0.002621379	0.0001374201	-0.002077505	-0.02760258
3e+08	-0.002039746	-0.03147149	-0.002591092	0.0003668594	0.08443683	0.009498705	-0.002181487	0.0001061159
	-0.002591092	0.0003668594	-0.003152022	-0.02765068	-0.003144615	-0.000130342	0.08350937	0.01678658
	0.08443683	0.009498705	-0.003144615	-0.000130342	-0.001415102	-0.03178829	-0.002687388	0.0002738321
	-0.002181487	0.0001061159	0.08350937	0.01678658	-0.002687388	0.0002738321	-0.002345283	-0.02712157
3.1e+08	-0.002306636	-0.03132562	-0.002638267	0.0005052411	0.08631959	0.005627619	-0.002240424	0.0002218041
	-0.002638267	0.0005052411	-0.003265057	-0.02712304	-0.003246575	3.2277e-05	0.08570245	0.01333002
	0.08631959	0.005627618	-0.003246575	3.2277e-05	-0.001690369	-0.03167282	-0.002745532	0.0004168421
	-0.002240424	0.0002218041	0.08570245	0.01333002	-0.002745532	0.0004168421	-0.002429538	-0.0266197
3.2e+08	-0.002408918	-0.0311916	-0.002677503	0.000648589	0.08792357	0.001596353	-0.00229279	0.0003437122
	-0.002677503	0.000648589	-0.003178149	-0.02659576	-0.003339487	0.0002057747	0.08765363	0.009698732
	0.08792357	0.001596352	-0.003339487	0.0002057747	-0.001802921	-0.03156845	-0.002795552	0.0005659571
	-0.00229279	0.0003437122	0.08765363	0.009698732	-0.002795552	0.0005659571	-0.002316295	-0.02612045
3.3e+08	-0.002340569	-0.03109179	-0.002708678	0.0007964037	0.08923719	-0.002574271	-0.002338042	0.0004715225
	-0.002708678	0.0007964037	-0.002883083	-0.02609458	-0.003422327	0.0003892113	0.08935084	0.005910256
	0.08923719	-0.002574271	-0.003422327	0.0003892113	-0.001746378	-0.03149753	-0.002837179	0.0007207109
	-0.002338042	0.0004715225	0.08935084	0.005910256	-0.002837179	0.0007207109	-0.001997275	-0.02564989
3.4e+08	-0.00211858	-0.0310499	-0.002731129	0.0009482996	0.09025253	-0.006859089	-0.002375885	0.0006047618
	-0.002731129	0.0009482995	-0.002394866	-0.02564296	-0.003494149	0.0005825978	0.09078494	0.001985794
	0.09025253	-0.006859089	-0.003494149	0.0005825978	-0.001538284	-0.03148309	-0.002869684	0.0008806394
	-0.002375885	0.0006047618	0.09078494	0.001985794	-0.002869684	0.0008806394	-0.001487584	-0.02523098
3.5e+08	-0.001747496	-0.03108734	-0.002744591	0.001103699	0.09096255	-0.01123541	-0.002405865	0.0007429597
	-0.002744591	0.001103699	-0.00171576	-0.0252652	-0.003554045	0.0007852337	0.09194737	-0.002054965
	0.09096255	-0.01123541	-0.003554045	0.0007852337	-0.001182802	-0.03154711	-0.002892701	0.001045127
	-0.002405865	0.0007429597	0.09194737	-0.002054966	-0.002892701	0.001045127	-0.0007895293	-0.02488839
3.6e+08	-0.001234187	-0.0312259	-0.002748883	0.001262066	0.0913621	-0.01567984	-0.002427606	0.0008856369
	-0.002748883	0.001262066	-0.0008504856	-0.0249857	-0.003601057	0.0009964239	0.09283143	-0.006191857
	0.0913621	-0.01567984	-0.003601057	0.0009964239	-0.0006866534	-0.0317103	-0.002905926	0.001213588
	-0.002427606	0.0008856369	0.09283143	-0.006191857	-0.002905926	0.001213588	9.171156e-05	-0.024646
3.7e+08	-0.0005878416	-0.03148614	-0.00274378	0.001422892	0.0914479	-0.02016897	-0.002440703	0.001032376
	-0.00274378	0.001422892	0.0001935221	-0.02482806	-0.00363434	0.001215301	0.093432	-0.0104048
	0.0914479	-0.02016897	-0.00363434	0.001215301	-5.889701e-05	-0.03199353	-0.002909035	0.001385507
	-0.002440703	0.001032376	0.093432	-0.0104048	-0.002909035	0.001385507	0.001148634	-0.02452739
3.8e+08	0.0001801173	-0.03188782	-0.002729158	0.001585589	0.09121833	-0.02467948	-0.002444835	0.001182588
	-0.002729158	0.001585589	0.001406579	-0.02481577	-0.003653133	0.001440834	0.09374499	-0.0146733
	0.09121833	-0.02467948	-0.003653133	0.001440834	0.0006893979	-0.03241686	-0.002901784	0.00156021
	-0.002444835	0.001182588	0.09374499	-0.0146733	-0.002901784	0.00156021	0.002371357	-0.02455615
3.9e+08	0.00105547	-0.03245046	-0.002704898	0.001749614	0.0906739	-0.02918814	-0.002439663	0.001335765
	-0.002704898	0.001749614	0.002775719	-0.02497166	-0.003656741	0.001671997	0.09376849	-0.01897668
	0.0906739	-0.02918814	-0.003656741	0.001671997	0.001544084	-0.03299862	-0.002883965	0.001737097
	-0.002439663	0.001335765	0.09376849	-0.01897668	-0.002883965	0.001737097	0.003746783	-0.02475418
4e+08	0.00202508	-0.03319218	-0.002670984	0.001914438	0.08981593	-0.0336725	-0.002424859	0.001491327
	-0.002670984	0.001914438	0.004288903	-0.02531872	-0.0036447	0.001907038	0.0935011	-0.02329518
	0.08981593	-0.0336725	-0.0036447	0.001907038	0.002492673	-0.0337579	-0.002855406	0.001915627
	-0.002424859	0.001491327	0.0935011	-0.02329518	-0.002855406	0.001915627	0.005263037	-0.02514474
4.1e+08	0.003080118	-0.03413192	-0.002627575	0.002079666	0.08864587	-0.0381115	-0.002400045	0.001648705
	-0.002627575	0.002079666	0.005937266	-0.02588217	-0.003617632	0.002142051	0.09294149	-0.02760996
	0.08864587	-0.0381115	-0.003617632	0.002142051	0.003526408	-0.03471338	-0.00281622	0.002095264
	-0.002400045	0.001648705	0.09294149	-0.02760996	-0.00281622	0.002095264	0.006910631	-0.02575292
4.2e+08	0.004186717	-0.03528164	-0.002574293	0.002244682	0.08717157	-0.04248081	-0.002365201	0.001807229
	-0.002574293	0.002244682	0.007688228	-0.02667505	-0.003574308	0.002378879	0.09209406	-0.03189856
	0.08717157	-0.04248081	-0.003574308	0.002378879	0.00461164	-0.03587692	-0.002765964	0.002275258
	-0.002365201	0.001807229	0.09209406	-0.03189856	-0.002765964	0.002275258	0.008657104	-0.02659126
4.3e+08	0.005323301	-0.0366538	-0.002511092	0.002408961	0.08540003	-0.04675861	-0.002320041	0.001966342
	-0.002511092	0.002408961	0.009520484	-0.02771393	-0.00351458	0.00261614	0.09096224	-0.03614133
	0.08540003	-0.04675861	-0.00351458	0.00261614	0.005726681	-0.03726099	-0.002704493	0.002455016
	-0.002320041	0.001966342	0.09096224	-0.03614133	-0.002704493	0.002455016	0.01048128	-0.02767624
4.4e+08	0.006466419	-0.03825882	-0.002437961	0.002571947	0.08333961	-0.05092432	-0.002264461	0.002125351
	-0.002437961	0.002571947	0.01141107	-0.02901377	-0.00343825	0.002852642	0.08955106	-0.04031879
	0.08333961	-0.05092432	-0.00343825	0.002852642	0.006848745	-0.03887609	-0.002631824	0.002633773
	-0.002264461	0.002125351	0.08955106	-0.04031879	-0.002631824	0.002633773	0.01235965	-0.02902254
4.5e+08	0.007590925	-0.04010497	-0.002354912	0.002733125	0.0810007	-0.05495791	-0.002198388	0.002283566
	-0.002354912	0.002733125	0.01333418	-0.03058725	-0.003345252	0.003087171	0.08786702	-0.04441221
	0.0810007	-0.05495791	-0.003345252	0.003087171	0.007952837	-0.04073056	-0.002547945	0.002810893
	-0.002198388	0.002283566	0.08786702	-0.04441221	-0.002547945	0.002810893	0.01426656	-0.03064269
4.6e+08	0.008670637	-0.04219831	-0.002262029	0.002891888	0.07839474	-0.05884071	-0.00212171	0.002440346
	-0.002262029	0.002891888	0.01526283	-0.03244517	-0.003235778	0.003318315	0.08591775	-0.04840339
	0.07839474	-0.05884071	-0.003235778	0.003318315	0.009012981	-0.04283053	-0.002452732	0.002985791
	-0.00212171	0.002440346	0.08591775	-0.04840339	-0.002452732	0.002985791	0.01617553	-0.03254705
4.7e+08	0.009678778	-0.04454147	-0.0021593	0.003047757	0.07553438	-0.06255479	-0.00203444	0.002594966
	-0.0021593	0.003047757	0.01716967	-0.0345948	-0.003110034	0.003544805	0.08371211	-0.05227521
	0.07553438	-0.06255479	-0.003110034	0.003544805	0.01000259	-0.04517921	-0.002346356	0.003157722
	-0.00203444	0.002594966	0.08371211	-0.05227521	-0.002346356	0.003157722	0.0180582	-0.03474317
4.8e+08	0.01058765	-0.04713594	-0.002046808	0.003200202	0.07243367	-0.06608352	-0.001936546	0.002746762
	-0.002046808	0.003200202	0.01902528	-0.03704236	-0.002968237	0.003765531	0.08126025	-0.05601086
	0.07243367	-0.06608352	-0.002968237	0.003765531	0.01089421	-0.04777744	-0.002228813	0.003326055
	-0.001936546	0.002746762	0.08126025	-0.05601086	-0.002228813	0.003326055	0.01988566	-0.03723612
