!$
! Info: Touchstone file created by Circ.  Input file=Intel_C2M_200G_2in_202204012_staggered.circ
!$
# Hz S RI R 50
0	0.01118975	1.668378e-24	3.386782e-05	3.178299e-23	7.589591e-05	2.100772e-22	3.38005e-05	3.169107e-23
	3.386782e-05	3.178299e-23	0.01120307	1.863852e-24	3.384998e-05	3.17583e-23	7.55067e-05	2.091809e-22
	7.595443e-05	2.102109e-22	3.384997e-05	3.175912e-23	0.01117948	1.612108e-24	3.381339e-05	3.166811e-23
	3.38005e-05	3.169189e-23	7.556521e-05	2.093146e-22	3.381339e-05	3.166811e-23	0.01119595	1.764952e-24
1e+07	0.01371968	0.001215326	9.311324e-06	9.312425e-06	0.0006089061	0.003997609	1.191498e-06	1.198656e-05
	9.311324e-06	9.312425e-06	0.01356636	0.001083995	4.593364e-05	6.677201e-06	0.0007815883	0.00406447
	0.0006089061	0.003997609	4.593364e-05	6.677201e-06	0.01390606	0.001182574	1.502639e-06	9.790102e-06
	1.191498e-06	1.198656e-05	0.0007815883	0.00406447	1.502639e-06	9.790102e-06	0.01354068	0.001111228
2e+07	0.01582533	0.0003653837	6.082436e-06	5.652091e-06	0.001405749	0.007713753	2.310783e-06	8.315585e-06
	6.082436e-06	5.65209e-06	0.0155887	0.0002099993	3.536833e-05	1.685228e-05	0.001553435	0.007783586
	0.001405738	0.007713738	3.536833e-05	1.685228e-05	0.01590443	0.0002586074	2.184965e-06	4.934122e-06
	2.310783e-06	8.315584e-06	0.001553424	0.007783571	2.184965e-06	4.934121e-06	0.01556387	0.0002792228
3e+07	0.01747874	-0.001344847	4.427084e-06	1.028701e-05	0.002513253	0.01136619	3.344583e-06	8.430886e-06
	4.427085e-06	1.028701e-05	0.01717589	-0.001501305	2.819502e-05	2.520388e-05	0.002645611	0.01147571
	0.002513236	0.01136619	2.819501e-05	2.520388e-05	0.0174685	-0.001434102	2.879882e-06	4.685058e-06
	3.344583e-06	8.430886e-06	0.002645594	0.0114757	2.879882e-06	4.685058e-06	0.0171471	-0.001385677
4e+07	0.01862608	-0.003533616	3.487197e-06	1.371121e-05	0.004014148	0.01483325	4.28623e-06	8.990368e-06
	3.487198e-06	1.371121e-05	0.01826643	-0.003677293	2.286352e-05	3.05528e-05	0.004137179	0.01498969
	0.004014138	0.01483326	2.286352e-05	3.05528e-05	0.01854965	-0.003580203	3.564336e-06	5.231299e-06
	4.28623e-06	8.990368e-06	0.004137168	0.01498971	3.564336e-06	5.231299e-06	0.01824426	-0.003516003
5e+07	0.01939398	-0.005954244	5.379375e-06	1.582831e-05	0.005863302	0.01811954	5.142475e-06	9.650546e-06
	5.379375e-06	1.582831e-05	0.01898456	-0.006075345	1.838034e-05	3.434203e-05	0.005982386	0.01832624
	0.005863306	0.01811955	1.838034e-05	3.434203e-05	0.01926485	-0.005943033	4.326608e-06	6.338015e-06
	5.142475e-06	9.650546e-06	0.005982389	0.01832625	4.326609e-06	6.338015e-06	0.01897245	-0.005869578
6e+07	0.01983326	-0.00851675	7.766533e-06	1.723769e-05	0.008047309	0.02119678	5.92293e-06	1.032162e-05
	7.766533e-06	1.723769e-05	0.01938043	-0.008607224	1.345246e-05	3.746111e-05	0.008167272	0.02145481
	0.008047331	0.02119678	1.345246e-05	3.746111e-05	0.01966418	-0.00843643	5.135252e-06	7.595617e-06
	5.92293e-06	1.032162e-05	0.008167293	0.02145481	5.135252e-06	7.595617e-06	0.01938219	-0.008357398
7e+07	0.01994712	-0.01115925	1.005732e-05	1.809478e-05	0.01054363	0.02403613	6.638172e-06	1.098139e-05
	1.005732e-05	1.809478e-05	0.0194575	-0.01121133	1.57753e-05	3.73196e-05	0.0106687	0.0243453
	0.01054363	0.02403613	1.57753e-05	3.73196e-05	0.01975069	-0.01100098	5.879938e-06	8.666019e-06
	6.638173e-06	1.098139e-05	0.0106687	0.0243453	5.879939e-06	8.666019e-06	0.01947719	-0.01091843
8e+07	0.01974267	-0.01382678	1.217483e-05	1.86548e-05	0.01332729	0.02661177	7.325953e-06	1.168625e-05
	1.217483e-05	1.86548e-05	0.01922323	-0.01383363	2.12038e-05	3.508365e-05	0.01346113	0.02697104
	0.01332729	0.02661177	2.12038e-05	3.508365e-05	0.01953152	-0.01358359	6.56861e-06	9.604313e-06
	7.325953e-06	1.168625e-05	0.01346114	0.02697104	6.56861e-06	9.604313e-06	0.01926516	-0.01349897
9e+07	0.01930017	-0.01640346	1.358005e-05	1.855549e-05	0.01637671	0.02890155	7.841387e-06	1.218909e-05
	1.358005e-05	1.855549e-05	0.0187621	-0.0163523	2.444024e-05	3.040256e-05	0.01652403	0.02931033
	0.01637672	0.02890155	2.444024e-05	3.040256e-05	0.01909143	-0.0160627	7.172561e-06	1.047896e-05
	7.841388e-06	1.218909e-05	0.01652403	0.02931033	7.172561e-06	1.047896e-05	0.01883075	-0.01597686
1e+08	0.01859515	-0.0189285	1.511964e-05	1.865693e-05	0.01965989	0.03088164	8.466477e-06	1.295047e-05
	1.511964e-05	1.865693e-05	0.01804682	-0.01881544	2.869567e-05	2.573568e-05	0.01982346	0.03133731
	0.01965989	0.03088164	2.869567e-05	2.573568e-05	0.01840144	-0.01848799	7.798527e-06	1.136068e-05
	8.466477e-06	1.295047e-05	0.01982346	0.03133731	7.798527e-06	1.136068e-05	0.01814598	-0.01840178
1.1e+08	0.01772934	-0.02137839	1.520222e-05	1.927013e-05	0.02317131	0.03253206	8.605306e-06	1.385573e-05
	1.520222e-05	1.927013e-05	0.01720136	-0.02123156	2.718717e-05	2.306432e-05	0.02335781	0.03302458
	0.02317131	0.03253206	2.718717e-05	2.306432e-05	0.01758817	-0.02087197	8.336687e-06	1.270296e-05
	8.605306e-06	1.385573e-05	0.02335781	0.03302458	8.336687e-06	1.270296e-05	0.01733526	-0.02078716
1.2e+08	0.01665756	-0.02373454	1.568344e-05	2.042448e-05	0.02683713	0.03382525	9.087549e-06	1.518328e-05
	1.568344e-05	2.042448e-05	0.01615269	-0.02355444	2.612487e-05	2.158698e-05	0.02704679	0.03435084
	0.02683713	0.03382525	2.612487e-05	2.158698e-05	0.01657601	-0.0231645	9.043795e-06	1.41071e-05
	9.087549e-06	1.518328e-05	0.02704679	0.03435084	9.043795e-06	1.41071e-05	0.01632437	-0.02308147
1.3e+08	0.01539359	-0.02596958	1.631356e-05	2.167668e-05	0.03063378	0.03475402	9.821351e-06	1.673071e-05
	1.631356e-05	2.167668e-05	0.01490796	-0.02576308	2.542461e-05	2.097112e-05	0.03086516	0.03530744
	0.03063378	0.03475402	2.542461e-05	2.097112e-05	0.01537154	-0.02534712	9.869277e-06	1.550235e-05
	9.821351e-06	1.673071e-05	0.03086516	0.03530744	9.869277e-06	1.550235e-05	0.0151191	-0.02526575
1.4e+08	0.0139585	-0.02805529	1.724629e-05	2.317082e-05	0.03453109	0.03531127	1.080873e-05	1.843326e-05
	1.724629e-05	2.317082e-05	0.01348397	-0.02783154	2.502535e-05	2.096371e-05	0.03478135	0.03588682
	0.03453109	0.03531127	2.502535e-05	2.096371e-05	0.01399102	-0.02739483	1.071106e-05	1.677736e-05
	1.080873e-05	1.843326e-05	0.03478135	0.03588682	1.071106e-05	1.677736e-05	0.01373549	-0.02731451
1.5e+08	0.01237137	-0.02996624	1.858021e-05	2.492256e-05	0.03849784	0.03549166	1.204601e-05	2.020451e-05
	1.858021e-05	2.492256e-05	0.0119084	-0.02972558	2.487602e-05	2.132245e-05	0.03876509	0.03608554
	0.03849784	0.03549165	2.487602e-05	2.132245e-05	0.01246082	-0.02927283	1.166199e-05	1.803799e-05
	1.204601e-05	2.020451e-05	0.03876509	0.03608554	1.166199e-05	1.803799e-05	0.01220134	-0.02919301
1.6e+08	0.01066897	-0.03168162	2.020321e-05	2.674928e-05	0.04250044	0.03529126	1.354757e-05	2.203064e-05
	2.020321e-05	2.674928e-05	0.0102171	-0.03142498	2.491782e-05	2.193055e-05	0.04278213	0.03589965
	0.04250044	0.03529126	2.491782e-05	2.193055e-05	0.01081643	-0.03096089	1.272011e-05	1.927783e-05
	1.354757e-05	2.203064e-05	0.04278213	0.03589965	1.272011e-05	1.927783e-05	0.01055223	-0.03088082
1.7e+08	0.008909636	-0.03317844	2.211343e-05	2.865828e-05	0.04650543	0.03470761	1.508215e-05	2.370136e-05
	2.211343e-05	2.865828e-05	0.008463848	-0.03290875	2.502676e-05	2.266291e-05	0.04679772	0.03532632
	0.04650543	0.03470761	2.502676e-05	2.266291e-05	0.009110777	-0.03243885	1.386247e-05	2.049907e-05
	1.508215e-05	2.370136e-05	0.04679773	0.03532632	1.386247e-05	2.049907e-05	0.008840773	-0.03235733
1.8e+08	0.00709801	-0.0344684	2.4309e-05	3.054527e-05	0.0504777	0.03374333	1.682475e-05	2.534107e-05
	2.4309e-05	3.054527e-05	0.006658579	-0.03418586	2.54046e-05	2.361052e-05	0.05077706	0.03436929
	0.0504777	0.03374333	2.54046e-05	2.361052e-05	0.007353243	-0.03371475	1.512548e-05	2.169139e-05
	1.682475e-05	2.534107e-05	0.05077706	0.03436929	1.512548e-05	2.169139e-05	0.007077346	-0.03363113
1.9e+08	0.005266217	-0.03555097	2.683834e-05	3.241186e-05	0.05438349	0.03240333	1.878252e-05	2.692994e-05
	2.683834e-05	3.241186e-05	0.004833509	-0.03525586	2.603252e-05	2.470335e-05	0.0546859	0.03303376
	0.05438349	0.03240333	2.603252e-05	2.470335e-05	0.005575342	-0.03478822	1.651144e-05	2.284807e-05
	1.878252e-05	2.692994e-05	0.0546859	0.03303376	1.651144e-05	2.284807e-05	0.005293653	-0.03470197
2e+08	0.003446774	-0.03642952	2.976201e-05	3.425488e-05	0.05818991	0.03069516	2.095856e-05	2.844454e-05
	2.976201e-05	3.425488e-05	0.003021054	-0.03612226	2.687362e-05	2.587417e-05	0.05849094	0.03132768
	0.05818991	0.03069516	2.687362e-05	2.587417e-05	0.003809141	-0.03566219	1.802273e-05	2.396307e-05
	2.095856e-05	2.844454e-05	0.05849094	0.03132768	1.802273e-05	2.396307e-05	0.003521892	-0.03557292
2.1e+08	0.00170201	-0.0371008	3.267077e-05	3.584687e-05	0.06186579	0.02862659	2.329466e-05	2.987379e-05
	3.267077e-05	3.584687e-05	0.001280481	-0.03678241	2.759535e-05	2.69669e-05	0.06216017	0.02925897
	0.06186579	0.02862659	2.759535e-05	2.69669e-05	0.002113266	-0.03633469	1.965271e-05	2.504992e-05
	2.329466e-05	2.987379e-05	0.06216017	0.02925897	1.965271e-05	2.504992e-05	0.001820592	-0.03624172
2.2e+08	2.467792e-05	-0.0375909	3.583917e-05	3.728642e-05	0.06537888	0.02621295	2.5852e-05	3.119917e-05
	3.583917e-05	3.728642e-05	-0.000392128	-0.03726189	2.872894e-05	2.821506e-05	0.06566149	0.02684382
	0.06537888	0.02621295	2.872894e-05	2.821506e-05	0.0004832798	-0.03683013	2.142273e-05	2.606591e-05
	2.5852e-05	3.119917e-05	0.06566149	0.02684382	2.142273e-05	2.606591e-05	0.000185724	-0.03673353
2.3e+08	-0.001560302	-0.03791411	3.926431e-05	3.855179e-05	0.06870003	0.02346995	2.863299e-05	3.239818e-05
	3.926431e-05	3.855179e-05	-0.00197189	-0.03757521	3.019411e-05	2.951871e-05	0.06896545	0.02409848
	0.06870003	0.02346995	3.019411e-05	2.951871e-05	-0.001055941	-0.03716248	2.333295e-05	2.700347e-05
	2.863299e-05	3.239818e-05	0.06896545	0.02409848	2.333295e-05	2.700347e-05	-0.001357774	-0.0370626
2.4e+08	-0.003030297	-0.03808761	4.294209e-05	3.961896e-05	0.07180142	0.02041574	3.163641e-05	3.344901e-05
	4.294209e-05	3.961896e-05	-0.00343625	-0.03773982	3.194215e-05	3.081566e-05	0.07204406	0.02104161
	0.07180142	0.02041574	3.194215e-05	3.081566e-05	-0.00248229	-0.03734923	2.53851e-05	2.785244e-05
	3.163641e-05	3.344901e-05	0.07204406	0.02104161	2.53851e-05	2.785244e-05	-0.002787804	-0.03724667
2.5e+08	-0.004365284	-0.03813149	4.686678e-05	4.046235e-05	0.0746571	0.01707038	3.48598e-05	3.43281e-05
	4.686678e-05	4.046235e-05	-0.004765247	-0.03777599	3.394418e-05	3.206131e-05	0.0748712	0.01769388
	0.0746571	0.01707038	3.394418e-05	3.206131e-05	-0.003775913	-0.03740977	2.75792e-05	2.860189e-05
	3.48598e-05	3.43281e-05	0.0748712	0.01769388	2.75792e-05	2.860189e-05	-0.004084592	-0.03730544
2.6e+08	-0.005519062	-0.03806535	5.098045e-05	4.104853e-05	0.07724342	0.01345278	3.827842e-05	3.502249e-05
	5.098045e-05	4.104853e-05	-0.005914249	-0.03770323	3.630309e-05	3.328136e-05	0.0774229	0.01407467
	0.07724342	0.01345278	3.630309e-05	3.328136e-05	-0.004892497	-0.03736379	2.991452e-05	2.923382e-05
	3.827842e-05	3.502249e-05	0.0774229	0.01407467	2.991452e-05	2.923382e-05	-0.005203927	-0.0372586
2.7e+08	-0.006502738	-0.03791859	5.531458e-05	4.135788e-05	0.07953783	0.009589432	4.190607e-05	3.549775e-05
	5.531458e-05	4.135788e-05	-0.006893175	-0.03755134	3.889048e-05	3.437422e-05	0.07967677	0.01021122
	0.07953783	0.009589432	3.889048e-05	3.437422e-05	-0.005842013	-0.0372404	3.239229e-05	2.973709e-05
	4.190607e-05	3.549775e-05	0.07967677	0.01021122	3.239229e-05	2.973709e-05	-0.006155924	-0.03713586
2.8e+08	-0.007309635	-0.03771782	5.986237e-05	4.136445e-05	0.08152076	0.005506334	4.573623e-05	3.572742e-05
	5.986237e-05	4.136445e-05	-0.007695381	-0.03734726	4.168776e-05	3.530737e-05	0.08161332	0.006130149
	0.08152076	0.005506334	4.168776e-05	3.530737e-05	-0.006617778	-0.03706557	3.50102e-05	3.009741e-05
	4.573623e-05	3.572742e-05	0.08161332	0.006130149	3.50102e-05	3.009741e-05	-0.006934124	-0.03696349
2.9e+08	-0.007932101	-0.03749017	6.460824e-05	4.104042e-05	0.08317513	0.001230472	4.975724e-05	3.568686e-05
	6.460824e-05	4.104042e-05	-0.008313433	-0.0371183	4.469081e-05	3.605822e-05	0.08321555	0.001859046
	0.08317513	0.001230472	4.469081e-05	3.605822e-05	-0.007212379	-0.0368666	3.776527e-05	3.029826e-05
	4.975724e-05	3.568686e-05	0.08321555	0.001859046	3.776527e-05	3.029826e-05	-0.007531409	-0.03676903
3e+08	-0.008366155	-0.0372637	6.953528e-05	4.035637e-05	0.08448583	-0.003210045	5.395497e-05	3.535021e-05
	6.953528e-05	4.035637e-05	-0.008743651	-0.0368927	4.789326e-05	3.660401e-05	0.0844685	-0.00257336
	0.08448583	-0.003210045	4.789326e-05	3.660401e-05	-0.007621795	-0.03667112	4.065289e-05	3.032258e-05
	5.395497e-05	3.535021e-05	0.0844685	-0.00257336	4.065289e-05	3.032258e-05	-0.007944097	-0.03658033
3.1e+08	-0.008611147	-0.0370669	7.462069e-05	3.928765e-05	0.08544058	-0.007786177	5.831303e-05	3.469263e-05
	7.462069e-05	3.928765e-05	-0.008985684	-0.03669911	5.128791e-05	3.691825e-05	0.08536009	-0.007137455
	0.08544058	-0.007786177	5.128791e-05	3.691825e-05	-0.007845532	-0.03650778	4.366647e-05	3.015388e-05
	5.831303e-05	3.469263e-05	0.08536009	-0.007137455	4.366647e-05	3.015388e-05	-0.008172101	-0.03642625
3.2e+08	-0.008660928	-0.03693055	7.98381e-05	3.781193e-05	0.08602882	-0.01246967	6.280994e-05	3.369442e-05
	7.98381e-05	3.781193e-05	-0.009034025	-0.03656827	5.483887e-05	3.698723e-05	0.08588001	-0.01180438
	0.08602882	-0.01246967	5.483887e-05	3.698723e-05	-0.007878202	-0.03640624	4.680164e-05	2.977595e-05
	6.280994e-05	3.369442e-05	0.08588001	-0.01180438	4.680164e-05	2.977595e-05	-0.008210427	-0.03633654
3.3e+08	-0.008517278	-0.03688559	8.516041e-05	3.590823e-05	0.08624188	-0.01723096	6.742435e-05	3.233212e-05
	8.516041e-05	3.590823e-05	-0.008891038	-0.03653103	5.851214e-05	3.679207e-05	0.08601986	-0.01654406
	0.08624188	-0.01723096	5.851214e-05	3.679207e-05	-0.0077218	-0.03639749	5.005171e-05	2.917348e-05
	6.742435e-05	3.233212e-05	0.08601986	-0.01654406	5.005171e-05	2.917348e-05	-0.008061545	-0.0363423
3.4e+08	-0.008206203	-0.03695729	9.056418e-05	3.354184e-05	0.08607617	-0.02203704	7.213327e-05	3.057833e-05
	9.056418e-05	3.354184e-05	-0.008582716	-0.036613	6.232853e-05	3.629553e-05	0.08577652	-0.02132288
	0.08607617	-0.02203704	6.232853e-05	3.629553e-05	-0.007401697	-0.03650643	5.340164e-05	2.832313e-05
	7.213327e-05	3.057833e-05	0.08577652	-0.02132288	5.340164e-05	2.832313e-05	-0.007751393	-0.0364685
3.5e+08	-0.00774134	-0.03717215	9.601623e-05	3.069332e-05	0.08552918	-0.02685689	7.691043e-05	2.840874e-05
	9.601623e-05	3.069332e-05	-0.008123156	-0.03684067	6.626908e-05	3.547702e-05	0.08514793	-0.02610935
	0.08552918	-0.02685689	6.626908e-05	3.547702e-05	-0.00693167	-0.03675983	5.683832e-05	2.720716e-05
	7.691043e-05	2.840874e-05	0.08514793	-0.02610935	5.683832e-05	2.720716e-05	-0.007294292	-0.03674189
3.6e+08	-0.007139616	-0.03755552	0.0001014806	2.733862e-05	0.08460124	-0.03165954	8.172458e-05	2.580554e-05
	0.0001014806	2.733862e-05	-0.007529799	-0.03723928	7.031397e-05	3.431138e-05	0.0841349	-0.03087204
	0.08460124	-0.03165954	7.031397e-05	3.431138e-05	-0.006328838	-0.03718226	6.034595e-05	2.580938e-05
	8.172458e-05	2.580554e-05	0.0841349	-0.03087204	6.034595e-05	2.580938e-05	-0.006707947	-0.03718689
3.7e+08	-0.006420999	-0.03813039	0.0001069194	2.346452e-05	0.08329512	-0.0364147	8.654254e-05	2.275223e-05
	0.0001069194	2.346452e-05	-0.006823114	-0.03783169	7.443868e-05	3.278125e-05	0.0827407	-0.03558022
	0.08329512	-0.0364147	7.443868e-05	3.278125e-05	-0.005613181	-0.03779662	6.39082e-05	2.410982e-05
	8.654254e-05	2.275223e-05	0.0827407	-0.03558022	6.39082e-05	2.410982e-05	-0.00601294	-0.03782623
3.8e+08	-0.005608346	-0.03891813	0.0001122906	1.905239e-05	0.08161567	-0.0410921	9.132904e-05	1.923456e-05
	0.0001122906	1.905239e-05	-0.006026465	-0.03863906	7.861792e-05	3.086484e-05	0.08097082	-0.04020327
	0.08161567	-0.0410921	7.861792e-05	3.086484e-05	-0.004807692	-0.03862428	6.750526e-05	2.209487e-05
	9.132904e-05	1.923456e-05	0.08097082	-0.04020327	6.750526e-05	2.209487e-05	-0.00523285	-0.03868102
3.9e+08	-0.004728033	-0.03993759	0.0001175509	1.409118e-05	0.07957087	-0.04566232	9.60468e-05	1.523628e-05
	0.0001175509	1.409118e-05	-0.005166757	-0.03967995	8.282341e-05	2.854296e-05	0.07883378	-0.04471142
	0.07957087	-0.04566232	8.282341e-05	2.854296e-05	-0.003938453	-0.03968307	7.111606e-05	1.974541e-05
	9.60468e-05	1.523628e-05	0.07883378	-0.04471142	7.111606e-05	1.974541e-05	-0.00439436	-0.03976873
4e+08	-0.003805932	-0.0412063	0.0001226551	8.575109e-06	0.07716956	-0.05009722	0.0001006567	1.075288e-05
	0.0001226551	8.575109e-06	-0.004270404	-0.04097147	8.701858e-05	2.580444e-05	0.07633913	-0.04907631
	0.07716956	-0.05009722	8.701858e-05	2.580444e-05	-0.003031276	-0.04099075	7.471857e-05	1.704989e-05
	0.0001006567	1.075288e-05	0.07633913	-0.04907631	7.471857e-05	1.704989e-05	-0.00352385	-0.04110665
4.1e+08	-0.002865825	-0.04274207	0.0001275613	2.49633e-06	0.07442099	-0.05437006	0.0001051181	5.773528e-06
	0.0001275613	2.49633e-06	-0.003361732	-0.04253093	9.115517e-05	2.264723e-05	0.0734967	-0.05327095
	0.07442099	-0.05437006	9.115517e-05	2.264723e-05	-0.002110418	-0.04256464	7.829378e-05	1.39888e-05
	0.0001051181	5.773528e-06	0.0734967	-0.05327095	7.829378e-05	1.39888e-05	-0.002646152	-0.04271163
4.2e+08	-0.001951444	-0.04454802	0.0001322124	-4.149256e-06	0.07134289	-0.05845268	0.0001093853	2.954025e-07
	0.0001322124	-4.149256e-06	-0.002484854	-0.04436109	9.522278e-05	1.90386e-05	0.07032501	-0.05726704
	0.07134289	-0.05845268	9.522278e-05	1.90386e-05	-0.00121914	-0.0444076	8.180476e-05	1.055232e-05
	0.0001093853	2.954025e-07	0.07032501	-0.05726704	8.180476e-05	1.055232e-05	-0.001805052	-0.04458586
4.3e+08	-0.001096357	-0.0466299	0.0001365569	-1.135867e-05	0.06795139	-0.06231999	0.000113413	-5.680461e-06
	0.0001365569	-1.135867e-05	-0.001673774	-0.04646709	9.918017e-05	1.496888e-05	0.06684093	-0.06103941
	0.06795139	-0.06231999	9.918017e-05	1.496888e-05	-0.0003907735	-0.04652533	8.522209e-05	6.730282e-06
	0.000113413	-5.680461e-06	0.06684093	-0.06103941	8.522209e-05	6.730282e-06	-0.00103437	-0.04673432
4.4e+08	-0.0003351578	-0.04899008	0.0001405445	-1.912264e-05	0.06426492	-0.06594838	0.0001171553	-1.215375e-05
	0.0001405445	-1.912264e-05	-0.0009635044	-0.04885066	0.0001029889	1.043015e-05	0.06306356	-0.06456442
	0.06426492	-0.06594838	0.0001029889	1.043015e-05	0.0003397985	-0.04891978	8.851296e-05	2.515905e-06
	0.0001171553	-1.215375e-05	0.06306356	-0.06456442	8.851296e-05	2.515905e-06	-0.0003693971	-0.04915816
4.5e+08	0.0002958924	-0.05162656	0.0001441207	-2.743058e-05	0.06030364	-0.06931608	0.0001205656	-1.91123e-05
	0.0001441207	-2.743058e-05	-0.0003906145	-0.05150903	0.0001066087	5.41939e-06	0.05901384	-0.0678204
	0.06030364	-0.06931608	0.0001066087	5.41939e-06	0.0009365614	-0.05158882	9.164259e-05	-2.100537e-06
	0.0001205656	-1.91123e-05	0.05901384	-0.0678204	9.164259e-05	-2.100537e-06	0.0001535033	-0.05185436
4.6e+08	0.0007603164	-0.05453381	0.0001472319	-3.626526e-05	0.05608931	-0.07240301	0.000123596	-2.65423e-05
	0.0001472319	-3.626526e-05	8.107453e-06	-0.05443584	0.0001099951	-6.943678e-08	0.05471424	-0.07078736
	0.05608931	-0.07240301	0.0001099951	-6.943678e-08	0.001363709	-0.05452683	9.457592e-05	-7.120535e-06
	0.000123596	-2.65423e-05	0.05471424	-0.07078736	9.457592e-05	-7.120535e-06	0.0004982573	-0.0548163
4.7e+08	0.001023028	-0.05770175	0.0001498249	-4.560727e-05	0.05164491	-0.07519137	0.0001261999	-3.443161e-05
	0.0001498249	-4.560727e-05	0.0001974129	-0.05762016	0.0001131018	-6.03046e-06	0.05018847	-0.07344771
	0.05164491	-0.07519137	0.0001131018	-6.03046e-06	0.001585223	-0.05772352	9.72737e-05	-1.254235e-05
	0.0001261999	-3.443161e-05	0.05018847	-0.07344771	9.72737e-05	-1.254235e-05	0.0006286965	-0.05803272
4.8e+08	0.001047937	-0.06111719	0.0001518479	-5.542738e-05	0.04699508	-0.07766497	0.000128331	-4.275358e-05
	0.0001518479	-5.542738e-05	0.0001410784	-0.06104785	0.0001158827	-1.246041e-05	0.04546186	-0.07578554
	0.04699508	-0.07766497	0.0001158827	-1.246041e-05	0.00156598	-0.06116496	9.969737e-05	-1.836698e-05
	0.000128331	-4.275358e-05	0.04546186	-0.07578554	9.969737e-05	-1.836698e-05	0.0005096326	-0.06148856
