!$
! Info: Touchstone file created by Circ.  Input file=Intel_C2M_200G_1p5in_202208016_staggered.circ
!$
# Hz S RI R 50
0	0.01179648	3.795262e-24	-5.155096e-05	6.313172e-21	0.0002988688	1.946585e-22	-4.716549e-05	5.776107e-21
	-5.155106e-05	6.313184e-21	0.01123894	1.726251e-24	-5.882391e-05	7.203851e-21	7.272584e-05	2.463635e-22
	0.0002989391	1.947904e-22	-5.8824e-05	7.203862e-21	0.0117977	3.832945e-24	-5.15766e-05	6.316312e-21
	-4.716549e-05	5.776106e-21	7.278425e-05	2.465161e-22	-5.15765e-05	6.316299e-21	0.01123686	1.641879e-24
1e+07	0.01385009	0.003700292	-0.0002881674	-0.0001239484	0.0006452777	0.00383152	-3.771821e-05	-9.74241e-05
	-0.0002881674	-0.0001239484	0.01343143	0.003974461	-0.0001863306	-3.03635e-05	0.0007652391	0.003873129
	0.0006452777	0.00383152	-0.0001863306	-3.03635e-05	0.013773	0.003902421	-0.0002375196	-9.958841e-05
	-3.771821e-05	-9.74241e-05	0.0007652391	0.003873129	-0.0002375196	-9.958841e-05	0.01349862	0.003725822
2e+07	0.0161428	0.005635067	-0.0002830783	-0.0002388243	0.001289417	0.007440698	-5.775548e-05	-0.000165636
	-0.0002830782	-0.0002388242	0.01600001	0.006066437	-0.0002607535	-0.0001304745	0.001456961	0.007403247
	0.001289505	0.007440595	-0.0002607535	-0.0001304745	0.01624031	0.006012118	-0.0002237482	-0.0002768862
	-5.775546e-05	-0.000165636	0.001456974	0.007403235	-0.0002237482	-0.0002768861	0.01578033	0.00565133
3e+07	0.01800702	0.006547751	-0.0002978986	-0.0003505829	0.00231749	0.01090201	-8.532062e-05	-0.0002387649
	-0.0002978986	-0.0003505829	0.01838221	0.007157371	-0.0003334095	-0.0002246335	0.002408304	0.01091694
	0.002317467	0.01090199	-0.0003334095	-0.0002246335	0.01825443	0.00699103	-0.0002300105	-0.0003945001
	-8.532062e-05	-0.0002387649	0.00240827	0.01091697	-0.0002300105	-0.0003945001	0.01793487	0.006751574
4e+07	0.01978733	0.007146156	-0.0003270051	-0.0004467619	0.00364312	0.01426239	-0.000120622	-0.0003092642
	-0.0003270051	-0.0004467619	0.02054684	0.007654375	-0.0004111202	-0.0003152773	0.003702758	0.0142808
	0.00364312	0.01426239	-0.0004111202	-0.0003152773	0.02016344	0.007618055	-0.0002520667	-0.0004958092
	-0.000120622	-0.0003092642	0.003702747	0.01428083	-0.0002520667	-0.0004958092	0.01991856	0.007317908
5e+07	0.02150106	0.007421267	-0.0003682202	-0.0005324353	0.005286231	0.01747582	-0.00016313	-0.0003752188
	-0.0003682202	-0.0005324353	0.02257794	0.007787268	-0.0004956505	-0.0004011724	0.005296964	0.01749914
	0.005286234	0.01747583	-0.0004956505	-0.0004011724	0.02199264	0.007897134	-0.0002871145	-0.0005862052
	-0.00016313	-0.0003752188	0.005296964	0.01749915	-0.0002871145	-0.0005862052	0.02180231	0.007558181
6e+07	0.02312032	0.007449111	-0.0004200207	-0.0006089067	0.007230336	0.02051553	-0.0002124595	-0.0004364002
	-0.0004200207	-0.0006089066	0.02451082	0.007618441	-0.0005876948	-0.00048161	0.007181717	0.02055178
	0.007230335	0.02051553	-0.0005876948	-0.00048161	0.02371667	0.007909486	-0.0003332825	-0.0006671585
	-0.0002124595	-0.0004364002	0.007181739	0.02055177	-0.0003332825	-0.0006671585	0.023618	0.007525388
7e+07	0.024654	0.007288074	-0.0004811432	-0.0006763499	0.009459057	0.0233584	-0.0002682092	-0.0004924772
	-0.0004811433	-0.0006763499	0.02634306	0.007192311	-0.0006876183	-0.0005562185	0.009341313	0.02341647
	0.009459057	0.0233584	-0.0006876183	-0.0005562185	0.02534457	0.007715681	-0.000389079	-0.0007389157
	-0.0002682092	-0.0004924772	0.009341317	0.02341647	-0.0003890791	-0.0007389157	0.0253626	0.00725826
8e+07	0.02611155	0.00697017	-0.0005503789	-0.000734448	0.0119539	0.02598228	-0.0003296462	-0.0005427417
	-0.0005503789	-0.000734448	0.02807207	0.006550605	-0.0007955286	-0.0006247393	0.01175836	0.02607258
	0.0119539	0.02598228	-0.0007955286	-0.0006247393	0.02688498	0.00734843	-0.0004761702	-0.0007912594
	-0.0003296462	-0.0005427417	0.01175835	0.02607258	-0.0004761702	-0.0007912594	0.02703436	0.006795908
9e+07	0.02749471	0.006521592	-0.0006264243	-0.0007824333	0.0146955	0.02836733	-0.0003962779	-0.0005869371
	-0.0006264243	-0.0007824333	0.02970137	0.005727138	-0.0009121754	-0.0006882687	0.01441461	0.028501
	0.0146955	0.02836733	-0.0009121754	-0.0006882687	0.028338	0.006833271	-0.0005821061	-0.0008244096
	-0.0003962778	-0.0005869371	0.01441461	0.02850101	-0.0005821061	-0.0008244096	0.02863951	0.006172577
1e+08	0.02881854	0.006001151	-0.0007070043	-0.000817251	0.01766598	0.03049702	-0.0004676818	-0.0006250073
	-0.0007070043	-0.000817251	0.03124019	0.004751313	-0.001042195	-0.0007547732	0.01729149	0.03068405
	0.01766598	0.03049702	-0.001042195	-0.0007547732	0.02970961	0.006215156	-0.000687315	-0.0008400518
	-0.0004676818	-0.0006250073	0.01729149	0.03068404	-0.000687315	-0.0008400518	0.03020443	0.005439488
1.1e+08	0.03021452	0.005294149	-0.0008025478	-0.0008385053	0.0208437	0.03233911	-0.0005438476	-0.0006564826
	-0.0008025478	-0.0008385053	0.0326966	0.003584702	-0.001148528	-0.0008263233	0.02038548	0.03261093
	0.0208437	0.03233911	-0.001148528	-0.0008263233	0.03108672	0.005458231	-0.0007793897	-0.0008562426
	-0.0005438476	-0.0006564826	0.02038549	0.03261093	-0.0007793897	-0.0008562426	0.03186669	0.004458246
1.2e+08	0.03147156	0.004403354	-0.0009039728	-0.000854567	0.02418933	0.03388335	-0.0006241856	-0.0006811342
	-0.0009039728	-0.000854567	0.03401517	0.002301346	-0.001254636	-0.0008739939	0.0236342	0.03424764
	0.02418933	0.03388335	-0.001254636	-0.0008739939	0.03234358	0.004532982	-0.0008787186	-0.0008709598
	-0.0006241856	-0.0006811342	0.0236342	0.03424764	-0.0008787186	-0.0008709598	0.03332728	0.003263767
1.3e+08	0.03260856	0.003399753	-0.001009269	-0.0008622361	0.02767927	0.03512109	-0.0007080553	-0.0006986848
	-0.001009269	-0.0008622361	0.03521734	0.0009195949	-0.0013641	-0.0009069259	0.02702445	0.03558975
	0.02767927	0.03512109	-0.0013641	-0.0009069259	0.03348436	0.003496644	-0.0009825562	-0.0008788531
	-0.0007080553	-0.0006986848	0.02702445	0.03558974	-0.0009825562	-0.0008788531	0.03463891	0.001948228
1.4e+08	0.03363371	0.002313196	-0.001117377	-0.0008607182	0.03128718	0.03604335	-0.0007948857	-0.0007089036
	-0.001117377	-0.0008607182	0.03630966	-0.0005515163	-0.001476903	-0.0009270542	0.03053537	0.03663062
	0.03128718	0.03604335	-0.001476903	-0.0009270542	0.03451339	0.002378899	-0.001089775	-0.0008786068
	-0.0007948857	-0.0007089036	0.03053537	0.03663062	-0.001089775	-0.0008786068	0.03582911	0.0005364363
1.5e+08	0.03455466	0.001163809	-0.00122738	-0.0008495837	0.03498621	0.03664276	-0.0008841448	-0.0007115427
	-0.00122738	-0.0008495837	0.03729374	-0.002102488	-0.001592661	-0.0009351691	0.0341433	0.03736338
	0.03498621	0.03664276	-0.001592661	-0.0009351691	0.03543783	0.00120023	-0.001199429	-0.0008695157
	-0.0008841448	-0.0007115427	0.0341433	0.03736338	-0.001199429	-0.0008695157	0.03690912	-0.0009614041
1.6e+08	0.03537869	-3.34651e-05	-0.001338348	-0.0008286295	0.03874909	0.03691431	-0.0009752317	-0.0007064636
	-0.001338348	-0.0008286295	0.03816934	-0.00372313	-0.001710775	-0.0009316934	0.03782315	0.03778229
	0.03874909	0.03691431	-0.001710775	-0.0009316934	0.03626508	-2.441755e-05	-0.001310643	-0.00085118
	-0.0009752317	-0.0007064636	0.03782315	0.03778229	-0.001310643	-0.00085118	0.03788249	-0.002536735
1.7e+08	0.03611281	-0.00126711	-0.001449419	-0.000797737	0.04254807	0.03685466	-0.00106758	-0.0006935281
	-0.001449419	-0.000797737	0.03893676	-0.005402483	-0.001830573	-0.0009169188	0.04154914	0.03788311
	0.04254807	0.03685466	-0.001830573	-0.0009169188	0.03700281	-0.001283912	-0.001422547	-0.00082332
	-0.00106758	-0.0006935281	0.04154914	0.03788311	-0.001422547	-0.00082332	0.03874971	-0.004180248
1.8e+08	0.03676408	-0.002527587	-0.00155973	-0.0007569474	0.04635559	0.03646291	-0.001160601	-0.0006726373
	-0.00155973	-0.0007569474	0.03959687	-0.007129946	-0.001951445	-0.0008909305	0.04529513	0.03766346
	0.04635559	0.03646291	-0.001951445	-0.0008909305	0.03765788	-0.002569472	-0.001534344	-0.0007858778
	-0.001160601	-0.0006726373	0.04529513	0.03766346	-0.001534344	-0.0007858778	0.03951073	-0.00588227
1.9e+08	0.03733877	-0.003807359	-0.001668469	-0.0007063327	0.05014408	0.03574061	-0.001253736	-0.0006437274
	-0.001668469	-0.0007063327	0.0401519	-0.008894933	-0.002072629	-0.0008539311	0.04903486	0.03712334
	0.05014408	0.03574061	-0.002072629	-0.0008539311	0.03823715	-0.003874175	-0.001645189	-0.0007388008
	-0.001253736	-0.0006437274	0.04903486	0.03712333	-0.001645189	-0.0007388008	0.0401664	-0.007632559
2e+08	0.03784401	-0.0051002	-0.00177484	-0.0006460827	0.05388598	0.03469109	-0.001346357	-0.0006067862
	-0.00177484	-0.0006460827	0.04060506	-0.01068804	-0.002193468	-0.0008059893	0.05274236	0.0362648
	0.05388598	0.03469109	-0.002193468	-0.0008059893	0.03874667	-0.005192244	-0.001754333	-0.0006821472
	-0.001346357	-0.0006067862	0.05274236	0.0362648	-0.001754333	-0.0006821472	0.04071854	-0.009421111
2.1e+08	0.03828576	-0.006401185	-0.001878079	-0.0005764432	0.05755492	0.03332045	-0.001437901	-0.0005618315
	-0.001878079	-0.0005764432	0.04095985	-0.01250059	-0.002313227	-0.0007472614	0.05639179	0.03509194
	0.05755492	0.03332045	-0.002313227	-0.0007472614	0.03919308	-0.006519307	-0.00186102	-0.0006160615
	-0.001437901	-0.0005618315	0.05639179	0.03509194	-0.00186102	-0.0006160615	0.04116966	-0.01123896
2.2e+08	0.03867085	-0.007706586	-0.001977469	-0.000497698	0.06112471	0.03163664	-0.001527781	-0.000508907
	-0.001977469	-0.000497698	0.04122088	-0.01432535	-0.002431229	-0.0006778241	0.05995793	0.03361095
	0.06112471	0.03163664	-0.002431229	-0.0006778241	0.03958209	-0.007851765	-0.001964521	-0.0005407118
	-0.001527781	-0.000508907	0.05995793	0.03361095	-0.001964521	-0.0005407118	0.04152302	-0.01307788
2.3e+08	0.03900549	-0.009013718	-0.002072308	-0.0004102549	0.06457011	0.02964965	-0.001615426	-0.0004481269
	-0.002072308	-0.0004102549	0.04139286	-0.01615569	-0.002546751	-0.0005978912	0.06341653	0.03183008
	0.06457011	0.02964965	-0.002546751	-0.0005978912	0.03991972	-0.009187071	-0.002064145	-0.0004563722
	-0.001615426	-0.0004481269	0.06341653	0.03183008	-0.002064145	-0.0004563722	0.04178298	-0.01493019
2.4e+08	0.03929578	-0.01032112	-0.002162	-0.0003144333	0.06786733	0.02737183	-0.001700265	-0.0003796429
	-0.002162	-0.0003144333	0.04148087	-0.01798624	-0.002659109	-0.0005076287	0.06674395	0.02975954
	0.06786733	0.02737183	-0.002659109	-0.0005076287	0.04021174	-0.01052373	-0.002159213	-0.0003633214
	-0.001700265	-0.0003796429	0.06674395	0.02975954	-0.002159213	-0.0003633214	0.041954	-0.01678999
2.5e+08	0.03954788	-0.01162835	-0.002245955	-0.0002107324	0.07099353	0.02481711	-0.001781731	-0.0003035807
	-0.002245955	-0.0002107324	0.04149002	-0.01981264	-0.002767583	-0.000407213	0.06991764	0.02741116
	0.07099353	0.02481711	-0.002767583	-0.000407213	0.04046386	-0.01186105	-0.002249116	-0.0002619336
	-0.001781731	-0.0003035807	0.06991764	0.02741116	-0.002249116	-0.0002619336	0.04204071	-0.01865164
2.6e+08	0.03976695	-0.0129357	-0.002323622	-9.961207e-05	0.07392734	0.02200106	-0.001859296	-0.0002202082
	-0.002323622	-9.961207e-05	0.04142536	-0.02163135	-0.002871503	-0.0002968774	0.07291663	0.02479878
	0.07392734	0.02200106	-0.002871503	-0.0002968774	0.04068109	-0.01319943	-0.002333262	-0.0001525846
	-0.001859296	-0.0002202082	0.07291663	0.02479878	-0.002333262	-0.0001525846	0.04204818	-0.02051107
2.7e+08	0.03995829	-0.01424463	-0.002394522	1.8439e-05	0.07664901	0.01894124	-0.001932424	-0.0001296904
	-0.002394522	1.8439e-05	0.04129201	-0.02343954	-0.002970175	-0.0001769831	0.0757207	0.02193755
	0.07664901	0.01894124	-0.002970175	-0.0001769831	0.04086845	-0.01453993	-0.002411097	-3.568311e-05
	-0.001932424	-0.0001296904	0.0757207	0.02193755	-0.002411097	-3.568311e-05	0.04198142	-0.02236495
2.8e+08	0.04012647	-0.01555754	-0.002458229	0.0001429049	0.07914049	0.01565626	-0.00200059	-3.235583e-05
	-0.002458229	0.0001429049	0.04109464	-0.0252356	-0.003062926	-4.77753e-05	0.07831138	0.01884414
	0.07914049	0.01565626	-0.003062926	-4.77753e-05	0.04103034	-0.01588439	-0.002482118	8.828854e-05
	-0.00200059	-3.235583e-05	0.07831138	0.01884414	-0.002482118	8.828854e-05	0.04184499	-0.02421052
2.9e+08	0.04027502	-0.01687714	-0.002514339	0.0002732185	0.08138537	0.01216639	-0.002063311	7.149082e-05
	-0.002514339	0.0002732185	0.04083808	-0.02701827	-0.003149113	9.04014e-05	0.08067185	0.01553661
	0.08138537	0.01216639	-0.003149113	9.04014e-05	0.04117038	-0.0172356	-0.002545859	0.00021891
	-0.002063311	7.149082e-05	0.08067185	0.01553661	-0.002545859	0.00021891	0.04164371	-0.02604644
3e+08	0.04040738	-0.01820712	-0.002562504	0.0004088388	0.08336899	0.008492433	-0.002120131	0.0001815132
	-0.002562504	0.0004088388	0.04052642	-0.028787	-0.0032281	0.0002371163	0.08278653	0.01203407
	0.08336899	0.008492433	-0.0032281	0.0002371163	0.04129186	-0.01859671	-0.002601878	0.000355683
	-0.002120131	0.0001815132	0.08278653	0.01203407	-0.002601878	0.000355683	0.04138186	-0.02787144
3.1e+08	0.04052592	-0.01955161	-0.002602454	0.0005492046	0.08507903	0.004656857	-0.002170581	0.0002973984
	-0.002602454	0.0005492046	0.04016369	-0.03054188	-0.00329924	0.0003920058	0.08464191	0.008356725
	0.08507903	0.004656857	-0.00329924	0.0003920058	0.04139708	-0.01997168	-0.002649809	0.000498027
	-0.002170581	0.0002973984	0.08464191	0.008356725	-0.002649809	0.000498027	0.04106358	-0.02968549
3.2e+08	0.04063222	-0.02091522	-0.002633921	0.0006937748	0.08650498	0.0006823145	-0.002214245	0.0004186828
	-0.002633921	0.0006937748	0.03975361	-0.03228363	-0.003361959	0.0005544942	0.08622622	0.004525527
	0.08650498	0.0006823145	-0.003361959	0.0005544942	0.04148768	-0.02136489	-0.002689283	0.000645443
	-0.002214245	0.0004186828	0.08622622	0.004525527	-0.002689283	0.000645443	0.04069217	-0.03148874
3.3e+08	0.04072702	-0.02230288	-0.002656691	0.0008420021	0.08763786	-0.003407794	-0.002250706	0.0005449781
	-0.002656691	0.0008420021	0.03929925	-0.03401339	-0.00341566	0.0007241925	0.08752911	0.0005623143
	0.08763786	-0.003407794	-0.00341566	0.0007241925	0.04156469	-0.02278083	-0.002719986	0.000797402
	-0.002250706	0.0005449781	0.08752911	0.0005623142	-0.002719986	0.000797402	0.04027099	-0.03328211
3.4e+08	0.04081029	-0.02371973	-0.002670606	0.0009933239	0.0884715	-0.00758939	-0.002279613	0.0006758572
	-0.002670606	0.0009933239	0.03880329	-0.03573265	-0.003459808	0.0009004461	0.0885426	-0.003510758
	0.0884715	-0.00758939	-0.003459808	0.0009004461	0.04162791	-0.02422437	-0.002741654	0.0009533751
	-0.002279613	0.0006758572	0.0885426	-0.003510758	-0.002741654	0.0009533751	0.03980259	-0.03506669
3.5e+08	0.04088078	-0.02517093	-0.002675514	0.001147157	0.08900132	-0.01183874	-0.002300597	0.0008108184
	-0.002675514	0.001147157	0.03826775	-0.03744357	-0.003493935	0.001082657	0.08926008	-0.007670977
	0.08900132	-0.01183874	-0.003493935	0.001082657	0.04167663	-0.02570077	-0.002754042	0.001112752
	-0.002300597	0.0008108184	0.08926008	-0.007670977	-0.002754042	0.001112752	0.03928929	-0.03684426
3.6e+08	0.04093668	-0.02666213	-0.002671344	0.001302975	0.08922482	-0.01613161	-0.002313368	0.0009493621
	-0.002671344	0.001302975	0.03769447	-0.03914844	-0.003517509	0.001270288	0.08967712	-0.0118953
	0.08922482	-0.01613161	-0.003517509	0.001270288	0.04170905	-0.02721481	-0.002756969	0.001274969
	-0.002313368	0.0009493621	0.08967712	-0.0118953	-0.002756969	0.001274969	0.03873251	-0.03861674
3.7e+08	0.04097509	-0.02819823	-0.002657977	0.001460287	0.0891416	-0.0204441	-0.00231761	0.001091054
	-0.002657977	0.001460287	0.03708435	-0.04084938	-0.003530096	0.001462687	0.08979116	-0.01616102
	0.0891416	-0.0204441	-0.003530096	0.001462687	0.04172243	-0.02877176	-0.002750228	0.001439542
	-0.00231761	0.001091054	0.08979116	-0.01616102	-0.002750228	0.001439542	0.03813327	-0.04038616
3.8e+08	0.04099238	-0.02978409	-0.002635397	0.001618537	0.08875301	-0.02475267	-0.002313095	0.001235303
	-0.002635397	0.001618537	0.03643801	-0.0425493	-0.003531331	0.001659091	0.08960104	-0.02044518
	0.08875301	-0.02475267	-0.003531331	0.001659091	0.04171362	-0.03037639	-0.002733693	0.001605845
	-0.002313095	0.001235303	0.08960104	-0.02044518	-0.002733693	0.001605845	0.03749224	-0.04215498
3.9e+08	0.04098372	-0.03142483	-0.002603583	0.001777226	0.08806272	-0.02903415	-0.00229958	0.001381601
	-0.002603583	0.001777226	0.03575493	-0.04425104	-0.003520876	0.001858791	0.08910812	-0.02472504
	0.08806272	-0.02903415	-0.003520876	0.001858791	0.04167784	-0.03203303	-0.002707263	0.001773337
	-0.00229958	0.001381601	0.08910812	-0.02472504	-0.002707263	0.001773337	0.03680902	-0.04392548
4e+08	0.0409437	-0.03312456	-0.002562534	0.001935859	0.08707585	-0.03326611	-0.00227687	0.001529379
	-0.002562534	0.001935859	0.03503458	-0.04595752	-0.003498367	0.002061106	0.08831489	-0.02897853
	0.08707585	-0.03326611	-0.003498367	0.002061106	0.04161025	-0.03374626	-0.002670805	0.001941504
	-0.00227687	0.001529379	0.08831489	-0.02897853	-0.002670805	0.001941504	0.0360832	-0.04570021
4.1e+08	0.04086619	-0.03488693	-0.0025122	0.002093212	0.08579938	-0.03742656	-0.002244848	0.001678092
	-0.0025122	0.002093212	0.03427567	-0.04767085	-0.003459145	0.002276579	0.08722571	-0.03318366
	0.08579938	-0.03742656	-0.003459145	0.002276579	0.04150473	-0.0355194	-0.002624262	0.002109041
	-0.002244848	0.001678092	0.08722571	-0.03318366	-0.002624262	0.002109041	0.03531331	-0.04748158
4.2e+08	0.04074401	-0.03671528	-0.002452784	0.002249197	0.0842421	-0.04149517	-0.002203415	0.001827145
	-0.002452784	0.002249197	0.03347579	-0.04939416	-0.003404053	0.002497846	0.08584689	-0.0373195
	0.0842421	-0.04149517	-0.003404053	0.002497846	0.04135478	-0.03735583	-0.002567717	0.002275782
	-0.002203415	0.001827145	0.08584689	-0.0373195	-0.002567717	0.002275782	0.03449736	-0.04927182
4.3e+08	0.04056965	-0.03861193	-0.002384367	0.002403744	0.08241413	-0.04545183	-0.002152356	0.001976014
	-0.002384367	0.002403744	0.03263244	-0.0511297	-0.003335049	0.002718305	0.08418576	-0.04136585
	0.08241413	-0.04545183	-0.003335049	0.002718305	0.0411527	-0.03925797	-0.002501164	0.002441564
	-0.002152356	0.001976014	0.08418576	-0.04136585	-0.002501164	0.002441564	0.03363291	-0.05107302
4.4e+08	0.04033481	-0.04057856	-0.002307005	0.002556405	0.08032689	-0.04927819	-0.002091655	0.002124068
	-0.002307005	0.002556405	0.03174273	-0.05287966	-0.003252059	0.002937143	0.08225143	-0.04530311
	0.08032689	-0.04927819	-0.003252059	0.002937143	0.04089098	-0.04122759	-0.002424695	0.002605751
	-0.002091655	0.002124068	0.08225143	-0.04530311	-0.002424695	0.002605751	0.03271697	-0.05288705
4.5e+08	0.04003057	-0.04261608	-0.002220762	0.002706778	0.07799358	-0.05295681	-0.002021325	0.002270685
	-0.002220762	0.002706778	0.03080263	-0.05464573	-0.003155092	0.003153536	0.0800544	-0.0491129
	0.07799358	-0.05295681	-0.003155092	0.003153536	0.04056093	-0.0432656	-0.002338357	0.002767843
	-0.002021325	0.002270685	0.0800544	-0.0491129	-0.002338357	0.002767843	0.03174574	-0.05471534
4.6e+08	0.03964768	-0.04472469	-0.002125765	0.002854374	0.07542833	-0.056472	-0.001941331	0.0024153
	-0.002125765	0.002854374	0.02980761	-0.05642955	-0.003044369	0.003366481	0.07760634	-0.05277774
	0.07542833	-0.056472	-0.003044369	0.003366481	0.04015349	-0.04537227	-0.002242068	0.002927389
	-0.001941331	0.0024153	0.07760634	-0.05277774	-0.002242068	0.002927389	0.03071532	-0.05655915
4.7e+08	0.03917642	-0.04690278	-0.002022025	0.002998829	0.07264611	-0.05980915	-0.001851757	0.002557278
	-0.002022025	0.002998829	0.02875326	-0.05823153	-0.002920065	0.0035751	0.07491996	-0.05628178
	0.07264611	-0.05980915	-0.002920065	0.0035751	0.03965946	-0.04754651	-0.002136028	0.003083789
	-0.001851757	0.002557278	0.07491996	-0.05628178	-0.002136028	0.003083789	0.02962081	-0.05841901
4.8e+08	0.03860729	-0.04914874	-0.001909643	0.003139734	0.069663	-0.0629553	-0.001752633	0.002696048
	-0.001909643	0.003139734	0.02763439	-0.0600523	-0.002782303	0.003778674	0.07200924	-0.05960974
	0.069663	-0.0629553	-0.002782303	0.003778674	0.03906936	-0.04978651	-0.002020249	0.00323656
	-0.001752633	0.002696048	0.07200924	-0.05960974	-0.002020249	0.00323656	0.02845743	-0.06029496
4.9e+08	0.03792998	-0.05145916	-0.001788774	0.00327661	0.06649579	-0.06589917	-0.00164407	0.002831034
