!$
! Info: Touchstone file created by Circ.  Input file=Intel_C2M_200G_1p5in_202208016_staggered.circ
!$
# Hz S RI R 50
0	0.01123894	1.726251e-24	0.9885595	-3.270437e-24	7.272584e-05	2.463635e-22	-0.000204755	2.507526e-20
	0.9885595	-3.269234e-24	0.01179648	3.795586e-24	-0.0002048102	2.508201e-20	0.000298867	1.946633e-22
	7.278425e-05	2.465161e-22	-0.0002049485	2.509895e-20	0.01123686	1.641879e-24	0.9885598	-3.264918e-24
	-0.0002048933	2.50922e-20	0.0002989373	1.94793e-22	0.9885598	-3.266129e-24	0.01179789	3.831889e-24
1e+07	0.01343143	0.003974461	0.9853866	-0.05108978	0.0007652391	0.003873129	-0.0006162134	-0.0007542562
	0.9853866	-0.05108978	0.01340722	0.003990835	-0.0006160899	-0.0007542643	0.0007720408	0.003872229
	0.0007652391	0.003873129	-0.0006160899	-0.0007542643	0.01349862	0.003725822	0.9853196	-0.05082278
	-0.0006162134	-0.0007542562	0.0007720408	0.003872229	0.9853196	-0.05082278	0.01347707	0.003741984
2e+07	0.01600001	0.006066437	0.9793588	-0.1001777	0.001456961	0.007403247	-0.0008476363	-0.00123152
	0.9793588	-0.1001778	0.01607835	0.006270412	-0.0008471516	-0.001231845	0.001430619	0.00745884
	0.001456974	0.007403235	-0.0008471424	-0.001231956	0.01578033	0.00565133	0.9795831	-0.09972548
	-0.0008476265	-0.001231624	0.001430706	0.007458737	0.9795831	-0.09972548	0.01585924	0.005854634
3e+07	0.01838221	0.007157371	0.9714314	-0.1479346	0.002408304	0.01091694	-0.001105452	-0.001672132
	0.9714314	-0.1479346	0.01823669	0.007262508	-0.001104792	-0.001672813	0.002468868	0.01090531
	0.00240827	0.01091697	-0.001104835	-0.001672816	0.01793487	0.006751574	0.9718796	-0.1474679
	-0.001105464	-0.001672139	0.002468845	0.01090528	0.9718796	-0.1474679	0.01780726	0.006846556
4e+07	0.02054684	0.007654375	0.9614616	-0.1948241	0.003702758	0.0142808	-0.001398106	-0.002073124
	0.9614616	-0.1948241	0.02026274	0.007855492	-0.001397314	-0.002074246	0.003801446	0.01425004
	0.003702747	0.01428083	-0.00139732	-0.002074243	0.01991856	0.007317908	0.9620944	-0.1944031
	-0.001398109	-0.002073112	0.003801446	0.01425005	0.9620944	-0.1944031	0.01966201	0.007498503
5e+07	0.02257794	0.007787268	0.9494219	-0.2408941	0.005296964	0.01749914	-0.001723985	-0.002431024
	0.9494219	-0.2408941	0.02218486	0.008073019	-0.001723171	-0.002432757	0.005448582	0.01744677
	0.005296964	0.01749915	-0.001723168	-0.002432757	0.02180231	0.007558181	0.9502095	-0.2405577
	-0.001723982	-0.002431024	0.005448585	0.01744678	0.9502095	-0.2405577	0.02144631	0.007811776
6e+07	0.02451082	0.007618441	0.9353255	-0.2861172	0.007181717	0.02055178	-0.002078274	-0.002746903
	0.9353255	-0.2861172	0.02397973	0.008005	-0.002077638	-0.002749297	0.007393884	0.02046891
	0.007181739	0.02055177	-0.002077636	-0.002749297	0.023618	0.007525388	0.9362408	-0.2858942
	-0.002078272	-0.002746902	0.007393883	0.02046891	0.9362408	-0.2858942	0.02313379	0.00786598
7e+07	0.02634306	0.007192311	0.9191993	-0.3304422	0.009341313	0.02341647	-0.00245773	-0.003022058
	0.9191993	-0.3304422	0.02565786	0.007717011	-0.002457404	-0.003025176	0.009620967	0.0232936
	0.009341317	0.02341647	-0.002457344	-0.003025216	0.0253626	0.00725826	0.9202153	-0.3303568
	-0.002457727	-0.003022059	0.009620967	0.02329361	0.9202153	-0.3303568	0.02473321	0.007720785
8e+07	0.02807207	0.006550605	0.9010771	-0.373806	0.01175836	0.02607258	-0.00285934	-0.003257187
	0.9010771	-0.373806	0.02722828	0.007244358	-0.002859546	-0.003261049	0.01211123	0.02589891
	0.01175835	0.02607258	-0.002859548	-0.003261047	0.02703436	0.006795908	0.9021685	-0.3738807
	-0.002859342	-0.003257186	0.01211123	0.02589891	0.9021685	-0.3738807	0.02625347	0.007408658
9e+07	0.02970137	0.005727138	0.8809983	-0.4161389	0.01441461	0.028501	-0.003280424	-0.003452793
	0.8809983	-0.4161389	0.02868958	0.006611764	-0.00328141	-0.003457319	0.01484501	0.02826504
	0.01441461	0.02850101	-0.003281412	-0.00345731	0.02863951	0.006172577	0.8821336	-0.4163981
	-0.003280428	-0.003452785	0.01484501	0.02826504	0.8821336	-0.4163981	0.02769569	0.006956089
1e+08	0.03124019	0.004751313	0.8590041	-0.4573735	0.01729149	0.03068405	-0.003719442	-0.003610075
	0.8590041	-0.4573735	0.03003771	0.005849743	-0.003721611	-0.003614968	0.01780282	0.03037427
	0.01729149	0.03068404	-0.003721611	-0.003614969	0.03020443	0.005439488	0.8601366	-0.4578671
	-0.003719441	-0.003610076	0.01780282	0.03037427	0.8601366	-0.4578671	0.02907152	0.006416886
1.1e+08	0.0326966	0.003584702	0.8351388	-0.497405	0.02038548	0.03261093	-0.004177394	-0.003720903
	0.8351388	-0.497405	0.03131351	0.004978319	-0.004181042	-0.003725169	0.02095999	0.03220415
	0.02038549	0.03261093	-0.004181041	-0.00372517	0.03186669	0.004458246	0.836145	-0.4980624
	-0.004177393	-0.003720904	0.02095999	0.03220415	0.836145	-0.4980624	0.03049532	0.005715656
1.2e+08	0.03401517	0.002301346	0.8094728	-0.5361585	0.0236342	0.03424764	-0.004639411	-0.003793713
	0.8094728	-0.5361585	0.03247306	0.0039889	-0.004643645	-0.003797438	0.02428725	0.0337411
	0.0236342	0.03424764	-0.004643644	-0.003797439	0.03332728	0.003263767	0.8103705	-0.5369256
	-0.004639411	-0.003793715	0.02428725	0.0337411	0.8103705	-0.5369256	0.03179188	0.004825926
1.3e+08	0.03521734	0.0009195949	0.7820685	-0.5735665	0.02702445	0.03558975	-0.005107254	-0.003829732
	0.7820685	-0.5735665	0.03352016	0.002913975	-0.005111768	-0.003833551	0.02775973	0.03497434
	0.02702445	0.03558974	-0.005111768	-0.003833552	0.03463891	0.001948228	0.7828633	-0.5744211
	-0.005107253	-0.003829733	0.02775973	0.03497434	0.7828633	-0.5744211	0.03296982	0.00381653
1.4e+08	0.03630966	-0.0005515163	0.7529929	-0.6095589	0.03053537	0.03663062	-0.005580181	-0.003829832
	0.7529929	-0.6095589	0.03446045	0.001774548	-0.005585387	-0.003833829	0.03135093	0.03589431
	0.03053537	0.03663062	-0.005585387	-0.00383383	0.03582911	0.0005364363	0.7536859	-0.6104828
	-0.005580181	-0.003829833	0.03135093	0.03589431	0.7536859	-0.6104828	0.03403431	0.002719878
1.5e+08	0.03729374	-0.002102488	0.7223154	-0.6440671	0.0341433	0.03736338	-0.006057184	-0.003794383
	0.7223154	-0.6440671	0.03530074	0.0005863957	-0.006063273	-0.003798647	0.03503398	0.03649337
	0.0341433	0.03736338	-0.006063273	-0.003798648	0.03690912	-0.0009614041	0.7229083	-0.6450462
	-0.006057184	-0.003794384	0.03503398	0.03649337	0.7229083	-0.6450462	0.0349928	0.001557827
1.6e+08	0.03816934	-0.00372313	0.6901071	-0.6770223	0.03782315	0.03778229	-0.006536973	-0.0037237
	0.6901071	-0.6770223	0.03604796	-0.0006382064	-0.006544191	-0.00372808	0.03878167	0.03676626
	0.03782315	0.03778229	-0.006544191	-0.00372808	0.03788249	-0.002536735	0.6906011	-0.6780467
	-0.006536973	-0.003723701	0.03878167	0.03676626	0.6906011	-0.6780467	0.03585289	0.000346154
1.7e+08	0.03893676	-0.005402483	0.6564432	-0.7083622	0.04154914	0.03788311	-0.007018148	-0.003618106
	0.6564432	-0.7083622	0.03670902	-0.001889577	-0.007026722	-0.003622264	0.04256629	0.03670947
	0.04154914	0.03788311	-0.007026722	-0.003622264	0.03874971	-0.004180248	0.6568395	-0.7094221
	-0.007018148	-0.003618106	0.04256629	0.03670947	0.6568395	-0.7094221	0.03662233	-0.0009034243
1.8e+08	0.03959687	-0.007129946	0.6214016	-0.7380271	0.04529513	0.03766346	-0.007499288	-0.003477896
	0.6214016	-0.7380271	0.03729103	-0.003159565	-0.007509281	-0.003481565	0.04636039	0.03632192
	0.04529513	0.03766346	-0.007509281	-0.003481565	0.03951073	-0.00588227	0.6217013	-0.7391132
	-0.007499288	-0.003477896	0.04636039	0.03632192	0.6217013	-0.7391132	0.03730806	-0.002181719
1.9e+08	0.0401519	-0.008894933	0.5850631	-0.7659581	0.04903486	0.03712334	-0.007979144	-0.003303045
	0.5850631	-0.7659581	0.03780033	-0.004441723	-0.007990555	-0.003305946	0.05013642	0.03560505
	0.04903486	0.03712333	-0.007990555	-0.003305947	0.0401664	-0.007632559	0.5852695	-0.7670632
	-0.007979144	-0.003303045	0.05013642	0.03560505	0.5852695	-0.7670632	0.03791697	-0.003481466
2e+08	0.04060506	-0.01068804	0.547511	-0.792101	0.05274236	0.0362648	-0.008456357	-0.003093559
	0.547511	-0.792101	0.03824411	-0.00573074	-0.008469071	-0.003095615	0.05386691	0.03456204
	0.05274236	0.0362648	-0.008469071	-0.003095615	0.04071854	-0.009421111	0.5476239	-0.7932174
	-0.008456357	-0.003093559	0.05386691	0.03456204	0.5476239	-0.7932174	0.03845515	-0.004796639
2.1e+08	0.04095985	-0.01250059	0.508831	-0.8164072	0.05639179	0.03509194	-0.008929544	-0.002849657
	0.508831	-0.8164072	0.03862845	-0.007022473	-0.008943583	-0.002850466	0.05752554	0.03319882
	0.05639179	0.03509194	-0.008943583	-0.002850466	0.04116966	-0.01123896	0.5088527	-0.8175276
	-0.008929544	-0.002849657	0.05752554	0.03319882	0.5088527	-0.8175276	0.03892928	-0.006122667
2.2e+08	0.04122088	-0.01432535	0.4691099	-0.8388299	0.05995793	0.03361095	-0.009397316	-0.002570903
	0.4691099	-0.8388299	0.03896023	-0.008313906	-0.009412516	-0.002570408	0.06108616	0.03152326
	0.05995793	0.03361095	-0.009412516	-0.002570408	0.04152302	-0.01307788	0.4690426	-0.8399479
	-0.009397316	-0.002570903	0.06108616	0.03152326	0.4690426	-0.8399479	0.03934506	-0.00745577
2.3e+08	0.04139286	-0.01615569	0.4284386	-0.8593248	0.06341653	0.03183008	-0.009857951	-0.002257519
	0.4284386	-0.8593248	0.03924577	-0.009603001	-0.009874377	-0.002255359	0.06452357	0.02954517
	0.06341653	0.03183008	-0.009874377	-0.002255359	0.04178298	-0.01493019	0.4282833	-0.860435
	-0.009857951	-0.002257519	0.06452357	0.02954517	0.4282833	-0.860435	0.03970855	-0.008793268
2.4e+08	0.04148087	-0.01798624	0.3869077	-0.877856	0.06674395	0.02975954	-0.01031011	-0.001908889
	0.3869077	-0.877856	0.03949118	-0.01088887	-0.01032754	-0.001905062	0.067814	0.02727679
	0.06674395	0.02975954	-0.01032754	-0.001905062	0.041954	-0.01678999	0.3866678	-0.8789531
	-0.01031011	-0.001908889	0.067814	0.02727679	0.3866678	-0.8789531	0.04002554	-0.01013354
2.5e+08	0.04149002	-0.01981264	0.3446118	-0.8943895	0.06991764	0.02741116	-0.01075198	-0.001524832
	0.3446118	-0.8943895	0.03970266	-0.01217164	-0.01077022	-0.001519143	0.07093465	0.02473189
	0.06991764	0.02741116	-0.01077022	-0.001519143	0.04204071	-0.01865164	0.3442876	-0.895467
	-0.01075198	-0.001524832	0.07093465	0.02473189	0.3442876	-0.895467	0.04030174	-0.01147578
2.6e+08	0.04142536	-0.02163135	0.3016437	-0.9088956	0.07291663	0.02479878	-0.01118175	-0.001105387
	0.3016437	-0.9088956	0.03988534	-0.0134521	-0.01120071	-0.001097403	0.07386414	0.02192594
	0.07291663	0.02479878	-0.01120071	-0.001097403	0.04204818	-0.02051107	0.3012395	-0.9099474
	-0.01118175	-0.001105387	0.07386414	0.02192594	0.3012395	-0.9099474	0.04054218	-0.01282032
2.7e+08	0.04129201	-0.02343954	0.2580991	-0.921348	0.0757207	0.02193755	-0.01159746	-0.0006502614
	0.2580991	-0.921348	0.04004451	-0.01473223	-0.01161687	-0.0006400387	0.0765827	0.01887638
	0.0757207	0.02193755	-0.01161687	-0.0006400387	0.04198142	-0.02236495	0.2576172	-0.9223703
	-0.01159746	-0.0006502616	0.07658271	0.01887638	0.2576172	-0.9223703	0.04075189	-0.01416812
2.8e+08	0.04109464	-0.0252356	0.2140742	-0.9317265	0.07831138	0.01884414	-0.01199688	-0.0001595185
	0.2140742	-0.9317265	0.04018468	-0.01601485	-0.01201658	-0.0001466401	0.07907229	0.01560165
	0.07831138	0.01884414	-0.01201658	-0.0001466401	0.04184499	-0.02421052	0.2135174	-0.9327149
	-0.01199688	-0.0001595185	0.07907229	0.01560165	0.2135174	-0.9327149	0.04093526	-0.01552101
2.9e+08	0.04083808	-0.02701827	0.1696671	-0.9400154	0.08067185	0.01553661	-0.01237781	0.0003673385
	0.1696671	-0.9400154	0.04030933	-0.01730312	-0.01239759	0.0003827749	0.08131646	0.01212193
	0.08067185	0.01553661	-0.01239759	0.0003827747	0.04164371	-0.02604644	0.1690382	-0.9409652
	-0.01237781	0.0003673383	0.08131646	0.01212193	0.1690382	-0.9409652	0.04109589	-0.01688167
3e+08	0.04052642	-0.028787	0.1249743	-0.9462019	0.08278653	0.01203407	-0.01273783	0.0009297699
	0.1249743	-0.9462019	0.04042173	-0.01860115	-0.01275748	0.0009478877	0.08330051	0.008457888
	0.08278653	0.01203407	-0.01275748	0.0009478877	0.04138186	-0.02787144	0.1242762	-0.947108
	-0.01273783	0.0009297699	0.08330051	0.008457888	0.1242762	-0.947108	0.04123711	-0.01825322
3.1e+08	0.04016369	-0.03054188	0.08009266	-0.9502796	0.08464191	0.008356725	-0.0130745	0.001527494
	0.08009266	-0.9502796	0.04052418	-0.01991343	-0.01309353	0.001548674	0.08501209	0.004631892
	0.08464191	0.008356725	-0.01309353	0.001548674	0.04106358	-0.02968549	0.07933025	-0.9511364
	-0.0130745	0.001527494	0.08501209	0.004631892	0.07933025	-0.9511364	0.0413612	-0.01963959
3.2e+08	0.03975361	-0.03228363	0.03512208	-0.9522442	0.08622622	0.004525527	-0.01338516	0.002160102
	0.03512208	-0.9522442	0.0406181	-0.02124494	-0.0134033	0.00218445	0.0864406	0.0006664865
	0.08622622	0.004525527	-0.0134033	0.00218445	0.04069217	-0.03148874	0.03429639	-0.9530498
	-0.01338516	0.002160101	0.0864406	0.0006664864	0.03429639	-0.9530498	0.04146977	-0.0210451
3.3e+08	0.03929925	-0.03401339	-0.009842276	-0.9520964	0.08752911	0.0005623143	-0.01366702	0.002827251
	-0.009842276	-0.9520964	0.04070402	-0.02260095	-0.01368401	0.002854238	0.08757703	-0.003415024
	0.08752911	0.0005623142	-0.01368401	0.002854238	0.04027099	-0.03328211	-0.01072566	-0.9528466
	-0.01366702	0.002827251	0.08757703	-0.003415024	-0.01072566	-0.9528466	0.04156383	-0.02247422
3.4e+08	0.03880329	-0.03573265	-0.05470049	-0.9498419	0.0885426	-0.003510758	-0.01391731	0.003527514
	-0.05470049	-0.9498419	0.04078175	-0.02398687	-0.01393268	0.003557697	0.08841512	-0.007588677
	0.0885426	-0.003510758	-0.01393268	0.003557697	0.03980259	-0.03506669	-0.05564029	-0.950535
	-0.01391731	0.003527514	0.08841512	-0.007588677	-0.05564029	-0.950535	0.04164317	-0.02393177
3.5e+08	0.03826775	-0.03744357	-0.09935864	-0.9454921	0.08926008	-0.007670977	-0.01413324	0.004260045
	-0.09935864	-0.9454921	0.04084984	-0.02540818	-0.01414654	0.004293398	0.08895021	-0.01183079
	0.08926008	-0.007670977	-0.01414654	0.004293398	0.03928929	-0.03684426	-0.1003476	-0.9461221
	-0.01413324	0.004260045	0.08895021	-0.01183079	-0.1003476	-0.9461221	0.04170705	-0.02542301
3.6e+08	0.03769447	-0.03914844	-0.1437182	-0.9390601	0.08967712	-0.0118953	-0.0143119	0.005023502
	-0.1437182	-0.9390601	0.04090622	-0.02687076	-0.01432294	0.005059681	0.08917971	-0.01611724
	0.08967712	-0.0118953	-0.01432294	0.005059681	0.03873251	-0.03861674	-0.1447532	-0.9396246
	-0.0143119	0.005023502	0.08917971	-0.01611724	-0.1447532	-0.9396246	0.04175363	-0.02695267
3.7e+08	0.03708435	-0.04084938	-0.1876856	-0.9305634	0.08979116	-0.01616102	-0.01445058	0.005815919
	-0.1876856	-0.9305634	0.04094776	-0.02837974	-0.01445886	0.005855095	0.08910309	-0.02042415
	0.08979116	-0.01616102	-0.01445886	0.005855095	0.03813327	-0.04038616	-0.188763	-0.9310608
	-0.01445058	0.005815919	0.08910309	-0.02042415	-0.188763	-0.9310608	0.04178016	-0.02852595
3.8e+08	0.03643801	-0.0425493	-0.2311673	-0.9200255	0.08960104	-0.02044518	-0.01454629	0.006636087
	-0.2311673	-0.9200255	0.0409706	-0.02994015	-0.01455163	0.006677418	0.08872166	-0.02472804
	0.08960104	-0.02044518	-0.01455163	0.006677418	0.03749224	-0.04215498	-0.2322812	-0.9204514
	-0.01454629	0.006636087	0.08872166	-0.02472804	-0.2322812	-0.9204514	0.04178343	-0.03014763
3.9e+08	0.03575493	-0.04425104	-0.274068	-0.9074723	0.08910812	-0.02472504	-0.01459673	0.007480867
	-0.274068	-0.9074723	0.04096965	-0.03155728	-0.01459832	0.007525033	0.08803896	-0.02900582
	0.08910812	-0.02472504	-0.01459832	0.007525033	0.03680902	-0.04392548	-0.2752147	-0.9078277
	-0.01459673	0.007480867	0.08803896	-0.02900582	-0.2752147	-0.9078277	0.04175863	-0.03182198
4e+08	0.03503458	-0.04595752	-0.3162952	-0.8929365	0.08831489	-0.02897853	-0.01459893	0.008348383
	-0.3162952	-0.8929365	0.0409392	-0.0332354	-0.01459676	0.008394667	0.08705998	-0.03323502
	0.08831489	-0.02897853	-0.01459676	0.008394667	0.0360832	-0.04570021	-0.3174701	-0.8932167
	-0.01459893	0.008348383	0.08705998	-0.03323502	-0.3174701	-0.8932167	0.04170086	-0.03355353
4.1e+08	0.03427567	-0.04767085	-0.357762	-0.8764499	0.08722571	-0.03318366	-0.01455046	0.009235991
	-0.357762	-0.8764499	0.04087288	-0.03497819	-0.01454416	0.009283873	0.08579164	-0.03739375
	0.08722571	-0.03318366	-0.01454416	0.009283873	0.03531331	-0.04748158	-0.3589614	-0.8766541
	-0.01455046	0.009235991	0.08579164	-0.03739375	-0.3589614	-0.8766541	0.04160399	-0.03534564
4.2e+08	0.03347579	-0.04939416	-0.3983769	-0.8580539	0.08584689	-0.0373195	-0.0144494	0.01014019
	-0.3983769	-0.8580539	0.04076322	-0.03678907	-0.0144384	0.01018955	0.08424256	-0.04146166
	0.08584689	-0.0373195	-0.0144384	0.01018955	0.03449736	-0.04927182	-0.3995944	-0.858181
	-0.0144494	0.01014019	0.08424256	-0.04146166	-0.3995944	-0.858181	0.04146143	-0.0372016
4.3e+08	0.03263244	-0.0511297	-0.4380549	-0.83779	0.08418576	-0.04136585	-0.01429327	0.01105831
	-0.4380549	-0.83779	0.04060251	-0.03867051	-0.01427764	0.0111086	0.08242279	-0.04541865
	0.08418576	-0.04136585	-0.01427764	0.0111086	0.03363291	-0.05107302	-0.4392866	-0.8378387
	-0.01429327	0.01105831	0.08242279	-0.04541865	-0.4392866	-0.8378387	0.04126544	-0.03912374
4.4e+08	0.03174273	-0.05287966	-0.4767122	-0.815704	0.08225143	-0.04530311	-0.01408042	0.01198668
	-0.4767122	-0.815704	0.04038212	-0.04062416	-0.01405957	0.01203758	0.08034364	-0.04924632
	0.08225143	-0.04530311	-0.01405957	0.01203758	0.03271697	-0.05288705	-0.4779524	-0.8156739
	-0.01408042	0.01198668	0.08034364	-0.04924632	-0.4779524	-0.8156739	0.04100847	-0.04111368
4.5e+08	0.03080263	-0.05464573	-0.5142638	-0.7918474	0.0800544	-0.0491129	-0.01380926	0.01292172
	-0.5142638	-0.7918474	0.04009292	-0.04265099	-0.01378304	0.01297283	0.07801822	-0.05292725
	0.0800544	-0.0491129	-0.01378304	0.01297283	0.03174574	-0.05471534	-0.5155075	-0.7917381
	-0.01380926	0.01292172	0.07801822	-0.05292725	-0.5155075	-0.7917381	0.0406818	-0.04317235
4.6e+08	0.02980761	-0.05642955	-0.5506287	-0.7662741	0.07760634	-0.05277774	-0.01347807	0.01385991
	-0.5506287	-0.7662741	0.03972536	-0.04475111	-0.01344663	0.01391052	0.07546049	-0.0564457
	0.07760634	-0.05277774	-0.01344663	0.01391052	0.03071532	-0.05655915	-0.5518721	-0.7660843
	-0.01347807	0.01385991	0.07546049	-0.0564457	-0.5518721	-0.7660843	0.0402763	-0.04529987
4.7e+08	0.02875326	-0.05823153	-0.5857338	-0.7390421	0.07491996	-0.05628178	-0.01308637	0.01479684
	-0.5857338	-0.7390421	0.0392695	-0.04692292	-0.0130493	0.01484661	0.07268537	-0.05978701
	0.07491996	-0.05628178	-0.0130493	0.01484661	0.02962081	-0.05841901	-0.5869697	-0.7387717
	-0.01308637	0.01479684	0.07268537	-0.05978701	-0.5869697	-0.7387717	0.03978277	-0.04749511
4.8e+08	0.02763439	-0.0600523	-0.6195	-0.7102093	0.07200924	-0.05960974	-0.01263283	0.01572911
	-0.6195	-0.7102093	0.03871558	-0.04916469	-0.01259042	0.01577709	0.06970882	-0.06293818
	0.07200924	-0.05960974	-0.01259042	0.01577709	0.02845743	-0.06029496	-0.6207257	-0.7098612
	-0.01263283	0.01572911	0.06970882	-0.06293818	-0.6207257	-0.7098612	0.03919167	-0.04975612
4.9e+08	0.02644507	-0.06189168	-0.6518539	-0.6798446	0.06888897	-0.06274846	-0.01211765	0.01665203
	-0.6518539	-0.6798446	0.03805312	-0.05147296	-0.01206954	0.01669803	0.06654756	-0.06588787
	0.06888897	-0.06274846	-0.01206954	0.01669803	0.02721953	-0.06218657	-0.6530654	-0.6794169
	-0.01211765	0.01665203	0.06654756	-0.06588787	-0.6530654	-0.6794169	0.03849305	-0.05208001
5e+08	0.02517969	-0.06374824	-0.6827314	-0.648013	0.06557444	-0.0656856	-0.01153987	0.01756185
	-0.6827314	-0.648013	0.03727189	-0.05384345	-0.01148659	0.0176051	0.06321871	-0.06862615
	0.06557444	-0.0656856	-0.01148659	0.0176051	0.02590166	-0.0640926	-0.6839208	-0.6475082
	-0.01153987	0.01756185	0.06321871	-0.06862615	-0.6839208	-0.6475082	0.03767716	-0.05446279
5.1e+08	0.02383185	-0.06562074	-0.7120613	-0.6147853	0.06208214	-0.06840996	-0.01090053	0.01845408
	-0.7120613	-0.6147853	0.03636181	-0.05627082	-0.01084211	0.01849394	0.05973989	-0.07114488
	0.06208214	-0.06840996	-0.01084211	0.01849394	0.02449775	-0.06601134	-0.7132267	-0.6142055
	-0.01090053	0.01845408	0.05973989	-0.07114488	-0.7132267	-0.6142055	0.03673431	-0.05689922
5.2e+08	0.02239528	-0.06750666	-0.739782	-0.5802375	0.05842858	-0.07091279	-0.01019951	0.01932466
	-0.739782	-0.5802375	0.03531298	-0.05874828	-0.01013584	0.01936088	0.05612924	-0.07343743
