! Created Thu Mar  2 13:00:49 2023
# ghz S ma R 45
! 4 Port Network Data from SP1.SP block
! freq  magS11  angS11  magS12  angS12  magS13  angS13  magS14  angS14  
!       magS21  angS21  magS22  angS22  magS23  angS23  magS24  angS24  
!       magS31  angS31  magS32  angS32  magS33  angS33  magS34  angS34  
!       magS41  angS41  magS42  angS42  magS43  angS43  magS44  angS44  
!     
0      0.073258384    -2.7198824e-13     2.5751766e-06              -180      0.0041820148    -4.0566384e-12     3.4057556e-07     1.1588206e-14
                  2.5810599e-06              -180       0.074657492    -2.6379469e-13     1.5127803e-06              -180      0.0044517436    -3.8100132e-12
                   0.0050268164     1.2448959e-11     1.5324751e-06               180       0.073821936    -2.4552246e-14     3.4245839e-07              -180
                  3.5729778e-07     6.0387351e-13      0.0052136615     1.2002694e-11      3.430501e-07               180       0.072096953    -2.6408737e-14

0.025       0.15679507        -1.7625795     3.6513662e-06         62.998893       0.092208062         16.791726     1.1973529e-05         16.802111
                  3.6445436e-06         63.090295        0.15637886        -1.5290443     5.4470102e-06         176.72462       0.092115866         17.078771
                    0.092632155         16.361669     5.4399438e-06         176.80052        0.15726434        -1.5565659     1.2621987e-06         169.16488
                  1.1978977e-05         16.780278       0.092584093         16.662491      1.266914e-06         169.47245        0.15722921         -1.171803

0.05      0.098940525        -53.380226     1.5147083e-06        -45.428278       0.049375794        -45.596491     2.1763727e-05        -57.951018
                  1.4988379e-06        -45.478796       0.099962488        -53.066304     1.2341291e-05         122.40141       0.050210201        -45.173145
                    0.049996539        -46.341594     1.2342546e-05         122.46347       0.099659757        -53.506665     3.1537993e-06         127.28764
                  2.1761614e-05        -57.994652       0.050850701        -45.923341     3.1738018e-06         127.34417        0.10087269        -53.290523

0.075       0.11107931         35.250432     8.6669613e-06        -69.316888        0.10141865          45.56229     3.3448874e-05        -121.24027
                  8.6493548e-06        -69.179258        0.10942557         36.175462      1.664413e-05         33.016185        0.10040553          46.41595
                     0.10066188         45.589778     1.6652389e-05         33.041166        0.11099123         35.630045      4.099056e-06         23.000618
                  3.3432536e-05        -121.24993       0.099647343         46.449228     4.1180961e-06         23.160381        0.10940152         36.646817

0.1       0.21758742        -20.795709     1.4575393e-05         155.92163        0.17006959        -17.858883     4.8370132e-05         160.81114
                  1.4541784e-05         155.90529        0.21831989        -19.690882     1.4811164e-05        -14.080415        0.17071604         -16.71281
                      0.1694339        -18.001128     1.4825656e-05        -14.053003        0.21822656        -20.658324     2.6563979e-06         2.3459242
                  4.8353368e-05         160.80038        0.17008173        -16.854238     2.6925958e-06         2.3468454        0.21895261        -19.544606

0.125       0.11671285        -74.543377     7.2242439e-06         23.106916        0.08339288        -79.489045     5.2137074e-05         86.952543
                  7.2017436e-06         22.797705        0.11984095        -73.708804      2.978009e-05        -80.525335       0.085642395        -78.236535
                    0.082709046        -80.077598     2.9820169e-05        -80.562221        0.11696666        -74.276678     8.0914254e-06        -70.253105
                  5.2087638e-05         86.961853       0.084963923        -78.811616      8.153541e-06        -70.424805        0.11989319        -73.411744

0.15       0.12580543         3.0833453     1.4398861e-05         43.063578       0.094758171         9.7727286     6.7609892e-05         22.422732
                  1.4360979e-05         43.188291         0.1245385         4.7673423     2.8169309e-05        -169.98796       0.093947599          11.42543
                    0.095002359         10.389554      2.817134e-05        -170.10249        0.12704026          2.825359     5.9931251e-06        -170.01525
                  6.7615533e-05         22.470994        0.09418743         12.048695     6.0467581e-06        -170.25459        0.12588121          4.535717

0.175        0.2313488         -50.98157     2.5258962e-05        -91.742139        0.16575595        -52.798667     7.9447478e-05        -57.293901
                  2.5214263e-05         -91.79141         0.2344642         -49.07262     3.1084653e-05         148.14632        0.16811389        -50.660215
                     0.16573636        -52.556384     3.1045979e-05         148.14405        0.23244237         -51.13418     8.3289107e-06         167.46002
                  7.9474196e-05        -57.281532        0.16809496        -50.421261     8.3541279e-06         167.24834        0.23541791        -49.209009

0.2       0.15215276        -106.79141     1.7645419e-05         133.86306        0.10525496        -115.71408      7.633702e-05        -127.74602
                  1.7645385e-05         133.67184        0.15652805        -104.75963     5.1986325e-05         70.311268        0.10856931        -113.00657
                     0.10475368         -115.5164     5.1962926e-05         70.306094        0.15194406        -106.48429     1.5219617e-05          79.35919
                  7.6347598e-05        -127.73308        0.10807092        -112.81622     1.5285108e-05         79.232759        0.15604151        -104.45309

0.225      0.074545721         -59.94377     8.8731597e-06         133.81609       0.045646435        -58.859493     9.3129129e-05         166.29825
                  8.8070313e-06         133.70096       0.075872762        -57.097414     4.9676072e-05        -10.113665       0.046952327        -55.451064
                    0.046017493        -58.516425     4.9650031e-05        -10.099415        0.07640469        -59.752129     1.2666902e-05        -2.5807895
                  9.3155426e-05         166.29662       0.047325407        -55.114702     1.2727961e-05        -2.8454321       0.077733488        -56.827953

0.25       0.16543633        -80.973451     2.3754508e-05         25.787546       0.088111711        -87.606847     0.00010169269         90.196304
                  2.3717834e-05         25.654245        0.17138649        -78.340834     5.6327622e-05        -71.733594       0.092911768        -84.331454
                    0.089272768        -87.399837     5.6309282e-05        -71.636843        0.16709552        -81.908129     1.5662665e-05         -60.39805
                  0.00010173642          90.14931       0.094077762        -84.136679     1.5689572e-05        -60.519206        0.17279558        -79.243131

0.275       0.10705038        -134.67336     1.4640319e-05        -110.11364        0.03583485        -150.11604     0.00010162234         23.914919
                  1.4681742e-05        -110.36897        0.11043315        -131.59638     7.0452399e-05        -151.99332       0.038026223         -145.6002
                    0.036805921        -149.52451     7.0507029e-05        -151.92937        0.10603193        -134.88117     1.9437175e-05        -146.56161
                  0.00010156815         23.871941       0.039004414        -145.07287     1.9506283e-05         -146.5608        0.10908827        -131.80062

0.3       0.03703007        -80.142741     6.1183533e-06          -77.8612       0.035370346         -52.94252     0.00012010805        -45.927987
                  6.0357527e-06        -78.116921       0.042124611        -74.736998     6.6461525e-05         134.77493        0.04004469        -49.700203
                    0.035054444        -54.007453     6.6530954e-05          134.7966       0.040576607        -79.903489     1.6966751e-05          143.7613
                  0.00012004097        -45.937176       0.039739145        -50.640796     1.7070138e-05         143.65551       0.045594771        -74.705481

0.325      0.077360313        -103.41673     1.1939313e-05          153.1774       0.030150022         -116.0352     0.00012453836        -118.56312
                   1.191331e-05         152.70964       0.084076772        -101.12389     7.6421877e-05         65.976731       0.035685397        -111.93272
                    0.030374567        -117.40473     7.6505976e-05         65.973752       0.078177194        -105.81343     2.0821441e-05         73.743852
                  0.00012445687        -118.56567       0.035913519        -113.09937     2.0905295e-05         73.594089       0.084523667        -103.34475

0.35      0.036889191        -94.725768     6.6424876e-06         142.33318       0.042754203        -19.588443     0.00013914801         172.52231
                  6.5286397e-06         142.16658       0.038430795        -89.328063     7.5108545e-05        -9.1849958       0.044590759         -16.34194
                    0.041905498        -18.890626     7.5186229e-05        -9.2363482       0.035143599        -90.224259     1.8338478e-05        0.83405845
                  0.00013906361         172.54837       0.043733031        -15.687315     1.8430849e-05         0.7585655       0.036651876        -84.595717

0.375       0.10307312        -88.210722     2.5173399e-05         31.838306       0.098934608        -86.465364     0.00014708847         96.070385
                   2.508448e-05         31.643584        0.11155085        -83.944135     8.1379732e-05          -69.8601        0.10620829        -81.694695
                    0.097876408        -86.316898     8.1372947e-05        -69.927565        0.10740238        -87.840882     2.3820098e-05        -54.794704
                  0.00014705873         96.108721        0.10515806        -81.557699     2.3950463e-05         -54.99794        0.11547051        -83.630577

0.4       0.10029503        -137.71171     2.1631702e-05        -98.599399       0.071119816        -152.63383     0.00014120488          27.97026
                  2.1655195e-05        -98.951038         0.1052711         -132.9568     0.00010025077        -146.64305       0.074477028        -146.50865
                    0.069998284        -152.73343     0.00010018901        -146.69252        0.10072446        -138.53998     2.9100234e-05          -139.372
                  0.00014125322         28.009785       0.073351341        -146.59618     2.9233519e-05        -139.61211        0.10508324         -133.7491

0.425      0.062651586        -109.23507     1.5011303e-05        -116.61568        0.04888111        -82.907355     0.00016191008        -43.091583
                  1.4895867e-05        -116.99508       0.067819279        -100.06778     9.3253997e-05         141.79179       0.054861003        -74.791422
                    0.049371327        -82.082265     9.3168624e-05         141.80795        0.06398636        -107.36854     2.5712517e-05         155.61196
                  0.00016198501         -43.09912       0.055391191        -74.073962     2.5783669e-05          155.3372       0.069208862        -98.388844

0.45       0.18328516        -118.15071     4.7660723e-05         142.67795         0.1251979        -127.21073     0.00015561555        -119.92351
                  4.7592121e-05         142.51621          0.192193        -112.50983     0.00011117709          78.16086        0.13206085         -120.4898
                     0.12557488        -126.88784     0.00011116871         78.207448        0.18993005        -118.21554      3.546931e-05          85.43581
                  0.00015562875         -119.9488        0.13245183        -120.18984     3.5571043e-05         85.259845        0.19803369        -112.58924

0.475       0.19402003        -177.72493     4.9623645e-05         8.7774214        0.12075513         167.81748     0.00014517475         178.94161
                  4.9711035e-05         8.6235552        0.19508407        -170.74679      0.0001295169        -3.8148852        0.11958962         175.44194
                     0.12048404         168.09759     0.00012952258        -3.7942838        0.19485926        -177.97703     3.6815867e-05        -1.5095961
                  0.00014516484         178.93238        0.11932505         175.72593     3.6964591e-05        -1.7183487        0.19512961        -170.99548

0.5      0.055715851         133.35719     1.3970239e-05        -128.57497       0.035846801         111.72331     0.00017972296         110.76948
                  1.4149818e-05        -128.57134        0.04923172         148.53722     0.00011361338        -78.793347       0.026917202         124.17393
                    0.034978828         112.90365     0.00011362445         -78.73023       0.050184438         137.50729     2.9595698e-05        -71.439798
                  0.00017969831         110.73532       0.026129141         125.97378     2.9676191e-05        -71.798085       0.044480461         154.22786

0.525        0.1484978        -151.07698     3.9939872e-05        -103.22992       0.080511761        -169.93938      0.0001709472          33.43243
                  3.9877151e-05        -103.45143        0.15495968        -143.91604     0.00013271569        -143.16699       0.083680734        -160.59399
                    0.081935522         -169.9492      0.0001329145        -143.15235        0.15659171        -151.98352     3.8223099e-05        -138.54817
                  0.00017075422          33.42025       0.085100118        -160.65065     3.8249356e-05        -138.75267        0.16157352        -144.72543

0.55       0.21746455         146.54348     6.0521713e-05         119.89264        0.10909983          129.0143     0.00017020835        -27.050942
                  6.0604578e-05         119.80174        0.21290139         154.90238     0.00014099379         134.99921        0.10315758         136.67821
                     0.11029942         129.00497     0.00014113801         134.95446        0.21788824         146.35689     3.5957145e-05         134.46567
                  0.00017011309        -26.997348        0.10435674          136.6631     3.6034449e-05         134.31859        0.21276715          154.1826

0.575       0.11366274          83.31524     3.6117605e-05        -18.195982       0.047329844           68.8144     0.00020840847        -98.441846
                  3.6230829e-05        -18.106652        0.10373062         92.993814     0.00011882873           64.7079       0.037545045         76.348612
                    0.048025833         69.106838     0.00011886641         64.653907        0.10765682         83.822179     2.9492276e-05         74.908524
                  0.00020841677        -98.407245       0.038244532         76.723329     2.9563577e-05         74.655952       0.098274748         93.584672

0.6       0.06054903         174.51585     1.4584765e-05         6.0832948       0.045348686         159.00478     0.00020456563        -173.93347
                  1.4623605e-05         5.5700321       0.061020912        -175.25074     0.00013839748        0.18708491       0.044133012         170.17339
                    0.045524624         158.12226     0.00013842918        0.13226635       0.065473798         172.78842     3.8137873e-05         6.2303283
                  0.00020456324         -173.8977       0.044260184         169.24571     3.8163677e-05         6.0324018       0.065220313        -177.52318

0.625       0.11375145         115.93714     3.3771149e-05        -129.85713       0.054370549          95.91196     0.00021659875         119.04039
                  3.3887736e-05        -129.88839        0.10363475         126.82056     0.00013720114        -77.684523       0.043605143         104.42361
                    0.055014948         94.936715      0.0001371171        -77.763016        0.11062762         114.26721     3.3253416e-05        -69.234359
                  0.00021672575         119.07808        0.04423981         103.20382     3.3305655e-05        -69.364863        0.10030777         125.14274

0.65      0.025287121         90.416593     6.3737639e-06         104.91694       0.024310419        -167.41262     0.00022712947         43.962586
                  6.4459069e-06         105.90542        0.02151629          115.6619     0.00013776448        -141.41172       0.030253627        -151.68077
                    0.023192664        -165.94718     0.00013755972        -141.41469       0.020753462         102.94647     3.9764641e-05        -129.42638
                  0.00022731982         43.962709       0.029218786        -150.25327     3.9870122e-05        -129.61593       0.019093465         131.37173

0.675      0.090093298         141.26113     2.9252123e-05         118.39501       0.089623867         133.03098     0.00022059222        -23.564386
                  2.9399088e-05         118.21603       0.083026338         152.54738     0.00015725276         142.08206       0.082168489         143.37844
                    0.088537493         133.26977     0.00015713949         142.11959       0.090516589         140.00652     4.2167224e-05         144.52733
                  0.00022068956        -23.595077       0.081078654         143.66447     4.2275442e-05         144.27681       0.083027772         151.32931

0.7      0.045483242           97.5405     1.5204234e-05          -17.9686       0.043034549         83.602859     0.00024478243        -95.935768
                  1.5388478e-05        -17.694545        0.03553079         118.74731     0.00014388381         71.949094       0.031867004         97.950183
                    0.042025275         83.938579       0.000143889         72.004783        0.03582898         99.659713     3.6929578e-05         83.770396
                  0.00024474755        -95.969032       0.030889267         98.604755     3.6956641e-05         83.481026       0.027109256         125.90601

0.725       0.14074081         169.56719      4.921945e-05         11.050391         0.1039237         150.97777     0.00021649644        -167.41239
                  4.9222645e-05         10.807174        0.14093795        -179.66084     0.00017780989        0.85292057        0.10177777         162.53272
                     0.10439075          151.4163     0.00017791334        0.87223603        0.15078303         169.98264     5.1852664e-05       -0.33274248
                  0.00021638298        -167.41717        0.10226591         162.96991     5.1936913e-05       -0.55075589        0.15048876        -179.30234

0.75       0.23187754         110.65142     8.6353114e-05        -121.20761        0.16205647          96.76018     0.00023871518         132.53335
                  8.6528449e-05        -121.28837         0.2212987         121.37858     0.00016585649        -83.260486        0.15155727         106.88374
                     0.16195732          96.99233     0.00016589645        -83.250679        0.23207938         109.67013     3.5555107e-05        -90.273945
                  0.00023868872         132.53473        0.15145968         107.13845     3.5676955e-05        -90.621536        0.22155909          120.4738

0.775       0.11966662         56.369843     5.2713041e-05         109.14797        0.07971776         45.779686     0.00028047758         55.604629
