! Created Thu Mar  2 13:01:53 2023
# ghz S ma R 45
! 4 Port Network Data from SP1.SP block
! freq  magS11  angS11  magS12  angS12  magS13  angS13  magS14  angS14  
!       magS21  angS21  magS22  angS22  magS23  angS23  magS24  angS24  
!       magS31  angS31  magS32  angS32  magS33  angS33  magS34  angS34  
!       magS41  angS41  magS42  angS42  magS43  angS43  magS44  angS44  
!     
0      0.073258384    -2.7198824e-13     1.8954473e-06               180      0.0041820148    -4.0566384e-12     1.9053409e-05               180
                  1.6951226e-06              -180       0.074335965     7.3745375e-13     2.6054805e-05               180       0.004178867    -1.8096245e-12
                   0.0050268164     1.2448959e-11     3.0427347e-05    -2.4125451e-11       0.073821936    -2.4552246e-14     2.9373376e-05               180
                  3.1075115e-05    -8.1351948e-13      0.0052460415     8.6861579e-12     3.1593456e-05               180       0.074556572    -4.8597004e-13

0.025       0.15679507        -1.7625795     2.9884297e-05        -179.99306       0.092208062         16.791726     2.1100993e-05         129.13733
                  2.9619366e-05         -177.6428        0.15746168        -2.1921697     3.0814477e-05         140.42898       0.092557139         16.468655
                    0.092632155         16.361669     3.4136799e-05        -126.31255        0.15726434        -1.5565659     2.4993346e-05           109.408
                   3.007003e-05         -115.9155       0.093084163         15.937168     2.7124942e-05         110.92827        0.15754929        -1.9761066

0.05      0.098940525        -53.380226     1.8202755e-05         77.546727       0.049375794        -45.596491     1.5688365e-05        0.47907907
                  1.7988023e-05         87.607969       0.096514254        -53.618712      1.720561e-05         3.1832028       0.047518087        -45.889417
                    0.049996539        -46.341594     1.1243807e-05         154.32709       0.099659757        -53.506665     2.5122912e-05        -38.817029
                  1.6391633e-05         144.18032       0.048283132        -46.820028     2.4582021e-05        -33.652893       0.097175851        -53.760639

0.075       0.11107931         35.250432     2.0855698e-05        -129.24739        0.10141865          45.56229     2.8400967e-05        -156.23237
                  1.7052261e-05        -133.33322         0.1152857         34.229408     4.1810466e-05         -153.3719        0.10448139         44.520198
                     0.10066188         45.589778     2.1335775e-05        -127.79432        0.11099123         35.630045     4.8487953e-05        -160.44514
                  5.0866105e-06        -60.255125        0.10354004         44.530339     4.7045957e-05        -159.52144         0.1148313         34.578736

0.1       0.21758742        -20.795709     1.4986868e-05         99.854083        0.17006959        -17.858883     3.1440524e-05          82.11252
                  1.2449928e-05         89.147088         0.2173279        -22.146529     3.6776451e-05         82.824751        0.16989914        -19.218557
                      0.1694339        -18.001128     1.1124102e-05        -128.58357        0.21822656        -20.658324     3.9641495e-05         76.122448
                  1.5857453e-05        -97.397515         0.1690972        -19.397953      3.983711e-05         76.177513        0.21788224        -21.987319

0.125       0.11671285        -74.543377      5.229107e-05        -68.338336        0.08339288        -79.489045     5.8078627e-05        -53.286621
                  5.1768491e-05        -71.917681        0.11030977        -75.154487     8.0467638e-05        -61.471203       0.078275836        -80.817007
                    0.082709046        -80.077598      5.895067e-05        -110.73624        0.11696666        -74.276678      7.819035e-05        -63.961486
                  3.9131348e-05        -125.85497       0.077439968        -81.562078     7.8724524e-05         -62.46765        0.11139004        -74.926534

0.15       0.12580543         3.0833453     6.6257601e-05         -166.4245       0.094758171         9.7727286     7.1975483e-05        -165.83822
                   6.322304e-05        -168.93234        0.13127868          1.306154     9.8419308e-05        -164.47313       0.098758114         7.8307049
                    0.095002359         10.389554     8.0015912e-05         163.84769        0.12704026          2.825359     9.5625304e-05        -168.77619
                  5.2930485e-05         149.73154       0.099002489         8.5240351     9.5002908e-05        -166.56754        0.13137155        0.89087987

0.175        0.2313488         -50.98157     7.3985898e-06        0.69304575        0.16575595        -52.798667     2.9159285e-05         80.561234
                  1.0835106e-05        -15.699866        0.22809356        -53.288619     1.8988746e-05         61.143376         0.1631376        -55.262878
                     0.16573636        -52.556384     2.9888745e-05         6.2071134        0.23244237         -51.13418     3.3728595e-05         75.307505
                  2.2745779e-05         4.5672059        0.16302896        -54.964373     3.1262055e-05         79.475377        0.22901876        -53.444808

0.2       0.15215276        -106.79141      0.0001051334        -118.27984        0.10525496        -115.71408     6.9524345e-05        -97.160721
                  0.00010847354        -119.20645        0.14252198        -108.81253     0.00011726575        -109.58805       0.097659014        -118.76483
                     0.10475368         -115.5164     0.00012327034        -121.19056        0.15194406        -106.48429     9.4270033e-05        -100.29331
                  7.7310902e-05        -125.26224        0.09700726        -118.47673     9.3122334e-05         -101.9662        0.14390705        -108.60607

0.225      0.074545721         -59.94377     0.00012407127         156.74243       0.045646435        -58.859493     0.00010054021         167.05095
                  0.00012466695         155.95322       0.076933849        -60.470535     0.00014580826         164.81817         0.0473485        -59.198969
                    0.046017493        -58.516425      0.0001389725         146.74542        0.07640469        -59.752129     0.00012453204         169.52653
                    9.90723e-05         137.41907       0.047799781        -58.851751     0.00012395826          169.0238       0.077372194        -61.466024

0.25       0.16543633        -80.973451     1.8270473e-05          22.87066       0.088111711        -87.606847     3.4279375e-05         81.628146
                  1.8240705e-05         17.306997         0.1583043        -84.064337     2.2882791e-05         77.045702       0.082020075        -91.328292
                    0.089272768        -87.399837     5.0734075e-05         -5.532185        0.16709552        -81.908129      3.272006e-05         90.974666
                  4.9326788e-05         6.1787214       0.083306546        -91.067186     3.2801506e-05         93.861286        0.15942722        -85.053687

0.275       0.10705038        -134.67336     0.00013765286        -158.38659        0.03583485        -150.11604     6.8395209e-05        -157.13209
                  0.00014006485        -158.53057        0.09689771        -136.90008     0.00013508058        -159.89912       0.027571095        -154.11463
                    0.036805921        -149.52451     0.00017182901        -148.45325        0.10603193        -134.88117     8.8990804e-05        -156.86824
                  0.00010802791        -144.78454       0.028637922        -153.08838     8.8180244e-05        -159.18742       0.097774035        -137.55693

0.3       0.03703007        -80.142741      0.0001587332         120.33245       0.035370346         -52.94252     9.3740408e-05         124.35294
                  0.00016080665         120.32305       0.036650178        -81.007414     0.00015439024         123.71582       0.035273008        -55.906471
                    0.035054444        -54.007453     0.00018294923         127.60708       0.040576607        -79.903489     0.00010570565         130.25958
                  0.00012456072         124.13896       0.034923094        -57.258694     0.00010468383         127.78608       0.037900692        -83.154879

0.325      0.077360313        -103.41673     2.4793081e-05        -11.295641       0.030150022         -116.0352     7.4865701e-06         142.41621
                  2.5096472e-05        -7.2052499       0.068574192        -104.90056     4.4952811e-06        -132.53863       0.022144083        -118.53502
                    0.030374567        -117.40473     1.9182379e-05        -6.5720756       0.078177194        -105.81343     2.6603251e-05          177.8404
                  2.7335226e-05       -0.23150079       0.022348186        -120.81295     2.3537357e-05        -175.31102       0.068892487        -107.62022

0.35      0.036889191        -94.725768     0.00015096208         165.12535       0.042754203        -19.588443      0.0001083193         146.37603
                  0.00014969442         164.82888        0.03776071        -87.641004     0.00016876254           154.543       0.048586124         -23.60123
                    0.041905498        -18.890626     0.00017695124         167.99036       0.035143599        -90.224259     0.00013677367         144.57768
                  0.00011355343         172.13028       0.047666196        -22.872621     0.00013590818         145.97332       0.035695014        -86.690483

0.375       0.10307312        -88.210722     0.00014407322         86.097331       0.098934608        -86.465364     8.7226977e-05         67.623411
                  0.00014380043         86.005298        0.10030607        -92.962248     0.00013983565         76.761081       0.096102747        -92.104942
                    0.097876408        -86.316898     0.00016818444          95.00573        0.10740238        -87.840882     9.4440255e-05          66.24087
                  0.00011268364         98.150955       0.094920044        -91.942041     9.4265019e-05         66.861395        0.10199529        -92.748734

0.4       0.10029503        -137.71171     2.8110948e-05        -124.43022       0.071119816        -152.63383     5.8378398e-05        -152.50605
                  2.6797808e-05        -123.35016       0.091875158        -142.43733      6.627864e-05        -145.99807       0.064143143         -159.2473
                    0.069998284        -152.73343     2.5082171e-05         157.85332        0.10072446        -138.53998       8.57577e-05        -157.44952
                  2.4003671e-05         139.57131        0.06288532        -159.38343     8.5684881e-05        -155.87904       0.092835845        -143.45429

0.425      0.062651586        -109.23507     0.00016927531         127.79392        0.04888111        -82.907355     0.00017169267         114.44526
                  0.00016664497         127.68838       0.062994353        -111.53833     0.00022417455         120.96009       0.050569263        -87.362908
                    0.049371327        -82.082265     0.00018467651         117.88954        0.06398636        -107.36854     0.00021247716          113.8407
                  0.00012890699         113.33975       0.051136477        -86.509748     0.00021174559         115.43063       0.062656302         -112.6311

0.45       0.18328516        -118.15071     0.00011766889         49.646054         0.1251979        -127.21073     0.00011201287         26.094782
                  0.00011500296         49.386095        0.18032222        -124.97867     0.00015030789         34.412897        0.12225583        -134.80736
                     0.12557488        -126.88784     0.00012830435         41.794284        0.18993005        -118.21554     0.00013585471         23.368473
                  8.4013122e-05         43.515755        0.12264475        -134.43579     0.00013435908          26.23699        0.18416908        -125.10592

0.475       0.19402003        -177.72493      7.212945e-05         172.74339        0.12075513         167.81748     8.2702609e-05        -170.64534
                  7.3775691e-05         172.48005        0.18854988         174.29024       0.000107633          -170.977        0.11716699         159.19644
                     0.12048404         168.09759     8.4365211e-05         169.36571        0.19485926        -177.97703      0.0001090801        -167.15731
                  6.3127133e-05         150.03449        0.11685014         159.53474     0.00010478508        -169.04711        0.19074505         173.96649

0.5      0.055715851         133.35719     0.00024085124         95.551656       0.035846801         111.72331     0.00022988055         95.270724
                  0.00024011203         95.552998       0.051392278         124.48636     0.00030651762         97.269385       0.034250191         102.82121
                    0.034978828         112.90365     0.00026578532         89.827417       0.050184438         137.50729     0.00027929251         96.459476
                  0.00019135065         81.899473       0.033346694         104.26789     0.00027704726         96.074481       0.050109598          126.1714

0.525        0.1484978        -151.07698     0.00013297571         8.7598009       0.080511761        -169.93938     0.00013874625         1.1700922
                  0.00013052775         9.1512558        0.14901973        -159.58431     0.00018557301         5.6413575       0.080708816        -179.34316
                    0.081935522         -169.9492     0.00014750804        -5.8740181        0.15659171        -151.98352     0.00017522631         2.6535195
                  0.00010338289         -16.79959       0.082201071        -179.39608     0.00017436059         3.5696085        0.15395888        -160.67089

0.55       0.21746455         146.54348     0.00012162304         143.08695        0.10909983          129.0143     9.2614511e-05         159.58872
                  0.00012352092         142.15531        0.21557863         137.02815     0.00013430893         157.40559        0.10842631         119.26988
                     0.11029942         129.00497     0.00016511369         152.40729        0.21788824         146.35689     0.00010484123          167.7446
                  0.00011927947         148.49556        0.10966288         119.26034     9.9711858e-05         166.17572        0.21772704         136.74879

0.575       0.11366274          83.31524     0.00030432457         65.486631       0.047329844           68.8144     0.00023343458         70.968869
                  0.00030577528         65.233278        0.10800051          73.57427     0.00034385849         70.580279       0.044072607         59.619084
                    0.048025833         69.106838     0.00035812174         67.910684        0.10765682         83.822179     0.00027791714          73.80784
                  0.00024341768         63.700728       0.044828137         59.998857     0.00027296352         72.722063         0.1073756         73.780426

0.6       0.06054903         174.51585     0.00017138451        -23.984939       0.045348686         159.00478     0.00011876694        -17.776193
                  0.00017148574        -23.819172       0.067430944         164.23214     0.00019672775        -15.685681       0.050493637         149.22612
                    0.045524624         158.12226     0.00019457479        -23.741064       0.065473798         172.78842     0.00015856381        -11.652169
                  0.00011953622        -38.345677       0.050603891         148.30533     0.00015476588        -13.454071       0.069266834         161.81368

0.625       0.11375145         115.93714     0.00017494726         111.17564       0.054370549          95.91196     0.00013415664         103.59954
                  0.00017476138         110.61205        0.11310287         105.17124     0.00017843005         106.62427       0.054119467         85.962492
                    0.055014948         94.936715     0.00021264868          114.1016        0.11062762         114.26721     0.00013675608          102.2455
                  0.00017344507         116.17578       0.054679022          84.88156     0.00013827006         103.18763        0.11265605         103.22003

0.65      0.025287121         90.416593     0.00035760301         25.518546       0.024310419        -167.41262     0.00024009844         21.938138
                  0.00035852633         25.169012       0.022019249         108.22022     0.00037640315          25.00111       0.033833889        -176.52958
                    0.023192664        -165.94718     0.00042382948         28.688072       0.020753462         102.94647     0.00028346159          23.31777
                  0.00028675233         28.448945       0.032757966        -175.30291     0.00028226076         23.363964       0.021143272         110.22374

0.675      0.090093298         141.26113     0.00015398537        -60.318351       0.089623867         133.03098     4.6319227e-05        -67.768373
                  0.00015574119        -60.895964        0.10163615         129.49579     0.00013968614        -53.992411       0.098458398         121.98919
                    0.088537493         133.26977     0.00018872363        -50.735272       0.090516589         140.00652     7.4483965e-05        -50.279416
                  9.2063245e-05        -56.852294       0.097336205         122.24571     7.2417905e-05         -52.27437        0.09993938         127.80135

0.7      0.045483242           97.5405     0.00022290446         66.678704       0.043034549         83.602859     0.00022638878         53.131913
                  0.00022178795         67.152216       0.041340144         90.969273     0.00027304427         55.796319       0.039308686         77.773081
                    0.042025275         83.938579     0.00023935322         60.300396        0.03582898         99.659713     0.00025725081         49.569078
                    0.000196259         61.479044       0.038289728         78.470897     0.00025899268         50.866901       0.035354375         91.033008

0.725       0.14074081         169.56719     0.00032815415        -21.882669         0.1039237         150.97777     0.00024589834          -38.3864
                   0.0003284289        -21.921029        0.16066241         157.22666     0.00037835208        -29.708905        0.12001204         140.11631
                     0.10439075          151.4163     0.00037262649        -24.209034        0.15078303         169.98264     0.00031273989        -36.455816
                  0.00023793443        -26.630787        0.12058588         140.47112     0.00031329233        -35.129653        0.16475857         157.01544

0.75       0.23187754         110.65142     8.5157254e-05         -105.5149        0.16205647          96.76018     5.7156031e-05         174.41582
                  8.5937308e-05         -106.5896        0.24269534         98.653358     9.0454862e-05        -129.35722        0.16916929          85.69821
                     0.16195732          96.99233     0.00010105282        -103.66779        0.23207938         109.67013     6.5323216e-05        -157.00152
                  2.7969753e-05        -114.95983         0.1691329         85.926895     6.1145727e-05        -153.09128        0.24156886         97.566253

0.775       0.11966662         56.369843     0.00027604188         32.805121        0.07971776         45.779686     0.00027568849         28.349556
