! Created Thu Mar  2 13:04:31 2023
# ghz S ma R 45
! 4 Port Network Data from SP1.SP block
! freq  magS11  angS11  magS12  angS12  magS13  angS13  magS14  angS14  
!       magS21  angS21  magS22  angS22  magS23  angS23  magS24  angS24  
!       magS31  angS31  magS32  angS32  magS33  angS33  magS34  angS34  
!       magS41  angS41  magS42  angS42  magS43  angS43  magS44  angS44  
!     
0      0.073258384    -2.7198824e-13     6.4731323e-08               180      0.0041820148    -4.0566384e-12     2.1667419e-07              -180
                  6.6514695e-08              -180       0.074374553     7.3689995e-13     1.4305539e-05     1.6518908e-14      0.0041055013    -1.8389019e-12
                   0.0050268164     1.2448959e-11     1.4305115e-05     1.6743844e-14       0.073821936    -2.4552246e-14     3.0429959e-07              -180
                  2.1710716e-07               180      0.0052209363     8.7320227e-12      3.099328e-07              -180       0.074081197    -4.8978847e-13

0.025       0.15679507        -1.7625795     6.4745135e-06         167.84846       0.092208062         16.791726     4.6466756e-06         165.76623
                  6.4524613e-06         167.95209        0.15712176        -1.9320423     3.3919707e-05         27.429605       0.092380584         16.766301
                    0.092632155         16.361669        3.3925e-05         27.445054        0.15726434        -1.5565659     7.1253417e-06         168.54384
                  4.6454862e-06         165.52758       0.092874126         16.224695     7.1039685e-06         168.60278        0.15741493        -1.6340201

0.05      0.098940525        -53.380226     1.0810176e-05        -37.544703       0.049375794        -45.596491     1.1783323e-05        -46.927559
                  1.0751985e-05         -37.76447       0.097861556        -53.303026     0.00013573969         114.99994       0.048445099        -45.496582
                    0.049996539        -46.341594     0.00013572882         114.98357       0.099659757        -53.506665     1.2674868e-05        -40.285336
                  1.1820501e-05        -46.774764       0.049200549        -46.393942      1.262061e-05        -40.464938       0.098613035        -53.499882

0.075       0.11107931         35.250432      3.683107e-05        -136.06408        0.10141865          45.56229     3.0448855e-05         -147.8812
                  3.6691382e-05         -136.0272        0.11334792         35.087549     0.00024187456         53.511286        0.10330219         45.371101
                     0.10066188         45.589778     0.00024183159         53.504149        0.11099123         35.630045       4.14687e-05        -136.27067
                  3.0456697e-05        -147.76797        0.10235806         45.378171     4.1325237e-05        -136.22587        0.11294713         35.489878

0.1       0.21758742        -20.795709     3.3570519e-05         113.46855        0.17006959        -17.858883     1.9001173e-05         103.51243
                  3.3413717e-05         113.63163        0.21816766        -21.062011     6.7591044e-05         82.762866        0.17056847        -18.090476
                      0.1694339        -18.001128      6.760054e-05         82.766523        0.21822656        -20.658324     3.5219192e-05         114.15987
                   1.896624e-05         103.53926        0.16976823        -18.268934     3.5052475e-05         114.33123        0.21873777        -20.902372

0.125       0.11671285        -74.543377     3.2159822e-05        -66.078629        0.08339288        -79.489045     3.2506679e-05         -77.83569
                   3.195349e-05        -66.067837         0.1138829        -74.470066     0.00041668488         85.474645       0.080998908        -79.537509
                    0.082709046        -80.077598     0.00041659394         85.471712        0.11696666        -74.276678     3.7139958e-05        -69.128472
                  3.2603142e-05         -77.91493       0.080173324        -80.262912      3.692678e-05        -69.131152        0.11486222         -74.22724

0.15       0.12580543         3.0833453     7.7728344e-05        -172.03096       0.094758171         9.7727286     5.7380073e-05         177.07031
                  7.7616956e-05        -171.87677        0.12987269         2.9379456     0.00035131537         27.170458       0.098003033         9.4427755
                    0.095002359         10.389554     0.00035120767         27.184143        0.12704026          2.825359     8.6128017e-05        -172.24543
                  5.7623021e-05         177.08203       0.098242941         10.146436     8.6038743e-05        -172.08649        0.13005165         2.5378867

0.175        0.2313488         -50.98157     5.3551182e-05         70.048149        0.16575595        -52.798667     2.4166614e-05         52.077355
                  5.3498711e-05         70.337205        0.23164572        -51.414047     0.00027517027         101.20094        0.16577447        -53.208653
                     0.16573636        -52.556384     0.00027523673         101.19221        0.23244237         -51.13418     5.4985524e-05         69.708352
                  2.4353118e-05         52.290637        0.16566907        -52.914729     5.4961623e-05         70.018987        0.23254156        -51.568373

0.2       0.15215276        -106.79141     6.4699999e-05        -103.01147        0.10525496        -115.71408     5.8451815e-05        -111.19333
                  6.4421412e-05        -102.85265        0.14739334        -106.89788     0.00069190525          55.12361        0.10122696        -116.14271
                     0.10475368         -115.5164     0.00069184861         55.125033        0.15194406        -106.48429     7.3232486e-05        -105.03049
                  5.8463629e-05        -111.14775        0.10057728        -115.86678     7.2957905e-05        -104.88602        0.14857052        -106.69994

0.225      0.074545721         -59.94377     0.00011242059         162.19141       0.045646435        -58.859493     7.8571109e-05         157.56453
                  0.00011239074         162.36048       0.078515212        -57.619737     0.00029096089          3.674418       0.048720796        -55.914659
                    0.046017493        -58.516425     0.00029094455         3.6991465        0.07640469        -59.752129     0.00012318946          161.8025
                  7.8685291e-05         157.48111       0.049175314        -55.575837     0.00012319069         161.94795       0.079047787        -58.494977

0.25       0.16543633        -80.973451     5.5960082e-05         48.093494       0.088111711        -87.606847     1.5699525e-05         23.693854
                  5.6114347e-05         48.318212        0.16492276        -81.527003     0.00063042992         83.027188       0.086997502        -88.117923
                    0.089272768        -87.399837      0.0006304575         83.010137        0.16709552        -81.908129     5.5665052e-05         46.540729
                  1.5991774e-05         22.966873       0.088286767        -87.873537      5.584901e-05         46.714661          0.165958        -82.491372

0.275       0.10705038        -134.67336     0.00010916727        -143.81321        0.03583485        -150.11604     9.1442821e-05        -156.88476
                  0.00010893786        -143.66601        0.10036109        -133.91854     0.00084553512         24.639417       0.029743052        -149.42929
                    0.036805921        -149.52451     0.00084550499         24.630199        0.10603193        -134.88117     0.00012234899        -145.36019
                  9.1555952e-05        -156.75612       0.030819211        -148.52259     0.00012216909        -145.23202        0.10093215        -134.52699

0.3       0.03703007        -80.142741     0.00017358756         127.04896       0.035370346         -52.94252     0.00010798963         123.01544
                  0.00017358469         127.19302       0.042468422        -75.784671     0.00014822356         57.949097       0.040064268          -52.9876
                    0.035054444        -54.007453     0.00014824774         57.949252       0.040576607        -79.903489     0.00018656373         126.75436
                  0.00010803976         123.03238       0.039730523        -54.182273     0.00018657035         126.87071       0.043803068        -77.637888

0.325      0.077360313        -103.41673     5.2543443e-05         13.571527       0.030150022         -116.0352     7.3061415e-06        -115.26509
                   5.276422e-05          13.97173       0.075539888        -103.18524      0.0010126481         55.538177       0.027555595        -115.10252
                    0.030374567        -117.40473      0.0010125185         55.528184       0.078177194        -105.81343     4.9459723e-05         10.427016
                  7.4889178e-06        -113.95106       0.027770468        -116.94342     4.9654602e-05         10.775802       0.075697975        -105.66698

0.35      0.036889191        -94.725768     0.00017979461         170.52268       0.042754203        -19.588443     0.00013675723         154.45435
                  0.00017954452         170.68384        0.03979516        -82.116533     0.00077802029        -2.3877508       0.050685576        -20.311347
                    0.041905498        -18.890626      0.0007777031        -2.3946866       0.035143599        -90.224259     0.00019899829         169.20539
                  0.00013711478         154.58669       0.049756258        -19.626438     0.00019881978         169.34635       0.037831483        -80.571003

0.375       0.10307312        -88.210722     0.00021640823         80.201569       0.098934608        -86.465364     0.00011218493         74.439882
                  0.00021664229         80.378685        0.10941287        -88.760741      0.0005462986         73.333595        0.10326249        -87.409644
                    0.097876408        -86.316898     0.00054651313          73.34068        0.10740238        -87.840882     0.00022957102         79.939438
                  0.00011262631         74.522308          0.102087        -87.260559     0.00022984897         80.095394        0.11113902        -88.569258

0.4       0.10029503        -137.71171     6.4458635e-05        -78.089248       0.071119816        -152.63383     4.6672736e-05        -152.44809
                  6.4492634e-05        -77.510814       0.096508917         -137.6112      0.0012553002         24.581446       0.066904182        -153.03079
                    0.069998284        -152.73343      0.0012551985         24.581784        0.10072446        -138.53998     6.5412311e-05        -84.897053
                  4.6695893e-05        -152.32944        0.06563945        -153.14791     6.5414503e-05        -84.356094       0.097109421        -138.51846

0.425      0.062651586        -109.23507     0.00025378102         132.79827        0.04888111        -82.907355     0.00016774253         118.15182
                  0.00025393245         132.92567       0.069085872        -102.14536       0.000514166        -20.594977       0.056863668        -79.515322
                    0.049371327        -82.082265     0.00051411811        -20.557872        0.06398636        -107.36854     0.00027600908         131.50511
                  0.00016820168         118.03653       0.057471438        -78.776965       0.000276209         131.61137       0.068923633        -102.84966

0.45       0.18328516        -118.15071     0.00021551005         26.584686         0.1251979        -127.21073     8.5842163e-05         19.594114
                  0.00021610671           26.6756        0.18914779        -119.28093     0.00098464295         46.433843        0.12837976        -128.08744
                     0.12557488        -126.88784     0.00098480672         46.409972        0.18993005        -118.21554     0.00022627583         26.406839
                  8.6402805e-05         19.170246        0.12878228        -127.74043     0.00022690911         26.468319        0.19294044        -119.36108

0.475       0.19402003        -177.72493     0.00014386991        -145.99661        0.12075513         167.81748     9.1846747e-05        -178.32586
                  0.00014404904        -145.70008         0.1882423        -178.62683      0.0012597942        -5.6543738        0.11505379         166.77591
                     0.12048404         168.09759      0.0012597612        -5.6576005        0.19485926        -177.97703     0.00015085287        -148.78126
                  9.2093761e-05        -178.16351        0.11474446         167.12348     0.00015106822        -148.51761        0.19008833        -178.83762

0.5      0.055715851         133.35719     0.00032690275         102.30671       0.035846801         111.72331     0.00020935301         95.878272
                  0.00032748763         102.38027       0.043968987         140.78796     0.00024484271         11.664315       0.025544692         115.00813
                    0.034978828         112.90365      0.0002454619         11.652974       0.050184438         137.50729     0.00035321336         101.30884
                  0.00020948954         95.697372       0.024735493         117.19495     0.00035375583         101.35801       0.042901259         143.55087

0.525        0.1484978        -151.07698     0.00023549046        -4.2146358       0.080511761        -169.93938     9.7456612e-05         0.4299111
                  0.00023601623        -4.2921352         0.1540737        -152.25517      0.0013848948         21.290359       0.082246304        -170.25231
                    0.081935522         -169.9492       0.001384622          21.26465        0.15659171        -151.98352     0.00024495214        -4.3176024
                  9.7092291e-05       -0.11552188       0.083730025         -170.3493     0.00024532501        -4.4126505        0.15844051         -153.1238

0.55       0.21746455         146.54348     0.00018555059         160.54056        0.10909983          129.0143     0.00011546292         136.55793
                   0.0001859284         160.62429        0.20888284         145.36391      0.0010865499        -31.521317        0.10178417         126.67475
                     0.11029942         129.00497      0.0010863404        -31.534818        0.21788824         146.35689     0.00019786568         159.24259
                  0.00011587664         136.56734        0.10302226         126.66273     0.00019828713         159.28202        0.21122844         144.65997

0.575       0.11366274          83.31524     0.00038032916         68.698073       0.047329844           68.8144     0.00023687001         67.450553
                  0.00038078337          68.72423       0.097909699         82.860515     0.00060038474         44.107569       0.035615239         66.762765
                    0.048025833         69.106838     0.00060030743         44.108447        0.10765682         83.822179     0.00040967786         68.457641
                  0.00023685632         67.425726       0.036376201         67.243989     0.00041006458         68.463226       0.097468581         83.086287

0.6       0.06054903         174.51585     0.00020121761         -33.02539       0.045348686         159.00478      8.330978e-05        -13.415302
                  0.00020164091        -33.087155       0.065344866         174.79167      0.0016271532        -4.3644824       0.047075555         159.50795
                    0.045524624         158.12226      0.0016267297        -4.3694589       0.065473798         172.78842     0.00020822269        -32.156564
                  8.2822716e-05        -13.558726       0.047141653         158.51021     0.00020847989        -32.220138       0.066870763         172.01206

0.625       0.11375145         115.93714     0.00027412023         113.81889       0.054370549          95.91196     0.00018283737         95.212157
                  0.00027445524         113.89541        0.10150315         115.91527     0.00074578645        -52.153735        0.04345135         94.102262
                    0.055014948         94.936715       0.000745229        -52.146424        0.11062762         114.26721     0.00029594399         112.41338
                   0.0001834303         95.227179       0.044008324         92.757996     0.00029628172         112.45487        0.10057684         113.86295

0.65      0.025287121         90.416593     0.00044626985         22.942539       0.024310419        -167.41262     0.00026638417         20.058054
                  0.00044687557         22.969668       0.020713793         132.12687      0.0011669767         21.050248       0.036999459        -163.35308
                    0.023192664        -165.94718      0.0011673965         21.058418       0.020753462         102.94647     0.00048030117         22.361663
                  0.00026692411         20.055803       0.035981162         -162.0984     0.00048086959           22.3698       0.020066319         134.46875

0.675      0.090093298         141.26113     0.00014279629        -95.935816       0.089623867         133.03098     2.5950161e-05        -65.011254
                  0.00014340136        -95.961516       0.091706743         140.60564      0.0015857518        -34.150987        0.08916004         131.91484
                    0.088537493         133.26977      0.0015857228        -34.143991       0.090516589         140.00652      0.0001439562        -94.804204
                  2.5843952e-05        -65.159731        0.08803424         132.22102     0.00014449744        -94.862374       0.089576119          138.9451

0.7      0.045483242           97.5405     0.00038032649         69.238849       0.043034549         83.602859     0.00025014385         53.943537
                  0.00038095267         69.267279       0.031948004         113.14377     0.00038766241        -35.026819        0.03004872         92.399797
                    0.042025275         83.938579     0.00038826707        -34.967847        0.03582898         99.659713     0.00041233868         67.282552
                  0.00025067131         53.768943       0.029092485         93.533267     0.00041289664         67.293835       0.026272719          116.7899

0.725       0.14074081         169.56719     0.00041852779        -31.566129         0.1039237         150.97777     0.00022344486        -34.133866
                   0.0004192188        -31.623856        0.15731084         168.10133      0.0014878824        -12.222207        0.11469478         150.89633
                     0.10439075          151.4163      0.0014879178        -12.247674        0.15078303         169.98264     0.00044807632        -32.286265
                  0.00022349621        -34.400431        0.11527849         151.26313     0.00044862063        -32.353138        0.16125684         167.90539

0.75       0.23187754         110.65142     0.00012502058         168.38683        0.16205647          96.76018     3.0921372e-05         109.91824
                  0.00012574153         168.40715        0.23029472         109.06579      0.0012624436        -60.627268        0.15852658         95.404347
                     0.16195732          96.99233      0.0012623043        -60.626724        0.23207938         109.67013     0.00012346606         168.60967
                   3.138358e-05         109.81664        0.15849467         95.655147     0.00012413305          168.5668        0.22895882         108.00141

0.775       0.11966662         56.369843     0.00041338068         37.369326        0.07971776         45.779686     0.00026005271         30.746992
