! Created Thu Mar  2 12:51:49 2023
# ghz S ma R 45
! 4 Port Network Data from SP1.SP block
! freq  magS11  angS11  magS12  angS12  magS13  angS13  magS14  angS14  
!       magS21  angS21  magS22  angS22  magS23  angS23  magS24  angS24  
!       magS31  angS31  magS32  angS32  magS33  angS33  magS34  angS34  
!       magS41  angS41  magS42  angS42  magS43  angS43  magS44  angS44  
!     
0      0.073258384    -2.7198824e-13        0.92432686     1.2018531e-13      0.0041820148    -4.0566384e-12       0.005713389               180
                     0.92432702     1.2019411e-13       0.074452831    -2.6585975e-13      0.0057375639               180      0.0044757012    -3.7872341e-12
                   0.0050268164     1.2448959e-11      0.0051290388              -180       0.073821936    -2.4552246e-14        0.92449019     4.0630141e-14
                   0.0051051072              -180      0.0053207754     1.1756217e-11        0.92449001     4.0623349e-14       0.072957889    -2.5378189e-14

0.025       0.15679507        -1.7625795        0.91111613        -71.865799       0.092208062         16.791726       0.017377629         140.70832
                     0.91111612          -71.8658        0.15679339        -1.7623968       0.017378465         140.71334       0.092207102         16.788715
                    0.092632155         16.361669       0.016803052         141.62976        0.15726434        -1.5565659        0.91136021        -71.938487
                    0.016802525         141.62587        0.09263123         16.358437        0.91136023        -71.938486        0.15726827        -1.5632849

0.05      0.098940525        -53.380226        0.91662985        -143.16647       0.049375794        -45.596491       0.013752808         104.89016
                     0.91662987        -143.16647       0.098940526        -53.380212       0.013752771         104.89009       0.049375811        -45.596433
                    0.049996539        -46.341594       0.013372539         107.57869       0.099659757        -53.506665        0.91704332        -143.29726
                    0.013372578         107.57874       0.049995617        -46.341309         0.9170433        -143.29726       0.099660597        -53.505684

0.075       0.11107931         35.250432         0.9012902         144.11214        0.10141865          45.56229       0.042981656         33.694173
                      0.9012902         144.11214        0.11107924          35.25034       0.042981862         33.694058        0.10141856         45.562402
                     0.10066188         45.589778       0.042604247         34.668141        0.11099123         35.630045        0.90190786         143.89669
                    0.042604045         34.668263        0.10066179         45.589879        0.90190786         143.89669        0.11099132         35.627896

0.1       0.21758742        -20.795709        0.87496271         74.069095        0.17006959        -17.858883       0.045774329        -71.960338
                     0.87496271         74.069095        0.21758724        -20.795817       0.045774683        -71.960869        0.17006958        -17.858869
                      0.1694339        -18.001128       0.045028353        -71.425836        0.21822656        -20.658324        0.87525988         73.776757
                    0.045028006        -71.425293        0.16943389        -18.001112        0.87525988         73.776757        0.21822718        -20.658438

0.125       0.11671285        -74.543377        0.89592451         3.6096072        0.08339288        -79.489045       0.023410489        -121.15401
                     0.89592424         3.6095986        0.11677373        -74.538563       0.023416844        -121.08642       0.083158569        -79.605805
                    0.082709046        -80.077598       0.022959587        -119.05503        0.11696666        -74.276678        0.89611656         3.2642517
                    0.022952263        -119.12336       0.082476461        -80.197096        0.89611684         3.2642587        0.11700619        -74.257002

0.15       0.12580543         3.0833453        0.88824549        -69.443801       0.094758171         9.7727286       0.053911662        -176.06427
                      0.8882454         -69.44379        0.12578388         3.0783389       0.053943695        -176.01405       0.094610534         9.7978112
                    0.095002359         10.389554       0.053875545        -175.05689        0.12704026          2.825359        0.88845058         -69.85834
                    0.053842719        -175.10661       0.094855212         10.415565        0.88845071        -69.858354        0.12704167         2.8219185

0.175        0.2313488         -50.98157        0.85898838         -139.4253        0.16575595        -52.798667       0.055597623         83.482851
                     0.85898842         -139.4253        0.23138119        -50.990035       0.055606537         83.562223        0.16561932        -52.753574
                     0.16573636        -52.556384       0.055167391         84.244022        0.23244237         -51.13418        0.85902755        -139.90621
                    0.055157553         84.164123         0.1656003        -52.511075        0.85902754        -139.90621        0.23246883        -51.129133

0.2       0.15215276        -106.79141        0.87531626          150.8308        0.10525496        -115.71408       0.029624854         17.103612
                     0.87531629          150.8308        0.15218595        -106.80567       0.029643967         17.307985         0.1052224        -115.67449
                     0.10475368         -115.5164       0.029239993         18.711044        0.15194406        -106.48429        0.87523791         150.28272
                     0.02921828         18.504812        0.10472138        -115.47656        0.87523791         150.28271        0.15198644        -106.46745

0.225      0.074545721         -59.94377        0.88514824         78.495922       0.045646435        -58.859493       0.044981132        -19.558976
                     0.88514828         78.495918       0.074538126        -59.958133       0.045083829        -19.440286       0.045651725        -58.850691
                    0.046017493        -58.516425       0.045249622        -18.374536        0.07640469        -59.752129        0.88473575         77.888365
                    0.045145207        -18.490328       0.046022932        -58.507515        0.88473575         77.888361       0.076414304        -59.768237

0.25       0.16543633        -80.973451        0.86800655         7.1641719       0.088111711        -87.606847         0.0543936        -101.14982
                     0.86800657         7.1641678        0.16545546        -80.981855       0.054494143        -101.01366       0.088113122        -87.603894
                    0.089272768        -87.399837       0.054497724        -100.27899        0.16709552        -81.908129        0.86764701          6.519273
                    0.054395552        -100.41374       0.089274202        -87.396899        0.86764703         6.5192687        0.16713014        -81.889412

0.275       0.10705038        -134.67336        0.87074445        -63.552329        0.03583485        -150.11604       0.053404644         -163.1978
                     0.87074449        -63.552334         0.1070729        -134.68473        0.05354951         -163.0498       0.035836214        -150.11938
                    0.036805921        -149.52451       0.053579354        -162.28241        0.10603193        -134.88117        0.87068618        -64.271506
                    0.053432689        -162.42823       0.036807306        -149.52776        0.87068621        -64.271511         0.1061039        -134.84947

0.3       0.03703007        -80.142741        0.87130347        -135.15448       0.035370346         -52.94252       0.066282364         130.53192
                     0.87130351        -135.15449        0.03703398        -80.164997       0.066470048         130.65788       0.035372536        -52.938634
                    0.035054444        -54.007453       0.066570313         131.34152       0.040576607        -79.903489        0.87093672        -135.95168
                    0.066380915         131.21766       0.035056557        -54.003414        0.87093676        -135.95168       0.040582087        -79.905683

0.325      0.077360313        -103.41673        0.86515743          153.5217       0.030150022         -116.0352       0.073635679         58.733122
                     0.86515749         153.52169       0.077377168         -103.4331        0.07385371         58.870911       0.030153369        -116.04626
                    0.030374567        -117.40473        0.07399066         59.515434       0.078177194        -105.81343        0.86477575          152.6807
                     0.07377065         59.379783       0.030378086        -117.41546         0.8647758         152.68069       0.078260002        -105.76353

0.35      0.036889191        -94.725768        0.86035666         82.073041       0.042754203        -19.588443       0.084912154        -11.098059
                     0.86035672         82.073031       0.036904021        -94.756729       0.085176837        -10.960342       0.042752267         -19.57635
                    0.041905498        -18.890626       0.085378251        -10.371508       0.035143599        -90.224259          0.860143         81.149331
                    0.085111451        -10.507096       0.041903606        -18.878251        0.86014306          81.14932       0.035196614        -90.331718

0.375       0.10307312        -88.210722        0.84817106         10.900654       0.098934608        -86.465364       0.092701341        -87.134883
                     0.84817113         10.900639        0.10310032        -88.239043       0.092985964        -86.965867       0.098940701        -86.464666
                    0.097876408        -86.316898       0.093207976        -86.384274        0.10740238        -87.840882        0.84742286         9.9128432
                    0.092920521        -86.551114       0.097882488        -86.316167        0.84742292         9.9128285        0.10741465        -87.807305

0.4       0.10029503        -137.71171        0.84538141         -59.84816       0.071119816        -152.63383       0.091889979        -156.85886
                     0.84538146         -59.84818        0.10033876        -137.74298       0.092244156        -156.64483       0.071124368         -152.6423
                    0.069998284        -152.73343       0.092631959        -156.05929        0.10072446        -138.53998        0.84484523        -60.868973
                    0.092274217        -156.27015       0.070002919        -152.74201        0.84484528        -60.868993        0.10081487        -138.47327

0.425      0.062651586        -109.23507        0.84300653        -131.66536        0.04888111        -82.907355        0.10827048         135.09497
                     0.84300654        -131.66538       0.062683536        -109.28241        0.10874596         135.31404       0.048877025        -82.895645
                    0.049371327        -82.082265        0.10931468          135.7521        0.06398636        -107.36854        0.84253764        -132.79234
                     0.10883602         135.53612       0.049367307        -82.070571        0.84253766        -132.79237        0.06399622        -107.38775

0.45       0.18328516        -118.15071        0.81709608         157.03454         0.1251979        -127.21073        0.11816638         53.593549
                     0.81709605         157.03451        0.18336679        -118.19213        0.11866654         53.912203        0.12520954        -127.21253
                     0.12557488        -126.88784        0.11912683         54.300853        0.18993005        -118.21554        0.81555365         155.85513
                      0.1186222         53.985091        0.12558652        -126.88963        0.81555363          155.8551        0.18993181        -118.16147

0.475       0.19402003        -177.72493        0.80952791         87.658079        0.12075513         167.81748        0.10100288        -19.710954
                     0.80952784         87.658029        0.19418046        -177.77343        0.10164416         -19.12374        0.12075972          167.8104
                     0.12048404         168.09759        0.10212343        -18.666349        0.19485926        -177.97703        0.80847211         86.487683
                     0.10147384        -19.247899        0.12048862         168.09049        0.80847206         86.487633         0.1948283        -177.90128

0.5      0.055715851         133.35719        0.82756497         16.648581       0.035846801         111.72331        0.10385221        -78.189013
                     0.82756465         16.648494        0.05584316         133.29441        0.10531301        -77.294492       0.035836602         111.72168
                    0.034978828         112.90365        0.10610839        -76.986318       0.050184438         137.50729        0.82699407          15.36013
                     0.10463866        -77.869783        0.03496859         112.90219         0.8269938         15.360042       0.050096112         137.62333

0.525        0.1484978        -151.07698        0.81029903        -55.763845       0.080511761        -169.93938         0.1262935        -153.86065
                     0.81029822        -55.764039        0.14902941        -151.26053        0.12917661        -151.57764       0.080544942        -169.95683
                    0.081935522         -169.9492        0.12989951        -151.42834        0.15659171        -151.98352        0.80857309        -57.094122
                     0.12700223        -153.69511       0.081968769        -169.96631        0.80857236         -57.09432        0.15614984        -151.77875

0.55       0.21746455         146.54348        0.78995981        -125.36685        0.10909983          129.0143        0.11614491         129.30749
                      0.7899642        -125.36674        0.21743639         147.04021        0.10415144         127.98197        0.10914373         129.01255
                     0.11029942         129.00497        0.10461611         128.18518        0.21788824         146.35689        0.78908457        -126.67578
                     0.11661785         129.48422        0.11034339         129.00322        0.78908893        -126.67566        0.21802686         145.88696

0.575       0.11366274          83.31524         0.8061694         164.60138       0.047329844           68.8144        0.11251358         67.711574
                     0.80617089         164.60148        0.11355374         83.438006        0.10767914         66.871777        0.04733197         68.789929
                    0.048025833         69.106838        0.10817554         67.071935        0.10765682         83.822179        0.80589396         163.15507
                     0.11301533         67.899407       0.048027852         69.082647        0.80589541         163.15516        0.10772499         83.698584

0.6       0.06054903         174.51585        0.80835649         92.470982       0.045348686         159.00478        0.13216115        -2.1268454
                     0.80835831         92.470999       0.060559853         174.84522        0.12782793        -1.6372233       0.045376081         159.00869
                    0.045524624         158.12226        0.12839736        -1.4930779       0.065473798         172.78842        0.80712621         90.976844
                     0.13272771        -1.9853172        0.04555202         158.12672        0.80712799         90.976863       0.065559223         172.60082

0.625       0.11375145         115.93714         0.7982182         21.607166       0.054370549          95.91196        0.13163195        -74.608963
                     0.79821874          21.60712        0.11391033         115.98056        0.13093128        -73.711911       0.054379026         95.886547
                    0.055014948         94.936715        0.13144613        -73.574924        0.11062762         114.26721        0.79791545         20.087506
                     0.13214181        -74.469215       0.055023882         94.911707        0.79791598         20.087462        0.11051352         114.27608

0.65      0.025287121         90.416593        0.79940013        -49.680082       0.024310419        -167.41262        0.14283096        -142.51691
                     0.79940027        -49.680104       0.025279365          90.51823        0.14291417        -142.21385       0.024319281        -167.39948
                    0.023192664        -165.94718        0.14348602        -142.06961       0.020753462         102.94647        0.79905503         -51.32949
                     0.14340083        -142.37137       0.023201663        -165.93381        0.79905516         -51.32951       0.020673695         102.92018

0.675      0.090093298         141.26113        0.78766416        -120.94736       0.089623867         133.03098        0.15146864         143.58257
                     0.78766419        -120.94738       0.090146632          141.2542        0.15151746         143.69863       0.089640676         133.02162
                    0.088537493         133.26977        0.15221195         143.83492       0.090516589         140.00652        0.78713519        -122.62003
                     0.15216234         143.71947       0.088554303         133.26025        0.78713522        -122.62004       0.090509896         140.12462

0.7      0.045483242           97.5405        0.78734955         167.94318       0.043034549         83.602859        0.15779668         74.591727
                     0.78734953         167.94317       0.045494241         97.538307        0.15783048         74.641019       0.043033504         83.579632
                    0.042025275         83.938579        0.15863468         74.713246        0.03582898         99.659713        0.78746827         166.13951
                     0.15860071         74.664256        0.04202413         83.914692        0.78746827         166.13951       0.035830877          99.78171

0.725       0.14074081         169.56719        0.76433727         95.823911         0.1039237         150.97777        0.17818503        -2.1654819
                     0.76433726         95.823908        0.14075704         169.56145        0.17818604        -2.1496026        0.10393912         150.98122
                     0.10439075          151.4163        0.17897696        -2.1099528        0.15078303         169.98264        0.76257265         93.955387
                     0.17897596        -2.1257287        0.10440625         151.41971        0.76257265         93.955384        0.15080232         170.04593

0.75       0.23187754         110.65142        0.73904137         26.936532        0.16205647          96.76018        0.15975366        -80.127214
                     0.73904136          26.93653         0.2318872         110.64915        0.15973655        -80.119772        0.16207882         96.754738
                     0.16195732          96.99233        0.16050751        -80.065776        0.23207938         109.67013        0.73832642          25.15716
                     0.16052465        -80.073156        0.16197967         96.986845        0.73832643         25.157159        0.23207188         109.72175

0.775       0.11966662         56.369843        0.76505386        -43.136464        0.07971776         45.779686        0.15104655        -140.51691
