! Created Thu Mar  2 13:02:47 2023
# ghz S ma R 45
! 4 Port Network Data from SP1.SP block
! freq  magS11  angS11  magS12  angS12  magS13  angS13  magS14  angS14  
!       magS21  angS21  magS22  angS22  magS23  angS23  magS24  angS24  
!       magS31  angS31  magS32  angS32  magS33  angS33  magS34  angS34  
!       magS41  angS41  magS42  angS42  magS43  angS43  magS44  angS44  
!     
0      0.073258384    -2.7198824e-13     4.7233532e-05     1.6070064e-12      0.0041820148    -4.0566384e-12     7.4643021e-05    -7.7010586e-13
                  2.1693523e-05               180        0.07574387    -5.5971224e-13     4.2589112e-05               180      0.0034973769     4.7087856e-12
                   0.0050268164     1.2448959e-11     3.1230834e-05               180       0.073821936    -2.4552246e-14     7.1887699e-05    -9.1461376e-13
                  5.7264653e-05              -180      0.0039265588     8.5740488e-12     1.3713931e-05     2.7739605e-11        0.07453334    -5.7924787e-13

0.025       0.15679507        -1.7625795     7.6560573e-05        -22.229311       0.092208062         16.791726     6.7536069e-05         -76.90216
                   4.606454e-05         30.274444        0.15654341        -2.5913631     4.3418988e-05          50.98302       0.092785996         16.815964
                    0.092632155         16.361669     3.0269401e-05         57.447224        0.15726434        -1.5565659     6.9097727e-05        -89.348751
                  5.9519264e-05         63.316486       0.092779105         16.575549     2.0892807e-05        -56.082179        0.15609623        -2.0350571

0.05      0.098940525        -53.380226     5.5075997e-05           154.817       0.049375794        -45.596491     0.00016140505         133.96767
                   7.005399e-05         114.30509       0.096050502        -53.741338     6.6506717e-05         115.25895       0.049199648        -45.974056
                    0.049996539        -46.341594     8.3822321e-05         117.18112       0.099659757        -53.506665     0.00015804534         134.59383
                  8.0421098e-05         97.538622       0.049051861        -46.353593     0.00010958371         124.58883       0.095520477        -53.488285

0.075       0.11107931         35.250432     0.00014865572         34.635182        0.10141865          45.56229     0.00027344288         35.383011
                  0.00017180351         37.687559        0.11451193         34.371325     0.00016124247         39.551412        0.10184229         44.761838
                     0.10066188         45.589778      0.0001763872         38.732596        0.11099123         35.630045     0.00025558999         34.773959
                   0.0001703201         34.698655        0.10190535          44.78267     0.00020616126         33.738789        0.11583934         34.777767

0.1       0.21758742        -20.795709     5.0997337e-05        -113.41489        0.17006959        -17.858883     0.00012424734        -66.608581
                  2.9059236e-05        -54.658256        0.21758947        -22.084575     4.5576204e-05        -29.543428        0.16903893        -18.778873
                      0.1694339        -18.001128     5.5173072e-05        -25.590288        0.21822656        -20.658324     0.00013728202         -60.50753
                  1.8584719e-05        -4.2927665        0.16881504        -18.908673     9.0450251e-05         -60.64784        0.21925799        -21.882472

0.125       0.11671285        -74.543377     0.00029247509         101.35791        0.08339288        -79.489045     0.00027360439         108.40499
                  0.00025963875         87.008254        0.11262567        -75.794519     0.00020835355         84.112567       0.080943464        -80.387318
                    0.082709046        -80.077598     0.00019530127         84.862493        0.11696666        -74.276678     0.00020582176         114.04843
                  0.00027547456         76.671739       0.080169613         -80.71887     0.00021045074         96.545823         0.1137185        -75.179951

0.15       0.12580543         3.0833453     0.00031799554         12.035927       0.094758171         9.7727286     0.00037591229         11.525211
                  0.00029575298         -1.911891        0.12827839         1.9762201     0.00029042762        -4.9048257       0.095094635         7.8767141
                    0.095002359         10.389554     0.00028945063        -3.8552003        0.12704026          2.825359      0.0003263519         10.943098
                  0.00033484479        -10.943013       0.095970865         8.1600703     0.00031293265       -0.10970675        0.12976967         1.1113755

0.175        0.2313488         -50.98157     5.7092767e-05          139.7615        0.16575595        -52.798667     6.7058047e-05        -103.38566
                  8.5607312e-05         168.47205        0.22932202        -52.762918     6.9397233e-05        -143.02999         0.1623343        -54.862124
                     0.16573636        -52.556384     6.4743241e-05        -139.20424        0.23244237         -51.13418     0.00010004565        -80.656111
                  0.00010670609        -174.13736        0.16293231        -54.849626     9.1879145e-05        -110.54999        0.23104822        -53.345904

0.2       0.15215276        -106.79141     0.00045701136         60.504207        0.10525496        -115.71408     0.00037176091         68.740994
                  0.00044110437         63.658088        0.14808542        -108.88921     0.00035145884         64.841447        0.10097332        -118.14394
                     0.10475368         -115.5164     0.00033446937         64.109844        0.15194406        -106.48429     0.00026791607         71.057624
                  0.00045492235          62.10979        0.10091599        -118.22404     0.00032004514         69.458551        0.14889495        -109.36604

0.225      0.074545721         -59.94377     0.00041834068        -21.489475       0.045646435        -58.859493     0.00036983804        -14.988924
                  0.00037213845         -23.49389       0.073340975        -62.505953     0.00037056575        -25.225247       0.044634274        -62.046647
                    0.046017493        -58.516425     0.00034987631        -25.023229        0.07640469        -59.752129     0.00033021619        -15.435423
                  0.00042094286        -29.027136       0.044902266        -61.926135     0.00037092413        -21.296749       0.073838572        -63.030888

0.25       0.16543633        -80.973451     0.00010429656         118.51344       0.088111711        -87.606847     0.00010605499         99.707868
                  0.00017065862         117.04229        0.15939954        -83.205472      0.0001042584         142.30044       0.083131837        -91.187422
                    0.089272768        -87.399837     0.00010742044          134.9399        0.16709552        -81.908129     4.3152431e-05         90.885678
                   0.0001772699         137.63969       0.084293034         -91.24019     6.0805174e-05          147.9703        0.16024426        -84.306387

0.275       0.10705038        -134.67336     0.00052490655         22.574602        0.03583485        -150.11604     0.00054934662         20.974422
                   0.0005828207         26.762055        0.10397834        -137.31649     0.00051326406         27.321456       0.032772709        -155.27323
                    0.036805921        -149.52451     0.00051577977         26.603214        0.10603193        -134.88117     0.00048378999         17.699283
                  0.00061649786         29.788122       0.033925604        -155.72085     0.00049959267         23.736676        0.10272707        -138.59487

0.3       0.03703007        -80.142741     0.00038473584        -59.813536       0.035370346         -52.94252     0.00040688255        -56.687864
                  0.00041499805        -52.045776       0.031596494        -87.349009     0.00045195944        -51.183038       0.031900172        -55.657436
                    0.035054444        -54.007453     0.00044868995        -51.277497       0.040576607        -79.903489     0.00044412189          -58.1291
                  0.00048799482         -50.14743       0.031027212        -55.640246     0.00047554068        -53.557009       0.032897368        -84.016201

0.325      0.077360313        -103.41673     0.00021427175         73.277222       0.030150022         -116.0352     0.00024710565         56.548264
                  0.00020252178         60.645011       0.069390157        -104.88658     0.00012119409         51.646773       0.025646024        -121.06288
                    0.030374567        -117.40473     0.00012469969         51.630408       0.078177194        -105.81343     0.00015371736         50.363619
                  0.00016991575         60.521831       0.025331095        -121.23241      0.0001184484         43.387209       0.070636352        -105.86008

0.35      0.036889191        -94.725768     0.00056413129        -16.079253       0.042754203        -19.588443     0.00071381738        -23.047908
                   0.0005950668        -18.997993       0.036138713        -97.679665     0.00060837239        -21.332998       0.040477745        -21.774809
                    0.041905498        -18.890626     0.00061308011         -20.95165       0.035143599        -90.224259     0.00070626734        -25.769135
                  0.00066012202          -17.7379       0.040056791        -21.557639     0.00067303696        -25.036437       0.035273842        -95.282827

0.375       0.10307312        -88.210722     0.00028716374        -101.74284       0.098934608        -86.465364     0.00046042728        -106.03388
                  0.00034491222         -100.2096       0.095621933        -92.886568      0.0004489209        -95.661882       0.092199864         -90.77317
                    0.097876408        -86.316898     0.00045788678        -94.384114        0.10740238        -87.840882     0.00056427106        -103.44665
                  0.00043919058        -93.479017       0.091058763        -90.637102     0.00053943885        -100.52244       0.098937791        -92.441402

0.4       0.10029503        -137.71171     0.00031311708         34.109075       0.071119816        -152.63383     0.00029206377         41.759663
                  0.00023772065         33.263049       0.094626082        -142.80939     0.00017524301         20.121404       0.069022498        -158.66749
                    0.069998284        -152.73343     0.00015881023         17.553877        0.10072446        -138.53998     0.00018878516         45.740771
                  0.00022134505         21.806757       0.067393272        -158.32356     0.00017440083         31.610885       0.096285794        -143.16526

0.425      0.062651586        -109.23507     0.00059738954        -54.845011        0.04888111        -82.907355     0.00073180001        -56.067413
                  0.00052912961         -59.14797       0.058325186        -117.91953     0.00063851716         -62.19988       0.042683648        -91.829807
                    0.049371327        -82.082265     0.00062338392        -62.356603        0.06398636        -107.36854     0.00075888301        -57.148349
                  0.00064552863         -61.66963       0.043565824        -91.297498     0.00074085112        -60.784523       0.059414634        -116.83221

0.45       0.18328516        -118.15071     0.00031090992        -150.28235         0.1251979        -127.21073     0.00049522438        -150.03138
                  0.00029835144        -159.88151        0.17753968        -123.90347     0.00041598974        -147.48202        0.11821241        -133.63397
                     0.12557488        -126.88784     0.00040429564        -146.80664        0.18993005        -118.21554     0.00056367554        -142.76682
                  0.00041198729         -153.3709        0.11903653        -133.81933     0.00054117933        -146.22817        0.18147508        -124.52443

0.475       0.19402003        -177.72493     0.00029317807         10.386353        0.12075513         167.81748     0.00032411124         30.489149
                   0.0003038394         17.816249         0.1947474         175.04766     0.00027518104         9.3137515        0.12200232         160.68377
                     0.12048404         168.09759     0.00026477961         6.5765661        0.19485926        -177.97703     0.00026631508         23.637164
                  0.00031999589         15.992792        0.12162181         160.62969      0.0002934747         19.745163        0.19509788          174.3791

0.5      0.055715851         133.35719     0.00069274285        -83.604294       0.035846801         111.72331     0.00081471295        -76.171617
                  0.00064040465        -80.290434       0.061732776         120.27463     0.00077801104        -83.141404       0.044165349           102.523
                    0.034978828         112.90365     0.00075894164        -84.086746       0.050184438         137.50729     0.00088453223        -78.140767
                  0.00079170723        -83.026391       0.042809701         103.66206     0.00090225016        -80.334809       0.057384974         121.55337

0.525        0.1484978        -151.07698     0.00045256808         173.63736       0.080511761        -169.93938     0.00051948685        -177.46825
                  0.00036745018         171.99329         0.1454687        -158.08114     0.00043963008         -179.3239       0.077441224        -179.08025
                    0.081935522         -169.9492     0.00042134327         178.99158        0.15659171        -151.98352     0.00052915684        -169.72812
                  0.00048607879         172.15758       0.079473934        -179.57426     0.00053015499         -174.3723        0.15067759        -158.99918

0.55       0.21746455         146.54348     0.00031209784        -5.4485724        0.10909983          129.0143      0.0003907979        -7.5576889
                  0.00035999533        -14.148657        0.22387209         138.39927     0.00042011202         -24.70744        0.11548754         120.23901
                     0.11029942         129.00497     0.00043468049        -25.902805        0.21788824         146.35689     0.00042588327          -26.0504
                  0.00046226025        -11.144521        0.11691067         119.72838     0.00046041382        -23.161589        0.22378568         137.35071

0.575       0.11366274          83.31524     0.00076907146        -109.73279       0.047329844           68.8144     0.00094861288        -105.10364
                  0.00082286494        -108.69406        0.12246039         74.385189      0.0009693182        -109.13072       0.054599771         62.418348
                    0.048025833         69.106838     0.00097821769        -109.53864        0.10765682         83.822179      0.0010652695        -108.49079
                   0.0010070584        -106.71945       0.055160064         61.669406      0.0010974595        -107.72461        0.11674404         73.645786

0.6       0.06054903         174.51585      0.0005604906          151.5898       0.045348686         159.00478     0.00058595025         162.03417
                  0.00056583368         157.04155       0.062850406         165.37961     0.00053180148         163.27973        0.04988045         148.42986
                    0.045524624         158.12226     0.00053767501         162.47341       0.065473798         172.78842     0.00055001959         165.85879
                   0.0006230878         157.98022       0.050058561         148.21596     0.00056685007          165.8824       0.068192282         164.42128

0.625       0.11375145         115.93714     0.00039024586        -57.280917       0.054370549          95.91196     0.00052173748        -70.239519
                  0.00038348007        -66.821961         0.1240455         106.27267     0.00057048698        -75.922719       0.065376376         87.136859
                    0.055014948         94.936715     0.00057257557        -74.244893        0.11062762         114.26721     0.00068808074        -77.803357
                  0.00054356358        -64.291048       0.066115563         86.424393     0.00068812194        -77.110204        0.12292071         104.54337

0.65      0.025287121         90.416593      0.0010376689        -156.38855       0.024310419        -167.41262      0.0012430189        -157.69577
                   0.0010893476        -159.34718       0.028744875         78.482165      0.0012029683        -157.33444       0.022102997         177.45399
                    0.023192664        -165.94718      0.0012160471        -156.06645       0.020753462         102.94647      0.0013401785        -158.08071
                   0.0012812751        -155.06319       0.020568895         179.10437      0.0013469214        -157.52634       0.024588839         84.262851

0.675      0.090093298         141.26113     0.00059838404         119.24216       0.089623867         133.03098     0.00062211469          116.7215
                  0.00067580168         117.84317        0.10006758         130.47128     0.00051192943         121.46441        0.10002449         122.95055
                    0.088537493         133.26977     0.00053949746         124.17751       0.090516589         140.00652     0.00049997872         114.49327
                  0.00067514329         120.93383       0.098446868         123.55743     0.00050080265         116.77922        0.10152054         129.32744

0.7      0.045483242           97.5405     0.00061185673        -122.69123       0.043034549         83.602859     0.00080759592        -121.49526
                  0.00053831831        -122.38827       0.053759101         83.949751     0.00078800091        -124.04109       0.053044246         71.104906
                    0.042025275         83.938579     0.00075080962        -124.25512        0.03582898         99.659713     0.00097674802        -120.05935
                  0.00073593049        -121.36634       0.052083748         72.673084     0.00096976024        -121.65474       0.048221957         82.657835

0.725       0.14074081         169.56719      0.0012743412         148.51346         0.1039237         150.97777      0.0014631593         147.29501
                   0.0012379934         146.98558        0.14835564          158.6525      0.0012315618         148.10819         0.1090771         140.63841
                     0.10439075          151.4163       0.001202095         148.85338        0.15078303         169.98264      0.0013809193         149.05722
                   0.0014048608         148.62742        0.10963272         140.41834      0.0013782341         148.00744        0.15359596          158.4732

0.75       0.23187754         110.65142     0.00056138296         76.514531        0.16205647          96.76018     0.00060985616          61.01516
                   0.0005762453         71.797984        0.24573681         100.18751     0.00035386551         60.692765        0.17289017         87.270836
                     0.16195732          96.99233     0.00033714512         65.113643        0.23207938         109.67013     0.00040026663         46.737004
                  0.00057726627         66.358834         0.1720918         87.324734     0.00040317089         44.763613         0.2442005         98.915715

0.775       0.11966662         56.369843     0.00082248591        -153.44965        0.07971776         45.779686       0.001031656        -144.35174
