! Created Thu Mar  2 12:58:11 2023
# ghz S ma R 45
! 4 Port Network Data from SP1.SP block
! freq  magS11  angS11  magS12  angS12  magS13  angS13  magS14  angS14  
!       magS21  angS21  magS22  angS22  magS23  angS23  magS24  angS24  
!       magS31  angS31  magS32  angS32  magS33  angS33  magS34  angS34  
!       magS41  angS41  magS42  angS42  magS43  angS43  magS44  angS44  
!     
0      0.073258384    -2.7198824e-13     6.6089551e-08    -2.0178252e-12      0.0041820148    -4.0566384e-12     2.1580153e-07     1.3344839e-13
                  6.7547444e-08     1.3246227e-11       0.075565958     7.2596716e-13     1.4266833e-05              -180      0.0043992267    -1.7173848e-12
                   0.0050268164     1.2448959e-11     1.4265669e-05              -180       0.073821936    -2.4552246e-14     3.0836882e-07     1.8954916e-13
                  2.1661234e-07     2.4069508e-14      0.0055146877     8.2699032e-12     3.1085183e-07     1.2498688e-12       0.073220873    -4.9576658e-13

0.025       0.15679507        -1.7625795     1.2467779e-05          16.43802       0.092208062         16.791726     7.8699745e-06         6.7605666
                  1.2502455e-05         16.336331        0.15712002        -1.9318538     2.4753405e-05         49.223696       0.092379619         16.763299
                    0.092632155         16.361669     2.4753713e-05         49.236867        0.15726434        -1.5565659     1.3811729e-05         15.323913
                  7.8705396e-06         6.8310703       0.092873204         16.221472     1.3849405e-05         15.198677        0.15741906        -1.6406455

0.05      0.098940525        -53.380226     2.2689276e-05        -60.692492       0.049375794        -45.596491     1.8506944e-05        -52.748982
                  2.2711529e-05        -60.919912       0.097861822        -53.303186     2.4927979e-05          -41.0069       0.048445068         -45.49655
                    0.049996539        -46.341594     2.4940092e-05        -40.947985       0.099659757        -53.506665     2.5555296e-05        -60.033087
                  1.8524435e-05        -52.683357        0.04919958        -46.393678     2.5572256e-05        -60.271102       0.098613385        -53.499721

0.075       0.11107931         35.250432     3.8766026e-05         -122.1232        0.10141865          45.56229     3.0604735e-05        -146.57044
                  3.8691028e-05        -122.22124        0.11334663         35.087885     6.0312553e-05        -85.324899         0.1033023         45.371207
                     0.10066188         45.589778     6.0363163e-05        -85.330319        0.11099123         35.630045     4.3310523e-05        -123.48763
                  3.0628745e-05         -146.4467        0.10235818         45.378267     4.3221626e-05        -123.59907        0.11294657         35.489815

0.1       0.21758742        -20.795709     5.6509434e-05         151.74662        0.17006959        -17.858883     2.1697216e-05         139.06428
                  5.6426707e-05         151.67552        0.21816732        -21.062154     0.00010126459         169.03233        0.17056849        -18.090514
                      0.1694339        -18.001128     0.00010132089         169.04397        0.21822656        -20.658324     6.1280497e-05         151.84282
                  2.1789037e-05         139.29214        0.16976825         -18.26897     6.1170425e-05         151.75463        0.21873773        -20.902433

0.125       0.11671285        -74.543377     5.3524683e-05         75.292219        0.08339288        -79.489045     3.9379682e-05         97.147975
                  5.3288351e-05         75.273322        0.11390423        -74.463703     6.9044204e-05         84.442821       0.080762842        -79.655879
                    0.082709046        -80.077598     6.9153097e-05         84.472358        0.11696666        -74.276678     5.9650122e-05         77.569272
                  3.9531884e-05          97.13054       0.079939313        -80.384777     5.9350479e-05         77.553064        0.11487385        -74.213342

0.15       0.12580543         3.0833453     7.8443546e-05         13.872126       0.094758171         9.7727286      5.559733e-05        -2.7845248
                  7.8373075e-05         14.083772        0.12988746         2.9444216     0.00012969244         42.590979       0.097855187         9.4657693
                    0.095002359         10.389554     0.00012977506          42.54233        0.12704026          2.825359     8.7396562e-05         13.621092
                  5.5834763e-05        -2.7728198       0.098095679          10.17046     8.7287459e-05         13.842853        0.13006226         2.5431779

0.175        0.2313488         -50.98157     9.1188604e-05        -77.433301        0.16575595        -52.798667     2.9524978e-05        -74.796579
                  9.1239993e-05         -77.29297        0.23166545        -51.417902     0.00017874008         -61.75408        0.16563651        -53.163465
                     0.16573636        -52.556384      0.0001788177        -61.774115        0.23244237         -51.13418      9.822181e-05        -76.046535
                  2.9722984e-05        -75.030765         0.1655318        -52.869269     9.8258918e-05        -75.893272        0.23255013        -51.569858

0.2       0.15215276        -106.79141     6.9391148e-05        -150.48974        0.10525496        -115.71408     5.4213342e-05        -107.37881
                  6.9415063e-05        -150.30225        0.14738002         -106.9015     0.00010804245        -151.13852        0.10119456        -116.10046
                     0.10475368         -115.5164     0.00010816201        -151.15451        0.15194406        -106.48429     7.7425522e-05        -145.64628
                  5.4239553e-05        -107.56438        0.10054523        -115.82417     7.7476096e-05         -145.4482        0.14857556        -106.70448

0.225      0.074545721         -59.94377     9.8306105e-05         150.49917       0.045646435        -58.859493      7.145278e-05         157.39589
                  9.8544491e-05         150.56069       0.078531204        -57.612427     0.00015031624         170.57207       0.048727233        -55.909769
                    0.046017493        -58.516425     0.00015034177          170.5345        0.07640469        -59.752129     0.00011147501         152.08076
                  7.1561113e-05         157.28323        0.04918197        -55.570819     0.00011171642         152.13413       0.079028934        -58.501583

0.25       0.16543633        -80.973451      0.0001042009          63.85715       0.088111711        -87.606847     5.5749538e-05         84.040949
                  0.00010482335         63.838533        0.16492903        -81.524796     0.00020715806         77.237771       0.086997081        -88.114429
                    0.089272768        -87.399837     0.00020708511         77.205247        0.16709552        -81.908129     0.00011384331          66.55454
                  5.5655514e-05          83.77753       0.088286372        -87.870093     0.00011450013          66.51898        0.16595648        -82.494958

0.275       0.10705038        -134.67336     8.5440227e-05         6.7193749        0.03583485        -150.11604     8.1256924e-05         28.946141
                  8.5651142e-05         6.3888123        0.10035363        -133.90871     0.00012588561         1.5420117       0.029744321        -149.42589
                    0.036805921        -149.52451     0.00012580251         1.5471582        0.10603193        -134.88117     9.9582892e-05         11.014536
                  8.1079213e-05         28.959636        0.03082051        -148.51937     9.9792366e-05         10.687091        0.10095094        -134.54387

0.3       0.03703007        -80.142741     0.00012982071         -63.52203       0.035370346         -52.94252     9.7147566e-05        -58.014042
                  0.00012977481        -63.672264       0.042489393        -75.774439     0.00017909942        -43.588944       0.040065101        -52.988703
                    0.035054444        -54.007453     0.00017911157        -43.570061       0.040576607        -79.903489      0.0001478274        -62.261431
                  9.7120667e-05        -57.964674       0.039731377         -54.18335     0.00014773809        -62.434748        0.04378021         -77.65161

0.325      0.077360313        -103.41673     0.00012271128        -144.79658       0.030150022         -116.0352     9.1560563e-05        -126.23851
                   0.0001226401        -144.98246       0.075549511        -103.17645     0.00020301804        -127.65894       0.027556381        -115.10936
                    0.030374567        -117.40473     0.00020303278        -127.63029       0.078177194        -105.81343     0.00013678055        -141.73942
                  9.1556216e-05        -126.17536       0.027771371        -116.95016     0.00013658545        -141.93213        0.07571012        -105.69285

0.35      0.036889191        -94.725768     0.00015228427         154.53674       0.042754203        -19.588443     0.00011990157         156.67748
                   0.0001517913         154.45577       0.039817272        -82.068418     0.00021716137         170.67013       0.050684862        -20.308391
                    0.041905498        -18.890626     0.00021732491         170.70653       0.035143599        -90.224259     0.00017399581         156.72798
                  0.00012004104         156.80569       0.049755573        -19.623393     0.00017339955         156.66741       0.037783104        -80.657592

0.375       0.10307312        -88.210722     0.00019896683         63.374995       0.098934608        -86.465364     9.8709513e-05         66.861281
                   0.0001983953         63.398518         0.1094963        -88.744101     0.00029114664         87.207172        0.10326458        -87.410937
                    0.097876408        -86.316898     0.00029142938         87.225444        0.10740238        -87.840882     0.00021820841         65.126029
                   9.910175e-05         67.013649        0.10208911        -87.261866     0.00021754843         65.150216        0.11106571        -88.594141

0.4       0.10029503        -137.71171     0.00016086606         -19.07839       0.071119816        -152.63383     8.1830897e-05         20.296293
                   0.0001603653        -18.920619       0.096586138        -137.59246     0.00023009054         4.9903736       0.066904406        -153.03569
                    0.069998284        -152.73343     0.00023048276         4.9952099        0.10072446        -138.53998     0.00017281192        -14.552844
                  8.2356407e-05         20.183245       0.065639691        -153.15292     0.00017224709        -14.383275       0.097069263        -138.57304

0.425      0.062651586        -109.23507     0.00022610735         -79.59619        0.04888111        -82.907355     0.00012263128        -67.484705
                  0.00022639769        -79.455709       0.069159878        -102.09754     0.00028831082        -53.672344       0.056865696        -79.514341
                    0.049371327        -82.082265     0.00028857046        -53.741121        0.06398636        -107.36854      0.0002486499        -76.828445
                  0.00012321511        -67.695635       0.057473499        -78.775981     0.00024893704        -76.693179       0.068813956        -102.91406

0.45       0.18328516        -118.15071     0.00030917506         -168.4013         0.1251979        -127.21073     8.4145617e-05        -175.60622
                  0.00030962635         -168.3258        0.18937127        -119.24935     0.00040684911        -146.10164        0.12838424        -128.09022
                     0.12557488        -126.88784     0.00040710904        -146.15303        0.18993005        -118.21554     0.00032831201        -167.20562
                  8.4847827e-05        -175.92955        0.12878676        -127.74322     0.00032876184        -167.13142        0.19275048        -119.40834

0.475       0.19402003        -177.72493     0.00021767331         131.99682        0.12075513         167.81748      5.010627e-05         -178.8154
                  0.00021803188         132.05078        0.18848664        -178.57643     0.00026413961         113.75489        0.11505342         166.77247
                     0.12048404         168.09759     0.00026457737         113.73432        0.19485926        -177.97703     0.00023392603         135.87548
                  4.9922387e-05         -179.4733        0.11474402         167.12002     0.00023433071         135.92167        0.18990157        -178.91693

0.5      0.055715851         133.35719     0.00026636959         98.612241       0.035846801         111.72331     0.00015207918         98.282337
                  0.00026724724         98.537663       0.044039365         140.92487     0.00022486466         97.818854       0.025539927         115.01465
                    0.034978828         112.90365     0.00022495423         97.654407       0.050184438         137.50729     0.00030134463         98.429099
                   0.0001520441         97.968676       0.024730801         117.20219     0.00030217404         98.344918        0.04284243         143.37827

0.525        0.1484978        -151.07698     0.00024709004         3.5732076       0.080511761        -169.93938     0.00011468119        -1.9796967
                  0.00024772718         3.3249405        0.15442751        -152.20347     0.00041390568        -3.5707531       0.082256342        -170.25984
                    0.081935522         -169.9492     0.00041374879        -3.6384556        0.15659171        -151.98352     0.00026980145          4.056701
                  0.00011414618         -2.386279       0.083740098        -170.35673       0.000270291         3.8211911        0.15814377        -153.21533

0.55       0.21746455         146.54348     0.00011299913        -44.276717        0.10909983          129.0143     9.7407637e-05        -20.047194
                  0.00011226575        -44.612192        0.20930891         145.41332       0.000228125        -112.33271        0.10178654         126.66933
                     0.11029942         129.00497     0.00022794996        -112.37575        0.21788824         146.35689     0.00013900462        -40.984555
                  9.7112902e-05        -19.726685        0.10302459         126.65735     0.00013819131        -41.223266        0.21087065         144.57774

0.575       0.11366274          83.31524     0.00024614298        -97.557463       0.047329844           68.8144     0.00019359393        -104.09222
                  0.00024562175         -97.53516       0.098000276         82.905982     0.00018560002        -94.246055       0.035613202         66.775808
                    0.048025833         69.106838     0.00018564929        -94.230609        0.10765682         83.822179     0.00028408089        -100.01502
                  0.00019364717        -104.00631       0.036374198         67.256836     0.00028344385        -99.998524       0.097402239         83.059267

0.6       0.06054903         174.51585     0.00025518996          162.6051       0.045348686         159.00478     0.00016864597         162.90468
                  0.00025471253         162.54486       0.065509669         174.77766     0.00035875556         159.76663       0.047072413         159.48711
                    0.045524624         158.12226     0.00035871842         159.77546       0.065473798         172.78842     0.00028476329         162.91633
                  0.00016853971         162.97538       0.047138783         158.48926     0.00028412441         162.88609       0.066787268         171.87839

0.625       0.11375145         115.93714     0.00020790294         106.29184       0.054370549          95.91196     0.00017478093         107.75572
                   0.0002071495         106.41995         0.1015947          115.9023     0.00023111752         86.066529       0.043441976         94.100097
                    0.055014948         94.936715     0.00023123816         86.139613        0.11062762         114.26721     0.00024741757         106.75378
                  0.00017515188         107.91176       0.043998915         92.755576     0.00024671588         106.89544         0.1005478         113.81098

0.65      0.025287121         90.416593     0.00031357999         25.847708       0.024310419        -167.41262     0.00022145202         20.130784
                  0.00031339888         26.022426       0.020780188         132.21621     0.00037386837         28.938836       0.036998679         -163.3783
                    0.023192664        -165.94718     0.00037441915         28.945509       0.020753462         102.94647     0.00035793522         24.652762
                   0.0002223314         20.184695       0.035980062         -162.1244     0.00035778187         24.808709       0.020118973         134.33265

0.675      0.090093298         141.26113      0.0002432854        -62.494466       0.089623867         133.03098      0.0001585752        -52.588971
                  0.00024359424        -62.300092       0.091804168         140.53705     0.00035348778        -63.276536       0.089141101         131.90804
                    0.088537493         133.26977     0.00035413285        -63.295597       0.090516589         140.00652     0.00027468205        -60.636013
                  0.00015939763        -52.748004       0.088015176         132.21418     0.00027502339        -60.466573       0.089577559         138.87274

0.7      0.045483242           97.5405     0.00027892115        -116.46093       0.043034549         83.602859     0.00022939276        -115.85055
                  0.00027981301        -116.43402       0.031968501         113.04894     0.00037860966        -114.63507       0.030043068         92.433404
                    0.042025275         83.938579     0.00037898208        -114.73836        0.03582898         99.659713     0.00032957221         -116.5051
                  0.00022983785        -116.10032       0.029087172         93.568402     0.00033043002        -116.49037       0.026272797         116.71075

0.725       0.14074081         169.56719     0.00032382301         139.95506         0.1039237         150.97777     0.00019438193         138.98504
                  0.00032456746         139.94922         0.1573679         168.05425     0.00055440695         145.76769        0.11468729         150.88314
                     0.10439075          151.4163     0.00055469486         145.70263        0.15078303         169.98264     0.00036362715         140.47938
                  0.00019464885         138.67597        0.11527083         151.24998     0.00036430465          140.4667        0.16126559         167.87541

0.75       0.23187754         110.65142     0.00012919054         58.405036        0.16205647          96.76018     9.0171422e-05         110.53079
                  0.00012959372         58.430965        0.23037125         109.02602     0.00032350476         41.200687        0.15849901         95.402944
                     0.16195732          96.99233     0.00032392298          41.15769        0.23207938         109.67013     0.00015084952         66.567268
                  8.9804115e-05         110.27509        0.15846701         95.653794     0.00015122467         66.546846        0.22898902         107.97855

0.775       0.11966662         56.369843     0.00024844982         44.611595        0.07971776         45.779686     0.00024161901         43.813524
