! Created Thu Mar  2 12:59:10 2023
# ghz S ma R 45
! 4 Port Network Data from SP1.SP block
! freq  magS11  angS11  magS12  angS12  magS13  angS13  magS14  angS14  
!       magS21  angS21  magS22  angS22  magS23  angS23  magS24  angS24  
!       magS31  angS31  magS32  angS32  magS33  angS33  magS34  angS34  
!       magS41  angS41  magS42  angS42  magS43  angS43  magS44  angS44  
!     
0      0.073258384    -2.7198824e-13     1.4791591e-06              -180      0.0041820148    -4.0566384e-12     1.1197692e-06              -180
                  1.4793642e-06               180       0.075166324     2.0809993e-13     2.4862024e-06               180       0.003972017    -4.3435906e-12
                   0.0050268164     1.2448959e-11     2.4813646e-06               180       0.073821936    -2.4552246e-14     2.0043002e-06               180
                  1.1190167e-06              -180      0.0048990695    -4.1859856e-12     2.0025853e-06              -180       0.074257045    -2.2778554e-13

0.025       0.15679507        -1.7625795     1.4703674e-05        -177.64506       0.092208062         16.791726     9.1403837e-06         179.52304
                  1.4697777e-05        -177.63039        0.15704197        -1.6441616     2.3587593e-05        -176.88498       0.092905933          17.23722
                    0.092632155         16.361669      2.358817e-05        -176.84786        0.15726434        -1.5565659      1.759751e-05        -177.55171
                  9.1398635e-06         179.62747       0.092396767         16.817781     1.7604582e-05        -177.51411         0.1568355        -1.8013058

0.05      0.098940525        -53.380226     3.4609176e-05         125.38688       0.049375794        -45.596491     2.2306695e-05         125.97357
                  3.4614864e-05         125.45775       0.099288956        -53.158146     5.3574308e-05         124.38515       0.050431423        -45.273131
                    0.049996539        -46.341594     5.3613048e-05         124.39129       0.099659757        -53.506665     4.0808401e-05         124.88645
                   2.234835e-05         125.99818       0.049470358        -45.422611     4.0839841e-05          124.8317       0.098587218        -53.398832

0.075       0.11107931         35.250432     5.3098368e-05         31.913642        0.10141865          45.56229     3.4868628e-05         27.057169
                  5.3148716e-05         31.982964         0.1112499         36.036003     8.1492743e-05         34.880763         0.1010107         46.350364
                     0.10066188         45.589778     8.1510579e-05         34.872095        0.11099123         35.630045     6.2388752e-05         33.213905
                  3.4891263e-05         27.049115        0.10189198         46.207302     6.2351386e-05         33.147119         0.1123267         36.173573

0.1       0.21758742        -20.795709      4.080678e-05        -33.319029        0.17006959        -17.858883     2.2579917e-05        -39.585122
                  4.0877764e-05        -33.268981        0.21859628        -19.990077     6.9667937e-05        -30.528615        0.17051219        -16.733521
                      0.1694339        -18.001128     6.9685087e-05         -30.48384        0.21822656        -20.658324     5.0488634e-05        -32.024819
                  2.2589795e-05        -39.435587        0.17081948        -17.009068     5.0429916e-05         -32.00302         0.2196914        -20.142455

0.125       0.11671285        -74.543377     7.5342294e-05        -82.421776        0.08339288        -79.489045     4.7469137e-05        -80.632164
                  7.5460577e-05        -82.417472        0.11701227         -73.77606      0.0001181717        -84.156207       0.083392033        -77.974171
                    0.082709046        -80.077598     0.00011834828        -84.157779        0.11696666        -74.276678     8.9609079e-05        -83.421629
                  4.7660997e-05        -80.633187       0.082844764        -78.605515     8.9650964e-05        -83.422949        0.11702996        -74.044776

0.15       0.12580543         3.0833453     9.4803198e-05         179.61588       0.094758171         9.7727286      6.134029e-05         174.21456
                  9.4960925e-05         179.61611        0.12815166         4.6764188     0.00014662375        -177.22645       0.096555582         10.991757
                    0.095002359         10.389554     0.00014675916        -177.28877        0.12704026          2.825359     0.00011191393        -179.21973
                  6.1513973e-05         174.08484       0.097465694         11.393436     0.00011189713        -179.28376        0.12958679         4.7323475

0.175        0.2313488         -50.98157     6.2438035e-05          118.7676        0.16575595        -52.798667     3.3065888e-05         113.96172
                  6.2547718e-05         118.70597        0.23455019        -49.466374     0.00010869364         120.76389        0.16730155         -50.95583
                     0.16573636        -52.556384     0.00010865582         120.71685        0.23244237         -51.13418     7.8013103e-05         119.46706
                  3.3047466e-05         113.80561        0.16829022         -50.96819     7.7879126e-05         119.45357         0.2365862         -49.62501

0.2       0.15215276        -106.79141     0.00010875262         71.640318        0.10525496        -115.71408     6.8003533e-05         74.770108
                  0.00010881306         71.579514        0.15209281        -104.88904     0.00017199239         68.846154        0.10393581        -113.01412
                     0.10475368         -115.5164     0.00017206105         68.840028        0.15194406        -106.48429     0.00012984341         69.914921
                  6.8079859e-05         74.751527        0.10452789        -113.36333     0.00012983601         69.961664        0.15319957        -105.03554

0.225      0.074545721         -59.94377     0.00013299436        -19.326695       0.045646435        -58.859493      8.426381e-05        -21.899239
                  0.00013306395        -19.348743       0.079364844        -55.225797     0.00020769128        -18.382718       0.050216235        -52.806943
                    0.046017493        -58.516425     0.00020774332        -18.417952        0.07640469        -59.752129     0.00015768842        -19.380665
                  8.4347559e-05        -21.978967        0.05017395         -52.61413      0.0001576957        -19.397182       0.080062094        -55.478045

0.25       0.16543633        -80.973451     0.00011418168        -88.746095       0.088111711        -87.606847     6.8098121e-05        -90.801122
                   0.0001141398        -88.750167        0.17082287        -78.935336     0.00018579513        -87.742218       0.092143258        -85.264775
                    0.089272768        -87.399837     0.00018563945        -87.797991        0.16709552        -81.908129     0.00013788336        -88.557347
                  6.7954812e-05        -90.947957       0.092791975        -84.815435     0.00013781295        -88.625048        0.17294037         -79.39525

0.275       0.10705038        -134.67336     0.00015931758         -150.9136        0.03583485        -150.11604     0.00010256638        -151.95322
                  0.00015935424         -150.8914        0.10463621        -131.10899     0.00024847583        -151.19511        0.03191113        -145.36691
                    0.036805921        -149.52451     0.00024833279        -151.17219        0.10603193        -134.88117     0.00018947245        -151.58795
                   0.0001024388        -151.88975       0.033045507        -144.99844     0.00018930847        -151.58347        0.10559484        -131.44819

0.3       0.03703007        -80.142741     0.00018066034         126.18459       0.035370346         -52.94252       0.000115643         121.96334
                  0.00018069644         126.20664        0.04652674        -72.277258     0.00028022295         127.84231       0.045272159        -50.106408
                    0.035054444        -54.007453     0.00028033023         127.86493       0.040576607        -79.903489     0.00021326232         126.25482
                   0.0001157513         122.03211       0.044091243        -50.092595     0.00021331057         126.26601        0.04793069        -72.943367

0.325      0.077360313        -103.41673     0.00018020655         57.293521       0.030150022         -116.0352     0.00011407623           54.3729
                  0.00018028766         57.358892       0.081572882        -101.29851     0.00028245896         58.725992       0.033940685        -113.21197
                    0.030374567        -117.40473      0.0002825813         58.703357       0.078177194        -105.81343     0.00021429648         57.588632
                  0.00011422327         54.341505       0.033214564        -112.09337     0.00021433399         57.514904       0.082400305        -102.54988

0.35      0.036889191        -94.725768     0.00021492859         -18.51008       0.042754203        -19.588443      0.0001418431        -23.816043
                  0.00021525041         -18.44955       0.040687117        -78.596838     0.00033141159        -16.044914       0.051407635        -15.417958
                    0.041905498        -18.890626     0.00033136425        -16.054189       0.035143599        -90.224259     0.00025494985        -18.173531
                  0.00014185442        -23.821242       0.051530648        -16.437535      0.0002546144        -18.231805       0.040365306         -77.15343

0.375       0.10307312        -88.210722     0.00019134065        -97.392364       0.098934608        -86.465364     0.00011880516        -106.18047
                  0.00019170981        -97.375294        0.11602213        -84.586083     0.00030482063        -93.373218        0.11013935        -82.001641
                    0.097876408        -86.316898     0.00030495198        -93.342575        0.10740238        -87.840882     0.00022854623        -96.499586
                  0.00011895502           -106.08        0.10929169        -82.463803     0.00022829131        -96.474495        0.11833673        -84.756637

0.4       0.10029503        -137.71171     0.00019368665        -155.14538       0.071119816        -152.63383     0.00011712841        -158.61956
                  0.00019400813        -155.15093        0.10062881        -132.96877     0.00031249997        -153.76212       0.070731151        -146.65617
                    0.069998284        -152.73343     0.00031296971        -153.79853        0.10072446        -138.53998     0.00023398877        -155.06446
                  0.00011765849        -158.69281       0.069209558        -146.83216     0.00023408355        -155.08934         0.1005782        -133.61686

0.425      0.062651586        -109.23507     0.00024038474         124.01898        0.04888111        -82.907355     0.00015571915         116.84957
                  0.00024079638         123.99183       0.073821437        -94.793164     0.00037460086         127.31218       0.062383653        -72.103687
                    0.049371327        -82.082265     0.00037469493         127.23917        0.06398636        -107.36854     0.00028583418         124.39864
                  0.00015595342         116.68245       0.063179785        -71.910889     0.00028560008         124.34629       0.075043443        -94.141688

0.45       0.18328516        -118.15071     0.00019121532         40.939208         0.1251979        -127.21073     0.00011468247         28.807578
                  0.00019162097         40.867677         0.1965364        -113.66266     0.00031180563         46.794217        0.13451462        -120.94192
                     0.12557488        -126.88784     0.00031160532         46.741931        0.18993005        -118.21554     0.00022938889         42.407478
                  0.00011462777         28.649449        0.13534138        -121.28588     0.00022890771         42.397676        0.20151278        -113.91033

0.475       0.19402003        -177.72493     0.00017442328       -0.87522119        0.12075513         167.81748     9.8107245e-05        -1.9940628
                  0.00017451093       -0.97625726        0.18935016        -171.70282     0.00029565638        -1.0540662        0.11399195         174.99242
                     0.12048404         168.09759     0.00029576447        -1.0753378        0.19485926        -177.97703     0.00021564897        -1.5686652
                   9.824018e-05        -2.0749838        0.11378161          174.5319     0.00021563766        -1.5168903        0.18997994        -172.04571

0.5      0.055715851         133.35719     0.00028417427        -75.436628       0.035846801         111.72331     0.00018244049         -79.39585
                  0.00028423613        -75.493099       0.040708949         157.79711      0.0004417293        -74.797776       0.018229878         135.60035
                    0.034978828         112.90365     0.00044177194        -74.891337       0.050184438         137.50729     0.00033705934        -76.668144
                  0.00018253458        -79.624505       0.016942189         135.96512     0.00033708659        -76.717675       0.037509464         164.15479

0.525        0.1484978        -151.07698     0.00023931408        -164.48242       0.080511761        -169.93938     0.00014464606        -172.94296
                  0.00023930514        -164.53351        0.15937134        -145.56277     0.00038407611        -160.41434       0.086436661        -161.81419
                    0.081935522         -169.9492     0.00038347827        -160.50432        0.15659171        -151.98352     0.00028311499        -163.73694
                  0.00014416535        -173.20104        0.08787227        -161.58108     0.00028272905        -163.81239          0.165558        -146.00529

0.55       0.21746455         146.54348     0.00020751795         149.76774        0.10909983          129.0143     0.00012334971         148.49933
                  0.00020746774          149.7691        0.20540081          153.9842     0.00034432839         149.59514       0.095123455         135.91069
                     0.11029942         129.00497     0.00034385086         149.63988        0.21788824         146.35689     0.00025461768         148.95283
                  0.00012295757         148.62819       0.096411065         135.70727     0.00025420891         148.98883        0.20715807         152.78647

0.575       0.11366274          83.31524     0.00033321401          77.54511       0.047329844           68.8144     0.00021721433         73.240958
                  0.00033325696         77.548884       0.091320577         92.621759     0.00051129648         78.044261       0.026253558         76.298895
                    0.048025833         69.106838     0.00051131186         78.060714        0.10765682         83.822179     0.00039283741         76.107802
                  0.00021725911         73.278938       0.026989444         74.495515     0.00039275903         76.127259       0.087859494         92.778377

0.6       0.06054903         174.51585     0.00032631427        -9.2971014       0.045348686         159.00478     0.00020621072        -16.224867
                  0.00032637759        -9.2665107       0.063139485        -175.95474     0.00050712311        -6.0266108       0.045815703         168.27268
                    0.045524624         158.12226     0.00050700094        -6.0553121       0.065473798         172.78842       0.000382319        -8.9026621
                  0.00020615397        -16.278504       0.045676679         169.20562     0.00038218912        -8.9548043       0.067322889        -177.83317

0.625       0.11375145         115.93714     0.00032149321        -71.717782       0.054370549          95.91196     0.00020713246        -76.281396
                  0.00032193366        -71.676038       0.092215144         126.82705     0.00050506537        -70.172808       0.032767428         99.474411
                    0.055014948         94.936715     0.00050464072         -70.16611        0.11062762         114.26721     0.00038536043        -72.001687
                  0.00020686007        -76.254272       0.033507532         100.65122      0.0003845954         -72.03162       0.091331896         125.14427

0.65      0.025287121         90.416593     0.00039342396         -150.5613       0.024310419        -167.41262     0.00026094524        -158.55403
                  0.00039406571        -150.57588       0.021188118         151.24594     0.00059852239        -147.54966         0.0424724        -149.04978
                    0.023192664        -165.94718     0.00059852328        -147.50788       0.020753462         102.94647     0.00046046107        -150.95621
                  0.00026106689         -158.4634       0.040951018        -149.50092     0.00045979193        -150.90015       0.021336446         159.43112

0.675      0.090093298         141.26113     0.00034005608         133.87303       0.089623867         133.03098     0.00021193992          125.3678
                  0.00034049999         133.84571       0.082353841         151.84567     0.00053635975         138.03131       0.081799026         142.40164
                    0.088537493         133.26977      0.0005369653         138.01697       0.090516589         140.00652     0.00040325752         134.86342
                  0.00021266686         125.34668       0.080099441         142.66609     0.00040330821         134.88552       0.081673792         150.89649

0.7      0.045483242           97.5405     0.00040865844         68.306641       0.043034549         83.602859     0.00027069083         61.680778
                  0.00040934868         68.268637       0.026698012         142.29149     0.00062910564         70.865852        0.02015118         111.76282
                    0.042025275         83.938579     0.00062903466         70.779488        0.03582898         99.659713     0.00048650046         67.782325
                  0.00027084112          61.46992       0.019973654         116.12927     0.00048591884         67.730352        0.02277281         154.71383

0.725       0.14074081         169.56719     0.00040002591        -23.774219         0.1039237         150.97777     0.00026417195        -36.275533
                  0.00040071355        -23.871847        0.15437971         178.56661     0.00061289254        -17.641416        0.11166496         163.08948
                     0.10439075          151.4163     0.00061238338        -17.675123        0.15078303         169.98264     0.00046540816        -23.104141
                  0.00026389999        -36.389445        0.11189795         162.61458     0.00046445668        -23.069588        0.16066688         178.56363

0.75       0.23187754         110.65142     0.00024431097        -84.752414        0.16205647          96.76018      0.0001350443         -95.76942
                   0.0002443765        -84.889483        0.21879021         119.67693     0.00041692373        -79.374995         0.1485069         106.00546
                     0.16195732          96.99233     0.00041705876        -79.380855        0.23207938         109.67013     0.00029970705        -82.591899
                  0.00013524859        -95.812794        0.14749726         105.77823     0.00029973784        -82.490452        0.21798346         118.80627

0.775       0.11966662         56.369843     0.00040206258        -135.65666        0.07971776         45.779686     0.00026353421        -140.79708
