! Created Thu Mar  2 13:07:01 2023
# ghz S ma R 45
! 4 Port Network Data from SP1.SP block
! freq  magS11  angS11  magS12  angS12  magS13  angS13  magS14  angS14  
!       magS21  angS21  magS22  angS22  magS23  angS23  magS24  angS24  
!       magS31  angS31  magS32  angS32  magS33  angS33  magS34  angS34  
!       magS41  angS41  magS42  angS42  magS43  angS43  magS44  angS44  
!     
0      0.073258384    -2.7198824e-13     2.5685729e-06     1.5693415e-13      0.0041820148    -4.0566384e-12     3.4469936e-07               180
                  2.5940711e-06     1.0409816e-13       0.073464791    -2.6986298e-13      1.507783e-06     1.0820521e-13      0.0041579024    -4.0827278e-12
                   0.0050268164     1.2448959e-11     1.5440991e-06    -2.0802706e-14       0.073821936    -2.4552246e-14     3.4361394e-07     1.4373259e-13
                  3.4380777e-07              -180      0.0049194041     1.2725945e-11     3.5131584e-07    -2.2553496e-13        0.07295831    -2.5563091e-14

0.025       0.15679507        -1.7625795     4.8626377e-06          29.97925       0.092208062         16.791726     3.3433383e-06          65.65778
                  4.8554982e-06         29.988689         0.1563806        -1.5292339      1.808217e-06        -11.181817       0.092116825         17.081787
                    0.092632155         16.361669     1.8174727e-06        -11.273815        0.15726434        -1.5565659     4.7778023e-07         30.757597
                  3.3407117e-06         65.587954       0.092585019         16.665727     4.6934937e-07         30.332942        0.15722509        -1.1651587

0.05      0.098940525        -53.380226     2.4398234e-05         116.05462       0.049375794        -45.596491     8.9306626e-06         109.43115
                  2.4408018e-05         116.08943        0.09996222         -53.06615     1.0898645e-05         117.82998       0.050210232        -45.173177
                    0.049996539        -46.341594     1.0907252e-05         117.88672       0.099659757        -53.506665     2.9725741e-06         109.75194
                  8.9386435e-06         109.51609       0.050851672         -45.92359     2.9851131e-06         110.10764        0.10087234        -53.290683

0.075       0.11107931         35.250432     3.6644231e-05         54.909544        0.10141865          45.56229     1.4633377e-05         70.880025
                  3.6651221e-05         54.935417        0.10942686         36.175113     1.4851664e-05         38.057068        0.10040542          46.41584
                     0.10066188         45.589778     1.4875414e-05         38.038361        0.11099123         35.630045     3.8388543e-06         45.737957
                  1.4651487e-05         70.806912       0.099647232         46.449128     3.8449847e-06         45.979812        0.10940209         36.646882

0.1       0.21758742        -20.795709     1.7641729e-05         117.54382        0.17006959        -17.858883     1.5230061e-05          84.19586
                   1.766867e-05         117.53189        0.21832024        -19.690745      5.857675e-06         156.33957        0.17071602        -16.712774
                      0.1694339        -18.001128     5.8565301e-06         156.64918        0.21822656        -20.658324     3.6253866e-06         76.471016
                  1.5197363e-05         84.227211        0.17008171        -16.854203     3.6442178e-06         76.716168        0.21895266        -19.544546

0.125       0.11671285        -74.543377     7.2755772e-05          88.92164        0.08339288        -79.489045     2.7716904e-05          78.84432
                   7.280262e-05         88.900976        0.11981941        -73.715087     2.9461471e-05          92.04744       0.085876591        -78.122983
                    0.082709046        -80.077598     2.9504218e-05         92.056459        0.11696666        -74.276678     7.2926098e-06         78.442996
                  2.7762552e-05         78.881763       0.085196468         -78.69547     7.3565177e-06         78.335201        0.11988181        -73.425185

0.15       0.12580543         3.0833453     3.8156267e-05          35.64345       0.094758171         9.7727286     1.9520144e-05           56.5119
                  3.8198699e-05         35.582634        0.12452409         4.7604267     1.2551641e-05         9.3386984       0.094096049         11.402224
                    0.095002359         10.389554     1.2560858e-05         9.1290856        0.12704026          2.825359     4.5818471e-06         31.099121
                  1.9494724e-05         56.389422        0.09433538          12.02454      4.621283e-06         30.468668        0.12587039         4.5301913

0.175        0.2313488         -50.98157      6.743134e-05         112.87874        0.16575595        -52.798667     3.2332109e-05         76.640483
                  6.7390936e-05         112.87086        0.23444353        -49.068898     2.5230715e-05         128.80268        0.16825257        -50.704489
                     0.16573636        -52.556384     2.5272565e-05         128.83561        0.23244237         -51.13418     6.1201358e-06         57.586654
                  3.2344068e-05         76.712857        0.16823308        -50.465736     6.1106294e-06         57.301666          0.235409        -49.207519

0.2       0.15215276        -106.79141     0.00010327934         61.426818        0.10525496        -115.71408     4.0354205e-05         45.655951
                  0.00010325638         61.403972        0.15654026        -104.75595     3.9691772e-05         71.098735        0.10860216        -113.04584
                     0.10475368         -115.5164     3.9728312e-05          71.03607        0.15194406        -106.48429     9.1262479e-06         55.512148
                  4.0409811e-05         45.622895        0.10810352        -112.85573     9.1161335e-06         55.199174        0.15603726        -104.44881

0.225      0.074545721         -59.94377     1.8395668e-05         103.88784       0.045646435        -58.859493     1.1498784e-05         53.796777
                  1.8364107e-05         103.96999       0.075857834        -57.105737     8.8937739e-06         141.13479       0.046946053        -55.456808
                    0.046017493        -58.516425     8.8874011e-06         141.50817        0.07640469        -59.752129     3.3857681e-06         14.987896
                  1.1436518e-05         53.759162       0.047318957        -55.120569     3.3443103e-06         14.264895       0.077751473        -56.820754

0.25       0.16543633        -80.973451     0.00013169059         91.545355       0.088111711        -87.606847     4.9860657e-05         69.216659
                  0.00013166352         91.591051        0.17137865        -78.343028      5.087305e-05         98.778844       0.092912194        -84.334749
                    0.089272768        -87.399837     5.0907097e-05         98.771979        0.16709552        -81.908129     8.4768124e-06         68.456975
                  4.9887709e-05         69.230913       0.094078166        -84.139933     8.4266874e-06         68.999382        0.17279866        -79.239638

0.275       0.10705038        -134.67336     8.8415589e-05         35.569921        0.03583485        -150.11604     3.7140006e-05         14.760817
                  8.8389584e-05         35.632712        0.11043893        -131.60445     3.1793292e-05         46.251237       0.038025275        -145.60276
                    0.036805921        -149.52451     3.1788915e-05          46.17542        0.10603193        -134.88117     9.2684534e-06         27.279764
                  3.7155176e-05         14.708556       0.039003447        -145.07534     9.2133877e-06         27.775552        0.10907084        -131.78597

0.3       0.03703007        -80.142741     9.8926151e-05         121.96926       0.035370346         -52.94252     3.1002218e-05         110.53931
                  9.9002314e-05          121.9535       0.042104825        -74.749849     4.2956342e-05         121.19246       0.040043439        -49.699578
                    0.035054444        -54.007453     4.2999358e-05         121.26707       0.040576607        -79.903489     5.7202278e-06         77.469438
                  3.1034107e-05         110.65944       0.039737884         -50.64021     5.8027625e-06         77.937658       0.045617298        -74.690698

0.325      0.077360313        -103.41673     0.00016802161         63.910026       0.030150022         -116.0352     6.1184424e-05         50.882227
                  0.00016810778         63.917577       0.084063632        -101.13126     6.1265948e-05         63.492991       0.035684441         -111.9276
                    0.030374567        -117.40473     6.1339736e-05         63.458079       0.078177194        -105.81343     1.1193019e-05         40.476165
                    6.12642e-05         50.869972       0.035912483        -113.09432     1.1272114e-05         40.694238       0.084514358        -103.32299

0.35      0.036889191        -94.725768     2.9414709e-05         68.509675       0.042754203        -19.588443     1.2878886e-05         36.965524
                  2.9521926e-05         68.393549       0.038418852        -89.376029     1.1982032e-05         117.87497       0.044591005        -16.346012
                    0.041905498        -18.890626     1.1923208e-05         118.20852       0.035143599        -90.224259     4.2417708e-06         36.795182
                  1.2814529e-05         36.764692       0.043733249          -15.6915     4.3481806e-06         37.075663       0.036688229        -84.502065

0.375       0.10307312        -88.210722      0.0001828019         94.183267       0.098934608        -86.465364     6.2661288e-05         74.291532
                  0.00018276758         94.137695         0.1114672        -83.961723     7.0814163e-05         96.545618         0.1062054        -81.693827
                    0.097876408        -86.316898     7.0935291e-05         96.546194        0.10740238        -87.840882     1.0129626e-05         38.965509
                  6.2764708e-05         74.330972        0.10515515        -81.556824     1.0250984e-05         38.383248        0.11554541        -83.606116

0.4       0.10029503        -137.71171     0.00013735862         38.885109       0.071119816        -152.63383     4.9825923e-05         16.589737
                  0.00013733629          38.81743        0.10518549        -132.97285     4.2710272e-05         49.942055       0.074476988        -146.50411
                    0.069998284        -152.73343     4.2704052e-05         49.749166        0.10072446        -138.53998     5.3183186e-06         9.3640666
                  4.9900761e-05          16.45422       0.073351279        -146.59154     5.3963152e-06         7.5600467        0.10513034        -133.70058

0.425      0.062651586        -109.23507      0.0001165509         120.05829        0.04888111        -82.907355     3.3334848e-05         101.49707
                  0.00011648483         120.11009       0.067757161        -100.11571     5.9985555e-05         122.92959       0.054858595        -74.794971
                    0.049371327        -82.082265     6.0069025e-05         123.00847        0.06398636        -107.36854     8.2440107e-06         73.501015
                  3.3375256e-05         101.65743       0.055388728        -74.077492     8.1330842e-06         73.802923       0.069311169        -98.326257

0.45       0.18328516        -118.15071     0.00021341234          66.84475         0.1251979        -127.21073     7.4420134e-05          33.95631
                  0.00021331285         66.866905        0.19196333        -112.54069     7.3960401e-05         78.862686        0.13205496        -120.48791
                     0.12557488        -126.88784     7.3977511e-05         78.786017        0.18993005        -118.21554     5.0511387e-06         -31.21048
                  7.4480806e-05         33.913104        0.13244592        -120.18794     5.0141072e-06        -32.538264        0.19823167        -112.54429

0.475       0.19402003        -177.72493     6.3473354e-05         50.345315        0.12075513         167.81748     2.2969252e-05        -48.065817
                   6.338398e-05         50.413191        0.19481826        -170.79234     5.0270946e-05         90.530116        0.11959096         175.44584
                     0.12048404         168.09759     5.0177455e-05         90.646334        0.19485926        -177.97703     9.0744705e-06         100.34576
                  2.2969318e-05        -48.380061        0.11932643         175.72985     9.0679034e-06         101.13593         0.1953378        -170.92112

0.5      0.055715851         133.35719     0.00022018021         99.952648       0.035846801         111.72331     6.5537705e-05         100.37798
                  0.00022027442         99.996783       0.049150906         148.42108     9.4018057e-05         89.548345        0.02692796          124.1762
                    0.034978828         112.90365     9.4158059e-05         89.544257       0.050184438         137.50729     1.1436556e-05         50.191752
                  6.5666541e-05          100.3537       0.026139979         125.97531     1.1367452e-05         51.164451       0.044557196         154.38873

0.525        0.1484978        -151.07698     0.00018649988         44.334694       0.080511761        -169.93938     5.9101632e-05          6.891912
                  0.00018664814         44.402168        0.15458457         -143.9595     5.8622054e-05         62.115254       0.083667844        -160.59002
                    0.081935522         -169.9492     5.8568683e-05         62.105429        0.15659171        -151.98352     4.6445081e-06        -148.21285
                  5.9074473e-05         6.8526606        0.08508719        -160.64671     4.5787118e-06        -150.99363        0.16189405         -144.6449

0.55       0.21746455         146.54348     0.00011561836         111.69908        0.10909983          129.0143      3.411846e-05         179.97194
                  0.00011568255         111.58734         0.2124476         154.86161     8.4542304e-05         91.788952        0.10315785         136.68498
                     0.11029942         129.00497     8.4615961e-05         91.781525        0.21788824         146.35689     1.6097857e-05          76.94717
                   3.409764e-05         179.84854        0.10435705         136.66982     1.6317648e-05          76.55207        0.21315285         154.25767

0.575       0.11366274          83.31524     0.00027623421         74.888722       0.047329844           68.8144     8.2677226e-05         85.833436
                  0.00027626656         74.858666        0.10362378         92.946175      0.0001022675         57.755519       0.037554435         76.343089
                    0.048025833         69.106838     0.00010231637         57.702594        0.10765682         83.822179      1.061964e-05       -0.58677661
                  8.2670213e-05         85.766692       0.038253948         76.717777     1.0792098e-05       -0.63898118       0.098355759         93.621594

0.6       0.06054903         174.51585     9.6191822e-05         39.056829       0.045348686         159.00478     1.4790499e-05          10.04294
                  9.6297685e-05          38.99361       0.060853382        -175.21348     2.9486994e-05          92.71165       0.044133428         170.19256
                    0.045524624         158.12226     2.9418154e-05         92.826537       0.065473798         172.78842     1.4587555e-05         166.74515
                  1.4731634e-05         9.8276652        0.04426037         169.26492      1.445854e-05         166.68817       0.065311184        -177.40855

0.625       0.11375145         115.93714     0.00024972994          102.1006       0.054370549          95.91196      8.069211e-05         113.59645
                  0.00024950883         102.07252        0.10353704         126.83963     0.00011729083         87.137905       0.043615906         104.42794
                    0.055014948         94.936715     0.00011733931         87.131185        0.11062762         114.26721     2.0369634e-05         63.007626
                  8.0717906e-05         113.56944       0.044250583         103.20841     2.0329694e-05         62.333759        0.10034396         125.19455

0.65      0.025287121         90.416593     0.00025627926         48.445257       0.024310419        -167.41262     6.9248622e-05         43.963385
                  0.00025601157         48.416251       0.021468264          115.5179     7.1801832e-05         39.351515       0.030252166        -151.65411
                    0.023192664        -165.94718      7.176356e-05         39.254415       0.020753462         102.94647     1.1448138e-05        -101.13981
                  6.9182429e-05         43.876946       0.029217619        -150.22549     1.1780229e-05        -101.09438       0.019043803         131.47182

0.675      0.090093298         141.26113      0.0001207229         111.99917       0.089623867         133.03098      4.785861e-05         137.47215
                  0.00012072176         112.12573       0.082930755         152.62907     8.9524356e-05         112.03009       0.082186346         143.38605
                    0.088537493         133.26977     8.9635637e-05         112.11914       0.090516589         140.00652     2.8553498e-05         118.87918
                  4.8019109e-05         137.54645       0.081096623         143.67216     2.8583431e-05          119.4364       0.083030357         151.40503

0.7      0.045483242           97.5405     0.00033655085         76.736251       0.043034549         83.602859     0.00010714078         71.544269
                  0.00033656971         76.777559       0.035507277         118.84531     0.00013008722          64.48094       0.031876288         97.921203
                    0.042025275         83.938579     0.00013015997          64.44075        0.03582898         99.659713     1.6511499e-05         15.401134
                  0.00010719211         71.488684       0.030898421         98.574487     1.6322821e-05         15.809485       0.027112485         125.99328

0.725       0.14074081         169.56719     0.00014196512         42.056993         0.1039237         150.97777     1.7990843e-05        -42.012468
                  0.00014200556          42.15612        0.14088615         -179.6097     6.0832518e-05         92.234679        0.10178262         162.54726
                     0.10439075          151.4163     6.0839662e-05         92.372095        0.15078303         169.98264     3.0467552e-05         157.89633
                  1.7865002e-05        -42.277411        0.10227093         162.98442     3.0700464e-05         157.69204        0.15048362        -179.27187

0.75       0.23187754         110.65142       0.000253113         100.61982        0.16205647          96.76018      8.832065e-05         133.17699
                  0.00025328302         100.62034        0.22122288         121.42198       0.000143221         74.313435        0.15158469         106.88597
                     0.16195732          96.99233     0.00014340792          74.29219        0.23207938         109.67013     2.8252147e-05         60.235151
                   8.835489e-05         133.05625        0.15148721         107.14064     2.8379498e-05         60.471014         0.2215301         120.49836

0.775       0.11966662         56.369843     0.00032217499         55.774951        0.07971776         45.779686     9.4228172e-05         68.835844
