! Created Thu Mar  2 13:05:31 2023
# ghz S ma R 45
! 4 Port Network Data from SP1.SP block
! freq  magS11  angS11  magS12  angS12  magS13  angS13  magS14  angS14  
!       magS21  angS21  magS22  angS22  magS23  angS23  magS24  angS24  
!       magS31  angS31  magS32  angS32  magS33  angS33  magS34  angS34  
!       magS41  angS41  magS42  angS42  magS43  angS43  magS44  angS44  
!     
0      0.073258384    -2.7198824e-13     1.4799983e-06     7.9894003e-14      0.0041820148    -4.0566384e-12     1.1195467e-06     1.0935712e-13
                  1.4813076e-06    -5.6697386e-14       0.073972352     2.1208482e-13     2.4888034e-06     4.0565945e-15      0.0036778027     -4.687215e-12
                   0.0050268164     1.2448959e-11     2.4836507e-06    -2.1415432e-14       0.073821936    -2.4552246e-14     2.0043675e-06     6.6263209e-15
                  1.1186123e-06     1.1193172e-14       0.004605657    -4.4590389e-12     2.0022919e-06     7.5061664e-14       0.075120514    -2.2524312e-13

0.025       0.15679507        -1.7625795     8.7893042e-06        -8.3755633       0.092208062         16.791726     5.5646394e-06        -15.946765
                  8.7913268e-06        -8.4765554        0.15704365        -1.6443426     1.3426114e-05        -5.3257645       0.092906912         17.240209
                    0.092632155         16.361669     1.3420775e-05        -5.3612755        0.15726434        -1.5565659     1.0158063e-05        -8.2130245
                  5.5620935e-06        -16.052665       0.092397711         16.821018       1.01496e-05        -8.1707223        0.15683141        -1.7946052

0.05      0.098940525        -53.380226     2.6565057e-05         126.34739       0.049375794        -45.596491     1.6869918e-05         128.37512
                  2.6590454e-05         126.45936       0.099288955        -53.158159      4.092715e-05         124.61239       0.050431407        -45.273189
                    0.049996539        -46.341594     4.0962604e-05         124.62351       0.099659757        -53.506665      3.057844e-05         125.81778
                   1.691041e-05         128.41724       0.049471277        -45.422907      3.058683e-05         125.72841       0.098586387        -53.399827

0.075       0.11107931         35.250432     5.8991168e-05         35.462649        0.10141865          45.56229     3.6692024e-05         29.608932
                  5.9046067e-05         35.518847        0.11124997         36.036096     9.0791698e-05         38.213374        0.10101079         46.350253
                     0.10066188         45.589778     9.0810813e-05         38.204603        0.11099123         35.630045     6.8247745e-05         36.147873
                  3.6715409e-05         29.602441        0.10189207         46.207202     6.8206411e-05         36.088581         0.1123266         36.175693

0.1       0.21758742        -20.795709     2.2882136e-05         -57.01095        0.17006959        -17.858883     1.4971779e-05        -71.405197
                  2.2905908e-05        -57.025534        0.21859646        -19.989969     3.3188253e-05        -51.221951         0.1705122        -16.733534
                      0.1694339        -18.001128     3.3176355e-05        -51.282412        0.21822656        -20.658324     2.6520419e-05        -55.583043
                   1.497996e-05        -71.510186        0.17081949        -17.009083     2.6484329e-05        -55.641471        0.21969077        -20.142349

0.125       0.11671285        -74.543377     6.9482173e-05         97.381843        0.08339288        -79.489045     4.3710748e-05         100.21388
                  6.9579959e-05         97.392736         0.1169513        -73.781106      0.0001077936         95.337167       0.083627885        -77.858931
                    0.082709046        -80.077598     0.00010795157         95.322232        0.11696666        -74.276678     8.0250836e-05         96.575167
                  4.3880621e-05         100.18339       0.083078739        -78.487644     8.0299971e-05         96.549022          0.116991        -74.064839

0.15       0.12580543         3.0833453     0.00010491474         3.5404443       0.094758171         9.7727286     6.4321986e-05        -2.9058829
                  0.00010507689         3.5350296        0.12817299         4.6813404     0.00016012175         6.3947375        0.09670308         10.967212
                    0.095002359         10.389554     0.00016024706         6.3381024        0.12704026          2.825359     0.00012156262           4.03138
                  6.4488122e-05        -3.0285834       0.097612815         11.368515     0.00012154134          3.977656        0.12958564         4.7357804

0.175        0.2313488         -50.98157     2.4427222e-05        -108.64696        0.16575595        -52.798667     1.7838136e-05        -127.43354
                  2.4526182e-05        -108.62768        0.23451737        -49.457948     3.2045188e-05        -105.30548        0.16743754         -51.00057
                     0.16573636        -52.556384     3.2105643e-05        -105.44118        0.23244237         -51.13418     2.8135012e-05        -107.24817
                  1.7917606e-05         -127.5485        0.16842625        -51.012662     2.8109842e-05        -107.37112         0.2365601        -49.629949

0.2       0.15215276        -106.79141       0.000113227         69.033062        0.10525496        -115.71408     7.0246089e-05         72.410788
                   0.0001132701         69.011669        0.15205999        -104.87478     0.00017609225         66.832128        0.10396742        -113.05444
                     0.10475368         -115.5164     0.00017619032         66.831489        0.15194406        -106.48429     0.00013147302         67.928312
                  7.0336662e-05         72.407181        0.10455993        -113.40331     0.00013150698         67.952612        0.15315754        -105.05236

0.225      0.074545721         -59.94377     0.00013874649        -18.134931       0.045646435        -58.859493     8.2340696e-05        -22.126042
                  0.00013883921         -18.17709       0.079372239        -55.212948     0.00020986603        -16.651419       0.050210235        -52.814516
                    0.046017493        -58.516425     0.00020990445        -16.693309        0.07640469        -59.752129     0.00016094968        -18.359057
                  8.2416902e-05        -22.232533       0.050168144        -52.621876     0.00016092516        -18.364218       0.080054258        -55.462489

0.25       0.16543633        -80.973451     1.6083817e-05         179.90174       0.088111711        -87.606847     1.6347216e-05         160.69588
                   1.629847e-05        -179.97413        0.17080305        -78.927061     2.0053868e-05         168.18159       0.092141847        -85.267619
                    0.089272768        -87.399837      2.023761e-05         168.24514        0.16709552        -81.908129     1.8265311e-05         179.30883
                  1.6531471e-05         160.88374       0.092790501        -84.818249      1.822719e-05         179.26667        0.17290579        -79.413603

0.275       0.10705038        -134.67336     0.00017041518         26.850066        0.03583485        -150.11604       0.000107584         26.050552
                   0.0001704693         26.898511        0.10461522        -131.09755     0.00025886031         27.098847       0.031909766        -145.36292
                    0.036805921        -149.52451     0.00025883546         27.130168        0.10603193        -134.88117     0.00019802737         26.376549
                  0.00010754349           26.1305       0.033044161        -144.99451     0.00019793009         26.377226        0.10552123        -131.47906

0.3       0.03703007        -80.142741     0.00017311299        -50.345745       0.035370346         -52.94252     0.00010297548        -55.727838
                  0.00017312488        -50.371578       0.046521262        -72.258944     0.00025640239        -48.444344        0.04527009         -50.10974
                    0.035054444        -54.007453     0.00025636262        -48.425379       0.040576607        -79.903489     0.00020015119        -50.624751
                  0.00010292282         -55.69255       0.044089144         -50.09603     0.00020009147        -50.576454       0.047927682        -72.942782

0.325      0.077360313        -103.41673     2.9554026e-05         49.908952       0.030150022         -116.0352     2.6968032e-05         58.557309
                  2.9675036e-05         50.457689        0.08155578        -101.28241     4.8061704e-05         49.459933         0.0339373        -113.20252
                    0.030374567        -117.40473     4.8178198e-05         49.458981       0.078177194        -105.81343     3.5499733e-05         50.435934
                  2.7114915e-05         58.597162       0.033211264        -112.08354     3.5475891e-05         49.983049       0.082316519        -102.59817

0.35      0.036889191        -94.725768     0.00022739534        -19.657534       0.042754203        -19.588443     0.00014633992        -25.049737
                   0.0002277519        -19.591931       0.040674354         -78.56909     0.00033768825        -17.255556       0.051409769        -15.428047
                    0.041905498        -18.890626     0.00033771614        -17.254217       0.035143599        -90.224259     0.00026509073        -19.609469
                  0.00014642003        -25.030204       0.051532917        -16.447614     0.00026476457        -19.660149       0.040327702        -77.045498

0.375       0.10307312        -88.210722     0.00018252082        -93.840284       0.098934608        -86.465364     0.00010759026        -104.85651
                  0.00018278633        -93.841518        0.11599084        -84.559463     0.00026929799        -90.414299        0.11013385        -82.002283
                    0.097876408        -86.316898     0.00026920059        -90.390064        0.10740238        -87.840882     0.00021182328        -93.590261
                  0.00010753234        -104.81435        0.10928613        -82.464466     0.00021146827        -93.560933        0.11832794        -84.789297

0.4       0.10029503        -137.71171     6.3345927e-05         31.308273       0.071119816        -152.63383     5.0938767e-05         35.192715
                  6.3472931e-05          31.39036        0.10058812        -132.93702     9.5083215e-05          29.68276       0.070727352        -146.64776
                    0.069998284        -152.73343       9.53248e-05         29.473542        0.10072446        -138.53998     7.5767835e-05         29.774164
                  5.1181602e-05         34.835356       0.069205714        -146.82351      7.586079e-05         29.483506        0.10048316        -133.68315

0.425      0.062651586        -109.23507     0.00026398798        -55.174763        0.04888111        -82.907355     0.00016694049        -62.262899
                  0.00026437119        -55.192302       0.073789039        -94.751839     0.00038868379        -52.528583       0.062386715        -72.113264
                    0.049371327        -82.082265     0.00038876901        -52.598057        0.06398636        -107.36854     0.00030835557        -55.240892
                  0.00016715548        -62.419126       0.063182759        -71.920431     0.00030813722        -55.298644       0.075047875         -94.12356

0.45       0.18328516        -118.15071     0.00017756585        -135.70726         0.1251979        -127.21073     0.00010204417        -151.41784
                  0.00017793518        -135.79563        0.19644961        -113.62183     0.00026539588        -131.96929         0.1345044        -120.94012
                     0.12557488        -126.88784     0.00026519497        -132.03111        0.18993005        -118.21554     0.00020615367        -135.43836
                  0.00010200144        -151.60239        0.13533108         -121.2841     0.00020570554        -135.44607        0.20151555        -113.96385

0.475       0.19402003        -177.72493     9.8650054e-05         11.897295        0.12075513         167.81748     7.3026558e-05         12.700667
                  9.8721775e-05         11.962313        0.18920353         -171.6532     0.00014360764         11.799485        0.11398874         174.99995
                     0.12048404         168.09759     0.00014379829         11.721597        0.19485926        -177.97703     0.00011795451         10.088028
                  7.3205302e-05         12.579557         0.1137783         174.53947     0.00011805994         9.9748371        0.18999584        -172.12228

0.5      0.055715851         133.35719     0.00032402745         -76.25921       0.035846801         111.72331     0.00020213819        -80.550302
                  0.00032408908         -76.30566       0.040608346         157.87136     0.00047303518        -75.393179       0.018239614          135.5981
                    0.034978828         112.90365     0.00047308014        -75.481537       0.050184438         137.50729     0.00037789325        -77.465403
                  0.00020224739        -80.755175       0.016952008         135.96243     0.00037792936        -77.513589       0.037564456         164.03218

0.525        0.1484978        -151.07698     0.00018367119         -163.3118       0.080511761        -169.93938     0.00010165721        -178.70954
                  0.00018369569        -163.45823        0.15882586        -145.36885     0.00027803811        -160.30074       0.086407805        -161.79807
                    0.081935522         -169.9492     0.00027763981        -160.42259        0.15659171        -151.98352      0.0002107995        -163.71986
                  0.00010144437         -179.0877       0.087843436        -161.56511     0.00021055268        -163.75367         0.1660096        -146.22026

0.55       0.21746455         146.54348     0.00015114377         -25.32841        0.10909983          129.0143     0.00010798319        -25.763021
                  0.00015141206        -25.226295        0.20535442         153.51129     0.00021377167        -23.762952       0.095083057         135.90742
                     0.11029942         129.00497     0.00021394161        -23.739838        0.21788824         146.35689     0.00018096708        -25.795609
                  0.00010810539        -25.704548       0.096370735         135.70399     0.00018089652        -25.833397         0.2070888         153.22855

0.575       0.11366274          83.31524     0.00037608222        -103.38499       0.047329844           68.8144     0.00023197545        -107.17564
                  0.00037611149        -103.38888       0.091437588         92.540877     0.00054787737        -102.51201        0.02625364         76.326722
                    0.048025833         69.106838     0.00054786952        -102.49418        0.10765682         83.822179     0.00043569336        -104.23483
                   0.0002319221        -107.13001       0.026989184         74.522495     0.00043568079        -104.20876       0.087782801         92.855363

0.6       0.06054903         174.51585     0.00019000486         176.35633       0.045348686         159.00478     9.7863699e-05         163.38201
                  0.00018969406         176.28236        0.06306618         -176.2678     0.00029306992         179.34114       0.045790967          168.2731
                    0.045524624         158.12226     0.00029282756         179.34058       0.065473798         172.78842     0.00021190329         176.70223
                  9.7586717e-05         163.33492       0.045651935         169.20664     0.00021204779         176.76081       0.067292155        -177.64977

0.625       0.11375145         115.93714     0.00023239885        -73.391763       0.054370549          95.91196      0.0001677509        -76.053887
                  0.00023305629        -73.329915       0.092101537         126.78512     0.00032039949        -72.792137       0.032756164         99.510852
                    0.055014948         94.936715      0.0003205363        -72.789512        0.11062762         114.26721     0.00027772879        -74.474331
                  0.00016795428         -76.04195       0.033496778         100.68733     0.00027723668        -74.512949       0.091393545         125.12533

0.65      0.025287121         90.416593     0.00044068896        -148.98858       0.024310419        -167.41262     0.00027808853        -157.32364
                  0.00044134387        -149.00126       0.021142279         151.12405     0.00064300747        -146.75658       0.042463957        -149.05391
                    0.023192664        -165.94718     0.00064297391        -146.71252       0.020753462         102.94647     0.00050817296        -149.46909
                  0.00027808063        -157.22813       0.040942525        -149.50521     0.00050754004        -149.41263       0.021412961         159.30076

0.675      0.090093298         141.26113     0.00015034506         134.29822       0.089623867         133.03098     7.3057678e-05         107.93252
                    0.000150352         134.22124       0.082303925         151.85683     0.00024923247         141.01089       0.081783733         142.41244
                    0.088537493         133.26977     0.00024919962         141.18095       0.090516589         140.00652     0.00016474979         136.00695
                  7.2696285e-05         108.34923       0.080084247         142.67724     0.00016469879         136.28019       0.081663806         150.76427

0.7      0.045483242           97.5405     0.00033097514        -115.79322       0.043034549         83.602859     0.00023734976        -119.96373
                  0.00033163166        -115.82131       0.026690274         142.29908     0.00045733501         -115.7671       0.020158892         111.80684
                    0.042025275         83.938579       0.000457159        -115.90217        0.03582898         99.659713     0.00039108278        -117.27927
                  0.00023732553        -120.22143       0.019982636         116.17168     0.00039038475        -117.38129       0.022720977         154.60044

0.725       0.14074081         169.56719     0.00044327282         160.92673         0.1039237         150.97777     0.00027843826         147.12035
                  0.00044390537         160.83159         0.1543632         178.57221      0.0006640572         165.12857        0.11164922          163.0872
                     0.10439075          151.4163     0.00066353586         165.10044        0.15078303         169.98264     0.00050919744         161.05281
                  0.00027811667         147.02009        0.11188214         162.61229     0.00050826813         161.09082        0.16064426         178.50255

0.75       0.23187754         110.65142     0.00010231159           69.2247        0.16205647          96.76018     6.7236868e-05         24.697025
                  0.00010244295         69.027789        0.21878091         119.67941      0.0001813999         85.226683        0.14848625          106.0116
                     0.16195732          96.99233      0.0001810594         85.330861        0.23207938         109.67013     0.00011068339         70.148796
                   6.688385e-05         24.606632         0.1474766         105.78442     0.00011023233         70.401781        0.21798446         118.75132

0.775       0.11966662         56.369843     0.00038961124        -138.04247        0.07971776         45.779686     0.00026953444        -141.91839
