! Created Thu Mar  2 12:56:26 2023
# ghz S ma R 45
! 4 Port Network Data from SP1.SP block
! freq  magS11  angS11  magS12  angS12  magS13  angS13  magS14  angS14  
!       magS21  angS21  magS22  angS22  magS23  angS23  magS24  angS24  
!       magS31  angS31  magS32  angS32  magS33  angS33  magS34  angS34  
!       magS41  angS41  magS42  angS42  magS43  angS43  magS44  angS44  
!     
0      0.073258384    -2.7198824e-13     2.5063758e-05    -1.9373981e-12      0.0041820148    -4.0566384e-12     2.0271121e-05               180
                  1.7522968e-05     -9.818269e-12       0.076934178    -5.5148777e-13     1.6411388e-05     4.9312331e-13      0.0037915347     4.3510004e-12
                   0.0050268164     1.2448959e-11     2.0653485e-05              -180       0.073821936    -2.4552246e-14     3.8365986e-06    -3.6760627e-11
                  7.7786088e-05              -180      0.0042206214     7.9859631e-12     1.3950663e-05     1.4872847e-11       0.073673563    -5.8600394e-13

0.025       0.15679507        -1.7625795     4.4646617e-05        -134.74483       0.092208062         16.791726     5.0503282e-05        -178.17035
                  4.8312673e-05        -162.63604        0.15654166        -2.5911805     4.2543423e-05        -158.66252       0.092785007         16.812975
                    0.092632155         16.361669      4.086167e-05         158.30597        0.15726434        -1.5565659     4.4073852e-05        -149.66393
                  0.00011110432         140.04463       0.092778131          16.57233     5.6009331e-05        -159.49672        0.15610041        -2.0417202

0.05      0.098940525        -53.380226     0.00011283605         145.19864       0.049375794        -45.596491     0.00014728142         126.42374
                  0.00010013576         130.32014       0.096050767          -53.7415      9.456867e-05         132.14561       0.049199617        -45.974024
                    0.049996539        -46.341594     8.7186414e-05         116.67552       0.099659757        -53.506665     0.00013363141         134.83826
                  0.00015195189         90.967222       0.049050897        -46.353319     0.00012627477         129.46694       0.095520828         -53.48812

0.075       0.11107931         35.250432     0.00015469104         43.891319        0.10141865          45.56229      0.0002198765         30.051783
                   0.0001484035         38.163441        0.11451064         34.371658      0.0001414126         35.865229         0.1018424         44.761945
                     0.10066188         45.589778     0.00014232805         21.541099        0.11099123         35.630045     0.00018948023         32.792937
                  0.00022320137         15.753625        0.10190546         44.782767     0.00018262342          37.16208        0.11583878         34.777704

0.1       0.21758742        -20.795709     0.00012175417        -13.537637        0.17006959        -17.858883     0.00016317232        -35.052522
                  0.00012724742        -22.532414        0.21758912        -22.084716      0.0001118168        -28.993947        0.16903895        -18.778911
                      0.1694339        -18.001128     9.5784025e-05        -48.498443        0.21822656        -20.658324     0.00013191766        -33.302696
                   0.0001972346        -49.603112        0.16881506        -18.908709     0.00015886815        -27.021002        0.21925795        -21.882532

0.125       0.11671285        -74.543377     0.00025457356        -73.338518        0.08339288        -79.489045      0.0002967674        -82.172483
                    0.000236939        -82.836331        0.11264655        -75.787708     0.00021095118        -84.366995       0.080706954        -80.505201
                    0.082709046        -80.077598     0.00017956395         -87.51501        0.11696666        -74.276678     0.00024763871        -79.007829
                  0.00030061187        -102.32428       0.079934063        -80.838944     0.00027481717        -85.358161        0.11372981        -75.165608

0.15       0.12580543         3.0833453      0.0002915491        -172.72318       0.094758171         9.7727286     0.00038397461        -176.61209
                  0.00025990241         178.61603        0.12829298         1.9825595     0.00024627978         175.64125       0.094946829         7.9000596
                    0.095002359         10.389554     0.00023517737         171.08068        0.12704026          2.825359     0.00032158162        -175.77598
                  0.00035922661          167.5181        0.09582334         8.1836246     0.00032085205        -179.44329        0.12978006         1.1166553

0.175        0.2313488         -50.98157     0.00021536312         132.85202        0.16575595        -52.798667     0.00029691428         119.14681
                  0.00018231029         131.97895        0.22934153        -52.766777      0.0001580816         120.66139        0.16219614        -54.816111
                     0.16573636        -52.556384     0.00013860468         110.42948        0.23244237         -51.13418     0.00023718463         119.19132
                  0.00026046319         109.75723        0.16279417        -54.803779     0.00024164232         122.16178         0.2310569        -53.347197

0.2       0.15215276        -106.79141     0.00038597167          73.13824        0.10525496        -115.71408     0.00044399089         64.464437
                  0.00036603614         72.651835        0.14807245        -108.89271       0.000305232         69.297994        0.10094061        -118.10176
                     0.10475368         -115.5164     0.00026373804         66.798502        0.15194406        -106.48429     0.00036125792         67.304802
                  0.00042921635          58.50014        0.10088316        -118.18186     0.00039816681         66.882375         0.1489003        -109.37058

0.225      0.074545721         -59.94377     0.00043262921        -16.795433       0.045646435        -58.859493     0.00052600341        -19.772227
                    0.000405518        -19.294828       0.073356938        -62.498252     0.00035768775        -24.027234        0.04464054        -62.040656
                    0.046017493        -58.516425     0.00031851931        -26.479975        0.07640469        -59.752129     0.00043377425        -18.203963
                  0.00050930798        -28.814622       0.044908644        -61.920002     0.00046717575        -21.070489       0.073819914        -63.037782

0.25       0.16543633        -80.973451     0.00038849485        -84.203196       0.088111711        -87.606847     0.00050385603        -89.078667
                  0.00035194721         -84.90394        0.15940542        -83.203438     0.00030218235        -92.602371       0.083131344        -91.183801
                    0.089272768        -87.399837      0.0002655289        -94.677537        0.16709552        -81.908129     0.00041156422        -87.483403
                  0.00045186041        -96.642586       0.084292539        -91.236624     0.00042475697        -90.016971        0.16024314        -84.309849

0.275       0.10705038        -134.67336     0.00053490007        -151.62201        0.03583485        -150.11604     0.00065449269        -156.62184
                  0.00050809581        -151.06006        0.10397164        -137.30657     0.00043070707          -156.033       0.032773768        -155.27066
                    0.036805921        -149.52451     0.00038804672        -156.64926        0.10603193        -134.88117     0.00054673123        -154.70462
                  0.00060848866        -159.70678       0.033926646        -155.71837     0.00056754524        -155.54375         0.1027457        -138.61173

0.3       0.03703007        -80.142741     0.00058228612          126.4389       0.035370346         -52.94252     0.00071535562         123.84401
                  0.00056057448         125.86702       0.031615826        -87.335257     0.00048827594         120.19095       0.031901042        -55.657663
                    0.035054444        -54.007453     0.00044227204         119.27096       0.040576607        -79.903489     0.00060149867         124.51154
                  0.00069029328         120.06737       0.031028096        -55.640485     0.00063483793         123.43432       0.032875337        -84.031459

0.325      0.077360313        -103.41673     0.00059108936         57.075314       0.030150022         -116.0352     0.00073898637         54.393126
                  0.00056383641         56.400768       0.069399276        -104.87668     0.00048640929         49.844869       0.025646889        -121.06891
                    0.030374567        -117.40473      0.0004411945         49.770214       0.078177194        -105.81343     0.00061672097         55.158918
                  0.00069915045         50.260115       0.025331967        -121.23856     0.00064432938         53.331131       0.070647484        -105.88866

0.35      0.036889191        -94.725768     0.00067956651        -18.733846       0.042754203        -19.588443     0.00084458426        -20.612276
                  0.00065234869        -19.194126       0.036157756        -97.627362     0.00057124069        -26.084149       0.040477552        -21.771086
                    0.041905498        -18.890626     0.00052600771        -26.246052       0.035143599        -90.224259     0.00071741617         -20.73487
                  0.00080224076        -23.625005       0.040056635        -21.553856     0.00074456407        -21.792609       0.035233068        -95.382518

0.375       0.10307312        -88.210722     0.00062353497        -94.603183       0.098934608        -86.465364     0.00078795431        -96.243513
                  0.00060000082        -95.735321       0.095698933        -92.870025     0.00052017767        -105.30286       0.092202501        -90.774345
                    0.097876408        -86.316898     0.00047408374        -105.74923        0.10740238        -87.840882     0.00065684521        -97.975025
                  0.00076037256        -99.482164       0.091061416        -90.638316     0.00069498978        -99.077102       0.098870361        -92.466496

0.4       0.10029503        -137.71171     0.00066115511        -156.45257       0.071119816        -152.63383     0.00082599383        -158.65355
                  0.00062626404        -157.75566       0.094703047        -142.78597     0.00051795253        -165.86392       0.069022879        -158.67182
                    0.069998284        -152.73343     0.00047335149        -164.73087        0.10072446        -138.53998      0.0006739707        -158.77666
                  0.00078477134        -162.60288        0.06739358        -158.32803     0.00070786956        -161.53232       0.096246384        -143.22379

0.425      0.062651586        -109.23507     0.00077577052         124.50261        0.04888111        -82.907355     0.00097323388          123.5992
                  0.00072716839          123.6903       0.058394873        -117.86616      0.0006306521         114.95596       0.042685828        -91.825963
                    0.049371327        -82.082265     0.00058848758         115.54889        0.06398636        -107.36854     0.00081439747         122.54987
                  0.00090796066         120.56832       0.043568112        -91.293739     0.00083483667         120.45138       0.059310235         -116.9077

0.45       0.18328516        -118.15071     0.00066259701         46.191432         0.1251979        -127.21073     0.00085257164         44.567721
                  0.00061756725         46.209795         0.1777478        -123.87187     0.00052664059         31.445962        0.11821834         -133.6375
                     0.12557488        -126.88784     0.00048663047         31.115249        0.18993005        -118.21554     0.00069267126         40.759088
                  0.00079612527         43.052703        0.11904249        -133.82286     0.00071446125         39.934345        0.18130136        -124.57299

0.475       0.19402003        -177.72493     0.00066827862        -6.9078623        0.12075513         167.81748     0.00082136449        -9.9197092
                  0.00063186514        -5.9062901        0.19499177         175.10339     0.00046350999        -15.088313        0.12200235         160.67914
                     0.12048404         168.09759     0.00042604983        -13.522452        0.19485926        -177.97703     0.00063520996        -8.9705031
                   0.0007878327        -10.969355        0.12162177         160.62503     0.00066849776        -10.777082         0.1949159         174.29474

0.5      0.055715851         133.35719     0.00093702089        -81.203513       0.035846801         111.72331      0.0011375453        -81.546442
                  0.00089171788        -80.702928       0.061821054          120.4036      0.0007365249        -86.879479       0.044158345         102.52056
                    0.034978828         112.90365     0.00069355523        -85.888752       0.050184438         137.50729     0.00094969785        -80.686036
                   0.0010885412        -83.742216       0.042802631         103.65989     0.00098218803        -83.133044       0.057317386         121.39294

0.525        0.1484978        -151.07698     0.00083533767        -166.05728       0.080511761        -169.93938      0.0010522457        -165.48396
                  0.00078349663        -165.02777         0.1457916        -158.02432     0.00064765913        -177.49186       0.077452959        -179.08715
                    0.081935522         -169.9492     0.00060056451        -177.24214        0.15659171        -151.98352     0.00085126424        -167.43109
                  0.00097789475        -167.26462       0.079485674        -179.58099     0.00087189917        -169.64259        0.15041228        -159.09692

0.55       0.21746455         146.54348     0.00075159015         139.12138        0.10909983          129.0143     0.00094776798         137.20615
                  0.00072327398         141.76268        0.22433053         138.45545     0.00051855407         135.47692         0.1154881         120.23111
                     0.11029942         129.00497     0.00048160711         138.41478        0.21788824         146.35689     0.00074999506          141.1349
                  0.00089084123         138.34463        0.11691125          119.7206     0.00076212829         139.40836        0.22340056         137.26256

0.575       0.11366274          83.31524      0.0010753046         69.256321       0.047329844           68.8144       0.001307371         68.337742
                   0.0010550468         70.694681         0.1226039         74.423269     0.00085917153         66.436759       0.054591837         62.419158
                    0.048025833         69.106838      0.0008239584         68.158891        0.10765682         83.822179      0.0011222521         70.281241
                   0.0012750706         68.665363       0.055152144         61.670225      0.0011479373         68.933481        0.11662449         73.619563

0.6       0.06054903         174.51585      0.0010845327        -15.833895       0.045348686         159.00478      0.0013304562        -14.887327
                   0.0010582928        -14.986904       0.063011175          165.3865     0.00087196371        -23.248732       0.049880823         148.41402
                    0.045524624         158.12226     0.00082847815        -22.363687       0.065473798         172.78842       0.001115534        -15.541089
                   0.0012896534        -15.685633       0.050058844          148.2001      0.0011462044        -17.125392       0.068117713         164.27813

0.625       0.11375145         115.93714      0.0010419513        -79.872865       0.054370549          95.91196      0.0013036815        -79.804468
                   0.0010192082        -78.821222        0.12416393         106.26633     0.00081602088        -85.302769       0.065366211         87.134577
                    0.055014948         94.936715     0.00077425575        -83.486564        0.11062762         114.26721      0.0010974451        -78.508716
                    0.001250417         -79.78553       0.066105332         86.422148      0.0011175123        -80.217389        0.12287266         104.49681

0.65      0.025287121         90.416593      0.0012825948        -156.25492       0.024310419        -167.41262      0.0015670721        -156.11796
                   0.0012600063        -155.76952       0.028772293         78.594258      0.0010607077         -163.3806       0.022106944         177.41691
                    0.023192664        -165.94718      0.0010216829        -161.90961       0.020753462         102.94647      0.0013560767        -157.08919
                   0.0015254987        -155.94068       0.020572372         179.06381      0.0013824378        -158.31138       0.024651434         84.292718

0.675      0.090093298         141.26113      0.0011437696         126.10333       0.089623867         133.03098      0.0014099734         127.58764
                   0.0011117881         126.23245        0.10017354         130.41464      0.0009050811          116.5869        0.10000588         122.94391
                    0.088537493         133.26977     0.00087000289         117.68623       0.090516589         140.00652      0.0011725465         126.02612
                   0.0013700993         127.15447       0.098427954         123.55083      0.0012018299         124.50726        0.10152641          129.2618

0.7      0.045483242           97.5405      0.0013075925         61.463846       0.043034549         83.602859      0.0016142089         61.937616
                   0.0012666709         62.129696       0.053804564         83.900868      0.0010566866          54.52664       0.053033177         71.121206
                    0.042025275         83.938579      0.0010203633         55.707846        0.03582898         99.659713       0.001383959         61.262098
                   0.0015557061         61.973546       0.052073194         72.690261      0.0014031842         59.732712       0.048232696         82.616804

0.725       0.14074081         169.56719      0.0013676131        -28.410313         0.1039237         150.97777      0.0016484411        -26.621286
                   0.0013267983         -27.90415        0.14841422         158.60502      0.0011319648        -40.097341         0.1090714         140.62408
                     0.10439075          151.4163      0.0010934234        -39.328025        0.15078303         169.98264      0.0013874487        -30.624579
                   0.0015982998        -26.249093        0.10962693           140.404      0.0014126358        -31.593141        0.15360854         158.44268

0.75       0.23187754         110.65142     0.00091069248        -96.278017        0.16205647          96.76018      0.0011325608        -92.149345
                  0.00087106957        -95.511029        0.24581871         100.15092     0.00064397735        -109.79151        0.17286086         87.269255
                     0.16195732          96.99233     0.00062056548        -108.79024        0.23207938         109.67013      0.0008713215        -93.014156
                   0.0011046945        -91.919127        0.17206234         87.323213     0.00089713124        -94.606148        0.24423335          98.89446

0.775       0.11966662         56.369843      0.0012801353         -147.0234        0.07971776         45.779686       0.001601648        -145.69118
