! Created Thu Mar  2 12:57:08 2023
# ghz S ma R 45
! 4 Port Network Data from SP1.SP block
! freq  magS11  angS11  magS12  angS12  magS13  angS13  magS14  angS14  
!       magS21  angS21  magS22  angS22  magS23  angS23  magS24  angS24  
!       magS31  angS31  magS32  angS32  magS33  angS33  magS34  angS34  
!       magS41  angS41  magS42  angS42  magS43  angS43  magS44  angS44  
!     
0      0.073258384    -2.7198824e-13     1.2205889e-05              -180      0.0041820148    -4.0566384e-12     5.5061196e-06               180
                  1.8041034e-05               180       0.075861801     2.0548573e-13     2.4878255e-05              -180      0.0040087276    -4.3015775e-12
                   0.0050268164     1.2448959e-11      7.539285e-07               180       0.073821936    -2.4552246e-14     1.5022685e-05      4.292183e-12
                  7.3227587e-07               180      0.0049651703     -4.125927e-12     1.7191503e-05               180       0.074462679    -2.2711194e-13

0.025       0.15679507        -1.7625795     1.6695027e-05          153.0268       0.092208062         16.791726     1.2865379e-05         125.63421
                  2.3368043e-05         146.74285        0.15723578        -2.0026797     3.5821091e-05         144.78014       0.093032972         16.942716
                    0.092632155         16.361669     1.8187573e-05        -158.96255        0.15726434        -1.5565659     1.7844433e-05         -139.6267
                  2.1895715e-06        -148.07658       0.092505209         16.519039     2.6497946e-05         141.58829        0.15722676        -2.0790611

0.05      0.098940525        -53.380226     4.5065998e-05         121.18479       0.049375794        -45.596491     2.9136483e-05          125.4834
                  5.1347665e-05         111.42025       0.098143642        -53.376321     5.7273086e-05         97.514044       0.049587056        -45.690715
                    0.049996539        -46.341594     5.4858122e-05         132.47683       0.099659757        -53.506665     4.2398912e-05         146.75733
                  4.1767315e-05         141.96445       0.048618001        -45.831112      4.413162e-05          105.3524       0.097527022        -53.675572

0.075       0.11107931         35.250432     7.3758769e-05         10.513365        0.10141865          45.56229     6.8844923e-05        -7.8154126
                  8.3713042e-05         6.7925103        0.11285691         35.030528     8.4791788e-05         15.129645        0.10206648         45.489335
                     0.10066188         45.589778     7.8597923e-05          32.39059        0.11099123         35.630045     5.7032558e-05         33.993728
                   7.510819e-05        -3.9896696        0.10294576         45.345303     7.5189095e-05         6.4257148        0.11397636         35.216742

0.1       0.21758742        -20.795709     2.5427083e-05        -73.679047        0.17006959        -17.858883     3.9170109e-05        -163.18266
                  3.6807397e-05        -77.241256        0.21785118        -21.107317     7.1278448e-05        -52.391156         0.1698718        -17.884895
                      0.1694339        -18.001128     5.7998608e-05        -29.797409        0.21822656        -20.658324     2.7781818e-05        -7.5316847
                  4.3145957e-05        -168.80105        0.17017739        -18.161521      3.521763e-05        -75.865848        0.21895588        -21.254981

0.125       0.11671285        -74.543377     8.5621037e-05        -74.089632        0.08339288        -79.489045     5.7283445e-05        -67.383449
                  8.6548553e-05        -83.817021        0.11401719        -74.590298     0.00010274931        -101.88933        0.08084611         -79.31391
                    0.082709046        -80.077598      0.0001097902         -78.55099        0.11696666        -74.276678     9.8484547e-05        -67.739681
                  6.3463655e-05        -55.678862       0.080295391         -79.96281     7.8276712e-05        -86.293542        0.11396647        -74.874593

0.15       0.12580543         3.0833453     0.00010530316         166.84957       0.094758171         9.7727286     0.00010187648         119.26456
                  0.00011260867         160.75713        0.12932668         2.9646049     0.00012630896         168.24868       0.097284123          9.348291
                    0.095002359         10.389554     0.00013949361        -174.70911        0.12704026          2.825359     9.3819461e-05         175.01972
                   9.735032e-05         127.90311       0.098193727         9.7445708     9.6731399e-05         157.31741        0.13083063          3.033902

0.175        0.2313488         -50.98157     3.7387947e-05          134.0919        0.16575595        -52.798667     8.2474126e-05        -67.693035
                  3.6939218e-05         117.76803        0.23152475        -51.389602     9.2977256e-05         108.17779        0.16481795        -53.060604
                     0.16573636        -52.556384     0.00010857295         120.17035        0.23244237         -51.13418      5.297284e-05         169.52575
                  7.4524538e-05        -66.034281        0.16580754        -53.072898      2.897241e-05         141.04351        0.23354177        -51.559802

0.2       0.15215276        -106.79141     0.00013834457         82.229387        0.10525496        -115.71408     0.00012511847         108.63023
                  0.00013412958         78.524224        0.14794998         -106.9036     0.00014192338          59.59218        0.10051603          -115.665
                     0.10475368         -115.5164     0.00015803231         67.637316        0.15194406        -106.48429     0.00016728534         88.438563
                  0.00012258759         110.71893        0.10110986        -116.02525     0.00013560693          81.64507        0.14888501        -107.08613

0.225      0.074545721         -59.94377     0.00014003698        -16.429918       0.045646435        -58.859493     7.0821449e-05        -42.702542
                  0.00014045952         -19.56157       0.077987094        -58.152006     0.00017080154        -25.591035       0.048950901        -56.068749
                    0.046017493        -58.516425     0.00019222726        -17.191554        0.07640469        -59.752129     0.00015423012        -10.702138
                  6.7207397e-05        -31.481571       0.048904859        -55.873403     0.00012948321         -18.70767       0.078705514        -58.299622

0.25       0.16543633        -80.973451     0.00012725614        -72.986109       0.088111711        -87.606847     5.4812821e-05         24.198933
                  0.00012764624        -76.211669        0.16506064        -81.575601     0.00015683691        -91.999277        0.08735027        -88.564218
                    0.089272768        -87.399837     0.00018360303        -87.461955        0.16709552        -81.908129     0.00013596469        -64.426636
                  5.8839112e-05         8.6172211       0.087998991        -88.086846     0.00011548328        -68.207269        0.16705811         -82.07373

0.275       0.10705038        -134.67336      0.0002056221        -149.18219        0.03583485        -150.11604     0.00015661841        -128.93258
                  0.00020716666        -151.08456        0.10163354         -134.1458     0.00021570402        -155.86467       0.029670569         -149.9255
                    0.036805921        -149.52451     0.00023660514        -154.68515        0.10603193        -134.88117     0.00022480633        -141.49948
                  0.00016362939        -131.07525       0.030804151        -149.49703     0.00020505849        -145.53612        0.10227343        -134.53396

0.3       0.03703007        -80.142741     0.00019312962         127.28662       0.035370346         -52.94252     0.00012263832         108.85807
                  0.00019762967         125.81627       0.041349296         -77.19511     0.00024332922         123.99516       0.040659838        -53.384061
                    0.035054444        -54.007453     0.00025899939           125.978       0.040576607        -79.903489     0.00021488675         133.98702
                  0.00012521434         110.57691       0.039479272        -53.346409     0.00019451451         128.95178       0.042799963        -77.724035

0.325      0.077360313        -103.41673     0.00021542174         64.043806       0.030150022         -116.0352     8.8504661e-05         63.215901
                  0.00022195495         62.238068       0.075284036        -103.50111     0.00025177669         54.805187       0.028422199        -117.30445
                    0.030374567        -117.40473     0.00026890159         56.518361       0.078177194        -105.81343      0.0002346922         69.170768
                  9.9061515e-05         64.967543       0.027703976          -115.957     0.00021355241          66.29592       0.075773993        -104.90779

0.35      0.036889191        -94.725768     0.00023364326        -20.455786       0.042754203        -19.588443     0.00013899793        -37.065268
                   0.0002419342        -22.316568       0.039036913        -84.009284      0.0002908633        -19.904566       0.049674091        -18.814898
                    0.041905498        -18.890626     0.00030645978        -18.813399       0.035143599        -90.224259     0.00025375919        -13.681609
                  0.00014973528        -36.782327       0.049775981        -19.865964     0.00023626798        -17.420131       0.038618999        -81.912128

0.375       0.10307312        -88.210722     0.00016463233        -80.897333       0.098934608        -86.465364     4.1307604e-05         -156.9121
                  0.00017035444        -83.746251        0.10780721        -88.847608     0.00027577264        -95.074838        0.10303441         -86.72311
                    0.097876408        -86.316898     0.00028820701        -93.504513        0.10740238        -87.840882     0.00019397091        -75.425141
                  4.3489888e-05        -153.50958         0.1021887        -87.214211     0.00017032753        -78.942896        0.11014421        -89.020135

0.4       0.10029503        -137.71171     0.00025030967        -135.27146       0.071119816        -152.63383     0.00011192781        -122.32297
                  0.00025559948        -137.50187       0.096282665        -137.67525     0.00029025877        -157.72895       0.067418471        -152.70497
                    0.069998284        -152.73343      0.0003080205        -156.22305        0.10072446        -138.53998     0.00027931585        -133.44308
                  0.00012165543        -122.35777         0.0659091        -152.91048       0.000254585        -133.09888       0.095810027        -138.42644

0.425      0.062651586        -109.23507     0.00023339153         139.54408        0.04888111        -82.907355     9.9864787e-05         106.36183
                  0.00024063056         136.57805       0.068180933        -103.29486     0.00034184593         125.70943       0.056422007        -79.394871
                    0.049371327        -82.082265     0.00036311575         126.09676        0.06398636        -107.36854     0.00026100135         144.30217
                  0.00011619545         108.19402       0.057205616        -79.147362     0.00024245918         143.99893       0.069359933        -102.19124

0.45       0.18328516        -118.15071     0.00015160317         98.014381         0.1251979        -127.21073     0.00010451969        -159.52848
                   0.0001485275         93.424593        0.18821805        -119.28307     0.00031148854         47.846332        0.12786421        -127.52041
                     0.12557488        -126.88784     0.00032707332         47.366333        0.18993005        -118.21554     0.00019164622         101.35296
                  9.2084407e-05        -155.18936        0.12871107        -127.87756      0.0001729347         102.37846         0.1931574        -119.57787

0.475       0.19402003        -177.72493     0.00020282137         36.929985        0.12075513         167.81748     0.00028429312         51.284774
                  0.00020065838         34.610446        0.18896997        -178.62009     0.00028861165        -5.4812444        0.11504717          167.4962
                     0.12048404         168.09759     0.00029894849        -5.6407865        0.19485926        -177.97703     0.00024215667         36.280835
                  0.00028046796         51.860748        0.11485998         167.03586     0.00021867782         39.055101         0.1892248        -179.07252

0.5      0.055715851         133.35719     0.00023248299        -76.045914       0.035846801         111.72331     0.00023437058        -77.111896
                   0.0002406423        -77.835978       0.045859243         139.68931     0.00039104737        -76.148053       0.026174166          117.3196
                    0.034978828         112.90365     0.00041114632        -76.094788       0.050184438         137.50729     0.00026659232        -75.661884
                  0.00024137853        -74.460101       0.024887821         116.93839     0.00023961545        -74.519063       0.041480293         144.21404

0.525        0.1484978        -151.07698     0.00019885155        -156.31904       0.080511761        -169.93938     0.00010922868        -66.971855
                  0.00020776486        -159.22907         0.1532152        -152.45467     0.00035638412        -160.78351       0.082297188        -170.60798
                    0.081935522         -169.9492     0.00038046994        -162.01527        0.15659171        -151.98352     0.00021308894        -152.22567
                  0.00011065433        -78.018411       0.083731632         -170.3329     0.00019811406        -150.25645        0.15963508        -153.13268

0.55       0.21746455         146.54348     0.00026229987         145.80142        0.10909983          129.0143      0.0003732094        -175.63948
                  0.00026500681         143.70792        0.21049883         145.23497     0.00031689555         143.56791        0.10198717         126.80914
                     0.11029942         129.00497     0.00032702712         140.00449        0.21788824         146.35689     0.00029643971         152.31682
                  0.00036781889        -178.42748         0.1032737         126.63767     0.00028475576         152.68535        0.21171627         144.45087

0.575       0.11366274          83.31524     0.00034178423         66.154535       0.047329844           68.8144     0.00037143461         66.638628
                  0.00034766067         65.357843        0.10096267         82.610624     0.00045678011         74.512508       0.035857886         68.264107
                    0.048025833         69.106838     0.00045959351         72.662715        0.10765682         83.822179     0.00039392158         69.290573
                  0.00036889153         65.673925       0.036587932         66.959584     0.00037407674         69.222708       0.097178404         82.599993

0.6       0.06054903         174.51585     0.00032993671        -9.8055117       0.045348686         159.00478     0.00017288398        -3.0491975
                  0.00034099101         -10.66426       0.063664275         174.12184     0.00046909389        -9.0600958       0.047455651         157.80803
                    0.045524624         158.12226     0.00047759653        -10.406171       0.065473798         172.78842     0.00036422888        -8.0959512
                  0.00018160445        -2.2018911       0.047286575         158.68522     0.00034468759        -7.0274689       0.067420369         172.38382

0.625       0.11375145         115.93714     0.00036769244        -78.602942       0.054370549          95.91196     0.00031110312        -62.659865
                  0.00037792426        -79.934973        0.10264592         115.46301     0.00046301947        -74.329489       0.043788557          91.91861
                    0.055014948         94.936715     0.00046975901        -76.475387        0.11062762         114.26721     0.00040612922        -75.035254
                  0.00032371083        -65.021902       0.044516608         92.783145     0.00039361942        -73.943664        0.10133391         113.70562

0.65      0.025287121         90.416593     0.00038280062        -156.09245       0.024310419        -167.41262      0.0002777811         -163.3941
                  0.00039198421        -157.00956       0.020407356         123.89901     0.00055818913        -150.48046       0.036851927        -161.39937
                    0.023192664        -165.94718     0.00055967225        -152.32011       0.020753462         102.94647     0.00043267714        -153.61511
                  0.00028567028        -166.05546       0.035371573        -162.10974     0.00041825967        -153.17391       0.019525068         132.17832

0.675      0.090093298         141.26113     0.00037211777         136.91136       0.089623867         133.03098     0.00020971268         146.55134
                  0.00038470565         136.05458       0.090083038         140.39649     0.00051412877         133.09372        0.08952642         132.00539
                    0.088537493         133.26977     0.00051717478         131.54738       0.090516589         140.00652     0.00041201524          138.5573
                  0.00021422461         144.65824       0.087817486         132.20509     0.00039736715         139.74569       0.088834253         139.07636

0.7      0.045483242           97.5405     0.00044555387          63.06731       0.043034549         83.602859     0.00028886998         59.649548
                  0.00046043957         61.714438       0.032807485         111.59324     0.00058654266         66.296324       0.029922891         90.179749
                    0.042025275         83.938579     0.00059029334         64.388288        0.03582898         99.659713     0.00049517223         65.345679
                  0.00030332731         56.986805       0.029383805         92.987055      0.0004853511         66.355114       0.026274548         117.66629

0.725       0.14074081         169.56719     0.00039364776        -19.146126         0.1039237         150.97777     0.00010194671        -10.691906
                  0.00040334778        -20.583061         0.1550801         167.80795     0.00060487791         -21.76808        0.11427148         151.68146
                     0.10439075          151.4163     0.00060572798        -23.882027        0.15078303         169.98264     0.00044120064        -17.097153
                  0.00010146484        -23.672931        0.11453487         151.21529     0.00042910039        -16.891698        0.16105532         167.72216

0.75       0.23187754         110.65142     0.00033192291         -77.03317        0.16205647          96.76018     0.00029978222        -36.517624
                  0.00033987018        -77.947533        0.22958701         108.90695     0.00040753997        -90.078462        0.15896335         95.828121
                     0.16195732          96.99233     0.00040306651        -92.050467        0.23207938         109.67013     0.00037987957        -75.896376
                  0.00028843615        -35.406553        0.15795803         95.613636     0.00036239824        -74.646277        0.22814659         107.87272

0.775       0.11966662         56.369843     0.00046569662        -142.91738        0.07971776         45.779686     0.00039357226        -144.22012
