! Created Thu Mar  2 12:55:36 2023
# ghz S ma R 45
! 4 Port Network Data from SP1.SP block
! freq  magS11  angS11  magS12  angS12  magS13  angS13  magS14  angS14  
!       magS21  angS21  magS22  angS22  magS23  angS23  magS24  angS24  
!       magS31  angS31  magS32  angS32  magS33  angS33  magS34  angS34  
!       magS41  angS41  magS42  angS42  magS43  angS43  magS44  angS44  
!     
0      0.073258384    -2.7198824e-13     3.9500694e-05              -180      0.0041820148    -4.0566384e-12     1.7301241e-05               180
                   3.274517e-05               180       0.075529126     7.2649114e-13     1.2382178e-05              -180      0.0044724542    -1.6920852e-12
                   0.0050268164     1.2448959e-11     1.3328697e-06    -2.3487871e-10       0.073821936    -2.4552246e-14     3.4153397e-06    -1.9762964e-11
                  1.0901887e-05    -3.2470727e-11      0.0055396749     8.2287346e-12     3.3986066e-06              -180       0.073693302    -4.9188476e-13

0.025       0.15679507        -1.7625795     3.5821212e-05         88.007252       0.092208062         16.791726      1.923598e-05          83.58984
                  2.9416897e-05         84.536885        0.15745999        -2.1919883     1.8668865e-05         56.386557       0.092556175         16.465661
                    0.092632155         16.361669     1.7223432e-05         -10.16736        0.15726434        -1.5565659     1.2269547e-05       -0.43528973
                  1.7996944e-05        -46.839425       0.093083241         15.933954     1.1358099e-05         34.285182        0.15755322        -1.9828054

0.05      0.098940525        -53.380226     4.5056587e-05         5.9548985       0.049375794        -45.596491     3.1647942e-05        -10.684176
                   3.858061e-05         2.8412711       0.096514256        -53.618698     4.0641967e-05        -29.663688       0.047518105        -45.889357
                    0.049996539        -46.341594     2.7021473e-05        -62.175077       0.099659757        -53.506665      2.988143e-05        -56.643913
                  1.6860093e-05        -102.11686       0.048282213        -46.819726     2.9308127e-05        -42.021071       0.097176711        -53.759634

0.075       0.11107931         35.250432     5.1122811e-05        -87.772713        0.10141865          45.56229     3.5290124e-05         -113.6142
                   4.628308e-05         -91.33992        0.11528563         34.229319     5.5658386e-05        -125.76992        0.10448129         44.520307
                     0.10066188         45.589778     4.5569835e-05         -138.9667        0.11099123         35.630045     4.4536269e-05         -147.4081
                  2.6518428e-05        -160.31436        0.10353995         44.530438     4.1196749e-05        -137.75506        0.11483138         34.576668

0.1       0.21758742        -20.795709     5.2442124e-05        -157.31203        0.17006959        -17.858883     3.0571361e-05        -170.13414
                  4.8617275e-05        -160.95091        0.21732772        -22.146637     5.2319773e-05          171.6348        0.16989913        -19.218545
                      0.1694339        -18.001128     4.7809654e-05         155.23778        0.21822656        -20.658324      3.683979e-05         151.72574
                  2.6007164e-05          135.3216        0.16909719        -19.397939     3.5142661e-05         163.77986        0.21788287        -21.987418

0.125       0.11671285        -74.543377     8.0245039e-05         125.38236        0.08339288        -79.489045     6.4314849e-05         119.16071
                    7.56671e-05         122.31503        0.11037059        -75.150119     9.5695213e-05         107.31378        0.07803944        -80.939093
                    0.082709046        -80.077598     7.7420948e-05         92.307462        0.11696666        -74.276678     7.1297448e-05         97.272506
                  4.2647303e-05          81.48534       0.077205707        -81.687893     7.1169411e-05         103.56127        0.11143023        -74.906401

0.15       0.12580543         3.0833453     7.9576184e-05         32.085905       0.094758171         9.7727286     7.3848309e-05         15.627023
                  7.5893572e-05         29.119211        0.13125765         1.3013616     0.00011497878         12.342317       0.098611159         7.8554889
                    0.095002359         10.389554     8.8588896e-05        0.95909452        0.12704026          2.825359     9.0232399e-05        -0.2272288
                  5.2051995e-05        -14.953726       0.098856113         8.5498217     8.6690514e-05         4.7083679        0.13137294        0.88779129

0.175        0.2313488         -50.98157     7.2066842e-05        -23.452342        0.16575595        -52.798667     5.1256808e-05        -48.852085
                  6.8957498e-05        -25.682653        0.22812562        -53.297239     9.3115478e-05        -52.857124         0.1630017        -55.216798
                     0.16573636        -52.556384      6.921313e-05        -54.814169        0.23244237         -51.13418     6.3832588e-05        -66.331903
                  3.1063497e-05        -70.494298        0.16289376        -54.918004     6.2189575e-05        -59.542192         0.2290454        -53.439627

0.2       0.15215276        -106.79141     0.00011738894        -93.755616        0.10525496        -115.71408     8.3887171e-05        -102.88219
                  0.00011406945        -95.705649        0.14255436         -108.8276     0.00013776457        -111.39709       0.097626922        -118.72212
                     0.10475368         -115.5164     0.00011811044         -112.6441        0.15194406        -106.48429      9.811419e-05        -115.03012
                  6.3181574e-05        -114.84525       0.096975552        -118.43364     9.8568813e-05        -111.40829        0.14395044        -108.58888

0.225      0.074545721         -59.94377     0.00012357314         175.61449       0.045646435        -58.859493     0.00010350132         164.81103
                  0.00012017111         173.39805       0.076926082         -60.48444     0.00016522532         161.73909       0.047354042        -59.190879
                    0.046017493        -58.516425     0.00013742535         157.26342        0.07640469        -59.752129     0.00012603121         156.47104
                   7.797663e-05         147.78948       0.047805519        -58.843542      0.0001230658          159.0993       0.077380461        -61.480683

0.25       0.16543633        -80.973451     0.00010811963         108.04451       0.088111711        -87.606847     8.9912802e-05         88.820719
                  0.00010442249         106.17593        0.15832307        -84.072927     0.00015143318         88.533633       0.082021505        -91.325171
                    0.089272768        -87.399837     0.00011677064         88.275244        0.16709552        -81.908129     0.00011260817         81.570678
                  5.7157902e-05         76.496377       0.083308008        -91.064092     0.00010897952         84.849054        0.15946383        -85.034206

0.275       0.10705038        -134.67336     0.00014776324         40.200456        0.03583485        -150.11604     0.00011129438         24.458661
                  0.00014385872          38.90153        0.09692001        -136.91188      0.0001857748         22.834131       0.027572578        -154.11963
                    0.036805921        -149.52451      0.0001575982         26.674636        0.10603193        -134.88117     0.00013747357         18.564971
                  8.3088886e-05         23.691153       0.028639399        -153.09323     0.00013491515         21.270963        0.09784624        -137.52531

0.3       0.03703007        -80.142741     0.00016104326          -43.0367       0.035370346         -52.94252     0.00012538067        -56.779271
                  0.00015726906        -44.356035       0.036653523        -81.031252     0.00020787982        -56.493456       0.035275123        -55.902467
                    0.035054444        -54.007453     0.00018218216        -54.868872       0.040576607        -79.903489     0.00015678501         -60.45607
                  0.00010073422         -61.12863       0.034925129        -57.254517     0.00015272151        -58.383385       0.037906706        -83.151943

0.325      0.077360313        -103.41673     0.00015909662        -113.16537       0.030150022         -116.0352     0.00012583983        -128.16403
                  0.00015527958        -114.16211       0.068590594        -104.91779     0.00021001603         -127.6002       0.022147129        -118.55101
                    0.030374567        -117.40473     0.00018073497        -125.29679       0.078177194        -105.81343     0.00015946974        -131.14849
                  9.6401679e-05         -131.1991       0.022351512        -120.82839      0.0001548841        -128.88557       0.068979657        -107.56931

0.35      0.036889191        -94.725768     0.00018380341         171.63215       0.042754203        -19.588443     0.00014491717         155.68119
                  0.00018032256         170.75819       0.037774221        -87.677524       0.000237564         158.14491       0.048584215        -23.590081
                    0.041905498        -18.890626     0.00020897689         161.26898       0.035143599        -90.224259     0.00018305585         154.10398
                  0.00011674417         155.68431       0.047664349        -22.861213     0.00017847936          156.1417         0.0357326        -86.801568

0.375       0.10307312        -88.210722     0.00017073953         94.011911       0.098934608        -86.465364     0.00013153495         77.173535
                   0.0001671693         93.030494        0.10033271        -92.991317     0.00022560562         81.736542       0.096108561        -92.104205
                    0.097876408        -86.316898     0.00020057665          84.12108        0.10740238        -87.840882     0.00017108865         77.121657
                    0.000108299         75.185123       0.094925856        -91.941272     0.00016617819         78.939334        0.10201137        -92.712027

0.4       0.10029503        -137.71171     0.00017513159         31.300529       0.071119816        -152.63383     0.00013484693         16.644971
                  0.00017098531         30.804296       0.091920164        -142.46895     0.00023189246         17.996166       0.064147838        -159.25708
                    0.069998284        -152.73343     0.00020332071         20.478651        0.10072446        -138.53998     0.00017688962         15.026107
                  0.00010567091         15.932621       0.062890103        -159.39339     0.00017215282         17.038215       0.092926671        -143.38641

0.425      0.062651586        -109.23507     0.00020297409        -47.220148        0.04888111        -82.907355     0.00016501927        -65.374004
                  0.00019944762        -47.520448       0.063026457         -111.5898     0.00026989627        -60.093804       0.050564619        -87.351153
                    0.049371327        -82.082265     0.00023455144        -56.552587        0.06398636        -107.36854     0.00020964065        -65.066236
                   0.0001299509        -63.457429        0.05113192        -86.497997     0.00020445505        -63.252585        0.06266046        -112.64388

0.45       0.18328516        -118.15071     0.00017192044        -125.15097         0.1251979        -127.21073     0.00013047602        -150.25748
                  0.00016924099         -125.5172        0.18040693        -125.01947     0.00023198047        -139.80173         0.1222666        -134.80908
                     0.12557488        -126.88784     0.00020300687        -134.43982        0.18993005        -118.21554     0.00017030173        -146.59434
                  0.00010420026        -145.79119        0.12265553        -134.43751     0.00016602837        -144.82506        0.18417126         -125.0505

0.475       0.19402003        -177.72493     0.00017915304        -176.80734        0.12075513         167.81748     0.00011509337         168.29589
                   0.0001763666          -176.997        0.18871755         174.24461      0.0002208978         168.23536        0.11717263         159.18877
                     0.12048404         168.09759     0.00020460545         173.54528        0.19485926        -177.97703     0.00015917544         167.96643
                  0.00010160698           173.142        0.11685575         159.52702     0.00015675164         169.60802        0.19070402         174.03969

0.5      0.055715851         133.35719     0.00025472502         105.52871       0.035846801         111.72331     0.00019633783         93.473981
                  0.00025114538          105.3695       0.051516641         124.43285     0.00032022722         95.050163       0.034244199         102.81237
                    0.034978828         112.90365     0.00029073326         97.989306       0.050184438         137.50729     0.00025280278         93.570367
                  0.00016612147         94.693729       0.033340535         104.25895     0.00024782515         94.540026       0.050011647         126.26691

0.525        0.1484978        -151.07698     0.00020950794         21.110614       0.080511761        -169.93938     0.00016702104       -0.91330771
                  0.00020614866         21.149728        0.14959385        -159.74614     0.00028452562          8.135409       0.080731496         -179.3594
                    0.081935522         -169.9492     0.00024421327         13.191933        0.15659171        -151.98352     0.00021816724         2.8704954
                  0.00012576763         2.8688616       0.082223842        -179.41198     0.00021200472         3.9785618        0.15347487        -160.48229

0.55       0.21746455         146.54348      0.0002051237        -27.149612        0.10909983          129.0143     0.00012552696        -47.324538
                  0.00020297732        -26.867296        0.21542045         137.51945     0.00024172343        -44.241086        0.10846572         119.27573
                     0.11029942         129.00497     0.00022714594        -33.810712        0.21788824         146.35689     0.00017412307        -45.992876
                   0.0001126124        -30.563993        0.10970234          119.2661     0.00017095824        -44.454981         0.2179912         136.28844

0.575       0.11366274          83.31524     0.00030847809        -103.64651       0.047329844           68.8144     0.00021380488        -115.54993
                  0.00030609469          -103.616        0.10792591         73.683453     0.00035667602        -113.63496       0.044067786          59.61402
                    0.048025833         69.106838     0.00034868055        -107.96849        0.10765682         83.822179     0.00027615366        -114.13567
                  0.00020527543         -108.9575       0.044823275         59.993868     0.00027179541        -113.43118        0.10740417         73.674131

0.6       0.06054903         174.51585     0.00028861494         169.62554       0.045348686         159.00478     0.00021302713         154.33806
                  0.00028541607         169.69923       0.067384194         164.55898     0.00035875924         160.81044       0.050522831         149.21913
                    0.045524624         158.12226     0.00033705141         165.42773       0.065473798         172.78842     0.00027891832         158.72581
                  0.00018827731         159.01547        0.05063323          148.2989     0.00027176253         159.28878        0.06941126         161.61151

0.625       0.11375145         115.93714     0.00028380093         108.36293       0.054370549          95.91196     0.00020037646         92.632424
                  0.00028168693          108.7296        0.11324937         105.21831     0.00034404726         96.603689       0.054130436         85.938985
                    0.055014948         94.936715      0.0003273352         103.45827        0.11062762         114.26721     0.00026839627          95.20843
                  0.00018028914         102.77383       0.054690438         84.858461     0.00026218276         96.264956        0.11254761         103.22253

0.65      0.025287121         90.416593     0.00034897501         29.020656       0.024310419        -167.41262     0.00025341765         13.655648
                  0.00034721127         29.211959       0.022025054         108.36129     0.00041433038         20.065438       0.033841532        -176.52341
                    0.023192664        -165.94718     0.00040432555         25.717647       0.020753462         102.94647       0.000327404         17.537467
                  0.00024033733         21.588856         0.0327657        -175.29673     0.00032108768          18.27986       0.021064116         110.24095

0.675      0.090093298         141.26113     0.00029945111        -47.077244       0.089623867         133.03098     0.00021329582        -63.624696
                  0.00029692988        -46.813235        0.10169214         129.49189     0.00036943472        -55.844028       0.098474895         121.98017
                    0.088537493         133.26977     0.00035640013        -50.787435       0.090516589         140.00652     0.00028699994        -58.239685
                  0.00019719692        -56.356455       0.097352691         122.23653     0.00028038779        -57.445288        0.09992338         127.90544

0.7      0.045483242           97.5405     0.00035298425        -112.43703       0.043034549         83.602859     0.00025973819        -127.66035
                  0.00035144292        -111.91803       0.041349153         90.968061      0.0004259755        -122.06829       0.039305451         77.748896
                    0.042025275         83.938579     0.00041192021        -116.53318        0.03582898         99.659713     0.00034069733        -124.57314
                   0.0002438224        -119.05019       0.038286262          78.44602     0.00033516129        -123.70703       0.035352292          91.14076

0.725       0.14074081         169.56719      0.0003455632         157.97841         0.1039237         150.97777     0.00025621384          137.4197
                  0.00034510407         158.33091        0.16067974         157.22185     0.00042092871          149.5008        0.12002922          140.1186
                     0.10439075          151.4163     0.00040838704         155.26366        0.15078303         169.98264     0.00032818439         144.55004
                  0.00024168402          146.3042        0.12060314         140.47337     0.00032315254         145.04287        0.16477147         157.07579

0.75       0.23187754         110.65142     0.00024072286         97.154398        0.16205647          96.76018     0.00014908614         78.083127
                  0.00023975018         97.447912        0.24270478         98.651402     0.00029344556         87.249291         0.1691908         85.692597
                     0.16195732          96.99233     0.00029150978         92.885956        0.23207938         109.67013     0.00021697897         86.116633
                  0.00014898719         87.196323         0.1691544         85.921238     0.00021307857         86.535674        0.24155717          97.61392

0.775       0.11966662         56.369843     0.00036273625         38.433257        0.07971776         45.779686     0.00026598713         26.395928
