!$
! Info: Touchstone file created by Circ.  Input file=Intel_C2M_200G_9p0in_202208016_staggered.circ
!$
# Hz S RI R 50
0	0.02396916	4.855182e-24	0.9758318	-8.258328e-24	0.0001327667	3.242262e-22	-0.000263059	3.221544e-20
	0.9758318	-8.255023e-24	0.02452168	8.727242e-24	-0.000263115	3.22223e-20	0.0003554358	8.38768e-22
	0.0001328237	3.243503e-22	-0.0002632508	3.223893e-20	0.02396713	4.593601e-24	0.9758321	-8.428856e-24
	-0.0002631948	3.223207e-20	0.0003555024	8.393599e-22	0.9758321	-8.432167e-24	0.02452311	8.936425e-24
1e+07	0.02922912	-0.004981556	0.9611688	-0.1322066	0.002239774	0.007352236	-0.001124713	-0.0002507521
	0.9611688	-0.1322066	0.02890928	-0.004587124	-0.00112475	-0.0002506448	0.002017182	0.007416584
	0.002239774	0.007352236	-0.00112475	-0.0002506448	0.0290443	-0.004950186	0.9613591	-0.1322135
	-0.001124713	-0.0002507521	0.002017182	0.007416584	0.9613591	-0.1322135	0.02872369	-0.004554515
2e+07	0.03190459	-0.01506564	0.9302289	-0.256436	0.005483306	0.01344867	-0.001151908	3.381086e-05
	0.9302289	-0.256436	0.03083394	-0.01391699	-0.00115186	3.393514e-05	0.004614049	0.01383742
	0.005483314	0.01344866	-0.001151869	3.382573e-05	0.031771	-0.01493795	0.9303839	-0.2565218
	-0.001151916	3.370761e-05	0.004614134	0.01383731	0.9303839	-0.2565218	0.03069133	-0.01378213
3e+07	0.03097893	-0.02698662	0.8850664	-0.373358	0.01026892	0.01848852	-0.0009519886	0.00020517
	0.8850664	-0.373358	0.02832608	-0.02480231	-0.0009520406	0.0002054793	0.008545216	0.01939347
	0.0102689	0.01848856	-0.000952081	0.0002054876	0.03089155	-0.02680432	0.8851888	-0.373482
	-0.000952001	0.0002051673	0.008545192	0.01939344	0.8851888	-0.373482	0.02823651	-0.02461505
4e+07	0.02680284	-0.03885257	0.8261227	-0.4824282	0.01628071	0.02194695	-0.000617323	0.0001857753
	0.8261227	-0.4824282	0.02241471	-0.03474532	-0.0006174326	0.0001864182	0.01347846	0.02386061
	0.01628071	0.02194697	-0.0006174358	0.0001864229	0.02676846	-0.03863826	0.8262123	-0.4825794
	-0.000617321	0.0001857885	0.01347846	0.02386062	0.8262123	-0.4825794	0.02237648	-0.03452412
5e+07	0.01988698	-0.04966442	0.7543876	-0.5822613	0.02304118	0.02359815	-0.0002612342	-7.414651e-05
	0.7543876	-0.5822613	0.01378493	-0.04282003	-0.0002613651	-7.310446e-05	0.019132	0.02702866
	0.02304119	0.02359816	-0.0002613621	-7.310603e-05	0.01990529	-0.04943521	0.7544436	-0.5824335
	-0.0002612313	-7.414851e-05	0.019132	0.02702867	0.7544436	-0.5824335	0.01379703	-0.04257942
6e+07	0.01073887	-0.05878719	0.6711425	-0.6714814	0.03004718	0.023309	-6.8498e-06	-0.0005795018
	0.6711425	-0.6714814	0.00317829	-0.04831972	-6.924604e-06	-0.0005778691	0.02515635	0.02879649
	0.03004719	0.02330898	-6.92386e-06	-0.0005778708	0.01080683	-0.05855778	0.6711629	-0.6716691
	-6.848516e-06	-0.000579503	0.02515635	0.02879649	0.6711629	-0.6716691	0.00323759	-0.04807215
7e+07	-8.253733e-05	-0.06575624	0.5778678	-0.7488638	0.03677593	0.02108303	2.856691e-05	-0.001282296
	0.5778678	-0.7488638	-0.008549288	-0.05081025	2.878613e-05	-0.001280003	0.03119783	0.02915908
	0.03677592	0.02108303	2.881342e-05	-0.001280066	2.934146e-05	-0.06554005	0.577849	-0.7490608
	2.85685e-05	-0.001282299	0.03119783	0.02915907	0.577849	-0.7490608	-0.008448739	-0.05056613
8e+07	-0.01195821	-0.07027917	0.4761834	-0.8133842	0.04272744	0.01705794	-0.000244943	-0.002088533
	0.4761834	-0.8133842	-0.02050969	-0.05012633	-0.0002441553	-0.002085555	0.03692202	0.02819982
	0.04272745	0.01705794	-0.0002441552	-0.002085553	-0.01181068	-0.07008786	0.4761242	-0.8135846
	-0.0002449434	-0.00208853	0.03692202	0.02819982	0.4761242	-0.8135846	-0.02037618	-0.04989375
9e+07	-0.02424716	-0.07223724	0.3677965	-0.8642416	0.04745754	0.0114917	-0.0008752941	-0.002872816
	0.3677965	-0.8642416	-0.03183881	-0.04633972	-0.0008735714	-0.002869174	0.04203651	0.02607975
	0.04745755	0.01149171	-0.0008735665	-0.002869167	-0.02407543	-0.07208008	0.3676948	-0.8644364
	-0.0008752912	-0.002872807	0.04203651	0.02607974	0.3676948	-0.8644364	-0.03168184	-0.04612285
1e+08	-0.03628081	-0.0716478	0.2543847	-0.9008816	0.05060559	0.004739396	-0.001863502	-0.003494976
	0.2543847	-0.9008816	-0.04168782	-0.03971447	-0.001860468	-0.003490692	0.0463109	0.02301747
	0.05060559	0.004739395	-0.001860468	-0.003490693	-0.03609927	-0.07153113	0.2542427	-0.9010629
	-0.001863502	-0.003494977	0.0463109	0.02301747	0.2542427	-0.9010629	-0.04151803	-0.03951471
1.1e+08	-0.04758163	-0.06901302	0.1378593	-0.9224598	0.05188875	-0.0027815	-0.003135546	-0.003810236
	0.1378593	-0.9224598	-0.04944598	-0.03104108	-0.003128898	-0.003806011	0.04954695	0.01926831
	0.05188874	-0.002781501	-0.003128898	-0.003806012	-0.04740206	-0.0689937	0.1376774	-0.9226243
	-0.003135546	-0.003810237	0.04954695	0.01926831	0.1376774	-0.9226243	-0.04927299	-0.03083699
1.2e+08	-0.05790123	-0.06433267	0.02040885	-0.9292219	0.05116414	-0.01051745	-0.004593019	-0.00374676
	0.02040885	-0.9292219	-0.0548636	-0.02063126	-0.004584139	-0.003744226	0.05165889	0.01515836
	0.05116414	-0.01051745	-0.00458414	-0.003744227	-0.05777361	-0.06435774	0.02018835	-0.9293591
	-0.00459302	-0.003746761	0.05165889	0.01515836	0.02018835	-0.9293591	-0.0546857	-0.02042879
1.3e+08	-0.06677944	-0.05792692	-0.09628177	-0.9213435	0.04843569	-0.01797644	-0.006115976	-0.003234698
	-0.09628177	-0.9213435	-0.05749193	-0.009111811	-0.006105932	-0.003234262	0.05264174	0.01098248
	0.04843569	-0.01797644	-0.006105933	-0.003234262	-0.06670299	-0.0579629	-0.09653605	-0.9214473
	-0.006115977	-0.003234699	0.05264174	0.01098248	-0.09653605	-0.9214473	-0.05731385	-0.00891105
1.4e+08	-0.07392481	-0.05020324	-0.2104993	-0.8991493	0.04381791	-0.02467388	-0.007561232	-0.002252842
	-0.2104993	-0.8991493	-0.05712771	0.002793736	-0.007550312	-0.002254316	0.05255512	0.007022901
	0.04381791	-0.02467388	-0.007550313	-0.002254316	-0.07389175	-0.05023978	-0.2107809	-0.8992114
	-0.007561233	-0.002252842	0.05255512	0.007022901	-0.2107809	-0.8992114	-0.05695355	0.002997787
1.5e+08	-0.0791625	-0.04160408	-0.3205857	-0.8631373	0.03753434	-0.03016318	-0.008783681	-0.0008291483
	-0.3205857	-0.8631373	-0.05376531	0.0143405	-0.008772093	-0.0008329801	0.0515209	0.003533108
	0.03753433	-0.03016318	-0.008772093	-0.0008329802	-0.07917158	-0.04163924	-0.3208867	-0.8631522
	-0.008783682	-0.0008291486	0.0515209	0.003533108	-0.3208867	-0.8631522	-0.05359658	0.01455575
1.6e+08	-0.08242849	-0.03258052	-0.4249539	-0.8139731	0.02990713	-0.03406022	-0.009653845	0.0009619374
	-0.4249539	-0.8139731	-0.04758597	0.02481176	-0.00964198	0.0009552011	0.04971404	0.0007267066
	0.02990713	-0.03406022	-0.009641981	0.000955201	-0.08248465	-0.03261231	-0.425267	-0.8139364
	-0.009653846	0.0009619374	0.04971404	0.0007267071	-0.425267	-0.8139364	-0.04742055	0.02504746
1.7e+08	-0.08376362	-0.02356839	-0.522107	-0.7524871	0.02134086	-0.03606401	-0.01007265	0.003008064
	-0.522107	-0.7524871	-0.03894077	0.03356373	-0.0100612	0.002997988	0.04735176	-0.001233071
	0.02134085	-0.03606401	-0.0100612	0.002997988	-0.08387447	-0.02359049	-0.5224226	-0.7523958
	-0.01007265	0.003008064	0.04735176	-0.001233071	-0.5224226	-0.7523958	-0.03877272	0.03382828
1.8e+08	-0.08330376	-0.01496491	-0.6106476	-0.6796655	0.01230274	-0.0359733	-0.009982074	0.005171868
	-0.6106476	-0.6796655	-0.02832483	0.04006329	-0.009972148	0.005158176	0.04468217	-0.002239967
	0.01230274	-0.0359733	-0.009972148	0.005158176	-0.08347622	-0.01496602	-0.6109551	-0.6795184
	-0.009982074	0.005171868	0.04468217	-0.002239967	-0.6109551	-0.6795184	-0.02814556	0.04036309
1.9e+08	-0.08126565	-0.007109198	-0.6892901	-0.5966454	0.003299378	-0.03369935	-0.009370357	0.007306615
	-0.6892901	-0.5966454	-0.01634585	0.04391776	-0.009363246	0.007289486	0.04197112	-0.002249845
	0.003299378	-0.03369935	-0.009363246	0.007289486	-0.08150317	-0.007073829	-0.6895796	-0.5964461
	-0.009370357	0.007306615	0.04197112	-0.002249845	-0.6895796	-0.5964461	-0.01614435	0.04425683
2e+08	-0.07792747	-0.0002649889	-0.7568813	-0.5047086	-0.005149119	-0.02927298	-0.008271899	0.009272099
	-0.7568813	-0.5047086	-0.003683906	0.04489844	-0.008269136	0.009252223	0.03948764	-0.00128435
	-0.005149119	-0.02927298	-0.008269136	0.009252224	-0.07822899	-0.0001763603	-0.7571428	-0.5044586
	-0.008271899	0.0092721	0.03948764	-0.001284349	-0.7571428	-0.5044586	-0.003448025	0.04527702
2.1e+08	-0.07360647	0.005388079	-0.8124178	-0.4052711	-0.0125365	-0.02284656	-0.006761766	0.0109498
	-0.8124178	-0.4052711	0.008949012	0.04295169	-0.006764248	0.01092853	0.03749008	0.0005695054
	-0.0125365	-0.02284656	-0.006764248	0.01092853	-0.07396555	0.005548105	-0.8126425	-0.404977
	-0.006761766	0.0109498	0.03749008	0.0005695055	-0.8126425	-0.404977	0.009232396	0.04336697
2.2e+08	-0.06863535	0.009761056	-0.8550637	-0.299871	-0.01839822	-0.01468959	-0.004944072	0.01225446
	-0.8550637	-0.299871	0.02085566	0.03820134	-0.004952563	0.01223343	0.03620934	0.003162114
	-0.01839822	-0.01468959	-0.004952563	0.01223343	-0.0690399	0.01000885	-0.8552448	-0.2995401
	-0.004944073	0.01225446	0.03620934	0.003162114	-0.8552448	-0.2995401	0.02119876	0.03864719
2.3e+08	-0.06333697	0.01285223	-0.8841709	-0.1901528	-0.02233886	-0.00517809	-0.002939358	0.01314105
	-0.8841709	-0.1901528	0.03139566	0.03093931	-0.002953715	0.01312229	0.03583437	0.006288226
	-0.02233886	-0.00517809	-0.002953715	0.01312229	-0.06377067	0.01320097	-0.8843042	-0.1897922
	-0.002939358	0.01314105	0.03583437	0.006288226	-0.8843042	-0.1897922	0.0318098	0.03140617
2.4e+08	-0.05800185	0.01473817	-0.8993032	-0.07784064	-0.02405628	0.005222751	-0.0008677965	0.01360674
	-0.8993032	-0.07784064	0.04002766	0.0216056	-0.000887565	0.01359214	0.03649832	0.009698444
	-0.02405628	0.005222752	-0.0008875651	0.01359214	-0.05844445	0.01519725	-0.8993865	-0.07745971
	-0.0008677966	0.01360674	0.03649832	0.009698444	-0.8993865	-0.07745971	0.04052175	0.02208094
2.5e+08	-0.05286894	0.01555882	-0.9002471	0.03528468	-0.02336211	0.01598202	0.001164197	0.01368624
	-0.9002471	0.03528468	0.04634258	0.01075749	0.001140307	0.0136775	0.03826744	0.01311378
	-0.02336211	0.01598202	0.001140307	0.0136775	-0.05329815	0.01613223	-0.9002775	0.03567963
	0.001164197	0.01368624	0.03826744	0.01311378	-0.9002775	0.03567963	0.04692264	0.01122594
2.6e+08	-0.04811263	0.01549716	-0.8870219	0.1474248	-0.02019658	0.02653136	0.00307613	0.0134432
	-0.8870219	0.1474248	0.05008855	-0.0009687844	0.003050259	0.01344157	0.04113445	0.01624397
	-0.02019658	0.02653136	0.003050258	0.01344157	-0.0485048	0.01618376	-0.8869993	0.1478247
	0.00307613	0.0134432	0.04113445	0.01624397	-0.8869993	0.1478247	0.05075671	-0.0005241736
2.7e+08	-0.04383588	0.01475674	-0.8598849	0.2567936	-0.01463457	0.03629624	0.004821301	0.0129572
	-0.8598849	0.2567936	0.05118567	-0.01290173	0.004795522	0.01296335	0.04501721	0.01880783
	-0.01463457	0.03629625	0.004795522	0.01296335	-0.04416768	0.01554971	-0.859811	0.2571932
	0.004821301	0.0129572	0.04501721	0.01880783	-0.859811	0.2571932	0.05194032	-0.01249852
2.8e+08	-0.0400705	0.01353802	-0.8193298	0.3616568	-0.006885302	0.04472911	0.006388284	0.01230968
	-0.8193298	0.3616568	0.04972768	-0.02437999	0.006365326	0.01232337	0.0497631	0.02055236
	-0.006885302	0.04472911	0.006365326	0.01232337	-0.04032047	0.01442492	-0.8192059	0.3620506
	0.006388284	0.01230968	0.0497631	0.02055236	-0.8192059	0.3620506	0.05056265	-0.02403522
2.9e+08	-0.03678604	0.01201705	-0.7660737	0.4603657	0.002717216	0.05134076	0.007798282	0.01157
	-0.7660737	0.4603657	0.04597116	-0.03479629	0.007780423	0.01159041	0.05515876	0.02127151
	0.002717216	0.05134076	0.007780423	0.01159041	-0.03693519	0.01298072	-0.765901	0.4607491
	0.007798282	0.01157	0.05515876	0.02127151	-0.765901	0.4607491	0.04687629	-0.03452578
3e+08	-0.03390338	0.0103279	-0.7010383	0.5513893	0.0137313	0.05572834	0.009095518	0.01078498
	-0.7010383	0.5513893	0.04031514	-0.04363768	0.009084875	0.01081036	0.06094532	0.02081974
	0.0137313	0.05572834	0.009084875	0.01081036	-0.03393668	0.01134701	-0.700817	0.5517577
	0.009095518	0.01078498	0.06094532	0.02081974	-0.700817	0.5517577	0.04127639	-0.04345446
3.1e+08	-0.03131359	0.00855127	-0.6253294	0.6333423	0.0256306	0.05759897	0.01033657	0.00997145
	-0.6253294	0.6333423	0.03326997	-0.05051667	0.01033466	0.009999027	0.06683672	0.0191226
	0.0256306	0.05759897	0.01033466	0.009999027	-0.03122028	0.009601099	-0.6250603	0.6336893
	0.01033657	0.00997145	0.06683672	0.0191226	-0.6250603	0.6336893	0.03427007	-0.05043013
3.2e+08	-0.02889822	0.006709385	-0.5402109	0.7050009	0.03783192	0.05678606	0.01157672	0.009114417
	-0.5402109	0.7050009	0.02541996	-0.05519351	0.01158415	0.009141268	0.07253889	0.01617913
	0.03783192	0.05678606	0.01158415	0.009141268	-0.02867363	0.007762503	-0.5398941	0.7053244
	0.01157672	0.009114417	0.07253889	0.01617913	-0.5398941	0.7053244	0.02644004	-0.05520887
3.3e+08	-0.02655099	0.004768096	-0.4470735	0.7653238	0.04972564	0.05325842	0.01285715	0.008170295
	-0.4470735	0.7653238	0.01738322	-0.05758813	0.01287329	0.008193844	0.07776912	0.01206069
	0.04972564	0.05325842	0.01287329	0.008193844	-0.0261959	0.005795934	-0.4467106	0.7656173
	0.01285715	0.008170295	0.07776912	0.01206069	-0.4467106	0.7656173	0.01840363	-0.05770555
3.4e+08	-0.02419617	0.002644992	-0.3474153	0.8134566	0.06070731	0.04712319	0.01419402	0.00707582
	-0.3474153	0.8134566	0.009770212	-0.05778062	0.01421762	0.007092712	0.08227446	0.006904288
	0.06070731	0.04712319	0.01421762	0.007092712	-0.0237179	0.003619316	-0.3470056	0.8137166
	0.01419402	0.00707582	0.08227446	0.006904288	-0.3470056	0.8137166	0.01077161	-0.05799538
3.5e+08	-0.02180366	0.000223709	-0.2428066	0.8487424	0.07020761	0.03862025	0.01557251	0.005757823
	-0.2428066	0.8487424	0.00314413	-0.0560022	0.01560113	0.005765696	0.08584505	0.0009007779
	0.07020761	0.03862025	0.01560113	0.005765696	-0.0212152	0.001117349	-0.2423534	0.8489581
	0.01557251	0.005757823	0.08584505	0.0009007779	-0.2423534	0.8489581	0.004109145	-0.05630526
3.6e+08	-0.01939853	-0.002629052	-0.1348757	0.8707157	0.07772117	0.02811195	0.01694411	0.004146967
	-0.1348757	0.8707157	-0.002013821	-0.05261738	0.01697472	0.004144657	0.08832528	-0.005717553
	0.07772117	0.02811195	0.01697472	0.004144657	-0.01871928	-0.00184045	-0.1343814	0.8708804
	0.01694411	0.004146967	0.08832528	-0.005717553	-0.1343814	0.8708804	-0.001099526	-0.05299504
3.7e+08	-0.01706558	-0.006043411	-0.02528025	0.8791082	0.0828318	0.0160657	0.01822956	0.002190746
	-0.02528025	0.8791082	-0.00533354	-0.04809752	0.01825861	0.002177567	0.08962034	-0.01269265
	0.0828318	0.0160657	0.01825861	0.002177567	-0.01632019	-0.005380215	-0.02474831	0.8792147
	0.01822956	0.002190746	0.08962034	-0.01269265	-0.02474831	0.8792147	-0.004480396	-0.04853334
3.8e+08	-0.01494669	-0.01012717	0.08430837	0.8738471	0.08523285	0.003033001	0.01932591	-0.0001368965
	0.08430837	0.8738471	-0.006577745	-0.04299005	0.01934993	-0.0001594782	0.08969866	-0.01975581
	0.08523285	0.003033001	0.01934993	-0.0001594782	-0.01416432	-0.00960487	0.08487024	0.8738852
	0.01932591	-0.0001368964	0.08969866	-0.01975581	0.08487024	0.8738852	-0.005791369	-0.0434659
3.9e+08	-0.01323442	-0.0149473	0.1922201	0.8550525	0.08474449	-0.01037556	0.02011756	-0.002825032
	0.1922201	0.8550525	-0.005656353	-0.03788418	0.02013312	-0.002855898	0.08859185	-0.02664233
	0.08474449	-0.01037556	0.02013312	-0.002855898	-0.01244791	-0.01457442	0.1928042	0.8550174
	0.02011756	-0.002825032	0.08859185	-0.02664233	0.1928042	0.8550174	-0.004937373	-0.0383801
4e+08	-0.01215828	-0.02051299	0.2968097	0.823041	0.08132381	-0.0235194	0.02048841	-0.005825335
	0.2968097	0.823041	-0.00263086	-0.03337218	0.02049336	-0.005861022	0.08639041	-0.0331054
	0.08132381	-0.0235194	0.02049336	-0.005861022	-0.01140215	-0.02029161	0.2974063	0.8229232
	0.02048841	-0.005825335	0.08639041	-0.0331054	0.2974063	0.8229232	-0.001974299	-0.03386984
4.1e+08	-0.0119676	-0.02676403	0.396478	0.7783173	0.07506997	-0.03575754	0.02033598	-0.009051024
	0.396478	0.7783173	0.002289735	-0.03001347	0.02032903	-0.009087642	0.08323794	-0.03892825
	0.07506997	-0.03575754	0.02032903	-0.009087642	-0.01127748	-0.02668872	0.3970757	0.7781124
	0.02033598	-0.009051024	0.08323794	-0.03892825	0.3970757	0.7781124	0.002893553	-0.030496
4.2e+08	-0.01291352	-0.03356378	0.4896834	0.7215838	0.06622288	-0.0464807	0.01958409	-0.01238256
	0.4896834	0.7215838	0.008759869	-0.02829845	0.019565	-0.01241627	0.07932288	-0.04393592
	0.06622288	-0.0464807	0.019565	-0.01241627	-0.01232396	-0.03362118	0.4902669	0.7212889
	0.01958409	-0.01238256	0.07932288	-0.04393592	0.4902669	0.7212889	0.009325006	-0.02875234
4.3e+08	-0.01522445	-0.04069646	0.5749745	0.6537276	0.05515371	-0.05514205	0.01819137	-0.01567877
	0.5749745	0.6537276	0.01631985	-0.02861719	0.0181619	-0.01570557	0.07486777	-0.04800274
	0.05515371	-0.05514205	0.0181619	-0.01570557	-0.0147671	-0.04086577	0.5755295	0.6533417
	0.01819137	-0.01567877	0.07486777	-0.04800274	0.5755295	0.6533417	0.01686355	-0.02903324
4.4e+08	-0.01908451	-0.04787179	0.6510101	0.5758186	0.04234982	-0.0612859	0.0161588	-0.01878779
	0.6510101	0.5758186	0.02442282	-0.0312332	0.0161213	-0.01880444	0.07011718	-0.05106056
	0.04234982	-0.0612859	0.0161213	-0.01880444	-0.01878698	-0.04812499	0.6515205	0.5753445
	0.0161588	-0.01878779	0.07011718	-0.05106056	0.6515205	0.5753445	0.02496495	-0.03160729
4.5e+08	-0.02461227	-0.05473388	0.7165842	0.4891015	0.02839213	-0.06457348	0.01353017	-0.02156181
	0.7165842	0.4891015	0.03246866	-0.03626473	0.01348837	-0.02156612	0.06532457	-0.0531022
	0.02839213	-0.06457348	0.01348837	-0.02156612	-0.02449606	-0.05503684	0.7170348	0.4885445
	0.01353017	-0.02156181	0.06532457	-0.0531022	0.7170348	0.4885445	0.03302991	-0.03659836
4.6e+08	-0.03184031	-0.06087797	0.770657	0.3949759	0.01392643	-0.06480209	0.01038832	-0.02387049
	0.770657	0.3949759	0.03984292	-0.04367549	0.01034689	-0.02386151	0.06073661	-0.05418323
	0.01392643	-0.06480209	0.01034689	-0.02386151	-0.03191914	-0.06119215	0.7710333	0.394343
	0.01038832	-0.02387049	0.06073661	-0.05418323	0.7710333	0.394343	0.04044334	-0.04397611
4.7e+08	-0.04069817	-0.06587219	0.8123828	0.2949741	-0.0003694583	-0.06191785	0.006848654	-0.02561195
	0.8123828	0.2949741	0.04595717	-0.0532744	0.006811746	-0.02559041	0.05657795	-0.05441856
	-0.0003694583	-0.06191785	0.006811746	-0.02559041	-0.04097813	-0.06615527	0.8126696	0.2942774
	0.006848654	-0.02561195	0.05657795	-0.05441856	0.8126696	0.2942774	0.04661447	-0.05355506
4.8e+08	-0.05100545	-0.06928326	0.8411193	0.1907352	-0.01382048	-0.05601933	0.003045555	-0.02672138
	0.8411193	0.1907352	0.05028607	-0.06472826	0.003017658	-0.0266893	0.05303681	-0.05397679
	-0.01382048	-0.05601933	0.003017658	-0.0266893	-0.05148225	-0.06949174	0.841308	0.1899895
	0.003045555	-0.02672138	0.05303681	-0.05397679	0.841308	0.1899895	0.05101503	-0.06500637
4.9e+08	-0.06246521	-0.07070496	0.8564599	0.08397781	-0.02579061	-0.04735324	-0.000877999	-0.02717358
	0.8564599	0.08397781	0.05240374	-0.07757965	-0.0008942146	-0.02713455	0.05025146	-0.05306949
	-0.02579061	-0.04735324	-0.0008942146	-0.02713455	-0.06312555	-0.07079663	0.8565416	0.08319619
	-0.000877999	-0.02717358	0.05025146	-0.05306949	0.8565416	0.08319619	0.05321392	-0.07787771
5e+08	-0.07466925	-0.06979169	0.8582388	-0.02355328	-0.03571482	-0.03629999	-0.004786456	-0.02698166
	0.8582388	-0.02355328	0.0520123	-0.09128075	-0.004788792	-0.02694026	0.04829993	-0.05193658
	-0.03571482	-0.03629999	-0.004788792	-0.02694026	-0.07549051	-0.0697267	0.8582063	-0.02435022
	-0.004786456	-0.02698166	0.04829993	-0.05193658	0.8582063	-0.02435022	0.05290723	-0.09162282
5.1e+08	-0.08711236	-0.06628509	0.8465264	-0.1301072	-0.04312753	-0.0233539	-0.008559883	-0.02619187
	0.8465264	-0.1301072	0.04895912	-0.1052259	-0.00854823	-0.02615292	0.04719444	-0.05083044
	-0.04312753	-0.0233539	-0.00854823	-0.02615292	-0.08806289	-0.06602964	0.8463797	-0.1309027
	-0.008559883	-0.02619187	0.04719444	-0.05083044	0.8463797	-0.1309027	0.04993679	-0.1056377
5.2e+08	-0.09921097	-0.06004361	0.8216356	-0.2339775	-0.04768536	-0.009095039	-0.01210497	-0.02487317
	0.8216356	-0.2339775	0.04324807	-0.1187928	-0.01208127	-0.02484133	0.04687983	-0.04999719
