!$
! Info: Touchstone file created by Circ.  Input file=Intel_C2M_200G_9p0in_202208016_staggered.circ
!$
# Hz S RI R 50
0	0.02452169	8.726547e-24	-0.0001119308	1.370756e-20	0.0003554375	8.387624e-22	-0.0001076613	1.318471e-20
	-0.0001119309	1.370758e-20	0.02396916	4.855182e-24	-0.0001190135	1.457495e-20	0.0001327667	3.242262e-22
	0.0003555042	8.393538e-22	-0.0001190136	1.457496e-20	0.02452291	8.938765e-24	-0.0001119561	1.371067e-20
	-0.0001076613	1.318471e-20	0.0001328237	3.243503e-22	-0.000111956	1.371065e-20	0.02396713	4.593601e-24
1e+07	0.02964787	-0.004387279	-0.0006736703	-3.179354e-05	0.001694138	0.007403657	-6.361569e-05	-0.0001105822
	-0.0006736703	-3.179354e-05	0.02922912	-0.004981556	-0.0009508541	0.0001745225	0.002239774	0.007352236
	0.001694138	0.007403657	-0.0009508541	0.0001745225	0.02927576	-0.004247365	-0.000494397	-5.674718e-05
	-6.361569e-05	-0.0001105822	0.002239774	0.007352236	-0.000494397	-5.674718e-05	0.0290443	-0.004950186
2e+07	0.03164135	-0.01387491	-0.000618022	-0.0003484615	0.004343048	0.01393164	-9.23019e-05	-0.0001750579
	-0.0006180219	-0.0003484614	0.03190459	-0.01506564	-0.0008808578	-8.034163e-05	0.005483306	0.01344867
	0.004343132	0.01393154	-0.0008808578	-8.034159e-05	0.03146917	-0.01351626	-0.0004817626	-0.0002506076
	-9.230189e-05	-0.0001750578	0.005483314	0.01344866	-0.0004817626	-0.0002506076	0.031771	-0.01493795
3e+07	0.02917357	-0.02487506	-0.0006200546	-0.0004806838	0.008319408	0.01952829	-0.0001395771	-0.0002311253
	-0.0006200546	-0.0004806838	0.03097893	-0.02698662	-0.0008279839	-0.000151132	0.01026892	0.01848852
	0.008319384	0.01952826	-0.0008279839	-0.000151132	0.02917492	-0.02445695	-0.0005148348	-0.0003510862
	-0.0001395771	-0.0002311253	0.0102689	0.01848856	-0.0005148349	-0.0003510862	0.03089155	-0.02680432
4e+07	0.02327457	-0.03493569	-0.0006618415	-0.0005619568	0.01329415	0.02401684	-0.000218393	-0.0002660242
	-0.0006618415	-0.0005619568	0.02680284	-0.03885257	-0.0007915294	-0.0002013631	0.01628071	0.02194695
	0.01329415	0.02401684	-0.0007915294	-0.0002013631	0.0234216	-0.03451579	-0.0005769864	-0.0004098732
	-0.000218393	-0.0002660242	0.01628071	0.02194697	-0.0005769864	-0.0004098731	0.02676846	-0.03863826
5e+07	0.01463059	-0.04312928	-0.0007296763	-0.000607844	0.01898495	0.02719458	-0.0003067249	-0.0002831264
	-0.0007296763	-0.000607844	0.01988698	-0.04966442	-0.0007738746	-0.0002536771	0.02304118	0.02359815
	0.01898496	0.02719459	-0.0007738746	-0.0002536771	0.01489751	-0.04274552	-0.0006576255	-0.0004365543
	-0.0003067249	-0.0002831264	0.02304119	0.02359816	-0.0006576255	-0.0004365543	0.01990529	-0.04943521
6e+07	0.003984235	-0.04874486	-0.0008135221	-0.0006229811	0.02504152	0.02896406	-0.0004009777	-0.0002815401
	-0.0008135221	-0.0006229811	0.01073887	-0.05878719	-0.0007815355	-0.0003130072	0.03004718	0.023309
	0.02504152	0.02896406	-0.0007815355	-0.0003130072	0.004343413	-0.04842379	-0.000748166	-0.000434201
	-0.0004009777	-0.0002815401	0.03004719	0.02330898	-0.0007481659	-0.000434201	0.01080683	-0.05855778
7e+07	-0.007807359	-0.05134383	-0.0009502757	-0.0005577768	0.03110952	0.02932289	-0.0004965262	-0.0002600575
	-0.0009502757	-0.0005577768	-8.253733e-05	-0.06575624	-0.0008201844	-0.0003755789	0.03677593	0.02108303
	0.03110952	0.02932289	-0.0008201844	-0.0003755789	-0.007385953	-0.05110295	-0.0008413135	-0.0004049958
	-0.0004965262	-0.0002600575	0.03677592	0.02108303	-0.0008413135	-0.0004049959	2.934146e-05	-0.06554005
8e+07	-0.01985461	-0.05075663	-0.001118635	-0.0003895295	0.03685429	0.02835684	-0.0005893049	-0.0002189687
	-0.001118635	-0.0003895295	-0.01195821	-0.07027917	-0.0008939509	-0.0004330579	0.04272744	0.01705794
	0.03685429	0.02835684	-0.0008939509	-0.0004330579	-0.01940273	-0.05060546	-0.0009306794	-0.0003512336
	-0.0005893049	-0.0002189687	0.04272745	0.01705794	-0.0009306794	-0.0003512335	-0.01181068	-0.07008786
9e+07	-0.0312923	-0.04705134	-0.001242781	-0.0001846827	0.04198389	0.02622936	-0.0006775408	-0.0001585179
	-0.001242781	-0.0001846827	-0.02424716	-0.07223724	-0.001004748	-0.0004741254	0.04745754	0.0114917
	0.04198389	0.02622936	-0.001004748	-0.0004741254	-0.03084272	-0.0469908	-0.001020128	-0.0002555997
	-0.0006775408	-0.0001585179	0.04745755	0.01149171	-0.001020128	-0.0002555996	-0.02407543	-0.07208008
1e+08	-0.04127804	-0.04049062	-0.001299725	5.273867e-05	0.04626825	0.02316172	-0.0007558482	-7.943451e-05
	-0.001299725	5.273867e-05	-0.03628081	-0.0716478	-0.001145134	-0.0004854793	0.05060559	0.004739396
	0.04626825	0.02316172	-0.001145134	-0.0004854793	-0.04087144	-0.04051659	-0.001100298	-8.568538e-05
	-0.0007558482	-7.943451e-05	0.05060559	0.004739395	-0.001100298	-8.568538e-05	-0.03609927	-0.07153113
1.1e+08	-0.04918561	-0.0318164	-0.001298749	0.0002322536	0.04951644	0.01941188	-0.0008254585	1.226626e-05
	-0.001298749	0.0002322536	-0.04758163	-0.06901302	-0.00131905	-0.000443042	0.05188875	-0.0027815
	0.04951644	0.01941188	-0.00131905	-0.000443042	-0.04884886	-0.03185607	-0.00114252	6.122576e-05
	-0.0008254585	1.226626e-05	0.05188874	-0.002781501	-0.00114252	6.122576e-05	-0.04740206	-0.0689937
1.2e+08	-0.05472743	-0.02138066	-0.00130142	0.0004089718	0.05164171	0.01529958	-0.0008873832	0.0001219589
	-0.00130142	0.0004089718	-0.05790123	-0.06433267	-0.001513483	-0.0003503694	0.05116414	-0.01051745
	0.05164171	0.01529958	-0.001513483	-0.0003503694	-0.05444126	-0.02142468	-0.001179758	0.0002134012
	-0.0008873832	0.0001219589	0.05116414	-0.01051745	-0.001179758	0.0002134012	-0.05777361	-0.06435774
1.3e+08	-0.05746413	-0.00981828	-0.00128894	0.0005903742	0.05263803	0.01112007	-0.0009414532	0.0002493279
	-0.00128894	0.0005903742	-0.06677944	-0.05792692	-0.001709455	-0.0001991138	0.04843569	-0.01797644
	0.05263803	0.01112007	-0.001709455	-0.0001991138	-0.05722503	-0.00985799	-0.001201749	0.0003741648
	-0.0009414532	0.0002493279	0.04843569	-0.01797644	-0.001201749	0.0003741647	-0.06670299	-0.0579629
1.4e+08	-0.05719357	0.002143748	-0.001256256	0.0007760338	0.05256482	0.007155456	-0.0009750112	0.0003936049
	-0.001256256	0.0007760338	-0.07392481	-0.05020324	-0.001888978	1.277742e-05	0.04381791	-0.02467388
	0.05256481	0.007155457	-0.001888978	1.277742e-05	-0.05699906	0.002119757	-0.001205519	0.0005427426
	-0.0009750112	0.0003936049	0.04381791	-0.02467388	-0.001205519	0.0005427426	-0.07389175	-0.05023978
1.5e+08	-0.05391006	0.01375787	-0.001199996	0.000964083	0.05154366	0.00365903	-0.0009844736	0.0005513383
	-0.001199996	0.000964083	-0.0791625	-0.04160408	-0.002034288	0.0002818475	0.03753434	-0.03016318
	0.05154366	0.003659031	-0.002034288	0.0002818475	-0.05375574	0.01376246	-0.001188773	0.0007178699
	-0.0009844736	0.0005513383	0.03753433	-0.03016318	-0.001188773	0.0007178699	-0.07917158	-0.04163924
1.6e+08	-0.04779448	0.02430496	-0.001117676	0.001151581	0.04974922	0.0008442326	-0.0009668026	0.0007182578
	-0.001117676	0.001151581	-0.08242849	-0.03258052	-0.002129326	0.0005993735	0.02990713	-0.03406022
	0.04974922	0.000844233	-0.002129326	0.0005993735	-0.04767257	0.0243512	-0.001149416	0.0008978029
	-0.0009668026	0.0007182578	0.02990713	-0.03406022	-0.001149417	0.0008978029	-0.08248465	-0.03261231
1.7e+08	-0.03919746	0.03313881	-0.001007493	0.001334851	0.04739831	-0.001125804	-0.0009196808	0.0008894767
	-0.001007493	0.001334851	-0.08376362	-0.02356839	-0.002161233	0.0009522458	0.02134086	-0.03606401
	0.04739831	-0.001125804	-0.002161233	0.0009522458	-0.03909651	0.03323808	-0.001085354	0.001080283
	-0.0009196808	0.0008894767	0.02134085	-0.03606401	-0.001085354	0.001080283	-0.08387447	-0.02359049
1.8e+08	-0.02861382	0.03972388	-0.0008684583	0.001509554	0.04473853	-0.002144738	-0.0008417244	0.001059573
	-0.0008684583	0.001509554	-0.08330376	-0.01496491	-0.002121353	0.00132435	0.01230274	-0.0359733
	0.04473853	-0.002144737	-0.002121353	0.00132435	-0.02851965	0.03988453	-0.0009946723	0.001262486
	-0.0008417244	0.001059573	0.01230274	-0.0359733	-0.0009946724	0.001262486	-0.08347622	-0.01496602
1.9e+08	-0.01665104	0.04366486	-0.0007003953	0.001670894	0.04203525	-0.002168246	-0.00073262	0.001222843
	-0.0007003953	0.001670894	-0.08126565	-0.007109198	-0.002005577	0.001698316	0.003299378	-0.03369935
	0.04203525	-0.002168245	-0.002005577	0.001698316	-0.01654725	0.04389205	-0.0008755894	0.001440855
	-0.00073262	0.001222843	0.003299378	-0.03369935	-0.0008755894	0.001440855	-0.08150317	-0.007073829
2e+08	-0.003989642	0.04472994	-0.0005045674	0.001812096	0.03955706	-0.001217541	-0.0005931833	0.001373545
	-0.0005045674	0.001812096	-0.07792747	-0.0002649889	-0.001774684	0.002086769	-0.005149119	-0.02927298
	0.03955706	-0.001217541	-0.001774684	0.002086769	-0.003858417	0.04502493	-0.0007281656	0.001610051
	-0.0005931833	0.001373545	-0.005149119	-0.02927298	-0.0007281656	0.001610051	-0.07822899	-0.0001763603
2.1e+08	0.008657756	0.04286324	-0.0002828302	0.001929912	0.03756195	0.0006208532	-0.0004253679	0.001505986
	-0.0002828302	0.001929912	-0.07360647	0.005388079	-0.001469599	0.002430721	-0.0125365	-0.02284656
	0.03756195	0.0006208532	-0.001469599	0.002430721	0.008834896	0.0432223	-0.0005504845	0.001766949
	-0.0004253679	0.001505986	-0.0125365	-0.02284656	-0.0005504845	0.001766949	-0.07396555	0.005548105
2.2e+08	0.02059279	0.03818592	-3.79917e-05	0.002019459	0.03628064	0.003198005	-0.0002322371	0.001614996
	-3.79917e-05	0.002019459	-0.06863535	0.009761056	-0.001102493	0.002716051	-0.01839822	-0.01468959
	0.03628064	0.003198005	-0.001102493	0.002716051	0.02083294	0.03860108	-0.0003424183	0.00190604
	-0.0002322371	0.001614996	-0.01839822	-0.01468959	-0.0003424183	0.00190604	-0.0690399	0.01000885
2.3e+08	0.03117341	0.0309874	0.0002260473	0.002076228	0.0359021	0.00630936	-1.783482e-05	0.00169612
	0.0002260473	0.002076228	-0.06333697	0.01285223	-0.000688309	0.002932695	-0.02233886	-0.00517809
	0.0359021	0.00630936	-0.000688309	0.002932695	0.03149205	0.03144639	-0.0001050061	0.002021311
	-1.783482e-05	0.00169612	-0.02233886	-0.00517809	-0.0001050061	0.002021311	-0.06377067	0.01320097
2.4e+08	0.03985605	0.02170547	0.0005045611	0.002096353	0.03655971	0.009706224	0.0002130513	0.001745784
	0.0005045611	0.002096353	-0.05800185	0.01473817	-0.0002429757	0.003075134	-0.02405628	0.005222751
	0.03655971	0.009706224	-0.0002429757	0.003075134	0.04026544	0.02219247	0.0001594032	0.002106476
	0.0002130513	0.001745784	-0.02405628	0.005222752	0.0001594032	0.002106476	-0.05844445	0.01519725
2.5e+08	0.04622892	0.01089563	0.0007918654	0.002076812	0.0383201	0.01311022	0.0004551885	0.001761398
	0.0007918654	0.002076812	-0.05286894	0.01555882	0.0002179662	0.003142098	-0.02336211	0.01598202
	0.0383201	0.01311022	0.0002179662	0.003142098	0.04673758	0.01139156	0.0004469152	0.002155403
	0.0004551885	0.001761398	-0.02336211	0.01598202	0.0004469152	0.002155403	-0.05329815	0.01613223
2.6e+08	0.05003716	-0.0008069803	0.001081701	0.002015604	0.04117656	0.01623155	0.0007030148	0.001741457
	0.001081701	0.002015604	-0.04811263	0.01549716	0.0006805924	0.003135969	-0.02019658	0.02653136
	0.04117656	0.01623155	0.0006805924	0.003135969	0.05064864	-0.0003229829	0.0007521186	0.002162476
	0.0007030148	0.001741457	-0.02019658	0.02653136	0.0007521186	0.002162476	-0.0485048	0.01618376
2.7e+08	0.05119746	-0.01273133	0.001367423	0.001911944	0.04504764	0.0187893	0.0009510733	0.00168538
	0.001367423	0.001911944	-0.04383588	0.01475674	0.001133361	0.003061722	-0.01463457	0.03629624
	0.04504764	0.0187893	0.001133361	0.003061722	0.05191078	-0.01228072	0.001068165	0.002123059
	0.0009510733	0.00168538	-0.01463457	0.03629625	0.001068165	0.002123059	-0.04416768	0.01554971
2.8e+08	0.04980024	-0.02421576	0.001642305	0.001766311	0.04978138	0.02053057	0.001193987	0.001593527
	0.001642305	0.001766311	-0.0400705	0.01353802	0.001567694	0.002925643	-0.006885302	0.04472911
	0.04978138	0.02053057	0.001567694	0.002925643	0.05060901	-0.0238192	0.00138698	0.00203395
	0.001193987	0.001593527	-0.006885302	0.04472911	0.00138698	0.00203395	-0.04032047	0.01442492
2.9e+08	0.04609883	-0.03465185	0.001899798	0.001580434	0.0551651	0.02124922	0.001426771	0.001466999
	0.001899798	0.001580434	-0.03678604	0.01201705	0.001977659	0.002734245	0.002717216	0.05134076
	0.0551651	0.02124922	0.001977659	0.002734245	0.0469919	-0.03432854	0.001699753	0.001893622
	0.001426771	0.001466999	0.002717216	0.05134076	0.001699753	0.001893622	-0.03693519	0.01298072
3e+08	0.04048937	-0.04352488	0.002133897	0.001357151	0.0609405	0.02079945	0.001644857	0.001307486
	0.002133897	0.001357151	-0.03390338	0.0103279	0.002359435	0.002493305	0.0137313	0.05572834
	0.0609405	0.02079945	0.002359435	0.002493305	0.04145116	-0.0432906	0.001997288	0.00170247
	0.001644857	0.001307486	0.0137313	0.05572834	0.001997288	0.00170247	-0.03393668	0.01134701
3.1e+08	0.03347976	-0.05044484	0.002339351	0.001100245	0.06682194	0.01910643	0.001844115	0.00111705
	0.002339351	0.001100245	-0.03131359	0.00855127	0.002710543	0.002207166	0.0256306	0.05759897
	0.06682194	0.01910643	0.002710543	0.002207166	0.03449109	-0.0503113	0.002270558	0.0014629
	0.001844115	0.00111705	0.0256306	0.05759897	0.002270558	0.0014629	-0.03122028	0.009601099
3.2e+08	0.02565263	-0.05516904	0.002511774	0.0008141056	0.07251568	0.01616876	0.002020743	0.0008981699
	0.002511774	0.0008141056	-0.02889822	0.006709385	0.003028768	0.001878807	0.03783192	0.05678606
	0.07251568	0.01616876	0.003028768	0.001878807	0.02669229	-0.05514314	0.002511242	0.001179023
	0.002020743	0.0008981699	0.03783192	0.05678606	0.002511242	0.001179023	-0.02867363	0.007762503
3.3e+08	0.01762508	-0.05761408	0.002647689	0.0005035059	0.07773917	0.01205741	0.002171313	0.0006534628
	0.002647689	0.0005035059	-0.02655099	0.004768096	0.003311426	0.001509754	0.04972564	0.05325842
	0.07773917	0.01205741	0.003311426	0.001509754	0.01867094	-0.05769708	0.002712083	0.0008564992
	0.002171313	0.0006534628	0.04972564	0.05325842	0.002712083	0.0008564992	-0.0261959	0.005795934
3.4e+08	0.01000739	-0.05785665	0.002744455	0.0001733637	0.08223953	0.006908952	0.002292653	0.0003857725
	0.002744455	0.0001733637	-0.02419617	0.002644992	0.003554492	0.001101082	0.06070731	0.04712319
	0.08223953	0.006908952	0.003554492	0.001101082	0.01103755	-0.05804436	0.002867187	0.0005021444
	0.002292653	0.0003857725	0.06070731	0.04712319	0.002867187	0.0005021444	-0.0237179	0.003619316
3.5e+08	0.003363421	-0.05612464	0.002800089	-0.0001714466	0.08580691	0.0009138963	0.002381694	9.816995e-05
	0.002800088	-0.0001714466	-0.02180366	0.000223709	0.00375244	0.0006539933	0.07020761	0.03862025
	0.08580691	0.0009138963	0.00375244	0.0006539933	0.004357983	-0.05640789	0.002972108	0.0001235858
	0.002381694	9.816995e-05	0.07020761	0.03862025	0.002972108	0.0001235858	-0.0212152	0.001117349
3.6e+08	-0.001824173	-0.05277948	0.002813154	-0.000526211	0.08828562	-0.005695779	0.00243553	-0.0002059902
	0.002813154	-0.000526211	-0.01939853	-0.002629052	0.003898156	0.0001706821	0.07772117	0.02811195
	0.08828562	-0.005695779	0.003898156	0.0001706821	-0.000881978	-0.05314389	0.003023972	-0.000271209
	0.00243553	-0.0002059902	0.07772117	0.02811195	0.003023972	-0.000271209	-0.01871928	-0.00184045
3.7e+08	-0.005183218	-0.04828988	0.002782461	-0.0008863829	0.08958077	-0.01266226	0.002451309	-0.0005230788
	0.002782461	-0.0008863829	-0.01706558	-0.006043411	0.003983427	-0.0003446112	0.0828318	0.0160657
	0.08958077	-0.01266226	0.003983427	-0.0003446112	-0.00430594	-0.04871775	0.003021292	-0.0006743497
	0.002451309	-0.0005230788	0.0828318	0.0160657	0.003021292	-0.0006743497	-0.01632019	-0.005380215
3.8e+08	-0.006473719	-0.04320127	0.00270702	-0.001247338	0.08966073	-0.01971707	0.002426318	-0.0008488267
	0.00270702	-0.001247338	-0.01494669	-0.01012717	0.003999704	-0.000884993	0.08523285	0.003033001
	0.08966073	-0.01971707	0.003999704	-0.000884993	-0.005668742	-0.04367271	0.002963838	-0.001078048
	0.002426318	-0.0008488267	0.08523285	0.003033001	0.002963838	-0.001078048	-0.01416432	-0.00960487
3.9e+08	-0.005602582	-0.03810148	0.002585939	-0.001604344	0.08855701	-0.0265957	0.002358047	-0.001178449
	0.002585939	-0.001604344	-0.01323442	-0.0149473	0.003939096	-0.001440775	0.08474449	-0.01037556
	0.08855701	-0.0265957	0.003939096	-0.001440775	-0.00487171	-0.03859438	0.002852448	-0.001475025
	0.002358047	-0.001178449	0.08474449	-0.01037556	0.002852448	-0.001475025	-0.01244791	-0.01457442
4e+08	-0.002627952	-0.03358231	0.002418463	-0.001952318	0.08636003	-0.03305157	0.002244384	-0.001506399
	0.002418463	-0.001952318	-0.01215828	-0.02051299	0.003795356	-0.001999553	0.08132381	-0.0235194
	0.08636003	-0.03305157	0.003795356	-0.001999553	-0.001966843	-0.03407584	0.002688721	-0.001858551
	0.002244384	-0.001506399	0.08132381	-0.0235194	0.002688721	-0.001858551	-0.01140215	-0.02029161
4.1e+08	0.002244498	-0.03020335	0.002204103	-0.002285681	0.08321329	-0.03886815	0.002083839	-0.001826389
	0.002204103	-0.002285681	-0.0119676	-0.02676403	0.003565121	-0.002546449	0.07506997	-0.03575754
	0.08321329	-0.03886815	0.003565121	-0.002546449	0.002845587	-0.03067814	0.002474983	-0.002222319
	0.002083839	-0.001826389	0.07506997	-0.03575754	0.002474983	-0.002222319	-0.01127748	-0.02668872
4.2e+08	0.008672365	-0.02845614	0.001942914	-0.002598217	0.07930501	-0.04387066	0.001875845	-0.002131401
	0.001942914	-0.002598217	-0.01291352	-0.03356378	0.003248379	-0.003065418	0.06622288	-0.0464807
	0.07930501	-0.04387066	0.003248379	-0.003065418	0.009228311	-0.02889616	0.002213923	-0.002560644
	0.001875845	-0.002131401	0.06622288	-0.0464807	0.002213923	-0.002560644	-0.01232396	-0.03362118
4.3e+08	0.01619876	-0.02873254	0.001635714	-0.002883118	0.07485756	-0.04793369	0.001620843	-0.002413884
	0.001635714	-0.002883118	-0.01522445	-0.04069646	0.002849325	-0.003539908	0.05515371	-0.05514205
	0.07485756	-0.04793369	0.002849325	-0.003539908	0.0167283	-0.02912639	0.001908529	-0.00286825
	0.001620843	-0.002413884	0.05515371	-0.05514205	0.001908529	-0.00286825	-0.0147671	-0.04086577
4.4e+08	0.02427913	-0.03129852	0.001284436	-0.003133028	0.07011518	-0.05098918	0.001320835	-0.002665848
	0.001284436	-0.003133028	-0.01908451	-0.04787179	0.002376029	-0.003954527	0.04234982	-0.0612859
	0.07011518	-0.05098918	0.002376029	-0.003954527	0.02480415	-0.03164038	0.001562223	-0.003140024
	0.001320835	-0.002665848	0.04234982	-0.0612859	0.001562223	-0.003140024	-0.01878698	-0.04812499
4.5e+08	0.03231502	-0.03627527	0.0008923939	-0.003340344	0.06533107	-0.05303014	0.0009794202	-0.002879307
	0.0008923939	-0.003340344	-0.02461227	-0.05473388	0.001840199	-0.004296095	0.02839213	-0.06457348
	0.06533107	-0.05303014	0.001840199	-0.004296095	0.03285866	-0.03656555	0.001178647	-0.003371149
	0.0009794202	-0.002879307	0.02839213	-0.06457348	0.001178647	-0.003371149	-0.02449606	-0.05503684
4.6e+08	0.03969271	-0.04362981	0.0004645826	-0.003497452	0.06075147	-0.05411208	0.0006017951	-0.003046688
	0.0004645826	-0.003497452	-0.03184031	-0.06087797	0.001256541	-0.00455458	0.01392643	-0.06480209
	0.06075147	-0.05411208	0.001256541	-0.00455458	0.04027777	-0.04387552	0.0007616783	-0.003556872
	0.0006017951	-0.003046688	0.01392643	-0.06480209	0.0007616783	-0.003556872	-0.03191914	-0.06119215
4.7e+08	0.04582386	-0.05317446	7.57556e-06	-0.003597276	0.05660073	-0.05434987	0.0001949023	-0.00316122
	7.57556e-06	-0.003597276	-0.04069817	-0.06587219	0.0006412668	-0.004723982	-0.0003694583	-0.06191785
	0.05660073	-0.05434987	0.0006412668	-0.004723982	0.04647068	-0.05338905	0.0003160055	-0.003692462
	0.0001949023	-0.00316122	-0.0003694583	-0.06191785	0.0003160055	-0.003692462	-0.04097813	-0.06615527
4.8e+08	0.05018225	-0.06457925	-0.0004702657	-0.003633683	0.05306673	-0.05391189	-0.0002329557	-0.00321741
	-0.0004702657	-0.003633683	-0.05100545	-0.06928326	1.07579e-05	-0.004802511	-0.01382048	-0.05601933
	0.05306673	-0.05391189	1.07579e-05	-0.004802511	0.0509081	-0.06478114	-0.0001531925	-0.003773289
	-0.0002329557	-0.00321741	-0.01382048	-0.05601933	-0.0001531925	-0.003773289	-0.05148225	-0.06949174
4.9e+08	0.05234031	-0.07738985	-0.0009589747	-0.003601975	0.05028749	-0.05300952	-0.0006722862	-0.00321141
	-0.0009589747	-0.003601975	-0.06246521	-0.07070496	-0.0006193063	-0.004792181	-0.02579061	-0.04735324
