!$
! Info: Touchstone file created by Circ.  Input file=Intel_C2M_200G_9p0in_202208016_staggered.circ
!$
# Hz S RI R 50
0	0.02395624	4.461997e-24	9.014884e-05	1.348287e-22	0.0001331696	3.265063e-22	9.014204e-05	1.34623e-22
	9.014884e-05	1.348287e-22	0.02396916	4.855182e-24	9.01532e-05	1.349389e-22	0.0001327667	3.242262e-22
	0.0001332266	3.266318e-22	9.015318e-05	1.349405e-22	0.02395114	4.675386e-24	9.014434e-05	1.347223e-22
	9.014203e-05	1.346246e-22	0.0001328237	3.243503e-22	9.014434e-05	1.347223e-22	0.02396713	4.593601e-24
1e+07	0.02902084	-0.004948969	5.431816e-06	2.807728e-05	0.002233096	0.007292821	1.466273e-05	2.728351e-05
	5.431819e-06	2.807729e-05	0.02922912	-0.004981556	2.97029e-06	7.581039e-06	0.002239774	0.007352236
	0.002233096	0.007292821	2.97029e-06	7.581039e-06	0.02921477	-0.004914869	5.265769e-06	2.678941e-05
	1.466273e-05	2.728351e-05	0.002239774	0.007352236	5.265769e-06	2.678941e-05	0.0290443	-0.004950186
2e+07	0.0317496	-0.01492626	6.188518e-06	1.530707e-05	0.005465818	0.01333391	9.75522e-06	1.864389e-05
	6.18853e-06	1.530709e-05	0.03190459	-0.01506564	1.748277e-05	1.539805e-05	0.005483306	0.01344867
	0.005465826	0.0133339	1.748277e-05	1.539805e-05	0.03192322	-0.0149363	4.59269e-06	1.346154e-05
	9.75522e-06	1.864389e-05	0.005483314	0.01344866	4.59269e-06	1.346154e-05	0.031771	-0.01493795
3e+07	0.03089136	-0.02678783	9.52683e-06	1.084999e-05	0.01023758	0.01832488	6.968181e-06	1.742919e-05
	9.52683e-06	1.084999e-05	0.03097893	-0.02698662	3.165498e-05	1.576024e-05	0.01026892	0.01848852
	0.01023757	0.01832492	3.165498e-05	1.576024e-05	0.03104627	-0.02679788	6.90031e-06	9.254456e-06
	6.968182e-06	1.742919e-05	0.0102689	0.01848856	6.900311e-06	9.254455e-06	0.03089155	-0.02680432
4e+07	0.02679651	-0.03861838	1.174864e-05	7.039428e-06	0.01623488	0.02174143	1.135031e-05	1.387065e-05
	1.174864e-05	7.039428e-06	0.02680284	-0.03885257	4.173088e-05	1.011749e-05	0.01628071	0.02194695
	0.01623489	0.02174145	4.173088e-05	1.011749e-05	0.02694219	-0.03862485	8.385323e-06	6.004648e-06
	1.135031e-05	1.387065e-05	0.01628071	0.02194697	8.385323e-06	6.004647e-06	0.02676846	-0.03863826
5e+07	0.01997108	-0.04941864	1.290583e-05	3.369811e-06	0.02298288	0.02335792	1.455869e-05	9.786713e-06
	1.290583e-05	3.369811e-06	0.01988698	-0.04966442	4.805113e-05	1.513968e-06	0.02304118	0.02359815
	0.02298288	0.02335792	4.805113e-05	1.513968e-06	0.02011076	-0.04942148	9.0743e-06	3.056964e-06
	1.455869e-05	9.786713e-06	0.02304119	0.02359816	9.0743e-06	3.056964e-06	0.01990529	-0.04943521
6e+07	0.01091699	-0.05855418	1.305535e-05	-1.247344e-07	0.02998112	0.02304049	1.643743e-05	5.440829e-06
	1.305535e-05	-1.247338e-07	0.01073887	-0.05878719	5.088633e-05	-8.460484e-06	0.03004718	0.023309
	0.02998113	0.02304047	5.088633e-05	-8.460484e-06	0.01105244	-0.05855506	9.014115e-06	3.65547e-07
	1.643743e-05	5.44083e-06	0.03004719	0.02330898	9.014115e-06	3.655476e-07	0.01080683	-0.05855778
7e+07	0.0001873623	-0.06555995	1.228996e-05	-3.291096e-06	0.0367093	0.02079102	1.706372e-05	1.075221e-06
	1.228996e-05	-3.291096e-06	-8.253733e-05	-0.06575624	5.048441e-05	-1.874701e-05	0.03677593	0.02108303
	0.03670929	0.02079101	5.048441e-05	-1.874701e-05	0.0003185787	-0.06556218	8.275989e-06	-1.983894e-06
	1.706372e-05	1.075221e-06	0.03677592	0.02108303	8.275989e-06	-1.983895e-06	2.934146e-05	-0.06554005
8e+07	-0.01160452	-0.07014187	1.073591e-05	-5.962075e-06	0.04266932	0.01674476	1.65326e-05	-3.084769e-06
	1.073591e-05	-5.962075e-06	-0.01195821	-0.07027917	4.713509e-05	-2.856303e-05	0.04272744	0.01705794
	0.04266932	0.01674476	4.713509e-05	-2.856303e-05	-0.01147934	-0.07014927	6.966811e-06	-3.874101e-06
	1.65326e-05	-3.084769e-06	0.04272745	0.01705794	6.966811e-06	-3.874101e-06	-0.01181068	-0.07008786
9e+07	-0.02382318	-0.0721783	8.535503e-06	-7.995811e-06	0.04741797	0.01115667	1.492477e-05	-6.862695e-06
	8.535502e-06	-7.995811e-06	-0.02424716	-0.07223724	4.10896e-05	-3.737032e-05	0.04745754	0.0114917
	0.04741798	0.01115667	4.10896e-05	-3.737032e-05	-0.02370786	-0.07219418	5.216377e-06	-5.19868e-06
	1.492477e-05	-6.862695e-06	0.04745755	0.01149171	5.216377e-06	-5.19868e-06	-0.02407543	-0.07208008
1e+08	-0.03580524	-0.07168254	5.65169e-06	-9.315569e-06	0.0505949	0.00437853	1.197756e-05	-1.025892e-05
	5.65169e-06	-9.315569e-06	-0.03628081	-0.0716478	3.164091e-05	-4.517172e-05	0.05060559	0.004739396
	0.0505949	0.004378529	3.164091e-05	-4.517172e-05	-0.03570479	-0.07170859	3.04799e-06	-5.874739e-06
	1.197756e-05	-1.025892e-05	0.05060559	0.004739395	3.04799e-06	-5.874739e-06	-0.03609927	-0.07153113
1.1e+08	-0.04707317	-0.06914841	2.819904e-06	-8.765e-06	0.05191636	-0.003176509	8.178065e-06	-1.100047e-05
	2.819904e-06	-8.765e-06	-0.04758163	-0.06901302	2.003685e-05	-4.577511e-05	0.05188875	-0.0027815
	0.05191635	-0.00317651	2.003685e-05	-4.577511e-05	-0.0469904	-0.06924648	1.118285e-06	-5.231525e-06
	8.178065e-06	-1.100047e-05	0.05188874	-0.002781501	1.118286e-06	-5.231525e-06	-0.04740206	-0.0689937
1.2e+08	-0.05737854	-0.06457414	8.80787e-07	-7.799303e-06	0.05123655	-0.01095721	5.44281e-06	-1.085548e-05
	8.807871e-07	-7.799303e-06	-0.05790123	-0.06433267	1.306448e-05	-4.346866e-05	0.05116414	-0.01051745
	0.05123655	-0.01095721	1.306448e-05	-4.346866e-05	-0.05736236	-0.06469215	-1.471126e-07	-4.368389e-06
	5.44281e-06	-1.085548e-05	0.05116414	-0.01051745	-1.471125e-07	-4.368389e-06	-0.05777361	-0.06435774
1.3e+08	-0.06626272	-0.05827535	-6.0198e-07	-6.744148e-06	0.04855676	-0.01847374	3.310437e-06	-1.026026e-05
	-6.019799e-07	-6.744148e-06	-0.06677944	-0.05792692	1.063007e-05	-3.96726e-05	0.04843569	-0.01797644
	0.04855676	-0.01847374	1.063007e-05	-3.96726e-05	-0.06630977	-0.05837957	-1.091794e-06	-3.515682e-06
	3.310437e-06	-1.026026e-05	0.04843569	-0.01797644	-1.091794e-06	-3.515682e-06	-0.06670299	-0.0579629
1.4e+08	-0.07343392	-0.05065474	-1.523813e-06	-5.504506e-06	0.04398805	-0.02524298	1.673352e-06	-9.413959e-06
	-1.523813e-06	-5.504506e-06	-0.07392481	-0.05020324	8.421112e-06	-3.608925e-05	0.04381791	-0.02467388
	0.04398804	-0.02524298	8.421112e-06	-3.608925e-05	-0.07353356	-0.05073469	-1.657863e-06	-2.547079e-06
	1.673352e-06	-9.413959e-06	0.04381791	-0.02467388	-1.657863e-06	-2.547079e-06	-0.07389175	-0.05023978
1.5e+08	-0.07871574	-0.04215025	-1.327742e-06	-4.188083e-06	0.03775007	-0.03081889	4.123488e-07	-8.465769e-06
	-1.327742e-06	-4.188083e-06	-0.0791625	-0.04160408	6.512047e-06	-3.266642e-05	0.03753434	-0.03016318
	0.03775007	-0.03081889	6.512047e-06	-3.266642e-05	-0.07886381	-0.04220411	-1.87377e-06	-1.559521e-06
	4.123488e-07	-8.465769e-06	0.03753433	-0.03016318	-1.873769e-06	-1.559521e-06	-0.07917158	-0.04163924
1.6e+08	-0.08204158	-0.03320894	-9.667555e-07	-3.031338e-06	0.03016086	-0.03481696	-3.077506e-07	-7.474193e-06
	-9.667554e-07	-3.031338e-06	-0.08242849	-0.03258052	4.955756e-06	-2.937641e-05	0.02990713	-0.03406022
	0.03016086	-0.03481696	4.955756e-06	-2.937641e-05	-0.08224012	-0.03323521	-1.383679e-06	-6.493168e-07
	-3.077506e-07	-7.474193e-06	0.02990713	-0.03406022	-1.383679e-06	-6.493169e-07	-0.08248465	-0.03261231
1.7e+08	-0.08344881	-0.02426343	-4.991144e-07	-2.053098e-06	0.02162095	-0.03693464	-3.021724e-07	-6.540846e-06
	-4.991144e-07	-2.053098e-06	-0.08376362	-0.02356839	3.79666e-06	-2.6221e-05	0.02134086	-0.03606401
	0.02162095	-0.03693464	3.79666e-06	-2.6221e-05	-0.08370263	-0.02425664	-8.139682e-07	9.286069e-08
	-3.021724e-07	-6.540846e-06	0.02134085	-0.03606401	-8.139682e-07	9.286066e-08	-0.08387447	-0.02359049
1.8e+08	-0.08306917	-0.01570857	1.028814e-07	-1.255306e-06	0.01259374	-0.03696809	-2.193266e-07	-5.704293e-06
	1.028814e-07	-1.255306e-06	-0.08330376	-0.01496491	3.031938e-06	-2.324326e-05	0.01230274	-0.0359733
	0.01259374	-0.03696809	3.031938e-06	-2.324326e-05	-0.08338255	-0.01565878	-1.375357e-07	6.669123e-07
	-2.193266e-07	-5.704293e-06	0.01230274	-0.0359733	-1.375357e-07	6.669123e-07	-0.08347622	-0.01496602
1.9e+08	-0.08111478	-0.007882313	8.056241e-07	-6.595498e-07	0.003582615	-0.03482493	-6.625241e-08	-4.968597e-06
	8.056241e-07	-6.595498e-07	-0.08126565	-0.007109198	2.638994e-06	-2.048907e-05	0.003299378	-0.03369935
	0.003582615	-0.03482493	2.638994e-06	-2.048907e-05	-0.08148886	-0.007775816	6.150394e-07	1.052145e-06
	-6.625241e-08	-4.968597e-06	0.003299378	-0.03369935	6.150394e-07	1.052145e-06	-0.08150317	-0.007073829
2e+08	-0.07785935	-0.00104881	1.569296e-06	-2.815701e-07	-0.004894697	-0.03053138	1.46659e-07	-4.339331e-06
	1.569296e-06	-2.815701e-07	-0.07792747	-0.0002649889	2.580048e-06	-1.799747e-05	-0.005149119	-0.02927298
	-0.004894697	-0.03053138	2.580048e-06	-1.799747e-05	-0.07829073	-0.0008702256	1.405236e-06	1.237508e-06
	1.46659e-07	-4.339331e-06	-0.005149119	-0.02927298	1.405236e-06	1.237508e-06	-0.07822899	-0.0001763603
2.1e+08	-0.0736155	0.004611646	2.348549e-06	-1.263858e-07	-0.01233317	-0.02423442	4.049688e-07	-3.820187e-06
	2.348549e-06	-1.263858e-07	-0.07360647	0.005388079	2.801471e-06	-1.58064e-05	-0.0125365	-0.02284656
	-0.01233317	-0.02423442	2.801471e-06	-1.58064e-05	-0.07409618	0.004877604	2.190874e-06	1.218465e-06
	4.049688e-07	-3.820187e-06	-0.0125365	-0.02284656	2.190874e-06	1.218465e-06	-0.07396555	0.005548105
2.2e+08	-0.06871194	0.009007777	3.097058e-06	-1.891545e-07	-0.01826814	-0.01619773	6.921281e-07	-3.413091e-06
	3.097058e-06	-1.891545e-07	-0.06863535	0.009761056	3.244396e-06	-1.394208e-05	-0.01839822	-0.01468959
	-0.01826814	-0.01619773	3.244396e-06	-1.394208e-05	-0.06922905	0.009374375	2.929005e-06	1.001146e-06
	6.921281e-07	-3.413091e-06	-0.01839822	-0.01468959	2.929005e-06	1.001146e-06	-0.0690399	0.01000885
2.3e+08	-0.0634683	0.01213458	3.770073e-06	-4.550233e-07	-0.02230249	-0.006791304	9.901192e-07	-3.11749e-06
	3.770073e-06	-4.550233e-07	-0.06333697	0.01285223	3.844528e-06	-1.242042e-05	-0.02233886	-0.00517809
	-0.02230249	-0.006791304	3.844528e-06	-1.242042e-05	-0.06400566	0.0126119	3.578392e-06	6.011997e-07
	9.901192e-07	-3.11749e-06	-0.02233886	-0.00517809	3.578392e-06	6.011997e-07	-0.06377067	0.01320097
2.4e+08	-0.05817306	0.01406474	4.326834e-06	-8.998099e-07	-0.02413073	0.003525333	1.280171e-06	-2.92985e-06
	4.326834e-06	-8.998099e-07	-0.05800185	0.01473817	4.534668e-06	-1.124585e-05	-0.02405628	0.005222751
	-0.02413073	0.003525333	4.534668e-06	-1.124585e-05	-0.05871144	0.0146593	4.101786e-06	4.314568e-08
	1.280171e-06	-2.92985e-06	-0.02405628	0.005222752	4.101786e-06	4.314567e-08	-0.05844445	0.01519725
2.5e+08	-0.05306432	0.01493399	4.732595e-06	-1.491212e-06	-0.02355959	0.01422619	1.543445e-06	-2.843248e-06
	4.732595e-06	-1.491212e-06	-0.05286894	0.01555882	5.247108e-06	-1.041062e-05	-0.02336211	0.01598202
	-0.02355959	0.01422619	5.247108e-06	-1.041062e-05	-0.05358327	0.01564749	4.46794e-06	-6.408016e-07
	1.543445e-06	-2.843248e-06	-0.02336211	0.01598202	4.46794e-06	-6.408016e-07	-0.05329815	0.01613223
2.6e+08	-0.04831695	0.01492129	4.960345e-06	-2.190383e-06	-0.02052297	0.02474659	1.761943e-06	-2.847132e-06
	4.960345e-06	-2.190383e-06	-0.04811263	0.01549716	5.916389e-06	-9.894423e-06	-0.02019658	0.02653136
	-0.02052297	0.02474659	5.916389e-06	-9.894423e-06	-0.04879521	0.01575107	4.653296e-06	-1.412286e-06
	1.761943e-06	-2.847132e-06	-0.02019658	0.02653136	4.653296e-06	-1.412286e-06	-0.0485048	0.01618376
2.7e+08	-0.0440354	0.01422672	4.991898e-06	-2.953797e-06	-0.01508841	0.03451405	1.919442e-06	-2.927272e-06
	4.991898e-06	-2.953797e-06	-0.04383588	0.01475674	6.482025e-06	-9.664709e-06	-0.01463457	0.03629624
	-0.01508841	0.03451405	6.482025e-06	-9.664709e-06	-0.04445235	0.01516533	4.643093e-06	-2.228718e-06
	1.919442e-06	-2.927272e-06	-0.01463457	0.03629625	4.643093e-06	-2.228718e-06	-0.04416768	0.01554971
2.8e+08	-0.04025385	0.01304815	4.818724e-06	-3.735246e-06	-0.00745711	0.04298113	2.00253e-06	-3.066005e-06
	4.818724e-06	-3.735246e-06	-0.0400705	0.01353802	6.891159e-06	-9.677624e-06	-0.006885302	0.04472911
	-0.00745711	0.04298113	6.891159e-06	-9.677624e-06	-0.04059077	0.01408348	4.432127e-06	-3.045328e-06
	2.00253e-06	-3.066005e-06	-0.006885302	0.04472911	4.432127e-06	-3.045328e-06	-0.04032047	0.01442492
2.9e+08	-0.03694461	0.01156004	4.442237e-06	-4.487901e-06	0.002044872	0.04965671	2.001611e-06	-3.242805e-06
	4.442237e-06	-4.487901e-06	-0.03678604	0.01201705	7.101184e-06	-9.879627e-06	0.002717216	0.05134076
	0.002044872	0.04965671	7.101184e-06	-9.879627e-06	-0.03718492	0.01267618	4.024967e-06	-3.817311e-06
	2.001611e-06	-3.242805e-06	0.002717216	0.05134076	4.024967e-06	-3.817311e-06	-0.03693519	0.01298072
3e+08	-0.03403137	0.009895986	3.873636e-06	-5.166339e-06	0.0129834	0.05413391	1.911718e-06	-3.435167e-06
	3.873636e-06	-5.166339e-06	-0.03390338	0.0103279	7.081822e-06	-1.020973e-05	0.0137313	0.05572834
	0.0129834	0.05413391	7.081822e-06	-1.020973e-05	-0.03416204	0.01107365	3.435668e-06	-4.501894e-06
	1.911718e-06	-3.435167e-06	0.0137313	0.05572834	3.435668e-06	-4.501894e-06	-0.03393668	0.01134701
3.1e+08	-0.03140772	0.008137199	3.133513e-06	-5.728556e-06	0.02483856	0.05611399	1.733154e-06	-3.619788e-06
	3.133513e-06	-5.728556e-06	-0.03131359	0.00855127	6.816748e-06	-1.060232e-05	0.0256306	0.05759897
	0.02483856	0.05611399	6.816748e-06	-1.060232e-05	-0.03141919	0.0093543	2.687161e-06	-5.060355e-06
	1.733154e-06	-3.619788e-06	0.0256306	0.05759897	2.687161e-06	-5.060355e-06	-0.03122028	0.009601099
3.2e+08	-0.02895706	0.006307154	2.250946e-06	-6.137766e-06	0.03703217	0.05542295	1.471687e-06	-3.773916e-06
	2.250946e-06	-6.137766e-06	-0.02889822	0.006709385	6.304445e-06	-1.099029e-05	0.03783192	0.05678606
	0.03703217	0.05542295	6.304445e-06	-1.099029e-05	-0.02884506	0.007539278	1.810163e-06	-5.459781e-06
	1.471687e-06	-3.773916e-06	0.03783192	0.05678606	1.810163e-06	-5.459781e-06	-0.02867363	0.007762503
3.3e+08	-0.02657411	0.004373444	1.262323e-06	-6.36409e-06	0.04895774	0.05202107	1.138357e-06	-3.876783e-06
	1.262323e-06	-6.36409e-06	-0.02655099	0.004768096	5.558214e-06	-1.130837e-05	0.04972564	0.05325842
	0.04895774	0.05202107	5.558214e-06	-1.130837e-05	-0.02633887	0.005595153	8.417585e-07	-5.674553e-06
	1.138357e-06	-3.876783e-06	0.04972564	0.05325842	8.417585e-07	-5.674553e-06	-0.0261959	0.005795934
3.4e+08	-0.02418321	0.002255437	2.098585e-07	-6.386081e-06	0.06001195	0.0460062	7.489005e-07	-3.910959e-06
	2.098585e-07	-6.386081e-06	-0.02419617	0.002644992	4.605613e-06	-1.149642e-05	0.06070731	0.04712319
	0.06001195	0.0460062	4.605613e-06	-1.149642e-05	-0.02383065	0.003441601	-1.762592e-07	-5.687645e-06
	7.489004e-07	-3.910959e-06	0.06070731	0.04712319	-1.762592e-07	-5.687645e-06	-0.0237179	0.003619316
3.5e+08	-0.02175349	-0.0001616182	-8.603167e-07	-6.19182e-06	0.0696245	0.03760886	3.226976e-07	-3.863459e-06
	-8.603167e-07	-6.19182e-06	-0.02180366	0.000223709	3.48678e-06	-1.150244e-05	0.07020761	0.03862025
	0.0696245	0.03760886	3.48678e-06	-1.150244e-05	-0.02129425	0.0009646339	-1.199338e-06	-5.491369e-06
	3.226976e-07	-3.863459e-06	0.07020761	0.03862025	-1.199338e-06	-5.491369e-06	-0.0212152	0.001117349
3.6e+08	-0.01930847	-0.003009979	-1.900251e-06	-5.779739e-06	0.07728687	0.0271822	-1.184883e-07	-3.726546e-06
	-1.900251e-06	-5.779739e-06	-0.01939853	-0.002629052	2.252407e-06	-1.128517e-05	0.07772117	0.02811195
	0.07728687	0.0271822	2.252407e-06	-1.128517e-05	-0.01875878	-0.001965631	-2.182248e-06	-5.087871e-06
	-1.184883e-07	-3.726546e-06	0.07772117	0.02811195	-2.182248e-06	-5.087871e-06	-0.01871928	-0.00184045
3.7e+08	-0.01693091	-0.00641945	-2.862553e-06	-5.158864e-06	0.08257772	0.01518526	-5.520092e-07	-3.49807e-06
	-2.862553e-06	-5.158864e-06	-0.01706558	-0.006043411	9.609963e-07	-1.081604e-05	0.0828318	0.0160657
	0.08257772	0.01518526	9.609963e-07	-1.081604e-05	-0.01631146	-0.005475715	-3.081277e-06	-4.488985e-06
	-5.520092e-07	-3.49807e-06	0.0828318	0.0160657	-3.081277e-06	-4.488985e-06	-0.01632019	-0.005380215
3.8e+08	-0.01476031	-0.01049844	-3.702755e-06	-4.348514e-06	0.08518336	0.002162173	-9.557914e-07	-3.181362e-06
	-3.702755e-06	-4.348514e-06	-0.01494669	-0.01012717	-3.241369e-07	-1.008039e-05	0.08523285	0.003033001
	0.08518336	0.002162173	-3.241369e-07	-1.008039e-05	-0.01409559	-0.009670033	-3.856283e-06	-3.715686e-06
	-9.557914e-07	-3.181362e-06	0.08523285	0.003033001	-3.856283e-06	-3.715686e-06	-0.01416432	-0.00960487
3.9e+08	-0.01298695	-0.01531556	-4.381638e-06	-3.377482e-06	0.08491535	-0.01128225	-1.309654e-06	-2.784745e-06
	-4.381638e-06	-3.377482e-06	-0.01323442	-0.0149473	-1.53786e-06	-9.078157e-06	0.08474449	-0.01037556
	0.08491535	-0.01128225	-1.53786e-06	-9.078157e-06	-0.01230465	-0.01461134	-4.472658e-06	-2.797102e-06
	-1.309654e-06	-2.784745e-06	0.08474449	-0.01037556	-4.472658e-06	-2.797102e-06	-0.01244791	-0.01457442
4e+08	-0.01183834	-0.02088266	-4.867302e-06	-2.282503e-06	0.0817208	-0.02451132	-1.596414e-06	-2.32065e-06
	-4.867302e-06	-2.282503e-06	-0.01215828	-0.02051299	-2.616512e-06	-7.82371e-06	0.08132381	-0.0235194
	0.0817208	-0.02451132	-2.616512e-06	-7.82371e-06	-0.01116753	-0.02030637	-4.902955e-06	-1.768951e-06
	-1.596414e-06	-2.32065e-06	0.08132381	-0.0235194	-4.902955e-06	-1.768951e-06	-0.01140215	-0.02029161
4.1e+08	-0.01156251	-0.02714314	-5.136801e-06	-1.106347e-06	0.07568798	-0.03688597	-1.802586e-06	-1.804566e-06
	-5.136801e-06	-1.106347e-06	-0.0119676	-0.02676403	-3.500804e-06	-6.345174e-06	0.07506997	-0.03575754
	0.07568798	-0.03688597	-3.500804e-06	-6.345174e-06	-0.01093339	-0.02669256	-5.128106e-06	-6.717966e-07
	-1.802586e-06	-1.804566e-06	0.07506997	-0.03575754	-5.128106e-06	-6.717966e-07	-0.01127748	-0.02668872
4.2e+08	-0.01241028	-0.03396491	-5.177216e-06	1.044854e-07	0.06704532	-0.0477963	-1.918663e-06	-1.253895e-06
	-5.177216e-06	1.044854e-07	-0.01291352	-0.03356378	-4.138316e-06	-4.683165e-06	0.06622288	-0.0464807
	0.06704532	-0.0477963	-4.138316e-06	-4.683165e-06	-0.01185245	-0.03363145	-5.138165e-06	4.509926e-07
	-1.918663e-06	-1.253895e-06	0.06622288	-0.0464807	-5.138165e-06	4.509926e-07	-0.01232396	-0.03362118
4.3e+08	-0.01461111	-0.04113728	-4.986034e-06	1.302274e-06	0.05615246	-0.05669231	-1.939128e-06	-6.868849e-07
	-4.986034e-06	1.302274e-06	-0.01522445	-0.04069646	-4.486114e-06	-2.889081e-06	0.05515371	-0.05514205
	0.05615246	-0.05669231	-4.486114e-06	-2.889081e-06	-0.01415218	-0.04090658	-4.932524e-06	1.555381e-06
	-1.939128e-06	-6.868849e-07	0.05515371	-0.05514205	-4.932524e-06	1.555381e-06	-0.0147671	-0.04086577
4.4e+08	-0.01835177	-0.04837531	-4.570959e-06	2.440452e-06	0.04348591	-0.06311257	-1.862084e-06	-1.217939e-07
	-4.570959e-06	2.440452e-06	-0.01908451	-0.04787179	-4.512542e-06	-1.023072e-06	0.04234982	-0.0612859
	0.04348591	-0.06311257	-4.512542e-06	-1.023072e-06	-0.0180168	-0.04822723	-4.519635e-06	2.598621e-06
	-1.862084e-06	-1.217939e-07	0.04234982	-0.0612859	-4.519635e-06	2.598621e-06	-0.01878698	-0.04812499
4.5e+08	-0.02375537	-0.05532826	-3.949034e-06	3.475833e-06	0.02961678	-0.06670997	-1.688781e-06	4.236828e-07
	-3.949034e-06	3.475833e-06	-0.02461227	-0.05473388	-4.198802e-06	8.482887e-07	0.02839213	-0.06457348
	0.02961678	-0.06670997	-4.198802e-06	8.482887e-07	-0.02356525	-0.05523765	-3.916308e-06	3.541138e-06
	-1.688781e-06	4.236828e-07	0.02839213	-0.06457348	-3.916308e-06	3.541138e-06	-0.02449606	-0.05503684
4.6e+08	-0.03086093	-0.06159574	-3.145328e-06	4.370411e-06	0.01518296	-0.06727116	-1.423146e-06	9.327219e-07
	-3.145328e-06	4.370411e-06	-0.03184031	-0.06087797	-3.540207e-06	2.654696e-06	0.01392643	-0.06480209
	0.01518296	-0.06727116	-3.540207e-06	2.654696e-06	-0.03083113	-0.0615336	-3.146614e-06	4.348055e-06
	-1.423146e-06	9.327219e-07	0.01392643	-0.06480209	-3.146614e-06	4.348055e-06	-0.03191914	-0.06119215
4.7e+08	-0.03960626	-0.06674872	-2.191346e-06	5.09267e-06	0.0008567123	-0.06472962	-1.071428e-06	1.389433e-06
	-2.191346e-06	5.09267e-06	-0.04069817	-0.06587219	-2.54688e-06	4.32491e-06	-0.0003694583	-0.06191785
	0.0008567123	-0.06472962	-2.54688e-06	4.32491e-06	-0.0397473	-0.06668223	-2.240583e-06	4.990384e-06
	-1.071428e-06	1.389433e-06	-0.0003694583	-0.06191785	-2.240583e-06	4.990384e-06	-0.04097813	-0.06615527
4.8e+08	-0.04982079	-0.07035468	-1.123231e-06	5.618314e-06	-0.01268955	-0.05916998	-6.420059e-07	1.778818e-06
