!$
! Info: Touchstone file created by Circ.  Input file=Intel_C2M_200G_9p0in_202208016_staggered.circ
!$
# Hz S RI R 50
0	0.02395618	4.688088e-24	9.042483e-05	1.350559e-22	0.0001331475	3.263792e-22	9.035996e-05	1.348445e-22
	9.042483e-05	1.350559e-22	0.02396916	4.855182e-24	9.040835e-05	1.349602e-22	0.0001327667	3.242262e-22
	0.0001332045	3.265047e-22	9.040834e-05	1.349618e-22	0.02395108	4.464561e-24	9.037341e-05	1.347521e-22
	9.035995e-05	1.348461e-22	0.0001328237	3.243503e-22	9.037341e-05	1.347521e-22	0.02396713	4.593601e-24
1e+07	0.02956057	-0.004699048	1.763128e-05	8.35581e-06	0.001910714	0.00728194	3.746007e-06	2.331078e-05
	1.763128e-05	8.35581e-06	0.02922912	-0.004981556	5.597742e-05	7.303988e-06	0.002239774	0.007352236
	0.001910714	0.00728194	5.597742e-05	7.303988e-06	0.02994813	-0.004724979	2.37986e-05	2.732144e-05
	3.746007e-06	2.331078e-05	0.002239774	0.007352236	2.37986e-05	2.732144e-05	0.0290443	-0.004950186
2e+07	0.03248661	-0.01476485	8.829915e-06	2.498277e-05	0.005195994	0.01343152	4.642729e-06	6.925714e-06
	8.829915e-06	2.498277e-05	0.03190459	-0.01506564	3.935013e-05	2.456321e-05	0.005483306	0.01344867
	0.005196001	0.0134315	3.935013e-05	2.456321e-05	0.03271953	-0.01491157	1.819679e-05	2.241074e-05
	4.64273e-06	6.925713e-06	0.005483314	0.01344866	1.819679e-05	2.241074e-05	0.031771	-0.01493795
3e+07	0.03174814	-0.02676919	2.778878e-05	2.816607e-05	0.01001242	0.01846364	6.330149e-06	2.780805e-06
	2.778878e-05	2.816607e-05	0.03097893	-0.02698662	3.077399e-05	3.782216e-05	0.01026892	0.01848852
	0.0100124	0.01846368	3.077398e-05	3.782217e-05	0.03187322	-0.02689219	1.548749e-05	2.270915e-05
	6.330151e-06	2.780805e-06	0.0102689	0.01848856	1.548749e-05	2.270915e-05	0.03089155	-0.02680432
4e+07	0.02771149	-0.03876968	4.261209e-05	2.371721e-05	0.01604941	0.0219026	8.277128e-06	1.297638e-06
	4.261209e-05	2.371721e-05	0.02680284	-0.03885257	2.546807e-05	4.505634e-05	0.01628071	0.02194695
	0.01604941	0.02190263	2.546808e-05	4.505634e-05	0.02777085	-0.0388364	1.409853e-05	2.319164e-05
	8.277129e-06	1.297637e-06	0.01628071	0.02194697	1.409853e-05	2.319164e-05	0.02676846	-0.03863826
5e+07	0.02088991	-0.04974853	5.32058e-05	1.476789e-05	0.02283193	0.0235308	1.054418e-05	8.382786e-07
	5.32058e-05	1.476789e-05	0.01988698	-0.04966442	4.113799e-05	3.673095e-05	0.02304118	0.02359815
	0.02283194	0.0235308	4.113799e-05	3.673095e-05	0.02091508	-0.04974676	1.978863e-05	1.875859e-05
	1.054418e-05	8.382781e-07	0.02304119	0.02359816	1.978863e-05	1.875859e-05	0.01990529	-0.04943521
6e+07	0.0117915	-0.05905777	5.985231e-05	3.427317e-06	0.02985919	0.02321844	1.223853e-05	-4.280602e-07
	5.98523e-05	3.427317e-06	0.01073887	-0.05878719	5.197213e-05	2.502216e-05	0.03004718	0.023309
	0.02985919	0.02321842	5.197213e-05	2.502216e-05	0.01180913	-0.05898656	2.406656e-05	1.320048e-05
	1.223853e-05	-4.280597e-07	0.03004719	0.02330898	2.406655e-05	1.320048e-05	0.01080683	-0.05855778
7e+07	0.000975806	-0.06622222	6.267763e-05	-9.051375e-06	0.03661072	0.0209704	1.335678e-05	-2.185871e-06
	6.267763e-05	-9.051375e-06	-8.253733e-05	-0.06575624	5.800484e-05	1.141391e-05	0.03677593	0.02108303
	0.03661072	0.0209704	5.800484e-05	1.141391e-05	0.001007326	-0.06608864	2.656143e-05	7.105652e-06
	1.335678e-05	-2.185871e-06	0.03677592	0.02108303	2.656143e-05	7.105652e-06	2.934146e-05	-0.06554005
8e+07	-0.01093745	-0.07094061	6.186655e-05	-2.174373e-05	0.04258891	0.01692443	1.389991e-05	-4.235517e-06
	6.186655e-05	-2.174373e-05	-0.01195821	-0.07027917	5.934415e-05	-2.94525e-06	0.04272744	0.01705794
	0.04258891	0.01692444	5.934415e-05	-2.94525e-06	-0.01087588	-0.07075661	2.731162e-05	8.236123e-07
	1.389991e-05	-4.235517e-06	0.04272745	0.01705794	2.731162e-05	8.236122e-07	-0.01181068	-0.07008786
9e+07	-0.02330782	-0.07308711	5.757113e-05	-3.393306e-05	0.04735193	0.0113378	1.388308e-05	-6.379745e-06
	5.757113e-05	-3.393306e-05	-0.02424716	-0.07223724	5.625003e-05	-1.690411e-05	0.04745754	0.0114917
	0.04735194	0.01133781	5.625003e-05	-1.690411e-05	-0.02320473	-0.0728666	2.634769e-05	-5.282639e-06
	1.388308e-05	-6.379745e-06	0.04745755	0.01149171	2.634769e-05	-5.282639e-06	-0.02407543	-0.07208008
1e+08	-0.03548117	-0.07267866	4.892044e-05	-4.544449e-05	0.05054082	0.004564692	1.325017e-05	-8.452588e-06
	4.892044e-05	-4.544449e-05	-0.03628081	-0.0716478	4.76851e-05	-3.017837e-05	0.05060559	0.004739396
	0.05054082	0.004564691	4.76851e-05	-3.017837e-05	-0.03532219	-0.07243244	2.329838e-05	-1.105444e-05
	1.325017e-05	-8.452588e-06	0.05060559	0.004739395	2.329838e-05	-1.105444e-05	-0.03609927	-0.07153113
1.1e+08	-0.04696447	-0.07012238	3.752773e-05	-4.951935e-05	0.05187975	-0.002981343	1.267228e-05	-9.946889e-06
	3.752773e-05	-4.951935e-05	-0.04758163	-0.06901302	3.571124e-05	-3.446971e-05	0.05188875	-0.0027815
	0.05187975	-0.002981344	3.571124e-05	-3.446971e-05	-0.04674016	-0.06996279	1.903812e-05	-1.371227e-05
	1.267228e-05	-9.946888e-06	0.05188874	-0.002781501	1.903812e-05	-1.371227e-05	-0.04740206	-0.0689937
1.2e+08	-0.05743195	-0.06548499	2.869483e-05	-5.157335e-05	0.05122094	-0.01075586	1.263902e-05	-1.15422e-05
	2.869483e-05	-5.157335e-05	-0.05790123	-0.06433267	2.682067e-05	-3.604938e-05	0.05116414	-0.01051745
	0.05122094	-0.01075586	2.682068e-05	-3.604938e-05	-0.05721622	-0.06537806	1.565338e-05	-1.557476e-05
	1.263902e-05	-1.15422e-05	0.05116414	-0.01051745	1.565338e-05	-1.557476e-05	-0.05777361	-0.06435774
1.3e+08	-0.06644275	-0.05910226	2.275582e-05	-5.221971e-05	0.0485645	-0.0182692	1.205945e-05	-1.361711e-05
	2.275582e-05	-5.221971e-05	-0.06677944	-0.05792692	1.916907e-05	-3.640548e-05	0.04843569	-0.01797644
	0.04856449	-0.0182692	1.916907e-05	-3.640548e-05	-0.06624897	-0.0590226	1.247538e-05	-1.70225e-05
	1.205945e-05	-1.361711e-05	0.04843569	-0.01797644	1.247538e-05	-1.70225e-05	-0.06670299	-0.0579629
1.4e+08	-0.07370938	-0.05138624	1.91076e-05	-5.226508e-05	0.04402077	-0.02503901	1.079216e-05	-1.600729e-05
	1.91076e-05	-5.226508e-05	-0.07392481	-0.05020324	1.229097e-05	-3.595376e-05	0.04381791	-0.02467388
	0.04402077	-0.02503901	1.229097e-05	-3.595376e-05	-0.07354154	-0.05132707	9.340144e-06	-1.813592e-05
	1.079216e-05	-1.600729e-05	0.04381791	-0.02467388	9.340144e-06	-1.813592e-05	-0.07389175	-0.05023978
1.5e+08	-0.07905858	-0.04278177	1.479553e-05	-5.239132e-05	0.03780853	-0.03061989	8.879812e-06	-1.841706e-05
	1.479553e-05	-5.239132e-05	-0.0791625	-0.04160408	6.094704e-06	-3.478247e-05	0.03753434	-0.03016318
	0.03780853	-0.03061989	6.094704e-06	-3.478247e-05	-0.07892551	-0.04274152	6.150153e-06	-1.895091e-05
	8.879812e-06	-1.841706e-05	0.03753433	-0.03016318	6.150153e-06	-1.895091e-05	-0.07917158	-0.04163924
1.6e+08	-0.08242685	-0.03374133	9.836522e-06	-5.23714e-05	0.0302447	-0.03462776	6.272058e-06	-2.069607e-05
	9.836522e-06	-5.23714e-05	-0.08242849	-0.03258052	4.50961e-07	-3.304624e-05	0.02990713	-0.03406022
	0.0302447	-0.03462776	4.50961e-07	-3.304624e-05	-0.08234182	-0.03371607	2.845804e-06	-1.945186e-05
	6.272058e-06	-2.069607e-05	0.02990713	-0.03406022	2.845804e-06	-1.945186e-05	-0.08248465	-0.03261231
1.7e+08	-0.08385486	-0.02470187	4.135528e-06	-5.198628e-05	0.02172858	-0.0367602	2.925221e-06	-2.266808e-05
	4.135528e-06	-5.198628e-05	-0.08376362	-0.02356839	-3.705836e-06	-3.091926e-05	0.02134086	-0.03606401
	0.02172858	-0.0367602	-3.705836e-06	-3.091926e-05	-0.08383211	-0.02468159	-3.965817e-07	-1.962491e-05
	2.925221e-06	-2.266808e-05	0.02134085	-0.03606401	-3.965817e-07	-1.962491e-05	-0.08387447	-0.02359049
1.8e+08	-0.08347789	-0.01606162	-2.190874e-06	-5.094595e-05	0.01272226	-0.03681311	-1.143922e-06	-2.412628e-05
	-2.190874e-06	-5.094595e-05	-0.08330376	-0.01496491	-7.239105e-06	-2.85016e-05	0.01230274	-0.0359733
	0.01272226	-0.03681311	-7.239105e-06	-2.85016e-05	-0.08352901	-0.01603022	-3.568406e-06	-1.939551e-05
	-1.143922e-06	-2.412628e-05	0.01230274	-0.0359733	-3.568406e-06	-1.939551e-05	-0.08347622	-0.01496602
1.9e+08	-0.08151173	-0.008160944	-8.931552e-06	-4.902304e-05	0.003727915	-0.03469347	-5.809847e-06	-2.487262e-05
	-8.931552e-06	-4.902304e-05	-0.08126565	-0.007109198	-1.086575e-05	-2.568193e-05	0.003299378	-0.03369935
	0.003727915	-0.03469346	-1.086575e-05	-2.568193e-05	-0.08164303	-0.008097529	-7.006948e-06	-1.863624e-05
	-5.809847e-06	-2.487262e-05	0.003299378	-0.03369935	-7.006948e-06	-1.863624e-05	-0.08150317	-0.007073829
2e+08	-0.07823364	-0.001265188	-1.590392e-05	-4.603057e-05	-0.004737773	-0.03042651	-1.094602e-05	-2.472926e-05
	-1.590392e-05	-4.603057e-05	-0.07792747	-0.0002649889	-1.448516e-05	-2.238636e-05	-0.005149119	-0.02927298
	-0.004737773	-0.03042651	-1.448516e-05	-2.238636e-05	-0.07844513	-0.001147465	-1.060156e-05	-1.72671e-05
	-1.094602e-05	-2.472926e-05	-0.005149119	-0.02927298	-1.060156e-05	-1.72671e-05	-0.07822899	-0.0001763603
2.1e+08	-0.07396006	0.004444038	-2.288402e-05	-4.18221e-05	-0.0121705	-0.02415794	-1.63769e-05	-2.35397e-05
	-2.288402e-05	-4.18221e-05	-0.07360647	0.005388079	-1.800735e-05	-1.856746e-05	-0.0125365	-0.02284656
	-0.0121705	-0.02415794	-1.800735e-05	-1.856746e-05	-0.07424479	0.004639365	-1.422751e-05	-1.522753e-05
	-1.63769e-05	-2.35397e-05	-0.0125365	-0.02284656	-1.422751e-05	-1.522753e-05	-0.07396555	0.005548105
2.2e+08	-0.0690233	0.00887544	-2.959833e-05	-3.629893e-05	-0.01810593	-0.01614996	-2.188273e-05	-2.118338e-05
	-2.959833e-05	-3.629893e-05	-0.06863535	0.009761056	-2.132216e-05	-1.418777e-05	-0.01839822	-0.01468959
	-0.01810593	-0.01614996	-2.132216e-05	-1.418777e-05	-0.06936734	0.009169229	-1.774969e-05	-1.247951e-05
	-2.188273e-05	-2.118338e-05	-0.01839822	-0.01468959	-1.774969e-05	-1.247951e-05	-0.0690399	0.01000885
2.3e+08	-0.0637464	0.01202477	-3.574021e-05	-2.942565e-05	-0.02214696	-0.006771137	-2.720785e-05	-1.758538e-05
	-3.574021e-05	-2.942565e-05	-0.06333697	0.01285223	-2.431073e-05	-9.22527e-06	-0.02233886	-0.00517809
	-0.02214696	-0.006771137	-2.431073e-05	-9.22527e-06	-0.06413056	0.01243376	-2.10233e-05	-9.008225e-06
	-2.720785e-05	-1.758538e-05	-0.02233886	-0.00517809	-2.10233e-05	-9.008225e-06	-0.06377067	0.01320097
2.4e+08	-0.0584208	0.01396617	-4.098422e-05	-2.123965e-05	-0.02398764	0.0035205	-3.206884e-05	-1.272953e-05
	-4.098422e-05	-2.123965e-05	-0.05800185	0.01473817	-2.684215e-05	-3.680136e-06	-0.02405628	0.005222751
	-0.02398764	0.0035205	-2.684215e-05	-3.680136e-06	-0.0588213	0.01450213	-2.389718e-05	-4.822865e-06
	-3.206884e-05	-1.272953e-05	-0.02405628	0.005222752	-2.389718e-05	-4.822866e-06	-0.05844445	0.01519725
2.5e+08	-0.05328703	0.01483739	-4.50038e-05	-1.185663e-05	-0.02343393	0.01420023	-3.616978e-05	-6.663319e-06
	-4.50038e-05	-1.185663e-05	-0.05286894	0.01555882	-2.87763e-05	2.424826e-06	-0.02336211	0.01598202
	-0.02343393	0.01420023	-2.87763e-05	2.424826e-06	-0.05367773	0.01550556	-2.621393e-05	3.925245e-08
	-3.616978e-05	-6.663319e-06	-0.02336211	0.01598202	-2.621393e-05	3.925245e-08	-0.05329815	0.01613223
2.6e+08	-0.04852162	0.01481985	-4.748915e-05	-1.471401e-06	-0.02041863	0.02470435	-3.921619e-05	4.971309e-07
	-4.748915e-05	-1.471401e-06	-0.04811263	0.01549716	-2.996535e-05	9.037271e-06	-0.02019658	0.02653136
	-0.02041863	0.02470435	-2.996535e-05	9.037271e-06	-0.04887512	0.01561919	-2.781434e-05	5.511241e-06
	-3.921619e-05	4.971309e-07	-0.02019658	0.02653136	-2.781434e-05	5.511241e-06	-0.0485048	0.01618376
2.7e+08	-0.04423006	0.01411635	-4.816601e-05	9.6466e-06	-0.01500797	0.03446113	-4.093075e-05	8.56749e-06
	-4.816601e-05	9.6466e-06	-0.04383588	0.01475674	-3.025785e-05	1.607147e-05	-0.01463457	0.03629624
	-0.01500797	0.03446113	-3.025785e-05	1.607147e-05	-0.04451957	0.01503909	-2.854103e-05	1.149288e-05
	-4.093075e-05	8.56749e-06	-0.01463457	0.03629625	-2.854103e-05	1.149288e-05	-0.04416768	0.01554971
2.8e+08	-0.04044672	0.01292744	-4.681207e-05	2.115807e-05	-0.007401842	0.04292345	-4.106814e-05	1.729595e-05
	-4.681207e-05	2.115807e-05	-0.0400705	0.01353802	-2.950546e-05	2.340295e-05	-0.006885302	0.04472911
	-0.007401842	0.04292345	-2.950546e-05	2.340295e-05	-0.04064793	0.01395939	-2.824533e-05	1.78445e-05
	-4.106814e-05	1.729595e-05	-0.006885302	0.04472911	-2.824533e-05	1.78445e-05	-0.04032047	0.01442492
2.9e+08	-0.03714337	0.01143018	-4.327199e-05	3.266746e-05	0.002075131	0.04960021	-3.943086e-05	2.636983e-05
	-4.327199e-05	3.266746e-05	-0.03678604	0.01201705	-2.757302e-05	3.086233e-05	0.002717216	0.05134076
	0.002075131	0.04960021	-2.757302e-05	3.086233e-05	-0.03723524	0.01255183	-2.679628e-05	2.438736e-05
	-3.943086e-05	2.636983e-05	0.002717216	0.05134076	-2.679628e-05	2.438736e-05	-0.03693519	0.01298072
3e+08	-0.03424256	0.009760369	-3.74684e-05	4.373727e-05	0.01299015	0.05408425	-3.588143e-05	3.542492e-05
	-3.74684e-05	4.373727e-05	-0.03390338	0.0103279	-2.435147e-05	3.823548e-05	0.0137313	0.05572834
	0.01299015	0.05408425	-2.435147e-05	3.823548e-05	-0.03420893	0.0109478	-2.409142e-05	3.09026e-05
	-3.588143e-05	3.542492e-05	0.0137313	0.05572834	-2.409142e-05	3.09026e-05	-0.03393668	0.01134701
3.1e+08	-0.03163617	0.008000949	-2.941512e-05	5.389777e-05	0.02482447	0.05607623	-3.035601e-05	4.405585e-05
	-2.941512e-05	5.389777e-05	-0.03131359	0.00855127	-1.97683e-05	4.526807e-05	0.0256306	0.05759897
	0.02482447	0.05607623	-1.97683e-05	4.526807e-05	-0.03146599	0.009226809	-2.006974e-05	3.713418e-05
	-3.035601e-05	4.405585e-05	0.0256306	0.05759897	-2.006974e-05	3.713418e-05	-0.03122028	0.009601099
3.2e+08	-0.02920563	0.006176517	-1.921881e-05	6.267043e-05	0.03700093	0.05540133	-2.287508e-05	5.182896e-05
	-1.921881e-05	6.267043e-05	-0.02889822	0.006709385	-1.380711e-05	5.166764e-05	0.03783192	0.05678606
	0.03700093	0.05540133	-1.380711e-05	5.166764e-05	-0.02889475	0.007411055	-1.472122e-05	4.279803e-05
	-2.287508e-05	5.182896e-05	0.03783192	0.05678606	-1.472122e-05	4.279803e-05	-0.02867363	0.007762503
3.3e+08	-0.02684346	0.004255152	-7.088928e-06	6.958063e-05	0.04891383	0.05201884	-1.355067e-05	5.830019e-05
	-7.088928e-06	6.958063e-05	-0.02655099	0.004768096	-6.514102e-06	5.711991e-05	0.04972564	0.05325842
	0.04891383	0.05201884	-6.514102e-06	5.711991e-05	-0.02639382	0.005467992	-8.101007e-06	4.759075e-05
	-1.355067e-05	5.830019e-05	0.04972564	0.05325842	-8.101007e-06	4.759075e-05	-0.0261959	0.005795934
3.4e+08	-0.02447189	0.002156109	6.662622e-06	7.4179e-05	0.05996042	0.04602545	-2.597114e-06	6.303177e-05
	6.662622e-06	7.4179e-05	-0.02419617	0.002644992	1.987679e-06	6.130046e-05	0.06070731	0.04712319
	0.05996042	0.04602545	1.987679e-06	6.130046e-05	-0.0238924	0.003317931	-3.335475e-07	5.120625e-05
	-2.597114e-06	6.303177e-05	0.06070731	0.04712319	-3.335475e-07	5.120625e-05	-0.0237179	0.003619316
3.5e+08	-0.02205806	-0.0002360715	2.161703e-05	7.606305e-05	0.06957064	0.03765046	9.674148e-06	6.561543e-05
	2.161703e-05	7.606305e-05	-0.02180366	0.000223709	1.149173e-05	6.389602e-05	0.07020761	0.03862025
	0.06957064	0.03765046	1.149173e-05	6.389602e-05	-0.02136337	0.0008472331	8.380604e-06	5.335212e-05
	9.674148e-06	6.561543e-05	0.07020761	0.03862025	8.380604e-06	5.335212e-05	-0.0212152	0.001117349
3.6e+08	-0.0196238	-0.003054818	3.726046e-05	7.48975e-05	0.07723592	0.02724577	2.284548e-05	6.569419e-05
	3.726046e-05	7.48975e-05	-0.01939853	-0.002629052	2.171385e-05	6.462419e-05	0.07772117	0.02811195
	0.07723592	0.02724577	2.171385e-05	6.462419e-05	-0.01883489	-0.002073892	1.776489e-05	5.376911e-05
	2.284548e-05	6.569419e-05	0.07772117	0.02811195	1.776489e-05	5.376911e-05	-0.01871928	-0.00184045
3.7e+08	-0.01725059	-0.006431534	5.298116e-05	7.044529e-05	0.08253468	0.01526919	3.640468e-05	6.29895e-05
	5.298116e-05	7.044529e-05	-0.01706558	-0.006043411	3.228627e-05	6.325686e-05	0.0828318	0.0160657
	0.08253468	0.01526919	3.228627e-05	6.325686e-05	-0.01639319	-0.005572177	2.747703e-05	5.224918e-05
	3.640468e-05	6.29895e-05	0.0828318	0.0160657	2.747703e-05	5.224918e-05	-0.01632019	-0.005380215
3.8e+08	-0.01507716	-0.01047645	6.809515e-05	6.258414e-05	0.08515262	0.002263799	4.975769e-05	5.732695e-05
	6.809515e-05	6.258414e-05	-0.01494669	-0.01012717	4.2779e-05	5.963828e-05	0.08523285	0.003033001
	0.08515262	0.002263799	4.2779e-05	5.963828e-05	-0.01418077	-0.009752518	3.711096e-05	4.865661e-05
	4.975769e-05	5.732695e-05	0.08523285	0.003033001	3.711096e-05	4.865661e-05	-0.01416432	-0.00960487
3.9e+08	-0.01329342	-0.0152602	8.186081e-05	5.133952e-05	0.08490049	-0.01116654	6.225082e-05	4.865701e-05
	8.186081e-05	5.133952e-05	-0.01323442	-0.0149473	5.270942e-05	5.370442e-05	0.08474449	-0.01037556
	0.08490049	-0.01116654	5.270942e-05	5.370442e-05	-0.01239045	-0.01467833	4.622077e-05	4.293858e-05
	6.225082e-05	4.865701e-05	0.08474449	-0.01037556	4.622077e-05	4.293858e-05	-0.01244791	-0.01457442
4e+08	-0.01212716	-0.02079667	9.351137e-05	3.690344e-05	0.08172436	-0.02438586	7.319203e-05	3.708488e-05
	9.351137e-05	3.690344e-05	-0.01215828	-0.02051299	6.156194e-05	4.549882e-05	0.08132381	-0.0235194
	0.08172436	-0.02438586	6.156194e-05	4.549882e-05	-0.01125065	-0.02035717	5.433118e-05	3.514555e-05
	7.319203e-05	3.708488e-05	0.08132381	-0.0235194	5.433118e-05	3.514555e-05	-0.01140215	-0.02029161
4.1e+08	-0.01182717	-0.02703119	0.0001022974	1.964506e-05	0.07571136	-0.03675542	8.189333e-05	2.287274e-05
	0.0001022974	1.964506e-05	-0.0119676	-0.02676403	6.881434e-05	3.518111e-05	0.07506997	-0.03575754
	0.07571136	-0.03675542	6.881434e-05	3.518111e-05	-0.01101035	-0.02672736	6.096733e-05	2.543017e-05
	8.189333e-05	2.287274e-05	0.07506997	-0.03575754	6.096733e-05	2.543017e-05	-0.01127748	-0.02668872
4.2e+08	-0.01264549	-0.03383339	0.0001075266	1.208508e-07	0.06708868	-0.0476655	8.77084e-05	6.45889e-06
	0.0001075266	1.208508e-07	-0.01291352	-0.03356378	7.396671e-05	2.303221e-05	0.06622288	-0.0464807
	0.06708868	-0.0476655	7.396671e-05	2.303221e-05	-0.01191979	-0.03365136	6.567303e-05	1.405841e-05
	8.77084e-05	6.45889e-06	0.06622288	-0.0464807	6.567303e-05	1.405841e-05	-0.01232396	-0.03362118
4.3e+08	-0.01481333	-0.04099391	0.0001086162	-2.093525e-05	0.05621485	-0.05656584	9.007766e-05	-1.155749e-05
	0.0001086162	-2.093525e-05	-0.01522445	-0.04069646	7.656088e-05	9.453908e-06	0.05515371	-0.05514205
	0.05621485	-0.05656584	7.656088e-05	9.453908e-06	-0.01420671	-0.04091357	6.804059e-05	1.404062e-06
	9.007766e-05	-1.155749e-05	0.05515371	-0.05514205	6.804059e-05	1.404062e-06	-0.0147671	-0.04086577
4.4e+08	-0.01851948	-0.04822873	0.0001051437	-4.26329e-05	0.04356531	-0.06299452	8.857205e-05	-3.043546e-05
	0.0001051437	-4.26329e-05	-0.01908451	-0.04787179	7.621926e-05	-5.038961e-06	0.04234982	-0.0612859
	0.04356531	-0.06299452	7.621926e-05	-5.038961e-06	-0.01805577	-0.04822406	6.773402e-05	-1.205785e-05
	8.857205e-05	-3.043546e-05	0.04234982	-0.0612859	6.773402e-05	-1.205785e-05	-0.01878698	-0.04812499
4.5e+08	-0.02388934	-0.05518746	9.688502e-05	-6.39662e-05	0.02971026	-0.06660371	8.293309e-05	-4.931294e-05
	9.688502e-05	-6.39662e-05	-0.02461227	-0.05473388	7.26694e-05	-1.983185e-05	0.02839213	-0.06457348
	0.02971026	-0.06660371	7.26694e-05	-1.983185e-05	-0.02358653	-0.05522774	6.451351e-05	-2.577002e-05
	8.293309e-05	-4.931294e-05	0.02839213	-0.06457348	6.451351e-05	-2.577002e-05	-0.02449606	-0.05503684
4.6e+08	-0.03096425	-0.06146943	8.385193e-05	-8.385935e-05	0.01528705	-0.06717908	7.310366e-05	-6.725803e-05
	8.385193e-05	-8.385935e-05	-0.03184031	-0.06087797	6.576452e-05	-3.423698e-05	0.01392643	-0.06480209
	0.01528705	-0.06717908	6.576452e-05	-3.423698e-05	-0.03083338	-0.0615209	5.826039e-05	-3.910442e-05
	7.310366e-05	-6.725803e-05	0.01392643	-0.06480209	5.826039e-05	-3.910442e-05	-0.03191914	-0.06119215
4.7e+08	-0.03968429	-0.06664471	6.630997e-05	-0.0001012306	0.0009675913	-0.06465321	5.924538e-05	-8.332315e-05
	6.630997e-05	-0.0001012306	-0.04069817	-0.06587219	5.551225e-05	-4.75095e-05	-0.0003694583	-0.06191785
	0.0009675914	-0.06465321	5.551225e-05	-4.75095e-05	-0.03973003	-0.06667101	4.899249e-05	-5.139144e-05
	5.924538e-05	-8.332315e-05	-0.0003694583	-0.06191785	4.899249e-05	-5.139144e-05	-0.04097813	-0.06615527
4.8e+08	-0.04988086	-0.07027929	4.478351e-05	-0.0001150522	-0.01257575	-0.05910969	4.174846e-05	-9.658922e-05
	4.478351e-05	-0.0001150522	-0.05100545	-0.06928326	4.208627e-05	-5.889384e-05	-0.01382048	-0.05601933
