!$
! Info: Touchstone file created by Circ.  Input file=Intel_C2M_200G_3p5in_202208016_staggered.circ
!$
# Hz S RI R 50
0	0.01386795	2.621594e-24	0.9859309	-4.666069e-24	8.954868e-05	2.467534e-22	-0.0002211992	2.708908e-20
	0.9859309	-4.664292e-24	0.01442461	5.168875e-24	-0.0002212546	2.709587e-20	0.0003149329	3.522046e-22
	8.960687e-05	2.468811e-22	-0.0002213924	2.711275e-20	0.01386588	2.487622e-24	0.9859312	-4.708115e-24
	-0.000221337	2.710596e-20	0.0003150023	3.524473e-22	0.9859312	-4.709896e-24	0.01442602	5.252654e-24
1e+07	0.01697485	-0.000807369	0.9801902	-0.07327527	0.001065188	0.004848569	-0.0007079411	-0.0005242823
	0.9801902	-0.07327527	0.01687909	-0.0007024881	-0.0007079329	-0.0005242763	0.001009597	0.00486166
	0.001065188	0.004848569	-0.0007079329	-0.0005242763	0.01688101	-0.0007783751	0.9802863	-0.07327968
	-0.0007079411	-0.0005242823	0.001009597	0.00486166	0.9802863	-0.07327968	0.01678592	-0.000673888
2e+07	0.01928027	-0.004251114	0.9695637	-0.1434224	0.002302146	0.009213752	-0.000878705	-0.0007217787
	0.9695637	-0.1434224	0.0190739	-0.003856288	-0.000878625	-0.0007218765	0.002039422	0.009332073
	0.002302157	0.009213739	-0.0008786212	-0.0007219877	0.01921107	-0.004157542	0.9696444	-0.1434696
	-0.0008787005	-0.0007218835	0.002039508	0.009331969	0.9696444	-0.1434696	0.01899893	-0.003760211
3e+07	0.02062694	-0.008803865	0.9546665	-0.2114882	0.004115401	0.0134226	-0.00100939	-0.0009035416
	0.9546665	-0.2114882	0.01982497	-0.008319015	-0.001009362	-0.0009036298	0.003655195	0.01357112
	0.004115371	0.01342263	-0.001009404	-0.0009036298	0.0205748	-0.008662521	0.9547328	-0.2115584
	-0.001009402	-0.0009035474	0.003655172	0.01357109	0.9547328	-0.2115584	0.0197793	-0.008179719
4e+07	0.0210304	-0.01385844	0.9353711	-0.277811	0.006549837	0.01727533	-0.00111509	-0.001081342
	0.9353711	-0.277811	0.01959603	-0.01298243	-0.001115109	-0.001081398	0.005752065	0.01757832
	0.00654983	0.01727536	-0.001115114	-0.001081395	0.02100247	-0.01367762	0.9354231	-0.2778992
	-0.001115092	-0.001081328	0.005752065	0.01757833	0.9354231	-0.2778992	0.01957947	-0.01280702
5e+07	0.02062503	-0.01906802	0.9117184	-0.3422559	0.009526843	0.02072777	-0.001204696	-0.001266632
	0.9117184	-0.3422559	0.01848176	-0.0176725	-0.001204793	-0.001266735	0.008325229	0.02127538
	0.009526845	0.02072778	-0.00120479	-0.001266736	0.02062367	-0.01885344	0.9117565	-0.3423595
	-0.001204693	-0.001266633	0.008325232	0.02127539	0.9117565	-0.3423595	0.01849712	-0.01746656
6e+07	0.01949083	-0.02427274	0.8838161	-0.4046055	0.01299204	0.02371381	-0.001287186	-0.001472987
	0.8838161	-0.4046055	0.01653382	-0.02217345	-0.001287454	-0.001473118	0.01132799	0.02460826
	0.01299206	0.0237138	-0.001287452	-0.001473119	0.01951813	-0.0240288	0.8838398	-0.4047227
	-0.001287184	-0.001472987	0.01132799	0.02460826	0.8838398	-0.4047227	0.01658412	-0.02194249
7e+07	0.01768098	-0.02933888	0.8518052	-0.4646236	0.01687771	0.02617312	-0.001376003	-0.001710477
	0.8518052	-0.4646236	0.01384998	-0.0263115	-0.001376458	-0.001710658	0.01470948	0.02753196
	0.01687771	0.02617311	-0.001376406	-0.001710706	0.01773913	-0.02907003	0.8518127	-0.4647527
	-0.001376	-0.001710479	0.01470948	0.02753196	0.8518127	-0.4647527	0.01393731	-0.02606142
8e+07	0.01526191	-0.03414723	0.8158489	-0.5220712	0.02110931	0.02805513	-0.001486791	-0.001984379
	0.8158489	-0.5220712	0.01053933	-0.02995872	-0.001487508	-0.001984597	0.01841356	0.03000843
	0.02110931	0.02805514	-0.001487509	-0.001984594	0.01535301	-0.03385791	0.8158406	-0.5222111
	-0.001486792	-0.001984377	0.01841356	0.03000843	0.8158406	-0.5222111	0.01066478	-0.02969582
9e+07	0.01231784	-0.03859823	0.7761279	-0.5767176	0.02560761	0.02931932	-0.001636538	-0.002295264
	0.7761279	-0.5767176	0.006714119	-0.03301151	-0.001637597	-0.002295448	0.02238111	0.03200807
	0.02560761	0.02931933	-0.001637597	-0.002295439	0.0124431	-0.03829339	0.7761013	-0.5768659
	-0.00163654	-0.002295255	0.02238111	0.03200807	0.7761013	-0.5768659	0.006878169	-0.0327415
1e+08	0.008966648	-0.04258654	0.7328102	-0.6283748	0.03029195	0.02993557	-0.001845023	-0.002639816
	0.7328102	-0.6283748	0.002517068	-0.03535398	-0.001846596	-0.002639791	0.02655415	0.03350999
	0.03029195	0.02993557	-0.001846596	-0.002639792	0.009126058	-0.04227193	0.7327657	-0.6285299
	-0.001845023	-0.002639817	0.02655415	0.03350999	0.7327657	-0.6285299	0.002719209	-0.0350831
1.1e+08	0.005355642	-0.04628018	0.6860353	-0.6766067	0.03509055	0.02987066	-0.002125979	-0.002991914
	0.6860353	-0.6766067	-0.001824491	-0.03710413	-0.002127946	-0.002990417	0.03086341	0.0344847
	0.03509055	0.02987066	-0.002127946	-0.002990419	0.005607644	-0.04597261	0.6859748	-0.6767692
	-0.002125979	-0.002991916	0.03086341	0.0344847	0.6859748	-0.6767692	-0.001587372	-0.03682038
1.2e+08	0.001356842	-0.04952334	0.6362695	-0.7212715	0.03986254	0.02912631	-0.002476645	-0.003357171
	0.6362695	-0.7212715	-0.006416631	-0.03818525	-0.002478294	-0.00335493	0.03523195	0.03493871
	0.03986254	0.0291263	-0.002478294	-0.003354931	0.001643442	-0.04924358	0.636189	-0.7214412
	-0.002476644	-0.003357172	0.03523195	0.03493871	0.636189	-0.7214412	-0.006139144	-0.0379037
1.3e+08	-0.002897169	-0.05225226	0.5837406	-0.7622435	0.04453487	0.0277131	-0.002914373	-0.003721685
	0.5837406	-0.7622435	-0.01110137	-0.03851899	-0.002915846	-0.003719454	0.0396001	0.03487971
	0.04453487	0.0277131	-0.002915846	-0.003719455	-0.002599603	-0.05198809	0.5836387	-0.7624196
	-0.002914373	-0.003721686	0.0396001	0.03487971	0.5836387	-0.7624196	-0.01078629	-0.03825035
1.4e+08	-0.007310637	-0.05445184	0.5287101	-0.7993768	0.04902706	0.02564979	-0.003448947	-0.004067935
	0.5287101	-0.7993768	-0.01574174	-0.03808727	-0.003450791	-0.004065521	0.04390777	0.03432144
	0.04902706	0.02564978	-0.003450791	-0.004065522	-0.007004023	-0.05419198	0.5285847	-0.7995554
	-0.003448947	-0.004067936	0.04390777	0.03432144	0.5285847	-0.7995554	-0.01539427	-0.03783768
1.5e+08	-0.01179727	-0.05612186	0.4714485	-0.8325381	0.05325876	0.02296397	-0.004085611	-0.004375563
	0.4714485	-0.8325381	-0.02020622	-0.03689989	-0.004088004	-0.00437278	0.0480983	0.03328426
	0.05325875	0.02296397	-0.004088004	-0.004372781	-0.01147693	-0.05586258	0.4712992	-0.8327166
	-0.004085611	-0.004375564	0.0480983	0.03328426	0.4712992	-0.8327166	-0.01983179	-0.03667267
1.6e+08	-0.01627695	-0.05727427	0.4122343	-0.8616085	0.05715274	0.01969253	-0.004824906	-0.004622791
	0.4122343	-0.8616085	-0.0243701	-0.03498916	-0.004827869	-0.004619229	0.05211921	0.03179512
	0.05715274	0.01969253	-0.00482787	-0.00461923	-0.01593748	-0.05701757	0.4120593	-0.8617855
	-0.004824906	-0.004622791	0.05211921	0.03179512	0.4120593	-0.8617855	-0.02397376	-0.03478563
1.7e+08	-0.02067479	-0.05793217	0.3513508	-0.8864901	0.06063655	0.01588109	-0.005662666	-0.004787373
	0.3513508	-0.8864901	-0.02811767	-0.03240664	-0.005666054	-0.004782531	0.05592261	0.02988605
	0.06063655	0.01588109	-0.005666054	-0.004782532	-0.02031294	-0.05768328	0.3511492	-0.886663
	-0.005662667	-0.004787374	0.05592261	0.02988605	0.3511492	-0.886663	-0.02770353	-0.03222719
1.8e+08	-0.02492262	-0.05812927	0.2890847	-0.9071032	0.06364378	0.01158346	-0.006590095	-0.004847517
	0.2890847	-0.9071032	-0.03134358	-0.02922037	-0.006593563	-0.004841087	0.05946629	0.02759402
	0.06364378	0.01158346	-0.006593564	-0.004841087	-0.02453776	-0.05789483	0.2888554	-0.9072685
	-0.006590095	-0.004847517	0.05946629	0.02759402	0.2888554	-0.9072685	-0.03091551	-0.0290649
1.9e+08	-0.02895944	-0.05790896	0.2257265	-0.9233837	0.06611542	0.006861112	-0.007593925	-0.004782465
	0.2257265	-0.9233837	-0.03395515	-0.02551334	-0.007597049	-0.004774252	0.06271382	0.02496037
	0.06611542	0.006861111	-0.007597049	-0.004774252	-0.02855358	-0.05769574	0.2254707	-0.9235398
	-0.007593925	-0.004782465	0.06271382	0.02496037	0.2254707	-0.9235398	-0.03351635	-0.02538151
2e+08	-0.03273362	-0.05732316	0.1615674	-0.9352874	0.06800036	0.001781776	-0.008656663	-0.004573766
	0.1615674	-0.9352874	-0.03587268	-0.02138076	-0.008658979	-0.004563902	0.06563444	0.02202893
	0.06800036	0.001781776	-0.008658979	-0.004563902	-0.03230993	-0.05713712	0.1612831	-0.9354296
	-0.008656663	-0.004573766	0.06563444	0.02202893	0.1612831	-0.9354296	-0.03542634	-0.0212716
2.1e+08	-0.03620324	-0.05643003	0.09689767	-0.9427887	0.06925604	-0.003581291	-0.009757298	-0.00420622
	0.09689767	-0.9427887	-0.03703223	-0.01692799	-0.009758357	-0.004194561	0.06820453	0.01884637
	0.06925604	-0.003581291	-0.009758357	-0.004194561	-0.03576683	-0.05627645	0.09658621	-0.9429134
	-0.009757298	-0.00420622	0.06820453	0.01884637	0.09658621	-0.9429134	-0.03658069	-0.01684056
2.2e+08	-0.03933731	-0.05529349	0.03200765	-0.9458777	0.06984888	-0.009150538	-0.01087149	-0.003667703
	0.03200765	-0.9458777	-0.03738457	-0.01226866	-0.01087086	-0.00365456	0.0704062	0.01546052
	0.06984888	-0.009150538	-0.01087086	-0.00365456	-0.03889422	-0.05517605	0.03166986	-0.9459813
	-0.01087149	-0.003667703	0.0704062	0.01546052	0.03166986	-0.9459813	-0.03693066	-0.01220143
2.3e+08	-0.04211614	-0.0539803	-0.03281178	-0.9445611	0.06975497	-0.01484531	-0.01197262	-0.002951014
	-0.03281178	-0.9445611	-0.03689765	-0.007522468	-0.01196995	-0.002936404	0.07222789	0.01191985
	0.06975497	-0.01484531	-0.01196995	-0.002936404	-0.04167249	-0.05390162	-0.0331758	-0.9446404
	-0.01197262	-0.002951014	0.07222789	0.01191985	-0.0331758	-0.9446404	-0.03644359	-0.007473374
2.4e+08	-0.04453153	-0.05255853	-0.09727549	-0.9388651	0.06895983	-0.02058251	-0.01303256	-0.002052654
	-0.09727549	-0.9388651	-0.03555637	-0.002812234	-0.01302747	-0.002037101	0.07366475	0.008272942
	0.06895983	-0.02058251	-0.01302747	-0.002037101	-0.04409421	-0.05252032	-0.09766296	-0.9389174
	-0.01303256	-0.002052654	0.07366476	0.008272942	-0.09766296	-0.9389174	-0.03510419	-0.002779062
2.5e+08	-0.04658706	-0.05109588	-0.1610972	-0.9288326	0.06745867	-0.02627809	-0.01402234	-0.0009744662
	-0.1610972	-0.9288326	-0.0333628	0.001737408	-0.01401446	-0.0009583852	0.07471761	0.004567337
	0.06745867	-0.02627809	-0.01401446	-0.0009583855	-0.04616251	-0.05109871	-0.161507	-0.9288527
	-0.01402234	-0.0009744662	0.07471761	0.004567337	-0.161507	-0.9288527	-0.03291365	0.001757409
2.6e+08	-0.04829714	-0.04965784	-0.2239973	-0.9145206	0.06525681	-0.03184814	-0.0149134	0.0002766897
	-0.2239973	-0.9145206	-0.03033637	0.006003218	-0.01490241	0.0002930844	0.07539313	0.0008490294
	0.06525681	-0.03184814	-0.01490241	0.0002930842	-0.04789216	-0.0497017	-0.2244249	-0.9145054
	-0.0149134	0.0002766897	0.07539313	0.0008490294	-0.2244249	-0.9145054	-0.02989122	0.006012522
2.7e+08	-0.04968682	-0.04830624	-0.2856977	-0.8960029	0.06236882	-0.03720942	-0.015678	0.001689466
	-0.2856977	-0.8960029	-0.02651299	0.00986455	-0.01566375	0.001705397	0.07570339	-0.002837822
	0.06236882	-0.03720942	-0.01566375	0.001705397	-0.04930805	-0.04839027	-0.2861412	-0.8959505
	-0.015678	0.001689465	0.07570339	-0.002837822	-0.2861412	-0.8959505	-0.0260721	0.009866467
2.8e+08	-0.05079143	-0.04709724	-0.3459263	-0.8733716	0.05881892	-0.04228102	-0.01629034	0.003247636
	-0.3459263	-0.8733716	-0.0219452	0.01320639	-0.01627263	0.003262758	0.07566581	-0.00645216
	0.05881892	-0.04228102	-0.01627263	0.003262758	-0.05044506	-0.04721974	-0.346382	-0.8732794
	-0.01629034	0.003247636	0.07566581	-0.00645216	-0.346382	-0.8732794	-0.02150817	0.0132043
2.9e+08	-0.05165485	-0.04608031	-0.4044152	-0.8467352	0.05464078	-0.04698515	-0.01672707	0.004931419
	-0.4044152	-0.8467352	-0.01670158	0.01592153	-0.01670607	0.004944922	0.0753023	-0.009955903
	0.05464078	-0.04698515	-0.01670607	0.004944922	-0.05134729	-0.04623916	-0.4048796	-0.8466009
	-0.01672707	0.004931419	0.0753023	-0.009955903	-0.4048796	-0.8466009	-0.01626711	0.01591845
3e+08	-0.05232883	-0.04529671	-0.4609033	-0.8162165	0.04987661	-0.05124787	-0.01696857	0.00671665
	-0.4609033	-0.8162165	-0.01086428	0.01791172	-0.01694443	0.006727896	0.07463886	-0.01331511
	0.04987661	-0.05124787	-0.01694443	0.006727895	-0.05206613	-0.04548928	-0.4613722	-0.8160376
	-0.01696857	0.00671665	0.07463886	-0.01331511	-0.4613722	-0.8160376	-0.01043036	0.01791058
3.1e+08	-0.05287151	-0.04477855	-0.5151381	-0.7819565	0.0445772	-0.05500058	-0.01699904	0.008576505
	-0.5151381	-0.7819565	-0.004528733	0.01909052	-0.01697169	0.008584937	0.07370574	-0.01649951
	0.0445772	-0.05500058	-0.01697169	0.008584937	-0.05266005	-0.04500173	-0.5156048	-0.781731
	-0.01699904	0.008576505	0.07370574	-0.01649951	-0.5156048	-0.781731	-0.004093132	0.0190936
3.2e+08	-0.05334653	-0.04454795	-0.5668705	-0.7441125	0.03880121	-0.05818074	-0.01680695	0.0104819
	-0.5668705	-0.7441125	0.002197462	0.01938401	-0.01677678	0.01048692	0.07253612	-0.01948403
	0.03880121	-0.05818074	-0.01677678	0.01048692	-0.05319193	-0.04479739	-0.5673336	-0.7438396
	-0.01680695	0.0104819	0.07253612	-0.01948403	-0.5673336	-0.7438396	0.002638245	0.01939378
3.3e+08	-0.05382067	-0.04461602	-0.6158651	-0.702856	0.03261439	-0.06073232	-0.01638519	0.01240244
	-0.6158651	-0.702856	0.009197761	0.01873295	-0.01635315	0.01240307	0.07116544	-0.02224835
	0.03261439	-0.06073232	-0.01635315	0.01240307	-0.05372884	-0.04488696	-0.6163182	-0.7025363
	-0.01638519	0.01240244	0.07116544	-0.02224835	-0.6163182	-0.7025363	0.009647375	0.01875104
3.4e+08	-0.05436289	-0.0449822	-0.6618925	-0.6583789	0.02608884	-0.0626076	-0.0157322	0.01430651
	-0.6618925	-0.6583789	0.01634708	0.01709408	-0.01569847	0.01430255	0.06963178	-0.02477734
	0.02608884	-0.0626076	-0.01569847	0.01430255	-0.0543389	-0.04526915	-0.6623339	-0.6580116
	-0.0157322	0.01430651	0.06963178	-0.02477734	-0.6623339	-0.6580116	0.01681011	0.01712175
3.5e+08	-0.05504198	-0.04563437	-0.7047406	-0.6108857	0.01930217	-0.06376684	-0.01485067	0.01616331
	-0.7047406	-0.6108857	0.02351542	0.01444103	-0.01481594	0.01615431	0.06797405	-0.0270619
	0.01930217	-0.06376684	-0.01481594	0.01615431	-0.05509116	-0.04593122	-0.7051611	-0.6104716
	-0.01485067	0.01616331	0.06797405	-0.0270619	-0.7051611	-0.6104716	0.02399602	0.01447781
3.6e+08	-0.05592548	-0.04654865	-0.744204	-0.5605989	0.01233664	-0.06417981	-0.01374811	0.01794286
	-0.744204	-0.5605989	0.03056864	0.01076429	-0.01371356	0.01792847	0.06623174	-0.02909823
	0.01233664	-0.06417981	-0.01371356	0.01792847	-0.05605212	-0.0468483	-0.7445999	-0.560139
	-0.01374811	0.01794286	0.06623174	-0.02909823	-0.7445999	-0.560139	0.03107194	0.01080997
3.7e+08	-0.05707681	-0.04768955	-0.7800951	-0.507754	0.005277445	-0.06382609	-0.01243675	0.01961693
	-0.7800951	-0.507754	0.0373722	0.006072726	-0.01240302	0.01959712	0.06444417	-0.03088845
	0.005277445	-0.06382609	-0.01240302	0.01959712	-0.05728469	-0.04798423	-0.7804629	-0.5072498
	-0.01243675	0.01961693	0.06444417	-0.03088845	-0.7804629	-0.5072498	0.03790344	0.00612574
3.8e+08	-0.05855458	-0.0490106	-0.8122422	-0.4526013	-0.001787749	-0.06269483	-0.01093178	0.02116017
	-0.8122422	-0.4526013	0.04379316	0.0003932493	-0.01090046	0.02113468	0.06264938	-0.03244055
	-0.001787749	-0.06269483	-0.01090046	0.02113468	-0.0588471	-0.04929187	-0.8125747	-0.4520549
	-0.01093178	0.02116017	0.06264938	-0.03244055	-0.8125747	-0.4520549	0.04435712	0.0004505694
3.9e+08	-0.06041054	-0.05045411	-0.8404882	-0.3954072	-0.008770313	-0.06078638	-0.009253425	0.0225498
	-0.8404882	-0.3954072	0.04970151	-0.006230056	-0.00922457	0.02251913	0.06088386	-0.03376823
	-0.008770313	-0.06078638	-0.00922457	0.02251913	-0.06078926	-0.05071307	-0.8407839	-0.3948225
	-0.009253425	0.0225498	0.06088386	-0.03376823	-0.8407839	-0.3948225	0.05030329	-0.00617097
4e+08	-0.06268727	-0.05195364	-0.8646974	-0.3364506	-0.01558224	-0.05811091	-0.007422928	0.023767
	-0.8646974	-0.3364506	0.05497421	-0.01373502	-0.007398063	0.0237315	0.05918114	-0.03489045
	-0.01558224	-0.05811091	-0.007398063	0.0237315	-0.06315355	-0.05218116	-0.8649503	-0.3358285
	-0.007422928	0.023767	0.05918114	-0.03489045	-0.8649503	-0.3358285	0.0556185	-0.0136793
4.1e+08	-0.06541713	-0.05343525	-0.8847531	-0.2760147	-0.0221369	-0.05468916	-0.005464111	0.02479681
	-0.8847531	-0.2760147	0.05949739	-0.02204468	-0.005444276	0.02475694	0.05757117	-0.03583066
	-0.0221369	-0.05468916	-0.005444276	0.02475694	-0.06597113	-0.05362146	-0.8849606	-0.2753588
	-0.005464111	0.02479681	0.05757117	-0.03583066	-0.8849606	-0.2753588	0.06018843	-0.02199763
4.2e+08	-0.06862109	-0.0548168	-0.9005611	-0.2144009	-0.02835104	-0.05055223	-0.003402714	0.02562834
	-0.9005611	-0.2144009	0.06316721	-0.03106594	-0.003388368	0.02558482	0.05607981	-0.03661785
	-0.02835104	-0.05055223	-0.003388368	0.02558482	-0.0692617	-0.05495172	-0.9007186	-0.2137162
	-0.003402714	0.02562834	0.05607981	-0.03661785	-0.9007186	-0.2137162	0.06390841	-0.03103359
4.3e+08	-0.0723072	-0.05601247	-0.9120486	-0.1519121	-0.03414551	-0.04574042	-0.001263536	0.02625473
	-0.9120486	-0.1519121	0.06589336	-0.04069331	-0.001255706	0.02620869	0.05472778	-0.03728358
	-0.03414551	-0.04574042	-0.001255706	0.02620869	-0.07303227	-0.05608634	-0.9121534	-0.1512021
	-0.001263536	0.02625473	0.05472778	-0.03728358	-0.9121534	-0.1512021	0.06668725	-0.04068289
4.4e+08	-0.07647023	-0.05693362	-0.9191668	-0.08885774	-0.03944644	-0.04030327	0.0009279128	0.02667317
	-0.9191668	-0.08885774	0.06759992	-0.05080987	0.0009290018	0.02662548	0.05353012	-0.03786303
	-0.03944644	-0.04030327	0.0009290018	0.02662548	-0.07727633	-0.05693629	-0.919216	-0.08812756
	0.0009279128	0.02667317	0.05353012	-0.03786303	-0.919216	-0.08812756	0.06844839	-0.05082905
4.5e+08	-0.08109032	-0.05748968	-0.9218903	-0.02555439	-0.04418675	-0.03429863	0.003147454	0.02688452
	-0.9218903	-0.02555439	0.06822663	-0.06128905	0.003141508	0.02683642	0.05249635	-0.03839336
	-0.04418675	-0.03429863	0.003141508	0.02683642	-0.08197293	-0.05741139	-0.9218817	-0.02480865
	0.003147454	0.02688452	0.05249635	-0.03839336	-0.9218817	-0.02480865	0.06913051	-0.06134613
4.6e+08	-0.08613356	-0.05759154	-0.9202186	0.03768236	-0.04830661	-0.02779147	0.005372968	0.02689275
	-0.9202186	0.03768236	0.06773073	-0.07199795	0.00535951	0.02684561	0.05162934	-0.03891309
	-0.04830661	-0.02779147	0.00535951	0.02684561	-0.08708713	-0.05742345	-0.9201495	0.03844006
	0.005372968	0.02689275	0.05162934	-0.03891309	-0.9201495	0.03844006	0.06868952	-0.07210188
4.7e+08	-0.09155128	-0.05715508	-0.9141787	0.1005421	-0.05175486	-0.02085277	0.007583305	0.02670485
	-0.9141787	0.1005421	0.06608803	-0.08279926	0.007562778	0.02665987	0.05092549	-0.03946028
	-0.05175486	-0.02085277	0.007562778	0.02665987	-0.09256913	-0.05688772	-0.9140464	0.101305
	0.007583305	0.02670485	0.05092549	-0.03946028	-0.9140464	0.101305	0.06709989	-0.08295898
4.8e+08	-0.09728192	-0.05610004	-0.9038144	0.1627132	-0.05448878	-0.01355882	0.009761235	0.02632979
	-0.9038144	0.1627132	0.06329138	-0.09355425	0.009733481	0.02628827	0.05037497	-0.04007258
	-0.05448878	-0.01355882	0.009733481	0.02628827	-0.09835568	-0.05572555	-0.9036209	0.1634764
	0.009761235	0.02632979	0.05037497	-0.04007258	-0.9036209	0.1634764	0.06435391	-0.09377862
4.9e+08	-0.1032493	-0.05435424	-0.8892016	0.2238875	-0.05647563	-0.00598944	0.01189067	0.02577838
	-0.8892016	0.2238875	0.05935289	-0.1041236	0.01185675	0.02574144	0.04996152	-0.04078581
	-0.05647563	-0.00598944	0.01185675	0.02574144	-0.1043703	-0.05386535	-0.8889445	0.2246479
	0.01189067	0.02577838	0.04996152	-0.04078581	-0.8889445	0.2246479	0.06046158	-0.1044223
5e+08	-0.1093662	-0.05185688	-0.8704361	0.2837747	-0.05769163	0.001773135	0.0139597	0.0250616
	-0.8704361	0.2837747	0.05430245	-0.1143738	0.01392005	0.02503068	0.049663	-0.04163232
	-0.05769163	0.001773135	0.01392005	0.02503068	-0.1105245	-0.05124663	-0.8701152	0.2845233
	0.0139597	0.0250616	0.049663	-0.04163232	-0.8701152	0.2845233	0.0554516	-0.1147548
5.1e+08	-0.1155347	-0.04855656	-0.8476332	0.3420842	-0.0581228	0.009644736	0.0159577	0.0241919
	-0.8476332	0.3420842	0.04818637	-0.124175	0.01591334	0.02416789	0.04945202	-0.04264127
	-0.0581228	0.009644736	0.01591334	0.02416789	-0.1167195	-0.04781999	-0.8472506	0.3428174
	0.0159577	0.0241919	0.04945202	-0.04264127	-0.8472506	0.3428174	0.04936952	-0.1246467
5.2e+08	-0.1216471	-0.04441669	-0.8209338	0.3985418	-0.05776523	0.01754211	0.01787761	0.02318031
