!$
! Info: Touchstone file created by Circ.  Input file=Intel_C2M_200G_3p5in_202208016_staggered.circ
!$
# Hz S RI R 50
0	0.01442461	5.168459e-24	-6.829866e-05	8.364173e-21	0.0003149347	3.521995e-22	-6.393951e-05	7.830332e-21
	-6.829875e-05	8.364185e-21	0.01386795	2.621594e-24	-7.55285e-05	9.249574e-21	8.954868e-05	2.467534e-22
	0.0003150041	3.524436e-22	-7.552859e-05	9.249585e-21	0.01442583	5.254065e-24	-6.832423e-05	8.367305e-21
	-6.39395e-05	7.830331e-21	8.960687e-05	2.468811e-22	-6.832414e-05	8.367293e-21	0.01386588	2.487622e-24
1e+07	0.01725169	-0.000575011	-0.0003620902	-9.193607e-05	0.0008445767	0.004846252	-4.410017e-05	-0.0001037026
	-0.0003620902	-9.193607e-05	0.01697485	-0.000807369	-0.0005175708	-1.26546e-05	0.001065188	0.004848569
	0.0008445767	0.004846252	-0.0005175708	-1.26546e-05	0.01705974	-0.000497871	-0.000269448	-9.977131e-05
	-4.410017e-05	-0.0001037026	0.001065188	0.004848569	-0.000269448	-9.977131e-05	0.01688101	-0.0007783751
2e+07	0.01948772	-0.003781929	-0.0003288559	-0.0003169034	0.001894495	0.009367038	-6.44554e-05	-0.0001783562
	-0.0003288559	-0.0003169034	0.01928027	-0.004251114	-0.0004971596	-0.0002277326	0.002302146	0.009213752
	0.001894582	0.009366934	-0.0004971596	-0.0002277326	0.01938359	-0.00357288	-0.0002644003	-0.000260032
	-6.445539e-05	-0.0001783561	0.002302157	0.009213739	-0.0002644004	-0.000260032	0.01921107	-0.004157542
3e+07	0.02027063	-0.008275103	-0.0003277813	-0.0004449577	0.003527313	0.01362511	-9.597079e-05	-0.0002486388
	-0.0003277813	-0.0004449577	0.02062694	-0.008803865	-0.0004969558	-0.0003374114	0.004115401	0.0134226
	0.003527289	0.01362508	-0.0004969558	-0.0003374115	0.02025039	-0.008008809	-0.0002844612	-0.0003722593
	-9.597079e-05	-0.0002486387	0.004115371	0.01342263	-0.0002844612	-0.0003722593	0.0205748	-0.008662521
4e+07	0.02006636	-0.01297146	-0.000350516	-0.0005470178	0.005639877	0.01764369	-0.0001470135	-0.0003105656
	-0.000350516	-0.0005470178	0.0210304	-0.01385844	-0.0005125278	-0.0004242473	0.006549837	0.01727533
	0.005639877	0.0176437	-0.0005125278	-0.0004242473	0.02012081	-0.01267151	-0.0003236761	-0.0004646872
	-0.0001470135	-0.0003105656	0.00654983	0.01727536	-0.0003236762	-0.0004646872	0.02100247	-0.01367762
5e+07	0.01897037	-0.01769815	-0.0003916422	-0.0006317866	0.008227598	0.02134776	-0.0002066876	-0.0003649563
	-0.0003916422	-0.0006317866	0.02062503	-0.01906802	-0.0005405778	-0.0004992444	0.009526843	0.02072777
	0.008227601	0.02134777	-0.0005405778	-0.0004992444	0.01909488	-0.01738037	-0.0003785182	-0.0005425652
	-0.0002066876	-0.0003649563	0.009526845	0.02072778	-0.0003785182	-0.0005425652	0.02062367	-0.01885344
6e+07	0.01703449	-0.02223916	-0.0004474754	-0.0007015585	0.01124375	0.02468454	-0.0002737866	-0.0004113701
	-0.0004474755	-0.0007015585	0.01949083	-0.02427274	-0.0005795139	-0.0005662935	0.01299204	0.02371381
	0.01124375	0.02468454	-0.0005795139	-0.0005662935	0.01722515	-0.0219165	-0.0004463114	-0.0006069654
	-0.0002737866	-0.0004113701	0.01299206	0.0237138	-0.0004463114	-0.0006069653	0.01951813	-0.0240288
7e+07	0.01435633	-0.02642032	-0.0005462519	-0.0007406895	0.01463732	0.0276097	-0.0003471201	-0.0004487928
	-0.0005462519	-0.0007406895	0.01768098	-0.02933888	-0.0006282275	-0.000626597	0.01687771	0.02617312
	0.01463732	0.0276097	-0.0006282275	-0.000626597	0.01460837	-0.02610445	-0.0005247066	-0.0006578114
	-0.0003471201	-0.0004487928	0.01687771	0.02617311	-0.0005247066	-0.0006578114	0.01773913	-0.02907003
8e+07	0.0110445	-0.03011341	-0.0006861024	-0.0007400473	0.01835198	0.03008566	-0.000425443	-0.0004765765
	-0.0006861024	-0.0007400473	0.01526191	-0.03414723	-0.0006861026	-0.0006805328	0.02110931	0.02805513
	0.01835198	0.03008566	-0.0006861026	-0.0006805328	0.01135194	-0.02981532	-0.0006114057	-0.0006945535
	-0.000425443	-0.0004765765	0.02110931	0.02805514	-0.0006114057	-0.0006945535	0.01535301	-0.03385791
9e+07	0.007210303	-0.03321498	-0.0008220925	-0.0007172666	0.0223284	0.03208329	-0.0005081039	-0.0004945932
	-0.0008220925	-0.0007172666	0.01231784	-0.03859823	-0.0007531378	-0.0007282263	0.02560761	0.02931932
	0.0223284	0.03208329	-0.0007531378	-0.0007282263	0.007565749	-0.03294475	-0.0007130329	-0.0007098421
	-0.0005081039	-0.0004945932	0.02560761	0.02931933	-0.0007130329	-0.000709842	0.0124431	-0.03829339
1e+08	0.002991818	-0.03561304	-0.0009461608	-0.0006662696	0.02650778	0.03358208	-0.0005931013	-0.0005018843
	-0.0009461608	-0.0006662696	0.008966648	-0.04258654	-0.0008277237	-0.0007676559	0.03029195	0.02993557
	0.02650778	0.03358208	-0.0008277237	-0.0007676559	0.003382715	-0.03538464	-0.0008355205	-0.0006882076
	-0.0005931013	-0.0005018842	0.03029195	0.02993557	-0.0008355205	-0.0006882076	0.009126058	-0.04227193
1.1e+08	-0.001394111	-0.03739846	-0.001040282	-0.0006238609	0.03082193	0.03455602	-0.0006795705	-0.000502178
	-0.001040282	-0.0006238609	0.005355642	-0.04628018	-0.000918357	-0.0007963707	0.03509055	0.02987066
	0.03082193	0.03455602	-0.000918357	-0.0007963707	-0.0009927102	-0.03718218	-0.000943198	-0.0006639766
	-0.0006795705	-0.000502178	0.03509055	0.02987066	-0.000943198	-0.0006639766	0.005607644	-0.04597261
1.2e+08	-0.006024576	-0.03850272	-0.001142883	-0.0005805085	0.03519592	0.03500902	-0.0007706311	-0.0004936409
	-0.001142883	-0.0005805085	0.001356842	-0.04952334	-0.001020739	-0.0008192241	0.03986254	0.02912631
	0.03519592	0.03500902	-0.001020739	-0.0008192241	-0.005601922	-0.03830332	-0.001055928	-0.0006323013
	-0.0007706311	-0.0004936409	0.03986254	0.0291263	-0.001055928	-0.0006323013	0.001643442	-0.04924358
1.3e+08	-0.01074551	-0.03885386	-0.001247418	-0.000527788	0.03956934	0.03494859	-0.0008667272	-0.0004767982
	-0.001247418	-0.000527788	-0.002897169	-0.05225226	-0.001133609	-0.0008330215	0.04453487	0.0277131
	0.03956934	0.03494859	-0.001133609	-0.0008330215	-0.01030253	-0.03867754	-0.001169508	-0.0005886964
	-0.0008667272	-0.0004767982	0.04453487	0.0277131	-0.001169508	-0.0005886964	-0.002599603	-0.05198809
1.4e+08	-0.01542072	-0.03843538	-0.001351512	-0.0004640648	0.0438819	0.03438848	-0.0009637535	-0.000448181
	-0.001351512	-0.0004640648	-0.007310637	-0.05445184	-0.00125633	-0.0008356343	0.04902706	0.02564979
	0.0438819	0.03438848	-0.00125633	-0.0008356343	-0.01496138	-0.03828521	-0.001281978	-0.0005324417
	-0.0009637535	-0.000448181	0.04902706	0.02564978	-0.001281978	-0.0005324417	-0.007004023	-0.05419198
1.5e+08	-0.01991906	-0.03725786	-0.001453416	-0.0003886286	0.04807689	0.03334908	-0.001060633	-0.0004076244
	-0.001453416	-0.0003886286	-0.01179727	-0.05612186	-0.001388053	-0.0008249599	0.05325876	0.02296397
	0.04807689	0.03334908	-0.001388053	-0.0008249599	-0.0194478	-0.03713483	-0.001391737	-0.0004633382
	-0.001060633	-0.0004076244	0.05325875	0.02296397	-0.001391737	-0.0004633382	-0.01147693	-0.05586258
1.6e+08	-0.02411602	-0.03535408	-0.001551571	-0.0003012917	0.05210172	0.03185743	-0.001156201	-0.0003550943
	-0.001551571	-0.0003012917	-0.01627695	-0.05727427	-0.001527525	-0.0007990077	0.05715274	0.01969253
	0.05210172	0.03185743	-0.001527525	-0.0007990077	-0.02363702	-0.03525764	-0.001497354	-0.0003815169
	-0.001156201	-0.0003550943	0.05715274	0.01969253	-0.001497354	-0.0003815169	-0.01593748	-0.05701757
1.7e+08	-0.02789605	-0.03277588	-0.001644565	-0.0002020919	0.05590849	0.02994562	-0.001249291	-0.0002905816
	-0.001644565	-0.0002020919	-0.02067479	-0.05793217	-0.001673113	-0.0007559496	0.06063655	0.01588109
	0.05590849	0.02994562	-0.001673113	-0.0007559496	-0.02741259	-0.03270488	-0.001597468	-0.0002872721
	-0.001249291	-0.0002905816	0.06063655	0.01588109	-0.001597468	-0.0002872721	-0.02031294	-0.05768328
1.8e+08	-0.03115384	-0.02959148	-0.001731077	-9.132709e-05	0.05945498	0.02765072	-0.001338695	-0.0002141778
	-0.001731077	-9.132709e-05	-0.02492262	-0.05812927	-0.001822849	-0.0006940009	0.06364378	0.01158346
	0.05945498	0.02765072	-0.001822849	-0.0006940009	-0.03066906	-0.02954452	-0.001690895	-0.0001811138
	-0.001338695	-0.0002141778	0.06364378	0.01158346	-0.001690895	-0.0001811138	-0.02453776	-0.05789483
1.9e+08	-0.03379676	-0.02588396	-0.001809855	3.06114e-05	0.06270474	0.02501414	-0.001423221	-0.0001260597
	-0.001809855	3.06114e-05	-0.02895944	-0.05790896	-0.001974442	-0.0006114924	0.06611542	0.006861112
	0.06270474	0.02501414	-0.001974442	-0.0006114924	-0.03331318	-0.02585957	-0.001776434	-6.360968e-05
	-0.001423221	-0.0001260597	0.06611542	0.006861111	-0.001776434	-6.360968e-05	-0.02855358	-0.05769574
2e+08	-0.03574496	-0.02174864	-0.00187888	0.0001627765	0.06562702	0.02207983	-0.001501644	-2.656845e-05
	-0.00187888	0.0001627765	-0.03273362	-0.05732316	-0.002130861	-0.000482867	0.06800036	0.001781776
	0.06562702	0.02207983	-0.002130861	-0.000482867	-0.03526544	-0.02174472	-0.001852241	6.395657e-05
	-0.001501644	-2.656845e-05	0.06800036	0.001781776	-0.001852241	6.395657e-05	-0.03230993	-0.05713712
2.1e+08	-0.0369346	-0.01729086	-0.001937931	0.0003047486	0.06819823	0.01889449	-0.001572752	8.392698e-05
	-0.001937931	0.0003047486	-0.03620324	-0.05643003	-0.002279881	-0.0003320884	0.06925604	-0.003581291
	0.06819823	0.01889449	-0.002279881	-0.0003320884	-0.03646082	-0.01730554	-0.00191827	0.000201289
	-0.001572752	8.392698e-05	0.06925604	-0.003581291	-0.00191827	0.000201289	-0.03576683	-0.05627645
2.2e+08	-0.0373164	-0.01262423	-0.001985963	0.0004558119	0.07040051	0.01550606	-0.001635332	0.0002049184
	-0.001985963	0.0004558119	-0.03933731	-0.05529349	-0.002418434	-0.0001591446	0.06984888	-0.009150538
	0.07040051	0.01550606	-0.002418434	-0.0001591446	-0.03685053	-0.01265507	-0.001973628	0.0003476348
	-0.001635332	0.0002049184	0.06984888	-0.009150538	-0.001973628	0.0003476348	-0.03889422	-0.05517605
2.3e+08	-0.03685819	-0.007868452	-0.002021999	0.0006150881	0.07222238	0.01196305	-0.00168822	0.0003357545
	-0.002021999	0.0006150881	-0.04211614	-0.0539803	-0.002543364	3.531427e-05	0.06975497	-0.01484531
	0.07222238	0.01196305	-0.002543364	3.531427e-05	-0.03640179	-0.007912628	-0.002017513	0.0005021483
	-0.00168822	0.0003357545	0.06975497	-0.01484531	-0.002017513	0.0005021483	-0.04167249	-0.05390162
2.4e+08	-0.03554476	-0.003146336	-0.002045102	0.0007817566	0.07365903	0.008314149	-0.001730278	0.0004756626
	-0.002045102	0.0007817566	-0.04453153	-0.05255853	-0.002651529	0.000250215	0.06895983	-0.02058251
	0.07365903	0.008314149	-0.002651529	0.000250215	-0.0350992	-0.003200857	-0.002049142	0.0006639701
	-0.001730278	0.0004756626	0.06895983	-0.02058251	-0.002049142	0.0006639701	-0.04409421	-0.05252032
2.5e+08	-0.03337797	0.0014175	-0.002054425	0.0009547713	0.07471133	0.00460691	-0.001760384	0.0006237997
	-0.002054425	0.0009547713	-0.04658706	-0.05109588	-0.002739841	0.0004839707	0.06745867	-0.02627809
	0.07471133	0.00460691	-0.002739841	0.0004839707	-0.0329437	0.001356064	-0.002067839	0.0008321702
	-0.001760384	0.0006237997	0.06745867	-0.02627809	-0.002067839	0.0008321702	-0.04616251	-0.05109871
2.6e+08	-0.03037708	0.005699825	-0.00204914	0.001133062	0.07538602	0.0008873805	-0.001777548	0.0007791228
	-0.00204914	0.001133062	-0.04829714	-0.04965784	-0.00280545	0.0007344981	0.06525681	-0.03184814
	0.07538602	0.0008873805	-0.00280545	0.0007344981	-0.02995437	0.005634579	-0.002072946	0.001005797
	-0.001777548	0.0007791228	0.06525681	-0.03184814	-0.002072946	0.001005797	-0.04789216	-0.0497017
2.7e+08	-0.02657777	0.009579936	-0.002028504	0.001315476	0.07569529	-0.002800246	-0.001780763	0.0009405753
	-0.002028504	0.001315476	-0.04968682	-0.04830624	-0.002845808	0.00099916	0.06236882	-0.03720942
	0.07569529	-0.002800247	-0.002845808	0.00099916	-0.02616612	0.009514775	-0.00206386	0.001183857
	-0.001780763	0.0009405753	0.06236882	-0.03720942	-0.00206386	0.001183857	-0.04930805	-0.04839027
2.8e+08	-0.02203237	0.01294275	-0.001991857	0.001500775	0.07565661	-0.006414903	-0.001769174	0.001106872
	-0.001991857	0.001500775	-0.05079143	-0.04709724	-0.002858656	0.001275038	0.05881892	-0.04228102
	0.07565661	-0.006414903	-0.002858656	0.001275038	-0.02163059	0.01288162	-0.002040059	0.001365282
	-0.001769174	0.001106872	0.05881892	-0.04228102	-0.002040059	0.001365282	-0.05044506	-0.04721974
2.9e+08	-0.01680917	0.01568098	-0.001938622	0.001687589	0.07529197	-0.009918488	-0.001742017	0.001276672
	-0.001938622	0.001687589	-0.05165485	-0.04608031	-0.002842207	0.001558815	0.05464078	-0.04698515
	0.07529197	-0.009918488	-0.002842207	0.001558815	-0.01641515	0.01562733	-0.002001022	0.001549023
	-0.001742017	0.001276672	0.05464078	-0.04698515	-0.002001022	0.001549023	-0.05134729	-0.04623916
3e+08	-0.0109901	0.01769623	-0.001868308	0.001874499	0.07462749	-0.01327708	-0.001698651	0.001448537
	-0.001868308	0.001874499	-0.05232883	-0.04529671	-0.002795182	0.00184686	0.04987661	-0.05124787
	0.07462749	-0.01327708	-0.002795182	0.00184686	-0.01060093	0.01765341	-0.001946308	0.001733932
	-0.001698651	0.001448537	0.04987661	-0.05124787	-0.001946308	0.001733932	-0.05206613	-0.04548928
3.1e+08	-0.004670342	0.01890185	-0.001780565	0.002060015	0.07369344	-0.01646042	-0.001638508	0.001620952
	-0.001780565	0.002060015	-0.05287151	-0.04477855	-0.002716749	0.002135412	0.0445772	-0.05500058
	0.07369344	-0.01646042	-0.002716749	0.002135412	-0.004282919	0.01887252	-0.001875599	0.001918777
	-0.001638508	0.001620952	0.0445772	-0.05500058	-0.001875599	0.001918777	-0.05266005	-0.04500173
3.2e+08	0.002042745	0.01922375	-0.001675121	0.002242566	0.07252312	-0.01944349	-0.001561263	0.001792233
	-0.001675121	0.002242566	-0.05334653	-0.04454795	-0.002606781	0.002420503	0.03880121	-0.05818074
	0.07252312	-0.01944349	-0.002606781	0.002420503	0.002432877	0.01921061	-0.00178856	0.002102324
	-0.001561263	0.001792233	0.03880121	-0.05818074	-0.00178856	0.002102324	-0.05319193	-0.04479739
3.3e+08	0.009032833	0.01860245	-0.001551853	0.002420512	0.07115202	-0.02220597	-0.001466673	0.001960697
	-0.001551853	0.002420512	-0.05382067	-0.04461602	-0.002465546	0.002698309	0.03261439	-0.06073232
	0.07115202	-0.02220597	-0.002465546	0.002698309	0.009430273	0.01860725	-0.001684949	0.002283282
	-0.001466673	0.001960697	0.03261439	-0.06073232	-0.001684949	0.002283282	-0.05372884	-0.04488696
3.4e+08	0.01617503	0.01699432	-0.001410812	0.002592158	0.0696183	-0.02473281	-0.001354706	0.002124612
	-0.001410812	0.002592158	-0.05436289	-0.0449822	-0.002294052	0.002964942	0.02608884	-0.0626076
	0.0696183	-0.02473281	-0.002294052	0.002964942	0.01658534	0.01701842	-0.001564612	0.00246032
	-0.001354706	0.002124612	0.02608884	-0.0626076	-0.001564612	0.00246032	-0.0543389	-0.04526915
3.5e+08	0.02333948	0.01437273	-0.00125221	0.002755726	0.06796091	-0.02701495	-0.001225511	0.002282148
	-0.00125221	0.002755726	-0.05504198	-0.04563437	-0.002093806	0.003216802	0.01930217	-0.06376684
	0.06796091	-0.02701495	-0.002093806	0.003216802	0.02376785	0.0144156	-0.001427518	0.002631985
	-0.001225511	0.002282148	0.01930217	-0.06376684	-0.001427518	0.002631985	-0.05509116	-0.04593122
3.6e+08	0.03039223	0.01072779	-0.001076433	0.002909476	0.06621939	-0.02904869	-0.001079462	0.002431512
	-0.001076433	0.002909476	-0.05592548	-0.04654865	-0.001866686	0.003450565	0.01233664	-0.06417981
	0.06621939	-0.02904869	-0.001866686	0.003450565	0.03084472	0.01078905	-0.001273733	0.002796833
	-0.001079462	0.002431512	0.01233664	-0.06417981	-0.001273733	0.002796833	-0.05605212	-0.0468483
3.7e+08	0.03719878	0.006067966	-0.0008839825	0.003051626	0.06443308	-0.03083619	-0.0009170233	0.002570941
	-0.0008839825	0.003051626	-0.05707681	-0.04768955	-0.001615102	0.003663247	0.005277445	-0.06382609
	0.06443308	-0.03083619	-0.001615102	0.003663247	0.03768155	0.006145799	-0.001103335	0.002953388
	-0.0009170233	0.002570941	0.005277445	-0.06382609	-0.001103335	0.002953388	-0.05728469	-0.04798423
3.8e+08	0.04362623	0.0004197614	-0.0006756521	0.003180405	0.06264006	-0.03238555	-0.0007390036	0.002698647
	-0.0006756521	0.003180405	-0.05855458	-0.0490106	-0.001341907	0.003852242	-0.001787749	-0.06269483
	0.06264006	-0.03238555	-0.001341907	0.003852242	0.04414497	0.0005107709	-0.0009166569	0.003100066
	-0.0007390036	0.002698647	-0.001787749	-0.06269483	-0.0009166569	0.003100066	-0.0588471	-0.04929187
3.9e+08	0.04954447	-0.006173114	-0.000452388	0.003294088	0.06087682	-0.03371053	-0.000546309	0.00281294
	-0.000452388	0.003294088	-0.06041054	-0.05045411	-0.001050174	0.004015477	-0.008770313	-0.06078638
	0.06087682	-0.03371053	-0.001050174	0.004015477	0.05010521	-0.00607198	-0.0007141112	0.00323531
	-0.000546309	0.00281294	-0.008770313	-0.06078638	-0.0007141112	0.00323531	-0.06078926	-0.05071307
4e+08	0.0548305	-0.013649	-0.0002153438	0.003391	0.05917688	-0.03483017	-0.0003400852	0.002912195
	-0.0002153438	0.003391	-0.06268727	-0.05195364	-0.0007430697	0.004151371	-0.01558224	-0.05811091
	0.05917688	-0.03483017	-0.0007430697	0.004151371	0.05543863	-0.01354336	-0.0004962032	0.003357508
	-0.0003400852	0.002912195	-0.01558224	-0.05811091	-0.0004962032	0.003357508	-0.06315355	-0.05218116
4.1e+08	0.05937024	-0.02193125	3.41567e-05	0.003469552	0.05757023	-0.03576801	-0.0001216563	0.002994913
	3.41567e-05	0.003469552	-0.06541713	-0.05343525	-0.0004241173	0.004258857	-0.0221369	-0.05468916
	0.05757023	-0.03576801	-0.0004241173	0.004258857	0.06003073	-0.0218271	-0.0002637726	0.003465051
	-0.0001216563	0.002994913	-0.0221369	-0.05468916	-0.0002637726	0.003465051	-0.06597113	-0.05362146
4.2e+08	0.06305968	-0.03092727	0.0002945432	0.003528277	0.05608263	-0.03655312	0.0001074393	0.003059754
	0.0002945432	0.003528277	-0.06862109	-0.0548168	-9.650954e-05	0.004337414	-0.02835104	-0.05055223
	0.05608263	-0.03655312	-9.650954e-05	0.004337414	0.06377653	-0.03083131	-1.766858e-05	0.003556347
	0.0001074393	0.003059754	-0.02835104	-0.05055223	-1.766858e-05	0.003556347	-0.0692617	-0.05495172
4.3e+08	0.06580826	-0.0405319	0.0005641061	0.003565845	0.05473481	-0.03721716	0.0003456653	0.003105471
	0.0005641061	0.003565845	-0.0723072	-0.05601247	0.0002363198	0.004387002	-0.03414551	-0.04574042
	0.05473481	-0.03721716	0.0002363198	0.004387002	0.06658452	-0.04045211	0.0002411008	0.003629826
	0.0003456653	0.003105471	-0.03414551	-0.04574042	0.0002411008	0.003629826	-0.07303227	-0.05608634
4.4e+08	0.06753971	-0.05062858	0.0008409272	0.003581085	0.05354175	-0.03779533	0.0005911758	0.003131045
	0.0008409272	0.003581085	-0.07647023	-0.05693362	0.0005713774	0.004408032	-0.03944644	-0.04030327
	0.05354175	-0.03779533	0.0005713774	0.004408032	0.06837766	-0.05057343	0.0005111312	0.00368398
	0.0005911758	0.003131045	-0.03944644	-0.04030327	0.0005111312	0.00368398	-0.07727633	-0.05693629
4.5e+08	0.06819351	-0.06109106	0.001122969	0.00357305	0.05251293	-0.03832491	0.0008420279	0.003135651
	0.001122969	0.00357305	-0.08109032	-0.05748968	0.0009059123	0.004401325	-0.04418675	-0.03429863
	0.05251293	-0.03832491	0.0009059123	0.004401325	0.06909423	-0.06106968	0.0007909762	0.00371741
	0.0008420279	0.003135651	-0.04418675	-0.03429863	0.0007909762	0.00371741	-0.08197293	-0.05741139
4.6e+08	0.06772635	-0.07178675	0.001407958	0.003540999	0.05165112	-0.03884444	0.001096287	0.003118644
	0.001407958	0.003540999	-0.08613356	-0.05759154	0.00123724	0.004368045	-0.04830661	-0.02779147
	0.05165112	-0.03884444	0.00123724	0.004368045	0.06868958	-0.07180879	0.001079125	0.003728728
	0.001096287	0.003118644	-0.04830661	-0.02779147	0.001079125	0.003728728	-0.08708713	-0.05742345
4.7e+08	0.06611372	-0.08257849	0.001693691	0.003484407	0.05095267	-0.03939204	0.001351854	0.003079629
	0.001693691	0.003484407	-0.09155128	-0.05715508	0.0015632	0.004309577	-0.05175486	-0.02085277
	0.05095267	-0.03939204	0.0015632	0.004309577	0.06713767	-0.08265379	0.001373625	0.003716822
	0.001351854	0.003079629	-0.05175486	-0.02085277	0.001373625	0.003716822	-0.09256913	-0.05688772
4.8e+08	0.06334795	-0.09332771	0.001977806	0.003403037	0.05040766	-0.0400054	0.001606699	0.003018386
	0.001977806	0.003403037	-0.09728192	-0.05610004	0.00188217	0.004227468	-0.05448878	-0.01355882
	0.05040766	-0.0400054	0.00188217	0.004227468	0.06443025	-0.09346582	0.001672556	0.003680624
	0.001606699	0.003018386	-0.05448878	-0.01355882	0.001672556	0.003680624	-0.09835568	-0.05572555
