!$
! Info: Touchstone file created by Circ.  Input file=Intel_C2M_200G_3p5in_202208016_staggered.circ
!$
# Hz S RI R 50
0	0.01385471	2.431828e-24	4.632996e-05	5.480336e-23	8.99362e-05	2.479123e-22	4.62631e-05	5.469384e-23
	4.632996e-05	5.480336e-23	0.01386795	2.621594e-24	4.631234e-05	5.477123e-23	8.954868e-05	2.467534e-22
	8.99944e-05	2.480404e-22	4.631234e-05	5.477222e-23	0.0138495	2.339624e-24	4.627605e-05	5.466371e-23
	4.62631e-05	5.469483e-23	8.960687e-05	2.468811e-22	4.627605e-05	5.466371e-23	0.01386588	2.487622e-24
1e+07	0.01712522	-0.0006552671	9.053615e-06	6.007502e-06	0.0008943193	0.004774839	1.392665e-06	1.292056e-05
	9.053615e-06	6.007502e-06	0.01697485	-0.000807369	2.885113e-05	6.548041e-06	0.001065188	0.004848569
	0.0008943193	0.004774839	2.885113e-05	6.548041e-06	0.01732428	-0.00063672	1.165136e-05	1.557707e-05
	1.392665e-06	1.292056e-05	0.001065188	0.004848569	1.165136e-05	1.557707e-05	0.01688101	-0.0007783751
2e+07	0.01954945	-0.004066929	3.479821e-06	1.570877e-05	0.002144474	0.009133486	2.14207e-06	5.427848e-06
	3.479822e-06	1.570877e-05	0.01928027	-0.004251114	1.935227e-05	1.715031e-05	0.002302146	0.009213752
	0.002144486	0.009133474	1.935227e-05	1.715031e-05	0.01968199	-0.004089659	8.441236e-06	1.420932e-05
	2.142071e-06	5.427847e-06	0.002302157	0.009213739	8.441236e-06	1.420932e-05	0.01921107	-0.004157542
3e+07	0.02099035	-0.00863133	1.251888e-05	2.033385e-05	0.003964232	0.01330676	3.188631e-06	4.369922e-06
	1.251888e-05	2.033385e-05	0.02062694	-0.008803865	1.343377e-05	2.556949e-05	0.004115401	0.0134226
	0.003964202	0.01330679	1.343376e-05	2.55695e-05	0.0210704	-0.008623495	6.545384e-06	1.545478e-05
	3.188632e-06	4.369922e-06	0.004115371	0.01342263	6.545385e-06	1.545478e-05	0.0205748	-0.008662521
4e+07	0.02147383	-0.01371925	2.020212e-05	2.157473e-05	0.006400675	0.01711931	4.335965e-06	4.842747e-06
	2.020212e-05	2.157473e-05	0.0210304	-0.01385844	9.214746e-06	3.088135e-05	0.006549837	0.01727533
	0.006400669	0.01711933	9.214746e-06	3.088135e-05	0.02152178	-0.01366446	5.301218e-06	1.683498e-05
	4.335965e-06	4.842747e-06	0.00654983	0.01727536	5.301219e-06	1.683498e-05	0.02100247	-0.01367762
5e+07	0.02113685	-0.01897783	2.672109e-05	2.076183e-05	0.009376036	0.02053086	5.672295e-06	6.066927e-06
	2.672109e-05	2.076183e-05	0.02062503	-0.01906802	1.784682e-05	3.05991e-05	0.009526843	0.02072777
	0.009376038	0.02053087	1.784682e-05	3.05991e-05	0.02116594	-0.01886782	8.509911e-06	1.659806e-05
	5.672295e-06	6.066927e-06	0.009526845	0.02072778	8.509911e-06	1.659806e-05	0.02062367	-0.01885344
6e+07	0.02006007	-0.02424397	3.220243e-05	1.862759e-05	0.01283662	0.02347716	6.940149e-06	6.951367e-06
	3.220243e-05	1.862759e-05	0.01949083	-0.02427274	2.514723e-05	2.855208e-05	0.01299204	0.02371381
	0.01283664	0.02347715	2.514722e-05	2.855208e-05	0.02008234	-0.0240739	1.15021e-05	1.585769e-05
	6.940149e-06	6.951367e-06	0.01299206	0.0237138	1.15021e-05	1.585769e-05	0.01951813	-0.0240288
7e+07	0.01829651	-0.02938197	3.667167e-05	1.551041e-05	0.01671541	0.02589902	8.152087e-06	7.610119e-06
	3.667167e-05	1.551041e-05	0.01768098	-0.02933888	3.113409e-05	2.513963e-05	0.01687771	0.02617312
	0.01671541	0.02589902	3.113409e-05	2.513962e-05	0.01832358	-0.02914976	1.406661e-05	1.473408e-05
	8.152088e-06	7.610119e-06	0.01687771	0.02617311	1.406661e-05	1.473408e-05	0.01773913	-0.02907003
8e+07	0.0159117	-0.03427145	4.011652e-05	1.160192e-05	0.02093859	0.02774669	9.31788e-06	8.098173e-06
	4.011652e-05	1.160192e-05	0.01526191	-0.03414723	3.577507e-05	2.059032e-05	0.02110931	0.02805513
	0.02093859	0.0277467	3.577507e-05	2.059032e-05	0.01595496	-0.03397673	1.619809e-05	1.326725e-05
	9.317881e-06	8.098173e-06	0.02110931	0.02805514	1.619809e-05	1.326725e-05	0.01535301	-0.03385791
9e+07	0.01298775	-0.03881298	4.243005e-05	6.983159e-06	0.02542776	0.02898031	1.042244e-05	8.460286e-06
	4.243005e-05	6.983159e-06	0.01231784	-0.03859823	3.893363e-05	1.507757e-05	0.02560761	0.02931932
	0.02542776	0.02898032	3.893363e-05	1.507757e-05	0.01305834	-0.03845639	1.783514e-05	1.148647e-05
	1.042244e-05	8.460286e-06	0.02560761	0.02931933	1.783514e-05	1.148647e-05	0.0124431	-0.03829339
1e+08	0.009633354	-0.04290912	4.296474e-05	1.129746e-06	0.03010253	0.02957022	1.13797e-05	8.679961e-06
	4.296474e-05	1.129746e-06	0.008966648	-0.04258654	3.982952e-05	7.984342e-06	0.03029195	0.02993557
	0.03010253	0.02957022	3.982952e-05	7.984342e-06	0.00974548	-0.04248806	1.868561e-05	9.172049e-06
	1.13797e-05	8.679961e-06	0.03029195	0.02993557	1.868561e-05	9.172049e-06	0.009126058	-0.04227193
1.1e+08	0.005974919	-0.0466748	4.026326e-05	-1.847679e-06	0.03489376	0.02948603	1.225496e-05	9.34206e-06
	4.026326e-05	-1.847679e-06	0.005355642	-0.04628018	3.668152e-05	4.286047e-06	0.03509055	0.02987066
	0.03489376	0.02948603	3.668152e-05	4.286047e-06	0.00621379	-0.04622676	1.820093e-05	8.114853e-06
	1.225496e-05	9.34206e-06	0.03509055	0.02987066	1.820093e-05	8.114853e-06	0.005607644	-0.04597261
1.2e+08	0.001941356	-0.04996919	3.870449e-05	-3.288462e-06	0.03966319	0.02872628	1.372366e-05	1.031656e-05
	3.870449e-05	-3.288462e-06	0.001356842	-0.04952334	3.468656e-05	2.48446e-06	0.03986254	0.02912631
	0.03966319	0.02872628	3.468656e-05	2.48446e-06	0.00224345	-0.04952891	1.823097e-05	7.678156e-06
	1.372366e-05	1.031656e-05	0.03986254	0.0291263	1.823097e-05	7.678156e-06	0.001643442	-0.04924358
1.3e+08	-0.002342551	-0.05274132	3.869633e-05	-3.203405e-06	0.04433787	0.02730081	1.539115e-05	1.106649e-05
	3.869633e-05	-3.203405e-06	-0.002897169	-0.05225226	3.319376e-05	1.386767e-06	0.04453487	0.0277131
	0.04433787	0.02730081	3.319376e-05	1.386767e-06	-0.002003075	-0.05230344	1.851156e-05	7.453484e-06
	1.539115e-05	1.10665e-05	0.04453487	0.0277131	1.851156e-05	7.453484e-06	-0.002599603	-0.05198809
1.4e+08	-0.006782758	-0.05497915	4.027117e-05	-2.032138e-06	0.0488379	0.02522764	1.725799e-05	1.158072e-05
	4.027117e-05	-2.032138e-06	-0.007310637	-0.05445184	3.208195e-05	6.880119e-07	0.04902706	0.02564979
	0.0488379	0.02522764	3.208195e-05	6.88012e-07	-0.006409678	-0.05453741	1.899313e-05	7.330699e-06
	1.725799e-05	1.158072e-05	0.04902706	0.02564978	1.899313e-05	7.330699e-06	-0.007004023	-0.05419198
1.5e+08	-0.01129385	-0.05668396	4.198116e-05	-1.253075e-06	0.0530835	0.02253355	1.929346e-05	1.190602e-05
	4.198116e-05	-1.253075e-06	-0.01179727	-0.05612186	3.12766e-05	2.934977e-07	0.05325876	0.02296397
	0.0530835	0.02253354	3.12766e-05	2.934978e-07	-0.01088438	-0.05623868	1.965869e-05	7.238445e-06
	1.929346e-05	1.190602e-05	0.05325875	0.02296397	1.965869e-05	7.238445e-06	-0.01147693	-0.05586258
1.6e+08	-0.0157963	-0.05786858	4.383726e-05	-8.388573e-07	0.05699787	0.01925449	2.149416e-05	1.201516e-05
	4.383726e-05	-8.388572e-07	-0.01627695	-0.05727427	3.075689e-05	9.495137e-08	0.05715274	0.01969253
	0.05699787	0.01925449	3.075689e-05	9.49514e-08	-0.01534701	-0.05742501	2.049482e-05	7.123274e-06
	2.149416e-05	1.201516e-05	0.05715274	0.01969253	2.049482e-05	7.123274e-06	-0.01593748	-0.05701757
1.7e+08	-0.02021563	-0.05855654	4.583913e-05	-8.381938e-07	0.06050888	0.0154351	2.38489e-05	1.186648e-05
	4.583913e-05	-8.381938e-07	-0.02067479	-0.05793217	3.13385e-05	4.624005e-07	0.06063655	0.01588109
	0.06050888	0.0154351	3.13385e-05	4.624005e-07	-0.01972537	-0.05812266	2.174309e-05	7.033542e-06
	2.38489e-05	1.186648e-05	0.06063655	0.01588109	2.174309e-05	7.033542e-06	-0.02031294	-0.05768328
1.8e+08	-0.02448397	-0.0587818	4.796206e-05	-1.24272e-06	0.06355034	0.01112813	2.63393e-05	1.142487e-05
	4.796206e-05	-1.24272e-06	-0.02492262	-0.05812927	3.258954e-05	9.347803e-07	0.06364378	0.01158346
	0.06355034	0.01112813	3.258954e-05	9.347803e-07	-0.02395433	-0.05836644	2.341506e-05	6.913411e-06
	2.63393e-05	1.142487e-05	0.06364378	0.01158346	2.341506e-05	6.913411e-06	-0.02453776	-0.05789483
1.9e+08	-0.02854046	-0.05858787	5.018226e-05	-2.031753e-06	0.06606323	0.006393953	2.894344e-05	1.068066e-05
	5.018226e-05	-2.031753e-06	-0.02895944	-0.05790896	3.390296e-05	1.147753e-06	0.06611542	0.006861112
	0.06606323	0.006393953	3.390296e-05	1.147753e-06	-0.02797578	-0.05819952	2.512827e-05	6.556661e-06
	2.894344e-05	1.068066e-05	0.06611542	0.006861111	2.512827e-05	6.556661e-06	-0.02855358	-0.05769574
2e+08	-0.03233353	-0.0580267	5.247307e-05	-3.223313e-06	0.06799639	0.001299196	3.163552e-05	9.603563e-06
	5.247307e-05	-3.223313e-06	-0.03273362	-0.05732316	3.526756e-05	1.102507e-06	0.06800036	0.001781776
	0.06799639	0.001299195	3.526756e-05	1.102507e-06	-0.03173939	-0.05767252	2.686724e-05	5.954715e-06
	3.163552e-05	9.603563e-06	0.06800036	0.001781776	2.686724e-05	5.954715e-06	-0.03230993	-0.05713712
2.1e+08	-0.03582127	-0.05715634	5.480064e-05	-4.840949e-06	0.06930693	-0.004084009	3.438343e-05	8.164888e-06
	5.480064e-05	-4.840949e-06	-0.03620324	-0.05643003	3.667078e-05	7.846857e-07	0.06925604	-0.003581291
	0.06930693	-0.004084009	3.667078e-05	7.846857e-07	-0.0352051	-0.05684245	2.861308e-05	5.098231e-06
	3.438343e-05	8.164888e-06	0.06925604	-0.003581291	2.861308e-05	5.098231e-06	-0.03576683	-0.05627645
2.2e+08	-0.03897254	-0.05604066	5.712406e-05	-6.904987e-06	0.06996086	-0.009679176	3.714985e-05	6.338578e-06
	5.712406e-05	-6.904986e-06	-0.03933731	-0.05529349	3.809361e-05	1.853749e-07	0.06984888	-0.009150538
	0.06996086	-0.009679176	3.809361e-05	1.853749e-07	-0.0383427	-0.0557711	3.034419e-05	3.977917e-06
	3.714985e-05	6.338578e-06	0.06984888	-0.009150538	3.034419e-05	3.977917e-06	-0.03889422	-0.05517605
2.3e+08	-0.04176741	-0.05474635	5.939608e-05	-9.43376e-06	0.06993368	-0.01540669	3.989192e-05	4.099991e-06
	5.939608e-05	-9.43376e-06	-0.04211614	-0.0539803	3.951273e-05	-7.078217e-07	0.06975497	-0.01484531
	0.06993368	-0.01540669	3.951273e-05	-7.078217e-07	-0.04113225	-0.05452372	3.203587e-05	2.58612e-06
	3.989192e-05	4.099991e-06	0.06975497	-0.01484531	3.203587e-05	2.58612e-06	-0.04167249	-0.05390162
2.4e+08	-0.04419741	-0.05334143	6.156335e-05	-1.244197e-05	0.06921019	-0.02118446	4.256135e-05	1.431082e-06
	6.156335e-05	-1.244197e-05	-0.04453153	-0.05255853	4.090115e-05	-1.904003e-06	0.06895983	-0.02058251
	0.06921019	-0.02118446	4.090115e-05	-1.904003e-06	-0.04356586	-0.05316708	3.366153e-05	9.15601e-07
	4.256135e-05	1.431082e-06	0.06895983	-0.02058251	3.366153e-05	9.15601e-07	-0.04409421	-0.05252032
2.5e+08	-0.0462657	-0.05189365	6.356713e-05	-1.593933e-05	0.06778469	-0.02692933	4.510502e-05	-1.6821e-06
	6.356713e-05	-1.593933e-05	-0.04658706	-0.05109588	4.222798e-05	-3.412356e-06	0.06745867	-0.02627809
	0.06778469	-0.02692933	4.222798e-05	-3.412356e-06	-0.04564605	-0.05176744	3.519187e-05	-1.037307e-06
	4.510502e-05	-1.6821e-06	0.06745867	-0.02627809	3.519187e-05	-1.037307e-06	-0.04616251	-0.05109871
2.6e+08	-0.04798631	-0.05046862	6.534358e-05	-1.992927e-05	0.06566153	-0.03255819	4.746542e-05	-5.247339e-06
	6.534358e-05	-1.992927e-05	-0.04829714	-0.04965784	4.345939e-05	-5.239165e-06	0.06525681	-0.03184814
	0.06566153	-0.03255819	4.345939e-05	-5.239165e-06	-0.04738691	-0.05038954	3.659571e-05	-3.274965e-06
	4.746542e-05	-5.247339e-06	0.06525681	-0.03184814	3.659571e-05	-3.274965e-06	-0.04789216	-0.0497017
2.7e+08	-0.04938378	-0.0491283	6.682494e-05	-2.440899e-05	0.06285408	-0.03798847	4.958138e-05	-9.266566e-06
	6.682494e-05	-2.440899e-05	-0.04968682	-0.04830624	4.455788e-05	-7.388682e-06	0.06236882	-0.03720942
	0.06285408	-0.03798847	4.455788e-05	-7.388682e-06	-0.04881259	-0.04909429	3.783959e-05	-5.797898e-06
	4.958138e-05	-9.266566e-06	0.06236882	-0.03720942	3.783959e-05	-5.797898e-06	-0.04930805	-0.04839027
2.8e+08	-0.05049296	-0.04792916	6.794052e-05	-2.936527e-05	0.05938537	-0.04313984	5.138875e-05	-1.373297e-05
	6.794052e-05	-2.936527e-05	-0.05079143	-0.04709724	4.548305e-05	-9.862645e-06	0.05881892	-0.04228102
	0.05938537	-0.04313984	4.548305e-05	-9.862645e-06	-0.04995714	-0.04793713	3.888869e-05	-8.601756e-06
	5.138875e-05	-1.373297e-05	0.05881892	-0.04228102	3.888869e-05	-8.601756e-06	-0.05044506	-0.04721974
2.9e+08	-0.05135722	-0.04692111	6.861753e-05	-3.477661e-05	0.05528765	-0.0479349	5.282197e-05	-1.863123e-05
	6.861753e-05	-3.477661e-05	-0.05165485	-0.04608031	4.619223e-05	-1.265716e-05	0.05464078	-0.04698515
	0.05528765	-0.0479349	4.619223e-05	-1.265716e-05	-0.05086383	-0.04696744	3.970656e-05	-1.167988e-05
	5.282197e-05	-1.863123e-05	0.05464078	-0.04698515	3.970656e-05	-1.167988e-05	-0.05134729	-0.04623916
3e+08	-0.05202786	-0.04614591	6.878174e-05	-4.061386e-05	0.05060172	-0.05229991	5.381368e-05	-2.393795e-05
	6.878174e-05	-4.061386e-05	-0.05232883	-0.04529671	4.664124e-05	-1.576347e-05	0.04987661	-0.05124787
	0.05060172	-0.05229991	4.664124e-05	-1.576347e-05	-0.05158325	-0.04622643	4.025547e-05	-1.502166e-05
	5.381368e-05	-2.393795e-05	0.04987661	-0.05124787	4.025547e-05	-1.502166e-05	-0.05206613	-0.04548928
3.1e+08	-0.05256258	-0.04563634	6.836162e-05	-4.683298e-05	0.04537689	-0.05616636	5.429759e-05	-2.962028e-05
	6.836162e-05	-4.683298e-05	-0.05287151	-0.04477855	4.678237e-05	-1.917063e-05	0.0445772	-0.05500058
	0.04537689	-0.05616636	4.678237e-05	-1.917063e-05	-0.05217305	-0.04574643	4.049745e-05	-1.86115e-05
	5.429759e-05	-2.962028e-05	0.0445772	-0.05500058	4.049745e-05	-1.86115e-05	-0.05266005	-0.04500173
3.2e+08	-0.05302465	-0.04541528	6.728553e-05	-5.338373e-05	0.0396703	-0.05947153	5.420902e-05	-3.563484e-05
	6.728553e-05	-5.338373e-05	-0.05334653	-0.04454795	4.656918e-05	-2.285825e-05	0.03880121	-0.05818074
	0.0396703	-0.05947153	4.656918e-05	-2.285825e-05	-0.05269544	-0.04554913	4.039283e-05	-2.243117e-05
	5.420902e-05	-3.563484e-05	0.03880121	-0.05818074	4.039283e-05	-2.243117e-05	-0.05319193	-0.04479739
3.3e+08	-0.05348063	-0.0454948	6.54869e-05	-6.020267e-05	0.03354612	-0.06215905	5.348558e-05	-4.19302e-05
	6.54869e-05	-6.020267e-05	-0.05382067	-0.04461602	4.595247e-05	-2.68036e-05	0.03261439	-0.06073232
	0.03354612	-0.06215905	4.595247e-05	-2.68036e-05	-0.05321694	-0.04564633	3.990332e-05	-2.645554e-05
	5.348558e-05	-4.19302e-05	0.03261439	-0.06073232	3.990332e-05	-2.645554e-05	-0.05372884	-0.04488696
3.4e+08	-0.05399931	-0.04587528	6.290365e-05	-6.721691e-05	0.02707491	-0.06418063	5.207149e-05	-4.844252e-05
	6.290365e-05	-6.721691e-05	-0.05436289	-0.0449822	4.488369e-05	-3.097558e-05	0.02608884	-0.0626076
	0.02707491	-0.06418063	4.488369e-05	-3.097558e-05	-0.05380519	-0.04603791	3.898973e-05	-3.065601e-05
	5.207149e-05	-4.844252e-05	0.02608884	-0.0626076	3.898973e-05	-3.065601e-05	-0.0543389	-0.04526915
3.5e+08	-0.05464954	-0.04654574	5.94837e-05	-7.434168e-05	0.02033281	-0.06549577	4.991277e-05	-5.510339e-05
	5.94837e-05	-7.434168e-05	-0.05504198	-0.04563437	4.33169e-05	-3.533537e-05	0.01930217	-0.06376684
	0.02033281	-0.06549577	4.33169e-05	-3.533537e-05	-0.05452908	-0.04671253	3.761458e-05	-3.499792e-05
	4.991277e-05	-5.510339e-05	0.01930217	-0.06376684	3.761458e-05	-3.499792e-05	-0.05509116	-0.04593122
3.6e+08	-0.05549907	-0.0474835	5.517782e-05	-8.148546e-05	0.01340068	-0.06607323	4.696598e-05	-6.183173e-05
	5.517782e-05	-8.148546e-05	-0.05592548	-0.04654865	4.120384e-05	-3.98403e-05	0.01233664	-0.06417981
	0.01340068	-0.06607323	4.120384e-05	-3.98403e-05	-0.0554551	-0.04764674	3.574299e-05	-3.943987e-05
	4.696598e-05	-6.183173e-05	0.01233664	-0.06417981	3.574299e-05	-3.943987e-05	-0.05605212	-0.0468483
3.7e+08	-0.05661171	-0.04865424	4.995481e-05	-8.854596e-05	0.006362404	-0.06589138	4.319595e-05	-6.85395e-05
	4.995481e-05	-8.854596e-05	-0.05707681	-0.04768955	3.850443e-05	-4.443597e-05	0.005277445	-0.06382609
	0.006362404	-0.06589138	3.850443e-05	-4.443597e-05	-0.05664643	-0.04880598	3.333921e-05	-4.393752e-05
	4.319595e-05	-6.85395e-05	0.005277445	-0.06382609	3.333921e-05	-4.393752e-05	-0.05728469	-0.04798423
3.8e+08	-0.05804673	-0.05001278	4.378709e-05	-9.541502e-05	-0.0006955222	-0.06493806	3.857749e-05	-7.513211e-05
	4.378709e-05	-9.541502e-05	-0.05855458	-0.0490106	3.517786e-05	-4.906397e-05	-0.001787749	-0.06269483
	-0.0006955222	-0.06493806	3.517786e-05	-4.906397e-05	-0.05816186	-0.05014472	3.037543e-05	-4.84374e-05
	3.857749e-05	-7.513211e-05	-0.001787749	-0.06269483	3.037543e-05	-4.84374e-05	-0.0588471	-0.04929187
3.9e+08	-0.05985674	-0.05150264	3.666448e-05	-0.0001019781	-0.007685459	-0.063212	3.309213e-05	-8.151077e-05
	3.666448e-05	-0.0001019781	-0.06041054	-0.05045411	3.118913e-05	-5.365758e-05	-0.008770313	-0.06078638
	-0.007685459	-0.063212	3.118913e-05	-5.365758e-05	-0.06005216	-0.05160634	2.68224e-05	-5.288282e-05
	3.309213e-05	-8.151077e-05	-0.008770313	-0.06078638	2.68224e-05	-5.288282e-05	-0.06078926	-0.05071307
4e+08	-0.0620855	-0.05305853	2.859154e-05	-0.0001081153	-0.01452022	-0.06072169	2.674098e-05	-8.756982e-05
	2.859154e-05	-0.0001081153	-0.06268727	-0.05195364	2.651104e-05	-5.814149e-05	-0.01558224	-0.05811091
	-0.01452022	-0.06072169	2.651104e-05	-5.814149e-05	-0.06236092	-0.0531258	2.266229e-05	-5.720879e-05
	2.674098e-05	-8.756982e-05	-0.01558224	-0.05811091	2.266229e-05	-5.720879e-05	-0.06315355	-0.05218116
4.1e+08	-0.06476667	-0.05460752	1.958314e-05	-0.0001137066	-0.02111376	-0.05748605	1.952945e-05	-9.32019e-05
	1.958314e-05	-0.0001137066	-0.06541713	-0.05343525	2.112265e-05	-6.243398e-05	-0.0221369	-0.05468916
	-0.02111376	-0.05748605	2.112265e-05	-6.243398e-05	-0.06512079	-0.05462974	1.787707e-05	-6.134722e-05
	1.952945e-05	-9.32019e-05	-0.0221369	-0.05468916	1.787707e-05	-6.134722e-05	-0.06597113	-0.05362146
4.2e+08	-0.06792293	-0.05606834	9.671951e-06	-0.0001186289	-0.02738315	-0.05353424	1.148376e-05	-9.829887e-05
	9.671951e-06	-0.0001186289	-0.06862109	-0.0548168	1.501148e-05	-6.645064e-05	-0.02835104	-0.05055223
	-0.02738315	-0.05353424	1.501148e-05	-6.645064e-05	-0.06835328	-0.05603717	1.245954e-05	-6.522295e-05
	1.148376e-05	-9.829887e-05	-0.02835104	-0.05055223	1.245954e-05	-6.522295e-05	-0.0692617	-0.05495172
4.3e+08	-0.0715641	-0.05735586	-1.0943e-06	-0.0001227615	-0.03324937	-0.04890461	2.640325e-06	-0.0001027524
	-1.0943e-06	-0.0001227615	-0.0723072	-0.05601247	8.175397e-06	-7.009521e-05	-0.03414551	-0.04574042
	-0.03324937	-0.04890461	8.175397e-06	-7.009521e-05	-0.07206753	-0.05726348	6.410144e-06	-6.875811e-05
	2.640325e-06	-0.0001027524	-0.03414551	-0.04574042	6.410144e-06	-6.875811e-05	-0.07303227	-0.05608634
4.4e+08	-0.07568703	-0.05838182	-1.265059e-05	-0.0001259893	-0.0386384	-0.04364471	-6.955181e-06	-0.0001064574
	-1.265059e-05	-0.0001259893	-0.07647023	-0.05693362	6.23281e-07	-7.327191e-05	-0.03944644	-0.04030327
	-0.0386384	-0.04364471	6.23281e-07	-7.327191e-05	-0.07625937	-0.05822028	-2.603531e-07	-7.186987e-05
	-6.955181e-06	-0.0001064574	-0.03944644	-0.04030327	-2.603531e-07	-7.186987e-05	-0.07727633	-0.05693629
4.5e+08	-0.08027409	-0.05905573	-2.492047e-05	-0.0001281994	-0.04348275	-0.03781039	-1.72362e-05	-0.000109312
	-2.492047e-05	-0.0001281994	-0.08109032	-0.05748968	-7.622031e-06	-7.588225e-05	-0.04418675	-0.03429863
	-0.04348275	-0.03781039	-7.622031e-06	-7.588225e-05	-0.08091044	-0.05881779	-7.536073e-06	-7.447342e-05
	-1.72362e-05	-0.000109312	-0.04418675	-0.03429863	-7.536073e-06	-7.447342e-05	-0.08197293	-0.05741139
4.6e+08	-0.08529366	-0.05928827	-3.781101e-05	-0.0001292872	-0.04772196	-0.03146472	-2.812569e-05	-0.0001112197
	-3.781101e-05	-0.0001292872	-0.08613356	-0.05759154	-1.653086e-05	-7.782385e-05	-0.04830661	-0.02779147
	-0.04772196	-0.03146472	-1.653086e-05	-7.782385e-05	-0.08598857	-0.05896772	-1.538473e-05	-7.648371e-05
	-2.812569e-05	-0.0001112197	-0.04830661	-0.02779147	-1.538473e-05	-7.648371e-05	-0.08708713	-0.05742345
4.7e+08	-0.09069949	-0.05899468	-5.121838e-05	-0.0001291576	-0.05130397	-0.02467682	-3.954014e-05	-0.0001120926
	-5.121838e-05	-0.0001291576	-0.09155128	-0.05715508	-2.605153e-05	-7.899431e-05	-0.05175486	-0.02085277
	-0.05130397	-0.02467682	-2.605153e-05	-7.899431e-05	-0.09144679	-0.05858475	-2.376222e-05	-7.781381e-05
	-3.954014e-05	-0.0001120926	-0.05175486	-0.02085277	-2.376222e-05	-7.781381e-05	-0.09256913	-0.05688772
4.8e+08	-0.09643237	-0.05809366	-6.502167e-05	-0.0001277269	-0.05418493	-0.01752127	-5.137497e-05	-0.0001118514
	-6.502167e-05	-0.0001277269	-0.09728192	-0.05610004	-3.612404e-05	-7.929491e-05	-0.05448878	-0.01355882
