!$
! Info: Touchstone file created by Circ.  Input file=Intel_C2M_200G_3p5in_202208016_staggered.circ
!$
# Hz S RI R 50
0	0.01385476	2.339534e-24	4.604769e-05	5.468992e-23	8.99587e-05	2.479872e-22	4.604012e-05	5.458384e-23
	4.604769e-05	5.468992e-23	0.01386795	2.621594e-24	4.605243e-05	5.473922e-23	8.954868e-05	2.467534e-22
	9.00169e-05	2.481153e-22	4.605242e-05	5.474021e-23	0.01384956	2.42618e-24	4.604275e-05	5.462689e-23
	4.604011e-05	5.458484e-23	8.960687e-05	2.468811e-22	4.604275e-05	5.462689e-23	0.01386588	2.487622e-24
1e+07	0.01685459	-0.0007998014	1.979336e-06	1.460929e-05	0.00105949	0.004788119	6.71308e-06	1.445107e-05
	1.979337e-06	1.46093e-05	0.01697485	-0.000807369	1.30331e-06	4.022654e-06	0.001065188	0.004848569
	0.00105949	0.004788119	1.30331e-06	4.022654e-06	0.0169534	-0.0007543953	1.929522e-06	1.394253e-05
	6.71308e-06	1.445107e-05	0.001065188	0.004848569	1.929522e-06	1.394253e-05	0.01688101	-0.0007783751
2e+07	0.0191765	-0.004192962	2.327477e-06	8.326312e-06	0.002288893	0.009094665	3.982003e-06	1.020007e-05
	2.327479e-06	8.32632e-06	0.01928027	-0.004251114	8.168234e-06	8.998907e-06	0.002302146	0.009213752
	0.002288904	0.009094653	8.168235e-06	8.998907e-06	0.01927234	-0.004144755	1.602907e-06	7.283866e-06
	3.982004e-06	1.020007e-05	0.002302157	0.009213739	1.602907e-06	7.283866e-06	0.01921107	-0.004157542
3e+07	0.0205444	-0.008713229	4.047801e-06	6.550309e-06	0.004091265	0.01324765	2.191317e-06	9.682238e-06
	4.047801e-06	6.550309e-06	0.02062694	-0.008803865	1.518759e-05	1.088029e-05	0.004115401	0.0134226
	0.004091235	0.01324768	1.518759e-05	1.088029e-05	0.02063349	-0.00863913	2.808584e-06	5.506341e-06
	2.191317e-06	9.682238e-06	0.004115371	0.01342263	2.808585e-06	5.506341e-06	0.0205748	-0.008662521
4e+07	0.02097537	-0.01374103	5.414272e-06	5.16397e-06	0.006512051	0.01704761	4.463829e-06	8.555064e-06
	5.414272e-06	5.16397e-06	0.0210304	-0.01385844	2.081796e-05	9.915219e-06	0.006549837	0.01727533
	0.006512044	0.01704763	2.081796e-05	9.915219e-06	0.02106642	-0.0136393	3.760153e-06	4.260004e-06
	4.463829e-06	8.555064e-06	0.00654983	0.01727536	3.760153e-06	4.260003e-06	0.02100247	-0.01367762
5e+07	0.02060337	-0.01892905	6.467271e-06	3.80271e-06	0.009473154	0.02045087	6.423044e-06	7.199797e-06
	6.467271e-06	3.80271e-06	0.02062503	-0.01906802	2.528481e-05	7.374985e-06	0.009526843	0.02072777
	0.009473156	0.02045088	2.528481e-05	7.374985e-06	0.02069988	-0.01879958	4.481582e-06	3.125172e-06
	6.423044e-06	7.199797e-06	0.009526845	0.02072778	4.481582e-06	3.125172e-06	0.02062367	-0.01885344
6e+07	0.01950775	-0.02411779	7.219008e-06	2.391805e-06	0.01292087	0.02339182	7.979866e-06	5.626434e-06
	7.219008e-06	2.391805e-06	0.01949083	-0.02427274	2.868113e-05	3.802724e-06	0.01299204	0.02371381
	0.01292089	0.02339181	2.868113e-05	3.802724e-06	0.01961286	-0.02396074	4.980384e-06	2.005756e-06
	7.979866e-06	5.626434e-06	0.01299206	0.0237138	4.980384e-06	2.005756e-06	0.01951813	-0.0240288
7e+07	0.01774086	-0.029174	7.671084e-06	9.2615e-07	0.01678827	0.02581057	9.141357e-06	3.860055e-06
	7.671084e-06	9.261501e-07	0.01768098	-0.02933888	3.102871e-05	-5.068483e-07	0.01687771	0.02617312
	0.01678827	0.02581056	3.102871e-05	-5.068483e-07	0.0178578	-0.02899044	5.255195e-06	8.795832e-07
	9.141357e-06	3.860055e-06	0.01687771	0.02617311	5.255195e-06	8.795828e-07	0.01773913	-0.02907003
8e+07	0.01536808	-0.03397893	7.816303e-06	-5.810154e-07	0.02100171	0.02765682	9.899118e-06	1.927082e-06
	7.816303e-06	-5.810154e-07	0.01526191	-0.03414723	3.230925e-05	-5.373571e-06	0.02110931	0.02805513
	0.0210017	0.02765682	3.230925e-05	-5.373571e-06	0.01550007	-0.0337704	5.300049e-06	-2.49835e-07
	9.899118e-06	1.927082e-06	0.02110931	0.02805514	5.300049e-06	-2.49835e-07	0.01535301	-0.03385791
9e+07	0.01247237	-0.03843346	7.631039e-06	-2.119684e-06	0.0254829	0.02889017	1.02186e-05	-1.680656e-07
	7.631039e-06	-2.119684e-06	0.01231784	-0.03859823	3.243875e-05	-1.072951e-05	0.02560761	0.02931932
	0.02548291	0.02889018	3.243875e-05	-1.072951e-05	0.01262211	-0.03820208	5.098377e-06	-1.37436e-06
	1.02186e-05	-1.680656e-07	0.02560761	0.02931933	5.098377e-06	-1.374361e-06	0.0124431	-0.03829339
1e+08	0.00916985	-0.04243267	6.963758e-06	-3.777215e-06	0.03015224	0.02948054	9.88612e-06	-2.612474e-06
	6.963758e-06	-3.777215e-06	0.008966648	-0.04258654	3.08512e-05	-1.705703e-05	0.03029195	0.02993557
	0.03015224	0.02948054	3.08512e-05	-1.705703e-05	0.009339696	-0.04218073	4.541041e-06	-2.54095e-06
	9.88612e-06	-2.612474e-06	0.03029195	0.02993557	4.541041e-06	-2.54095e-06	0.009126058	-0.04227193
1.1e+08	0.005607917	-0.04614243	5.625643e-06	-4.640754e-06	0.03493937	0.02939385	8.385494e-06	-4.052867e-06
	5.625643e-06	-4.640754e-06	0.005355642	-0.04628018	2.611904e-05	-2.070347e-05	0.03509055	0.02987066
	0.03493937	0.02939385	2.611904e-05	-2.070347e-05	0.005861222	-0.04588789	3.556668e-06	-3.111724e-06
	8.385494e-06	-4.052867e-06	0.03509055	0.02987066	3.556668e-06	-3.111724e-06	0.005607644	-0.04597261
1.2e+08	0.001658835	-0.049408	4.540033e-06	-5.130445e-06	0.03970369	0.02863144	7.179794e-06	-4.890816e-06
	4.540033e-06	-5.130445e-06	0.001356842	-0.04952334	2.295971e-05	-2.191041e-05	0.03986254	0.02912631
	0.03970369	0.02863143	2.295971e-05	-2.191041e-05	0.001937381	-0.04917255	2.765933e-06	-3.434696e-06
	7.179794e-06	-4.890816e-06	0.03986254	0.0291263	2.765933e-06	-3.434696e-06	0.001643442	-0.04924358
1.3e+08	-0.002546291	-0.05216588	3.581725e-06	-5.485703e-06	0.04437302	0.02720345	6.082773e-06	-5.444113e-06
	3.581725e-06	-5.485703e-06	-0.002897169	-0.05225226	2.172534e-05	-2.104378e-05	0.04453487	0.0277131
	0.04437302	0.02720344	2.172534e-05	-2.104378e-05	-0.00226585	-0.05193698	2.079271e-06	-3.68454e-06
	6.082773e-06	-5.444113e-06	0.04453487	0.0277131	2.079271e-06	-3.68454e-06	-0.002599603	-0.05198809
1.4e+08	-0.006912739	-0.05440062	2.722365e-06	-5.645504e-06	0.04886758	0.02512797	5.070108e-06	-5.796065e-06
	2.722365e-06	-5.645504e-06	-0.007310637	-0.05445184	2.042117e-05	-2.037049e-05	0.04902706	0.02564979
	0.04886758	0.02512797	2.042117e-05	-2.037049e-05	-0.006631898	-0.05416646	1.433914e-06	-3.816022e-06
	5.070108e-06	-5.796065e-06	0.04902706	0.02564978	1.433914e-06	-3.816022e-06	-0.007004023	-0.05419198
1.5e+08	-0.01135513	-0.05611155	2.355204e-06	-5.361366e-06	0.05310762	0.02243178	4.138006e-06	-6.013269e-06
	2.355204e-06	-5.361366e-06	-0.01179727	-0.05612186	1.908871e-05	-1.980745e-05	0.05325876	0.02296397
	0.05310762	0.02243178	1.908871e-05	-1.980745e-05	-0.01106866	-0.05586781	8.272588e-07	-3.848455e-06
	4.138006e-06	-6.013269e-06	0.05325875	0.02296397	8.272589e-07	-3.848455e-06	-0.01147693	-0.05586258
1.6e+08	-0.01579411	-0.05730998	1.99112e-06	-5.089675e-06	0.0570164	0.01915085	3.426369e-06	-6.022264e-06
	1.99112e-06	-5.089675e-06	-0.01627695	-0.05727427	1.774613e-05	-1.929632e-05	0.05715274	0.01969253
	0.0570164	0.01915085	1.774613e-05	-1.929632e-05	-0.01549596	-0.05705805	5.591874e-07	-3.615674e-06
	3.426369e-06	-6.022264e-06	0.05715274	0.01969253	5.591874e-07	-3.615674e-06	-0.01593748	-0.05701757
1.7e+08	-0.02015544	-0.05801826	1.63562e-06	-4.837514e-06	0.06052177	0.01532986	3.127575e-06	-5.750771e-06
	1.63562e-06	-4.837514e-06	-0.02067479	-0.05793217	1.640477e-05	-1.879227e-05	0.06063655	0.01588109
	0.06052177	0.01532986	1.640477e-05	-1.879227e-05	-0.01984167	-0.05776284	3.02639e-07	-3.401143e-06
	3.127575e-06	-5.750771e-06	0.06063655	0.01588109	3.02639e-07	-3.401143e-06	-0.02031294	-0.05768328
1.8e+08	-0.02437145	-0.05826924	1.288579e-06	-4.576495e-06	0.06355754	0.01102155	2.83235e-06	-5.491901e-06
	1.288579e-06	-4.576495e-06	-0.02492262	-0.05812927	1.507936e-05	-1.827208e-05	0.06364378	0.01158346
	0.06355754	0.01102155	1.507936e-05	-1.827208e-05	-0.02404068	-0.05801652	5.348085e-08	-3.178506e-06
	2.83235e-06	-5.491901e-06	0.06364378	0.01158346	5.348086e-08	-3.178506e-06	-0.02453776	-0.05789483
1.9e+08	-0.02838143	-0.05810547	9.542324e-07	-4.303079e-06	0.06606471	0.006286286	2.544057e-06	-5.239709e-06
	9.542324e-07	-4.303079e-06	-0.02895944	-0.05790896	1.378182e-05	-1.772101e-05	0.06611542	0.006861112
	0.06606471	0.006286286	1.378182e-05	-1.772101e-05	-0.0280349	-0.05786177	-1.844576e-07	-2.94449e-06
	2.544057e-06	-5.239709e-06	0.06611542	0.006861111	-1.844576e-07	-2.94449e-06	-0.02855358	-0.05769574
2e+08	-0.03213366	-0.05757799	6.369431e-07	-4.014554e-06	0.06799209	0.001190765	2.265686e-06	-4.989597e-06
	6.369431e-07	-4.014554e-06	-0.03273362	-0.05732316	1.252115e-05	-1.713023e-05	0.06800036	0.001781776
	0.06799209	0.001190765	1.252115e-05	-1.713023e-05	-0.03177424	-0.05734877	-4.083735e-07	-2.698304e-06
	2.265686e-06	-4.989597e-06	0.06800036	0.001781776	-4.083735e-07	-2.698304e-06	-0.03230993	-0.05713712
2.1e+08	-0.03558645	-0.05674402	3.402782e-07	-3.71052e-06	0.06929685	-0.004192873	1.999587e-06	-4.739081e-06
	3.402782e-07	-3.71052e-06	-0.03620324	-0.05643003	1.130686e-05	-1.649642e-05	0.06925604	-0.003581291
	0.06929685	-0.004192874	1.130686e-05	-1.649642e-05	-0.03521839	-0.05653416	-6.149393e-07	-2.439675e-06
	1.999587e-06	-4.739081e-06	0.06925604	-0.003581291	-6.149393e-07	-2.439675e-06	-0.03576683	-0.05627645
2.2e+08	-0.03870864	-0.05566662	6.74728e-08	-3.391375e-06	0.06994496	-0.00978812	1.747736e-06	-4.486646e-06
	6.74728e-08	-3.391375e-06	-0.03933731	-0.05529349	1.014644e-05	-1.581781e-05	0.06984888	-0.009150538
	0.06994496	-0.009788121	1.014644e-05	-1.581781e-05	-0.0383371	-0.05547938	-8.015694e-07	-2.169212e-06
	1.747736e-06	-4.486646e-06	0.06984888	-0.009150538	-8.015694e-07	-2.169212e-06	-0.03889422	-0.05517605
2.3e+08	-0.04148019	-0.05441169	-1.786528e-07	-3.058283e-06	0.069912	-0.01551533	1.511779e-06	-4.231537e-06
	-1.786528e-07	-3.058283e-06	-0.04211614	-0.0539803	9.046477e-06	-1.509464e-05	0.06975497	-0.01484531
	0.069912	-0.01551533	9.046477e-06	-1.509464e-05	-0.04111037	-0.05424938	-9.660296e-07	-1.888092e-06
	1.511779e-06	-4.231537e-06	0.06975497	-0.01484531	-9.660296e-07	-1.888092e-06	-0.04167249	-0.05390162
2.4e+08	-0.04389243	-0.05304656	-3.956729e-07	-2.71301e-06	0.06918274	-0.02129238	1.2931e-06	-3.973565e-06
	-3.956729e-07	-2.71301e-06	-0.04453153	-0.05255853	8.012723e-06	-1.432872e-05	0.06895983	-0.02058251
	0.06918274	-0.02129238	8.012723e-06	-1.432872e-05	-0.04353023	-0.05291062	-1.106413e-06	-1.597963e-06
	1.2931e-06	-3.973565e-06	0.06895983	-0.02058251	-1.106413e-06	-1.597963e-06	-0.04409421	-0.05252032
2.5e+08	-0.04594833	-0.05163831	-5.8159e-07	-2.35783e-06	0.0677516	-0.0270361	1.092811e-06	-3.712981e-06
	-5.8159e-07	-2.35783e-06	-0.04658706	-0.05109588	7.050163e-06	-1.352304e-05	0.06745867	-0.02627809
	0.0677516	-0.0270361	7.050163e-06	-1.352304e-05	-0.04559912	-0.05152911	-1.221182e-06	-1.30083e-06
	1.092811e-06	-3.712981e-06	0.06745867	-0.02627809	-1.221182e-06	-1.30083e-06	-0.04616251	-0.05109871
2.6e+08	-0.04766159	-0.05025192	-7.348678e-07	-1.99538e-06	0.06562292	-0.03266334	9.117834e-07	-3.45036e-06
	-7.348678e-07	-1.99538e-06	-0.04829714	-0.04965784	6.163053e-06	-1.268153e-05	0.06525681	-0.03184814
	0.06562292	-0.03266334	6.163053e-06	-1.268153e-05	-0.04733101	-0.05016931	-1.309183e-06	-9.989799e-07
	9.117834e-07	-3.45036e-06	0.06525681	-0.03184814	-1.309183e-06	-9.989799e-07	-0.04789216	-0.0497017
2.7e+08	-0.04905645	-0.0489488	-8.544055e-07	-1.628592e-06	0.06281018	-0.03809157	7.506409e-07	-3.186519e-06
	-8.544055e-07	-1.628592e-06	-0.04968682	-0.04830624	5.35486e-06	-1.180885e-05	0.06236882	-0.03720942
	0.06281018	-0.03809157	5.35486e-06	-1.180885e-05	-0.0487499	-0.04889196	-1.369649e-06	-6.948978e-07
	7.506409e-07	-3.186519e-06	0.06236882	-0.03720942	-1.369649e-06	-6.948978e-07	-0.04930805	-0.04839027
2.8e+08	-0.05016737	-0.04778493	-9.395841e-07	-1.2606e-06	0.05933642	-0.04324042	6.09808e-07	-2.922464e-06
	-9.395841e-07	-1.2606e-06	-0.05079143	-0.04709724	4.628451e-06	-1.091029e-05	0.05881892	-0.04228102
	0.05933642	-0.04324042	4.628451e-06	-1.091029e-05	-0.04988973	-0.04775229	-1.402184e-06	-3.912037e-07
	6.09808e-07	-2.922464e-06	0.05881892	-0.04228102	-1.402184e-06	-3.912037e-07	-0.05044506	-0.04721974
2.9e+08	-0.05103728	-0.04680973	-9.902552e-07	-8.946484e-07	0.055234	-0.04803255	4.894943e-07	-2.659327e-06
	-9.902552e-07	-8.946484e-07	-0.05165485	-0.04608031	3.985956e-06	-9.991597e-06	0.05464078	-0.04698515
	0.055234	-0.04803255	3.985956e-06	-9.991597e-06	-0.05079363	-0.04679948	-1.406785e-06	-9.057656e-08
	4.894943e-07	-2.659327e-06	0.05464078	-0.04698515	-1.406785e-06	-9.057656e-08	-0.05134729	-0.04623916
3e+08	-0.05171705	-0.0460646	-1.006718e-06	-5.340115e-07	0.05054377	-0.05239425	3.897206e-07	-2.398304e-06
	-1.006718e-06	-5.340115e-07	-0.05232883	-0.04529671	3.428843e-06	-9.058814e-06	0.04987661	-0.05124787
	0.05054377	-0.05239425	3.428843e-06	-9.058814e-06	-0.05151202	-0.04607459	-1.383805e-06	2.043056e-07
	3.897206e-07	-2.398304e-06	0.04987661	-0.05124787	-1.383805e-06	2.043056e-07	-0.05206613	-0.04548928
3.1e+08	-0.05226384	-0.04558196	-9.897331e-07	-1.819123e-07	0.04531511	-0.05625702	3.103285e-07	-2.140642e-06
	-9.897331e-07	-1.819123e-07	-0.05287151	-0.04477855	2.957932e-06	-8.118277e-06	0.0445772	-0.05500058
	0.04531511	-0.05625702	2.957932e-06	-8.118277e-06	-0.05210241	-0.04560983	-1.333954e-06	4.908193e-07
	3.103285e-07	-2.140642e-06	0.0445772	-0.05500058	-1.333954e-06	4.908193e-07	-0.05266005	-0.04500173
3.2e+08	-0.05274045	-0.04538441	-9.404629e-07	1.585226e-07	0.03960519	-0.05955823	2.509986e-07	-1.887595e-06
	-9.404629e-07	1.585226e-07	-0.05334653	-0.04454795	2.573375e-06	-7.176491e-06	0.03880121	-0.05818074
	0.03960519	-0.05955823	2.573375e-06	-7.176491e-06	-0.05262682	-0.04542677	-1.258276e-06	7.6646e-07
	2.509986e-07	-1.887595e-06	0.03880121	-0.05818074	-1.258276e-06	7.6646e-07	-0.05319193	-0.04479739
3.3e+08	-0.05321286	-0.04548384	-8.604455e-07	4.843501e-07	0.03347822	-0.06224159	2.112765e-07	-1.640394e-06
	-8.604455e-07	4.843501e-07	-0.05382067	-0.04461602	2.274729e-06	-6.240015e-06	0.03261439	-0.06073232
	0.03347822	-0.06224159	2.274729e-06	-6.240015e-06	-0.05315163	-0.04553712	-1.158089e-06	1.028856e-06
	2.112765e-07	-1.640394e-06	0.03261439	-0.06073232	-1.158089e-06	1.028856e-06	-0.05372884	-0.04488696
3.4e+08	-0.05374931	-0.0458805	-7.515884e-07	7.928449e-07	0.02700485	-0.06425887	1.905711e-07	-1.400244e-06
	-7.515884e-07	7.928449e-07	-0.05436289	-0.0449822	2.060862e-06	-5.315486e-06	0.02608884	-0.0626076
	0.02700485	-0.06425887	2.060862e-06	-5.315486e-06	-0.05374428	-0.04594068	-1.034984e-06	1.275841e-06
	1.905711e-07	-1.400244e-06	0.02608884	-0.0626076	-1.034984e-06	1.275841e-06	-0.0543389	-0.04526915
3.5e+08	-0.0544181	-0.04656335	-6.160704e-07	1.081567e-06	0.02026116	-0.06556965	1.881939e-07	-1.168294e-06
	-6.160704e-07	1.081567e-06	-0.05504198	-0.04563437	1.930078e-06	-4.409459e-06	0.01930217	-0.06376684
	0.02026116	-0.06556965	1.930078e-06	-4.409459e-06	-0.05447353	-0.04662605	-8.907651e-07	1.505446e-06
	1.881939e-07	-1.168294e-06	0.01930217	-0.06376684	-8.907651e-07	1.505446e-06	-0.05509116	-0.04593122
3.6e+08	-0.05528637	-0.0475097	-4.563259e-07	1.348359e-06	0.01332805	-0.06614285	2.033545e-07	-9.456365e-07
	-4.563259e-07	1.348359e-06	-0.05592548	-0.04654865	1.880028e-06	-3.528408e-06	0.01233664	-0.06417981
	0.01332805	-0.06614285	1.880028e-06	-3.528408e-06	-0.0554057	-0.04756974	-7.274344e-07	1.715964e-06
	2.033545e-07	-9.456365e-07	0.01233664	-0.06417981	-7.274344e-07	1.715964e-06	-0.05605212	-0.0468483
3.7e+08	-0.05641743	-0.04868536	-2.749676e-07	1.591416e-06	0.006289382	-0.06595685	2.351916e-07	-7.332917e-07
	-2.749676e-07	1.591416e-06	-0.05707681	-0.04768955	1.907782e-06	-2.678611e-06	0.005277445	-0.06382609
	0.006289382	-0.06595685	1.907782e-06	-2.678611e-06	-0.05660378	-0.04873718	-5.471192e-07	1.905931e-06
	2.351916e-07	-7.332917e-07	0.005277445	-0.06382609	-5.471192e-07	1.905931e-06	-0.05728469	-0.04798423
3.8e+08	-0.05786997	-0.05004529	-7.473109e-08	1.809257e-06	-0.0007684001	-0.06499963	2.827874e-07	-5.322196e-07
	-7.473109e-08	1.809257e-06	-0.05855458	-0.0490106	2.009845e-06	-1.866136e-06	-0.001787749	-0.06269483
	-0.0007684001	-0.06499963	2.009845e-06	-1.866136e-06	-0.05812641	-0.05008282	-3.52049e-07	2.074132e-06
	2.827874e-07	-5.322196e-07	-0.001787749	-0.06269483	-3.52049e-07	2.074132e-06	-0.0588471	-0.04929187
3.9e+08	-0.05969612	-0.05153323	1.415432e-07	2.000757e-06	-0.0077577	-0.06326998	3.45151e-07	-3.433172e-07
	1.415432e-07	2.000757e-06	-0.06041054	-0.05045411	2.18213e-06	-1.096796e-06	-0.008770313	-0.06078638
	-0.0077577	-0.06326998	2.18213e-06	-1.096796e-06	-0.06002427	-0.05155007	-1.445377e-07	2.219632e-06
	3.45151e-07	-3.433172e-07	-0.008770313	-0.06078638	-1.445377e-07	2.219632e-06	-0.06078926	-0.05071307
4e+08	-0.06193914	-0.05308422	3.710172e-07	2.165119e-06	-0.01459138	-0.06077645	4.21266e-07	-1.674163e-07
	3.710172e-07	2.165119e-06	-0.06268727	-0.05195364	2.420027e-06	-3.760354e-07	-0.01558224	-0.05811091
	-0.01459138	-0.06077645	2.420027e-06	-3.760354e-07	-0.06234072	-0.05307386	7.309257e-08	2.341735e-06
	4.21266e-07	-1.674163e-07	-0.01558224	-0.05811091	7.309257e-08	2.341735e-06	-0.06315355	-0.05218116
4.1e+08	-0.06463231	-0.05462567	6.108845e-07	2.301874e-06	-0.02118351	-0.05753801	5.100801e-07	-5.274328e-09
	6.108845e-07	2.301874e-06	-0.06541713	-0.05343525	2.718474e-06	2.911618e-07	-0.0221369	-0.05468916
	-0.02118351	-0.05753801	2.718474e-06	2.911618e-07	-0.06510832	-0.05458091	2.985192e-07	2.439998e-06
	5.100801e-07	-5.274328e-09	-0.0221369	-0.05468916	2.985192e-07	2.439998e-06	-0.06597113	-0.05362146
4.2e+08	-0.0677979	-0.05607678	8.583849e-07	2.410865e-06	-0.02745121	-0.05358391	6.104851e-07	1.423828e-07
	8.583849e-07	2.410865e-06	-0.06862109	-0.0548168	3.071845e-06	9.001579e-07	-0.02835104	-0.05055223
	-0.02745121	-0.05358391	3.071845e-06	9.001579e-07	-0.06834846	-0.05599026	5.294321e-07	2.514207e-06
	6.104851e-07	1.423828e-07	-0.02835104	-0.05055223	5.294321e-07	2.514207e-06	-0.0692617	-0.05495172
4.3e+08	-0.0714455	-0.05735285	1.110895e-06	2.492178e-06	-0.03331558	-0.04895248	7.213607e-07	2.749028e-07
	1.110895e-06	2.492178e-06	-0.0723072	-0.05601247	3.474189e-06	1.446934e-06	-0.03414551	-0.04574042
	-0.03331558	-0.04895248	3.474189e-06	1.446934e-06	-0.07207013	-0.05721735	7.636102e-07	2.564363e-06
	7.213607e-07	2.749028e-07	-0.03414551	-0.04574042	7.636102e-07	2.564363e-06	-0.07303227	-0.05608634
4.4e+08	-0.07557171	-0.05836613	1.365904e-06	2.546149e-06	-0.03870268	-0.04369128	8.415405e-07	3.916724e-07
	1.365904e-06	2.546149e-06	-0.07647023	-0.05693362	3.919158e-06	1.92799e-06	-0.03944644	-0.04030327
	-0.03870268	-0.04369128	3.919158e-06	1.92799e-06	-0.07626906	-0.05817387	9.988733e-07	2.590653e-06
	8.415405e-07	3.916724e-07	-0.03944644	-0.04030327	9.988733e-07	2.590653e-06	-0.07727633	-0.05693629
4.5e+08	-0.08015875	-0.0590267	1.62105e-06	2.573301e-06	-0.04354512	-0.03785619	9.698081e-07	4.921236e-07
	1.62105e-06	2.573301e-06	-0.08109032	-0.05748968	4.400068e-06	2.340394e-06	-0.04418675	-0.03429863
	-0.04354512	-0.03785619	4.400068e-06	2.340394e-06	-0.08092679	-0.05877004	1.233139e-06	2.593448e-06
	9.698081e-07	4.921236e-07	-0.04418675	-0.03429863	1.233139e-06	2.593448e-06	-0.08197293	-0.05741139
4.6e+08	-0.08517499	-0.05924576	1.874136e-06	2.574311e-06	-0.04778255	-0.0315102	1.10491e-06	5.757411e-07
	1.874136e-06	2.574311e-06	-0.08613356	-0.05759154	4.910028e-06	2.68188e-06	-0.04830661	-0.02779147
	-0.04778255	-0.0315102	4.910028e-06	2.68188e-06	-0.08601104	-0.05891772	1.464418e-06	2.573265e-06
	1.10491e-06	5.757411e-07	-0.04830661	-0.02779147	1.464418e-06	2.573265e-06	-0.08708713	-0.05742345
4.7e+08	-0.09057416	-0.05893912	2.123133e-06	2.55e-06	-0.05136296	-0.0247224	1.245539e-06	6.420811e-07
	2.123133e-06	2.55e-06	-0.09155128	-0.05715508	5.441973e-06	2.950887e-06	-0.05175486	-0.02085277
	-0.05136296	-0.0247224	5.441973e-06	2.950887e-06	-0.09147475	-0.05853165	1.690826e-06	2.530763e-06
	1.245539e-06	6.420811e-07	-0.05175486	-0.02085277	1.690826e-06	2.530763e-06	-0.09256913	-0.05688772
4.8e+08	-0.09629721	-0.058026	2.366161e-06	2.501238e-06	-0.05424258	-0.01756732	1.390334e-06	6.907359e-07
	2.366161e-06	2.501238e-06	-0.09728192	-0.05610004	5.988746e-06	3.146454e-06	-0.05448878	-0.01355882
