!$
! Info: Touchstone file created by Circ.  Input file=Intel_C2M_200G_7p0in_202208016_staggered.circ
!$
# Hz S RI R 50
0	0.02032002	4.065354e-24	0.9794801	-6.975326e-24	0.0001172621	2.966316e-22	-0.000248045	3.037676e-20
	0.9794801	-6.972576e-24	0.02087404	7.450847e-24	-0.0002481008	3.038359e-20	0.000340912	6.629981e-22
	0.0001173195	2.967563e-22	-0.0002482373	3.040031e-20	0.02031798	3.849247e-24	0.9794805	-7.0996e-24
	-0.0002481815	3.039347e-20	0.0003409796	6.634644e-22	0.9794805	-7.102364e-24	0.02087546	7.61503e-24
1e+07	0.02487102	-0.003300709	0.9684635	-0.1109939	0.001781454	0.006465431	-0.000982877	-0.0003620415
	0.9684635	-0.1109939	0.0246278	-0.003013873	-0.0009829026	-0.0003619712	0.001618329	0.006508943
	0.001781454	0.006465431	-0.0009829026	-0.0003619712	0.02471861	-0.003271452	0.9686201	-0.1109985
	-0.000982877	-0.0003620415	0.001618329	0.006508943	0.9686201	-0.1109985	0.02447512	-0.002983993
2e+07	0.02766964	-0.01081947	0.9460452	-0.2160823	0.004219116	0.01201247	-0.00109092	-0.0002545169
	0.9460452	-0.2160823	0.02688858	-0.009966257	-0.001090879	-0.0002544717	0.003560432	0.01228701
	0.004219125	0.01201246	-0.001090884	-0.000254582	0.02755794	-0.01070567	0.9461745	-0.2161521
	-0.001090923	-0.0002546209	0.003560518	0.0122869	0.9461745	-0.2161521	0.02676892	-0.009847073
3e+07	0.02802776	-0.02002992	0.9136263	-0.3162778	0.007845038	0.01692576	-0.00105148	-0.0001890993
	0.9136263	-0.3162778	0.02596793	-0.01853263	-0.001051548	-0.0001889354	0.00654331	0.01750681
	0.007845017	0.0169258	-0.001051589	-0.0001889301	0.02795112	-0.01986346	0.9137305	-0.3163799
	-0.001051492	-0.0001891031	0.006543287	0.01750679	0.9137305	-0.3163799	0.02589195	-0.01836413
4e+07	0.02612675	-0.02959221	0.8712906	-0.4115513	0.01253211	0.02081554	-0.0009116612	-0.0002121662
	0.8712906	-0.4115513	0.02261652	-0.02680464	-0.0009118333	-0.0002117798	0.01035865	0.02204225
	0.01253212	0.02081556	-0.0009118371	-0.0002117754	0.02609277	-0.02938979	0.8713698	-0.411677
	-0.0009116605	-0.0002121528	0.01035865	0.02204226	0.8713698	-0.411677	0.02258349	-0.02660064
5e+07	0.02226651	-0.03880872	0.8194917	-0.5011282	0.01801301	0.02351466	-0.0007265587	-0.0003629708
	0.8194917	-0.5011282	0.01720052	-0.03418108	-0.0007268563	-0.0003623398	0.0148723	0.02573009
	0.01801302	0.02351467	-0.0007268532	-0.0003623411	0.02227695	-0.03858282	0.8195457	-0.5012729
	-0.0007265557	-0.0003629725	0.0148723	0.0257301	0.8195457	-0.5012729	0.01721159	-0.03395264
6e+07	0.01670512	-0.04725494	0.7588627	-0.5841656	0.02401172	0.02487907	-0.000560011	-0.0006642668
	0.7588627	-0.5841656	0.01008886	-0.0401426	-0.000560467	-0.0006632341	0.01989064	0.0284663
	0.02401173	0.02487905	-0.0005604659	-0.0006632356	0.01676024	-0.04701645	0.7588902	-0.5843256
	-0.0005600093	-0.0006642677	0.01989064	0.0284663	0.7588902	-0.5843256	0.01014402	-0.03989981
7e+07	0.009713603	-0.05459183	0.6901558	-0.6598601	0.0302234	0.02482735	-0.0004818415	-0.001113208
	0.6901558	-0.6598601	0.001738312	-0.04431272	-0.0004823597	-0.001111678	0.02520787	0.03019366
	0.0302234	0.02482734	-0.0004823228	-0.001111738	0.009812236	-0.05435134	0.6901542	-0.6600317
	-0.0004818395	-0.00111321	0.02520787	0.03019366	0.6901542	-0.6600317	0.001835419	-0.04406498
8e+07	0.001607845	-0.06056181	0.6142119	-0.727485	0.03633485	0.02334517	-0.0005575325	-0.00168085
	0.6142119	-0.727485	-0.007355877	-0.04645849	-0.0005580039	-0.001678705	0.03061467	0.03089993
	0.03633485	0.02334517	-0.0005580042	-0.001678703	0.001747265	-0.06032948	0.6141805	-0.7276649
	-0.0005575334	-0.001680848	0.03061467	0.03089993	0.6141805	-0.7276649	-0.007221004	-0.04621434
9e+07	-0.007263676	-0.06499486	0.5319364	-0.7864108	0.04203951	0.02048364	-0.0008403561	-0.002315563
	0.5319364	-0.7864108	-0.01668462	-0.04646818	-0.0008405905	-0.002312646	0.03590967	0.030617
	0.04203952	0.02048365	-0.0008405871	-0.002312638	-0.007088714	-0.0647802	0.5318719	-0.7865933
	-0.0008403549	-0.002315554	0.03590968	0.030617	0.5318719	-0.7865933	-0.01651757	-0.04623391
1e+08	-0.01650159	-0.06777789	0.4442212	-0.8361422	0.0470528	0.01635353	-0.001368293	-0.00294769
	0.4442212	-0.8361422	-0.02569604	-0.04431582	-0.001368086	-0.002943765	0.0409126	0.02941462
	0.0470528	0.01635352	-0.001368086	-0.002943766	-0.01629913	-0.06758962	0.4441246	-0.8363225
	-0.001368293	-0.002947691	0.0409126	0.02941462	0.4441246	-0.8363225	-0.02550417	-0.04409649
1.1e+08	-0.02578458	-0.06921221	0.3520756	-0.8758532	0.05110951	0.01109945	-0.002137359	-0.003481234
	0.3520756	-0.8758532	-0.03389779	-0.04040868	-0.002134746	-0.003475664	0.04543935	0.02738127
	0.05110951	0.01109945	-0.002134746	-0.003475665	-0.02553475	-0.06910506	0.3519463	-0.8760311
	-0.002137359	-0.003481235	0.04543935	0.02738127	0.3519463	-0.8760311	-0.03368964	-0.04018798
1.2e+08	-0.03504121	-0.06912898	0.2568878	-0.9054614	0.05396392	0.004995794	-0.003125358	-0.003866497
	0.2568878	-0.9054614	-0.04115	-0.03475753	-0.003120651	-0.003860942	0.0493514	0.02468039
	0.05396391	0.004995792	-0.003120651	-0.003860943	-0.03480706	-0.06907717	0.2567227	-0.9056298
	-0.003125359	-0.003866498	0.0493514	0.02468039	0.2567227	-0.9056298	-0.04092419	-0.03454608
1.3e+08	-0.04392167	-0.06759241	0.1596436	-0.9248475	0.05547273	-0.001702517	-0.004303509	-0.004028931
	0.1596436	-0.9248475	-0.04701158	-0.02757406	-0.004297385	-0.004024029	0.05255914	0.02146954
	0.05547272	-0.001702518	-0.004297385	-0.00402403	-0.0437147	-0.06756784	0.1594437	-0.9250016
	-0.004303509	-0.004028932	0.05255914	0.02146954	0.1594437	-0.9250016	-0.04677445	-0.02737684
1.4e+08	-0.05217034	-0.06474752	0.06138335	-0.9339492	0.0555377	-0.008712539	-0.005615929	-0.003907037
	0.06138335	-0.9339492	-0.05116028	-0.01918287	-0.005608587	-0.003902481	0.05500394	0.01791721
	0.0555377	-0.008712539	-0.005608588	-0.003902482	-0.05198641	-0.0647394	0.06114998	-0.9340812
	-0.005615929	-0.003907038	0.05500394	0.01791721	0.06114998	-0.9340812	-0.05091913	-0.01899937
1.5e+08	-0.0595831	-0.06077812	-0.03685791	-0.9327951	0.05411535	-0.0157367	-0.0069885	-0.003456794
	-0.03685791	-0.9327951	-0.05336235	-0.00997046	-0.00697973	-0.003452747	0.05666292	0.01419491
	0.05411535	-0.0157367	-0.006979731	-0.003452748	-0.05941986	-0.06078612	-0.03712162	-0.9328991
	-0.0069885	-0.003456795	0.05666292	0.01419491	-0.03712162	-0.9328991	-0.05312329	-0.009796536
1.6e+08	-0.06600565	-0.05589507	-0.1340594	-0.9215043	0.05122011	-0.02247427	-0.008335424	-0.00265643
	-0.1340594	-0.9215043	-0.05347607	-0.0003621137	-0.008324909	-0.002653223	0.05754766	0.01047095
	0.05122011	-0.02247427	-0.008324909	-0.002653223	-0.06586585	-0.05592256	-0.1343512	-0.9215749
	-0.008335425	-0.00265643	0.05754766	0.01047095	-0.1343512	-0.9215749	-0.05324302	-0.0001910393
1.7e+08	-0.07133416	-0.05032646	-0.229226	-0.9002885	0.04692383	-0.02863242	-0.009566364	-0.001508711
	-0.229226	-0.9002885	-0.0514544	0.009199859	-0.00955387	-0.001506848	0.05770181	0.006903382
	0.04692383	-0.02863242	-0.00955387	-0.001506848	-0.07122514	-0.05037559	-0.2295417	-0.9003199
	-0.009566365	-0.001508711	0.05770181	0.006903382	-0.2295417	-0.9003199	-0.05122836	0.009375652
1.8e+08	-0.07551597	-0.04430658	-0.3213924	-0.8694455	0.04135335	-0.03393656	-0.01059374	-4.109438e-05
	-0.3213924	-0.8694455	-0.04734345	0.01827602	-0.01057932	-4.13852e-05	0.05719843	0.003635436
	0.04135335	-0.03393656	-0.01057932	-4.13852e-05	-0.07544774	-0.04437638	-0.3217259	-0.8694322
	-0.01059374	-4.109438e-05	0.05719843	0.003635437	-0.3217259	-0.8694322	-0.04712323	0.01846403
1.9e+08	-0.07854812	-0.03806624	-0.4096252	-0.8293564	0.03468669	-0.03814042	-0.01133944	0.001696345
	-0.4096252	-0.8293564	-0.04127929	0.02644754	-0.01132347	0.001693073	0.05613602	0.0007910422
	0.03468669	-0.03814042	-0.01132347	0.001693073	-0.07853138	-0.03815166	-0.4099694	-0.8292963
	-0.01133944	0.001696345	0.05613602	0.0007910424	-0.4099694	-0.8292963	-0.04106138	0.02665485
2e+08	-0.08047441	-0.0318216	-0.4930326	-0.7804853	0.02714666	-0.04103459	-0.0117409	0.003634303
	-0.4930326	-0.7804853	-0.03347951	0.03333475	-0.01172429	0.003627179	0.05463386	-0.00152978
	0.02714666	-0.04103459	-0.01172429	0.00362718	-0.0805186	-0.03191476	-0.4933804	-0.7803734
	-0.0117409	0.003634303	0.05463386	-0.001529779	-0.4933804	-0.7803734	-0.03325834	0.03356718
2.1e+08	-0.08137901	-0.0257662	-0.5707694	-0.7233757	0.01899379	-0.0424544	-0.01175608	0.005689525
	-0.5707694	-0.7233757	-0.02423455	0.0386115	-0.01173973	0.00567821	0.05282863	-0.003253431
	0.01899379	-0.0424544	-0.01173973	0.00567821	-0.08149214	-0.02585561	-0.5711117	-0.7232115
	-0.01175608	0.005689525	0.05282863	-0.003253431	-0.5711117	-0.7232115	-0.02400268	0.03887352
2.2e+08	-0.0813811	-0.02006242	-0.6420407	-0.6586489	0.01051785	-0.04228624	-0.01136544	0.007771369
	-0.6420407	-0.6586489	-0.01389333	0.04201849	-0.01135066	0.007755583	0.05086791	-0.004335794
	0.01051785	-0.04228624	-0.01135066	0.007755583	-0.08156799	-0.02013439	-0.6423689	-0.6584328
	-0.01136544	0.007771369	0.05086791	-0.004335794	-0.6423689	-0.6584328	-0.01364257	0.04231317
2.3e+08	-0.08062515	-0.01483572	-0.7061085	-0.5870026	0.002027929	-0.04047294	-0.01057391	0.009787876
	-0.7061085	-0.5870026	-0.002850114	0.04337359	-0.0105619	0.009767993	0.04890547	-0.004763935
	0.002027929	-0.04047294	-0.0105619	0.009767992	-0.08088761	-0.01487564	-0.7064155	-0.586736
	-0.01057391	0.009787876	0.04890547	-0.004763935	-0.7064155	-0.586736	-0.002570849	0.0437022
2.4e+08	-0.07927166	-0.01017066	-0.7623061	-0.5092072	-0.006157707	-0.03701672	-0.009408825	0.01165351
	-0.7623061	-0.5092072	0.0084738	0.04258009	-0.009400976	0.01162999	0.04709532	-0.004556974
	-0.006157707	-0.03701672	-0.009400976	0.01162999	-0.07960839	-0.01016294	-0.7625842	-0.5088949
	-0.009408826	0.01165351	0.04709532	-0.004556974	-0.7625842	-0.5088949	0.008791443	0.04294174
2.5e+08	-0.07748698	-0.006108777	-0.8100398	-0.426104	-0.01372319	-0.03198074	-0.007917706	0.01329408
	-0.8100398	-0.426104	0.01964733	0.03962949	-0.007915145	0.01326784	0.04558501	-0.003766364
	-0.01372319	-0.03198074	-0.007915145	0.01326784	-0.07789336	-0.00603857	-0.8102815	-0.4257486
	-0.007917706	0.01329408	0.04558501	-0.003766364	-0.8102815	-0.4257486	0.02001382	0.04002074
2.6e+08	-0.07543292	-0.002649976	-0.8488009	-0.3385937	-0.02036693	-0.02548884	-0.006163794	0.01465218
	-0.8488009	-0.3385937	0.0302484	0.03460192	-0.006167165	0.01462464	0.04450931	-0.002474497
	-0.02036693	-0.02548884	-0.006167165	0.01462464	-0.07590145	-0.002502809	-0.8489995	-0.3382023
	-0.006163795	0.01465218	0.04450931	-0.002474497	-0.8489995	-0.3382023	0.03067332	0.03501694
2.7e+08	-0.07325684	0.0002448553	-0.8781735	-0.2476337	-0.02581251	-0.01772184	-0.004219715	0.01569023
	-0.8781735	-0.2476337	0.0398825	0.0276619	-0.00422977	0.01566286	0.04398376	-0.0007915583
	-0.02581251	-0.01772184	-0.00422977	0.01566286	-0.07377717	0.0004820017	-0.8783256	-0.2472124
	-0.004219715	0.01569023	0.04398376	-0.0007915583	-0.8783256	-0.2472124	0.04037517	0.02809299
2.8e+08	-0.07108216	0.002648624	-0.8978455	-0.1542276	-0.02982052	-0.008912816	-0.002161812	0.01639173
	-0.8978455	-0.1542276	0.04819989	0.01905131	-0.00217841	0.01636632	0.04409867	0.001147667
	-0.02982052	-0.008912816	-0.00217841	0.01636632	-0.07164134	0.002986561	-0.8979479	-0.1537829
	-0.002161812	0.01639173	0.04409867	0.001147667	-0.8979479	-0.1537829	0.04876807	0.01948856
2.9e+08	-0.06900138	0.004659753	-0.9076142	-0.0594125	-0.03219828	0.0006606394	-6.294904e-05	0.01676082
	-0.9076142	-0.0594125	0.05491028	0.009078033	-8.592657e-05	0.01673926	0.04491369	0.003190239
	-0.03219828	0.0006606399	-8.592663e-05	0.01673926	-0.06958437	0.005107428	-0.9076649	-0.05895127
	-6.294909e-05	0.01676082	0.04491369	0.003190239	-0.9076649	-0.05895127	0.0555601	0.00950929
3e+08	-0.06707032	0.00639329	-0.9073905	0.0357549	-0.03280781	0.0106861	0.002011764	0.01681961
	-0.9073905	0.0357549	0.0597965	-0.001899588	0.001983308	0.01680368	0.04645412	0.005171261
	-0.03280781	0.0106861	0.001983308	0.01680368	-0.06766049	0.006956884	-0.9073874	0.03622635
	0.002011764	0.01681961	0.04645412	0.005171261	-0.9073874	0.03622635	0.06053169	-0.001488
3.1e+08	-0.06530557	0.007970283	-0.897205	0.1302133	-0.03157279	0.02082763	0.004010729	0.01660418
	-0.897205	0.1302133	0.06272298	-0.0134888	0.003978437	0.01659522	0.04870886	0.00692268
	-0.03157279	0.02082763	0.003978437	0.01659522	-0.06588475	0.008653487	-0.8971467	0.1306868
	0.004010729	0.01660418	0.04870886	0.00692268	-0.8971467	0.1306868	0.06354406	-0.01311158
3.2e+08	-0.06368401	0.009507276	-0.8772056	0.2229074	-0.02848208	0.03073814	0.005898544	0.01615923
	-0.8772056	0.2229074	0.06363988	-0.02528114	0.005864283	0.01615839	0.05162955	0.008280483
	-0.02848208	0.03073814	0.005864283	0.01615839	-0.0642331	0.01030978	-0.8770938	0.2233796
	0.005898544	0.01615923	0.05162955	0.008280483	-0.8770938	0.2233796	0.06454533	-0.02495365
3.3e+08	-0.06214594	0.01110487	-0.8476565	0.3128121	-0.02359044	0.04007226	0.007657213	0.01553216
	-0.8476565	0.3128121	0.06258506	-0.03687213	0.007622685	0.01554033	0.05513225	0.00909373
	-0.02359044	0.04007226	0.007622685	0.01554033	-0.06264543	0.01202344	-0.8474924	0.3132754
	0.007657213	0.01553216	0.05513225	0.00909373	-0.8474924	0.3132754	0.06356989	-0.03660922
3.4e+08	-0.0606001	0.01283832	-0.8089353	0.3989373	-0.01701762	0.04849971	0.009284438	0.01476789
	-0.8089353	0.3989373	0.05967978	-0.04787874	0.009252475	0.01478485	0.05910184	0.009232439
	-0.01701762	0.04849971	0.009252475	0.01478485	-0.06103116	0.01386583	-0.8087209	0.3993896
	0.009284438	0.01476789	0.05910184	0.009232439	-0.8087209	0.3993896	0.06073604	-0.04769484
3.5e+08	-0.0589322	0.01474947	-0.7615236	0.4803522	-0.008943605	0.05571682	0.01079255	0.0139033
	-0.7615236	0.4803522	0.05512131	-0.05795798	0.01076556	0.01392834	0.06339671	0.008593329
	-0.008943605	0.05571682	0.01076556	0.01392834	-0.05927656	0.01587574	-0.7612593	0.480785
	0.01079255	0.0139033	0.06339671	0.008593329	-0.7612593	0.480785	0.0562377	-0.0578658
3.6e+08	-0.05701424	0.01684127	-0.7059979	0.5561858	0.0003974186	0.06145788	0.01220361	0.01296352
	-0.7059979	0.5561858	0.0491714	-0.06682079	0.0121837	0.01299562	0.06785589	0.007105949
	0.0003974186	0.06145788	0.0121837	0.01299562	-0.0572555	0.01805222	-0.7056858	0.5565957
	0.01220361	0.01296352	0.06785589	0.007105949	-0.7056858	0.5565957	0.0503346	-0.06683069
3.7e+08	-0.05471619	0.01907428	-0.643018	0.6256453	0.01072601	0.06550457	0.01354449	0.01195999
	-0.643018	0.6256453	0.04214284	-0.07424398	0.01353373	0.01199698	0.07230714	0.004735222
	0.01072601	0.06550457	0.01353373	0.01199698	-0.05484019	0.02035277	-0.6426604	0.6260292
	0.01354449	0.01195999	0.07230714	0.004735222	-0.6426604	0.6260292	0.04333732	-0.07436412
3.8e+08	-0.05191673	0.02136716	-0.5733181	0.6880194	0.02172693	0.06769238	0.01484248	0.01088878
	-0.5733181	0.6880194	0.03438361	-0.08007858	0.01484185	0.01092872	0.07657452	0.001482761
	0.02172693	0.06769238	0.01484185	0.01092872	-0.05191194	0.02269341	-0.5729163	0.6883712
	0.01484248	0.01088878	0.07657452	0.001482761	-0.5729163	0.6883712	0.03559227	-0.08031394
3.9e+08	-0.0485144	0.0235984	-0.497695	0.7426815	0.03305955	0.06791685	0.01611859	0.009733853
	-0.497695	0.7426815	0.02625951	-0.08425484	0.01612921	0.0097731	0.08048697	-0.002613624
	0.03305955	0.06791685	0.01612921	0.0097731	-0.04837356	0.0249501	-0.4972533	0.7429994
	0.01611859	0.009733853	0.08048697	-0.002613624	-0.4972533	0.7429994	0.02746468	-0.08460645
4e+08	-0.044439	0.02561282	-0.4169977	0.7890973	0.04436989	0.06613572	0.01738479	0.008467007
	-0.4169977	0.7890973	0.01813779	-0.08678228	0.01740644	0.008503061	0.08388528	-0.007482499
	0.04436989	0.06613572	0.01740644	0.008503061	-0.04415814	0.02696661	-0.4165157	0.7893757
	0.01738479	0.008467007	0.08388528	-0.007482499	-0.4165157	0.7893757	0.0193216	-0.08724824
4.1e+08	-0.03965976	0.02722972	-0.3321084	0.8268238	0.05530101	0.06237036	0.01863976	0.007053762
	-0.3321084	0.8268238	0.01036997	-0.08774788	0.0186714	0.007083749	0.08662901	-0.01302231
	0.05530101	0.06237036	0.0186714	0.007083749	-0.03923907	0.02856089	-0.3315889	0.8270597
	0.01863976	0.007053762	0.08662901	-0.01302231	-0.3315889	0.8270597	0.01151527	-0.08832263
4.2e+08	-0.03419151	0.02825069	-0.243949	0.85551	0.06550471	0.05670521	0.01986706	0.005458154
	-0.243949	0.85551	0.003276894	-0.08730977	0.01990695	0.005479041	0.08860115	-0.0191073
	0.06550471	0.05670521	0.01990695	0.005479041	-0.03363577	0.02953442	-0.2433959	0.8556979
	0.01986706	0.005458154	0.08860115	-0.0191073	-0.2433959	0.8556979	0.004368258	-0.08798426
4.3e+08	-0.0280999	0.02847326	-0.1534581	0.8748962	0.07465183	0.04928444	0.02103503	0.003646028
	-0.1534581	0.8748962	-0.002864833	-0.0856886	0.02108091	0.003655924	0.08971257	-0.02559186
	0.07465183	0.04928444	0.02108091	0.003655924	-0.02741815	0.02968564	-0.152874	0.8750321
	0.02103503	0.003646028	0.08971257	-0.02559186	-0.152874	0.8750321	-0.001841244	-0.08645108
4.4e+08	-0.02150232	0.02770201	-0.06159089	0.8848139	0.08244192	0.04030852	0.02209785	0.001592128
	-0.06159089	0.8848139	-0.007834503	-0.08315667	0.02214651	0.001589209	0.08990408	-0.03231788
	0.08244192	0.04030852	0.02214651	0.001589209	-0.02070798	0.0288201	-0.0609805	0.8848929
	0.02209785	0.001592128	0.08990408	-0.03231788	-0.0609805	0.8848929	-0.006889199	-0.08399288
4.5e+08	-0.01456761	0.02575984	0.03068511	0.8851848	0.08861287	0.03002847	0.02299826	-0.0007166874
	0.03068511	0.8851848	-0.01147599	-0.08002515	0.02304633	-0.0007331671	0.08914844	-0.03912009
	0.08861287	0.03002847	0.02304633	-0.0007331671	-0.0136782	0.026763	0.03131717	0.8852025
	0.02299826	-0.0007166874	0.08914844	-0.03912009	0.03131717	0.8852025	-0.01061642	-0.08091901
4.6e+08	-0.007511861	0.0225011	0.1224013	0.8760219	0.09294875	0.01873878	0.02367121	-0.00327815
	0.1224013	0.8760219	-0.01370399	-0.07663013	0.02371529	-0.003307653	0.08744993	-0.04583292
	0.09294875	0.01873878	0.02371529	-0.003307653	-0.006548339	0.02337207	0.1230508	0.8759732
	0.02367121	-0.00327815	0.08744993	-0.04583292	0.1230508	0.8759732	-0.01293413	-0.07756441
4.7e+08	-0.0005922338	0.01782416	0.2125967	0.8574318	0.09528733	0.006769075	0.02404928	-0.006070857
	0.2125967	0.8574318	-0.01450725	-0.07331649	0.02408575	-0.006112507	0.0848437	-0.05229558
	0.09528733	0.006769075	0.02408575	-0.006112507	0.0004209283	0.01854809	0.2132554	0.8573115
	0.02404928	-0.006070857	0.0848437	-0.05229558	0.2132554	0.8573115	-0.01382715	-0.074274
4.8e+08	0.005902376	0.0116778	0.3003144	0.8296065	0.09552538	-0.005524713	0.02406706	-0.009056089
	0.3003144	0.8296065	-0.01394872	-0.07042457	0.02409294	-0.009107327	0.0813939	-0.05835821
	0.09552538	-0.005524713	0.02409294	-0.009107327	0.00693768	0.01224506	0.3009758	0.8294138
	0.02406706	-0.009056089	0.0813939	-0.05835821	0.3009758	0.8294138	-0.01335482	-0.07138812
4.9e+08	0.01166037	0.004071974	0.3846135	0.7928395	0.09362383	-0.01777163	0.02366745	-0.01217566
	0.3846135	0.7928395	-0.0121639	-0.06827286	0.02368007	-0.01223404	0.07719124	-0.06388661
	0.09362383	-0.01777163	0.02368007	-0.01223404	0.01268896	0.004477199	0.3852714	0.7925696
	0.02366745	-0.01217566	0.07719124	-0.06388661	0.3852714	0.7925696	-0.01164887	-0.06922712
5e+08	0.01636298	-0.004916007	0.4645872	0.7475143	0.08960925	-0.02959654	0.02280518	-0.01535711
	0.4645872	0.7475143	-0.009353746	-0.06714504	0.02280324	-0.01541881	0.07234929	-0.06876687
	0.08960925	-0.02959654	0.02280324	-0.01541881	0.01735409	-0.004673526	0.4652291	0.7471655
	0.02280518	-0.01535711	0.07234929	-0.06876687	0.4652291	0.7471655	-0.00890729	-0.06807659
5.1e+08	0.01969576	-0.01514115	0.5393529	0.6941086	0.08357547	-0.04063165	0.02145308	-0.0185148
	0.5393529	0.6941086	-0.005777675	-0.06727629	0.02143581	-0.01857594	0.06700056	-0.07290941
	0.08357547	-0.04063165	0.02143581	-0.01857594	0.02061891	-0.01505598	0.5399713	0.6936815
	0.02145308	-0.0185148	0.06700056	-0.07290941	0.5399713	0.6936815	-0.005386322	-0.06817424
5.2e+08	0.02136506	-0.02638711	0.6080791	0.6331986	0.07568142	-0.05053055	0.01960263	-0.02155672
	0.6080791	0.6331986	-0.001741509	-0.06884118	0.01957018	-0.02161363	0.06129181	-0.07625221
