!$
! Info: Touchstone file created by Circ.  Input file=Intel_C2M_200G_7p0in_202208016_staggered.circ
!$
# Hz S RI R 50
0	0.02087404	7.450246e-24	-9.627704e-05	1.179054e-20	0.0003409138	6.629926e-22	-9.19753e-05	1.126373e-20
	-9.627713e-05	1.179055e-20	0.02032002	4.065354e-24	-0.0001034127	1.266441e-20	0.0001172621	2.966316e-22
	0.0003409814	6.634586e-22	-0.0001034128	1.266442e-20	0.02087527	7.617036e-24	-9.630245e-05	1.179365e-20
	-9.197529e-05	1.126372e-20	0.0001173195	2.967563e-22	-9.630236e-05	1.179364e-20	0.02031798	3.849247e-24
1e+07	0.02523447	-0.002834895	-0.0005628618	-5.779738e-05	0.001351753	0.006493127	-5.66072e-05	-0.0001084999
	-0.0005628618	-5.779738e-05	0.02487102	-0.003300709	-0.0007987299	0.0001003863	0.001781454	0.006465431
	0.001351753	0.006493127	-0.0007987299	0.0001003863	0.02492589	-0.002719959	-0.0004143967	-7.541846e-05
	-5.66072e-05	-0.0001084999	0.001781454	0.006465431	-0.0004143967	-7.541846e-05	0.02471861	-0.003271452
2e+07	0.02755652	-0.00990228	-0.000513016	-0.0003449603	0.003332802	0.01235717	-8.238073e-05	-0.0001769732
	-0.0005130159	-0.0003449603	0.02766964	-0.01081947	-0.0007489743	-0.0001448677	0.004219116	0.01201247
	0.003332888	0.01235706	-0.0007489743	-0.0001448676	0.02740453	-0.009598701	-0.0004037051	-0.0002599447
	-8.238072e-05	-0.0001769732	0.004219125	0.01201246	-0.0004037051	-0.0002599447	0.02755794	-0.01070567
3e+07	0.02667715	-0.01854837	-0.0005123642	-0.0004789109	0.006349287	0.01760977	-0.0001243262	-0.0002386046
	-0.0005123642	-0.0004789109	0.02802776	-0.02002992	-0.000719698	-0.0002308464	0.007845038	0.01692576
	0.006349263	0.01760974	-0.000719698	-0.0002308464	0.02666479	-0.01818313	-0.0004319203	-0.000367574
	-0.0001243262	-0.0002386046	0.007845017	0.0169258	-0.0004319204	-0.000367574	0.02795112	-0.01986346
4e+07	0.02334866	-0.02690383	-0.0005465305	-0.0005711784	0.01019564	0.02216354	-0.0001940911	-0.0002842562
	-0.0005465305	-0.0005711784	0.02612675	-0.02959221	-0.0007067081	-0.0002916598	0.01253211	0.02081554
	0.01019564	0.02216355	-0.0007067081	-0.0002916598	0.02345669	-0.02652126	-0.0004867899	-0.0004417576
	-0.0001940911	-0.0002842562	0.01253212	0.02081556	-0.0004867899	-0.0004417575	0.02609277	-0.02938979
5e+07	0.01793805	-0.03436762	-0.0006051649	-0.0006348385	0.01473759	0.025861	-0.0002737096	-0.0003161528
	-0.0006051649	-0.0006348385	0.02226651	-0.03880872	-0.0007082272	-0.0003461638	0.01801301	0.02351466
	0.0147376	0.02586101	-0.0007082272	-0.0003461638	0.01815063	-0.03399753	-0.0005607088	-0.0004902884
	-0.0002737096	-0.0003161528	0.01801302	0.02351467	-0.0005607088	-0.0004902884	0.02227695	-0.03858282
6e+07	0.01081448	-0.04041825	-0.0006807875	-0.0006734179	0.0197811	0.02860066	-0.0003606201	-0.0003335328
	-0.0006807875	-0.0006734179	0.01670512	-0.04725494	-0.0007259563	-0.0004003875	0.02401172	0.02487907
	0.0197811	0.02860067	-0.0007259562	-0.0004003875	0.01111492	-0.04008315	-0.0006474964	-0.000515017
	-0.0003606201	-0.0003335328	0.02401173	0.02487905	-0.0006474964	-0.000515017	0.01676024	-0.04701645
7e+07	0.002434822	-0.04467673	-0.0008098487	-0.0006509778	0.02511985	0.03032696	-0.0004516866	-0.0003350321
	-0.0008098488	-0.0006509778	0.009713603	-0.05459183	-0.0007620508	-0.0004546483	0.0302234	0.02482735
	0.02511985	0.03032696	-0.0007620508	-0.0004546483	0.00280431	-0.04439397	-0.0007416632	-0.000516665
	-0.0004516866	-0.0003350321	0.0302234	0.02482734	-0.0007416632	-0.000516665	0.009812236	-0.05435134
8e+07	-0.006705727	-0.04690764	-0.0009805167	-0.000549291	0.03054415	0.03102906	-0.0005439788	-0.0003203197
	-0.0009805167	-0.000549291	0.001607845	-0.06056181	-0.0008189533	-0.0005065559	0.03633485	0.02334517
	0.03054415	0.03102907	-0.0008189533	-0.0005065558	-0.006288249	-0.0466902	-0.0008380452	-0.0004958331
	-0.0005439788	-0.0003203197	0.03633485	0.02334517	-0.0008380452	-0.0004958331	0.001747265	-0.06032948
9e+07	-0.01609869	-0.04699723	-0.001125606	-0.0004134615	0.0358525	0.03074041	-0.0006362707	-0.0002894716
	-0.001125606	-0.0004134615	-0.007263676	-0.06499486	-0.0008992091	-0.0005518239	0.04203951	0.02048364
	0.0358525	0.03074041	-0.0008992091	-0.0005518239	-0.01565651	-0.0468531	-0.0009423014	-0.0004386763
	-0.0006362707	-0.0002894716	0.04203952	0.02048365	-0.0009423014	-0.0004386763	-0.007088714	-0.0647802
1e+08	-0.02519941	-0.04492064	-0.001227413	-0.0002412327	0.04086397	0.02953256	-0.0007245293	-0.0002422189
	-0.001227413	-0.0002412327	-0.01650159	-0.06777789	-0.001000127	-0.0005831259	0.0470528	0.01635353
	0.04086397	0.02953256	-0.001000127	-0.0005831259	-0.0247644	-0.0448571	-0.001052911	-0.0003180657
	-0.0007245293	-0.0002422189	0.0470528	0.01635352	-0.001052911	-0.0003180657	-0.01629913	-0.06758962
1.1e+08	-0.03351281	-0.0410409	-0.00127854	-0.0001035894	0.0453992	0.02749809	-0.0008092853	-0.0001839638
	-0.00127854	-0.0001035894	-0.02578458	-0.06921221	-0.001132135	-0.0005861023	0.05110951	0.01109945
	0.0453992	0.02749809	-0.001132135	-0.0005861023	-0.03311634	-0.04100253	-0.001131852	-0.0002070787
	-0.0008092853	-0.0001839638	0.05110951	0.01109945	-0.001131852	-0.0002070787	-0.02553475	-0.06910506
1.2e+08	-0.04086098	-0.03539621	-0.001335523	3.419214e-05	0.04932046	0.0247952	-0.0008930681	-0.0001102363
	-0.001335523	3.419214e-05	-0.03504121	-0.06912898	-0.00128891	-0.0005644958	0.05396392	0.004995794
	0.04932045	0.0247952	-0.00128891	-0.0005644958	-0.0404892	-0.03537942	-0.001208832	-8.837863e-05
	-0.0008930681	-0.0001102363	0.05396391	0.004995792	-0.001208832	-8.837865e-05	-0.03480706	-0.06907717
1.3e+08	-0.04681051	-0.02820602	-0.001384208	0.0001812812	0.05253712	0.0215818	-0.0009762501	-2.121921e-05
	-0.001384208	0.0001812812	-0.04392167	-0.06759241	-0.001462308	-0.0005093576	0.05547273	-0.001702517
	0.05253711	0.0215818	-0.001462308	-0.0005093576	-0.04646461	-0.02820844	-0.001275719	4.206185e-05
	-0.0009762501	-2.121921e-05	0.05547272	-0.001702518	-0.001275719	4.206182e-05	-0.0437147	-0.06756784
1.4e+08	-0.05104022	-0.01979735	-0.00142037	0.0003384587	0.05499042	0.01802645	-0.001049398	8.54258e-05
	-0.00142037	0.0003384587	-0.05217034	-0.06474752	-0.001644215	-0.0004146239	0.0555377	-0.008712539
	0.05499042	0.01802645	-0.001644215	-0.0004146239	-0.05072369	-0.01981316	-0.001329844	0.0001837683
	-0.001049398	8.54258e-05	0.0555377	-0.008712539	-0.001329844	0.0001837683	-0.05198641	-0.0647394
1.5e+08	-0.05331654	-0.01055824	-0.001441032	0.0005053031	0.05665746	0.01430068	-0.001109675	0.000208558
	-0.001441032	0.0005053031	-0.0595831	-0.06077812	-0.001825184	-0.000276379	0.05411535	-0.0157367
	0.05665746	0.01430068	-0.001825184	-0.000276379	-0.05303227	-0.01057911	-0.001369313	0.0003358027
	-0.001109675	0.000208558	0.05411535	-0.0157367	-0.001369313	0.0003358026	-0.05941986	-0.06078612
1.6e+08	-0.05349759	-0.0009150345	-0.00144372	0.0006806009	0.05754984	0.0105728	-0.001154282	0.0003465362
	-0.00144372	0.0006806009	-0.06600565	-0.05589507	-0.001994827	-9.325811e-05	0.05122011	-0.02247427
	0.05754984	0.01057281	-0.001994827	-9.325811e-05	-0.0532465	-0.0009308619	-0.001392573	0.0004969555
	-0.001154282	0.0003465362	0.05122011	-0.02247427	-0.001392573	0.0004969555	-0.06586585	-0.05592256
1.7e+08	-0.05153595	0.008688901	-0.001426251	0.0008626676	0.05771122	0.007000871	-0.001180554	0.0004973225
	-0.001426251	0.0008626676	-0.07133416	-0.05032646	-0.002142517	0.0001334152	0.04692383	-0.02863242
	0.05771122	0.007000871	-0.002142517	0.0001334152	-0.05131624	0.008688592	-0.001398173	0.0006658634
	-0.001180554	0.0004973225	0.04692383	-0.02863242	-0.001398173	0.0006658634	-0.07122514	-0.05037559
1.8e+08	-0.04747736	0.0178132	-0.001386739	0.001049312	0.05721462	0.00372806	-0.001186058	0.0006583994
	-0.001386739	0.001049312	-0.07551597	-0.04430658	-0.002258002	0.0003998127	0.04135335	-0.03393656
	0.05721462	0.003728061	-0.002258002	0.0003998127	-0.04728499	0.01783834	-0.001384837	0.000840998
	-0.001186058	0.0006583994	0.04135335	-0.03393656	-0.001384837	0.000840998	-0.07544774	-0.04437638
1.9e+08	-0.0414573	0.02603809	-0.001323541	0.001237954	0.0561585	0.0008782705	-0.001168711	0.0008268387
	-0.001323541	0.001237954	-0.07854812	-0.03806624	-0.002331968	0.0007000077	0.03468669	-0.03814042
	0.0561585	0.0008782707	-0.002331968	0.0007000077	-0.041286	0.02609784	-0.001351226	0.001020627
	-0.001168711	0.0008268387	0.03468669	-0.03814042	-0.001351226	0.001020627	-0.07853138	-0.03815166
2e+08	-0.03369284	0.03298249	-0.001235012	0.001424175	0.05466206	-0.001448461	-0.001126887	0.0009993094
	-0.001235012	0.001424175	-0.08047441	-0.0318216	-0.002337056	0.00106197	0.02714666	-0.04103459
	0.05466206	-0.001448461	-0.002337056	0.00106197	-0.03353437	0.03308511	-0.001296558	0.001201257
	-0.001126887	0.0009993094	0.02714666	-0.04103459	-0.001296558	0.001201257	-0.0805186	-0.03191476
2.1e+08	-0.02447419	0.03831945	-0.001121015	0.001606006	0.05286185	-0.003178587	-0.001059364	0.00117211
	-0.001121015	0.001606006	-0.08137901	-0.0257662	-0.002280906	0.001433206	0.01899379	-0.0424544
	0.05286185	-0.003178587	-0.002280906	0.001433206	-0.02431792	0.03847077	-0.001219687	0.001382554
	-0.001059364	0.00117211	0.01899379	-0.0424544	-0.001219687	0.001382554	-0.08149214	-0.02585561
2.2e+08	-0.01414994	0.04178844	-0.000981153	0.001779915	0.05090535	-0.004267896	-0.0009655541	0.0013413
	-0.000981153	0.001779915	-0.0813811	-0.02006242	-0.002161713	0.001801884	0.01051785	-0.04228624
	0.05090535	-0.004267896	-0.002161713	0.001801884	-0.0139844	0.04199249	-0.001119446	0.001562176
	-0.0009655541	0.0013413	0.01051785	-0.04228624	-0.001119446	0.001562176	-0.08156799	-0.02013439
2.3e+08	-0.003114155	0.04320604	-0.0008156267	0.00194211	0.04894622	-0.004703397	-0.0008455532	0.001502792
	-0.0008156267	0.00194211	-0.08062515	-0.01483572	-0.001980517	0.002155951	0.002027929	-0.04047294
	0.04894622	-0.004703397	-0.001980517	0.002155951	-0.00292647	0.04346445	-0.0009948764	0.001737416
	-0.0008455532	0.001502792	0.002027929	-0.04047294	-0.0009948764	0.001737416	-0.08088761	-0.01487564
2.4e+08	0.008211854	0.04247411	-0.0006251298	0.002088767	0.04713836	-0.004504076	-0.0007001367	0.001652478
	-0.0006251298	0.002088767	-0.07927166	-0.01017066	-0.001740915	0.002484058	-0.006157707	-0.03701672
	0.04713836	-0.004504076	-0.001740915	0.002484058	0.008434801	0.04278592	-0.0008452227	0.001905194
	-0.0007001367	0.001652478	-0.006157707	-0.03701672	-0.0008452227	0.001905194	-0.07960839	-0.01016294
2.5e+08	0.01939683	0.03958267	-0.0004111162	0.002215977	0.04562922	-0.003721209	-0.0005307116	0.001786369
	-0.0004111162	0.002215977	-0.07748698	-0.006108777	-0.001448788	0.002776077	-0.01372319	-0.03198074
	0.04562922	-0.003721209	-0.001448788	0.002776077	0.01966859	0.03994383	-0.0006701437	0.002062083
	-0.0005307116	0.001786369	-0.01372319	-0.03198074	-0.0006701437	0.002062083	-0.07789336	-0.00603857
2.6e+08	0.03001824	0.03461038	-0.0001756377	0.002319943	0.04455354	-0.002436993	-0.000339451	0.001900731
	-0.0001756377	0.002319943	-0.07543292	-0.002649976	-0.001111899	0.003023679	-0.02036693	-0.02548884
	0.04455354	-0.002436993	-0.001111899	0.003023679	0.03035125	0.03501405	-0.000469734	0.002204312
	-0.000339451	0.001900731	-0.02036693	-0.02548884	-0.000469734	0.002204312	-0.07590145	-0.002502809
2.7e+08	0.03968086	0.02772034	7.858073e-05	0.002397119	0.04402688	-0.0007614116	-0.000128999	0.001992193
	7.858073e-05	0.002397119	-0.07325684	0.0002448553	-0.0007393757	0.003220623	-0.02581251	-0.01772184
	0.04402688	-0.0007614116	-0.0007393757	0.003220623	0.04008695	0.02815729	-0.0002446726	0.002327852
	-0.000128999	0.001992193	-0.02581251	-0.01772184	-0.0002446726	0.002327852	-0.07377717	0.0004820017
2.8e+08	0.04803392	0.01915308	0.0003481747	0.002444327	0.04413961	0.001170935	9.735428e-05	0.002057851
	0.0003481747	0.002444327	-0.07108216	0.002648624	-0.0003408413	0.003362958	-0.02982052	-0.008912816
	0.04413961	0.001170935	-0.0003408413	0.003362958	0.04852303	0.01961162	3.62199e-06	0.002428521
	9.735428e-05	0.002057851	-0.02982052	-0.008912816	3.62199e-06	0.002428521	-0.07164134	0.002986561
2.9e+08	0.05478591	0.009215354	0.0006291658	0.002458867	0.04495149	0.003207318	0.0003359611	0.002095394
	0.0006291658	0.002458867	-0.06900138	0.004659753	7.401021e-05	0.003448971	-0.03219828	0.0006606394
	0.04495149	0.003207318	7.401021e-05	0.003448971	0.05536585	0.009681202	0.0002730341	0.002502111
	0.0003359611	0.002095394	-0.03219828	0.0006606399	0.0002730341	0.002502111	-0.06958437	0.005107428
3e+08	0.0597182	-0.001735472	0.0009171175	0.002438665	0.04648799	0.005183	0.0005828843	0.002103137
	0.0009171175	0.002438665	-0.06707032	0.00639329	0.0004960012	0.003478957	-0.03280781	0.0106861
	0.04648799	0.005183	0.0004960012	0.003478957	0.06039392	-0.001278204	0.0005605662	0.002544554
	0.0005828843	0.002103137	-0.03280781	0.0106861	0.0005605661	0.002544554	-0.06766049	0.006956884
3.1e+08	0.06269347	-0.01330731	0.00120722	0.002382403	0.04873818	0.006930039	0.0008340754	0.002079994
	0.00120722	0.002382403	-0.06530557	0.007970283	0.0009170565	0.003454811	-0.03157279	0.02082763
	0.04873818	0.006930039	0.0009170565	0.003454811	0.06346636	-0.01287556	0.0008623244	0.002552174
	0.0008340754	0.002079994	-0.03157279	0.02082763	0.0008623244	0.002552174	-0.06588475	0.008653487
3.2e+08	0.06366018	-0.02509201	0.001494458	0.002289519	0.05165392	0.00828444	0.001085336	0.002025567
	0.001494458	0.002289519	-0.06368401	0.009507276	0.001330255	0.003379676	-0.02848208	0.03073814
	0.05165392	0.00828444	0.001330255	0.003379676	0.064529	-0.02470338	0.001173714	0.002521788
	0.001085336	0.002025567	-0.02848208	0.03073814	0.001173714	0.002521788	-0.0642331	0.01030978
3.3e+08	0.06265427	-0.03668503	0.001773753	0.002160297	0.05515147	0.009095323	0.001332639	0.001940016
	0.001773753	0.002160297	-0.06214594	0.01110487	0.001730302	0.003257244	-0.02359044	0.04007226
	0.05515147	0.009095323	0.001730302	0.003257244	0.06361398	-0.0363565	0.001489438	0.002450962
	0.001332639	0.001940016	-0.02359044	0.04007226	0.001489438	0.002450962	-0.06264543	0.01202344
3.4e+08	0.05979519	-0.04770305	0.002040143	0.001995869	0.0591159	0.009232636	0.001572125	0.001824076
	0.002040143	0.001995869	-0.0606001	0.01283832	0.002113072	0.003091457	-0.01701762	0.04849971
	0.0591159	0.009232636	0.002113072	0.003091457	0.06083745	-0.04745093	0.001803681	0.002338159
	0.001572125	0.001824076	-0.01701762	0.04849971	0.001803681	0.002338159	-0.06103116	0.01386583
3.5e+08	0.05527845	-0.05780223	0.002288922	0.001798135	0.06340573	0.008593017	0.001800121	0.001678926
	0.002288922	0.001798135	-0.0589322	0.01474947	0.002475698	0.002885981	-0.008943605	0.05571682
	0.06340573	0.008593017	0.002475698	0.002885981	0.05639134	-0.05764098	0.00211022	0.002182859
	0.001800121	0.001678926	-0.008943605	0.05571682	0.00211022	0.002182859	-0.05927656	0.01587574
3.6e+08	0.0493643	-0.06669249	0.002515886	0.001569695	0.06786014	0.007105886	0.002013289	0.001506173
	0.002515886	0.001569695	-0.05701424	0.01684127	0.00281619	0.002643777	0.0003974186	0.06145788
	0.06786014	0.007105886	0.00281619	0.002643777	0.05053356	-0.06663388	0.002402773	0.001985629
	0.002013289	0.001506173	0.0003974186	0.06145788	0.002402773	0.001985629	-0.0572555	0.01805222
3.7e+08	0.04236413	-0.07414922	0.002717376	0.00131362	0.07230695	0.004736103	0.002208648	0.001307633
	0.002717376	0.00131362	-0.05471619	0.01907428	0.003132921	0.002367142	0.01072601	0.06550457
	0.07230695	0.004736103	0.003132921	0.002367142	0.04357322	-0.07420259	0.002675209	0.00174801
	0.002208648	0.001307633	0.01072601	0.06550457	0.002675209	0.00174801	-0.05484019	0.02035277
3.8e+08	0.03462497	-0.08002184	0.002890332	0.001033466	0.07657023	0.001485123	0.002383443	0.001085468
	0.002890332	0.001033466	-0.05191673	0.02136716	0.003424231	0.002057694	0.02172693	0.06769238
	0.07657023	0.001485123	0.003424231	0.002057694	0.03585567	-0.08019312	0.002921627	0.001472665
	0.002383443	0.001085468	0.02172693	0.06769238	0.002921627	0.001472665	-0.05191194	0.02269341
3.9e+08	0.02651186	-0.08423875	0.003032367	0.0007329774	0.08047894	-0.002609275	0.002535273	0.0008419132
	0.003032367	0.0007329774	-0.0485144	0.0235984	0.003688168	0.001716402	0.03305955	0.06791685
	0.08047894	-0.002609275	0.003688168	0.001716402	0.02774535	-0.08452969	0.003136705	0.001163131
	0.002535273	0.0008419132	0.03305955	0.06791685	0.003136705	0.001163131	-0.04837356	0.0249501
4e+08	0.0183918	-0.08680765	0.003141712	0.0004159742	0.08387386	-0.007475757	0.002661967	0.0005793606
	0.003141712	0.0004159742	-0.044439	0.02561282	0.003922113	0.001343816	0.04436989	0.06613572
	0.08387386	-0.007475757	0.003922113	0.001343816	0.01960901	-0.08721672	0.003315761	0.0008236498
	0.002661967	0.0005793606	0.04436989	0.06613572	0.003315761	0.0008236498	-0.04415814	0.02696661
4.1e+08	0.01061643	-0.08781352	0.003217148	8.61948e-05	0.08661453	-0.01301277	0.002761597	0.0003002861
	0.003217148	8.61948e-05	-0.03965976	0.02722972	0.004122593	0.000940778	0.05530101	0.06237036
	0.08661453	-0.01301277	0.004122593	0.000940778	0.011799	-0.08833541	0.003454861	0.000459237
	0.002761597	0.0003002861	0.05530101	0.06237036	0.003454861	0.000459237	-0.03923907	0.02856089
4.2e+08	0.003507032	-0.08741264	0.003257917	-0.0002527327	0.08858393	-0.01909458	0.002832433	7.2812e-06
	0.003257917	-0.0002527327	-0.03419151	0.02825069	0.00428533	0.0005082518	0.06550471	0.05670521
	0.08858393	-0.01909458	0.00428533	0.0005082518	0.004638393	-0.08803831	0.003550931	7.519391e-05
	0.002832433	7.2812e-06	0.06550471	0.05670521	0.003550931	7.519391e-05	-0.03363577	0.02953442
4.3e+08	-0.002658913	-0.08582395	0.003263594	-0.0005974228	0.08969295	-0.02557556	0.002872831	-0.0002971283
	0.003263594	-0.0005974228	-0.0280999	0.02847326	0.004405276	4.836168e-05	0.07465183	0.04928444
	0.08969295	-0.02557556	0.004405276	4.836168e-05	-0.001593702	-0.08654142	0.003601717	-0.0003229308
	0.002872831	-0.0002971283	0.07465183	0.04928444	0.003601717	-0.0003229308	-0.02741815	0.02968564
4.4e+08	-0.007659527	-0.08331819	0.003233959	-0.0009446697	0.08988243	-0.03229753	0.002881294	-0.0006101259
	0.003233959	-0.0009446697	-0.02150232	0.02770201	0.004476906	-0.0004358267	0.08244192	0.04030852
	0.08988243	-0.03229753	0.004476906	-0.0004358267	-0.006671986	-0.08411278	0.003605792	-0.0007292679
	0.002881294	-0.0006101259	0.08244192	0.04030852	0.003605792	-0.0007292679	-0.02070798	0.0288201
4.5e+08	-0.01133718	-0.08020532	0.00316893	-0.001291474	0.08912525	-0.03909525	0.002856439	-0.0009287509
	0.00316893	-0.001291474	-0.01456761	0.02575984	0.004494569	-0.0009397861	0.08861287	0.03002847
	0.08912525	-0.03909525	0.004494569	-0.0009397861	-0.01043565	-0.08106032	0.003562546	-0.001138098
	0.002856439	-0.0009287509	0.08861287	0.03002847	0.003562546	-0.001138098	-0.0136782	0.026763
4.6e+08	-0.01360495	-0.07682044	0.003068455	-0.001634838	0.08742574	-0.04580311	0.00279696	-0.001249917
	0.003068455	-0.001634838	-0.007511861	0.0225011	0.004452969	-0.001457178	0.09294875	0.01873878
	0.08742574	-0.04580311	0.004452969	-0.001457178	-0.01279406	-0.07771783	0.003471981	-0.001543926
	0.00279696	-0.001249917	0.09294875	0.01873878	0.003471981	-0.001543926	-0.006548339	0.02337207
4.7e+08	-0.01444964	-0.0735079	0.002932431	-0.001971929	0.08481921	-0.05226039	0.002701738	-0.001570169
	0.002932431	-0.001971929	-0.0005922338	0.01782416	0.004347619	-0.001980244	0.09528733	0.006769075
	0.08481921	-0.05226039	0.004347619	-0.001980244	-0.01372996	-0.0744296	0.003334883	-0.001941212
	0.002701738	-0.001570169	0.09528733	0.006769075	0.003334883	-0.001941212	0.0004209283	0.01854809
4.8e+08	-0.0139323	-0.07060785	0.00276078	-0.002299735	0.08136996	-0.05831727	0.002569815	-0.001885823
	0.00276078	-0.002299735	0.005902376	0.0116778	0.004175294	-0.002499974	0.09552538	-0.005524713
	0.08136996	-0.05831727	0.004175294	-0.002499974	-0.01330049	-0.07153561	0.003152478	-0.002324846
	0.002569815	-0.001885823	0.09552538	-0.005524713	0.003152478	-0.002324846	0.00693768	0.01224506
4.9e+08	-0.01218648	-0.06843901	0.002553474	-0.002614965	0.07716879	-0.06383968	0.002400563	-0.002192814
	0.002553474	-0.002614965	0.01166037	0.004071974	0.003934607	-0.003005958	0.09362383	-0.01777163
