!$
! Info: Touchstone file created by Circ.  Input file=Intel_C2M_200G_7p0in_202208016_staggered.circ
!$
# Hz S RI R 50
0	0.02030701	3.711731e-24	7.432624e-05	1.062779e-22	0.0001176676	2.985338e-22	7.431917e-05	1.061079e-22
	7.432624e-05	1.062779e-22	0.02032002	4.065354e-24	7.433073e-05	1.063664e-22	0.0001172621	2.966316e-22
	0.000117725	2.986602e-22	7.433072e-05	1.063677e-22	0.02030187	3.879955e-24	7.432158e-05	1.06187e-22
	7.431916e-05	1.061092e-22	0.0001173195	2.967563e-22	7.432158e-05	1.061871e-22	0.02031798	3.849247e-24
1e+07	0.02469376	-0.003278363	4.008653e-06	2.331821e-05	0.001775119	0.00640563	1.163592e-05	2.281323e-05
	4.008656e-06	2.331823e-05	0.02487102	-0.003300709	2.323965e-06	6.338822e-06	0.001781454	0.006465431
	0.001775119	0.00640563	2.323965e-06	6.338822e-06	0.02485391	-0.003238871	3.8928e-06	2.22508e-05
	1.163592e-05	2.281323e-05	0.001781454	0.006465431	3.8928e-06	2.22508e-05	0.02471861	-0.003271452
2e+07	0.02753046	-0.01071057	4.622921e-06	1.293993e-05	0.004203043	0.01189603	7.468461e-06	1.580078e-05
	4.622929e-06	1.293996e-05	0.02766964	-0.01081947	1.399194e-05	1.338269e-05	0.004219116	0.01201247
	0.004203052	0.01189601	1.399194e-05	1.338269e-05	0.02767805	-0.01069765	3.35867e-06	1.1357e-05
	7.468461e-06	1.580077e-05	0.004219125	0.01201246	3.35867e-06	1.1357e-05	0.02755794	-0.01070567
3e+07	0.02793724	-0.01986982	7.415183e-06	9.566595e-06	0.007815837	0.01675772	4.968652e-06	1.488351e-05
	7.415183e-06	9.566595e-06	0.02802776	-0.02002992	2.5628e-05	1.469784e-05	0.007845038	0.01692576
	0.007815815	0.01675776	2.5628e-05	1.469784e-05	0.02807226	-0.01984724	5.301711e-06	8.112108e-06
	4.968652e-06	1.488351e-05	0.007845017	0.0169258	5.301711e-06	8.112108e-06	0.02795112	-0.01986346
4e+07	0.02609643	-0.02939664	9.430398e-06	6.743276e-06	0.01248795	0.02060155	8.651275e-06	1.236711e-05
	9.430398e-06	6.743276e-06	0.02612675	-0.02959221	3.435486e-05	1.115027e-05	0.01253211	0.02081554
	0.01248795	0.02060157	3.435486e-05	1.115027e-05	0.02622864	-0.02936178	6.676201e-06	5.66642e-06
	8.651276e-06	1.236711e-05	0.01253212	0.02081556	6.676201e-06	5.66642e-06	0.02609277	-0.02938979
5e+07	0.02230562	-0.03859317	1.071162e-05	3.979939e-06	0.01795377	0.02326088	1.155291e-05	9.41542e-06
	1.071162e-05	3.979939e-06	0.02226651	-0.03880872	4.046491e-05	5.047742e-06	0.01801301	0.02351466
	0.01795378	0.02326089	4.046491e-05	5.047742e-06	0.02243896	-0.0385463	7.503754e-06	3.421616e-06
	1.155291e-05	9.41542e-06	0.01801302	0.02351467	7.503754e-06	3.421616e-06	0.02227695	-0.03858282
6e+07	0.01681986	-0.04703576	1.128249e-05	1.242518e-06	0.02393925	0.0245918	1.352682e-05	6.161804e-06
	1.128249e-05	1.242518e-06	0.01670512	-0.04725494	4.411968e-05	-2.481122e-06	0.02401172	0.02487907
	0.02393927	0.02459179	4.411968e-05	-2.481122e-06	0.01695734	-0.04697849	7.802426e-06	1.291136e-06
	1.352682e-05	6.161804e-06	0.02401173	0.02487905	7.802425e-06	1.291137e-06	0.01676024	-0.04701645
7e+07	0.009906767	-0.05438591	1.117401e-05	-1.394507e-06	0.03014158	0.02451245	1.460045e-05	2.742475e-06
	1.117401e-05	-1.394507e-06	0.009713603	-0.05459183	4.54143e-05	-1.071869e-05	0.0302234	0.02482735
	0.03014157	0.02451245	4.54143e-05	-1.071869e-05	0.01005044	-0.05432146	7.59357e-06	-6.9518e-07
	1.460045e-05	2.742475e-06	0.0302234	0.02482734	7.59357e-06	-6.951805e-07	0.009812236	-0.05435134
8e+07	0.001878596	-0.06038604	1.042567e-05	-3.830578e-06	0.03624942	0.02300747	1.479805e-05	-7.073696e-07
	1.042567e-05	-3.830578e-06	0.001607845	-0.06056181	4.443401e-05	-1.914014e-05	0.03633485	0.02334517
	0.03624942	0.02300747	4.443401e-05	-1.914014e-05	0.002029433	-0.06031849	6.911205e-06	-2.469185e-06
	1.479805e-05	-7.073696e-07	0.03633485	0.02334517	6.911205e-06	-2.469185e-06	0.001747265	-0.06032948
9e+07	-0.006920064	-0.06486542	9.073156e-06	-5.969427e-06	0.04195782	0.02012645	1.411844e-05	-4.082654e-06
	9.073156e-06	-5.969427e-06	-0.007263676	-0.06499486	4.12007e-05	-2.739188e-05	0.04203951	0.02048364
	0.04195783	0.02012646	4.12007e-05	-2.739188e-05	-0.006762618	-0.06479916	5.793105e-06	-3.956196e-06
	1.411844e-05	-4.082654e-06	0.04203952	0.02048365	5.793105e-06	-3.956197e-06	-0.007088714	-0.0647802
1e+08	-0.01609402	-0.06770962	6.971471e-06	-7.786056e-06	0.04698353	0.01597825	1.22611e-05	-7.47139e-06
	6.971471e-06	-7.786056e-06	-0.01650159	-0.06777789	3.49142e-05	-3.569791e-05	0.0470528	0.01635353
	0.04698353	0.01597825	3.49142e-05	-3.569791e-05	-0.01593165	-0.06764851	4.158175e-06	-5.107997e-06
	1.22611e-05	-7.47139e-06	0.0470528	0.01635352	4.158175e-06	-5.107997e-06	-0.01629913	-0.06758962
1.1e+08	-0.02532258	-0.06921456	4.458768e-06	-8.035624e-06	0.05106224	0.0107043	9.216916e-06	-8.779254e-06
	4.458768e-06	-8.035623e-06	-0.02578458	-0.06921221	2.5488e-05	-3.837131e-05	0.05110951	0.01109945
	0.05106224	0.01070429	2.5488e-05	-3.837131e-05	-0.02512771	-0.06921661	2.366604e-06	-5.118082e-06
	9.216916e-06	-8.779254e-06	0.05110951	0.01109945	2.366604e-06	-5.118082e-06	-0.02553475	-0.06910506
1.2e+08	-0.03453464	-0.06921162	2.560629e-06	-7.801195e-06	0.0539474	0.004576895	6.90257e-06	-9.229114e-06
	2.560629e-06	-7.801195e-06	-0.03504121	-0.06912898	1.948152e-05	-3.797804e-05	0.05396392	0.004995794
	0.05394739	0.004576893	1.948152e-05	-3.797804e-05	-0.03437	-0.06925182	1.036584e-06	-4.830017e-06
	6.90257e-06	-9.229114e-06	0.05396391	0.004995792	1.036584e-06	-4.830017e-06	-0.03480706	-0.06907717
1.3e+08	-0.04338282	-0.06776288	9.735866e-07	-7.406542e-06	0.05549519	-0.002151246	4.960272e-06	-9.229616e-06
	9.735866e-07	-7.406542e-06	-0.04392167	-0.06759241	1.713064e-05	-3.555175e-05	0.05547273	-0.001702517
	0.05549519	-0.002151247	1.713064e-05	-3.555175e-05	-0.04325836	-0.06781268	-6.540311e-08	-4.480382e-06
	4.960272e-06	-9.229616e-06	0.05547272	-0.001702518	-6.540303e-08	-4.480382e-06	-0.0437147	-0.06756784
1.4e+08	-0.05161273	-0.06501067	-2.614343e-07	-6.736264e-06	0.05560619	-0.009199378	3.331289e-06	-8.933585e-06
	-2.614342e-07	-6.736264e-06	-0.05217034	-0.06474752	1.48249e-05	-3.327771e-05	0.0555377	-0.008712539
	0.05560619	-0.009199379	1.48249e-05	-3.327771e-05	-0.05152252	-0.06505871	-9.493119e-07	-3.944326e-06
	3.331289e-06	-8.933585e-06	0.0555377	-0.008712539	-9.493118e-07	-3.944326e-06	-0.05198641	-0.0647394
1.5e+08	-0.05902076	-0.06113598	-5.683405e-07	-5.732228e-06	0.05423525	-0.0162719	1.959523e-06	-8.470718e-06
	-5.683405e-07	-5.732228e-06	-0.0595831	-0.06077812	1.264327e-05	-3.107749e-05	0.05411535	-0.0157367
	0.05423525	-0.0162719	1.264327e-05	-3.107749e-05	-0.05896059	-0.06118155	-1.616885e-06	-3.278088e-06
	1.959523e-06	-8.470718e-06	0.05411535	-0.0157367	-1.616885e-06	-3.278088e-06	-0.05941986	-0.06078612
1.6e+08	-0.06545253	-0.05634687	-7.707298e-07	-4.76376e-06	0.05139461	-0.0230697	1.031012e-06	-7.846156e-06
	-7.707297e-07	-4.76376e-06	-0.06600565	-0.05589507	1.063876e-05	-2.889544e-05	0.05122011	-0.02247427
	0.05139461	-0.0230697	1.063876e-05	-2.889544e-05	-0.06542323	-0.05639309	-1.666205e-06	-2.470463e-06
	1.031012e-06	-7.846156e-06	0.05122011	-0.02247427	-1.666205e-06	-2.470463e-06	-0.06586585	-0.05592256
1.7e+08	-0.07080358	-0.05086873	-8.883613e-07	-3.854544e-06	0.04715353	-0.02930107	7.728531e-07	-7.099372e-06
	-8.883612e-07	-3.854544e-06	-0.07133416	-0.05032646	8.85903e-06	-2.669679e-05	0.04692383	-0.02863242
	0.04715353	-0.02930107	8.85903e-06	-2.669679e-05	-0.07081059	-0.05091771	-1.645324e-06	-1.722928e-06
	7.728531e-07	-7.099372e-06	0.04692383	-0.02863242	-1.645324e-06	-1.722928e-06	-0.07122514	-0.05037559
1.8e+08	-0.07502004	-0.04493341	-8.890588e-07	-2.98058e-06	0.04163606	-0.03469203	5.713301e-07	-6.388299e-06
	-8.890588e-07	-2.98058e-06	-0.07551597	-0.04430658	7.332112e-06	-2.449146e-05	0.04135335	-0.03393656
	0.04163606	-0.03469203	7.332112e-06	-2.449146e-05	-0.0750715	-0.04498431	-1.525799e-06	-1.010511e-06
	5.713301e-07	-6.388299e-06	0.04135335	-0.03393656	-1.525798e-06	-1.010511e-06	-0.07544774	-0.04437638
1.9e+08	-0.07809731	-0.0387696	-7.729854e-07	-2.157632e-06	0.0350171	-0.03899633	4.29594e-07	-5.713196e-06
	-7.729854e-07	-2.157632e-06	-0.07854812	-0.03806624	6.07382e-06	-2.229941e-05	0.03468669	-0.03814042
	0.0350171	-0.03899633	6.07382e-06	-2.229941e-05	-0.07820208	-0.03881775	-1.307017e-06	-3.478655e-07
	4.29594e-07	-5.713196e-06	0.03468669	-0.03814042	-1.307017e-06	-3.478655e-07	-0.07853138	-0.03815166
2e+08	-0.08007712	-0.03259223	-5.439616e-07	-1.402946e-06	0.02751636	-0.04200395	3.492222e-07	-5.076833e-06
	-5.439616e-07	-1.402946e-06	-0.08047441	-0.0318216	5.088327e-06	-2.014392e-05	0.02714666	-0.04103459
	0.02751636	-0.04200395	5.088327e-06	-2.014392e-05	-0.08024299	-0.03262953	-9.951955e-07	2.50285e-07
	3.492222e-07	-5.076833e-06	0.02714666	-0.04103459	-9.951955e-07	2.50285e-07	-0.0805186	-0.03191476
2.1e+08	-0.08104155	-0.02659318	-2.121466e-07	-7.331698e-07	0.0193913	-0.04354889	3.28543e-07	-4.483251e-06
	-2.121466e-07	-7.331698e-07	-0.08137901	-0.0257662	4.371031e-06	-1.80564e-05	0.01899379	-0.0424544
	0.0193913	-0.04354889	4.371031e-06	-1.80564e-05	-0.08127454	-0.02660907	-5.992525e-07	7.6847e-07
	3.28543e-07	-4.483251e-06	0.01899379	-0.0424544	-5.992525e-07	7.6847e-07	-0.08149214	-0.02585561
2.2e+08	-0.08110735	-0.02093423	2.086381e-07	-1.632978e-07	0.01092874	-0.04351552	3.64241e-07	-3.937042e-06
	2.086382e-07	-1.632978e-07	-0.0813811	-0.02006242	3.911286e-06	-1.606561e-05	0.01051785	-0.04228624
	0.01092874	-0.04351552	3.911286e-06	-1.606561e-05	-0.08141042	-0.02091627	-1.320533e-07	1.193548e-06
	3.64241e-07	-3.937042e-06	0.01051785	-0.04228624	-1.320533e-07	1.193548e-06	-0.08156799	-0.02013439
2.3e+08	-0.08041646	-0.01574069	7.013731e-07	2.942068e-07	0.002435259	-0.041844	4.515534e-07	-3.442884e-06
	7.013731e-07	2.942068e-07	-0.08062515	-0.01483572	3.692664e-06	-1.419949e-05	0.002027929	-0.04047294
	0.002435258	-0.041844	3.692664e-06	-1.419949e-05	-0.08078986	-0.01567596	3.907501e-07	1.514746e-06
	4.515534e-07	-3.442884e-06	0.002027929	-0.04047294	3.907502e-07	1.514746e-06	-0.08088761	-0.01487564
2.4e+08	-0.07912702	-0.01109762	1.24662e-06	6.299973e-07	-0.005772963	-0.03853324	5.845347e-07	-3.005247e-06
	1.24662e-06	6.299973e-07	-0.07927166	-0.01017066	3.693767e-06	-1.248406e-05	-0.006157707	-0.03701672
	-0.005772963	-0.03853324	3.693767e-06	-1.248406e-05	-0.07956822	-0.01097257	9.513583e-07	1.724153e-06
	5.845347e-07	-3.005247e-06	-0.006157707	-0.03701672	9.513583e-07	1.724153e-06	-0.07960839	-0.01016294
2.5e+08	-0.07740322	-0.007047613	1.82327e-06	8.382582e-07	-0.0133815	-0.03364254	7.561386e-07	-2.62814e-06
	1.82327e-06	8.382582e-07	-0.07748698	-0.006108777	3.888745e-06	-1.094259e-05	-0.01372319	-0.03198074
	-0.0133815	-0.03364254	3.888745e-06	-1.094259e-05	-0.07790692	-0.006849665	1.530511e-06	1.817106e-06
	7.561386e-07	-2.62814e-06	-0.01372319	-0.03198074	1.530511e-06	1.817106e-06	-0.07789336	-0.00603857
2.6e+08	-0.07540512	-0.003592067	2.409378e-06	9.169668e-07	-0.02008938	-0.02729141	9.583985e-07	-2.314895e-06
	2.409378e-06	9.169668e-07	-0.07543292	-0.002649976	4.247991e-06	-9.594847e-06	-0.02036693	-0.02548884
	-0.02008938	-0.02729141	4.247991e-06	-9.594847e-06	-0.0759637	-0.003309215	2.108198e-06	1.792439e-06
	9.583985e-07	-2.314895e-06	-0.02036693	-0.02548884	2.108198e-06	1.792439e-06	-0.07590145	-0.002502809
2.7e+08	-0.07327887	-0.0006937056	2.982886e-06	8.678812e-07	-0.0256199	-0.01965617	1.182511e-06	-2.06797e-06
	2.982886e-06	8.678812e-07	-0.07325684	0.0002448553	4.738714e-06	-8.456345e-06	-0.02581251	-0.01772184
	-0.0256199	-0.01965617	4.738714e-06	-8.456345e-06	-0.07388247	-0.0003153924	2.664341e-06	1.6525e-06
	1.182511e-06	-2.06797e-06	-0.02581251	-0.01772184	2.664341e-06	1.6525e-06	-0.07377717	0.0004820017
2.8e+08	-0.07114722	0.001718323	3.522392e-06	6.965082e-07	-0.02973236	-0.01096528	1.41898e-06	-1.888761e-06
	3.522392e-06	6.965082e-07	-0.07108216	0.002648624	5.325657e-06	-7.537899e-06	-0.02982052	-0.008912816
	-0.02973236	-0.01096528	5.325657e-06	-7.537899e-06	-0.07178408	0.002200615	3.179493e-06	1.403119e-06
	1.41898e-06	-1.888761e-06	-0.02982052	-0.008912816	3.179493e-06	1.403119e-06	-0.07164134	0.002986561
2.9e+08	-0.06910269	0.003740395	4.007799e-06	4.118582e-07	-0.03223174	-0.001491882	1.657767e-06	-1.777389e-06
	4.007799e-06	4.118582e-07	-0.06900138	0.004659753	5.971896e-06	-6.845e-06	-0.03219828	0.0006606394
	-0.03223174	-0.001491882	5.971896e-06	-6.845e-06	-0.06975956	0.004333686	3.635466e-06	1.053415e-06
	1.657767e-06	-1.777389e-06	-0.03219828	0.0006606399	3.635466e-06	1.053415e-06	-0.06958437	0.005107428
3e+08	-0.0672017	0.005485726	4.420852e-06	2.609415e-08	-0.03297674	0.008455547	1.888486e-06	-1.732524e-06
	4.420852e-06	2.609415e-08	-0.06707032	0.00639329	6.639716e-06	-6.377475e-06	-0.03280781	0.0106861
	-0.03297674	0.008455547	6.639716e-06	-6.377475e-06	-0.06786423	0.006194748	4.015855e-06	6.154763e-07
	1.888486e-06	-1.732524e-06	-0.03280781	0.0106861	4.015855e-06	6.154763e-07	-0.06766049	0.006956884
3.1e+08	-0.06546195	0.007073859	4.745688e-06	-4.458368e-07	-0.0318868	0.01854439	2.100679e-06	-1.751209e-06
	4.745688e-06	-4.458368e-07	-0.06530557	0.007970283	7.291602e-06	-6.129317e-06	-0.03157279	0.02082763
	-0.0318868	0.01854439	7.291602e-06	-6.129317e-06	-0.06611474	0.007901525	4.306587e-06	1.040152e-07
	2.100679e-06	-1.751209e-06	-0.03157279	0.02082763	4.306587e-06	1.040152e-07	-0.06588475	0.008653487
3.2e+08	-0.0638619	0.008620363	4.969151e-06	-9.866806e-07	-0.02894576	0.02843004	2.284107e-06	-1.828733e-06
	4.969151e-06	-9.866806e-07	-0.06368401	0.009507276	7.891233e-06	-6.088512e-06	-0.02848208	0.03073814
	-0.02894576	0.02843004	7.891233e-06	-6.088512e-06	-0.06448874	0.009566311	4.496286e-06	-4.640957e-07
	2.284107e-06	-1.828733e-06	-0.02848208	0.03073814	4.496286e-06	-4.640957e-07	-0.0642331	0.01030978
3.3e+08	-0.06234359	0.01022554	5.081095e-06	-1.577352e-06	-0.0242028	0.03776847	2.429113e-06	-1.958599e-06
	5.081095e-06	-1.577352e-06	-0.06214594	0.01110487	8.404535e-06	-6.237307e-06	-0.02359044	0.04007226
	-0.0242028	0.03776847	8.404535e-06	-6.237307e-06	-0.06292791	0.01128727	4.576549e-06	-1.070316e-06
	2.429113e-06	-1.958599e-06	-0.02359044	0.04007226	4.576549e-06	-1.070316e-06	-0.06264543	0.01202344
3.4e+08	-0.06081749	0.01196498	5.074661e-06	-2.197407e-06	-0.01777178	0.04622968	2.527048e-06	-2.132523e-06
	5.074661e-06	-2.197407e-06	-0.0606001	0.01283832	8.80079e-06	-6.552471e-06	-0.01701762	0.04849971
	-0.01777178	0.04622968	8.80079e-06	-6.552471e-06	-0.06134327	0.01313689	4.54225e-06	-1.694964e-06
	2.527048e-06	-2.132523e-06	-0.01701762	0.04849971	4.54225e-06	-1.694964e-06	-0.06103116	0.01386583
3.5e+08	-0.05917087	0.01388151	4.946374e-06	-2.825571e-06	-0.00982671	0.05350896	2.570652e-06	-2.340602e-06
	4.946374e-06	-2.825571e-06	-0.0589322	0.01474947	9.053541e-06	-7.005911e-06	-0.008943605	0.05571682
	-0.00982671	0.05350896	9.053541e-06	-7.005911e-06	-0.05962226	0.01515568	4.391609e-06	-2.317748e-06
	2.570652e-06	-2.340602e-06	-0.008943605	0.05571682	4.391609e-06	-2.317748e-06	-0.05927656	0.01587574
3.6e+08	-0.05727684	0.01597969	4.696288e-06	-3.440224e-06	-0.0005960536	0.05933837	2.554467e-06	-2.57153e-06
	4.696288e-06	-3.440224e-06	-0.05701424	0.01684127	9.141527e-06	-7.565434e-06	0.0003974186	0.06145788
	-0.0005960536	0.05933837	9.141527e-06	-7.565434e-06	-0.05763938	0.01734492	4.126321e-06	-2.918332e-06
	2.554467e-06	-2.57153e-06	0.0003974186	0.06145788	4.126321e-06	-2.918332e-06	-0.0572555	0.01805222
3.7e+08	-0.05500589	0.01822207	4.328005e-06	-4.019972e-06	0.009645999	0.06349621	2.475166e-06	-2.812981e-06
	4.328005e-06	-4.019972e-06	-0.05471619	0.01907428	9.049357e-06	-8.195685e-06	0.01072601	0.06550457
	0.009645999	0.06349621	9.049357e-06	-8.195685e-06	-0.05526677	0.01966462	3.751473e-06	-3.476919e-06
	2.475166e-06	-2.812981e-06	0.01072601	0.06550457	3.751473e-06	-3.476919e-06	-0.05484019	0.02035277
3.8e+08	-0.05223656	0.02052955	3.848656e-06	-4.544154e-06	0.02058884	0.06581355	2.331792e-06	-3.052034e-06
	3.848656e-06	-4.544154e-06	-0.05191673	0.02136716	8.768025e-06	-8.859214e-06	0.02172693	0.06769238
	0.02058884	0.06581355	8.768025e-06	-8.859214e-06	-0.05238479	0.02203343	3.275454e-06	-3.974763e-06
	2.331792e-06	-3.052034e-06	0.02172693	0.06769238	3.275454e-06	-3.974763e-06	-0.05191194	0.02269341
3.9e+08	-0.04886649	0.0227829	3.268861e-06	-4.993431e-06	0.03189559	0.0661807	2.125938e-06	-3.27567e-06
	3.268861e-06	-4.993431e-06	-0.0485144	0.0235984	8.295276e-06	-9.517539e-06	0.03305955	0.06791685
	0.03189559	0.0661807	8.295276e-06	-9.517539e-06	-0.04889456	0.02432984	2.709809e-06	-4.394756e-06
	2.125938e-06	-3.27567e-06	0.03305955	0.06791685	2.709809e-06	-4.394756e-06	-0.04837356	0.0249501
4e+08	-0.04482376	0.02482905	2.602487e-06	-5.350364e-06	0.04321489	0.0645494	1.861726e-06	-3.471355e-06
	2.602487e-06	-5.350364e-06	-0.044439	0.02561282	7.635659e-06	-1.013249e-05	0.04436989	0.06613572
	0.04321489	0.0645494	7.635659e-06	-1.013249e-05	-0.04472665	0.02639979	2.068886e-06	-4.721946e-06
	1.861726e-06	-3.471355e-06	0.04436989	0.06613572	2.068886e-06	-4.721946e-06	-0.04415814	0.02696661
4.1e+08	-0.04007526	0.02648902	1.866398e-06	-5.600028e-06	0.05419145	0.06093456	1.545713e-06	-3.627593e-06
	1.866398e-06	-5.600028e-06	-0.03965976	0.02722972	6.800441e-06	-1.066739e-05	0.05530101	0.06237036
	0.05419145	0.06093456	6.800441e-06	-1.066739e-05	-0.0398512	0.02806288	1.369507e-06	-4.944022e-06
	1.545713e-06	-3.627593e-06	0.05530101	0.06237036	1.369507e-06	-4.944022e-06	-0.03923907	0.02856089
4.2e+08	-0.03463278	0.02756555	1.080045e-06	-5.730566e-06	0.06447741	0.05541394	1.186629e-06	-3.734398e-06
	1.080045e-06	-5.730566e-06	-0.03419151	0.02825069	5.807244e-06	-1.108807e-05	0.06550471	0.05670521
	0.06447741	0.05541394	5.807244e-06	-1.108807e-05	-0.03428374	0.02912157	6.30487e-07	-5.05176e-06
	1.186629e-06	-3.734398e-06	0.06550471	0.05670521	6.30487e-07	-5.05176e-06	-0.03363577	0.02953442
4.3e+08	-0.02855854	0.02785667	2.648805e-07	-5.733672e-06	0.07374278	0.0481249	7.949791e-07	-3.783796e-06
	2.648805e-07	-5.733672e-06	-0.0280999	0.02847326	4.679462e-06	-1.136416e-05	0.07465183	0.04928444
	0.07374278	0.0481249	4.679462e-06	-1.136416e-05	-0.02808985	0.02937437	-1.279717e-07	-5.039356e-06
	7.949791e-07	-3.783796e-06	0.07465183	0.04928444	-1.279717e-07	-5.039356e-06	-0.02741815	0.02968564
4.4e+08	-0.02196611	0.02716653	-5.562606e-07	-5.605038e-06	0.08168503	0.03926129	3.825823e-07	-3.770123e-06
	-5.562606e-07	-5.605038e-06	-0.02150232	0.02770201	3.445559e-06	-1.146989e-05	0.08244192	0.04030852
	0.08168503	0.03926129	3.445559e-06	-1.146989e-05	-0.02138671	0.02862593	-8.848537e-07	-4.904675e-06
	3.825823e-07	-3.770123e-06	0.08244192	0.04030852	-8.848537e-07	-4.904675e-06	-0.02070798	0.0288201
4.5e+08	-0.01502045	0.0253168	-1.359968e-06	-5.344605e-06	0.08803885	0.02906789	-3.798617e-08	-3.690235e-06
	-1.359968e-06	-5.344605e-06	-0.01456761	0.02575984	2.138188e-06	-1.13849e-05	0.08861287	0.03002847
	0.08803885	0.02906789	2.138188e-06	-1.13849e-05	-0.0143425	0.02669948	-1.619081e-06	-4.649375e-06
	-3.798617e-08	-3.690235e-06	0.08861287	0.03002847	-1.619081e-06	-4.649375e-06	-0.0136782	0.026763
4.6e+08	-0.007933712	0.02215961	-2.123115e-06	-4.95667e-06	0.09258391	0.01783347	-4.539855e-07	-3.54359e-06
	-2.123115e-06	-4.95667e-06	-0.007511861	0.0225011	7.931337e-07	-1.109494e-05	0.09294875	0.01873878
	0.09258391	0.01783347	7.931337e-07	-1.109494e-05	-0.007172161	0.02344963	-2.310215e-06	-4.27887e-06
	-4.539855e-07	-3.54359e-06	0.09294875	0.01873878	-2.310215e-06	-4.27887e-06	-0.006548339	0.02337207
4.7e+08	-0.0009594884	0.01759005	-2.823759e-06	-4.449825e-06	0.09515256	0.005882716	-8.530777e-07	-3.332165e-06
	-2.823759e-06	-4.449825e-06	-0.0005922338	0.01782416	-5.517498e-07	-1.059235e-05	0.09528733	0.006769075
	0.09515256	0.005882716	-5.517498e-07	-1.059235e-05	-0.0001321536	0.01877283	-2.939187e-06	-3.802152e-06
	-8.530778e-07	-3.332165e-06	0.09528733	0.006769075	-2.939187e-06	-3.802152e-06	0.0004209283	0.01854809
4.8e+08	0.005616571	0.01155274	-3.441974e-06	-3.836585e-06	0.09563528	-0.006432474	-1.22385e-06	-3.060198e-06
	-3.441974e-06	-3.836585e-06	0.005902376	0.0116778	-1.857729e-06	-9.876139e-06	0.09552538	-0.005524713
